# Hz S RI R 50
2400000000.0000000000 0.171147450804710388183593750000 0.040252644568681716918945312500 0.002677333075553178787231445312 0.000207345598028041395262041635 0 0 0 0 
2400166666.6666665077 0.171924874186515808105468750000 0.039753243327140808105468750000 0.002531027887016534805297851562 -0.000025870178433251570573056868 0 0 0 0 
2400333333.3333334923 0.172423124313354492187500000000 0.039118986576795578002929687500 0.002722391625866293907165527344 -0.000018197955796495079994201660 0 0 0 0 
2400500000.0000000000 0.172693461179733304122763115629 0.038339894264936447143554687500 0.002739721210673450989964150537 -0.000154039356857538196161547250 0 0 0 0 
2400666666.6666665077 0.172824233770370511154013115629 0.037748035043478012084960937500 0.002729034516960382895228720557 -0.000170138824614696204662322998 0 0 0 0 
2400833333.3333334923 0.173451304435730008224325615629 0.037283834069967269897460937500 0.002682328457012772993800497900 -0.000297814811347052509158533917 0 0 0 0 
2401000000.0000000000 0.173507392406463595291299384371 0.036565516144037246704101562500 0.002903848653659224943873740088 -0.000402658159146085381507873535 0 0 0 0 
2401166666.6666665077 0.173689574003219604492187500000 0.035983320325613021850585937500 0.002648747758939861817600869287 -0.000416417868109419887692052020 0 0 0 0 
2401333333.3333334923 0.173456311225891113281250000000 0.035234764218330383300781250000 0.002748458180576562881469726562 -0.000816836894955486059188842773 0 0 0 0 
2401500000.0000000000 0.173600271344184903243856865629 0.034855835139751427387277971093 0.002609258983284235000610351562 -0.000788527482654899358749389648 0 0 0 0 
2401666666.6666665077 0.173733159899711608886718750000 0.034179169684648506855051408593 0.002612304873764514923095703125 -0.001029410515911876938463520581 0 0 0 0 
2401833333.3333334923 0.173438325524330111404580634371 0.033378615975379936908762346093 0.002606569090858101844787597656 -0.000914771284442394971847534180 0 0 0 0 
2402000000.0000000000 0.173116505146026611328125000000 0.032621286809444427490234375000 0.002505999756976962089538574219 -0.001094540115445852062822651440 0 0 0 0 
2402166666.6666665077 0.172940060496330288986044365629 0.031521804630756378173828125000 0.002323016989976168112513876807 -0.001305736019276082949397421729 0 0 0 0 
2402333333.3333334923 0.172696068882942199707031250000 0.030995780602097511291503906250 0.002122667618095874786376953125 -0.001322523341514169952989887769 0 0 0 0 
2402500000.0000000000 0.172736749053001403808593750000 0.030077679082751270639439766796 0.002015255158767104148864746094 -0.001336280140094459056854248047 0 0 0 0 
2402666666.6666665077 0.172289848327636690994424384371 0.029203206300735470163365548046 0.001977281179279088973999023438 -0.001533826347440480969072651440 0 0 0 0 
2402833333.3333334923 0.171761289238929804046307481258 0.028127089142799380910853201954 0.001794628216885030052782368237 -0.001507086679339409091352153247 0 0 0 0 
2403000000.0000000000 0.171605691313743591308593750000 0.027009502053260799753209298046 0.001510806614533066966413188403 -0.001437113736756145954132080078 0 0 0 0 
2403166666.6666665077 0.171323060989379910568075615629 0.025818552821874618530273437500 0.001629823469556868076324462891 -0.001575988717377186038373637622 0 0 0 0 
2403333333.3333334923 0.170841649174690302093182481258 0.024825738742947578430175781250 0.001450239680707454898236918872 -0.001471188734285532994511269678 0 0 0 0 
2403500000.0000000000 0.170497521758079501053018134371 0.023515846580266949045201485546 0.001166361733339726924896240234 -0.001448343275114893913269042969 0 0 0 0 
2403666666.6666665077 0.170258209109306307693643134371 0.021932488307356830942174141796 0.001207396737299859957454062354 -0.001440025400370358987095498193 0 0 0 0 
2403833333.3333334923 0.169801414012908907791299384371 0.020731572061777118337611014454 0.001134005025960505008697509766 -0.001439954736270010905024863135 0 0 0 0 
2404000000.0000000000 0.169505327939987210372763115629 0.019244840368628498422642891796 0.000942748971283435821533203125 -0.001255155308172106959699321216 0 0 0 0 
2404166666.6666665077 0.169282928109169006347656250000 0.017607456073164939880371093750 0.000967604457400739192962646484 -0.001179473940283060073852539062 0 0 0 0 
2404333333.3333334923 0.168979868292808504959268134371 0.016116622835397720336914062500 0.000918528006877750158309936523 -0.001283626770600676970240927588 0 0 0 0 
2404500000.0000000000 0.168480113148689297775106865629 0.014580905437469480687151524023 0.001029023784212768077850341797 -0.001065820804797112941741943359 0 0 0 0 
2404666666.6666665077 0.168516546487808199783486884371 0.012859887443482879293421561329 0.000805110612418502569198608398 -0.001043435535393655083299946362 0 0 0 0 
2404833333.3333334923 0.168317541480064392089843750000 0.011169560253620149439801600977 0.000957734126131981611251831055 -0.000957750773523002862930297852 0 0 0 0 
2405000000.0000000000 0.168200820684433011154013115629 0.009402029216289520263671875000 0.000835302460473030805587768555 -0.000840122345834970474243164062 0 0 0 0 
2405166666.6666665077 0.168079316616058405120526231258 0.007667514961212874326224042676 0.001134989550337194962742470850 -0.000723582576029002666473388672 0 0 0 0 
2405333333.3333334923 0.168117552995681790450888115629 0.005685430951416493329519941113 0.000722767028491944074630737305 -0.000870732648763805627822875977 0 0 0 0 
2405500000.0000000000 0.167972654104232788085937500000 0.004030093550682067871093750000 0.001080991118215024904963827979 -0.000691252702381461858749389648 0 0 0 0 
2405666666.6666665077 0.167963892221450805664062500000 0.002173204440623521804809570312 0.001178994541987776973127055591 -0.000608054921030998229980468750 0 0 0 0 
2405833333.3333334923 0.167800039052963312347088731258 0.000397842464735731482505798340 0.001125434529967606067657470703 -0.000794426945503801107406616211 0 0 0 0 
2406000000.0000000000 0.167825385928153991699218750000 -0.001748684328049421093584370190 0.001394962775520979924442910303 -0.000732438522391021251678466797 0 0 0 0 
2406166666.6666665077 0.167697072029113797286825615629 -0.003231381298974155946018838037 0.001440883846953511021257710034 -0.000648098299279808998107910156 0 0 0 0 
2406333333.3333334923 0.167928710579872103592080634371 -0.005201417487114667892456054688 0.001320083509199321053148579175 -0.000924716179724782705307006836 0 0 0 0 
2406500000.0000000000 0.167913585901260403732138115629 -0.007093742024153470993041992188 0.001508004381321371035334921729 -0.000911234528757631778717041016 0 0 0 0 
2406666666.6666665077 0.167797669768333407303018134371 -0.008608514443039894104003906250 0.001671570120379328944562602466 -0.001014475361444056034088134766 0 0 0 0 
2406833333.3333334923 0.167819842696189908126669365629 -0.010509080253541469573974609375 0.001670967438258230903028178638 -0.000963425496593117713928222656 0 0 0 0 
2407000000.0000000000 0.167975157499313410003338731258 -0.012248213402926920109758945898 0.001688160584308207035064697266 -0.001186612993478775024414062500 0 0 0 0 
2407166666.6666665077 0.168148174881935091873330634371 -0.013603115454316139221191406250 0.001774810603819787935969687354 -0.001258750446140765926958393628 0 0 0 0 
2407333333.3333334923 0.168067157268524197677450615629 -0.015215984545648099726666835352 0.001602199161425233104108500903 -0.001334478380158544020411826025 0 0 0 0 
2407500000.0000000000 0.168095096945762606521768134371 -0.016473468393087390554407889454 0.001778530073352158069610595703 -0.001453076605685055039049458081 0 0 0 0 
2407666666.6666665077 0.168219745159149197677450615629 -0.017735069617629051208496093750 0.001731099211610854105708456885 -0.001735362573526799895642924731 0 0 0 0 
2407833333.3333334923 0.168118134140968294998330634371 -0.019115205854177478445032889454 0.001587333856150507926940917969 -0.001862798235379160101052309351 0 0 0 0 
2408000000.0000000000 0.168633297085761996170205634371 -0.020168533548712730407714843750 0.001458365586586296992060995947 -0.001886253361590207056758261572 0 0 0 0 
2408166666.6666665077 0.168661296367645291427450615629 -0.021118711680173870431920235546 0.001538156648166477897046733325 -0.001908465172164141914964985425 0 0 0 0 
2408333333.3333334923 0.169046223163604708572549384371 -0.021983645856380459177037423046 0.001367414137348532893537211841 -0.001989717595279217200038290869 0 0 0 0 
2408500000.0000000000 0.169080659747123690506143134371 -0.022896723821759220468541329296 0.001276202383451163985608745044 -0.001969402888789772987365722656 0 0 0 0 
2408666666.6666665077 0.169411495327949496170205634371 -0.023753056302666660654088204296 0.001275478047318757014033652197 -0.002038513310253620147705078125 0 0 0 0 
2408833333.3333334923 0.169657111167907687088174384371 -0.024649968370795249938964843750 0.001143614063039422035217285156 -0.001987688476219772858860634912 0 0 0 0 
2409000000.0000000000 0.170028150081634493728799384371 -0.025334905833005908620814139454 0.001091569429263472990748740088 -0.001934029627591371969935751807 0 0 0 0 
2409166666.6666665077 0.170504659414291409591513115629 -0.026055773720145228994349295704 0.001146887778304517052294086987 -0.002113884780555963949916220557 0 0 0 0 
2409333333.3333334923 0.170875638723373413085937500000 -0.026734180748462680471400076954 0.001110112760215997912763286060 -0.002038418781012297110316611182 0 0 0 0 
2409500000.0000000000 0.171157613396644592285156250000 -0.027737613767385479318638985546 0.001034584362059832052943564307 -0.002147978171706200079676962744 0 0 0 0 
2409666666.6666665077 0.171352311968803405761718750000 -0.028434388339519500732421875000 0.001132046338170767047284770435 -0.002180532319471240043640136719 0 0 0 0 
2409833333.3333334923 0.171557322144508389571981865629 -0.028828576207160949707031250000 0.000985237187705934047698974609 -0.002207752084359527067897177588 0 0 0 0 
2410000000.0000000000 0.171798259019851712325888115629 -0.029644101858139041555384451954 0.000939973862841725349426269531 -0.002391511108726263046264648438 0 0 0 0 
2410166666.6666665077 0.172010734677314813811932481258 -0.030347827821969989431361014454 0.001012773835100233988520956885 -0.002400400349870324134826660156 0 0 0 0 
2410333333.3333334923 0.171894639730453491210937500000 -0.030959945172071460378626639454 0.000925788772292435169219970703 -0.002531824400648475126979208838 0 0 0 0 
2410500000.0000000000 0.171993449330329895019531250000 -0.031699273735284812236745466407 0.000928521971218287944793701172 -0.002602789318189024925231933594 0 0 0 0 
2410666666.6666665077 0.171788975596427889724893134371 -0.032495062798261642456054687500 0.000866135058458894491195678711 -0.002617088146507740020751953125 0 0 0 0 
2410833333.3333334923 0.171805202960967989822549384371 -0.032987494021654129028320312500 0.000929684436414390802383422852 -0.002735234564170240922215127100 0 0 0 0 
2411000000.0000000000 0.171559318900108309646768134371 -0.033566571772098541259765625000 0.000863759370986372232437133789 -0.002950639231130481199977255713 0 0 0 0 
2411166666.6666665077 0.171316891908645602127236884371 -0.034288734197616577148437500000 0.000770716345869004726409912109 -0.002985017141327261924743652344 0 0 0 0 
2411333333.3333334923 0.171168938279151888748330634371 -0.034793518483638763427734375000 0.000592964177485555410385131836 -0.003184067783877253966090536963 0 0 0 0 
2411500000.0000000000 0.170525729656219510177450615629 -0.035612232983112342143972028907 0.000482603296404704505771082745 -0.003264750353991984887364052881 0 0 0 0 
2411666666.6666665077 0.170470237731933593750000000000 -0.036284230649471282958984375000 0.000336512865033000707626342773 -0.003492416581138968901393271338 0 0 0 0 
2411833333.3333334923 0.170136511325836209396200615629 -0.036741599440574652934987653907 0.000327965040924027616351527081 -0.003558579599484800858738564600 0 0 0 0 
2412000000.0000000000 0.169780060648918207366619981258 -0.037657693028450012207031250000 -0.000095125782536342740058898926 -0.003775042016059159798863076318 0 0 0 0 
2412166666.6666665077 0.169057145714759798904580634371 -0.038338135927915573120117187500 -0.000179509370354935499742785043 -0.003874948015436530113220214844 0 0 0 0 
2412333333.3333334923 0.168673023581504794021768134371 -0.039205051958560936664621721093 -0.000351961847627535516589564191 -0.003751433920115232901332236182 0 0 0 0 
2412500000.0000000000 0.167869940400123596191406250000 -0.039941493421792977069895158593 -0.000617685320321470499038696289 -0.003917081281542778015136718750 0 0 0 0 
2412666666.6666665077 0.167383506894111605545205634371 -0.041082069277763366699218750000 -0.000926385167986154556274414062 -0.003945672418922185897827148438 0 0 0 0 
2412833333.3333334923 0.166764810681343106368856865629 -0.041843134909868240356445312500 -0.001235014293342828967450786060 -0.004057128448039293289184570312 0 0 0 0 
2413000000.0000000000 0.166001290082931490799111884371 -0.042569458484649658203125000000 -0.001535244751721620993373251807 -0.003770139999687672095057822119 0 0 0 0 
2413166666.6666665077 0.165519103407859802246093750000 -0.043686967343091971660573591407 -0.001837571151554584936854697119 -0.003869206877425312995910644531 0 0 0 0 
2413333333.3333334923 0.164564743638038607498330634371 -0.044760167598724372173268903907 -0.002062466228380798859837197412 -0.003562093945220112800598144531 0 0 0 0 
2413500000.0000000000 0.163883447647094698806924384371 -0.045693915337324142456054687500 -0.002142074517905712127685546875 -0.003433120204135775999781943213 0 0 0 0 
2413666666.6666665077 0.163353994488716097732705634371 -0.046762790530920028686523437500 -0.002317896578460932211634970557 -0.003248239634558558897731161963 0 0 0 0 
2413833333.3333334923 0.162597060203552301604901231258 -0.047796234488487236713449846093 -0.002513057086616754965541220557 -0.002965404419228434996363974463 0 0 0 0 
2414000000.0000000000 0.161758840084075899978799384371 -0.048994060605764389038085937500 -0.002752553671598434014561318506 -0.002973492024466394944431923975 0 0 0 0 
2414166666.6666665077 0.161244764924049405196981865629 -0.050066761672496802593190778907 -0.002814103849232196807861328125 -0.002665801672264934019801474463 0 0 0 0 
2414333333.3333334923 0.160652205348014803787393134371 -0.051042146980762481689453125000 -0.002897449769079685211181640625 -0.002413607900962233977076865088 0 0 0 0 
2414500000.0000000000 0.160311326384544400314169365629 -0.052285898476839072490651716407 -0.002964720828458666801452636719 -0.002329779788851737976074218750 0 0 0 0 
2414666666.6666665077 0.159643292427062988281250000000 -0.053285665810108191753347028907 -0.002969329012557864189147949219 -0.002174264518544077873229980469 0 0 0 0 
2414833333.3333334923 0.159207895398140009124432481258 -0.054565146565437316894531250000 -0.002861863235011696815490722656 -0.001930709579028188965441059644 0 0 0 0 
2415000000.0000000000 0.158776402473449707031250000000 -0.055751085281372070312500000000 -0.003021500539034605026245117188 -0.001863900222815572998644184644 0 0 0 0 
2415166666.6666665077 0.158502817153930691818075615629 -0.057066477835178382183034528907 -0.003014732152223587036132812500 -0.001641206326894461891771626050 0 0 0 0 
2415333333.3333334923 0.158347606658935602386151231258 -0.058585096150636672973632812500 -0.003095267107710241837742470850 -0.001717886305414140007616352612 0 0 0 0 
2415500000.0000000000 0.158042058348655700683593750000 -0.059706199914217002178151716407 -0.003152339253574610190150595557 -0.001521851168945431926129985278 0 0 0 0 
2415666666.6666665077 0.157897815108299310882244981258 -0.061114259064197540283203125000 -0.003038304625079036192653036963 -0.001339407404884696006774902344 0 0 0 0 
2415833333.3333334923 0.157649591565132113357705634371 -0.062600158154964447021484375000 -0.003174230223521589799168252100 -0.001382185262627900080439902197 0 0 0 0 
2416000000.0000000000 0.157332792878150912185830634371 -0.064077541232109069824218750000 -0.003278138348832726912257529150 -0.001149746356531978087184286963 0 0 0 0 
2416166666.6666665077 0.157415464520454406738281250000 -0.065546125173568725585937500000 -0.003061668016016482873203896631 -0.000836546416394412517547607422 0 0 0 0 
2416333333.3333334923 0.157069444656372098068075615629 -0.066952615976333618164062500000 -0.003179028397426009178161621094 -0.000694606802426278591156005859 0 0 0 0 
2416500000.0000000000 0.156959161162376403808593750000 -0.068432793021202087402343750000 -0.003177678445354104042053222656 -0.000611563038546591997146606445 0 0 0 0 
2416666666.6666665077 0.156728610396385192871093750000 -0.069841086864471435546875000000 -0.003262024139985442161560058594 -0.000624651322141289710998535156 0 0 0 0 
2416833333.3333334923 0.156694501638412503341513115629 -0.071208141744136810302734375000 -0.003188076661899685859680175781 -0.000348491477780044078826904297 0 0 0 0 
2417000000.0000000000 0.156305879354476900955361884371 -0.072621621191501617431640625000 -0.003001113422214984893798828125 -0.000299209437798708677291870117 0 0 0 0 
2417166666.6666665077 0.156117439270019503494424384371 -0.073750659823417663574218750000 -0.003067603567615150971653603662 -0.000166590820299461511060437613 0 0 0 0 
2417333333.3333334923 0.156030237674713107010049384371 -0.074915878474712371826171875000 -0.003101723734289408163783408057 0.000063541017880197614431381226 0 0 0 0 
2417500000.0000000000 0.155849188566207913497763115629 -0.076073780655860900878906250000 -0.002867411822080612182617187500 0.000195514148799702498033800668 0 0 0 0 
2417666666.6666665077 0.155907198786735506912393134371 -0.076981067657470703125000000000 -0.002827879507094622092006064307 0.000285854213871061801910400391 0 0 0 0 
2417833333.3333334923 0.155726924538612393478231865629 -0.078055821359157562255859375000 -0.002770827617496252059936523438 0.000427824066719040274620056152 0 0 0 0 
2418000000.0000000000 0.155550718307495089431924384371 -0.079060420393943786621093750000 -0.002732201945036650137660361182 0.000471861305413767695426940918 0 0 0 0 
2418166666.6666665077 0.155519932508468600174111884371 -0.079821899533271789550781250000 -0.002666153712198137803318642725 0.000555257836822420358657836914 0 0 0 0 
2418333333.3333334923 0.155638441443443298339843750000 -0.080641023814678192138671875000 -0.002553535159677267074584960938 0.000525184848811477422714233398 0 0 0 0 
2418500000.0000000000 0.155381038784980801681356865629 -0.081490635871887207031250000000 -0.002369598951190710067749023438 0.000595965946558862924575805664 0 0 0 0 
2418666666.6666665077 0.155544623732566805740518134371 -0.082229420542716979980468750000 -0.002346411347389221191406250000 0.000780441972892731428146362305 0 0 0 0 
2418833333.3333334923 0.155304148793220492263955634371 -0.082870438694953918457031250000 -0.002227675402536987824680947412 0.000651730573736131191253662109 0 0 0 0 
2419000000.0000000000 0.155144572257995605468750000000 -0.083475299179553985595703125000 -0.002091247588396071954014443506 0.000763752555940300226211547852 0 0 0 0 
2419166666.6666665077 0.155103519558906610686932481258 -0.084237605333328247070312500000 -0.001916379900649189949035644531 0.000662224134430289268493652344 0 0 0 0 
2419333333.3333334923 0.154777318239212008377236884371 -0.084396935999393463134765625000 -0.001992841949686408042907714844 0.000799184781499207019805908203 0 0 0 0 
2419500000.0000000000 0.154900252819061307052450615629 -0.085167907178401947021484375000 -0.001856449991464615085004496997 0.000655346259009093046188354492 0 0 0 0 
2419666666.6666665077 0.154721155762672396560830634371 -0.085656285285949707031250000000 -0.001883991761133074977277446216 0.000596213329117745161056518555 0 0 0 0 
2419833333.3333334923 0.154358878731727600097656250000 -0.085910409688949584960937500000 -0.001956470310688018798828125000 0.000669148808810859918594360352 0 0 0 0 
