# Hz S RI R 50
2400000000.0000000000 0.172911211848258999923544365629 0.048743680119514472270925153907 -0.000797430810052901506423950195 0.004261573776602745056152343750 0 0 0 0 
2400166666.6666665077 0.173569023609161404708700615629 0.048439260572195053100585937500 -0.000630341004580259323120117188 0.004218796733766794204711914062 0 0 0 0 
2400333333.3333334923 0.173847392201423700530682481258 0.047480292618274688720703125000 -0.000633612158708274364471435547 0.004131530877202749252319335938 0 0 0 0 
2400500000.0000000000 0.174282297492027310470419365629 0.046745352447032928466796875000 -0.000594376644585281610488891602 0.004169876221567392349243164062 0 0 0 0 
2400666666.6666665077 0.174810469150543212890625000000 0.046027813106775276874582658593 -0.000517611217219382524490356445 0.004157220479100942611694335938 0 0 0 0 
2400833333.3333334923 0.175229683518409701248330634371 0.045636262744665152812917341407 -0.000541440094821155071258544922 0.004148770589381456375122070312 0 0 0 0 
2401000000.0000000000 0.175238817930221613128338731258 0.044884119182825088500976562500 -0.000410080712754279375076293945 0.004338003695011138916015625000 0 0 0 0 
2401166666.6666665077 0.175442650914192199707031250000 0.044292807579040527343750000000 -0.000452568958280608112185877667 0.004324463196098805341238691113 0 0 0 0 
2401333333.3333334923 0.175624996423721313476562500000 0.043444085866212851787526716407 -0.000324158376315608620643615723 0.004558501765131950378417968750 0 0 0 0 
2401500000.0000000000 0.175919562578201293945312500000 0.042908430099487311626393903907 -0.000215569845749996602535247803 0.004573522135615348815917968750 0 0 0 0 
2401666666.6666665077 0.175893798470497103592080634371 0.042188167572021477436106096093 -0.000172295389347709688261309213 0.004502858035266399383544921875 0 0 0 0 
2401833333.3333334923 0.175698816776275607010049384371 0.041285414248704910278320312500 -0.000002679764747881562956844130 0.004700809717178344726562500000 0 0 0 0 
2402000000.0000000000 0.175586819648742703536825615629 0.040568709373474121093750000000 0.000091307367256376892328262329 0.004652635660022497177124023438 0 0 0 0 
2402166666.6666665077 0.175448581576347406585369981258 0.039483625441789627075195312500 0.000381025864044204408496302472 0.004711752291768789291381835938 0 0 0 0 
2402333333.3333334923 0.175471171736717196365518134371 0.038515258580446243286132812500 0.000357337587047368288040161133 0.004803647287189961347098066113 0 0 0 0 
2402500000.0000000000 0.175262570381164606292401231258 0.037688039243221282958984375000 0.000596040568780153989791870117 0.004802452400326728820800781250 0 0 0 0 
2402666666.6666665077 0.174873083829879788497763115629 0.036816872656345367431640625000 0.000685674254782497882843017578 0.004895580466836690902709960938 0 0 0 0 
2402833333.3333334923 0.174746036529540987869424384371 0.035457596182823181152343750000 0.000811602978501468896865844727 0.004849740304052829742431640625 0 0 0 0 
2403000000.0000000000 0.174436092376709012130575615629 0.034341558814048767089843750000 0.001054724212735890908482216943 0.004750967491418123245239257812 0 0 0 0 
2403166666.6666665077 0.174157008528709411621093750000 0.032885339111089713359792341407 0.001277112169191241047502827222 0.004757007583975791931152343750 0 0 0 0 
2403333333.3333334923 0.173882350325584411621093750000 0.031593266874551773071289062500 0.001317269518040121035334921729 0.004720421042293310165405273438 0 0 0 0 
2403500000.0000000000 0.173338830471038790603799384371 0.030059957876801490783691406250 0.001472987467423080964329384912 0.004658451303839684400076581738 0 0 0 0 
2403666666.6666665077 0.172957867383956909179687500000 0.028475504368543628347376639454 0.001773249125108123042462993091 0.004669496789574623107910156250 0 0 0 0 
2403833333.3333334923 0.172567576169967706878338731258 0.026864970102906230581263358204 0.001731986994855106093763041919 0.004451734013855457305908203125 0 0 0 0 
2404000000.0000000000 0.172292456030845586578692518742 0.025235472247004508972167968750 0.002047693822532891793491982568 0.004407521337270736694335937500 0 0 0 0 
2404166666.6666665077 0.171822816133499201018963731258 0.023507334291934970510462576954 0.001906308811157942035077739185 0.004286175128072500228881835938 0 0 0 0 
2404333333.3333334923 0.171581059694290188888388115629 0.021741021424531940114954764454 0.002241029404103755950927734375 0.004197548143565654754638671875 0 0 0 0 
2404500000.0000000000 0.170966103672981289962606865629 0.019723178818821910512903983204 0.002467210870236157937290810693 0.004001801367849112424368573926 0 0 0 0 
2404666666.6666665077 0.170833423733711187164630018742 0.017826030030846599233607108204 0.002317546168342233137843466650 0.003976750653237104415893554688 0 0 0 0 
2404833333.3333334923 0.170678257942199707031250000000 0.015971230342984199523925781250 0.002484758384525775909423828125 0.003861797507852315902709960938 0 0 0 0 
2405000000.0000000000 0.170402273535728510100994981258 0.013872829265892510849922381055 0.002510055201128125190734863281 0.003857376053929328918457031250 0 0 0 0 
2405166666.6666665077 0.170402005314826993087606865629 0.011984444223344329488734061329 0.002593589946627616882324218750 0.003808673005551100210902548682 0 0 0 0 
2405333333.3333334923 0.170288994908332796951455634371 0.009827093221247196197509765625 0.002558316336944698853733681787 0.003532203845679759979248046875 0 0 0 0 
2405500000.0000000000 0.170316278934478787521200615629 0.007930020801723003387451171875 0.002823762129992247061488486182 0.003676800988614559173583984375 0 0 0 0 
2405666666.6666665077 0.170530140399932889083700615629 0.006015052553266286849975585938 0.002763052470982075171229697119 0.003650867613032460212707519531 0 0 0 0 
2405833333.3333334923 0.170482262969017001053018134371 0.004058875143527984619140625000 0.002826398005709052085876464844 0.003639867762103676795959472656 0 0 0 0 
2406000000.0000000000 0.170764610171318109710369981258 0.001970525365322827859165810693 0.002915664343163371086120605469 0.003635186469182372093200683594 0 0 0 0 
2406166666.6666665077 0.170996606349945096114950615629 -0.000054789470596006140112876892 0.002900459570810198783874511719 0.003497192868962883949279785156 0 0 0 0 
2406333333.3333334923 0.171348780393600491622763115629 -0.002048807684332131905796670068 0.003183664055541158156154013525 0.003417809493839741186854697119 0 0 0 0 
2406500000.0000000000 0.171884134411811800857705634371 -0.004085324238985776901245117188 0.003344634780660272078273154150 0.003433869220316410064697265625 0 0 0 0 
2406666666.6666665077 0.172066763043403597732705634371 -0.005968216806650161743164062500 0.003522216109558939933776855469 0.003347077406942843957188271631 0 0 0 0 
2406833333.3333334923 0.172759205102920504470986884371 -0.008027668111026287078857421875 0.003557094605639576911926269531 0.003297685412690043015720986475 0 0 0 0 
2407000000.0000000000 0.173420220613479586502236884371 -0.010052351281046870840052420704 0.003892969107255340056178427588 0.003157123457640409903285361182 0 0 0 0 
2407166666.6666665077 0.174184858798980712890625000000 -0.011962783522903919219970703125 0.004062939435243606567382812500 0.003221037099137901826145791162 0 0 0 0 
2407333333.3333334923 0.174591332674026489257812500000 -0.013844100758433340245256992773 0.004224521573632956418509198926 0.003100552363321185111999511719 0 0 0 0 
2407500000.0000000000 0.175401121377945001800213731258 -0.015379383228719229262382306445 0.004455563146620988845825195312 0.002890330273658037185668945312 0 0 0 0 
2407666666.6666665077 0.176180943846702603439169365629 -0.017165780067443851125696951954 0.004625628236681222915649414062 0.002714271191507577896118164062 0 0 0 0 
2407833333.3333334923 0.176608249545097406585369981258 -0.018981000408530238759974295704 0.004908369854092597961425781250 0.002455669222399591965916298975 0 0 0 0 
2408000000.0000000000 0.177475228905677795410156250000 -0.020692465826869010925292968750 0.005039077717810869216918945312 0.002223706105723977088928222656 0 0 0 0 
2408166666.6666665077 0.178133085370063809493856865629 -0.022047162055969238281250000000 0.005070007406175137433523847363 0.002092028968036175207850790869 0 0 0 0 
2408333333.3333334923 0.178934916853904696365518134371 -0.023671239614486690866490548046 0.005161087960004807385916425488 0.001775425393134355978724814307 0 0 0 0 
2408500000.0000000000 0.179528579115867586990518134371 -0.024974483996629718435267264454 0.005328608211129903793334960938 0.001364019466564059040666889722 0 0 0 0 
2408666666.6666665077 0.180054366588592501541299384371 -0.026477588340640071523646170704 0.005267917644232512387747480176 0.001045658951625227928161621094 0 0 0 0 
2408833333.3333334923 0.180640831589698791503906250000 -0.027669394388794898986816406250 0.005294677801430225372314453125 0.000815066217910498380661010742 0 0 0 0 
2409000000.0000000000 0.180992901325225802322549384371 -0.028709134086966521526296247657 0.005301455967128276824951171875 0.000637362012639641761779785156 0 0 0 0 
2409166666.6666665077 0.181375294923782404143963731258 -0.029655370861291888845423514454 0.005081591662019491195678710938 0.000382983940653502886921483173 0 0 0 0 
2409333333.3333334923 0.181950628757476806640625000000 -0.030707694590091708791712576954 0.005135237704962491989135742188 -0.000000160213033950640211420404 0 0 0 0 
2409500000.0000000000 0.182243928313255310058593750000 -0.031611319631338119506835937500 0.005121481139212846755981445312 -0.000258376589044928604930323468 0 0 0 0 
2409666666.6666665077 0.182356387376785306075888115629 -0.032304160296916961669921875000 0.004741453099995852384085370801 -0.000502477807458490133285522461 0 0 0 0 
2409833333.3333334923 0.182798251509666387359942518742 -0.032670438289642327045481096093 0.004753527697175741195678710938 -0.000695032475050538778305053711 0 0 0 0 
2410000000.0000000000 0.183002963662147494217080634371 -0.033272106200456619262695312500 0.004547661170363426208496093750 -0.000910319853574037551879882812 0 0 0 0 
2410166666.6666665077 0.183108687400817898849325615629 -0.033671684563159942626953125000 0.004476949572563171386718750000 -0.000895541917998343706130981445 0 0 0 0 
2410333333.3333334923 0.183035284280777005294638115629 -0.033973138779401779174804687500 0.004384269472211599349975585938 -0.001071309437975287003758095850 0 0 0 0 
2410500000.0000000000 0.183357581496238708496093750000 -0.034346811473369598388671875000 0.004016102757304906845092773438 -0.001212615054100752093671489185 0 0 0 0 
2410666666.6666665077 0.183018937706947298904580634371 -0.034777477383613593364675153907 0.003938416484743356704711914062 -0.001493648742325603961944580078 0 0 0 0 
2410833333.3333334923 0.183107390999794006347656250000 -0.035039290785789489746093750000 0.003946321550756692886352539062 -0.001329033868387341933009482275 0 0 0 0 
2411000000.0000000000 0.182759240269661005218182481258 -0.035349301993846893310546875000 0.003778522834181786017176962744 -0.001601045485585927963256835938 0 0 0 0 
2411166666.6666665077 0.182546675205230712890625000000 -0.035761602222919457172434221093 0.003539208555594087080714560400 -0.001720720785669981999638222803 0 0 0 0 
2411333333.3333334923 0.182223096489906311035156250000 -0.035735417157411582256276716407 0.003372892038896679878234863281 -0.001764793996699153943302773584 0 0 0 0 
2411500000.0000000000 0.181640207767486600021200615629 -0.036419268697500228881835937500 0.003274589311331510977504111182 -0.001823471626266836903215717847 0 0 0 0 
2411666666.6666665077 0.181144446134567288497763115629 -0.036622542887926101684570312500 0.002948123263195157051086425781 -0.001831678440794348933576274341 0 0 0 0 
2411833333.3333334923 0.180505514144897488693075615629 -0.036988500505685813213307966407 0.002979533746838570074794150244 -0.001974997576326131820678710938 0 0 0 0 
2412000000.0000000000 0.179954707622528103927450615629 -0.037449568510055541992187500000 0.002837829291820526123046875000 -0.001786048873327672915217734229 0 0 0 0 
2412166666.6666665077 0.178890660405158996582031250000 -0.037827387452125549316406250000 0.002641319762915372848510742188 -0.001882851473055779933929443359 0 0 0 0 
2412333333.3333334923 0.178228601813316400725994981258 -0.038277935236692428588867187500 0.002514722989872097969055175781 -0.001877346774563193104387592847 0 0 0 0 
2412500000.0000000000 0.177161768078803988357705634371 -0.038854632526636116718332658593 0.002349100308492780165431357275 -0.001634091720916331031202006763 0 0 0 0 
2412666666.6666665077 0.176252275705337496658486884371 -0.039487488567829132080078125000 0.002187480218708515167236328125 -0.001482452964410186030744243091 0 0 0 0 
2412833333.3333334923 0.174964562058448791503906250000 -0.040326792746782302856445312500 0.002323545748367906050441122900 -0.001751569448970258019090961987 0 0 0 0 
2413000000.0000000000 0.173854872584343012054119981258 -0.040809318423271179199218750000 0.002090181224048138098475790869 -0.001463481574319303035736083984 0 0 0 0 
2413166666.6666665077 0.172633349895477294921875000000 -0.041622124612331390380859375000 0.001920315437018871090532612378 -0.001264607650227844931958842700 0 0 0 0 
2413333333.3333334923 0.171363115310669000823651231258 -0.042621474713087081909179687500 0.002046298934146761894226074219 -0.001279263989999889893772744287 0 0 0 0 
2413500000.0000000000 0.170018523931503295898437500000 -0.043600425124168402934987653907 0.002016528276726603941676474463 -0.001063090632669628100154257666 0 0 0 0 
2413666666.6666665077 0.168878793716430691818075615629 -0.044587392359972000122070312500 0.002041798317804933027980185400 -0.001149513060227036909816122900 0 0 0 0 
2413833333.3333334923 0.167504817247390802581463731258 -0.045589562505483627319335937500 0.002081008395180106163024902344 -0.001043773256242275021196674878 0 0 0 0 
2414000000.0000000000 0.166051775217056302169638115629 -0.046841647475957870483398437500 0.002139874035492538972141884912 -0.000972535868640989065170288086 0 0 0 0 
2414166666.6666665077 0.165074899792671203613281250000 -0.047959469258785247802734375000 0.002150059444829822020289755713 -0.000816873507574200630187988281 0 0 0 0 
2414333333.3333334923 0.163737356662750188629473768742 -0.049389217048883438110351562500 0.002323226071894168853759765625 -0.000835944141726940870285034180 0 0 0 0 
2414500000.0000000000 0.162739828228950500488281250000 -0.050567477941513061523437500000 0.002180958166718482971191406250 -0.000740710296668112277984619141 0 0 0 0 
2414666666.6666665077 0.161501035094261197189169365629 -0.052099652588367462158203125000 0.002371975453570485115051269531 -0.000707234779838472604751586914 0 0 0 0 
2414833333.3333334923 0.160395205020904513260049384371 -0.053744021803140640258789062500 0.002434847643598914146423339844 -0.000866006186697632074356079102 0 0 0 0 
2415000000.0000000000 0.159222260117530794998330634371 -0.055350031703710562969167341407 0.002605709945783019065856933594 -0.000712711596861481666564941406 0 0 0 0 
2415166666.6666665077 0.158458366990089388748330634371 -0.057019937783479690551757812500 0.002570915967226028008701943506 -0.000861071574036031961441040039 0 0 0 0 
2415333333.3333334923 0.157719984650611905196981865629 -0.058818142861127853393554687500 0.002890515141189097924473427881 -0.000881333893630653619766235352 0 0 0 0 
2415500000.0000000000 0.156813070178031893631143134371 -0.060582071542739868164062500000 0.002864449284970759911778115381 -0.000927179760765284299850463867 0 0 0 0 
2415666666.6666665077 0.155979096889495905120526231258 -0.062425263226032257080078125000 0.002854815917089581923243857275 -0.000925208500120788812637329102 0 0 0 0 
2415833333.3333334923 0.155297234654426602462606865629 -0.064368844032287597656250000000 0.002870435127988458113429404150 -0.001082074712030590014216757666 0 0 0 0 
2416000000.0000000000 0.154583454132080105880575615629 -0.066207922995090484619140625000 0.003053517080843449072596884619 -0.001509662717580795071245503003 0 0 0 0 
2416166666.6666665077 0.154236003756523104568643134371 -0.068328537046909332275390625000 0.003201764775440096855163574219 -0.001327531761489808993098593604 0 0 0 0 
2416333333.3333334923 0.153580754995346097091513115629 -0.070169582962989807128906250000 0.003284612903371452851536416162 -0.001501270686276257038116455078 0 0 0 0 
2416500000.0000000000 0.153189018368721008300781250000 -0.072056218981742858886718750000 0.003245853818953036828282021631 -0.001663035480305552916285849463 0 0 0 0 
2416666666.6666665077 0.152759119868278503417968750000 -0.074080429971218109130859375000 0.003244510618969798088073730469 -0.001777340774424374103546142578 0 0 0 0 
2416833333.3333334923 0.152462497353553799728231865629 -0.076097257435321807861328125000 0.003336402820423244996311806787 -0.001967302756384015083312988281 0 0 0 0 
2417000000.0000000000 0.152147948741912786285723768742 -0.078099481761455535888671875000 0.003194166347384452819824218750 -0.001974343322217464013340615381 0 0 0 0 
2417166666.6666665077 0.152012497186660794357138115629 -0.079803794622421264648437500000 0.003409597789868711991551064600 -0.002206085016950964927673339844 0 0 0 0 
2417333333.3333334923 0.151862725615501403808593750000 -0.081558428704738616943359375000 0.003225535852834581895115517725 -0.002349648857489227814915322412 0 0 0 0 
2417500000.0000000000 0.151700630784034701248330634371 -0.083430215716361999511718750000 0.003274094546213746070861816406 -0.002371710026636720137355185400 0 0 0 0 
2417666666.6666665077 0.151832863688468905349893134371 -0.084875330328941345214843750000 0.003233375959098339080810546875 -0.002690772060304880142211914062 0 0 0 0 
2417833333.3333334923 0.151803210377693204025106865629 -0.086515523493289947509765625000 0.003049849299713968796970986475 -0.002768976613879203796386718750 0 0 0 0 
2418000000.0000000000 0.151835694909095791915731865629 -0.087995022535324096679687500000 0.003153586992993950843811035156 -0.002979101613163948059082031250 0 0 0 0 
2418166666.6666665077 0.151873484253883389571981865629 -0.089169494807720184326171875000 0.003063273383304477171656943213 -0.003113943152129650115966796875 0 0 0 0 
2418333333.3333334923 0.152197882533073397537393134371 -0.090692557394504547119140625000 0.003004146274179220199584960938 -0.003287725383415818214416503906 0 0 0 0 
2418500000.0000000000 0.152351856231689508636151231258 -0.091757215559482574462890625000 0.002843390684574842886683798682 -0.003455517115071415901184082031 0 0 0 0 
2418666666.6666665077 0.152566358447074890136718750000 -0.092963889241218566894531250000 0.002840800909325480894801474463 -0.003546450054273008866551064600 0 0 0 0 
2418833333.3333334923 0.152530238032341003417968750000 -0.093904890120029449462890625000 0.002687616040930151939392089844 -0.003653567750006914138793945312 0 0 0 0 
2419000000.0000000000 0.152682498097419711013955634371 -0.094751231372356414794921875000 0.002481273375451564788818359375 -0.003758392296731472015380859375 0 0 0 0 
2419166666.6666665077 0.152938932180404690841513115629 -0.095411658287048339843750000000 0.002492398489266633987426757812 -0.003893848508596419854405068506 0 0 0 0 
2419333333.3333334923 0.153145939111709594726562500000 -0.095747530460357666015625000000 0.002222128678113222122192382812 -0.004008361138403415679931640625 0 0 0 0 
2419500000.0000000000 0.153328984975814791580361884371 -0.096575655043125152587890625000 0.002133952453732490973231650244 -0.004015052225440740585327148438 0 0 0 0 
2419666666.6666665077 0.153658211231231689453125000000 -0.097066245973110198974609375000 0.001934430096298455975176167065 -0.004074550233781337738037109375 0 0 0 0 
2419833333.3333334923 0.153721705079078702071981865629 -0.097232140600681304931640625000 0.001849787891842425086377788013 -0.004171713721007108688354492188 0 0 0 0 
