# Hz S RI R 50
2400000000.0000000000 0.158306151628494290450888115629 0.063060179352760314941406250000 -0.003967712633311749372000409863 0.000146271515404805486828404559 0 0 0 0 
2400166666.6666665077 0.158234611153602600097656250000 0.061535019427537918090820312500 -0.003917287103831768035888671875 0.000245427276240661686092930927 0 0 0 0 
2400333333.3333334923 0.157962620258331298828125000000 0.059499032795429229736328125000 -0.003977813292294740676879882812 0.000354299321770667975575047626 0 0 0 0 
2400500000.0000000000 0.158010616898536709884481865629 0.057821299880743026733398437500 -0.003916919231414794921875000000 0.000491631391923874616622924805 0 0 0 0 
2400666666.6666665077 0.157806888222694396972656250000 0.055650830268859863281250000000 -0.003922650124877691268920898438 0.000582461128942668437957763672 0 0 0 0 
2400833333.3333334923 0.157879903912544305999432481258 0.053886137902736656879465471093 -0.003974395338445901870727539062 0.000688418338540941476821899414 0 0 0 0 
2401000000.0000000000 0.157854899764061001876669365629 0.051704455167055130004882812500 -0.003937069792300462722778320312 0.000821780355181545019149780273 0 0 0 0 
2401166666.6666665077 0.158077374100685091873330634371 0.049765154719352722167968750000 -0.003936242777854204177856445312 0.000885860936250537633895874023 0 0 0 0 
2401333333.3333334923 0.158133521676063509842080634371 0.047442782670259482646901716407 -0.003897312097251414819004677881 0.001102748210541903972625732422 0 0 0 0 
2401500000.0000000000 0.158580303192138699630575615629 0.045525722205638892436940778907 -0.003970890771597623825073242188 0.001183711923658848025678325122 0 0 0 0 
2401666666.6666665077 0.158854097127914400955361884371 0.043511193245649337768554687500 -0.003894406603649259047267294775 0.001249681459739804051042866284 0 0 0 0 
2401833333.3333334923 0.159161269664764404296875000000 0.041468430310487747192382812500 -0.003810527268797159194946289062 0.001399943022988737063166952979 0 0 0 0 
2402000000.0000000000 0.159343615174293490310830634371 0.039436884224414832378347028907 -0.003798485035076736970188759912 0.001406476600095629908918071216 0 0 0 0 
2402166666.6666665077 0.160004496574401910979901231258 0.037398241460323326801340471093 -0.003748158924281597137451171875 0.001740963431075214905979775537 0 0 0 0 
2402333333.3333334923 0.160466983914375305175781250000 0.035527702420949942851979841407 -0.003772120689973235130310058594 0.001638667541556060097338032300 0 0 0 0 
2402500000.0000000000 0.161139592528343200683593750000 0.033652734011411666870117187500 -0.003669110592454671859741210938 0.001903500407934189059613871997 0 0 0 0 
2402666666.6666665077 0.161881178617477389236611884371 0.031717307865619659423828125000 -0.003685884876176714897155761719 0.002039557322859764099121093750 0 0 0 0 
2402833333.3333334923 0.162627935409545898437500000000 0.029975585639476779592493826954 -0.003622701391577721075770712744 0.002235695021227002143859863281 0 0 0 0 
2403000000.0000000000 0.163484767079353304763955634371 0.028438543900847438467005545704 -0.003540523583069444136378622900 0.002435869071632624106166220557 0 0 0 0 
2403166666.6666665077 0.164219662547111511230468750000 0.026744490489363670349121093750 -0.003547822823747992949244833838 0.002508944133296608924865722656 0 0 0 0 
2403333333.3333334923 0.165202304720878601074218750000 0.025289969518780708312988281250 -0.003319391049444675011875771631 0.002632733201608061790466308594 0 0 0 0 
2403500000.0000000000 0.165907412767410306075888115629 0.023688126355409618722935860546 -0.003369537880644201798679970850 0.002784584416076540946960449219 0 0 0 0 
2403666666.6666665077 0.166981264948844909667968750000 0.022340351715683940542200858204 -0.003190570278093218803405761719 0.002901801373809576034545898438 0 0 0 0 
2403833333.3333334923 0.168140932917594909667968750000 0.021021798253059390676478201954 -0.002981866709887980981114052881 0.003047507954761385917663574219 0 0 0 0 
2404000000.0000000000 0.168948486447334289550781250000 0.019843235611915588378906250000 -0.002944363048300147056579589844 0.003231224138289690017700195312 0 0 0 0 
2404166666.6666665077 0.169898420572280911544638115629 0.018591964617371559143066406250 -0.002876863116398454146144247900 0.003512252820655703978297568213 0 0 0 0 
2404333333.3333334923 0.171022266149520901779013115629 0.017497519031167030334472656250 -0.002793302992358804182765341650 0.003405195428058505058288574219 0 0 0 0 
2404500000.0000000000 0.171792820096015902420205634371 0.016378786414861679077148437500 -0.002689672401174902915954589844 0.003696204395964742140529013525 0 0 0 0 
2404666666.6666665077 0.172859504818916293045205634371 0.015496175736188890284528163477 -0.002580221742391585870030068506 0.003829762106761335892918252100 0 0 0 0 
2404833333.3333334923 0.173668250441551208496093750000 0.014679708518087860452672188671 -0.002250874415040016174316406250 0.003969258628785610198974609375 0 0 0 0 
2405000000.0000000000 0.174721658229827908614950615629 0.013910008594393730163574218750 -0.002015208126977086067199707031 0.003936991561204195022583007812 0 0 0 0 
2405166666.6666665077 0.175631746649742098709268134371 0.013079163618385790043840977148 -0.001970019889995456175563193213 0.004205736797302961349487304688 0 0 0 0 
2405333333.3333334923 0.176550611853599603850994981258 0.012492069974541660654088204296 -0.001763883978128433010698628003 0.004153781104832887649536132812 0 0 0 0 
2405500000.0000000000 0.177289023995399502853231865629 0.012035599909722810227363787305 -0.001365809701383114077924418872 0.004301595967262983322143554688 0 0 0 0 
2405666666.6666665077 0.177942171692848205566406250000 0.011504018679261209315289882227 -0.001425117254257201931597065503 0.004203171469271183013916015625 0 0 0 0 
2405833333.3333334923 0.178452029824256896972656250000 0.011144360527396200352678867773 -0.001120980596169828934910439600 0.004280573688447475433349609375 0 0 0 0 
2406000000.0000000000 0.179209560155868502517861884371 0.010627281852066520345667655079 -0.000961230718530714511871337891 0.004271068610250949859619140625 0 0 0 0 
2406166666.6666665077 0.179566606879234286209268134371 0.010387626476585870224922381055 -0.000676434719935059547424316406 0.004667883738875389099121093750 0 0 0 0 
2406333333.3333334923 0.180194512009620694259481865629 0.010071151889860630035400390625 -0.000351230672094970887333470477 0.004556433297693729400634765625 0 0 0 0 
2406500000.0000000000 0.180552825331687899490518134371 0.009711561724543571472167968750 -0.000278345396509394103854578839 0.004447013139724730577950762012 0 0 0 0 
2406666666.6666665077 0.180658459663391113281250000000 0.009420292451977729797363281250 -0.000011056562470912469382387962 0.004462921991944313049316406250 0 0 0 0 
2406833333.3333334923 0.180808067321777288238848768742 0.008989128284156322479248046875 0.000239517772570252391413012094 0.004450576379895210266113281250 0 0 0 0 
2407000000.0000000000 0.181056231260299710372763115629 0.008779450319707393646240234375 0.000384081969968974590301513672 0.004425597842782735824584960938 0 0 0 0 
2407166666.6666665077 0.181181430816650390625000000000 0.008455515839159488677978515625 0.000391675799619406515925806866 0.004322106484323740005493164062 0 0 0 0 
2407333333.3333334923 0.180988103151321411132812500000 0.007945166900753974914550781250 0.000709048064891248941421508789 0.004259072244167327880859375000 0 0 0 0 
2407500000.0000000000 0.180894240736961392501669365629 0.007754066027700901031494140625 0.000978627009317278861999511719 0.004173549357801675796508789062 0 0 0 0 
2407666666.6666665077 0.180700480937957791427450615629 0.007240539882332087430472089551 0.001020157360471785068511962891 0.004111529327929019927978515625 0 0 0 0 
2407833333.3333334923 0.180310472846031188964843750000 0.006534332875162363052368164062 0.001307755010202527046203613281 0.004012147430330514907836914062 0 0 0 0 
2408000000.0000000000 0.179868221282959012130575615629 0.006058071274310350418090820312 0.001501595834270120100734091650 0.003935010638087987899780273438 0 0 0 0 
2408166666.6666665077 0.179535806179046603103799384371 0.005541166756302118301391601562 0.001502027269452810070635151440 0.003864368889480828805210732568 0 0 0 0 
2408333333.3333334923 0.179302468895912198165731865629 0.004936293233186007413382245801 0.001743674860335886912104941260 0.003737038234248756928684853662 0 0 0 0 
2408500000.0000000000 0.178622230887412997146768134371 0.003936629742383956909179687500 0.001816209638491272926330566406 0.003575312439352273941040039062 0 0 0 0 
2408666666.6666665077 0.177986100316047696212606865629 0.003180909203365445137023925781 0.001816853880882262966753315503 0.003316670889034866853001259912 0 0 0 0 
2408833333.3333334923 0.177229642868041992187500000000 0.002329743234440683884861611475 0.001905940007418394088745117188 0.003410274628549813790562295068 0 0 0 0 
2409000000.0000000000 0.176603525876998901367187500000 0.001363878953270613930345844800 0.002288194140419363975524902344 0.003119628177955747084376669775 0 0 0 0 
2409166666.6666665077 0.175939857959747286697549384371 0.000277345854556187987327575684 0.002269356744363903999328613281 0.003119126893579959869384765625 0 0 0 0 
2409333333.3333334923 0.175271406769752502441406250000 -0.000991711043752729892730712891 0.002326453570276498794555664062 0.002933675423264503912684775244 0 0 0 0 
2409500000.0000000000 0.174491435289382906814736884371 -0.002157703740522265000584267725 0.002335237571969627900364541162 0.002754024695605040030238486182 0 0 0 0 
2409666666.6666665077 0.173797324299812289138955634371 -0.003592622466385364966151572119 0.002366326982155441804173134912 0.002548832213506102995631552588 0 0 0 0 
2409833333.3333334923 0.172926127910614013671875000000 -0.004726765211671590805053710938 0.002406320534646511077880859375 0.002459673443809152083155966650 0 0 0 0 
2410000000.0000000000 0.172440633177757290939169365629 -0.006316654849797487258911132812 0.002554067876189947128295898438 0.002430707681924105124232626807 0 0 0 0 
2410166666.6666665077 0.171821564435958890060263115629 -0.007778059225529432296752929688 0.002638382837176322937011718750 0.002257498214021325111389160156 0 0 0 0 
2410333333.3333334923 0.171144470572471590896768134371 -0.009408286772668361663818359375 0.002720774849876761002781533350 0.002166557591408491134643554688 0 0 0 0 
2410500000.0000000000 0.170531302690506009200888115629 -0.011132769286632539576520350977 0.002700108801946043968200683594 0.002072216244414449171779013525 0 0 0 0 
2410666666.6666665077 0.169811323285102788727130018742 -0.012924110516905789811104021680 0.002751024672761559920070029150 0.001701885252259671904920268481 0 0 0 0 
2410833333.3333334923 0.169577971100807189941406250000 -0.014675751328468319284459298046 0.002803902607411146163940429688 0.001783085986971854946733784253 0 0 0 0 
2411000000.0000000000 0.169020920991897610763388115629 -0.016429344192147258413294608204 0.002890153555199503898620605469 0.001625665812753140926361083984 0 0 0 0 
2411166666.6666665077 0.168556198477745111663494981258 -0.018411228433251380920410156250 0.002816868480294942855834960938 0.001494668889790772958042763818 0 0 0 0 
2411333333.3333334923 0.168223023414611788650674384371 -0.020157685503363609313964843750 0.002808532910421491102931357275 0.001402409980073570988298725659 0 0 0 0 
2411500000.0000000000 0.167829945683479309082031250000 -0.022189412266016009939173514454 0.002776208333671092987060546875 0.001212604460306466059443808447 0 0 0 0 
2411666666.6666665077 0.167973950505256708343182481258 -0.024124337360262870788574218750 0.002809634897857904000523232568 0.001086045987904072024701762622 0 0 0 0 
2411833333.3333334923 0.167744085192680386642294365629 -0.025894857943058010446568673046 0.002794766100123525099513388525 0.001101568923331796906114887769 0 0 0 0 
2412000000.0000000000 0.167859554290771512130575615629 -0.028012590482831001281738281250 0.002881468273699284033534384619 0.000808338285423815250396728516 0 0 0 0 
2412166666.6666665077 0.167817980051040704925213731258 -0.029995150864124301565150076954 0.002810571109876037077662802588 0.000683354795910418033599853516 0 0 0 0 
2412333333.3333334923 0.167985528707504300216513115629 -0.031768981367349631572682966407 0.002841437933966517014744423975 0.000660837569739669561386108398 0 0 0 0 
2412500000.0000000000 0.168272867798805209060830634371 -0.033762682229280471801757812500 0.002840462373569608168361044775 0.000502644048538058996200561523 0 0 0 0 
2412666666.6666665077 0.168438345193862887283486884371 -0.035756625235080718994140625000 0.002830340526998043060302734375 0.000412591733038425499766749249 0 0 0 0 
2412833333.3333334923 0.168827131390571594238281250000 -0.037469007074832923198659528907 0.002775833243504167036769247900 0.000380375015083700418472290039 0 0 0 0 
2413000000.0000000000 0.169061332941055297851562500000 -0.039414554834365851665456403907 0.002753497101366519927978515625 0.000144214835017919513300219125 0 0 0 0 
2413166666.6666665077 0.169518738985061701018963731258 -0.040958348661661148071289062500 0.002724978374317287965061806787 0.000102473524748347699642181396 0 0 0 0 
2413333333.3333334923 0.169853866100311307052450615629 -0.042707286775112152099609375000 0.002492631785571575164794921875 -0.000014870619452267419546842575 0 0 0 0 
2413500000.0000000000 0.170541658997535705566406250000 -0.044539880007505416870117187500 0.002475221175700426101684570312 -0.000158663809997960897997179575 0 0 0 0 
2413666666.6666665077 0.171101957559585599044638115629 -0.046040073037147521972656250000 0.002522845286875963211059570312 -0.000298981729429215192794799805 0 0 0 0 
2413833333.3333334923 0.171536505222320612151776231258 -0.047470133751630783081054687500 0.002405265113338828086853027344 -0.000357423705281689817279261456 0 0 0 0 
2414000000.0000000000 0.171917259693145807464276231258 -0.049092970788478851318359375000 0.002325230976566671891453408350 -0.000367913715308532118797302246 0 0 0 0 
2414166666.6666665077 0.172631248831748990157919365629 -0.050175338983535766601562500000 0.002287618117406963868382119287 -0.000496303662657737731933593750 0 0 0 0 
2414333333.3333334923 0.173015788197517395019531250000 -0.051603127270936972881276716407 0.002194626722484827041625976562 -0.000509692821651697158813476562 0 0 0 0 
2414500000.0000000000 0.173858374357223510742187500000 -0.052777457982301712036132812500 0.002106800442561506791355752100 -0.000440019503002986311912536621 0 0 0 0 
2414666666.6666665077 0.174326404929161099532919365629 -0.053823016583919532085378278907 0.001994048478081821961643838037 -0.000687233870849013328552246094 0 0 0 0 
2414833333.3333334923 0.174798309803009005447549384371 -0.054871302098035812377929687500 0.001997315324842929840087890625 -0.000696083821821957826614379883 0 0 0 0 
2415000000.0000000000 0.175259307026863098144531250000 -0.055776141583919532085378278907 0.001802272745408117987989116138 -0.000746941659599542617797851562 0 0 0 0 
2415166666.6666665077 0.175663441419601412674111884371 -0.056543204933404922485351562500 0.001773966825567186095594096606 -0.000763236545026302337646484375 0 0 0 0 
2415333333.3333334923 0.176170215010643005371093750000 -0.057275339961051940917968750000 0.001869370811618864969966269385 -0.000775446940679103136062622070 0 0 0 0 
2415500000.0000000000 0.176557123661041287521200615629 -0.057934936136007308959960937500 0.001633126055821775956394814600 -0.000869992363732308149337768555 0 0 0 0 
2415666666.6666665077 0.176843672990799005706463731258 -0.058570478111505508422851562500 0.001509681344032288031337118994 -0.000675067305564880371093750000 0 0 0 0 
2415833333.3333334923 0.177231878042221097091513115629 -0.059091906994581222534179687500 0.001528403838165103955509804834 -0.000739904120564460754394531250 0 0 0 0 
2416000000.0000000000 0.177107945084571810623330634371 -0.059593599289655692363698591407 0.001509659923613071007969521631 -0.000832562451250851154327392578 0 0 0 0 
2416166666.6666665077 0.177489429712295504470986884371 -0.059962898492813110351562500000 0.001474098418839276053785014575 -0.000973527843598276376724243164 0 0 0 0 
2416333333.3333334923 0.177440777420997591873330634371 -0.060352601110935211181640625000 0.001439922722056508064270019531 -0.000919553218409419059753417969 0 0 0 0 
2416500000.0000000000 0.177514582872390802581463731258 -0.060759302228689186786692033593 0.001204923028126358985900878906 -0.001063246629200875975965190356 0 0 0 0 
2416666666.6666665077 0.177246421575546292404013115629 -0.060804020613431930541992187500 0.001216424163430928967119526440 -0.000843852816615253686904907227 0 0 0 0 
2416833333.3333334923 0.177172526717186001876669365629 -0.061327021569013602519948591407 0.001182681648060679002049111475 -0.001011784770525991916656494141 0 0 0 0 
2417000000.0000000000 0.176657736301422091385049384371 -0.061414558440446846698801408593 0.001215892145410180091857910156 -0.000907463079784065485000610352 0 0 0 0 
2417166666.6666665077 0.176323220133781405349893134371 -0.061530914157629013061523437500 0.001133387442678212902666401440 -0.000934879004489630460739135742 0 0 0 0 
2417333333.3333334923 0.175862312316894503494424384371 -0.061668757349252700805664062500 0.000879653962329030036926269531 -0.000960401899646967649459838867 0 0 0 0 
2417500000.0000000000 0.175261154770851107498330634371 -0.062196906656026840209960937500 0.001055289176292718107338930444 -0.000973303976934403181076049805 0 0 0 0 
2417666666.6666665077 0.174642175436019897460937500000 -0.062185686081647872924804687500 0.000823186070192605257034301758 -0.001000210177153348922729492188 0 0 0 0 
2417833333.3333334923 0.173836529254913302322549384371 -0.062512986361980438232421875000 0.001034136279486119964002299731 -0.000879473227541893720626831055 0 0 0 0 
2418000000.0000000000 0.172987282276153592208700615629 -0.062784507870674133300781250000 0.001094890641979872963548969800 -0.001079317764379083893419575269 0 0 0 0 
2418166666.6666665077 0.172039836645126287262286268742 -0.062931835651397705078125000000 0.000786406337283551692962646484 -0.001053692772984504916547465747 0 0 0 0 
2418333333.3333334923 0.171402558684349087814169365629 -0.063539810478687286376953125000 0.000838491483591496944427490234 -0.000962252379395067691802978516 0 0 0 0 
2418500000.0000000000 0.170261621475219698806924384371 -0.063855513930320739746093750000 0.000858569750562310218811035156 -0.000942160317208617925643920898 0 0 0 0 
2418666666.6666665077 0.169281035661697387695312500000 -0.064448930323123931884765625000 0.000721367774531245231628417969 -0.000957646872848272323608398438 0 0 0 0 
2418833333.3333334923 0.168040797114372308929119981258 -0.064896427094936370849609375000 0.000707045197486877441406250000 -0.000962132937274873256683349609 0 0 0 0 
2419000000.0000000000 0.166768446564674405196981865629 -0.065261356532573699951171875000 0.000725470425095409154891967773 -0.000854660058394074440002441406 0 0 0 0 
2419166666.6666665077 0.165638789534568786621093750000 -0.066147953271865844726562500000 0.000646283093374222517013549805 -0.000984095502644777297973632812 0 0 0 0 
2419333333.3333334923 0.164255514740943908691406250000 -0.066553726792335510253906250000 0.000503650167956948280334472656 -0.001015516696497797966003417969 0 0 0 0 
2419500000.0000000000 0.163139283657074002364950615629 -0.067501924932003021240234375000 0.000481355120427906513214111328 -0.001057762070558964989305805737 0 0 0 0 
2419666666.6666665077 0.162038892507553100585937500000 -0.068403251469135284423828125000 0.000399855751311406493186950684 -0.000959076685830950736999511719 0 0 0 0 
2419833333.3333334923 0.160662576556205805022869981258 -0.069265089929103851318359375000 0.000412320019677281379699707031 -0.000943584018386900424957275391 0 0 0 0 
