# Version 1.00
#
freq[Hz];re:Trc1_S11;im:Trc1_S11;re:Trc2_S21;im:Trc2_S21;
2.400000000000000E+009;1.558942943811417E-001;1.069682911038399E-001;-3.414235776290298E-003;-4.012956283986569E-003;
2.400166666666667E+009;1.557763516902924E-001;1.044621095061302E-001;-3.615035908296704E-003;-3.738193074241281E-003;
2.400333333333334E+009;1.557286828756332E-001;1.021083667874336E-001;-3.753276541829109E-003;-3.439699066802859E-003;
2.400500000000000E+009;1.557081490755081E-001;9.936793148517609E-002;-3.680223366245627E-003;-3.348399186506867E-003;
2.400666666666667E+009;1.558582633733749E-001;9.666470438241959E-002;-4.125334788113833E-003;-2.787456614896655E-003;
2.400833333333334E+009;1.556929945945740E-001;9.391604363918304E-002;-4.022001288831234E-003;-2.601944841444492E-003;
2.401000000000000E+009;1.557778865098953E-001;9.100137650966644E-002;-4.018963780254126E-003;-2.419719938188791E-003;
2.401166666666667E+009;1.559168100357056E-001;8.823482692241669E-002;-4.205096978694201E-003;-1.952417194843292E-003;
2.401333333333334E+009;1.564175933599472E-001;8.534701913595200E-002;-3.908799029886723E-003;-1.793845905922353E-003;
2.401500000000000E+009;1.567109376192093E-001;8.243159949779511E-002;-4.049562383443117E-003;-1.585094956681132E-003;
2.401666666666667E+009;1.569768190383911E-001;7.949173450469971E-002;-3.828990273177624E-003;-1.386931398883462E-003;
2.401833333333334E+009;1.575341373682022E-001;7.682932168245316E-002;-3.701729932799935E-003;-1.195526565425098E-003;
2.402000000000000E+009;1.584064066410065E-001;7.391956448554993E-002;-3.566211555153132E-003;-9.927465580403805E-004;
2.402166666666667E+009;1.592007726430893E-001;7.136942446231842E-002;-3.346376121044159E-003;-9.318196098320186E-004;
2.402333333333334E+009;1.601671725511551E-001;6.867860257625580E-002;-3.304214449599385E-003;-8.515508379787207E-004;
2.402500000000000E+009;1.613169461488724E-001;6.605497002601624E-002;-3.174575278535485E-003;-9.372818749397993E-004;
2.402666666666667E+009;1.621903479099274E-001;6.363113224506378E-002;-3.125688061118126E-003;-7.736362749710679E-004;
2.402833333333334E+009;1.637056022882462E-001;6.117080524563789E-002;-3.033507848158479E-003;-9.666591649875045E-004;
2.403000000000000E+009;1.648738831281662E-001;5.870330333709717E-002;-3.055500099435449E-003;-9.853182127699256E-004;
2.403166666666667E+009;1.666851341724396E-001;5.638081952929497E-002;-3.102042246609926E-003;-9.005040046758950E-004;
2.403333333333334E+009;1.681425720453262E-001;5.433999374508858E-002;-3.047528211027384E-003;-9.146610391326249E-004;
2.403500000000000E+009;1.698733270168304E-001;5.215716734528542E-002;-3.046507248654962E-003;-9.293097537010908E-004;
2.403666666666667E+009;1.714684963226318E-001;5.024828389286995E-002;-3.185471054166555E-003;-7.824033382348716E-004;
2.403833333333334E+009;1.731950491666794E-001;4.840540885925293E-002;-3.255052724853158E-003;-7.355082198046148E-004;
2.404000000000000E+009;1.746133863925934E-001;4.657904431223869E-002;-3.234299132600427E-003;-5.585711332969368E-004;
2.404166666666667E+009;1.762919127941132E-001;4.523700475692749E-002;-3.261589445173740E-003;-4.462059296201915E-004;
2.404333333333334E+009;1.780458688735962E-001;4.363397136330605E-002;-3.271297784522176E-003;-3.768141905311495E-004;
2.404500000000000E+009;1.795470863580704E-001;4.224620386958122E-002;-3.409480676054955E-003;-3.247449640184641E-004;
2.404666666666667E+009;1.813718676567078E-001;4.120145738124847E-002;-3.418724518269301E-003;-2.562164154369384E-004;
2.404833333333334E+009;1.830073893070221E-001;4.010002687573433E-002;-3.230022732168436E-003;4.761992386193015E-005;
2.405000000000000E+009;1.841954141855240E-001;3.945358842611313E-002;-3.217497374862433E-003;2.876832440961152E-004;
2.405166666666667E+009;1.856893151998520E-001;3.870256990194321E-002;-3.095997497439385E-003;6.202435179147869E-005;
2.405333333333334E+009;1.871581226587296E-001;3.824510425329208E-002;-2.975958865135908E-003;1.153924240497872E-004;
2.405500000000000E+009;1.886183768510819E-001;3.777249157428742E-002;-2.961864462122321E-003;3.004627360496670E-004;
2.405666666666667E+009;1.898131072521210E-001;3.745096176862717E-002;-2.810861682519317E-003;2.370658039581031E-004;
2.405833333333334E+009;1.910661011934280E-001;3.711491823196411E-002;-2.761238254606724E-003;3.824108571279794E-004;
2.406000000000000E+009;1.920403987169266E-001;3.687806427478790E-002;-2.748263301327825E-003;3.604654339142144E-004;
2.406166666666667E+009;1.929879635572434E-001;3.666656836867333E-002;-2.772346138954163E-003;3.948759695049375E-004;
2.406333333333334E+009;1.940085887908936E-001;3.677387163043022E-002;-2.700503449887037E-003;4.989553126506507E-004;
2.406500000000000E+009;1.946102529764175E-001;3.682808205485344E-002;-2.561508445069194E-003;5.014055059291422E-004;
2.406666666666667E+009;1.952163428068161E-001;3.686507418751717E-002;-2.412256086245179E-003;4.550463927444071E-004;
2.406833333333334E+009;1.958865821361542E-001;3.688050433993340E-002;-2.405304228886962E-003;4.907691618427634E-004;
2.407000000000000E+009;1.958854198455811E-001;3.706882521510124E-002;-2.388258697465062E-003;5.717877647839487E-004;
2.407166666666667E+009;1.964167803525925E-001;3.689343854784966E-002;-2.259779023006558E-003;2.681020414456725E-004;
2.407333333333334E+009;1.962145864963532E-001;3.723693266510963E-002;-2.248221775516868E-003;3.212861192878336E-004;
2.407500000000000E+009;1.962169110774994E-001;3.728228434920311E-002;-2.191747305914760E-003;3.004810714628547E-004;
2.407666666666667E+009;1.962191313505173E-001;3.714655339717865E-002;-2.361135324463248E-003;1.729209761833772E-004;
2.407833333333334E+009;1.956578791141510E-001;3.706441447138786E-002;-2.420637290924788E-003;1.677653635852039E-004;
2.408000000000000E+009;1.955938637256622E-001;3.693122044205666E-002;-2.348778536543250E-003;-7.809479575371370E-005;
2.408166666666667E+009;1.948049217462540E-001;3.677399829030037E-002;-2.392467809841037E-003;-1.644100993871689E-004;
2.408333333333334E+009;1.944684088230133E-001;3.619639202952385E-002;-2.509160200133920E-003;-1.131406170316041E-004;
2.408500000000000E+009;1.937196999788284E-001;3.588607162237167E-002;-2.737177535891533E-003;-2.554015372879803E-004;
2.408666666666667E+009;1.929538846015930E-001;3.539620712399483E-002;-2.747033257037401E-003;-3.157157625537366E-004;
2.408833333333334E+009;1.920895725488663E-001;3.469382971525192E-002;-2.849925775080919E-003;-3.566241066437215E-004;
2.409000000000000E+009;1.914118528366089E-001;3.383292630314827E-002;-3.027038648724556E-003;-2.996879629790783E-004;
2.409166666666667E+009;1.903535574674606E-001;3.279948979616165E-002;-3.217334626242518E-003;-8.085733861662448E-005;
2.409333333333334E+009;1.894983053207398E-001;3.207191079854965E-002;-3.345910226926208E-003;-1.989598786167335E-005;
2.409500000000000E+009;1.882857531309128E-001;3.070358000695705E-002;-3.476172452792525E-003;1.147271468653344E-004;
2.409666666666667E+009;1.872338056564331E-001;2.924342639744282E-002;-3.613681998103857E-003;1.114041588152759E-004;
2.409833333333334E+009;1.862771511077881E-001;2.780098654329777E-002;-3.729861695319414E-003;2.845628187060356E-004;
2.410000000000000E+009;1.851863712072372E-001;2.613695524632931E-002;-3.934577573090792E-003;6.341750267893076E-004;
2.410166666666667E+009;1.841899007558823E-001;2.441742271184921E-002;-3.831220325082541E-003;6.476794951595366E-004;
2.410333333333334E+009;1.832880079746246E-001;2.264083735644817E-002;-3.949237056076527E-003;9.419831330887973E-004;
2.410500000000000E+009;1.822864562273026E-001;2.063352242112160E-002;-4.000525455921888E-003;1.147389644756913E-003;
2.410666666666667E+009;1.813665181398392E-001;1.844867691397667E-002;-4.007220268249512E-003;1.350424019619823E-003;
2.410833333333334E+009;1.805967986583710E-001;1.612978987395763E-002;-3.926506265997887E-003;1.681140158325434E-003;
2.411000000000000E+009;1.798909753561020E-001;1.402014959603548E-002;-3.953010775148869E-003;1.801662379875779E-003;
2.411166666666667E+009;1.792747825384140E-001;1.177590806037188E-002;-3.806817578151822E-003;1.993514364585280E-003;
2.411333333333334E+009;1.788927912712097E-001;9.275490418076515E-003;-3.791234688833356E-003;2.068047411739826E-003;
2.411500000000000E+009;1.783356070518494E-001;7.018500473350287E-003;-3.476191079244018E-003;2.275666687637568E-003;
2.411666666666667E+009;1.780995577573776E-001;4.483344964683056E-003;-3.536707954481244E-003;2.436067443341017E-003;
2.411833333333334E+009;1.778719127178192E-001;2.151483902707696E-003;-3.444825764745474E-003;2.475681714713574E-003;
2.412000000000000E+009;1.778503656387329E-001;-4.856749437749386E-004;-3.249809611588717E-003;2.539505017921329E-003;
2.412166666666667E+009;1.778834611177445E-001;-2.748163882642984E-003;-3.302855882793665E-003;2.690368099138141E-003;
2.412333333333334E+009;1.782403886318207E-001;-5.400308407843113E-003;-3.240577178075910E-003;2.653601579368115E-003;
2.412500000000000E+009;1.787135899066925E-001;-7.744981441646814E-003;-3.149565076455474E-003;2.842322690412402E-003;
2.412666666666667E+009;1.792350113391876E-001;-1.007119752466679E-002;-2.986451610922813E-003;2.804513555020094E-003;
2.412833333333334E+009;1.798422485589981E-001;-1.267235260456801E-002;-3.113624406978488E-003;2.961095888167620E-003;
2.413000000000000E+009;1.805332303047180E-001;-1.493477262556553E-002;-2.918771235272288E-003;3.065063152462244E-003;
2.413166666666667E+009;1.813091933727264E-001;-1.722208969295025E-002;-3.009180072695017E-003;3.032982116565108E-003;
2.413333333333334E+009;1.823006868362427E-001;-1.951333694159985E-002;-3.041458548977971E-003;3.192793345078826E-003;
2.413500000000000E+009;1.833167076110840E-001;-2.185812219977379E-002;-2.864881185814738E-003;3.180685220286250E-003;
2.413666666666667E+009;1.843065619468689E-001;-2.403916791081429E-002;-2.855818020179868E-003;3.510195529088378E-003;
2.413833333333334E+009;1.854678243398666E-001;-2.605946548283100E-002;-2.906982088461518E-003;3.787545720115304E-003;
2.414000000000000E+009;1.867443025112152E-001;-2.795570716261864E-002;-2.801541006192565E-003;3.730338765308261E-003;
2.414166666666667E+009;1.879557967185974E-001;-2.971294149756432E-002;-2.740503754466772E-003;4.025590140372515E-003;
2.414333333333334E+009;1.891648024320602E-001;-3.158778697252274E-002;-2.712127519771457E-003;4.321105778217316E-003;
2.414500000000000E+009;1.902524828910828E-001;-3.311305865645409E-002;-2.424011705443263E-003;4.301301669329405E-003;
2.414666666666667E+009;1.915890276432037E-001;-3.469396010041237E-002;-2.391767688095570E-003;4.720949102193117E-003;
2.414833333333334E+009;1.925867497920990E-001;-3.613732382655144E-002;-2.212171908468008E-003;4.854690749198198E-003;
2.415000000000000E+009;1.937419027090073E-001;-3.728621453046799E-002;-1.893328852020204E-003;4.931918345391750E-003;
2.415166666666667E+009;1.949482560157776E-001;-3.841106593608856E-002;-1.723824185319245E-003;5.114518571645021E-003;
2.415333333333334E+009;1.962052285671234E-001;-3.932652622461319E-002;-1.495734322816134E-003;5.284384358674288E-003;
2.415500000000000E+009;1.972808986902237E-001;-4.015530273318291E-002;-1.110782846808434E-003;5.270001478493214E-003;
2.415666666666667E+009;1.982188075780869E-001;-4.093749076128006E-002;-8.493520435877144E-004;5.337735172361136E-003;
2.415833333333334E+009;1.990836262702942E-001;-4.146871343255043E-002;-6.211792933754623E-004;5.453589837998152E-003;
2.416000000000000E+009;1.998303234577179E-001;-4.198727384209633E-002;-2.872129261959344E-004;5.435032304376364E-003;
2.416166666666667E+009;2.006012648344040E-001;-4.250858351588249E-002;3.848252163152210E-005;5.518333986401558E-003;
2.416333333333334E+009;2.011363357305527E-001;-4.275325313210487E-002;2.400448429398239E-004;5.388356745243073E-003;
2.416500000000000E+009;2.016075104475021E-001;-4.288301244378090E-002;4.933273303322494E-004;5.395460873842239E-003;
2.416666666666667E+009;2.017856836318970E-001;-4.320444539189339E-002;8.250094251707196E-004;5.175884347409010E-003;
2.416833333333334E+009;2.020426392555237E-001;-4.321647435426712E-002;9.097447618842125E-004;5.190367344766855E-003;
2.417000000000000E+009;2.020848244428635E-001;-4.325270280241966E-002;1.162271597422659E-003;4.917812999337912E-003;
2.417166666666667E+009;2.018601745367050E-001;-4.305251315236092E-002;1.391944242641330E-003;4.836637526750565E-003;
2.417333333333334E+009;2.017017155885696E-001;-4.297392815351486E-002;1.487403525970876E-003;4.724793136119843E-003;
2.417500000000000E+009;2.013899981975555E-001;-4.297785833477974E-002;1.742195920087397E-003;4.502840340137482E-003;
2.417666666666667E+009;2.008029669523239E-001;-4.256429523229599E-002;1.819268800318241E-003;4.321870394051075E-003;
2.417833333333334E+009;2.002966254949570E-001;-4.240395501255989E-002;2.029382390901446E-003;4.378006793558598E-003;
2.418000000000000E+009;1.996235251426697E-001;-4.210095852613449E-002;2.059404272586107E-003;4.087951034307480E-003;
2.418166666666667E+009;1.989147365093231E-001;-4.203989729285240E-002;2.015794161707163E-003;4.022943321615458E-003;
2.418333333333334E+009;1.979533284902573E-001;-4.184100031852722E-002;2.155841793864965E-003;3.884426550939679E-003;
2.418500000000000E+009;1.970124840736389E-001;-4.169690981507301E-002;2.401329809799790E-003;3.719319123774767E-003;
2.418666666666667E+009;1.959876269102097E-001;-4.159098491072655E-002;2.334969816729426E-003;3.596980357542634E-003;
2.418833333333334E+009;1.947093755006790E-001;-4.177222400903702E-002;2.436034381389618E-003;3.444324014708400E-003;
2.419000000000000E+009;1.934593170881271E-001;-4.187452420592308E-002;2.493174048140645E-003;3.265181789174676E-003;
2.419166666666667E+009;1.922277063131332E-001;-4.221511259675026E-002;2.572552068158984E-003;3.228509100154042E-003;
2.419333333333334E+009;1.908730715513229E-001;-4.263328760862351E-002;2.545826835557818E-003;3.213816322386265E-003;
2.419500000000000E+009;1.894108951091766E-001;-4.304758086800575E-002;2.439151518046856E-003;3.095749765634537E-003;
2.419666666666667E+009;1.878613084554672E-001;-4.376029968261719E-002;2.632656833156943E-003;2.893155207857490E-003;
2.419833333333334E+009;1.860777288675308E-001;-4.453786462545395E-002;2.635265002027154E-003;2.728998195379973E-003;
2.420000000000000E+009;1.846073716878891E-001;-4.522516578435898E-002;2.704337704926729E-003;2.795340726152062E-003;
2.420166666666667E+009;1.829704791307449E-001;-4.626442492008209E-002;2.720928750932217E-003;2.633572090417147E-003;
2.420333333333334E+009;1.813767552375794E-001;-4.743020236492157E-002;2.782717579975724E-003;2.557130064815283E-003;
2.420500000000000E+009;1.796240806579590E-001;-4.870940744876862E-002;2.655585529282689E-003;2.294442383572459E-003;
2.420666666666667E+009;1.778984665870667E-001;-4.988602921366692E-002;2.760097617283464E-003;2.241853391751647E-003;
2.420833333333334E+009;1.764472573995590E-001;-5.148411542177200E-002;2.682398771867156E-003;2.064875559881330E-003;
2.421000000000000E+009;1.748631447553635E-001;-5.297893658280373E-002;2.594299614429474E-003;2.029038034379482E-003;
2.421166666666667E+009;1.735446602106094E-001;-5.470964312553406E-002;2.595015335828066E-003;1.915158005431294E-003;
2.421333333333334E+009;1.719666123390198E-001;-5.637723952531815E-002;2.399248303845525E-003;1.966024981811643E-003;
2.421500000000000E+009;1.707445085048676E-001;-5.817519128322601E-002;2.284588525071740E-003;1.849107793532312E-003;
2.421666666666667E+009;1.694713979959488E-001;-5.991244316101074E-002;2.327779540792108E-003;1.876863767392933E-003;
2.421833333333334E+009;1.683630645275116E-001;-6.190129742026329E-002;2.246333984658122E-003;1.924373209476471E-003;
2.422000000000000E+009;1.671637743711472E-001;-6.355696916580200E-002;2.286965260282159E-003;1.909149345010519E-003;
2.422166666666667E+009;1.665023565292358E-001;-6.584241986274719E-002;2.205820521339774E-003;1.916097011417151E-003;
2.422333333333334E+009;1.654132008552551E-001;-6.785811483860016E-002;2.112952293828130E-003;2.230043057352305E-003;
2.422500000000000E+009;1.647446304559708E-001;-6.984731554985046E-002;2.253760118037462E-003;2.116600284352899E-003;
2.422666666666667E+009;1.641138046979904E-001;-7.189485430717468E-002;2.077731071040034E-003;2.182483905926347E-003;
2.422833333333334E+009;1.637002080678940E-001;-7.390143722295761E-002;2.233329927548766E-003;2.133253030478954E-003;
2.423000000000000E+009;1.632399708032608E-001;-7.597558945417404E-002;2.380868885666132E-003;2.304936526343226E-003;
2.423166666666667E+009;1.629104316234589E-001;-7.785940170288086E-002;2.491119783371687E-003;2.304852940142155E-003;
2.423333333333334E+009;1.628643572330475E-001;-8.003064244985580E-002;2.581863664090633E-003;2.280746353790164E-003;
2.423500000000000E+009;1.626625061035156E-001;-8.173751085996628E-002;2.745282603427768E-003;2.313150558620691E-003;
2.423666666666667E+009;1.628291308879852E-001;-8.370791375637054E-002;2.735258080065250E-003;2.399113494902849E-003;
2.423833333333334E+009;1.626784652471542E-001;-8.560214191675186E-002;2.938056597486138E-003;2.321365289390087E-003;
2.424000000000000E+009;1.630503982305527E-001;-8.748706430196762E-002;2.838515443727374E-003;2.344416920095682E-003;
2.424166666666667E+009;1.630420088768005E-001;-8.897065371274948E-002;3.222431289032102E-003;2.179145580157638E-003;
2.424333333333334E+009;1.632737219333649E-001;-9.047744423151016E-002;3.019462339580059E-003;2.240509027615190E-003;
2.424500000000000E+009;1.637612730264664E-001;-9.234584867954254E-002;3.293536603450775E-003;2.190423430874944E-003;
2.424666666666667E+009;1.641238182783127E-001;-9.367350488901138E-002;3.441340057179332E-003;2.182310679927468E-003;
2.424833333333334E+009;1.646920889616013E-001;-9.498158842325211E-002;3.377248300239444E-003;2.208763500675559E-003;
2.425000000000000E+009;1.651040166616440E-001;-9.620316326618195E-002;3.670618636533618E-003;2.032208256423473E-003;
2.425166666666667E+009;1.654934287071228E-001;-9.737217426300049E-002;3.777095116674900E-003;2.080896636471152E-003;
2.425333333333334E+009;1.657593995332718E-001;-9.834245592355728E-002;3.901337506249547E-003;2.019492676481605E-003;
2.425500000000000E+009;1.663427501916885E-001;-9.938742965459824E-002;3.982521593570709E-003;1.795561634935439E-003;
2.425666666666667E+009;1.667509973049164E-001;-9.996975958347321E-002;4.249646794050932E-003;1.863926416262984E-003;
2.425833333333334E+009;1.670575588941574E-001;-1.009093523025513E-001;4.359092563390732E-003;1.542061101645231E-003;
2.426000000000000E+009;1.674717217683792E-001;-1.013766825199127E-001;4.562263842672110E-003;1.439197338186204E-003;
2.426166666666667E+009;1.678790003061295E-001;-1.018868908286095E-001;4.703912883996964E-003;1.209563459269702E-003;
2.426333333333334E+009;1.680553257465363E-001;-1.024171635508537E-001;4.701406694948673E-003;1.049408339895308E-003;
2.426500000000000E+009;1.684167683124542E-001;-1.027138829231262E-001;4.768421407788992E-003;8.571356302127242E-004;
2.426666666666667E+009;1.687237620353699E-001;-1.029858663678169E-001;4.797657951712608E-003;7.009692490100861E-004;
2.426833333333334E+009;1.688488125801086E-001;-1.032865718007088E-001;4.767813254147768E-003;4.079973150510341E-004;
2.427000000000000E+009;1.690112799406052E-001;-1.034966558218002E-001;5.003837402909994E-003;2.700238837860525E-004;
2.427166666666667E+009;1.690070629119873E-001;-1.036090552806854E-001;4.801939707249403E-003;2.372640483372379E-005;
2.427333333333334E+009;1.689013093709946E-001;-1.038665398955345E-001;4.875056445598602E-003;-2.243488852400333E-004;
2.427500000000000E+009;1.685692369937897E-001;-1.039811596274376E-001;4.820187110453844E-003;-1.296993432333693E-004;
2.427666666666667E+009;1.683919876813889E-001;-1.039675176143646E-001;5.018039140850306E-003;-2.596160338725895E-004;
2.427833333333334E+009;1.678558290004730E-001;-1.041751950979233E-001;4.987810738384724E-003;-5.065026925876737E-004;
