# Version 1.00
#
freq[Hz];re:Trc1_S11;im:Trc1_S11;re:Trc2_S21;im:Trc2_S21;
2.400000000000000E+009;1.555415093898773E-001;1.071078404784203E-001;-3.462272463366389E-003;-3.849993692710996E-003;
2.400166666666667E+009;1.552529036998749E-001;1.046112403273583E-001;-3.782536834478378E-003;-3.563919104635716E-003;
2.400333333333334E+009;1.552785038948059E-001;1.023100465536118E-001;-3.851638175547123E-003;-3.551888978108764E-003;
2.400500000000000E+009;1.551814973354340E-001;9.969092905521393E-002;-4.134840331971645E-003;-3.220622893422842E-003;
2.400666666666667E+009;1.553933173418045E-001;9.712990373373032E-002;-4.052463918924332E-003;-2.874428173527122E-003;
2.400833333333334E+009;1.552852839231491E-001;9.420481324195862E-002;-4.205398727208376E-003;-2.784785814583302E-003;
2.401000000000000E+009;1.555221974849701E-001;9.136431664228439E-002;-4.159344360232353E-003;-2.483913907781243E-003;
2.401166666666667E+009;1.556375771760941E-001;8.849825710058212E-002;-4.198397975414991E-003;-2.060821279883385E-003;
2.401333333333334E+009;1.559711992740631E-001;8.578287065029144E-002;-4.228260833770037E-003;-1.758566475473344E-003;
2.401500000000000E+009;1.564245373010635E-001;8.280065655708313E-002;-4.088019020855427E-003;-1.409956370480359E-003;
2.401666666666667E+009;1.567728519439697E-001;7.982179522514343E-002;-3.883540863171220E-003;-1.175454817712307E-003;
2.401833333333334E+009;1.572902500629425E-001;7.722982019186020E-002;-3.680210327729583E-003;-1.047999714501202E-003;
2.402000000000000E+009;1.581369936466217E-001;7.419112324714661E-002;-3.600254422053695E-003;-1.104155788198113E-003;
2.402166666666667E+009;1.590048521757126E-001;7.192639261484146E-002;-3.275496885180473E-003;-1.109819277189672E-003;
2.402333333333334E+009;1.598661243915558E-001;6.891822814941406E-002;-3.266351995989680E-003;-8.607349591329694E-004;
2.402500000000000E+009;1.607941091060638E-001;6.620708853006363E-002;-3.471587086096406E-003;-4.888986586593092E-004;
2.402666666666667E+009;1.624010801315308E-001;6.363932788372040E-002;-3.437486710026860E-003;-1.228368142619729E-003;
2.402833333333334E+009;1.637990027666092E-001;6.097706407308579E-002;-3.764555323868990E-003;-1.103485818020999E-003;
2.403000000000000E+009;1.649123132228851E-001;5.919682234525681E-002;-2.998177427798510E-003;-7.153435144573450E-004;
2.403166666666667E+009;1.663352847099304E-001;5.687377229332924E-002;-3.163933288305998E-003;-8.383242529816926E-004;
2.403333333333334E+009;1.678251475095749E-001;5.453826859593391E-002;-3.328018356114626E-003;-9.079974261112511E-004;
2.403500000000000E+009;1.697350740432739E-001;5.202241614460945E-002;-3.944538068026304E-003;-1.342616393230856E-003;
2.403666666666667E+009;1.715347170829773E-001;5.063909292221069E-002;-3.087547840550542E-003;-6.647059926763177E-004;
2.403833333333334E+009;1.729125231504440E-001;4.881329461932182E-002;-3.364989301189780E-003;-6.353532080538571E-004;
2.404000000000000E+009;1.745357960462570E-001;4.708723351359367E-002;-3.353361971676350E-003;-6.088041118346155E-004;
2.404166666666667E+009;1.763731092214584E-001;4.547993838787079E-002;-3.346348414197564E-003;-3.998776955995709E-004;
2.404333333333334E+009;1.779148876667023E-001;4.405328631401062E-002;-3.302211174741387E-003;-2.949532645288855E-004;
2.404500000000000E+009;1.795316189527512E-001;4.245111346244812E-002;-3.261204343289137E-003;-2.606060588732362E-004;
2.404666666666667E+009;1.812757104635239E-001;4.135859012603760E-002;-3.198909806087613E-003;-9.669554128777236E-005;
2.404833333333334E+009;1.829292923212051E-001;4.045166447758675E-002;-3.214066149666905E-003;4.688050830736756E-005;
2.405000000000000E+009;1.841803640127182E-001;3.965785354375839E-002;-3.103331662714481E-003;1.476674224250019E-004;
2.405166666666667E+009;1.857834607362747E-001;3.913743048906326E-002;-3.080189693719149E-003;2.000105014303699E-004;
2.405333333333334E+009;1.871440410614014E-001;3.859854862093926E-002;-2.968173939734697E-003;3.776388184633106E-004;
2.405500000000000E+009;1.886585652828217E-001;3.812055289745331E-002;-2.907042857259512E-003;3.139492473565042E-004;
2.405666666666667E+009;1.899854540824890E-001;3.773798048496246E-002;-2.793042454868555E-003;3.855627728626132E-004;
2.405833333333334E+009;1.911552846431732E-001;3.744997084140778E-002;-2.765970537438989E-003;4.381058388389647E-004;
2.406000000000000E+009;1.920928359031677E-001;3.730167075991631E-002;-2.744638593867421E-003;5.534611991606653E-004;
2.406166666666667E+009;1.932392269372940E-001;3.711115196347237E-002;-2.535466337576509E-003;6.094551645219326E-004;
2.406333333333334E+009;1.940024942159653E-001;3.712787106633186E-002;-2.539442386478186E-003;3.683466056827456E-004;
2.406500000000000E+009;1.947574019432068E-001;3.702677786350250E-002;-2.334636403247714E-003;-2.369446156080812E-004;
2.406666666666667E+009;1.954274922609329E-001;3.728311508893967E-002;-2.632654970511794E-003;1.182143227197230E-003;
2.406833333333334E+009;1.958564370870590E-001;3.727085888385773E-002;-2.560587367042899E-003;3.830551868304610E-004;
2.407000000000000E+009;1.959503740072250E-001;3.727007657289505E-002;-2.649337053298950E-003;-3.242626262363046E-004;
2.407166666666667E+009;1.964177340269089E-001;3.725969418883324E-002;-2.515738597139716E-003;1.586856815265492E-004;
2.407333333333334E+009;1.962985545396805E-001;3.740236535668373E-002;-2.148811938241124E-003;-9.033537207869813E-005;
2.407500000000000E+009;1.963590681552887E-001;3.734610602259636E-002;-1.863206853158772E-003;-4.427992680575699E-004;
2.407666666666667E+009;1.963812261819840E-001;3.744178637862206E-002;-2.217014087364078E-003;3.623986558523029E-004;
2.407833333333334E+009;1.957786530256271E-001;3.738719224929810E-002;-2.755041001364589E-003;1.455024175811559E-004;
2.408000000000000E+009;1.957823634147644E-001;3.729014471173286E-002;-2.339419908821583E-003;-6.684633990516886E-005;
2.408166666666667E+009;1.951847672462463E-001;3.702976927161217E-002;-2.263825153931975E-003;-1.266893523279578E-004;
2.408333333333334E+009;1.946832090616226E-001;3.649746626615524E-002;-2.356961136683822E-003;3.715736966114491E-005;
2.408500000000000E+009;1.939313411712647E-001;3.631099686026573E-002;-2.489466685801745E-003;-8.226758654927835E-005;
2.408666666666667E+009;1.933457851409912E-001;3.571157157421112E-002;-2.617812016978860E-003;-2.229783713119105E-004;
2.408833333333334E+009;1.925362199544907E-001;3.492444008588791E-002;-2.706089289858937E-003;-1.421855122316629E-004;
2.409000000000000E+009;1.915291100740433E-001;3.407320380210877E-002;-2.859425498172641E-003;-2.458869421388954E-004;
2.409166666666667E+009;1.905663609504700E-001;3.307919576764107E-002;-3.121495479717851E-003;-2.178950235247612E-004;
2.409333333333334E+009;1.897711306810379E-001;3.215800598263741E-002;-3.176322905346751E-003;-1.079946378013119E-004;
2.409500000000000E+009;1.885342448949814E-001;3.084626048803330E-002;-3.347343532368541E-003;-7.019303302513436E-005;
2.409666666666667E+009;1.875676810741425E-001;2.946202270686626E-002;-3.553208196535707E-003;1.663019647821784E-004;
2.409833333333334E+009;1.865980327129364E-001;2.795122191309929E-002;-3.735858714208007E-003;3.150502452626824E-004;
2.410000000000000E+009;1.854853183031082E-001;2.631313726305962E-002;-3.644128795713186E-003;4.601136315613985E-004;
2.410166666666667E+009;1.844272017478943E-001;2.456182613968849E-002;-3.772657364606857E-003;7.444174261763692E-004;
2.410333333333334E+009;1.833941638469696E-001;2.278029546141625E-002;-3.877884708344936E-003;8.885721908882260E-004;
2.410500000000000E+009;1.825215816497803E-001;2.063649334013462E-002;-3.899222239851952E-003;1.199305290356278E-003;
2.410666666666667E+009;1.815971732139587E-001;1.853290945291519E-002;-3.914698027074337E-003;1.329547958448529E-003;
2.410833333333334E+009;1.809486597776413E-001;1.629029028117657E-002;-3.920440562069416E-003;1.467418391257525E-003;
2.411000000000000E+009;1.801445037126541E-001;1.404345966875553E-002;-3.698743181303144E-003;1.733133685775101E-003;
2.411166666666667E+009;1.795012950897217E-001;1.195355504751205E-002;-3.682936076074839E-003;1.845074468292296E-003;
2.411333333333334E+009;1.790544390678406E-001;9.372935630381107E-003;-3.719934495165944E-003;2.119135344401002E-003;
2.411500000000000E+009;1.785218268632889E-001;7.081683259457350E-003;-3.668470773845911E-003;2.207105979323387E-003;
2.411666666666667E+009;1.783870905637741E-001;4.651528317481279E-003;-3.431876888498664E-003;2.376783406361938E-003;
2.411833333333334E+009;1.782051771879196E-001;2.122715115547180E-003;-3.340833121910691E-003;2.470145700499415E-003;
2.412000000000000E+009;1.780964881181717E-001;-4.719034768640995E-004;-3.405412659049034E-003;2.455305075272918E-003;
2.412166666666667E+009;1.782490909099579E-001;-2.777543850243092E-003;-3.272240748628974E-003;2.590005984529853E-003;
2.412333333333334E+009;1.783580332994461E-001;-5.162478424608707E-003;-3.082470269873738E-003;2.543878275901079E-003;
2.412500000000000E+009;1.790927499532700E-001;-7.736229803413153E-003;-2.983045531436801E-003;2.734903013333678E-003;
2.412666666666667E+009;1.793952286243439E-001;-1.017132773995400E-002;-3.094187704846263E-003;2.788200508803129E-003;
2.412833333333334E+009;1.801830530166626E-001;-1.276330649852753E-002;-2.817440545186400E-003;2.825953997671604E-003;
2.413000000000000E+009;1.809577643871307E-001;-1.497486699372530E-002;-2.868413692340255E-003;2.828186610713601E-003;
2.413166666666667E+009;1.817363649606705E-001;-1.720292493700981E-002;-2.898583654314280E-003;2.887615002691746E-003;
2.413333333333334E+009;1.827208697795868E-001;-1.949759572744370E-002;-2.982201287522912E-003;3.121282206848264E-003;
2.413500000000000E+009;1.836175322532654E-001;-2.192453108727932E-002;-3.070090198889375E-003;3.154489910230041E-003;
2.413666666666667E+009;1.847358942031860E-001;-2.395609021186829E-002;-2.939108759164810E-003;3.305195365101099E-003;
2.413833333333334E+009;1.859065741300583E-001;-2.601539529860020E-002;-2.837541047483683E-003;3.436519298702478E-003;
2.414000000000000E+009;1.869171410799027E-001;-2.809522859752178E-002;-2.860677428543568E-003;3.703032853081822E-003;
2.414166666666667E+009;1.881935745477676E-001;-2.973366715013981E-002;-2.756974427029491E-003;3.828810527920723E-003;
2.414333333333334E+009;1.893263012170792E-001;-3.178939968347549E-002;-2.715396927669644E-003;4.158206749707460E-003;
2.414500000000000E+009;1.905474066734314E-001;-3.328547626733780E-002;-2.633480355143547E-003;4.294339567422867E-003;
2.414666666666667E+009;1.917213797569275E-001;-3.475078940391541E-002;-2.488575642928481E-003;4.493709187954664E-003;
2.414833333333334E+009;1.929562091827393E-001;-3.619948029518127E-002;-2.293956233188510E-003;4.710638429969549E-003;
2.415000000000000E+009;1.939601302146912E-001;-3.741157054901123E-002;-2.013024641200900E-003;4.840684588998556E-003;
2.415166666666667E+009;1.952703893184662E-001;-3.834080323576927E-002;-1.786227570846677E-003;5.172952078282833E-003;
2.415333333333334E+009;1.964685618877411E-001;-3.948607295751572E-002;-1.569235115312040E-003;5.214731208980084E-003;
2.415500000000000E+009;1.974903941154480E-001;-4.028547927737236E-002;-1.114373211748898E-003;5.212376825511456E-003;
2.415666666666667E+009;1.984283924102783E-001;-4.096626862883568E-002;-9.085554047487676E-004;5.360388197004795E-003;
2.415833333333334E+009;1.992271393537521E-001;-4.151919856667519E-002;-5.751274293288589E-004;5.374662112444639E-003;
2.416000000000000E+009;2.001043558120728E-001;-4.214885085821152E-002;-4.556717758532614E-004;5.331249907612801E-003;
2.416166666666667E+009;2.006288170814514E-001;-4.275132715702057E-002;-4.250939673511311E-005;5.215310491621494E-003;
2.416333333333334E+009;2.012993842363358E-001;-4.295285046100617E-002;8.833549509290606E-005;5.299357231706381E-003;
2.416500000000000E+009;2.017056643962860E-001;-4.324397444725037E-002;4.348872462287545E-004;5.221580155193806E-003;
2.416666666666667E+009;2.020328342914581E-001;-4.330926761031151E-002;6.534958956763148E-004;5.183530040085316E-003;
2.416833333333334E+009;2.021375745534897E-001;-4.334236308932304E-002;6.409442867152393E-004;4.934978671371937E-003;
2.417000000000000E+009;2.023818194866180E-001;-4.344750568270683E-002;1.039185328409076E-003;4.898726474493742E-003;
2.417166666666667E+009;2.019613981246948E-001;-4.337338358163834E-002;1.302957418374717E-003;4.710933193564415E-003;
2.417333333333334E+009;2.016209363937378E-001;-4.302271455526352E-002;1.459489110857248E-003;4.588227253407240E-003;
2.417500000000000E+009;2.014433592557907E-001;-4.311346635222435E-002;1.587401144206524E-003;4.742543213069439E-003;
2.417666666666667E+009;2.008812427520752E-001;-4.278806224465370E-002;1.747037051245570E-003;4.439150448888540E-003;
2.417833333333334E+009;2.004376500844955E-001;-4.262218624353409E-002;1.799867139197886E-003;4.274837672710419E-003;
2.418000000000000E+009;1.998785734176636E-001;-4.225151240825653E-002;1.834846683777869E-003;4.218381363898516E-003;
2.418166666666667E+009;1.989184468984604E-001;-4.212693870067596E-002;1.940845162607729E-003;4.107061307877302E-003;
2.418333333333334E+009;1.980856508016586E-001;-4.190994426608086E-002;2.122980309650302E-003;3.811338217929006E-003;
2.418500000000000E+009;1.970787942409515E-001;-4.197135195136070E-002;2.148108789697290E-003;3.781051607802510E-003;
2.418666666666667E+009;1.960512846708298E-001;-4.176800698041916E-002;2.251558937132359E-003;3.662496572360396E-003;
2.418833333333334E+009;1.948405653238297E-001;-4.190993681550026E-002;2.292638411745429E-003;3.576152725145221E-003;
2.419000000000000E+009;1.935576796531677E-001;-4.202562198042870E-002;2.286522882059217E-003;3.402399597689509E-003;
2.419166666666667E+009;1.923317313194275E-001;-4.233071208000183E-002;2.523886505514383E-003;3.314891597256064E-003;
2.419333333333334E+009;1.907732933759689E-001;-4.280514642596245E-002;2.536424435675144E-003;3.019448136910796E-003;
2.419500000000000E+009;1.892551183700562E-001;-4.325380176305771E-002;2.579024061560631E-003;3.049483057111502E-003;
2.419666666666667E+009;1.878202408552170E-001;-4.410855472087860E-002;2.612960059195757E-003;2.938715741038322E-003;
2.419833333333334E+009;1.861175894737244E-001;-4.451117664575577E-002;2.554683247581124E-003;2.815289655700326E-003;
2.420000000000000E+009;1.847243458032608E-001;-4.547574743628502E-002;2.559058135375381E-003;2.678764052689076E-003;
2.420166666666667E+009;1.830394566059113E-001;-4.649898782372475E-002;2.581812907010317E-003;2.559634856879711E-003;
2.420333333333334E+009;1.814046055078507E-001;-4.764939472079277E-002;2.591192955151200E-003;2.468027872964740E-003;
2.420500000000000E+009;1.795920133590698E-001;-4.888585209846497E-002;2.556454855948687E-003;2.521228045225143E-003;
2.420666666666667E+009;1.780025362968445E-001;-5.002845451235771E-002;2.695650095120072E-003;2.355524804443121E-003;
2.420833333333334E+009;1.765578687191010E-001;-5.151326954364777E-002;2.478456124663353E-003;2.209546510130167E-003;
2.421000000000000E+009;1.750191748142242E-001;-5.323155224323273E-002;2.420411445200443E-003;2.085611457005143E-003;
2.421166666666667E+009;1.735354065895081E-001;-5.482867732644081E-002;2.440915908664465E-003;2.066433895379305E-003;
2.421333333333334E+009;1.719035208225250E-001;-5.633671581745148E-002;2.399358898401260E-003;2.002867637202144E-003;
2.421500000000000E+009;1.705709099769592E-001;-5.827086046338081E-002;2.251732628792524E-003;1.876133144833148E-003;
2.421666666666667E+009;1.694227904081345E-001;-5.999238416552544E-002;2.241947920992971E-003;2.049410948529840E-003;
2.421833333333334E+009;1.682858765125275E-001;-6.194667518138886E-002;2.179359551519156E-003;1.882109907455742E-003;
2.422000000000000E+009;1.672579050064087E-001;-6.372878700494766E-002;2.127432031556964E-003;2.042977372184396E-003;
2.422166666666667E+009;1.665286272764206E-001;-6.599070876836777E-002;2.007900504395366E-003;2.052335301414132E-003;
2.422333333333334E+009;1.654522716999054E-001;-6.802184879779816E-002;2.073865616694093E-003;2.148198662325740E-003;
2.422500000000000E+009;1.647020131349564E-001;-6.988431513309479E-002;2.109100576490164E-003;2.214186824858189E-003;
2.422666666666667E+009;1.640894114971161E-001;-7.201280444860458E-002;2.010898431763053E-003;2.349877962842584E-003;
2.422833333333334E+009;1.636205166578293E-001;-7.394792139530182E-002;2.182722324505448E-003;2.399307908490300E-003;
2.423000000000000E+009;1.631578952074051E-001;-7.608127593994141E-002;2.375418553128839E-003;2.342693274840713E-003;
2.423166666666667E+009;1.627809107303619E-001;-7.816415280103684E-002;2.452263841405511E-003;2.415367867797613E-003;
2.423333333333334E+009;1.627255082130432E-001;-8.008195459842682E-002;2.504087984561920E-003;2.438971074298024E-003;
2.423500000000000E+009;1.626626402139664E-001;-8.180528134107590E-002;2.481907838955522E-003;2.522801747545600E-003;
2.423666666666667E+009;1.626038998365402E-001;-8.371918648481369E-002;2.617268124595285E-003;2.340189879760146E-003;
2.423833333333334E+009;1.627346724271774E-001;-8.556493371725082E-002;2.878914354369044E-003;2.442370401695371E-003;
2.424000000000000E+009;1.628392040729523E-001;-8.749337494373322E-002;3.014544723555446E-003;2.377432072535157E-003;
2.424166666666667E+009;1.630740761756897E-001;-8.913824707269669E-002;2.997265895828605E-003;2.363091567531228E-003;
2.424333333333334E+009;1.633152067661285E-001;-9.060574322938919E-002;3.212894313037396E-003;2.279814798384905E-003;
2.424500000000000E+009;1.636677980422974E-001;-9.238310903310776E-002;3.255821764469147E-003;2.217619447037578E-003;
2.424666666666667E+009;1.639648675918579E-001;-9.380020201206207E-002;3.333930624648929E-003;2.210584701970220E-003;
2.424833333333334E+009;1.645586192607880E-001;-9.511291235685349E-002;3.586955834180117E-003;2.102330792695284E-003;
2.425000000000000E+009;1.650605499744415E-001;-9.626059234142304E-002;3.696906147524715E-003;2.071875846013427E-003;
2.425166666666667E+009;1.653638631105423E-001;-9.735880047082901E-002;3.862533718347549E-003;2.087403787299991E-003;
2.425333333333334E+009;1.656076461076737E-001;-9.829025715589523E-002;4.002136643975973E-003;2.133865840733051E-003;
2.425500000000000E+009;1.661703735589981E-001;-9.944185614585877E-002;4.134900402277708E-003;1.909110462293029E-003;
2.425666666666667E+009;1.666359752416611E-001;-9.996737539768219E-002;4.266384523361921E-003;1.776933553628624E-003;
2.425833333333334E+009;1.669145673513413E-001;-1.009623780846596E-001;4.428844898939133E-003;1.501745777204633E-003;
2.426000000000000E+009;1.675052344799042E-001;-1.013711690902710E-001;4.563566297292709E-003;1.546223764307797E-003;
2.426166666666667E+009;1.678571850061417E-001;-1.018900796771050E-001;4.708990920335054E-003;1.270672073587775E-003;
2.426333333333334E+009;1.679590195417404E-001;-1.022925749421120E-001;4.728050902485848E-003;1.023251679725945E-003;
2.426500000000000E+009;1.683474034070969E-001;-1.027551516890526E-001;4.833448212593794E-003;9.904835605993867E-004;
2.426666666666667E+009;1.686610132455826E-001;-1.030686944723129E-001;5.038091912865639E-003;7.093008607625961E-004;
2.426833333333334E+009;1.689157932996750E-001;-1.032031774520874E-001;5.117334425449371E-003;6.127828382886946E-004;
2.427000000000000E+009;1.689086258411408E-001;-1.035086736083031E-001;5.092639941722155E-003;1.574342313688248E-004;
2.427166666666667E+009;1.689535528421402E-001;-1.034455820918083E-001;4.951126407831907E-003;1.191513511002995E-004;
2.427333333333334E+009;1.686775386333466E-001;-1.038308069109917E-001;5.177121143788099E-003;-9.732555918162689E-005;
2.427500000000000E+009;1.684137880802155E-001;-1.039883643388748E-001;5.016760900616646E-003;-1.125133858295158E-004;
2.427666666666667E+009;1.682343482971191E-001;-1.039127111434937E-001;5.092222243547440E-003;-2.713449066504836E-004;
2.427833333333334E+009;1.678196489810944E-001;-1.040631681680679E-001;5.191233009099960E-003;-4.983581602573395E-004;
