# Hz S RI R 50
2400000000.0000000000 0.158505707979202298263388115629 0.061968594789505011821706403907 -0.002684200182557106018066406250 -0.000186770877917297211572369986 0 0 0 0 
2400166666.6666665077 0.158419534564018305022869981258 0.060619551688432686542551408593 -0.002596050035208464102504111182 -0.000177659108885563910007476807 0 0 0 0 
2400333333.3333334923 0.158196702599525507171307481258 0.058534648269414901733398437500 -0.002516220090910791917088173975 -0.000043981657654512666840145724 0 0 0 0 
2400500000.0000000000 0.158282458782195989410723768742 0.056778233498334891582448591407 -0.002422085497528315024134970557 0.000090132205514237284660339355 0 0 0 0 
2400666666.6666665077 0.158149123191833496093750000000 0.054755989462137222290039062500 -0.002495504450052977041957236182 0.000160940122441388693734845572 0 0 0 0 
2400833333.3333334923 0.158320933580398587325888115629 0.052910216152667999267578125000 -0.002414933871477841897251748193 0.000270428339717909693717956543 0 0 0 0 
2401000000.0000000000 0.158316224813461303710937500000 0.050803732126951217651367187500 -0.002379911253228784041163779150 0.000489971716888248920440673828 0 0 0 0 
2401166666.6666665077 0.158717483282089205642861884371 0.048781339079141616821289062500 -0.002484166529029608206508017432 0.000414718233514577204554957257 0 0 0 0 
2401333333.3333334923 0.158793151378631591796875000000 0.046785607933998107910156250000 -0.002295101061463356018066406250 0.000401612574933096820681971417 0 0 0 0 
2401500000.0000000000 0.159354180097580011565838731258 0.044651128351688391948659528907 -0.002239813096821308135986328125 0.000766533892601728439331054688 0 0 0 0 
2401666666.6666665077 0.159554123878479003906250000000 0.042639695107936859130859375000 -0.002263073343783617019653320312 0.000852367782499641180038452148 0 0 0 0 
2401833333.3333334923 0.159946024417877197265625000000 0.040612839162349700927734375000 -0.002076296368613839149475097656 0.000899842241778969764709472656 0 0 0 0 
2402000000.0000000000 0.160151347517967196365518134371 0.038727894425392150878906250000 -0.001953651430085300965550088037 0.001141362125054002025006938403 0 0 0 0 
2402166666.6666665077 0.160763695836067199707031250000 0.036645665764808661724050153907 -0.001911554601974784894230507959 0.001181131228804588101030659253 0 0 0 0 
2402333333.3333334923 0.161302939057350186446981865629 0.034872498363256447528879533593 -0.001811634632758795998216938550 0.001234919414855540015577006763 0 0 0 0 
2402500000.0000000000 0.162146732211113003829794365629 0.033021230250597000122070312500 -0.001811342546716332001927041162 0.001444962224923074028612446362 0 0 0 0 
2402666666.6666665077 0.162726804614067105392294365629 0.031418908387422561645507812500 -0.001544874976389110088348388672 0.001536084571853280067443847656 0 0 0 0 
2402833333.3333334923 0.163514927029609707931356865629 0.029633874073624610900878906250 -0.001510861678980291106580424731 0.001531289773993194103240966797 0 0 0 0 
2403000000.0000000000 0.164162397384643610198651231258 0.027935728430747989309290701954 -0.001253990572877228043199848706 0.001504944986663758971570659106 0 0 0 0 
2403166666.6666665077 0.165131852030754089355468750000 0.026443848386406898498535156250 -0.001122181536629796028137207031 0.001631259918212891058680868994 0 0 0 0 
2403333333.3333334923 0.165916740894317599197549384371 0.025070179253816611553151716407 -0.001193179865367711024043417822 0.001512303482741117911097861182 0 0 0 0 
2403500000.0000000000 0.166877791285514803787393134371 0.023704342544078830373743826954 -0.000885445508174598217010498047 0.001579260802827775912043906104 0 0 0 0 
2403666666.6666665077 0.167764261364936800857705634371 0.022228913381695750844935233204 -0.000617477810010313987731933594 0.001602528151124716021894145435 0 0 0 0 
2403833333.3333334923 0.168797492980957003494424384371 0.020755251869559291494349295704 -0.000594163197092711925506591797 0.001475909841246902942657470703 0 0 0 0 
2404000000.0000000000 0.169657811522483797928018134371 0.019853821024298671377161795704 -0.000462942378362640684277135028 0.001378458109684288935420370947 0 0 0 0 
2404166666.6666665077 0.170504957437515286544638115629 0.018559355288743969308873360546 -0.000516710861120373010635375977 0.001487510045990348079084086841 0 0 0 0 
2404333333.3333334923 0.171544656157493591308593750000 0.017630744725465781475026716407 -0.000326609733747318387031555176 0.001293779467232524914982461084 0 0 0 0 
2404500000.0000000000 0.172485098242759704589843750000 0.016685128211975101125696951954 -0.000081256075645796954631805420 0.001445757225155829949619912256 0 0 0 0 
2404666666.6666665077 0.173413276672363309005575615629 0.015780620276927951467493826954 -0.000023763459466863420197759935 0.001227822504006325981737446362 0 0 0 0 
2404833333.3333334923 0.174224555492401095291299384371 0.014915658161044120788574218750 -0.000117755029350519193850378719 0.001248486805707216045976948315 0 0 0 0 
2405000000.0000000000 0.175079405307769803146200615629 0.014351087622344490396519844921 0.000310086499666795080334263934 0.001021967385895550034166645581 0 0 0 0 
2405166666.6666665077 0.175834506750106811523437500000 0.013735904358327390498151210352 0.000212686500162817510679522104 0.000915177806746214628219604492 0 0 0 0 
2405333333.3333334923 0.176678657531738309005575615629 0.012880431488156320399274257227 0.000279708619927987510531824933 0.000909639988094568252563476562 0 0 0 0 
2405500000.0000000000 0.177314475178718594650106865629 0.012598605826497079676618007227 0.000292778771836310625076293945 0.000661208352539688348770141602 0 0 0 0 
2405666666.6666665077 0.178025677800178500076455634371 0.012005133554339410609235194727 0.000310312345391139388084411621 0.000627706875093281269073486328 0 0 0 0 
2405833333.3333334923 0.178520917892456110198651231258 0.011585657484829429281214530079 0.000347402121406048482090550555 0.000597598729655146598815917969 0 0 0 0 
2406000000.0000000000 0.178935036063194302657919365629 0.011093663051724430429478829296 0.000375608389731496626704615460 0.000598698330577462911605834961 0 0 0 0 
2406166666.6666665077 0.179384380578994806487713731258 0.010876465588808059692382812500 0.000490256410557776689529418945 0.000481889990624040419429224835 0 0 0 0 
2406333333.3333334923 0.179778248071670504470986884371 0.010580764152109619485875313671 0.000330353970639407580524998798 0.000249620003160089308589381085 0 0 0 0 
2406500000.0000000000 0.180061146616935702224893134371 0.010181329213082790374755859375 0.000378785742213949615329188214 0.000272714969469234401553553448 0 0 0 0 
2406666666.6666665077 0.180102482438087491134481865629 0.009855424053966999053955078125 0.000446421472588554024696350098 0.000232340433285571607664385385 0 0 0 0 
2406833333.3333334923 0.180331021547317504882812500000 0.009448984637856483459472656250 0.000195352127775549888610839844 0.000078222306910902261734008789 0 0 0 0 
2407000000.0000000000 0.180281862616539001464843750000 0.009079017676413059234619140625 0.000320327730150893276363927020 0.000020721048713312480935846635 0 0 0 0 
2407166666.6666665077 0.180488154292106600662393134371 0.008707364089787006378173828125 0.000339109566994011402130126953 -0.000086509528046008199453353882 0 0 0 0 
2407333333.3333334923 0.180331155657768305022869981258 0.008213387802243232727050781250 0.000320254883263260126113891602 -0.000107614796434063505060733934 0 0 0 0 
2407500000.0000000000 0.180107206106185913085937500000 0.007975432090461254119873046875 0.000219473877223208600848597394 -0.000125284626847133013323107309 0 0 0 0 
2407666666.6666665077 0.179923728108406094650106865629 0.007409027311950922012329101562 0.000258701853454113006591796875 -0.000180970280780456987306317740 0 0 0 0 
2407833333.3333334923 0.179435789585113497635049384371 0.006755761336535215377807617188 0.000254169135587289875179844989 -0.000395119190216064507335108624 0 0 0 0 
2408000000.0000000000 0.179157570004463195800781250000 0.006147267762571573257446289062 0.000146102800499647909968775616 -0.000209336372790858203738612042 0 0 0 0 
2408166666.6666665077 0.178704038262367304046307481258 0.005550826899707317352294921875 0.000281144748441874980926513672 -0.000225779222091659903526306152 0 0 0 0 
2408333333.3333334923 0.178437367081642206390057481258 0.004673291463404893875122070312 -0.000078557161032222211360931396 -0.000368547160178422873646336688 0 0 0 0 
2408500000.0000000000 0.177809730172157287597656250000 0.003797561861574649810791015625 -0.000101875186373945298507967538 -0.000412497232900932377010899677 0 0 0 0 
2408666666.6666665077 0.177230432629585293868856865629 0.002758290152996778921840048682 -0.000036131597880739718675613403 -0.000555961974896490573883056641 0 0 0 0 
2408833333.3333334923 0.176578313112258911132812500000 0.002070710528641939163208007812 -0.000117989540740381899193087167 -0.000539987115189433097839355469 0 0 0 0 
2409000000.0000000000 0.175922885537147494217080634371 0.000900886079762130975723266602 -0.000170439394423738094881334848 -0.000507414806634187698364257812 0 0 0 0 
2409166666.6666665077 0.175310432910919189453125000000 -0.000203588511794805499628344125 -0.000110213673906400799751281738 -0.000601280364207923412322998047 0 0 0 0 
2409333333.3333334923 0.174650609493255587478799384371 -0.001489577232860028960584330981 -0.000255708757322281599044799805 -0.000614784017670899629592895508 0 0 0 0 
2409500000.0000000000 0.174103006720542907714843750000 -0.002693169750273228125331259619 -0.000292210024781525080830174579 -0.000638022611383348703384399414 0 0 0 0 
2409666666.6666665077 0.173316180706024197677450615629 -0.004155039321631193161010742188 -0.000390706671169027686119079590 -0.000653828436043113470077514648 0 0 0 0 
2409833333.3333334923 0.172529309988021906097088731258 -0.005530747119337320327758789062 -0.000415989983594044988781529559 -0.000610652088653296232223510742 0 0 0 0 
2410000000.0000000000 0.172092035412788391113281250000 -0.006901277694851160049438476562 -0.000411448680097237175137120380 -0.000785822689067572355270385742 0 0 0 0 
2410166666.6666665077 0.171489015221595791915731865629 -0.008469714783132076263427734375 -0.000502987939398735761642456055 -0.000710799766238778829574584961 0 0 0 0 
2410333333.3333334923 0.170943915843963595291299384371 -0.010215552523732190567939959180 -0.000534910999704152454077565881 -0.000798252702224999666213989258 0 0 0 0 
2410500000.0000000000 0.170510634779930086990518134371 -0.011914083734154699498186680273 -0.000697171606589108705520629883 -0.000823242880869656801223754883 0 0 0 0 
2410666666.6666665077 0.169734507799148587325888115629 -0.013794136233627799642542655079 -0.000682645535562187433242797852 -0.000844239373691380023956298828 0 0 0 0 
2410833333.3333334923 0.169530034065246609786825615629 -0.015451462008059030014961443555 -0.000831343000754714012145996094 -0.000913840485736727714538574219 0 0 0 0 
2411000000.0000000000 0.169238388538360595703125000000 -0.017117138952016830444335937500 -0.000870802381541579961776733398 -0.000852266908623278141021728516 0 0 0 0 
2411166666.6666665077 0.168730780482292203048544365629 -0.019098840653896328317662423046 -0.000967694271821528673171997070 -0.000834123697131872177124023438 0 0 0 0 
2411333333.3333334923 0.168467432260513305664062500000 -0.020997421815991401672363281250 -0.001010405831038952090619731372 -0.000805666786618530750274658203 0 0 0 0 
2411500000.0000000000 0.168483182787895202636718750000 -0.022980701178312301635742187500 -0.001188996364362538077710795825 -0.000820063520222902297973632812 0 0 0 0 
2411666666.6666665077 0.168442144989967401702557481258 -0.024865424260497089731236641796 -0.001306762918829917907714843750 -0.000777959881816059350967407227 0 0 0 0 
2411833333.3333334923 0.168337330222129794021768134371 -0.026657406240701678884486014454 -0.001378788496367632909062050928 -0.000644361891318112611770629883 0 0 0 0 
2412000000.0000000000 0.168560147285461398025674384371 -0.028989356011152270925501639454 -0.001608336810022592978236533057 -0.000525343406479805707931518555 0 0 0 0 
2412166666.6666665077 0.168462857604026794433593750000 -0.030580410733819011342982108204 -0.001719397958368062973022460938 -0.000648302666377276182174682617 0 0 0 0 
2412333333.3333334923 0.168735682964325006683026231258 -0.032430019229650497436523437500 -0.001820018980652094104169536060 -0.000566119677387177944183349609 0 0 0 0 
2412500000.0000000000 0.168852522969245910644531250000 -0.034148178994655609130859375000 -0.001816329080611466927769326318 -0.000446493824711069518893641339 0 0 0 0 
2412666666.6666665077 0.169284373521804809570312500000 -0.036222089082002639770507812500 -0.001877173548564315059064555591 -0.000504945754073560237884521484 0 0 0 0 
2412833333.3333334923 0.169659957289695711990518134371 -0.038030367344617836689035783593 -0.002011968521401286125183105469 -0.000329534319462254589230137958 0 0 0 0 
2413000000.0000000000 0.169895187020301791092080634371 -0.039780326187610633159597028907 -0.002094650873914361000061035156 -0.000062688624893780797719955444 0 0 0 0 
2413166666.6666665077 0.170177355408668490310830634371 -0.041540522128343582153320312500 -0.002085514133796095848083496094 0.000025945777451852339914048842 0 0 0 0 
2413333333.3333334923 0.170655131340026910979901231258 -0.043226264417171478271484375000 -0.002116966992616653008701943506 -0.000005404378953244304284453392 0 0 0 0 
2413500000.0000000000 0.171349987387657193282919365629 -0.044723536819219589233398437500 -0.002217137720435858206508017432 0.000335682823788374716609400616 0 0 0 0 
2413666666.6666665077 0.171748563647270202636718750000 -0.046237818896770477294921875000 -0.002213435480371118025538779150 0.000485710392240434885025024414 0 0 0 0 
2413833333.3333334923 0.172199204564094487945880018742 -0.047763478010892868041992187500 -0.002176766050979495048522949219 0.000514578772708773612976074219 0 0 0 0 
2414000000.0000000000 0.172618001699447604080361884371 -0.049013424664735787128488908593 -0.002225317293778061866760253906 0.000727913633454591035842895508 0 0 0 0 
2414166666.6666665077 0.173265293240547207931356865629 -0.050341695547103881835937500000 -0.002294570207595825195312500000 0.000609644921496510505676269531 0 0 0 0 
2414333333.3333334923 0.173801138997077886383380018742 -0.051588091999292366718332658593 -0.002495205262675880952122353662 0.000787270371802151203155517578 0 0 0 0 
2414500000.0000000000 0.174498930573463412185830634371 -0.052634660154581069946289062500 -0.002235556254163384003880166162 0.001005064928904175975202250903 0 0 0 0 
2414666666.6666665077 0.174874439835548400878906250000 -0.053699150681495673442800153907 -0.002240764442831277847290039062 0.001006695558317006067988730322 0 0 0 0 
2414833333.3333334923 0.175250753760337801834268134371 -0.054702837020158767700195312500 -0.002342385472729802131652832031 0.001099403016269207000732421875 0 0 0 0 
2415000000.0000000000 0.175798296928405789474325615629 -0.055581469088792800903320312500 -0.002291022101417183876037597656 0.001378126675263047001482319409 0 0 0 0 
2415166666.6666665077 0.176044702529907198806924384371 -0.056392863392829901958425153907 -0.002290376927703619003295898438 0.001567542552947998046875000000 0 0 0 0 
2415333333.3333334923 0.176462516188621493240518134371 -0.057004749774932861328125000000 -0.002122434321790934042689658057 0.001569950487464665932896279443 0 0 0 0 
2415500000.0000000000 0.176702842116355895996093750000 -0.057577699422836296772043596093 -0.002015999518334866003749228369 0.001817893935367465019226074219 0 0 0 0 
2415666666.6666665077 0.177058398723602294921875000000 -0.058062780648469931865651716407 -0.002098296768963336944580078125 0.001871158136054873900172568213 0 0 0 0 
2415833333.3333334923 0.177197828888893099685830634371 -0.058678206056356430053710937500 -0.001957073574885725975036621094 0.002090740948915482001063681494 0 0 0 0 
2416000000.0000000000 0.177130758762359591385049384371 -0.059158015996217727661132812500 -0.001999897183850408034083701025 0.002154591958969831900355673682 0 0 0 0 
2416166666.6666665077 0.177483975887298611739950615629 -0.059552967548370361328125000000 -0.001890815561637281937840127100 0.002227629302069544792175292969 0 0 0 0 
2416333333.3333334923 0.177300825715065002441406250000 -0.059903290122747421264648437500 -0.001774863689206541018245077979 0.002273513469845056967494345557 0 0 0 0 
2416500000.0000000000 0.177136704325675992111044365629 -0.060209814459085457538645158593 -0.001648125355131923935533833081 0.002446190919727087020874023438 0 0 0 0 
2416666666.6666665077 0.176905855536460904220419365629 -0.060465104877948760986328125000 -0.001646345248445868925807333838 0.002566050505265593962428427588 0 0 0 0 
2416833333.3333334923 0.176735088229179410079794365629 -0.060738764703273773193359375000 -0.001379710505716503100154257666 0.002662949031218885941746377100 0 0 0 0 
2417000000.0000000000 0.176178485155105590820312500000 -0.061140812933444976806640625000 -0.001259665470570326068280864185 0.002702302997931838035583496094 0 0 0 0 
2417166666.6666665077 0.175764605402946499923544365629 -0.061230964958667762065847028907 -0.001130704651586710973026894678 0.002897493075579404830932617188 0 0 0 0 
2417333333.3333334923 0.175247013568878201583700615629 -0.061481520533561706542968750000 -0.001123441150411963896510458838 0.002807364100590347810032509912 0 0 0 0 
2417500000.0000000000 0.174548760056495694259481865629 -0.061880756169557571411132812500 -0.000805931747891008853912353516 0.002831905847415328025817871094 0 0 0 0 
2417666666.6666665077 0.173937916755676297286825615629 -0.062022849917411797260324846093 -0.000823216512799263000488281250 0.002913716249167919158935546875 0 0 0 0 
2417833333.3333334923 0.173080757260322598556356865629 -0.062323980033397681499440778907 -0.000664652092382311820983886719 0.003203499130904674963710165869 0 0 0 0 
2418000000.0000000000 0.172206118702888488769531250000 -0.062861412763595581054687500000 -0.000468796468339860385090428485 0.003171636024489998817443847656 0 0 0 0 
2418166666.6666665077 0.171332150697708102127236884371 -0.062955982983112335205078125000 -0.000410701701184734702110290527 0.003148067742586135864257812500 0 0 0 0 
2418333333.3333334923 0.170659735798835809905682481258 -0.063442893326282501220703125000 -0.000252988626016303896903991699 0.003135242266580462889430380713 0 0 0 0 
2418500000.0000000000 0.169439345598220797439736884371 -0.063918657600879669189453125000 -0.000039717677282169461250305176 0.003214921103790401978733681787 0 0 0 0 
2418666666.6666665077 0.168412491679191589355468750000 -0.064430773258209228515625000000 -0.000045372973545454442501068115 0.003161067608743906021118164062 0 0 0 0 
2418833333.3333334923 0.167168125510215787032919365629 -0.064990498125553131103515625000 0.000201407092390581992551526480 0.003187441732734442190883017432 0 0 0 0 
2419000000.0000000000 0.165941566228866604904013115629 -0.065664261579513549804687500000 0.000307554262690246105194091797 0.003150653559714556174037314307 0 0 0 0 
2419166666.6666665077 0.164841473102569607833700615629 -0.066304318606853485107421875000 0.000429740524850785678059178485 0.003174430225044488906860351562 0 0 0 0 
2419333333.3333334923 0.163591116666793795486611884371 -0.066835045814514160156250000000 0.000569503870792686939239501953 0.003259953809902071952819824219 0 0 0 0 
2419500000.0000000000 0.162551879882812500000000000000 -0.068020842969417572021484375000 0.000830622913781553506851196289 0.003213522722944616837742470850 0 0 0 0 
2419666666.6666665077 0.161436483263969393631143134371 -0.068972192704677581787109375000 0.000858213403262197971343994141 0.003076988738030194802525185693 0 0 0 0 
2419833333.3333334923 0.160332381725311307052450615629 -0.069712646305561065673828125000 0.001024616300128399892094277490 0.002987553365528583960292197119 0 0 0 0 
