# Version 1.00
#
freq[Hz];re:Trc1_S11;im:Trc1_S11;re:Trc2_S21;im:Trc2_S21;
2.400000000000000E+009;1.605162322521210E-001;5.673623830080032E-002;5.426419666036964E-004;5.530721318791620E-005;
2.400166666666667E+009;1.606464982032776E-001;5.542866513133049E-002;6.942495820112526E-004;4.294382524676621E-004;
2.400333333333334E+009;1.608060300350189E-001;5.365935340523720E-002;7.682801806367934E-004;2.510861086193472E-004;
2.400500000000000E+009;1.608843207359314E-001;5.183550715446472E-002;9.427282493561506E-004;2.941175771411508E-004;
2.400666666666667E+009;1.608168929815292E-001;5.003929138183594E-002;8.928368333727121E-004;4.150596505496651E-004;
2.400833333333334E+009;1.611372828483582E-001;4.825287312269211E-002;8.130251080729067E-004;2.301773638464510E-004;
2.401000000000000E+009;1.613124459981918E-001;4.630793258547783E-002;8.510901243425906E-004;4.612879129126668E-004;
2.401166666666667E+009;1.616261899471283E-001;4.429877549409866E-002;9.737690561451018E-004;4.047034599352628E-004;
2.401333333333334E+009;1.618407368659973E-001;4.227108508348465E-002;1.107625197619200E-003;4.181862459518015E-004;
2.401500000000000E+009;1.622799783945084E-001;4.065310209989548E-002;1.137109007686377E-003;4.418890166562051E-004;
2.401666666666667E+009;1.626246273517609E-001;3.882878273725510E-002;1.316400477662683E-003;4.294803366065025E-004;
2.401833333333334E+009;1.630440652370453E-001;3.687195479869843E-002;1.325607765465975E-003;2.075702359434217E-004;
2.402000000000000E+009;1.632986366748810E-001;3.521846979856491E-002;1.469011651352048E-003;4.101549857296050E-004;
2.402166666666667E+009;1.639582663774490E-001;3.339793533086777E-002;1.579512492753565E-003;2.859330852515996E-004;
2.402333333333334E+009;1.643794625997543E-001;3.162165731191635E-002;1.555477618239820E-003;1.544649567222223E-004;
2.402500000000000E+009;1.650807261466980E-001;3.020637854933739E-002;1.714335288852453E-003;1.488631241954863E-004;
2.402666666666667E+009;1.656306535005570E-001;2.857453934848309E-002;1.691625337116420E-003;4.248096593073569E-005;
2.402833333333334E+009;1.661309152841568E-001;2.717643789947033E-002;1.806053682230413E-003;-1.865146477939561E-004;
2.403000000000000E+009;1.670159250497818E-001;2.572565898299217E-002;1.843541627749801E-003;-5.635151319438592E-005;
2.403166666666667E+009;1.678269207477570E-001;2.401488833129406E-002;1.759209204465151E-003;-3.488597576506436E-004;
2.403333333333334E+009;1.685980856418610E-001;2.285632118582726E-002;1.761794090270996E-003;-2.495733206160367E-004;
2.403500000000000E+009;1.691557765007019E-001;2.177848666906357E-002;1.709060743451119E-003;-4.376553406473249E-004;
2.403666666666667E+009;1.699810922145844E-001;2.037674561142921E-002;1.743972417898476E-003;-7.253828807733953E-004;
2.403833333333334E+009;1.707223951816559E-001;1.909634470939636E-002;1.721331034786999E-003;-8.527902537025511E-004;
2.404000000000000E+009;1.713769733905792E-001;1.823776587843895E-002;1.720855943858624E-003;-8.623276953585446E-004;
2.404166666666667E+009;1.722207367420197E-001;1.704348810017109E-002;1.853562891483307E-003;-8.986690663732588E-004;
2.404333333333334E+009;1.727509200572968E-001;1.623887568712235E-002;1.709055737592280E-003;-1.030880608595908E-003;
2.404500000000000E+009;1.734800487756729E-001;1.523663941770792E-002;1.453078468330205E-003;-1.079664332792163E-003;
2.404666666666667E+009;1.741667836904526E-001;1.455314084887505E-002;1.479301485233009E-003;-1.119065447710455E-003;
2.404833333333334E+009;1.748152375221252E-001;1.389160286635160E-002;1.422039582394064E-003;-9.940031450241804E-004;
2.405000000000000E+009;1.754446476697922E-001;1.302497368305922E-002;1.208185218274593E-003;-1.223957864567637E-003;
2.405166666666667E+009;1.759939491748810E-001;1.246494892984629E-002;1.270596170797944E-003;-1.024520955979824E-003;
2.405333333333334E+009;1.765856146812439E-001;1.182214729487896E-002;1.168348593637347E-003;-1.371545367874205E-003;
2.405500000000000E+009;1.770312041044235E-001;1.142466161400080E-002;9.907355997711420E-004;-1.183995860628784E-003;
2.405666666666667E+009;1.773090213537216E-001;1.095878984779120E-002;1.023279852233827E-003;-1.313747139647603E-003;
2.405833333333334E+009;1.775366365909576E-001;1.045538950711489E-002;8.709013927727938E-004;-1.212232979014516E-003;
2.406000000000000E+009;1.780517697334290E-001;9.977723471820355E-003;7.071083527989686E-004;-1.165383146144450E-003;
2.406166666666667E+009;1.780677288770676E-001;9.684541262686253E-003;7.725286413915455E-004;-9.893233655020595E-004;
2.406333333333334E+009;1.785286962985992E-001;9.252203628420830E-003;8.327968535013497E-004;-9.755122009664774E-004;
2.406500000000000E+009;1.785318553447723E-001;8.891880512237549E-003;7.537851342931390E-004;-9.876219555735588E-004;
2.406666666666667E+009;1.784583330154419E-001;8.496118709445000E-003;6.669154390692711E-004;-8.557963883504272E-004;
2.406833333333334E+009;1.785131543874741E-001;8.093538694083691E-003;5.466487491503358E-004;-8.990613860078156E-004;
2.407000000000000E+009;1.784385591745377E-001;7.506139576435089E-003;7.028224645182490E-004;-8.029753807932138E-004;
2.407166666666667E+009;1.783906519412994E-001;7.192899938672781E-003;7.063897210173309E-004;-8.820415823720396E-004;
2.407333333333334E+009;1.780838966369629E-001;6.623338907957077E-003;7.793566910549998E-004;-6.714481278322637E-004;
2.407500000000000E+009;1.779194176197052E-001;6.089339964091778E-003;7.669935584999621E-004;-7.953481981530786E-004;
2.407666666666667E+009;1.776319593191147E-001;5.566292908042669E-003;6.266525015234947E-004;-6.257687346078455E-004;
2.407833333333334E+009;1.771855354309082E-001;4.729587584733963E-003;6.825464661233127E-004;-6.569727556779981E-004;
2.408000000000000E+009;1.767926961183548E-001;3.965070005506277E-003;8.365188841708005E-004;-8.595196995884180E-004;
2.408166666666667E+009;1.763260513544083E-001;3.329065861180425E-003;8.822217350825667E-004;-6.215097964741290E-004;
2.408333333333334E+009;1.759519726037979E-001;2.388787688687444E-003;9.402799769304693E-004;-6.996615557000041E-004;
2.408500000000000E+009;1.754724234342575E-001;1.523480517789722E-003;9.421032737009227E-004;-5.206486093811691E-004;
2.408666666666667E+009;1.747350543737412E-001;4.080101789440960E-004;9.337817318737507E-004;-6.737955845892429E-004;
2.408833333333334E+009;1.742653697729111E-001;-6.314212805591524E-004;1.016731257550418E-003;-6.033332319930196E-004;
2.409000000000000E+009;1.736780405044556E-001;-1.691985409706831E-003;1.140346983447671E-003;-7.115358603186905E-004;
2.409166666666667E+009;1.730387806892395E-001;-3.108927281573415E-003;1.145144575275481E-003;-7.317851996049285E-004;
2.409333333333334E+009;1.725186854600906E-001;-4.407539498060942E-003;1.164310611784458E-003;-5.792180891148746E-004;
2.409500000000000E+009;1.719530522823334E-001;-5.689870100468397E-003;1.234046998433769E-003;-6.540906615555286E-004;
2.409666666666667E+009;1.712953597307205E-001;-7.140969857573509E-003;1.372551196254790E-003;-8.345704409293830E-004;
2.409833333333334E+009;1.709106266498566E-001;-8.692639879882336E-003;1.312089734710753E-003;-8.132533403113484E-004;
2.410000000000000E+009;1.704060137271881E-001;-1.010873820632696E-002;1.522816019132733E-003;-9.642527438700199E-004;
2.410166666666667E+009;1.697980463504791E-001;-1.176389772444964E-002;1.521116821095347E-003;-8.410880109295249E-004;
2.410333333333334E+009;1.694334596395493E-001;-1.352131646126509E-002;1.410389901138842E-003;-9.257640340365470E-004;
2.410500000000000E+009;1.689965724945068E-001;-1.525735761970282E-002;1.579075469635427E-003;-1.093520666472614E-003;
2.410666666666667E+009;1.685834079980850E-001;-1.708639785647392E-002;1.587976934388280E-003;-1.228540553711355E-003;
2.410833333333334E+009;1.683853715658188E-001;-1.867878623306751E-002;1.810471643693745E-003;-1.217570621520281E-003;
2.411000000000000E+009;1.681862771511078E-001;-2.062172070145607E-002;1.684867427684367E-003;-1.320936484262347E-003;
2.411166666666667E+009;1.679476499557495E-001;-2.234777808189392E-002;1.860773889347911E-003;-1.485954620875418E-003;
2.411333333333334E+009;1.676461696624756E-001;-2.423080243170261E-002;1.773518393747509E-003;-1.672514597885311E-003;
2.411500000000000E+009;1.677246987819672E-001;-2.632454968988895E-002;1.736924285069108E-003;-1.799588091671467E-003;
2.411666666666667E+009;1.679714024066925E-001;-2.812738157808781E-002;1.896986854262650E-003;-1.990217249840498E-003;
2.411833333333334E+009;1.678278446197510E-001;-3.002611733973026E-002;1.800031634047627E-003;-2.153856214135885E-003;
2.412000000000000E+009;1.680365800857544E-001;-3.188732266426086E-002;1.811376423574984E-003;-2.354435157030821E-003;
2.412166666666667E+009;1.679676026105881E-001;-3.371205553412437E-002;1.585124409757555E-003;-2.319396939128637E-003;
2.412333333333334E+009;1.685490310192108E-001;-3.541776537895203E-002;1.583512173965573E-003;-2.719555050134659E-003;
2.412500000000000E+009;1.685680150985718E-001;-3.725732117891312E-002;1.632219296880066E-003;-2.907395595684648E-003;
2.412666666666667E+009;1.690514981746674E-001;-3.905884921550751E-002;1.398957334458828E-003;-3.221082733944058E-003;
2.412833333333334E+009;1.694499552249908E-001;-4.098761081695557E-002;1.395213068462908E-003;-3.214623313397169E-003;
2.413000000000000E+009;1.697677522897720E-001;-4.249710962176323E-002;1.342298230156303E-003;-3.338111564517021E-003;
2.413166666666667E+009;1.703145205974579E-001;-4.408446326851845E-002;1.089054159820080E-003;-3.549346001818776E-003;
2.413333333333334E+009;1.707174777984619E-001;-4.575357586145401E-002;8.908161544241011E-004;-3.712957492098212E-003;
2.413500000000000E+009;1.712588518857956E-001;-4.709957912564278E-002;6.315908976830542E-004;-3.984187729656696E-003;
2.413666666666667E+009;1.717695295810700E-001;-4.877686500549316E-002;4.368729714769870E-004;-4.026930779218674E-003;
2.413833333333334E+009;1.721858382225037E-001;-4.988983273506165E-002;8.270287798950449E-005;-4.196350462734699E-003;
2.414000000000000E+009;1.726146340370178E-001;-5.124854296445847E-002;-1.099354412872344E-004;-4.032233264297247E-003;
2.414166666666667E+009;1.731682717800140E-001;-5.245522037148476E-002;-3.365120792295784E-004;-3.879857715219259E-003;
2.414333333333334E+009;1.738417893648148E-001;-5.353947728872299E-002;-4.919221973977983E-004;-3.971004858613014E-003;
2.414500000000000E+009;1.744793504476547E-001;-5.447285249829292E-002;-7.266250322572887E-004;-4.057695623487234E-003;
2.414666666666667E+009;1.746947318315506E-001;-5.546662583947182E-002;-9.329576278105378E-004;-3.971424885094166E-003;
2.414833333333334E+009;1.751138865947723E-001;-5.644021555781364E-002;-1.409684540703893E-003;-4.139868542551994E-003;
2.415000000000000E+009;1.754730194807053E-001;-5.716333910822868E-002;-1.547269523143768E-003;-3.969399724155664E-003;
2.415166666666667E+009;1.759329587221146E-001;-5.785617232322693E-002;-1.832021167501807E-003;-4.000767599791288E-003;
2.415333333333334E+009;1.762956678867340E-001;-5.866004899144173E-002;-2.045945962890983E-003;-3.783266060054302E-003;
2.415500000000000E+009;1.763761192560196E-001;-5.906958505511284E-002;-2.300930209457874E-003;-3.871578257530928E-003;
2.415666666666667E+009;1.767292022705078E-001;-5.956991761922836E-002;-2.376472344622016E-003;-3.456645878031850E-003;
2.415833333333334E+009;1.767300218343735E-001;-6.000957265496254E-002;-2.617566380649805E-003;-3.441307460889220E-003;
2.416000000000000E+009;1.766086071729660E-001;-6.030047684907913E-002;-2.800915157422423E-003;-3.336235415190458E-003;
2.416166666666667E+009;1.768500953912735E-001;-6.077094748616219E-002;-3.040435956791043E-003;-3.191519994288683E-003;
2.416333333333334E+009;1.766750812530518E-001;-6.100939959287643E-002;-3.146060276776552E-003;-2.877842169255018E-003;
2.416500000000000E+009;1.765006482601166E-001;-6.131242588162422E-002;-3.237525466829538E-003;-2.659224206581712E-003;
2.416666666666667E+009;1.761669963598251E-001;-6.143577769398689E-002;-3.400793531909585E-003;-2.494449494406581E-003;
2.416833333333334E+009;1.759630143642426E-001;-6.173125654459000E-002;-3.355137538164854E-003;-2.435564296320081E-003;
2.417000000000000E+009;1.753059178590775E-001;-6.194438040256500E-002;-3.560215234756470E-003;-1.987493596971035E-003;
2.417166666666667E+009;1.748691201210022E-001;-6.213674694299698E-002;-3.572478657588363E-003;-2.088530221953988E-003;
2.417333333333334E+009;1.741791516542435E-001;-6.230467185378075E-002;-3.664327785372734E-003;-1.598026254214346E-003;
2.417500000000000E+009;1.735136955976486E-001;-6.265453249216080E-002;-3.799762576818466E-003;-1.530131557956338E-003;
2.417666666666667E+009;1.729122996330261E-001;-6.289140880107880E-002;-3.767799353227019E-003;-1.354805426672101E-003;
2.417833333333334E+009;1.719456315040588E-001;-6.305266171693802E-002;-3.693243954330683E-003;-1.116001047194004E-003;
2.418000000000000E+009;1.709792912006378E-001;-6.344281136989594E-002;-3.761815372854471E-003;-1.074691303074360E-003;
2.418166666666667E+009;1.701206266880035E-001;-6.364881247282028E-002;-3.650994971394539E-003;-9.032111265696585E-004;
2.418333333333334E+009;1.692314893007278E-001;-6.409591436386108E-002;-3.663947340101004E-003;-6.777341477572918E-004;
2.418500000000000E+009;1.680728048086166E-001;-6.449200212955475E-002;-3.696792293339968E-003;-4.512504092417657E-004;
2.418666666666667E+009;1.671578735113144E-001;-6.505243480205536E-002;-3.845229977741838E-003;-3.470968804322183E-004;
2.418833333333334E+009;1.658169329166412E-001;-6.570215523242950E-002;-3.557507647201419E-003;-2.204711490776390E-004;
2.419000000000000E+009;1.644846647977829E-001;-6.625939905643463E-002;-3.614511573687196E-003;4.206503035675269E-006;
2.419166666666667E+009;1.634464859962463E-001;-6.697788834571838E-002;-3.527412656694651E-003;7.634892972419038E-005;
2.419333333333334E+009;1.621907800436020E-001;-6.755188852548599E-002;-3.436296945437789E-003;1.245537860086188E-004;
2.419500000000000E+009;1.609134674072266E-001;-6.867361813783646E-002;-3.452486125752330E-003;2.844574337359518E-004;
2.419666666666667E+009;1.597397476434708E-001;-6.950686126947403E-002;-3.267218125984073E-003;3.085919888690114E-004;
2.419833333333334E+009;1.585693806409836E-001;-7.032112032175064E-002;-3.375304630026221E-003;5.364677053876221E-004;
2.420000000000000E+009;1.574048846960068E-001;-7.149029523134232E-002;-3.372767008841038E-003;5.973218358121812E-004;
2.420166666666667E+009;1.562804877758026E-001;-7.259502261877060E-002;-3.142558736726642E-003;8.176473784260452E-004;
2.420333333333334E+009;1.554147750139237E-001;-7.376170903444290E-002;-3.137279767543078E-003;8.395330514758825E-004;
2.420500000000000E+009;1.543205827474594E-001;-7.502967864274979E-002;-3.038604278117418E-003;1.020293449983001E-003;
2.420666666666667E+009;1.532871723175049E-001;-7.632654160261154E-002;-2.986701205372810E-003;1.143574714660645E-003;
2.420833333333334E+009;1.524863392114639E-001;-7.770700007677078E-002;-2.851101802662015E-003;1.259518787264824E-003;
2.421000000000000E+009;1.515054702758789E-001;-7.936347275972366E-002;-2.710448578000069E-003;1.393080223351717E-003;
2.421166666666667E+009;1.505211591720581E-001;-8.075156807899475E-002;-2.652866765856743E-003;1.432247343473136E-003;
2.421333333333334E+009;1.499786078929901E-001;-8.246601372957230E-002;-2.619114471599460E-003;1.524906372651458E-003;
2.421500000000000E+009;1.492453217506409E-001;-8.396031707525253E-002;-2.450222847983241E-003;1.741925487294793E-003;
2.421666666666667E+009;1.488460153341293E-001;-8.563570678234100E-002;-2.217078814283013E-003;1.587940147146583E-003;
2.421833333333334E+009;1.482936292886734E-001;-8.726336061954498E-002;-2.044597174972296E-003;1.801942940801382E-003;
2.422000000000000E+009;1.476690620183945E-001;-8.882580697536469E-002;-1.973709790036082E-003;1.885733916424215E-003;
2.422166666666667E+009;1.474234610795975E-001;-9.075376391410828E-002;-1.817957963794470E-003;1.864537014625967E-003;
2.422333333333334E+009;1.473214924335480E-001;-9.230874478816986E-002;-1.697430387139320E-003;1.913029700517654E-003;
2.422500000000000E+009;1.469532549381256E-001;-9.400306642055512E-002;-1.459223567508161E-003;1.991647062823176E-003;
2.422666666666667E+009;1.467953920364380E-001;-9.564879536628723E-002;-1.468510017730296E-003;1.908230246044695E-003;
2.422833333333334E+009;1.468828171491623E-001;-9.748905897140503E-002;-1.328191137872636E-003;2.123100450262427E-003;
2.423000000000000E+009;1.469029486179352E-001;-9.923543035984039E-002;-1.218024757690728E-003;1.886649755761027E-003;
2.423166666666667E+009;1.471400558948517E-001;-1.008186042308807E-001;-1.110710087232292E-003;1.888733473606408E-003;
2.423333333333334E+009;1.472546160221100E-001;-1.022545099258423E-001;-1.105497940443456E-003;1.810887828469276E-003;
2.423500000000000E+009;1.471242755651474E-001;-1.039908155798912E-001;-8.259902824647725E-004;1.795761520043016E-003;
2.423666666666667E+009;1.474737673997879E-001;-1.055075824260712E-001;-8.171575027517974E-004;1.730860094539821E-003;
2.423833333333334E+009;1.480616182088852E-001;-1.070285812020302E-001;-8.376279729418457E-004;1.671039848588407E-003;
2.424000000000000E+009;1.480841785669327E-001;-1.080807819962502E-001;-6.199533818289638E-004;1.574527006596327E-003;
2.424166666666667E+009;1.483988165855408E-001;-1.096364781260490E-001;-7.413179846480489E-004;1.493879011832178E-003;
2.424333333333334E+009;1.488749086856842E-001;-1.107525825500488E-001;-5.720175104215741E-004;1.517966273240745E-003;
2.424500000000000E+009;1.492676436901093E-001;-1.119785755872726E-001;-4.984593833796680E-004;1.464102766476572E-003;
2.424666666666667E+009;1.496971100568771E-001;-1.128847002983093E-001;-4.142216348554939E-004;1.337130088359118E-003;
2.424833333333334E+009;1.499282270669937E-001;-1.139930412173271E-001;-4.546813142951578E-004;1.142578781582415E-003;
2.425000000000000E+009;1.504434198141098E-001;-1.150826886296272E-001;-4.006134404335171E-004;1.221406972035766E-003;
2.425166666666667E+009;1.505963802337647E-001;-1.157906576991081E-001;-3.862901940010488E-004;1.241571269929409E-003;
2.425333333333334E+009;1.510002613067627E-001;-1.165535524487495E-001;-2.526716270949692E-004;1.354276086203754E-003;
2.425500000000000E+009;1.513603776693344E-001;-1.173509731888771E-001;-4.356312856543809E-004;1.120266388170421E-003;
2.425666666666667E+009;1.514322906732559E-001;-1.179770901799202E-001;-3.771617775782943E-004;1.265650731511414E-003;
2.425833333333334E+009;1.515273749828339E-001;-1.185213699936867E-001;-2.609921502880752E-004;1.019467948935926E-003;
2.426000000000000E+009;1.516998112201691E-001;-1.189768016338348E-001;-3.247405693400651E-004;1.139434054493904E-003;
2.426166666666667E+009;1.520544588565826E-001;-1.194829344749451E-001;-3.658038331195712E-004;1.089673838578165E-003;
2.426333333333334E+009;1.518650501966476E-001;-1.198625937104225E-001;-3.511255199555308E-004;1.003701006993651E-003;
2.426500000000000E+009;1.518716514110565E-001;-1.201598271727562E-001;-1.984789560083300E-004;8.458597585558891E-004;
2.426666666666667E+009;1.519074440002441E-001;-1.203322634100914E-001;-3.104271891061217E-004;9.939263109117746E-004;
2.426833333333334E+009;1.516424268484116E-001;-1.205298751592636E-001;-2.901357947848737E-004;9.154649451375008E-004;
2.427000000000000E+009;1.512968689203262E-001;-1.208416447043419E-001;-1.821657788241282E-004;9.317547082901001E-004;
2.427166666666667E+009;1.510134935379028E-001;-1.209000647068024E-001;-3.835073730442673E-004;8.189114159904420E-004;
2.427333333333334E+009;1.504746824502945E-001;-1.209983527660370E-001;-3.662073868326843E-004;7.806151406839490E-004;
2.427500000000000E+009;1.501386463642120E-001;-1.211831644177437E-001;-3.825930180028081E-004;7.026712410151959E-004;
2.427666666666667E+009;1.493729352951050E-001;-1.213314533233643E-001;-3.932096587959677E-004;8.167643100023270E-004;
