# Version 1.00
#
freq[Hz];re:Trc1_S11;im:Trc1_S11;re:Trc2_S21;im:Trc2_S21;
2.400000000000000E+009;1.713394671678543E-001;4.029428958892822E-002;3.296306123957038E-003;1.810697722248733E-003;
2.400166666666667E+009;1.719975471496582E-001;3.976492956280708E-002;3.337601432576776E-003;1.776357763446868E-003;
2.400333333333334E+009;1.723846942186356E-001;3.911910578608513E-002;3.349802456796169E-003;1.633945852518082E-003;
2.400500000000000E+009;1.730591654777527E-001;3.845878690481186E-002;3.570467233657837E-003;1.413655001670122E-003;
2.400666666666667E+009;1.732110083103180E-001;3.796955198049545E-002;3.643541131168604E-003;1.273156609386206E-003;
2.400833333333334E+009;1.734159439802170E-001;3.739238157868385E-002;3.669153666123748E-003;8.028992451727390E-004;
2.401000000000000E+009;1.736821532249451E-001;3.650837391614914E-002;3.661649767309427E-003;7.193597848527134E-004;
2.401166666666667E+009;1.738917678594589E-001;3.586270660161972E-002;3.766457550227642E-003;6.059492588974536E-004;
2.401333333333334E+009;1.737120300531387E-001;3.524663671851158E-002;3.726827912032604E-003;3.852210356853902E-004;
2.401500000000000E+009;1.737995892763138E-001;3.470905870199204E-002;3.609429812058806E-003;4.542660826700740E-005;
2.401666666666667E+009;1.735808402299881E-001;3.412345796823502E-002;3.578912001103163E-003;5.832839815411717E-005;
2.401833333333334E+009;1.735352426767349E-001;3.333484381437302E-002;3.566737752407789E-003;-2.282554341945797E-004;
2.402000000000000E+009;1.731650382280350E-001;3.258227929472923E-002;3.636111738160253E-003;-5.156985134817660E-004;
2.402166666666667E+009;1.730835139751434E-001;3.157620877027512E-002;3.537399694323540E-003;-4.378994344733656E-004;
2.402333333333334E+009;1.727238148450851E-001;3.070401586592197E-002;3.169641364365816E-003;-5.472495686262846E-004;
2.402500000000000E+009;1.726210117340088E-001;3.001536056399345E-002;3.196296980604529E-003;-7.345571648329496E-004;
2.402666666666667E+009;1.720861345529556E-001;2.907954156398773E-002;3.120921319350600E-003;-8.998379926197231E-004;
2.402833333333334E+009;1.718297004699707E-001;2.819113992154598E-002;2.871319418773055E-003;-9.020963334478438E-004;
2.403000000000000E+009;1.714638024568558E-001;2.703333832323551E-002;2.817834494635463E-003;-1.009931787848473E-003;
2.403166666666667E+009;1.711306422948837E-001;2.580386586487293E-002;2.801718655973673E-003;-1.170443720184267E-003;
2.403333333333334E+009;1.708919256925583E-001;2.464065141975880E-002;2.701433608308435E-003;-1.086944597773254E-003;
2.403500000000000E+009;1.703509390354157E-001;2.335918322205544E-002;2.520343754440546E-003;-1.222079736180604E-003;
2.403666666666667E+009;1.699716001749039E-001;2.187806367874146E-002;2.434351947158575E-003;-1.194642158225179E-003;
2.403833333333334E+009;1.697835475206375E-001;2.053900249302387E-002;2.272860147058964E-003;-1.298542600125074E-003;
2.404000000000000E+009;1.692886352539063E-001;1.926058903336525E-002;2.025461290031672E-003;-1.461550127714872E-003;
2.404166666666667E+009;1.688440591096878E-001;1.761935092508793E-002;2.081579295918346E-003;-1.303214579820633E-003;
2.404333333333334E+009;1.687573194503784E-001;1.606111787259579E-002;1.918864552862942E-003;-1.401058631017804E-003;
2.404500000000000E+009;1.682270616292954E-001;1.441567484289408E-002;1.847604755312204E-003;-1.404597540386021E-003;
2.404666666666667E+009;1.682745069265366E-001;1.288465410470963E-002;1.687649986706674E-003;-1.248720102012157E-003;
2.404833333333334E+009;1.678788214921951E-001;1.125103607773781E-002;1.667749369516969E-003;-1.176910591311753E-003;
2.405000000000000E+009;1.678506582975388E-001;9.550201706588268E-003;1.487084198743105E-003;-1.199712394736707E-003;
2.405166666666667E+009;1.678753793239594E-001;7.686008233577013E-003;1.466369372792542E-003;-1.209583715535700E-003;
2.405333333333334E+009;1.678622961044312E-001;5.737519823014736E-003;1.506623462773860E-003;-1.013750093989074E-003;
2.405500000000000E+009;1.677803248167038E-001;3.961168695241213E-003;1.598379807546735E-003;-1.119315042160451E-003;
2.405666666666667E+009;1.677372902631760E-001;2.205661963671446E-003;1.499341800808907E-003;-9.339674725197256E-004;
2.405833333333334E+009;1.676488667726517E-001;3.813085204456002E-004;1.462502172216773E-003;-1.138539169915021E-003;
2.406000000000000E+009;1.677839308977127E-001;-1.736099948175252E-003;1.527498126961291E-003;-8.233493426814675E-004;
2.406166666666667E+009;1.676225513219833E-001;-3.396774176508188E-003;1.509612193331122E-003;-8.908181916922331E-004;
2.406333333333334E+009;1.679036021232605E-001;-5.268346983939409E-003;1.676111831329763E-003;-9.234540630131960E-004;
2.406500000000000E+009;1.678326874971390E-001;-7.120254915207624E-003;1.645434182137251E-003;-8.389239665120840E-004;
2.406666666666667E+009;1.677031964063644E-001;-8.748434484004974E-003;1.671295962296426E-003;-9.209599229507148E-004;
2.406833333333334E+009;1.678357124328613E-001;-1.052760612219572E-002;1.900202361866832E-003;-9.358081733807921E-004;
2.407000000000000E+009;1.679683774709702E-001;-1.216206513345242E-002;1.913852291181684E-003;-8.955833036452532E-004;
2.407166666666667E+009;1.680992990732193E-001;-1.362519338726997E-002;2.038593403995037E-003;-9.417686378583312E-004;
2.407333333333334E+009;1.680705547332764E-001;-1.519821677356958E-002;1.980908447876573E-003;-1.073918887414038E-003;
2.407500000000000E+009;1.681422293186188E-001;-1.661804318428040E-002;1.962000736966729E-003;-1.157103339210153E-003;
2.407666666666667E+009;1.683016717433929E-001;-1.784589141607285E-002;1.979172462597489E-003;-1.161327701993287E-003;
2.407833333333334E+009;1.683659255504608E-001;-1.921266317367554E-002;2.096833894029260E-003;-1.457160105928779E-003;
2.408000000000000E+009;1.685177385807037E-001;-2.023426443338394E-002;1.969586592167616E-003;-1.317069283686578E-003;
2.408166666666667E+009;1.686086654663086E-001;-2.115439437329769E-002;2.148562343791127E-003;-1.408584066666663E-003;
2.408333333333334E+009;1.691482961177826E-001;-2.193726971745491E-002;2.065971260890365E-003;-1.579457544721663E-003;
2.408500000000000E+009;1.692010164260864E-001;-2.297690510749817E-002;2.047860994935036E-003;-1.605219906195998E-003;
2.408666666666667E+009;1.695846915245056E-001;-2.387024834752083E-002;2.083566505461931E-003;-1.783722778782249E-003;
2.408833333333334E+009;1.697600185871124E-001;-2.443935535848141E-002;2.189605496823788E-003;-1.898663118481636E-003;
2.409000000000000E+009;1.701004952192307E-001;-2.524973452091217E-002;2.101069549098611E-003;-2.031645970419049E-003;
2.409166666666667E+009;1.705924272537231E-001;-2.605160325765610E-002;2.059706486761570E-003;-2.258132444694638E-003;
2.409333333333334E+009;1.709925979375839E-001;-2.689572982490063E-002;1.997156767174602E-003;-2.384044229984283E-003;
2.409500000000000E+009;1.712221354246140E-001;-2.758402563631535E-002;1.909716404043138E-003;-2.452344633638859E-003;
2.409666666666667E+009;1.713992059230804E-001;-2.827559597790241E-002;1.705434639006853E-003;-2.800111193209887E-003;
2.409833333333334E+009;1.716264635324478E-001;-2.889388985931873E-002;1.520879566669464E-003;-2.760751405730844E-003;
2.410000000000000E+009;1.719999015331268E-001;-2.961955405771732E-002;1.365971984341741E-003;-2.807741751894355E-003;
2.410166666666667E+009;1.720015108585358E-001;-3.040059097111225E-002;1.233199727721512E-003;-2.715432550758123E-003;
2.410333333333334E+009;1.720014810562134E-001;-3.093209303915501E-002;9.936316637322307E-004;-2.960809040814638E-003;
2.410500000000000E+009;1.722728610038757E-001;-3.163673356175423E-002;9.480057051405311E-004;-2.860211301594973E-003;
2.410666666666667E+009;1.719866394996643E-001;-3.239409625530243E-002;7.560386438854039E-004;-2.684902166947722E-003;
2.410833333333334E+009;1.719095557928085E-001;-3.302946686744690E-002;7.069198181852698E-004;-2.716293325647712E-003;
2.411000000000000E+009;1.715725064277649E-001;-3.354374319314957E-002;4.490994033403695E-004;-2.763398690149188E-003;
2.411166666666667E+009;1.712634265422821E-001;-3.441612422466278E-002;4.280187131371349E-004;-2.688890788704157E-003;
2.411333333333334E+009;1.711236834526062E-001;-3.492919355630875E-002;5.151058430783451E-004;-2.597652608528733E-003;
2.411500000000000E+009;1.704772263765335E-001;-3.562659025192261E-002;3.865481412503868E-004;-2.570842858403921E-003;
2.411666666666667E+009;1.701490581035614E-001;-3.628951683640480E-002;4.939638311043382E-004;-2.555016893893480E-003;
2.411833333333334E+009;1.696996837854385E-001;-3.683939203619957E-002;4.829810932278633E-004;-2.563857706263661E-003;
2.412000000000000E+009;1.694991588592529E-001;-3.755713254213333E-002;4.850027617067099E-004;-2.501595066860318E-003;
2.412166666666667E+009;1.687049865722656E-001;-3.833821043372154E-002;4.424779617693275E-004;-2.680598758161068E-003;
2.412333333333334E+009;1.685812324285507E-001;-3.911063075065613E-002;5.201741005294025E-004;-2.781482180580497E-003;
2.412500000000000E+009;1.677137911319733E-001;-3.969110175967217E-002;5.034453934058547E-004;-2.785609802231193E-003;
2.412666666666667E+009;1.672586947679520E-001;-4.083488509058952E-002;4.120237426832318E-004;-2.988872816786170E-003;
2.412833333333334E+009;1.666117161512375E-001;-4.165459051728249E-002;3.241052909288555E-004;-3.040193812921643E-003;
2.413000000000000E+009;1.658471077680588E-001;-4.239578545093536E-002;1.865784433903173E-004;-3.253557952120900E-003;
2.413166666666667E+009;1.650900691747665E-001;-4.340275749564171E-002;6.157102325232700E-005;-3.164788475260139E-003;
2.413333333333334E+009;1.644692718982697E-001;-4.459542408585548E-002;-1.637058012420312E-004;-3.358499845489860E-003;
2.413500000000000E+009;1.636720746755600E-001;-4.553534835577011E-002;-3.189099661540240E-004;-3.330796957015991E-003;
2.413666666666667E+009;1.632387638092041E-001;-4.678328707814217E-002;-4.389199602883309E-004;-3.420538036152721E-003;
2.413833333333334E+009;1.622745990753174E-001;-4.760514572262764E-002;-8.212769753299654E-004;-3.499417332932353E-003;
2.414000000000000E+009;1.616524159908295E-001;-4.873032867908478E-002;-8.178936550393701E-004;-3.309731138870120E-003;
2.414166666666667E+009;1.610538363456726E-001;-4.977934062480927E-002;-8.984699379652739E-004;-3.399620065465570E-003;
2.414333333333334E+009;1.603683084249497E-001;-5.104793608188629E-002;-1.086783129721880E-003;-3.324646269902587E-003;
2.414500000000000E+009;1.600458323955536E-001;-5.214487016201019E-002;-1.279908698052168E-003;-3.132568206638098E-003;
2.414666666666667E+009;1.594865769147873E-001;-5.325595661997795E-002;-1.520538236945868E-003;-3.169527743011713E-003;
2.414833333333334E+009;1.590814441442490E-001;-5.441273748874664E-002;-1.466689398512244E-003;-2.985645085573196E-003;
2.415000000000000E+009;1.586425304412842E-001;-5.567698180675507E-002;-1.649005571380258E-003;-2.932243281975389E-003;
2.415166666666667E+009;1.584138721227646E-001;-5.691642686724663E-002;-1.779048237949610E-003;-2.728121122345328E-003;
2.415333333333334E+009;1.582440882921219E-001;-5.836466327309609E-002;-1.830029417760670E-003;-2.632509218528867E-003;
2.415500000000000E+009;1.580322533845902E-001;-5.969056114554405E-002;-1.965352799743414E-003;-2.521565649658442E-003;
2.415666666666667E+009;1.578153073787689E-001;-6.106707081198692E-002;-1.977022504433990E-003;-2.396077383309603E-003;
2.415833333333334E+009;1.576225459575653E-001;-6.250684708356857E-002;-2.076903358101845E-003;-2.304133260622621E-003;
2.416000000000000E+009;1.573244333267212E-001;-6.404436379671097E-002;-2.094689989462495E-003;-2.287529408931732E-003;
2.416166666666667E+009;1.573731601238251E-001;-6.547437608242035E-002;-2.142413752153516E-003;-2.258805092424154E-003;
2.416333333333334E+009;1.570426374673843E-001;-6.681052595376968E-002;-2.163619035854936E-003;-2.059362363070250E-003;
2.416500000000000E+009;1.569476127624512E-001;-6.837400794029236E-002;-2.222136827185750E-003;-2.026491332799196E-003;
2.416666666666667E+009;1.567509770393372E-001;-6.965277343988419E-002;-2.148381900042296E-003;-1.895596040412784E-003;
2.416833333333334E+009;1.567610204219818E-001;-7.121308892965317E-002;-2.283592242747545E-003;-1.832928042858839E-003;
2.417000000000000E+009;1.562869995832443E-001;-7.254976034164429E-002;-2.189965220168233E-003;-1.694208593107760E-003;
2.417166666666667E+009;1.563211232423782E-001;-7.366216927766800E-002;-2.261405810713768E-003;-1.682165078818798E-003;
2.417333333333334E+009;1.561275124549866E-001;-7.479261606931686E-002;-2.212937222793698E-003;-1.541593344882131E-003;
2.417500000000000E+009;1.560821980237961E-001;-7.601117342710495E-002;-2.140253083780408E-003;-1.577677321620286E-003;
2.417666666666667E+009;1.559767723083496E-001;-7.694219052791596E-002;-2.231406513601542E-003;-1.584927551448345E-003;
2.417833333333334E+009;1.558719575405121E-001;-7.794964313507080E-002;-2.264830516651273E-003;-1.592352753505111E-003;
2.418000000000000E+009;1.557584106922150E-001;-7.899179309606552E-002;-2.222896087914705E-003;-1.359862857498229E-003;
2.418166666666667E+009;1.557580530643463E-001;-7.976064085960388E-002;-2.064049942418933E-003;-1.294294255785644E-003;
2.418333333333334E+009;1.558746844530106E-001;-8.068529516458511E-002;-2.268331823870540E-003;-1.417851308360696E-003;
2.418500000000000E+009;1.557750403881073E-001;-8.144373446702957E-002;-2.215579152107239E-003;-1.332268817350268E-003;
2.418666666666667E+009;1.557500064373016E-001;-8.228858560323715E-002;-2.272662939503789E-003;-1.319361501373351E-003;
2.418833333333334E+009;1.555860936641693E-001;-8.315130323171616E-002;-2.421292243525386E-003;-1.282673794776201E-003;
2.419000000000000E+009;1.553457826375961E-001;-8.365111052989960E-002;-2.418448682874441E-003;-1.148514915257692E-003;
2.419166666666667E+009;1.552982032299042E-001;-8.406731486320496E-002;-2.529561752453446E-003;-1.169199706055224E-003;
2.419333333333334E+009;1.549650579690933E-001;-8.450300246477127E-002;-2.562317065894604E-003;-1.153557561337948E-003;
2.419500000000000E+009;1.548356115818024E-001;-8.534885942935944E-002;-2.667683875188232E-003;-1.208802335895598E-003;
2.419666666666667E+009;1.548578143119812E-001;-8.571501821279526E-002;-2.786668715998530E-003;-1.003046054393053E-003;
2.419833333333334E+009;1.544537693262100E-001;-8.600796759128571E-002;-2.639295300468803E-003;-9.413399384357035E-004;
2.420000000000000E+009;1.544819027185440E-001;-8.642343431711197E-002;-2.798155182972550E-003;-7.508589187636972E-004;
2.420166666666667E+009;1.540897786617279E-001;-8.680672943592072E-002;-2.878360683098435E-003;-9.344129939563572E-004;
2.420333333333334E+009;1.539679020643234E-001;-8.711728453636169E-002;-2.865085378289223E-003;-5.442655528895557E-004;
2.420500000000000E+009;1.537187248468399E-001;-8.718618005514145E-002;-2.880461048334837E-003;-4.552016325760633E-004;
2.420666666666667E+009;1.532031297683716E-001;-8.762569725513458E-002;-2.874752040952444E-003;-3.561457851901650E-004;
2.420833333333334E+009;1.528259217739105E-001;-8.822898566722870E-002;-2.844402566552162E-003;-2.154651301680133E-004;
2.421000000000000E+009;1.524658054113388E-001;-8.859863877296448E-002;-2.726344624534249E-003;-2.896615769714117E-004;
2.421166666666667E+009;1.521217226982117E-001;-8.892696350812912E-002;-2.884141169488430E-003;2.224299532826990E-005;
2.421333333333334E+009;1.517187803983688E-001;-8.942643553018570E-002;-2.796358661726117E-003;-5.448334195534699E-005;
2.421500000000000E+009;1.508994251489639E-001;-8.979236334562302E-002;-2.733209170401096E-003;1.571522443555296E-005;
2.421666666666667E+009;1.505528092384338E-001;-9.032760560512543E-002;-2.804444869980216E-003;1.944228424690664E-004;
2.421833333333334E+009;1.497851014137268E-001;-9.074021130800247E-002;-2.577161882072687E-003;7.295878458535299E-005;
2.422000000000000E+009;1.490885019302368E-001;-9.139144420623779E-002;-2.526665572077036E-003;5.529403279069811E-005;
2.422166666666667E+009;1.483968794345856E-001;-9.202640503644943E-002;-2.556805266067386E-003;6.468348146881908E-005;
2.422333333333334E+009;1.477029472589493E-001;-9.261308610439301E-002;-2.467586193233728E-003;1.837322779465467E-004;
2.422500000000000E+009;1.467431485652924E-001;-9.311260282993317E-002;-2.402691869065166E-003;-5.953263462288305E-005;
2.422666666666667E+009;1.459881514310837E-001;-9.396585822105408E-002;-2.586543094366789E-003;3.223223393433727E-005;
2.422833333333334E+009;1.451128274202347E-001;-9.469959884881973E-002;-2.659036312252283E-003;-2.259956090711057E-005;
2.423000000000000E+009;1.442121118307114E-001;-9.536442905664444E-002;-2.780671231448650E-003;-3.285690036136657E-005;
2.423166666666667E+009;1.434051245450974E-001;-9.621021151542664E-002;-2.865915186703205E-003;-1.717594204819761E-005;
2.423333333333334E+009;1.425491124391556E-001;-9.689500927925110E-002;-3.046547761186957E-003;3.344250580994412E-005;
2.423500000000000E+009;1.416166126728058E-001;-9.783800691366196E-002;-3.055826527997851E-003;1.382226764690131E-004;
2.423666666666667E+009;1.407280713319778E-001;-9.901109337806702E-002;-3.215148579329252E-003;1.896684116218239E-004;
2.423833333333334E+009;1.397805362939835E-001;-9.992384910583496E-002;-3.375315340235829E-003;2.708114625420421E-004;
2.424000000000000E+009;1.387608051300049E-001;-1.008786708116531E-001;-3.404467133805156E-003;3.904970653820783E-004;
2.424166666666667E+009;1.378862708806992E-001;-1.018907576799393E-001;-3.485981607809663E-003;6.636888720095158E-004;
2.424333333333334E+009;1.370491385459900E-001;-1.028622984886169E-001;-3.555983072146773E-003;9.062658646143973E-004;
2.424500000000000E+009;1.362697184085846E-001;-1.041163727641106E-001;-3.593080211430788E-003;8.537305402569473E-004;
2.424666666666667E+009;1.355463266372681E-001;-1.048926189541817E-001;-3.640228882431984E-003;1.139760832302272E-003;
2.424833333333334E+009;1.346790194511414E-001;-1.061518192291260E-001;-3.498701611533761E-003;1.199409598484635E-003;
2.425000000000000E+009;1.341018527746201E-001;-1.073519736528397E-001;-3.558098804205656E-003;1.429495168849826E-003;
2.425166666666667E+009;1.332341432571411E-001;-1.084237024188042E-001;-3.644196782261133E-003;1.594174071215093E-003;
2.425333333333334E+009;1.327789127826691E-001;-1.095823273062706E-001;-3.730044234544039E-003;1.962232636287808E-003;
2.425500000000000E+009;1.321609616279602E-001;-1.108181625604630E-001;-3.493423108011484E-003;2.141419798135757E-003;
2.425666666666667E+009;1.314862668514252E-001;-1.120340749621391E-001;-3.580131800845265E-003;2.171949716284871E-003;
2.425833333333334E+009;1.310154348611832E-001;-1.131541356444359E-001;-3.358972026035190E-003;2.426303224638104E-003;
2.426000000000000E+009;1.305398643016815E-001;-1.145318597555161E-001;-3.313880879431963E-003;2.669193781912327E-003;
2.426166666666667E+009;1.302824765443802E-001;-1.156830713152885E-001;-3.350448329001665E-003;2.896424848586321E-003;
2.426333333333334E+009;1.297682523727417E-001;-1.168819963932037E-001;-3.209781367331743E-003;3.034758148714900E-003;
2.426500000000000E+009;1.294210106134415E-001;-1.179432272911072E-001;-2.782187191769481E-003;3.465844318270683E-003;
2.426666666666667E+009;1.292030066251755E-001;-1.188996061682701E-001;-2.694819122552872E-003;3.673392347991467E-003;
2.426833333333334E+009;1.289100795984268E-001;-1.200303658843041E-001;-2.426655730232596E-003;3.760635852813721E-003;
2.427000000000000E+009;1.284666210412979E-001;-1.211846098303795E-001;-2.274460392072797E-003;3.875469090417028E-003;
2.427166666666667E+009;1.282314360141754E-001;-1.219614893198013E-001;-2.042104490101337E-003;4.140065051615238E-003;
2.427333333333334E+009;1.281008422374725E-001;-1.229972764849663E-001;-1.638914225623012E-003;4.234870430082083E-003;
2.427500000000000E+009;1.280488669872284E-001;-1.237944290041924E-001;-1.270769396796823E-003;4.344107583165169E-003;
2.427666666666667E+009;1.278477907180786E-001;-1.247566863894463E-001;-1.053142710588872E-003;4.293848760426045E-003;
