# Hz S RI R 50
2400000000.0000000000 0.158782303333282498458700615629 0.062874101102352142333984375000 -0.000683924183249473571777343750 0.002917605685070157051086425781 0 0 0 0 
2400166666.6666665077 0.158669039607048006912393134371 0.061240207403898239135742187500 -0.000634380907285958528518676758 0.002900236053392291069030761719 0 0 0 0 
2400333333.3333334923 0.158297851681709289550781250000 0.059367921203374862670898437500 -0.000487335026264190673828125000 0.002803160576149820847752236475 0 0 0 0 
2400500000.0000000000 0.158358156681060791015625000000 0.057533167302608489990234375000 -0.000538294727448374032974243164 0.002770706778392196135279990088 0 0 0 0 
2400666666.6666665077 0.158294335007667513748330634371 0.055689353495836257934570312500 -0.000384614599170163273811340332 0.002914770971983671188354492188 0 0 0 0 
2400833333.3333334923 0.158410891890525790115518134371 0.053904790431261062622070312500 -0.000477673165732994675636291504 0.002924038562923669815063476562 0 0 0 0 
2401000000.0000000000 0.158487156033515902420205634371 0.051866479218006127094309221093 -0.000042622432374628260731697083 0.002951417118310927911045693506 0 0 0 0 
2401166666.6666665077 0.158557504415512112716513115629 0.049611773341894149780273437500 -0.000209752484806813299655914307 0.002879500156268477006199502100 0 0 0 0 
2401333333.3333334923 0.158681735396385192871093750000 0.047501798719167709350585937500 0.000000215385767887710191455280 0.002799191046506166891810751807 0 0 0 0 
2401500000.0000000000 0.158953547477722195724325615629 0.045655470341444022441823591407 0.000024787566871964369306360551 0.002760850125923752784729003906 0 0 0 0 
2401666666.6666665077 0.158995568752288790603799384371 0.043745558708906166767160783593 0.000091124202299397438764572144 0.002639620797708630995509482275 0 0 0 0 
2401833333.3333334923 0.159472063183784512618856865629 0.041470002382993698120117187500 0.000164002529345452812596997672 0.002661885460838675932643271338 0 0 0 0 
2402000000.0000000000 0.159803465008735712249432481258 0.039596103131771087646484375000 0.000237342595937661799505510873 0.002699507633224130110499716650 0 0 0 0 
2402166666.6666665077 0.160250276327133206466513115629 0.037482697516679756855051408593 0.000274631544016301577717381610 0.002629988361150025887730263818 0 0 0 0 
2402333333.3333334923 0.160629853606224087814169365629 0.035603381693363189697265625000 0.000294747704174369573593139648 0.002628229558467864990234375000 0 0 0 0 
2402500000.0000000000 0.161581262946128900725994981258 0.033804219216108322143554687500 0.000423269200837239623069763184 0.002731427317485212846043252100 0 0 0 0 
2402666666.6666665077 0.162053316831588800628338731258 0.031939156353473663330078125000 0.000458927417639643008082789288 0.002503259107470511956455849756 0 0 0 0 
2402833333.3333334923 0.162749499082565307617187500000 0.030271239578723910940150076954 0.000506992451846599578857421875 0.002501553855836391015293740381 0 0 0 0 
2403000000.0000000000 0.163424432277679387848223768742 0.028589965775609019887903983204 0.000556543702259659767150878906 0.002568282186985015869140625000 0 0 0 0 
2403166666.6666665077 0.164429560303688104827557481258 0.026885224506258971477468122657 0.000564538175240159034729003906 0.002582869958132504983189248193 0 0 0 0 
2403333333.3333334923 0.165233537554740905761718750000 0.025462239980697628366490548046 0.000506493437569588422775268555 0.002592705888673663139343261719 0 0 0 0 
2403500000.0000000000 0.166064962744712801834268134371 0.023931346833705898630162423046 0.000614822667557746171951293945 0.002624915214255452156066894531 0 0 0 0 
2403666666.6666665077 0.166927844285964993575888115629 0.022411039099097248422642891796 0.000713399145752191543579101562 0.002555592916905879974365234375 0 0 0 0 
2403833333.3333334923 0.168093621730804387848223768742 0.021135402843356129037877266796 0.000862531422171741724014282227 0.002742366166785358948948525537 0 0 0 0 
2404000000.0000000000 0.168951258063316400725994981258 0.019885301589965820312500000000 0.000841276254504919052124023438 0.002708067419007420973536826025 0 0 0 0 
2404166666.6666665077 0.169848963618278503417968750000 0.018662350252270698547363281250 0.000895513221621513366699218750 0.002690220251679420904872275244 0 0 0 0 
2404333333.3333334923 0.170674100518226595779580634371 0.017689339816570278512974923046 0.001045413198880851051927876050 0.002579129533842206001281738281 0 0 0 0 
2404500000.0000000000 0.171579405665397588531817518742 0.016460672020912170410156250000 0.001052362262271345095393515479 0.002692900132387876944300986182 0 0 0 0 
2404666666.6666665077 0.172634437680244501311932481258 0.015750598162412639963170235546 0.001250112312845885970472026294 0.002558529842644929885864257812 0 0 0 0 
2404833333.3333334923 0.173656955361366299728231865629 0.014998004771769050252894217579 0.001303329830989242033717490088 0.002442272147163749174830771338 0 0 0 0 
2405000000.0000000000 0.174591377377510098556356865629 0.013980290852487090719202811329 0.001269489526748657009722065503 0.002722765319049357934239052881 0 0 0 0 
2405166666.6666665077 0.175452336668968200683593750000 0.013354170136153699702252772852 0.001439150539226830005645751953 0.002646959852427244186401367188 0 0 0 0 
2405333333.3333334923 0.176239982247352600097656250000 0.012685862369835380208948905079 0.001536386786028743007062602466 0.002698870608583093123195029150 0 0 0 0 
2405500000.0000000000 0.177040904760360690017861884371 0.012052157893776890146275704296 0.001466207671910523934605263818 0.002439446281641722159144736182 0 0 0 0 
2405666666.6666665077 0.177771583199501009842080634371 0.011628756299614909780482108204 0.001818233518861233971239399487 0.002566163660958408875706338037 0 0 0 0 
2405833333.3333334923 0.178292557597160311599893134371 0.011354904621839519845982735546 0.001749852555803955034968710791 0.002517171669751406149623251807 0 0 0 0 
2406000000.0000000000 0.178936585783958407303018134371 0.010761273093521600205391131055 0.001931575709022582010981894385 0.002670240355655550956726074219 0 0 0 0 
2406166666.6666665077 0.179368406534195001800213731258 0.010605179704725740605364414648 0.002142517827451229095458984375 0.002519631991162896156311035156 0 0 0 0 
2406333333.3333334923 0.179965198040008489410723768742 0.010073910467326639348040195898 0.002011749893426895141601562500 0.002447495004162191910984658350 0 0 0 0 
2406500000.0000000000 0.180263012647628811935263115629 0.009697059169411659240722656250 0.002393227070569992065429687500 0.002423707628622651100158691406 0 0 0 0 
2406666666.6666665077 0.180445864796638488769531250000 0.009402420371770858764648437500 0.002330710180103778839111328125 0.002241034060716629028320312500 0 0 0 0 
2406833333.3333334923 0.180835381150245694259481865629 0.008876133710145950317382812500 0.002398036187514663176295615088 0.002289452590048313140869140625 0 0 0 0 
2407000000.0000000000 0.180928111076355008224325615629 0.008694794028997421264648437500 0.002410921035334467887878417969 0.002152099739760160012486123193 0 0 0 0 
2407166666.6666665077 0.181113272905349703689736884371 0.008431067690253257751464843750 0.002605705056339501900913857568 0.001969389617443085150477743994 0 0 0 0 
2407333333.3333334923 0.181007549166679410079794365629 0.007966382429003715515136718750 0.002691580681130290031433105469 0.002049243776127696037292480469 0 0 0 0 
2407500000.0000000000 0.180817589163780212402343750000 0.007444364950060844421386718750 0.002806016476824880079982138525 0.002024889923632144927978515625 0 0 0 0 
2407666666.6666665077 0.180676937103271512130575615629 0.007034574635326862335205078125 0.002869745716452599005458212744 0.001787687186151742935180664062 0 0 0 0 
2407833333.3333334923 0.180315852165222195724325615629 0.006514376029372215270996093750 0.002982491627335547967198037256 0.001784422667697072029113769531 0 0 0 0 
2408000000.0000000000 0.180057480931281987945880018742 0.005880040582269430160522460938 0.002991614164784551100489951025 0.001719830092042684988734579932 0 0 0 0 
2408166666.6666665077 0.179508447647094698806924384371 0.005369772668927907943725585938 0.003085924312472343011143349756 0.001669720397330820994136191260 0 0 0 0 
2408333333.3333334923 0.179316207766532897949218750000 0.004562607966363430023193359375 0.003045125165954232215881347656 0.001513750874437391974805522388 0 0 0 0 
2408500000.0000000000 0.178800001740455599685830634371 0.003779983846470714049098349463 0.003044147277250885963439941406 0.001477550948038697025896381909 0 0 0 0 
2408666666.6666665077 0.178194120526313809493856865629 0.002978450851514935927150107275 0.003415748709812759919407509912 0.001244711340405046939849853516 0 0 0 0 
2408833333.3333334923 0.177405074238777188400106865629 0.002093388233333826065063476562 0.003270081477239727973937988281 0.001161315944045782089233398438 0 0 0 0 
2409000000.0000000000 0.176824539899826105315838731258 0.001115212449803947968723916162 0.003312328131869434876682900537 0.001035189372487365982652973706 0 0 0 0 
2409166666.6666665077 0.176139354705810602386151231258 -0.000058080058806808672171046598 0.003455540398135780854466103662 0.000999156385660171508789062500 0 0 0 0 
2409333333.3333334923 0.175677224993705805022869981258 -0.001164678367786109013798379053 0.003434092737734318213221884619 0.000876124016940593719482421875 0 0 0 0 
2409500000.0000000000 0.174813255667686490157919365629 -0.002427774947136640982386923682 0.003504317952319980101344443213 0.000622433028183877468109130859 0 0 0 0 
2409666666.6666665077 0.174106672406196594238281250000 -0.003672903170809150175807333838 0.003388372249901295141932822119 0.000545168644748628139495849609 0 0 0 0 
2409833333.3333334923 0.173337832093238802810830634371 -0.004931524861603975296020507812 0.003615616122260690169093466650 0.000421440840000286698341369629 0 0 0 0 
2410000000.0000000000 0.172766968607902499099893134371 -0.006455812137573956575875566699 0.003434462007135152816772460938 0.000304924760712310726016444073 0 0 0 0 
2410166666.6666665077 0.172265827655792208572549384371 -0.007984099909663200378417968750 0.003763324813917278809788369287 0.000151380110764876008033752441 0 0 0 0 
2410333333.3333334923 0.171394050121307400802450615629 -0.009252875111997127532958984375 0.003660577582195401191711425781 0.000050750000809784978628158569 0 0 0 0 
2410500000.0000000000 0.170954421162605313400106865629 -0.011127641424536710221260271680 0.003674685023725032806396484375 -0.000079829565947875380516052246 0 0 0 0 
2410666666.6666665077 0.170391678810119601150674384371 -0.013102871365845199930211251171 0.003600550815463066101074218750 -0.000083824786997865885496139526 0 0 0 0 
2410833333.3333334923 0.169959500432014493087606865629 -0.014639850705862050492256365430 0.003632880281656980948207236182 -0.000214535568375140401438036508 0 0 0 0 
2411000000.0000000000 0.169427558779716491699218750000 -0.016358423978090289724329764454 0.003571403212845325903651572119 -0.000484228454297408515780848370 0 0 0 0 
2411166666.6666665077 0.169147834181785611251669365629 -0.018264569342136379587193673046 0.003669516881927847862243652344 -0.000639066740404814481735229492 0 0 0 0 
2411333333.3333334923 0.168809384107589693924111884371 -0.020109653472900390625000000000 0.003633348038420081138610839844 -0.000751304381992667913436889648 0 0 0 0 
2411500000.0000000000 0.168519288301467895507812500000 -0.022165399044752120971679687500 0.003526430111378430886509560693 -0.000932235503569245338439941406 0 0 0 0 
2411666666.6666665077 0.168399646878242492675781250000 -0.024103147909045219421386718750 0.003448895411565899848937988281 -0.000888491049408912658691406250 0 0 0 0 
2411833333.3333334923 0.168165639042854309082031250000 -0.026105342432856559753417968750 0.003495592623949050903320312500 -0.001185408909805119037628173828 0 0 0 0 
2412000000.0000000000 0.168319597840309087555255018742 -0.028032235801219940185546875000 0.003486283821985125975367880713 -0.001225090934894979000091552734 0 0 0 0 
2412166666.6666665077 0.168173670768737792968750000000 -0.029976559802889820444127266796 0.003131490666419268088099814307 -0.001377001521177589893341064453 0 0 0 0 
2412333333.3333334923 0.168493926525115994552450615629 -0.031586702913045883178710937500 0.003206778317689896063563681494 -0.001448885304853319904924702222 0 0 0 0 
2412500000.0000000000 0.168513834476471002776776231258 -0.033708892762660980224609375000 0.003157034283503890037536621094 -0.001592542976140975952148437500 0 0 0 0 
2412666666.6666665077 0.168892413377761813064736884371 -0.035761393606662750244140625000 0.003050884464755653901341103662 -0.001544118858873843929888081128 0 0 0 0 
2412833333.3333334923 0.169018179178237887283486884371 -0.037406243383884429931640625000 0.002914471784606575965881347656 -0.001720705418847501061083149487 0 0 0 0 
2413000000.0000000000 0.169463977217674310882244981258 -0.039208255708217620849609375000 0.002982180332764983177185058594 -0.001677879365161061070085835034 0 0 0 0 
2413166666.6666665077 0.169823914766311701018963731258 -0.040952473878860466693918596093 0.002876081503927708105800009619 -0.001737636281177401976344443213 0 0 0 0 
2413333333.3333334923 0.170253947377204895019531250000 -0.042691055685281746601145158593 0.002742922166362404823303222656 -0.001831437926739454052568745190 0 0 0 0 
2413500000.0000000000 0.170755669474601801116619981258 -0.044536910951137542724609375000 0.002612290438264607949497841943 -0.002051382558420300917384482275 0 0 0 0 
2413666666.6666665077 0.171213746070861788650674384371 -0.046052202582359307025949846093 0.002661770209670066833496093750 -0.001941613620147109031677246094 0 0 0 0 
2413833333.3333334923 0.171706303954124506194744981258 -0.047289360314607620239257812500 0.002493976149708033041713095557 -0.002089474815875291824340820312 0 0 0 0 
2414000000.0000000000 0.172166988253593389313067518742 -0.048914957791566848754882812500 0.002346469555050135092494345557 -0.002093011979013680978062295068 0 0 0 0 
2414166666.6666665077 0.172750368714332608321981865629 -0.050218537449836730957031250000 0.002280786866322160200831747900 -0.002098780823871492905857705225 0 0 0 0 
2414333333.3333334923 0.173365473747253390213174384371 -0.051476780325174331665039062500 0.002301601925864816145655966650 -0.002387772779911756949183798682 0 0 0 0 
2414500000.0000000000 0.174033418297767611404580634371 -0.052679218351840972900390625000 0.002192299813032149834873818506 -0.002257587620988488197326660156 0 0 0 0 
2414666666.6666665077 0.174484476447105407714843750000 -0.053706839680671691894531250000 0.002028904622420669035670615088 -0.002312447177246212959289550781 0 0 0 0 
2414833333.3333334923 0.174910873174667386154013115629 -0.054685551673173897480051408593 0.001967406831681727929356240381 -0.002359259175136684937718056787 0 0 0 0 
2415000000.0000000000 0.175276771187782287597656250000 -0.055710494518280029296875000000 0.002172976732254027886631631006 -0.002371171256527305083033896338 0 0 0 0 
2415166666.6666665077 0.175756573677062988281250000000 -0.056347779929637908935546875000 0.002002265071496367888209677588 -0.002321502426639198823216103662 0 0 0 0 
2415333333.3333334923 0.176242455840110806564169365629 -0.057254999876022338867187500000 0.001711939228698611042620014722 -0.002386191394180058999302529443 0 0 0 0 
2415500000.0000000000 0.176621749997139004806356865629 -0.057889983057975769042968750000 0.001700196298770606951472617041 -0.002440914046019316153285361182 0 0 0 0 
2415666666.6666665077 0.176933139562606811523437500000 -0.058504108339548110961914062500 0.001640122733078896999359130859 -0.002477725967764853997471474756 0 0 0 0 
2415833333.3333334923 0.177196279168128995040731865629 -0.059051048010587692260742187500 0.001626496552489697933197021484 -0.002423256402835249900817871094 0 0 0 0 
2416000000.0000000000 0.177218005061149597167968750000 -0.059472270309925079345703125000 0.001587440841831267096875834888 -0.002538080327212810950038290869 0 0 0 0 
2416166666.6666665077 0.177544862031936701018963731258 -0.059874538332223892211914062500 0.001517453580163419029833149487 -0.002505716634914278984069824219 0 0 0 0 
2416333333.3333334923 0.177502393722534207443075615629 -0.060270525515079498291015625000 0.001494892407208681106567382812 -0.002604994922876358032226562500 0 0 0 0 
2416500000.0000000000 0.177397236227989196777343750000 -0.060690481215715408325195312500 0.001544542261399328925489116138 -0.002563921967521309852600097656 0 0 0 0 
2416666666.6666665077 0.177209898829460088531817518742 -0.060824599117040627216379533593 0.001350996084511280059814453125 -0.002504315227270125909092568506 0 0 0 0 
2416833333.3333334923 0.177086293697357205489950615629 -0.061183374375104897235910783593 0.001346573932096361897112202222 -0.002506530843675136999842978369 0 0 0 0 
2417000000.0000000000 0.176616996526718111892861884371 -0.061471555382013320922851562500 0.001369600882753730037091899341 -0.002698391675949097113368368994 0 0 0 0 
2417166666.6666665077 0.176282927393913296798544365629 -0.061630517244338989257812500000 0.001216117641888559081433940356 -0.002735356334596871896031045068 0 0 0 0 
2417333333.3333334923 0.175835430622100802322549384371 -0.061749394983053207397460937500 0.001319724251516162915470742334 -0.002700165146961808204650878906 0 0 0 0 
2417500000.0000000000 0.175185948610305786132812500000 -0.062251340597867972637136091407 0.000996496062725782394409179688 -0.002807628363370894952061318506 0 0 0 0 
2417666666.6666665077 0.174732118844985989669638115629 -0.062345288693904876708984375000 0.001158688566647469997406005859 -0.002797479741275310950038290869 0 0 0 0 
2417833333.3333334923 0.173971548676490811446981865629 -0.062569849193096160888671875000 0.001092816004529594941380166162 -0.002702336758375167846679687500 0 0 0 0 
2418000000.0000000000 0.173107892274856595138388115629 -0.063000530004501342773437500000 0.000924215244594961404800415039 -0.002810959471389650864842080225 0 0 0 0 
2418166666.6666665077 0.172132283449173001388388115629 -0.063180580735206604003906250000 0.001002841047011316039441752856 -0.002844620728865265846252441406 0 0 0 0 
2418333333.3333334923 0.171393290162086486816406250000 -0.063637018203735351562500000000 0.000825500988867133855819702148 -0.002976530231535435156581259619 0 0 0 0 
2418500000.0000000000 0.170411705970764187911825615629 -0.063964165747165679931640625000 0.000788061704952269792556762695 -0.002866938011720776991603232275 0 0 0 0 
2418666666.6666665077 0.169416606426239013671875000000 -0.064452424645423889160156250000 0.000862536195199936628341674805 -0.002994530834257603125331259619 0 0 0 0 
2418833333.3333334923 0.168091326951980590820312500000 -0.065026238560676574707031250000 0.000816312502138316631317138672 -0.002933008829131722883937216650 0 0 0 0 
2419000000.0000000000 0.166908770799636813064736884371 -0.065519548952579498291015625000 0.000835193262901157140731811523 -0.002959764096885920004603720557 0 0 0 0 
2419166666.6666665077 0.165848225355148287674111884371 -0.066191650927066802978515625000 0.000721423246432095766067504883 -0.003040856216102838949916220557 0 0 0 0 
2419333333.3333334923 0.164496004581451388260049384371 -0.066686861217021942138671875000 0.000630775059107691049575805664 -0.003162384266033769087550497900 0 0 0 0 
2419500000.0000000000 0.163524046540260287185830634371 -0.067717619240283966064453125000 0.000520867586601525653540456506 -0.003062361385673284964320517432 0 0 0 0 
2419666666.6666665077 0.162340685725212097167968750000 -0.068575151264667510986328125000 0.000618090329226106405258178711 -0.003216254757717252211329794775 0 0 0 0 
2419833333.3333334923 0.161017984151840209960937500000 -0.069274619221687316894531250000 0.000400396616896614378124791278 -0.003323430195450783209559775244 0 0 0 0 
2420000000.0000000000 0.160085484385490389724893134371 -0.070531792938709259033203125000 0.000357078475644811987876892090 -0.003326108446344732804539345850 0 0 0 0 
