# Hz S RI R 50
2400000000.0000000000 0.168279513716697692871093750000 0.040823601186275482177734375000 -0.001149515737779438929316855322 -0.003309566993266344070434570312 0 0 0 0 
2400166666.6666665077 0.168874368071556091308593750000 0.040408357977867133403737653907 -0.001241532969288527965545654297 -0.003260178025811911062953329932 0 0 0 0 
2400333333.3333334923 0.169317185878753689864950615629 0.039193902164697647094726562500 -0.001091850339435040950775146484 -0.003150260774418712095973349463 0 0 0 0 
2400500000.0000000000 0.169899329543113708496093750000 0.038575578480958938598632812500 -0.001195768010802567005157470703 -0.003194230375811458067653036963 0 0 0 0 
2400666666.6666665077 0.170146211981773404220419365629 0.037566505372524261474609375000 -0.001176558900624514059779501807 -0.003047100733965634866001748193 0 0 0 0 
2400833333.3333334923 0.170572087168693486969317518742 0.036749791353940956806223283593 -0.001094134058803319931030273438 -0.003074413863942027091979980469 0 0 0 0 
2401000000.0000000000 0.170911520719528198242187500000 0.035864219069480902934987653907 -0.001237642485648394064662314307 -0.003106533782556653022766113281 0 0 0 0 
2401166666.6666665077 0.171009823679924011230468750000 0.034998062998056411743164062500 -0.001263696118257940032361674731 -0.003143907990306615829467773438 0 0 0 0 
2401333333.3333334923 0.171126067638397189041299384371 0.034215923398733139038085937500 -0.001439440762624144987819052588 -0.003144612768664956092834472656 0 0 0 0 
2401500000.0000000000 0.171482250094413812835369981258 0.033432155847549438476562500000 -0.001417226507328450896619487231 -0.003299083560705184936523437500 0 0 0 0 
2401666666.6666665077 0.171509116888046292404013115629 0.032546281814575202251393903907 -0.001517936703749001026153564453 -0.003218331141397356986999511719 0 0 0 0 
2401833333.3333334923 0.171635299921035794357138115629 0.031590495258569717407226562500 -0.001507581793703139045118022388 -0.003339936491101980209350585938 0 0 0 0 
2402000000.0000000000 0.171470701694488497635049384371 0.030724838376045230520228201954 -0.001746470807120203971862792969 -0.003321140306070446968078613281 0 0 0 0 
2402166666.6666665077 0.171499475836753900725994981258 0.029727455228567119943638985546 -0.001966273644939064979553222656 -0.003367115277796984152552939307 0 0 0 0 
2402333333.3333334923 0.171493217349052401443643134371 0.028867920860648158681849295704 -0.002062536543235183195826865088 -0.003290000138804316954371786963 0 0 0 0 
2402500000.0000000000 0.171803727746009798904580634371 0.027871703729033470153808593750 -0.002247913507744669914245605469 -0.003346753539517521858215332031 0 0 0 0 
2402666666.6666665077 0.171422541141510009765625000000 0.026988578960299488412877266796 -0.002297067549079657034633017432 -0.003151976270601152940037392725 0 0 0 0 
2402833333.3333334923 0.171525672078132601638955634371 0.025949846953153610229492187500 -0.002388079650700091881992959131 -0.003026661230251193046569824219 0 0 0 0 
2403000000.0000000000 0.171420454978942898849325615629 0.024928219616413119924525076954 -0.002661327132955193953273154150 -0.003088473575189710097071982275 0 0 0 0 
2403166666.6666665077 0.171506047248840304275674384371 0.023726640269160270690917968750 -0.002659652614966034889221191406 -0.002847980707883834838867187500 0 0 0 0 
2403333333.3333334923 0.171290636062622098068075615629 0.022594196721911430358886718750 -0.002840099856257439093348837744 -0.003021934768185019926783896338 0 0 0 0 
2403500000.0000000000 0.171092748641967801193075615629 0.021493272855877879751185233204 -0.002795984735712409019470214844 -0.002823388436809182167053222656 0 0 0 0 
2403666666.6666665077 0.170913249254226712325888115629 0.020062275230884548532506173046 -0.002971727633848785920384072412 -0.002607008907943964004516601562 0 0 0 0 
2403833333.3333334923 0.170865416526794405838174384371 0.018845800310373309743861014454 -0.002924924483522772789001464844 -0.002686657244339584870579384912 0 0 0 0 
2404000000.0000000000 0.170782491564750699142294365629 0.017564887180924419057825858204 -0.003122028196230531172511435400 -0.002636363497003912925720214844 0 0 0 0 
2404166666.6666665077 0.170512497425079401214276231258 0.016148505732417110097864920704 -0.003228077897801994843723916162 -0.002470307517796754837036132812 0 0 0 0 
2404333333.3333334923 0.170386835932731600662393134371 0.014893908984959130722969256055 -0.003258823184296489195582724463 -0.002354354131966828866245888818 0 0 0 0 
2404500000.0000000000 0.170175090432167108733807481258 0.013460104353725910186767578125 -0.003159458516165614128112792969 -0.002330327639356255964991904150 0 0 0 0 
2404666666.6666665077 0.170193731784820612151776231258 0.012132938019931319845179373829 -0.003467455506324768066406250000 -0.002368409419432282014134072412 0 0 0 0 
2404833333.3333334923 0.169954121112823486328125000000 0.010629056952893730508824532421 -0.003511195071041584014892578125 -0.002048065885901451110839843750 0 0 0 0 
2405000000.0000000000 0.170056417584419305999432481258 0.009096040390431880950927734375 -0.003599750576540828184840536963 -0.001839233329519629912135458838 0 0 0 0 
2405166666.6666665077 0.169886082410812405685263115629 0.007513819262385368347167968750 -0.003543748520314693884608603369 -0.001865292666479944965959858472 0 0 0 0 
2405333333.3333334923 0.170019939541816711425781250000 0.005834122654050588607788085938 -0.003559542354196310043334960938 -0.001681781373918056921717978369 0 0 0 0 
2405500000.0000000000 0.169766411185264587402343750000 0.004378790967166423797607421875 -0.003694065380841494040248251807 -0.001557612325996160940883017432 0 0 0 0 
2405666666.6666665077 0.169792324304580688476562500000 0.002784815151244401931762695312 -0.003684118622913957075831747900 -0.001488840789534151987788535010 0 0 0 0 
2405833333.3333334923 0.169721707701682988922442518742 0.001260209362953901074053120190 -0.003729033283889294104335165869 -0.001338960952125489928601909106 0 0 0 0 
2406000000.0000000000 0.169682532548904391189736884371 -0.000461806805105879902839660645 -0.003838033415377140045166015625 -0.001228299923241138891932822119 0 0 0 0 
2406166666.6666665077 0.169517651200294494628906250000 -0.001825881190598011016845703125 -0.003828509477898478941676474463 -0.001115871011279522938969277490 0 0 0 0 
2406333333.3333334923 0.169586330652236910720986884371 -0.003593763569369912147521972656 -0.003737435908988118171691894531 -0.001018433365970849990844726562 0 0 0 0 
2406500000.0000000000 0.169417947530746487716513115629 -0.005132395308464766416067792676 -0.003793334122747182846069335938 -0.001046181307174264950993203271 0 0 0 0 
2406666666.6666665077 0.169096559286117609222088731258 -0.006590288132429122924804687500 -0.003876238130033016204833984375 -0.000879943487234413623809814453 0 0 0 0 
2406833333.3333334923 0.169123888015747098068075615629 -0.008185888640582561492919921875 -0.003927317447960376739501953125 -0.000776468252297490835189819336 0 0 0 0 
2407000000.0000000000 0.168995976448059109786825615629 -0.009578711353242397308349609375 -0.003830673405900598006007529150 -0.000729051767848432064056396484 0 0 0 0 
2407166666.6666665077 0.169020861387252807617187500000 -0.011041150428354740142822265625 -0.003948159981518983840942382812 -0.000487219862407073378562927246 0 0 0 0 
2407333333.3333334923 0.168724626302719088455361884371 -0.012498385272920129948626133398 -0.004042125772684813413138105176 -0.000175119959749281406402587891 0 0 0 0 
2407500000.0000000000 0.168677151203155489822549384371 -0.013643753714859490830391131055 -0.003918074071407318115234375000 -0.000210961428820155588075360709 0 0 0 0 
2407666666.6666665077 0.168532952666282709319744981258 -0.014763625338673589879046055273 -0.003969083074480295181274414062 0.000050001071940641850233078003 0 0 0 0 
2407833333.3333334923 0.168310806155204800704794365629 -0.016136821359395980834960937500 -0.003811342874541879133937216650 0.000266289542196318507194519043 0 0 0 0 
2408000000.0000000000 0.168312534689903287032919365629 -0.017191920429468158376673514454 -0.003809765912592411041259765625 0.000428773841122165322303771973 0 0 0 0 
2408166666.6666665077 0.168206959962844904143963731258 -0.018031608313322070730189139454 -0.003696115221828221841099404443 0.000411911722039803916781824933 0 0 0 0 
2408333333.3333334923 0.168446660041809109786825615629 -0.019087009131908420217493826954 -0.003515893593430519104003906250 0.000501244794577360153198242188 0 0 0 0 
2408500000.0000000000 0.168468326330184908767861884371 -0.020008642226457599294642264454 -0.003364603267982602119445800781 0.000745015218853950500488281250 0 0 0 0 
2408666666.6666665077 0.168600901961326599121093750000 -0.021033996716141700744628906250 -0.003266263287514448165893554688 0.000523395079653710126876831055 0 0 0 0 
2408833333.3333334923 0.168504610657692011077557481258 -0.021828290075063708913782889454 -0.003220238024368882179260253906 0.000666578125674277544021606445 0 0 0 0 
2409000000.0000000000 0.168575063347816495040731865629 -0.022755561396479610097864920704 -0.002957311226055026054382324219 0.000665778294205665588378906250 0 0 0 0 
2409166666.6666665077 0.168881878256797790527343750000 -0.023668598383665088308314139454 -0.003053502412512898011448525537 0.000628035806585103273391723633 0 0 0 0 
2409333333.3333334923 0.169124111533165005782919365629 -0.024526061490178111684778983204 -0.002900118473917245864868164062 0.000618187128566205501556396484 0 0 0 0 
2409500000.0000000000 0.168999090790748596191406250000 -0.025634257122874259948730468750 -0.003070887643843888802769326318 0.000514281739015132188796997070 0 0 0 0 
2409666666.6666665077 0.169299930334091186523437500000 -0.026344431564211848867396170704 -0.002858051098883152008056640625 0.000490540405735373497009277344 0 0 0 0 
2409833333.3333334923 0.169353902339935302734375000000 -0.027191406115889549255371093750 -0.002981199882924557165858603369 0.000380217010388150811195373535 0 0 0 0 
2410000000.0000000000 0.169385910034179687500000000000 -0.028015475720167160034179687500 -0.003086317097768187956569052588 0.000434297951869666576385498047 0 0 0 0 
2410166666.6666665077 0.169559851288795498946981865629 -0.028952429071068760263463204296 -0.002992888446897267861607216943 0.000345936423400417024463099347 0 0 0 0 
2410333333.3333334923 0.169436097145080594161825615629 -0.029821705073118209838867187500 -0.003176627913489938215968466650 0.000403724872739985585212707520 0 0 0 0 
2410500000.0000000000 0.169260546565055902679119981258 -0.030856240540742870676060860546 -0.003252411261200904846191406250 0.000273364537861198186874389648 0 0 0 0 
2410666666.6666665077 0.169252261519432095626669365629 -0.031686529517173767089843750000 -0.003471018048003315925598144531 0.000354315125150605981976109637 0 0 0 0 
2410833333.3333334923 0.169183477759361294845419365629 -0.032374657690525061870534528907 -0.003473649965599178834202431787 0.000432630971772596185833531512 0 0 0 0 
2411000000.0000000000 0.169014021754264803787393134371 -0.033192843198776252056081403907 -0.003722457215189934210536337744 0.000645144376903772354125976562 0 0 0 0 
2411166666.6666665077 0.168805360794067410568075615629 -0.034166239202022552490234375000 -0.003892530687153338952305459131 0.000618903490249067544937133789 0 0 0 0 
2411333333.3333334923 0.168606415390968294998330634371 -0.034920196980237960815429687500 -0.003873071866109966798069619287 0.000717685208655893802642822266 0 0 0 0 
2411500000.0000000000 0.168292567133903503417968750000 -0.035835113376379013061523437500 -0.004030656535178422927856445312 0.000827532843686640262603759766 0 0 0 0 
2411666666.6666665077 0.168210163712501498123330634371 -0.036680303514003746723215471093 -0.004187046550214290618896484375 0.001152570126578212001203227466 0 0 0 0 
2411833333.3333334923 0.167708873748779296875000000000 -0.037408925592899322509765625000 -0.004210372921079397201538085938 0.001386732910759747028350830078 0 0 0 0 
2412000000.0000000000 0.167754963040351895431356865629 -0.038338266313076019287109375000 -0.004471925552934408187866210938 0.001525467843748629093170166016 0 0 0 0 
2412166666.6666665077 0.167096316814422607421875000000 -0.039404671639204032207448591407 -0.004299027379602193832397460938 0.001916224369779228947283100659 0 0 0 0 
2412333333.3333334923 0.167129784822463989257812500000 -0.040100846439599990844726562500 -0.004483807366341353330130292676 0.001972633413970469994785927881 0 0 0 0 
2412500000.0000000000 0.166565954685211209396200615629 -0.041001785546541207050363908593 -0.004460698924958705902099609375 0.002234277548268436951878213037 0 0 0 0 
2412666666.6666665077 0.166314169764518710037393134371 -0.042172335088253021240234375000 -0.004397300537675619125366210938 0.002579657360911368890049599756 0 0 0 0 
2412833333.3333334923 0.165834054350852994064169365629 -0.043075930327177047729492187500 -0.004320768173784018430227948926 0.002943666186183691024780273438 0 0 0 0 
2413000000.0000000000 0.165467768907546997070312500000 -0.044048350304365158081054687500 -0.004273309838026762008666992188 0.003112965030595660209655761719 0 0 0 0 
2413166666.6666665077 0.165056452155113192459268134371 -0.044868323951959609985351562500 -0.004051842726767063140869140625 0.003490853589028120040893554688 0 0 0 0 
2413333333.3333334923 0.164443209767341613769531250000 -0.045980479568243026733398437500 -0.004013089463114739331717206738 0.003831388661637901826145791162 0 0 0 0 
2413500000.0000000000 0.164121419191360501388388115629 -0.047052383422851562500000000000 -0.003576543414965271949768066406 0.004088855814188718795776367188 0 0 0 0 
2413666666.6666665077 0.163691312074661310393963731258 -0.048035159707069396972656250000 -0.003382963594049214883091591943 0.004146904218941926956176757812 0 0 0 0 
2413833333.3333334923 0.163168430328369112869424384371 -0.048859518021345138549804687500 -0.003286191727966070175170898438 0.004349461756646633148193359375 0 0 0 0 
2414000000.0000000000 0.162482127547264099121093750000 -0.050025377422571182250976562500 -0.002870417432859539985656738281 0.004479691386222839355468750000 0 0 0 0 
2414166666.6666665077 0.162266731262207003494424384371 -0.051120623946189880371093750000 -0.002575297607108951048610068213 0.004428175278007984161376953125 0 0 0 0 
2414333333.3333334923 0.161888301372528103927450615629 -0.052041377872228622436523437500 -0.002377185504883528189418173682 0.004576068371534348401541425488 0 0 0 0 
2414500000.0000000000 0.161608383059501703460369981258 -0.053118180483579642559011091407 -0.002029069932177662849426269531 0.004736021161079406738281250000 0 0 0 0 
2414666666.6666665077 0.161175802350044305999432481258 -0.054131034761667251586914062500 -0.001740920939482748942134238135 0.004676365293562412261962890625 0 0 0 0 
2414833333.3333334923 0.161037147045135498046875000000 -0.055039953440427780151367187500 -0.001474509830586612007738422925 0.004722680430859327316284179688 0 0 0 0 
2415000000.0000000000 0.160836860537528991699218750000 -0.056105431169271469116210937500 -0.001284230733290315108058310400 0.004782615229487419128417968750 0 0 0 0 
2415166666.6666665077 0.160479143261909512618856865629 -0.057208925485610961914062500000 -0.001007292885333300070521689307 0.004478992894291877746582031250 0 0 0 0 
2415333333.3333334923 0.160401970148086603362713731258 -0.058504141867160797119140625000 -0.000938666169531643390655517578 0.004556142259389162063598632812 0 0 0 0 
2415500000.0000000000 0.160391047596931513030682481258 -0.059727434068918228149414062500 -0.000682599202264100313186645508 0.004227425903081893920898437500 0 0 0 0 
2415666666.6666665077 0.160056293010711697677450615629 -0.060882188379764556884765625000 -0.000608946837019175291061401367 0.004240970592945814132690429688 0 0 0 0 
2415833333.3333334923 0.159941449761390713790731865629 -0.062043007463216781616210937500 -0.000452448875876143574714660645 0.004212351981550455093383789062 0 0 0 0 
2416000000.0000000000 0.159511342644691495040731865629 -0.063297063112258911132812500000 -0.000259593129158020019531250000 0.004211134742945432662963867188 0 0 0 0 
2416166666.6666665077 0.159632757306098910232705634371 -0.064545691013336181640625000000 -0.000290275260340422391891479492 0.004049500916153193387503339551 0 0 0 0 
2416333333.3333334923 0.159398540854454012771768134371 -0.065816879272460937500000000000 -0.000102594603959005298927584238 0.003929792437702417373657226562 0 0 0 0 
2416500000.0000000000 0.159075155854225186446981865629 -0.067042745649814605712890625000 -0.000015938448996166698634624481 0.003887289203703403906581259619 0 0 0 0 
2416666666.6666665077 0.158847317099571200271768134371 -0.068131081759929656982421875000 0.000049207210395252332091331482 0.003902170574292540983912802588 0 0 0 0 
2416833333.3333334923 0.158563271164894104003906250000 -0.069437742233276367187500000000 0.000199144749785773510306757794 0.003708590287715197043177939307 0 0 0 0 
2417000000.0000000000 0.158067896962165804763955634371 -0.070674151182174682617187500000 0.000162904005264863398954114371 0.003578330390155314965489052881 0 0 0 0 
2417166666.6666665077 0.157866552472114590743856865629 -0.071641631424427032470703125000 0.000513593084178864955902099609 0.003622844349592924118041992188 0 0 0 0 
2417333333.3333334923 0.157557725906372098068075615629 -0.072655662894248962402343750000 0.000466768862679600715637207031 0.003379007102921605110168457031 0 0 0 0 
2417500000.0000000000 0.157272860407829312423544365629 -0.073820404708385467529296875000 0.000511368387378752231597900391 0.003423237707465887069702148438 0 0 0 0 
2417666666.6666665077 0.156991526484489413162393134371 -0.074583984911441802978515625000 0.000451802479801699519157409668 0.003373510902747511863708496094 0 0 0 0 
2417833333.3333334923 0.156668007373809786697549384371 -0.075584597885608673095703125000 0.000408461142797023112147730695 0.003260831581428647041320800781 0 0 0 0 
2418000000.0000000000 0.156349197030067388336505018742 -0.076497755944728851318359375000 0.000463106989627704024314880371 0.003369001904502511024475097656 0 0 0 0 
2418166666.6666665077 0.156097158789634704589843750000 -0.077146343886852264404296875000 0.000475420529255643486976623535 0.003183451015502213998081826318 0 0 0 0 
2418333333.3333334923 0.156108319759368896484375000000 -0.077987223863601684570312500000 0.000494330713991075754165649414 0.003174186218529940085170126807 0 0 0 0 
2418500000.0000000000 0.155678436160087613204794365629 -0.078832231462001800537109375000 0.000596802914515137672424316406 0.003037026152014731927158974756 0 0 0 0 
2418666666.6666665077 0.155475959181785611251669365629 -0.079662017524242401123046875000 0.000455390341812744682461339130 0.003069117898121476173400878906 0 0 0 0 
2418833333.3333334923 0.154908329248428289215411268742 -0.080532468855381011962890625000 0.000444068660726770812838953839 0.003203085390850902037379599463 0 0 0 0 
2419000000.0000000000 0.154662311077117892166299384371 -0.081153154373168945312500000000 0.000435215246398001909255981445 0.003214861266314982934239052881 0 0 0 0 
2419166666.6666665077 0.154512315988540704925213731258 -0.081787429749965667724609375000 0.000502818380482494831085205078 0.003169293748214840888977050781 0 0 0 0 
2419333333.3333334923 0.153948158025741604904013115629 -0.082234025001525878906250000000 0.000561978435143828392028808594 0.003196931444108486175537109375 0 0 0 0 
2419500000.0000000000 0.153724372386932400802450615629 -0.083099558949470520019531250000 0.000557960127480328083038330078 0.003327103098854423002955771338 0 0 0 0 
2419666666.6666665077 0.153416931629180908203125000000 -0.083734549582004547119140625000 0.000643801293335855007171630859 0.003267724532634019851684570312 0 0 0 0 
2419833333.3333334923 0.153051137924194308181924384371 -0.084059484302997589111328125000 0.000649851921480149030685424805 0.003520738566294312910792685400 0 0 0 0 
