# Version 1.00
#
freq[Hz];re:Trc1_S11;im:Trc1_S11;re:Trc2_S21;im:Trc2_S21;
2.400000000000000E+009;1.552733182907105E-001;1.097584143280983E-001;-1.559098309371620E-004;7.320949807763100E-003;
2.400166666666667E+009;1.549814939498901E-001;1.073635369539261E-001;2.471569496265147E-005;7.331101689487696E-003;
2.400333333333334E+009;1.549077033996582E-001;1.050918772816658E-001;2.760973002295941E-004;7.479098159819841E-003;
2.400500000000000E+009;1.548847556114197E-001;1.025481596589088E-001;4.905164823867381E-004;7.693034596741200E-003;
2.400666666666667E+009;1.548398137092590E-001;9.997651726007462E-002;7.072942680679262E-004;7.742187008261681E-003;
2.400833333333334E+009;1.545512378215790E-001;9.714289754629135E-002;9.697966743260622E-004;7.821605540812016E-003;
2.401000000000000E+009;1.548293828964233E-001;9.430003166198731E-002;1.403098576702178E-003;7.872984744608402E-003;
2.401166666666667E+009;1.545846909284592E-001;9.154216200113297E-002;1.581528340466321E-003;7.868991233408451E-003;
2.401333333333334E+009;1.550010591745377E-001;8.843281120061874E-002;2.117771888151765E-003;7.931868545711041E-003;
2.401500000000000E+009;1.554787307977676E-001;8.563002198934555E-002;2.367008477449417E-003;7.855536416172981E-003;
2.401666666666667E+009;1.554352045059204E-001;8.280845731496811E-002;2.789112506434321E-003;7.945176213979721E-003;
2.401833333333334E+009;1.561226844787598E-001;8.014746010303497E-002;3.080131951719523E-003;7.725859526544809E-003;
2.402000000000000E+009;1.568207740783691E-001;7.717638462781906E-002;3.604067955166102E-003;7.671442348510027E-003;
2.402166666666667E+009;1.575623601675034E-001;7.458151131868362E-002;3.776438068598509E-003;7.593383546918631E-003;
2.402333333333334E+009;1.583751738071442E-001;7.174912095069885E-002;4.256720189005137E-003;7.453681435436010E-003;
2.402500000000000E+009;1.597355604171753E-001;6.915409862995148E-002;4.692267626523972E-003;7.359161972999573E-003;
2.402666666666667E+009;1.606371998786926E-001;6.657458841800690E-002;4.937780555337668E-003;6.919187027961016E-003;
2.402833333333334E+009;1.620694994926453E-001;6.402671337127686E-002;5.314020905643702E-003;6.742661818861961E-003;
2.403000000000000E+009;1.633776426315308E-001;6.172055006027222E-002;5.688413977622986E-003;6.409939378499985E-003;
2.403166666666667E+009;1.651187688112259E-001;5.944479629397392E-002;5.969060119241476E-003;6.198946386575699E-003;
2.403333333333334E+009;1.665720045566559E-001;5.691280215978622E-002;6.201800890266895E-003;5.902811884880066E-003;
2.403500000000000E+009;1.684819608926773E-001;5.474201589822769E-002;6.372005213052034E-003;5.414937622845173E-003;
2.403666666666667E+009;1.701279878616333E-001;5.287025123834610E-002;6.737967487424612E-003;5.007815081626177E-003;
2.403833333333334E+009;1.718949377536774E-001;5.090445280075073E-002;6.687386427074671E-003;4.853077698498964E-003;
2.404000000000000E+009;1.734439134597778E-001;4.895221814513207E-002;6.741042248904705E-003;4.495653323829174E-003;
2.404166666666667E+009;1.753696203231812E-001;4.738359525799751E-002;6.824343465268612E-003;3.978225868195295E-003;
2.404333333333334E+009;1.771068572998047E-001;4.577667266130447E-002;6.858751177787781E-003;4.025578964501619E-003;
2.404500000000000E+009;1.788106411695480E-001;4.413663223385811E-002;7.025031372904778E-003;3.576547838747501E-003;
2.404666666666667E+009;1.805392503738403E-001;4.308599606156349E-002;7.078443188220263E-003;3.357894485816360E-003;
2.404833333333334E+009;1.823337376117706E-001;4.193190112709999E-002;7.149429526180029E-003;3.044634126126766E-003;
2.405000000000000E+009;1.837477087974548E-001;4.116850718855858E-002;7.291023153811693E-003;2.679964527487755E-003;
2.405166666666667E+009;1.855653971433640E-001;4.036001861095429E-002;7.232456468045712E-003;2.441542688757181E-003;
2.405333333333334E+009;1.868447363376617E-001;3.969746083021164E-002;7.425301708281040E-003;2.168936422094703E-003;
2.405500000000000E+009;1.885078400373459E-001;3.927888348698616E-002;7.368259597569704E-003;1.898238435387611E-003;
2.405666666666667E+009;1.896976679563522E-001;3.878978267312050E-002;7.269076537340879E-003;1.674942555837333E-003;
2.405833333333334E+009;1.911357194185257E-001;3.853595256805420E-002;7.386726327240467E-003;1.301736803725362E-003;
2.406000000000000E+009;1.923399716615677E-001;3.835272043943405E-002;7.216378115117550E-003;9.420943679288030E-004;
2.406166666666667E+009;1.934006661176682E-001;3.819726034998894E-002;7.296155672520399E-003;8.043577545322478E-004;
2.406333333333334E+009;1.944394409656525E-001;3.821433335542679E-002;7.335609290748835E-003;3.617453912738711E-004;
2.406500000000000E+009;1.952413916587830E-001;3.829035907983780E-002;7.231840398162603E-003;1.061840739566833E-004;
2.406666666666667E+009;1.961274147033691E-001;3.842564299702644E-002;7.162712514400482E-003;-1.738985301926732E-004;
2.406833333333334E+009;1.965973377227783E-001;3.846805170178413E-002;7.014090660959482E-003;-4.431716515682638E-004;
2.407000000000000E+009;1.972226500511169E-001;3.882519528269768E-002;6.961056962609291E-003;-5.945230368524790E-004;
2.407166666666667E+009;1.975775957107544E-001;3.876452893018723E-002;6.814896129071713E-003;-7.210460607893765E-004;
2.407333333333334E+009;1.976882815361023E-001;3.908284753561020E-002;6.607813760638237E-003;-9.797393577173352E-004;
2.407500000000000E+009;1.979087442159653E-001;3.917636349797249E-002;6.200296804308891E-003;-1.252532470971346E-003;
2.407666666666667E+009;1.974940747022629E-001;3.910417854785919E-002;6.800675299018621E-003;-1.462426735088229E-003;
2.407833333333334E+009;1.973474323749542E-001;3.923661261796951E-002;6.215577945113182E-003;-1.723191584460437E-003;
2.408000000000000E+009;1.975280791521072E-001;3.929954394698143E-002;6.305584684014320E-003;-1.767810550518334E-003;
2.408166666666667E+009;1.968952268362045E-001;3.892658278346062E-002;6.380340084433556E-003;-1.671824371442199E-003;
2.408333333333334E+009;1.966252028942108E-001;3.888957202434540E-002;5.906225647777319E-003;-1.923600444570184E-003;
2.408500000000000E+009;1.961562782526016E-001;3.839190676808357E-002;5.871274974197149E-003;-1.866048085503280E-003;
2.408666666666667E+009;1.954313516616821E-001;3.830219060182571E-002;5.688025616109371E-003;-2.048138994723558E-003;
2.408833333333334E+009;1.945093572139740E-001;3.779752179980278E-002;5.661636590957642E-003;-2.317526144906879E-003;
2.409000000000000E+009;1.937540620565414E-001;3.696560859680176E-002;5.501160863786936E-003;-2.244701841846108E-003;
2.409166666666667E+009;1.927281320095062E-001;3.596373647451401E-002;5.390621721744537E-003;-2.247358439490199E-003;
2.409333333333334E+009;1.918843537569046E-001;3.512017056345940E-002;5.423358641564846E-003;-2.416833071038127E-003;
2.409500000000000E+009;1.906295567750931E-001;3.401808813214302E-002;5.331713706254959E-003;-2.489743055775762E-003;
2.409666666666667E+009;1.897332072257996E-001;3.266929090023041E-002;5.344635341316462E-003;-2.451564883813262E-003;
2.409833333333334E+009;1.886851489543915E-001;3.130275011062622E-002;5.434741731733084E-003;-2.697987714782357E-003;
2.410000000000000E+009;1.876595020294190E-001;2.984673343598843E-002;5.271422211080790E-003;-2.744572237133980E-003;
2.410166666666667E+009;1.863677799701691E-001;2.813891693949699E-002;5.201689433306456E-003;-2.851096680387855E-003;
2.410333333333334E+009;1.854254156351090E-001;2.639296837151051E-002;5.305308382958174E-003;-3.143971087411046E-003;
2.410500000000000E+009;1.844668984413147E-001;2.450374141335487E-002;5.075277760624886E-003;-3.118167165666819E-003;
2.410666666666667E+009;1.834544688463211E-001;2.238986268639565E-002;5.015789065510035E-003;-3.484847722575069E-003;
2.410833333333334E+009;1.826418042182922E-001;2.026660554111004E-002;4.797110799700022E-003;-3.491316922008991E-003;
2.411000000000000E+009;1.818816512823105E-001;1.801971718668938E-002;4.652258474379778E-003;-3.709496231749654E-003;
2.411166666666667E+009;1.811136305332184E-001;1.584802195429802E-002;4.693019669502974E-003;-3.786844667047262E-003;
2.411333333333334E+009;1.805154830217362E-001;1.324694417417049E-002;4.517182707786560E-003;-3.881379496306181E-003;
2.411500000000000E+009;1.799759715795517E-001;1.086898893117905E-002;4.287754185497761E-003;-4.057413898408413E-003;
2.411666666666667E+009;1.797001808881760E-001;8.542135357856751E-003;4.278882406651974E-003;-4.025564994663000E-003;
2.411833333333334E+009;1.792507320642471E-001;6.084387656301260E-003;4.038659390062094E-003;-4.104034043848515E-003;
2.412000000000000E+009;1.793051958084106E-001;3.354059066623449E-003;3.834937466308475E-003;-4.219854716211557E-003;
2.412166666666667E+009;1.792971193790436E-001;1.106750918552280E-003;3.851691028103232E-003;-4.365913104265928E-003;
2.412333333333334E+009;1.794064193964005E-001;-1.641842885874212E-003;3.812286769971252E-003;-4.359141457825899E-003;
2.412500000000000E+009;1.798388212919235E-001;-4.133228212594986E-003;3.666474483907223E-003;-4.397328011691570E-003;
2.412666666666667E+009;1.801181882619858E-001;-6.572080310434103E-003;3.602103563025594E-003;-4.551798570901156E-003;
2.412833333333334E+009;1.809581667184830E-001;-9.153815917670727E-003;3.595062298700213E-003;-4.595241509377956E-003;
2.413000000000000E+009;1.815920472145081E-001;-1.147423591464758E-002;3.481884254142642E-003;-4.690139088779688E-003;
2.413166666666667E+009;1.823209524154663E-001;-1.377992983907461E-002;3.519780468195677E-003;-4.884502384811640E-003;
2.413333333333334E+009;1.833321750164032E-001;-1.638593338429928E-002;3.236379707232118E-003;-4.876451101154089E-003;
2.413500000000000E+009;1.843416988849640E-001;-1.872609928250313E-002;3.201374551281333E-003;-5.119622219353914E-003;
2.413666666666667E+009;1.854681223630905E-001;-2.098660171031952E-002;3.041550284251571E-003;-5.378249101340771E-003;
2.413833333333334E+009;1.866677552461624E-001;-2.320298925042152E-002;2.892253454774618E-003;-5.405882373452187E-003;
2.414000000000000E+009;1.876063197851181E-001;-2.523617818951607E-002;2.560765715315938E-003;-5.666165146976709E-003;
2.414166666666667E+009;1.888404786586762E-001;-2.719406969845295E-002;2.385145053267479E-003;-5.639956332743168E-003;
2.414333333333334E+009;1.899590790271759E-001;-2.933479286730290E-002;2.212505089119077E-003;-5.541161168366671E-003;
2.414500000000000E+009;1.913183778524399E-001;-3.088741563260555E-002;1.982778077945113E-003;-5.755336955189705E-003;
2.414666666666667E+009;1.925285011529923E-001;-3.239116445183754E-002;1.687691081315279E-003;-5.850147455930710E-003;
2.414833333333334E+009;1.937893927097321E-001;-3.393835946917534E-002;1.538147334940732E-003;-5.865874234586954E-003;
2.415000000000000E+009;1.948235481977463E-001;-3.534543886780739E-002;1.296068076044321E-003;-5.741700530052185E-003;
2.415166666666667E+009;1.962696313858032E-001;-3.665007650852203E-002;1.275024493224919E-003;-5.864997394382954E-003;
2.415333333333334E+009;1.974914222955704E-001;-3.755744546651840E-002;8.317663450725377E-004;-5.754062905907631E-003;
2.415500000000000E+009;1.985814720392227E-001;-3.835600242018700E-002;7.989607984200120E-004;-5.674972664564848E-003;
2.415666666666667E+009;1.997617334127426E-001;-3.931719809770584E-002;5.509528564289212E-004;-5.759276449680328E-003;
2.415833333333334E+009;2.007555067539215E-001;-3.988536447286606E-002;5.110199563205242E-004;-5.857830867171288E-003;
2.416000000000000E+009;2.017154842615128E-001;-4.063766822218895E-002;3.518583835102618E-004;-5.735387094318867E-003;
2.416166666666667E+009;2.023613303899765E-001;-4.131746292114258E-002;2.085238811559975E-004;-5.845726467669010E-003;
2.416333333333334E+009;2.032478600740433E-001;-4.154715314507484E-002;1.268889900529757E-004;-5.864272825419903E-003;
2.416500000000000E+009;2.037685811519623E-001;-4.176512360572815E-002;1.209882611874491E-006;-5.863656289875507E-003;
2.416666666666667E+009;2.041392177343369E-001;-4.221260175108910E-002;-1.265988103114069E-004;-5.830057896673679E-003;
2.416833333333334E+009;2.045691311359406E-001;-4.217806085944176E-002;-4.327767528593540E-004;-5.782578606158495E-003;
2.417000000000000E+009;2.046828866004944E-001;-4.231839999556541E-002;-3.501145401969552E-004;-6.030346266925335E-003;
2.417166666666667E+009;2.044966965913773E-001;-4.220995679497719E-002;-5.570117500610650E-004;-6.017526611685753E-003;
2.417333333333334E+009;2.043841630220413E-001;-4.201937839388847E-002;-8.541771676391363E-004;-5.902687553316355E-003;
2.417500000000000E+009;2.042925506830216E-001;-4.198475554585457E-002;-1.041472656652331E-003;-6.040280684828758E-003;
2.417666666666667E+009;2.038506418466568E-001;-4.179957509040833E-002;-1.210395363159478E-003;-6.167828105390072E-003;
2.417833333333334E+009;2.033773809671402E-001;-4.157066345214844E-002;-1.429696567356587E-003;-6.092943716794252E-003;
2.418000000000000E+009;2.028169929981232E-001;-4.129713028669357E-002;-1.772881252691150E-003;-6.146825384348631E-003;
2.418166666666667E+009;2.021344751119614E-001;-4.109782725572586E-002;-1.943855197168887E-003;-6.228012498468161E-003;
2.418333333333334E+009;2.011896669864655E-001;-4.095033928751946E-002;-2.423369325697422E-003;-5.965418182313442E-003;
2.418500000000000E+009;2.001718133687973E-001;-4.089460894465447E-002;-2.462403615936637E-003;-5.944120232015848E-003;
2.418666666666667E+009;1.993627101182938E-001;-4.071775823831558E-002;-2.748048398643732E-003;-5.813277326524258E-003;
2.418833333333334E+009;1.981546580791473E-001;-4.081594571471214E-002;-2.944260369986296E-003;-5.663082003593445E-003;
2.419000000000000E+009;1.968289762735367E-001;-4.101506620645523E-002;-3.225994063541293E-003;-5.464627873152494E-003;
2.419166666666667E+009;1.954527199268341E-001;-4.110217839479446E-002;-3.242385108023882E-003;-5.317944567650557E-003;
2.419333333333334E+009;1.940640807151794E-001;-4.168916493654251E-002;-3.353121690452099E-003;-5.255210213363171E-003;
2.419500000000000E+009;1.925657540559769E-001;-4.193613678216934E-002;-3.657619468867779E-003;-5.131571553647518E-003;
2.419666666666667E+009;1.908277720212936E-001;-4.263381659984589E-002;-3.650409169495106E-003;-4.834955092519522E-003;
2.419833333333334E+009;1.891598999500275E-001;-4.324716702103615E-002;-3.814027179032564E-003;-4.656220320612192E-003;
2.420000000000000E+009;1.876544505357742E-001;-4.384589195251465E-002;-3.943858668208122E-003;-4.651464056223631E-003;
2.420166666666667E+009;1.858827024698257E-001;-4.494784027338028E-002;-4.135169554501772E-003;-4.596078302711248E-003;
2.420333333333334E+009;1.841250956058502E-001;-4.608132317662239E-002;-4.124765284359455E-003;-4.504503216594458E-003;
2.420500000000000E+009;1.823413819074631E-001;-4.728112742304802E-002;-4.326576367020607E-003;-4.345758352428675E-003;
2.420666666666667E+009;1.806997209787369E-001;-4.836423695087433E-002;-4.214940126985312E-003;-4.248500801622868E-003;
2.420833333333334E+009;1.791384667158127E-001;-4.980507120490074E-002;-4.584022331982851E-003;-4.104080144315958E-003;
2.421000000000000E+009;1.772841513156891E-001;-5.141068622469902E-002;-4.826851189136505E-003;-3.992081154137850E-003;
2.421166666666667E+009;1.759050041437149E-001;-5.313534289598465E-002;-4.893332719802856E-003;-3.820873564109206E-003;
2.421333333333334E+009;1.741118580102921E-001;-5.449576303362846E-002;-5.098601337522268E-003;-3.615960478782654E-003;
2.421500000000000E+009;1.726285368204117E-001;-5.669129639863968E-002;-5.187920760363340E-003;-3.414688166230917E-003;
2.421666666666667E+009;1.713433712720871E-001;-5.843661352992058E-002;-5.392366088926792E-003;-3.249360481277108E-003;
2.421833333333334E+009;1.699478775262833E-001;-6.032859161496162E-002;-5.388799589127302E-003;-3.024915466085076E-003;
2.422000000000000E+009;1.686986982822418E-001;-6.219406425952911E-002;-5.616294220089912E-003;-2.651558257639408E-003;
2.422166666666667E+009;1.676804721355438E-001;-6.431499868631363E-002;-5.742859560996294E-003;-2.415471011772752E-003;
2.422333333333334E+009;1.667042970657349E-001;-6.654459238052368E-002;-5.538891535252333E-003;-2.027525100857019E-003;
2.422500000000000E+009;1.656728833913803E-001;-6.864859163761139E-002;-5.715236067771912E-003;-1.824952778406441E-003;
2.422666666666667E+009;1.649182885885239E-001;-7.071604579687119E-002;-5.701355170458555E-003;-1.621218514628708E-003;
2.422833333333334E+009;1.643471866846085E-001;-7.277671247720718E-002;-5.629943683743477E-003;-1.324024051427841E-003;
2.423000000000000E+009;1.637343466281891E-001;-7.473731040954590E-002;-5.266448482871056E-003;-1.094607985578477E-003;
2.423166666666667E+009;1.632645577192307E-001;-7.679695636034012E-002;-5.366190336644650E-003;-9.678240166977048E-004;
2.423333333333334E+009;1.630043536424637E-001;-7.903060317039490E-002;-5.282902624458075E-003;-8.564879535697401E-004;
2.423500000000000E+009;1.628474593162537E-001;-8.090744167566299E-002;-5.306235048919916E-003;-6.542919436469674E-004;
2.423666666666667E+009;1.630278378725052E-001;-8.267177641391754E-002;-5.148784257471561E-003;-2.435855567455292E-004;
2.423833333333334E+009;1.628374457359314E-001;-8.456201106309891E-002;-5.019369535148144E-003;-2.517258690204471E-004;
2.424000000000000E+009;1.630674302577972E-001;-8.660032600164414E-002;-5.045556463301182E-003;-2.095176605507731E-004;
2.424166666666667E+009;1.630930751562119E-001;-8.816065639257431E-002;-4.793905187398195E-003;-8.188958599930629E-005;
2.424333333333334E+009;1.634712517261505E-001;-8.995428681373596E-002;-4.759745206683874E-003;3.393697988940403E-005;
2.424500000000000E+009;1.636468619108200E-001;-9.172938764095306E-002;-4.884118679910898E-003;1.465756358811632E-004;
2.424666666666667E+009;1.641537100076675E-001;-9.310851246118546E-002;-4.670356865972281E-003;3.087792720180005E-004;
2.424833333333334E+009;1.647383272647858E-001;-9.467077255249023E-002;-4.695886746048927E-003;3.501238534227014E-004;
2.425000000000000E+009;1.651258170604706E-001;-9.594789147377014E-002;-4.575995728373528E-003;4.311080847401172E-004;
2.425166666666667E+009;1.655272245407105E-001;-9.692441672086716E-002;-4.619103390723467E-003;6.942931213416159E-004;
2.425333333333334E+009;1.660455465316773E-001;-9.805095195770264E-002;-4.452888853847981E-003;6.462025921791792E-004;
2.425500000000000E+009;1.664901077747345E-001;-9.931045770645142E-002;-4.415681585669518E-003;7.071013096719980E-004;
2.425666666666667E+009;1.671233475208283E-001;-9.990890324115753E-002;-4.292583093047142E-003;7.214864017441869E-004;
2.425833333333334E+009;1.673846393823624E-001;-1.008836477994919E-001;-4.364740103483200E-003;9.191081044264138E-004;
2.426000000000000E+009;1.678029000759125E-001;-1.013487577438355E-001;-4.305498674511910E-003;8.139930432662368E-004;
2.426166666666667E+009;1.684512346982956E-001;-1.018051505088806E-001;-4.224526230245829E-003;9.222447406500578E-004;
2.426333333333334E+009;1.686950027942658E-001;-1.023825109004974E-001;-4.144326318055391E-003;9.537131991237402E-004;
2.426500000000000E+009;1.691965907812119E-001;-1.026736497879028E-001;-4.075077362358570E-003;1.119206543080509E-003;
2.426666666666667E+009;1.695497334003449E-001;-1.030467152595520E-001;-4.047706257551909E-003;1.180817023850977E-003;
2.426833333333334E+009;1.699697822332382E-001;-1.033514291048050E-001;-3.905590623617172E-003;1.318234251812100E-003;
2.427000000000000E+009;1.701365858316422E-001;-1.034240201115608E-001;-3.891013329848647E-003;1.265069469809532E-003;
2.427166666666667E+009;1.702744513750076E-001;-1.035137996077538E-001;-3.866163780912757E-003;1.239993609488010E-003;
2.427333333333334E+009;1.702934950590134E-001;-1.036928221583366E-001;-3.880452597513795E-003;1.253676251508296E-003;
2.427500000000000E+009;1.702551096677780E-001;-1.038591563701630E-001;-3.728393698111177E-003;1.270313397981226E-003;
2.427666666666667E+009;1.700777113437653E-001;-1.038268581032753E-001;-3.792318515479565E-003;1.368902274407446E-003;
