# Hz S RI R 50
2400000000.0000000000 0.173640027642250088790731865629 0.049311563372611999511718750000 0.003652370302006601853611611475 0.004443578422069550427908612988 0 0 0 0 
2400166666.6666665077 0.174080982804298400878906250000 0.048825092613697052001953125000 0.003871502587571740150451660156 0.004316033795475959777832031250 0 0 0 0 
2400333333.3333334923 0.174443155527114895919638115629 0.048010159283876419067382812500 0.003896615235134958787205361475 0.004381183534860610961914062500 0 0 0 0 
2400500000.0000000000 0.174900352954864501953125000000 0.047469113022089011455495466407 0.004034426063299179077148437500 0.004268982913345099362845136426 0 0 0 0 
2400666666.6666665077 0.175118610262870788574218750000 0.046650644391775131225585937500 0.004308398813009262084960937500 0.003942213486880064010620117188 0 0 0 0 
2400833333.3333334923 0.175404846668243408203125000000 0.046173468232154853130300153907 0.004484223667532205581665039062 0.003823035629466176033020019531 0 0 0 0 
2401000000.0000000000 0.175329953432083102127236884371 0.045641344040632247924804687500 0.004520296119153499603271484375 0.003719369415193796157836914062 0 0 0 0 
2401166666.6666665077 0.175461769104003906250000000000 0.044919271022081382060964216407 0.004413288086652755737304687500 0.003594407113268971009495400537 0 0 0 0 
2401333333.3333334923 0.175488173961639404296875000000 0.044204764068126678466796875000 0.004880072548985481262207031250 0.003529333276674150986912392725 0 0 0 0 
2401500000.0000000000 0.175638377666473388671875000000 0.043445263057947158813476562500 0.004851905163377523422241210938 0.003081846516579390005824423682 0 0 0 0 
2401666666.6666665077 0.175414517521858187576455634371 0.042973008006811141967773437500 0.005015672184526920318603515625 0.002951551461592317061183310400 0 0 0 0 
2401833333.3333334923 0.175490573048591613769531250000 0.041994899511337280273437500000 0.005034225527197122573852539062 0.002849579323083161874058388818 0 0 0 0 
2402000000.0000000000 0.175205633044242886642294365629 0.041219729930162429809570312500 0.005295625422149896621704101562 0.002649452537298202948329306494 0 0 0 0 
2402166666.6666665077 0.175063371658325195312500000000 0.040177088230848312377929687500 0.005285722669214010238647460938 0.002476571593433618979213095557 0 0 0 0 
2402333333.3333334923 0.174682050943374606033486884371 0.039348594844341278076171875000 0.005370323546230792999267578125 0.002389041706919670104980468750 0 0 0 0 
2402500000.0000000000 0.174653246998786898513955634371 0.038300462067127227783203125000 0.005390687379986047744750976562 0.002136957598850131034851074219 0 0 0 0 
2402666666.6666665077 0.174328178167343111892861884371 0.037245817482471473003347028907 0.005350011866539716720581054688 0.001878121867775917053222656250 0 0 0 0 
2402833333.3333334923 0.174067512154579190353231865629 0.035781458020210273052175153907 0.005284395068883895874023437500 0.001707930001430214101906801538 0 0 0 0 
2403000000.0000000000 0.173602312803268404861611884371 0.034652322530746459960937500000 0.005338552407920361432547284863 0.001455954276025295040727924878 0 0 0 0 
2403166666.6666665077 0.173510834574699401855468750000 0.033307090401649482036550153907 0.005282744765281677246093750000 0.001478469232097268104553222656 0 0 0 0 
2403333333.3333334923 0.172927469015121487716513115629 0.031815428286790847778320312500 0.005226690322160720825195312500 0.001202651765197515921351767432 0 0 0 0 
2403500000.0000000000 0.172518745064735412597656250000 0.030363667756319049489954764454 0.005250545218586921691894531250 0.001061958959326148033142089844 0 0 0 0 
2403666666.6666665077 0.172242015600204495529013115629 0.028599692508578300476074218750 0.005325779784470796585083007812 0.001204668660648166916490864331 0 0 0 0 
2403833333.3333334923 0.171856224536895807464276231258 0.026728007942438129079798514454 0.005176598671823740005493164062 0.001123916008509695963618613135 0 0 0 0 
2404000000.0000000000 0.171397700905799893478231865629 0.025087662041187289846400076954 0.005073560867458581924438476562 0.001010925392620265917537070166 0 0 0 0 
2404166666.6666665077 0.170946955680847195724325615629 0.023149810731410980224609375000 0.005381540395319461822509765625 0.001026721554808319048640585791 0 0 0 0 
2404333333.3333334923 0.170880362391471890548544365629 0.021330695599317550659179687500 0.005468541756272315979003906250 0.000889577262569218873977661133 0 0 0 0 
2404500000.0000000000 0.170245841145515386383380018742 0.019218221306800838815709298046 0.005483429878950119018554687500 0.000682577607221901416778564453 0 0 0 0 
2404666666.6666665077 0.170172333717346191406250000000 0.017276484519243240356445312500 0.005498140584677457809448242188 0.000759932096116244792938232422 0 0 0 0 
2404833333.3333334923 0.170022279024124201018963731258 0.015202378854155540466308593750 0.005736873485147953033447265625 0.000602688523940742015838623047 0 0 0 0 
2405000000.0000000000 0.169845208525657709319744981258 0.013257711194455620157262032421 0.005962845403701066970825195312 0.000498130801133811473846435547 0 0 0 0 
2405166666.6666665077 0.169648736715316800216513115629 0.011191552504897119349469569727 0.005967043805867434415335370801 0.000229437035159207907602033072 0 0 0 0 
2405333333.3333334923 0.169762536883354187011718750000 0.008973575197160243988037109375 0.006154091563075780868530273438 0.000273235462373122572898864746 0 0 0 0 
2405500000.0000000000 0.169823333621025113204794365629 0.007111155427992343902587890625 0.006260124966502189636230468750 -0.000040493607230018817562649386 0 0 0 0 
2405666666.6666665077 0.170030519366264287750567518742 0.004941407125443220138549804688 0.006377864629030227661132812500 -0.000195122207514941692352294922 0 0 0 0 
2405833333.3333334923 0.170160770416259793380575615629 0.002878573490306735038757324219 0.006372617557644844055175781250 -0.000423504330683499574661254883 0 0 0 0 
2406000000.0000000000 0.170425146818161010742187500000 0.000678509939461946487426757812 0.006566249299794436368460370801 -0.000511499529238790273666381836 0 0 0 0 
2406166666.6666665077 0.170656874775886507888955634371 -0.001247792737558484077453613281 0.006665794644504786405081464551 -0.000994260422885417938232421875 0 0 0 0 
2406333333.3333334923 0.171085491776466397384481865629 -0.003112305421382188796997070312 0.006802554242312908172607421875 -0.001309789600782095952274941553 0 0 0 0 
2406500000.0000000000 0.171578809618949890136718750000 -0.005263340193778275576119707324 0.006817629095166921615600585938 -0.001451435149647295908686972510 0 0 0 0 
2406666666.6666665077 0.171895205974578912933026231258 -0.007032245863229036331176757812 0.006734373979270458221435546875 -0.001737999147735536098480224609 0 0 0 0 
2406833333.3333334923 0.172609642148017911056356865629 -0.009109025821089744567871093750 0.006785206962376832962036132812 -0.001926069729961455085157084888 0 0 0 0 
2407000000.0000000000 0.173320129513740511795205634371 -0.011022746562957760202428048046 0.006884673610329627990722656250 -0.002230342710390686988830566406 0 0 0 0 
2407166666.6666665077 0.173970401287078912933026231258 -0.012677409686148170125941092579 0.006777188275009393692016601562 -0.002490860875695943832397460938 0 0 0 0 
2407333333.3333334923 0.174590781331062289138955634371 -0.014497338794171810150146484375 0.006961523089557886123657226562 -0.002909201197326182885410927881 0 0 0 0 
2407500000.0000000000 0.175459817051887512207031250000 -0.016172826290130618703821951954 0.006842061411589384078979492188 -0.003202085150405765013453818213 0 0 0 0 
2407666666.6666665077 0.176217809319496210296307481258 -0.017714340239763259887695312500 0.006672845222055912017822265625 -0.003607738064602016968968056787 0 0 0 0 
2407833333.3333334923 0.176825493574142511565838731258 -0.019464453682303428649902343750 0.006696765311062335968017578125 -0.004103902261704207334036542676 0 0 0 0 
2408000000.0000000000 0.177712619304657010177450615629 -0.020817533135414120065709298046 0.006617981474846602353567792676 -0.004387095104902982711791992188 0 0 0 0 
2408166666.6666665077 0.178436368703842190841513115629 -0.022272016853094100952148437500 0.006483145989477634429931640625 -0.004812296945601701736450195312 0 0 0 0 
2408333333.3333334923 0.179347798228263910491619981258 -0.023689789697527888906458670704 0.006383970845490694046020507812 -0.005029952153563500318045331738 0 0 0 0 
2408500000.0000000000 0.180047139525413513183593750000 -0.024944648146629330026646798046 0.006104886997491121292114257812 -0.005404379218816757202148437500 0 0 0 0 
2408666666.6666665077 0.180622696876525906661825615629 -0.026128685101866718637486641796 0.005894231144338846206665039062 -0.005880640819668769836425781250 0 0 0 0 
2408833333.3333334923 0.181167796254157992263955634371 -0.027262937277555469167689139454 0.005642197560518980026245117188 -0.006092600058764219284057617188 0 0 0 0 
2409000000.0000000000 0.181850060820579501053018134371 -0.028061406686902049673060233204 0.005255984608083963394165039062 -0.006535236258059740066528320312 0 0 0 0 
2409166666.6666665077 0.182295188307762201507244981258 -0.029129028320312500000000000000 0.004914667923003435134887695312 -0.006728385109454393386840820312 0 0 0 0 
2409333333.3333334923 0.182980075478553799728231865629 -0.029892297461628910409947579296 0.004553792066872119903564453125 -0.006911146454513072967529296875 0 0 0 0 
2409500000.0000000000 0.183063834905624389648437500000 -0.030820794403553009033203125000 0.004255361389368773374075605176 -0.007129502948373556137084960938 0 0 0 0 
2409666666.6666665077 0.183474525809287997146768134371 -0.031386915594339370727539062500 0.003908094484359025955200195312 -0.007414572406560182571411132812 0 0 0 0 
2409833333.3333334923 0.183735594153404208084268134371 -0.031832147389650351787526716407 0.003574641188606619834899902344 -0.007529380265623331069946289062 0 0 0 0 
2410000000.0000000000 0.184140905737876892089843750000 -0.032269369810819632793386091407 0.003152881283313035964965820312 -0.007653645239770411577706621387 0 0 0 0 
2410166666.6666665077 0.184348747134208706954794365629 -0.032666627317667007446289062500 0.002937173936516046957728720557 -0.007681568153202533721923828125 0 0 0 0 
2410333333.3333334923 0.184224367141723605056924384371 -0.033147193491458892822265625000 0.002543484559282660917994833838 -0.007822732441127300262451171875 0 0 0 0 
2410500000.0000000000 0.184355393052101107498330634371 -0.033415239304304122924804687500 0.002194196451455355124232626807 -0.007928352802991867065429687500 0 0 0 0 
2410666666.6666665077 0.184173122048377990722656250000 -0.033950086683034896850585937500 0.001925062504597008011461567456 -0.008084127679467201232910156250 0 0 0 0 
2410833333.3333334923 0.184141814708709689041299384371 -0.034066762775182717060129533593 0.001483923639170825915095663916 -0.008188136853277683258056640625 0 0 0 0 
2411000000.0000000000 0.183795422315597506424111884371 -0.034536469727754592895507812500 0.001111798104830086014391254956 -0.008233391679823398590087890625 0 0 0 0 
2411166666.6666665077 0.183416381478309603592080634371 -0.034731626510620117187500000000 0.000768533733207732439041137695 -0.008198109455406665802001953125 0 0 0 0 
2411333333.3333334923 0.183036014437675503829794365629 -0.035149589180946350097656250000 0.000324719701893627589375096454 -0.008286804892122745513916015625 0 0 0 0 
2411500000.0000000000 0.182401180267334012130575615629 -0.035721939057111740112304687500 0.000025573781385901380667482682 -0.008197916671633720397949218750 0 0 0 0 
2411666666.6666665077 0.181949689984321594238281250000 -0.036133822053670883178710937500 -0.000318281003274023478657323016 -0.008241116069257259368896484375 0 0 0 0 
2411833333.3333334923 0.181106030941009493728799384371 -0.036338083446025848388671875000 -0.000662869948428124189376831055 -0.008079270832240581512451171875 0 0 0 0 
2412000000.0000000000 0.180429905652999905685263115629 -0.036834865808486938476562500000 -0.001006912090815603949903178638 -0.008025475777685642242431640625 0 0 0 0 
2412166666.6666665077 0.179149568080902099609375000000 -0.037374518811702728271484375000 -0.001515419571660459041595458984 -0.007959756068885326385498046875 0 0 0 0 
2412333333.3333334923 0.178424268960952786544638115629 -0.037917584180831909179687500000 -0.001695228507742285945295024341 -0.007710209116339684400076581738 0 0 0 0 
2412500000.0000000000 0.177095219492912292480468750000 -0.038462970405817031860351562500 -0.002027360722422599792480468750 -0.007621592376381158828735351562 0 0 0 0 
2412666666.6666665077 0.176056399941444396972656250000 -0.039380092173814766620676408593 -0.002396735595539211793186806787 -0.007433579303324223432059003613 0 0 0 0 
2412833333.3333334923 0.174955651164054898361044365629 -0.040140442550182342529296875000 -0.002576107159256935119628906250 -0.007264000829309225082397460938 0 0 0 0 
2413000000.0000000000 0.173698440194129888336505018742 -0.040649235248565666889231096093 -0.002853906247764825820922851562 -0.007377499714493752393240644238 0 0 0 0 
2413166666.6666665077 0.172290533781051607986611884371 -0.041624728590250022197682966407 -0.003176978789269924163818359375 -0.006897165440022945404052734375 0 0 0 0 
2413333333.3333334923 0.170738086104393005371093750000 -0.042587250471115112304687500000 -0.003333282656967639923095703125 -0.006834435276687145233154296875 0 0 0 0 
2413500000.0000000000 0.169528812170028686523437500000 -0.043655063956975936889648437500 -0.003532906761392951011657714844 -0.006580484099686145782470703125 0 0 0 0 
2413666666.6666665077 0.168163970112800598144531250000 -0.044746771454811103130300153907 -0.003773996140807867050170898438 -0.006381011102348566055297851562 0 0 0 0 
2413833333.3333334923 0.166926711797714205642861884371 -0.045733910053968429565429687500 -0.003977072890847921371459960938 -0.006215183995664119720458984375 0 0 0 0 
2414000000.0000000000 0.165475174784660311599893134371 -0.047222524881362921977956403907 -0.004122623242437840375418378613 -0.005953242536634206771850585938 0 0 0 0 
2414166666.6666665077 0.164334699511527987381143134371 -0.048436056822538382793386091407 -0.004387297201901674270629882812 -0.005791188683360815048217773438 0 0 0 0 
2414333333.3333334923 0.163085073232650812347088731258 -0.049843870103359222412109375000 -0.004439003299921751022338867188 -0.005581745412200689315795898438 0 0 0 0 
2414500000.0000000000 0.161953017115593012054119981258 -0.051285352557897567749023437500 -0.004710765089839696884155273438 -0.005298594478517770767211914062 0 0 0 0 
2414666666.6666665077 0.160775557160377502441406250000 -0.052774839103221893310546875000 -0.004994285292923451337332441113 -0.005137169733643531799316406250 0 0 0 0 
2414833333.3333334923 0.159657642245292691329794365629 -0.054504979401826858520507812500 -0.005064052063971757888793945312 -0.004760455805808305740356445312 0 0 0 0 
2415000000.0000000000 0.158505409955978393554687500000 -0.056048735976219177246093750000 -0.005416705273091793060302734375 -0.004645962733775377273559570312 0 0 0 0 
2415166666.6666665077 0.157644540071487399002236884371 -0.057827450335025787353515625000 -0.005494645331054925918579101562 -0.004457090981304646405691816113 0 0 0 0 
2415333333.3333334923 0.156821146607398986816406250000 -0.059655591845512390136718750000 -0.005565619561821222305297851562 -0.004105493891984224319458007812 0 0 0 0 
2415500000.0000000000 0.155931174755096407791299384371 -0.061454467475414283061940778907 -0.005619781557470560073852539062 -0.003948492929339408874511718750 0 0 0 0 
2415666666.6666665077 0.155173689126968411544638115629 -0.063251174986362457275390625000 -0.005753872916102409362792968750 -0.003389672841876744790318154443 0 0 0 0 
2415833333.3333334923 0.154725864529609707931356865629 -0.065235137939453125000000000000 -0.005833893083035945892333984375 -0.003251276677474379973170615088 0 0 0 0 
2416000000.0000000000 0.153932094573974609375000000000 -0.067225672304630279541015625000 -0.005886633880436419573312090137 -0.002867140807211399078369140625 0 0 0 0 
2416166666.6666665077 0.153592035174369812011718750000 -0.069107674062252044677734375000 -0.005953641608357430371756269238 -0.002548219170421361923217773438 0 0 0 0 
2416333333.3333334923 0.153190970420837402343750000000 -0.071013689041137695312500000000 -0.005957012996077538403982831738 -0.002321480074897408919093466650 0 0 0 0 
2416500000.0000000000 0.152765110135078402420205634371 -0.073040291666984558105468750000 -0.005885698366910219192504882812 -0.001918011927045881965039897388 0 0 0 0 
2416666666.6666665077 0.152401834726333590408486884371 -0.074941053986549377441406250000 -0.005786245223134756088256835938 -0.001609662896953522942186665112 0 0 0 0 
2416833333.3333334923 0.152382925152778597732705634371 -0.076865948736667633056640625000 -0.005842437501996755599975585938 -0.001471452647820115089416503906 0 0 0 0 
2417000000.0000000000 0.151933431625366210937500000000 -0.078790947794914245605468750000 -0.005648893769830465316772460938 -0.001231050584465265057207417065 0 0 0 0 
2417166666.6666665077 0.151820868253707913497763115629 -0.080449223518371582031250000000 -0.005508466158062219619750976562 -0.000968468026258051395416259766 0 0 0 0 
2417333333.3333334923 0.152039930224418612381143134371 -0.082220681011676788330078125000 -0.005384869407862424850463867188 -0.000834811537060886621475219727 0 0 0 0 
2417500000.0000000000 0.151879563927650507171307481258 -0.084079876542091369628906250000 -0.005240775644779205322265625000 -0.000643677427433431148529052734 0 0 0 0 
2417666666.6666665077 0.152096524834632901290731865629 -0.085619203746318817138671875000 -0.005113276652991771697998046875 -0.000433186243753880316584986554 0 0 0 0 
2417833333.3333334923 0.152183443307876586914062500000 -0.087147265672683715820312500000 -0.004874891135841608047485351562 -0.000425581645686179399490356445 0 0 0 0 
2418000000.0000000000 0.152207970619201687911825615629 -0.088728144764900207519531250000 -0.004832826089113950729370117188 -0.000187288795132189989089965820 0 0 0 0 
2418166666.6666665077 0.152465164661407498458700615629 -0.089809089899063110351562500000 -0.004693305119872093200683593750 -0.000134972608066164011329096661 0 0 0 0 
2418333333.3333334923 0.152858838438987704178018134371 -0.091107338666915893554687500000 -0.004613373894244431581979082324 -0.000069685724156443029642105103 0 0 0 0 
2418500000.0000000000 0.152904197573661804199218750000 -0.092335321009159088134765625000 -0.004522182513028383255004882812 -0.000126070357509888708591461182 0 0 0 0 
2418666666.6666665077 0.153277352452278109451455634371 -0.093228608369827270507812500000 -0.004444765858352184295654296875 0.000057110373745672411542346342 0 0 0 0 
2418833333.3333334923 0.153265103697776794433593750000 -0.094226501882076263427734375000 -0.004485093057155609130859375000 0.000022261347112362269649301835 0 0 0 0 
2419000000.0000000000 0.153506338596343994140625000000 -0.095081888139247894287109375000 -0.004296288825571537017822265625 -0.000048642406909493729472160339 0 0 0 0 
2419166666.6666665077 0.153777599334716796875000000000 -0.095774851739406585693359375000 -0.004363993648439645767211914062 0.000062953004089649766683578491 0 0 0 0 
2419333333.3333334923 0.153762489557266207595986884371 -0.096172131597995758056640625000 -0.004444222897291184339041425488 0.000228897508350201005309504376 0 0 0 0 
2419500000.0000000000 0.154063954949378995040731865629 -0.096835292875766754150390625000 -0.004412462003529071807861328125 0.000194531385204754796907147818 0 0 0 0 
2419666666.6666665077 0.154461681842804010589276231258 -0.097047612071037292480468750000 -0.004416258074343205365652753613 0.000266950402874499613612574445 0 0 0 0 
2419833333.3333334923 0.154367148876190213302450615629 -0.097176030278205871582031250000 -0.004572217818349599838256835938 0.000373356189811602180630284442 0 0 0 0 
