# Hz S RI R 50
2400000000.0000000000 0.167834013700485201736611884371 0.040978487581014633178710937500 0.000706741295289248228073120117 -0.003531876718625425858738564600 0 0 0 0 
2400166666.6666665077 0.168567210435867309570312500000 0.040255084633827209472656250000 0.000479412847198545878559666766 -0.003669757163152099089381552588 0 0 0 0 
2400333333.3333334923 0.168975368142127990722656250000 0.039197850972414016723632812500 0.000441205047536641413539332257 -0.003538104705512524084803915869 0 0 0 0 
2400500000.0000000000 0.169602304697036687652911268742 0.038418516516685492778737653907 0.000312198069877922480732518329 -0.003425212344154715971705771338 0 0 0 0 
2400666666.6666665077 0.169770196080207796951455634371 0.037607125937938690185546875000 0.000130484841065481305122375488 -0.003559477394446731047389365088 0 0 0 0 
2400833333.3333334923 0.170124679803848294357138115629 0.036744620651006698608398437500 0.000061648090195376425981521606 -0.003371648956090211868286132812 0 0 0 0 
2401000000.0000000000 0.170299753546714810470419365629 0.035868063569068908691406250000 -0.000027808582672150808980668715 -0.003435834078118205070495605469 0 0 0 0 
2401166666.6666665077 0.170697972178459195236044365629 0.034870926290750496601145158593 -0.000088552347733639180660247803 -0.003296489594504237174987792969 0 0 0 0 
2401333333.3333334923 0.170706465840339688400106865629 0.034050192683935172344167341407 -0.000285414338577538674503880634 -0.003363176714628934860229492188 0 0 0 0 
2401500000.0000000000 0.171158388257026700118856865629 0.033232335001230239868164062500 -0.000255679799010977203219813214 -0.003427409566938877105712890625 0 0 0 0 
2401666666.6666665077 0.171251922845840509612713731258 0.032362144440412521362304687500 -0.000294416269753128290176391602 -0.003256027819588779969456338037 0 0 0 0 
2401833333.3333334923 0.171149030327796908279580634371 0.031405474990606307983398437500 -0.000283054017927497625350952148 -0.003376511158421636061427451025 0 0 0 0 
2402000000.0000000000 0.171183720231056213378906250000 0.030539143830537799489954764454 -0.000366043270332738811343592511 -0.003211235394701362089869833838 0 0 0 0 
2402166666.6666665077 0.171324118971824701507244981258 0.029535815119743350637415701954 -0.000532014295458793640136718750 -0.003290427150204778151271201025 0 0 0 0 
2402333333.3333334923 0.171212822198867797851562500000 0.028505347669124599802037423046 -0.000548254000023007392883300781 -0.003309449413791298866271972656 0 0 0 0 
2402500000.0000000000 0.171594738960266113281250000000 0.027544772252440449106236641796 -0.000646694679744541753470266077 -0.003216457320377231077906943213 0 0 0 0 
2402666666.6666665077 0.171495541930198697189169365629 0.026679620146751400339146798046 -0.000774056068621575832366943359 -0.003162283217534422874450683594 0 0 0 0 
2402833333.3333334923 0.171341910958290100097656250000 0.025735480710864070547083670704 -0.000869354174938052892684936523 -0.003109741955995560126063681494 0 0 0 0 
2403000000.0000000000 0.171383112668991088867187500000 0.024367334321141239511510079296 -0.000887790985871106386184692383 -0.003223818028345704078674316406 0 0 0 0 
2403166666.6666665077 0.171386048197746304611044365629 0.023350995033979419363001639454 -0.000777947017922997474670410156 -0.003155824495479464964625693213 0 0 0 0 
2403333333.3333334923 0.171264484524726895431356865629 0.022223820909857749938964843750 -0.000920909398701041936874389648 -0.003208114532753825187683105469 0 0 0 0 
2403500000.0000000000 0.171104356646537808517294365629 0.021172856912016868591308593750 -0.000986826024018228054046630859 -0.003330365754663943810703896631 0 0 0 0 
2403666666.6666665077 0.171082183718681307693643134371 0.019733436405658718454381173046 -0.001173351542092859961866069263 -0.003404919290915132002589560400 0 0 0 0 
2403833333.3333334923 0.171085566282272311111611884371 0.018590258434414860116978829296 -0.001317079877480864958522177588 -0.003453907091170548959019326318 0 0 0 0 
2404000000.0000000000 0.170879364013671902755575615629 0.017365811392664909362792968750 -0.001563020050525665066362690503 -0.003361448645591735839843750000 0 0 0 0 
2404166666.6666665077 0.170600503683090209960937500000 0.015879737213253978383997733204 -0.001555787865072489001630473560 -0.003209958551451563835144042969 0 0 0 0 
2404333333.3333334923 0.170755937695503207107705634371 0.014802758581936359405517578125 -0.001688016694970428943634033203 -0.003248846391215920014622353662 0 0 0 0 
2404500000.0000000000 0.170401588082313509842080634371 0.013239705935120580845842930273 -0.002043506130576134161708212744 -0.003217350691556930975673056494 0 0 0 0 
2404666666.6666665077 0.170441567897796603103799384371 0.011924334801733490335484688671 -0.002061906969174743132350302588 -0.003200217848643660979029990088 0 0 0 0 
2404833333.3333334923 0.170440718531608609298544365629 0.010480939410626890009869960352 -0.002186128636822104887721396338 -0.003006653161719440980198525537 0 0 0 0 
2405000000.0000000000 0.170412987470626803299111884371 0.008965916000306606292724609375 -0.002372379181906580924987792969 -0.003006569342687726020812988281 0 0 0 0 
2405166666.6666665077 0.170446380972862188141192518742 0.007428348064422607421875000000 -0.002638455480337142944335937500 -0.002646411536261438889744423975 0 0 0 0 
2405333333.3333334923 0.170522347092628506759481865629 0.006010103970766068372244550488 -0.002484980272129178047180175781 -0.002722865669056773185729980469 0 0 0 0 
2405500000.0000000000 0.170478284358978299239950615629 0.004378443583846092224121093750 -0.002611122326925396919250488281 -0.002608725568279623985290527344 0 0 0 0 
2405666666.6666665077 0.170316472649574307540731865629 0.002823978662490845160243368994 -0.002613264834508299827575683594 -0.002514622639864683151245117188 0 0 0 0 
2405833333.3333334923 0.170266285538673400878906250000 0.001362123992294073104858398438 -0.002674425486475228829624795068 -0.002288864227011799812316894531 0 0 0 0 
2406000000.0000000000 0.170297101140022305587606865629 -0.000418352836277335882186889648 -0.002828394761309028105494833838 -0.002238564658910036087036132812 0 0 0 0 
2406166666.6666665077 0.170071646571159390548544365629 -0.001866674050688744024989462744 -0.002738127019256352944615029443 -0.002170495223253964944126748193 0 0 0 0 
2406333333.3333334923 0.170082539319992093185263115629 -0.003446616698056458993199013818 -0.002667927416041492982151650537 -0.002170739229768515066859579932 0 0 0 0 
2406500000.0000000000 0.170001313090324401855468750000 -0.005085791461169719696044921875 -0.002823339309543371200561523438 -0.002101571997627615928649902344 0 0 0 0 
2406666666.6666665077 0.169674009084701510330361884371 -0.006544720381498336791992187500 -0.002921942388638854026794433594 -0.001943593146279454014421772534 0 0 0 0 
2406833333.3333334923 0.169641360640525790115518134371 -0.008151693269610404968261718750 -0.002889547264203428788426064600 -0.001915603876113892035243368994 0 0 0 0 
2407000000.0000000000 0.169524282217025812347088731258 -0.009580540470778942108154296875 -0.003092106198891996903660439600 -0.001814363291487097957013774341 0 0 0 0 
2407166666.6666665077 0.169435605406761197189169365629 -0.010953219607472419738769531250 -0.003006195882335305213928222656 -0.001692295307293534062029194409 0 0 0 0 
2407333333.3333334923 0.169138833880424499511718750000 -0.012361766770482059824010079296 -0.003227098844945431189296103369 -0.001684646820649505095240927588 0 0 0 0 
2407500000.0000000000 0.168998599052429199218750000000 -0.013557372614741330582588396680 -0.003124385373666882948634482275 -0.001592925982549787001368857275 0 0 0 0 
2407666666.6666665077 0.168822214007377596756143134371 -0.014810427092015739786168282421 -0.003143459558486938910243368994 -0.001408647396601736979243613135 0 0 0 0 
2407833333.3333334923 0.168475300073623712737713731258 -0.016030361875891688955286795704 -0.003353633685037494139430380713 -0.001301886863075196959851909106 0 0 0 0 
2408000000.0000000000 0.168406367301940890213174384371 -0.017113655805587768554687500000 -0.003402942791581153869628906250 -0.001190728507936001040815043872 0 0 0 0 
2408166666.6666665077 0.168229579925537109375000000000 -0.017924550920724868774414062500 -0.003365717595443129973170615088 -0.001199117745272815010668110425 0 0 0 0 
2408333333.3333334923 0.168311849236488286774005018742 -0.018930383026599880563756173046 -0.003360699629411100907566689600 -0.000896850775461643934249877930 0 0 0 0 
2408500000.0000000000 0.168186962604522705078125000000 -0.019978843629360198974609375000 -0.003418145002797245979309082031 -0.000827245239634066820144653320 0 0 0 0 
2408666666.6666665077 0.168288096785545404632244981258 -0.020844643935561180114746093750 -0.003307205392047762870788574219 -0.000656277348753064870834350586 0 0 0 0 
2408833333.3333334923 0.168159127235412597656250000000 -0.021815231069922450674036795704 -0.003473556367680429978611611475 -0.000638981466181576251983642578 0 0 0 0 
2409000000.0000000000 0.168252229690551813323651231258 -0.022575404495000839233398437500 -0.003515384392812848091125488281 -0.000312644027872011119693201886 0 0 0 0 
2409166666.6666665077 0.168558165431022588531817518742 -0.023339925333857539785364920704 -0.003548712003976107077357626807 -0.000362060265615582520335596906 0 0 0 0 
2409333333.3333334923 0.168752804398536709884481865629 -0.024510480463504791259765625000 -0.003405833384022117094752646338 -0.000244432128965854590565282001 0 0 0 0 
2409500000.0000000000 0.168705418705940302093182481258 -0.025251111015677448617955391796 -0.003384197829291224913356161963 -0.000300410902127623612254542218 0 0 0 0 
2409666666.6666665077 0.168682858347892788986044365629 -0.026161907240748408925989920704 -0.003344580996781588034388876807 0.000069246045313775539398193359 0 0 0 0 
2409833333.3333334923 0.168708533048629788497763115629 -0.026981944218277931213378906250 -0.003301252610981463952305459131 0.000047278765123337507247924805 0 0 0 0 
2410000000.0000000000 0.169105961918830899337606865629 -0.027842277660965919494628906250 -0.003290290711447596983668661963 0.000103452155599370598793029785 0 0 0 0 
2410166666.6666665077 0.169018313288688687423544365629 -0.028844343498349189758300781250 -0.003176272148266435103175497900 0.000210932645131833905547541486 0 0 0 0 
2410333333.3333334923 0.168965503573417691329794365629 -0.029710719361901279794713204296 -0.003187454538419843153712607275 0.000401752389734610915184020996 0 0 0 0 
2410500000.0000000000 0.168846786022186307052450615629 -0.030692532658576968801478201954 -0.003236180869862436814549111475 0.000292254204396158511012476788 0 0 0 0 
2410666666.6666665077 0.168681040406227111816406250000 -0.031686600297689437866210937500 -0.003099720459431409835815429688 0.000628759968094527721405029297 0 0 0 0 
2410833333.3333334923 0.168647825717925997635049384371 -0.032435495406389243389089216407 -0.003031452419236301942112588037 0.000555691774934530258178710938 0 0 0 0 
2411000000.0000000000 0.168655499815940912444744981258 -0.033326976001262671733815778907 -0.003022065153345466093776083838 0.000581777945626527070999145508 0 0 0 0 
2411166666.6666665077 0.168374314904213007171307481258 -0.034197237342596047138254533593 -0.003103662049397826194763183594 0.000697823648806661367416381836 0 0 0 0 
2411333333.3333334923 0.168046951293945312500000000000 -0.034880701452493667602539062500 -0.003017161507159471945521689307 0.000749569968320429325103759766 0 0 0 0 
2411500000.0000000000 0.167938932776451110839843750000 -0.035960432142019271850585937500 -0.002934664255008101896998740088 0.000872409262228757143020629883 0 0 0 0 
2411666666.6666665077 0.167671322822570800781250000000 -0.036877669394016272808034528907 -0.002884967951104044914245605469 0.000848873867653310298919677734 0 0 0 0 
2411833333.3333334923 0.167418524622917203048544365629 -0.037727594375610351562500000000 -0.002779714763164519829991006006 0.001032274798490107059478759766 0 0 0 0 
2412000000.0000000000 0.167392984032630892654580634371 -0.038525704294443130493164062500 -0.002742098877206445173976279150 0.001092706108465790965436625903 0 0 0 0 
2412166666.6666665077 0.167016193270683288574218750000 -0.039682835340499877929687500000 -0.002564349910244346098658896338 0.001032574451528490023372031104 0 0 0 0 
2412333333.3333334923 0.166844323277473505218182481258 -0.040609624236822128295898437500 -0.002528995973989367918727255713 0.001093282364308834075927734375 0 0 0 0 
2412500000.0000000000 0.166244208812713595291299384371 -0.041532061994075782085378278907 -0.002347181318327784971949911963 0.001143321394920348904253315503 0 0 0 0 
2412666666.6666665077 0.166111975908279391189736884371 -0.042674645781517028808593750000 -0.002416715025901793999912881006 0.001080574817024170918705605615 0 0 0 0 
2412833333.3333334923 0.165822327136993408203125000000 -0.043545920401811599731445312500 -0.002309774514287710189819335938 0.001063527422957121892216347803 0 0 0 0 
2413000000.0000000000 0.165301010012626703460369981258 -0.044653892517089836811106096093 -0.002364353509619832038879394531 0.001067554694600403092027973706 0 0 0 0 
2413166666.6666665077 0.164883136749267605880575615629 -0.045592762529850013042409528907 -0.002326268702745438055751181494 0.001042666845023632049560546875 0 0 0 0 
2413333333.3333334923 0.164283424615860013107138115629 -0.046419017016887671733815778907 -0.002354887081310153007507324219 0.000963386264629662036895751953 0 0 0 0 
2413500000.0000000000 0.164056241512298611739950615629 -0.047758936882019042968750000000 -0.002535822102800012068507529150 0.000952198286540806293487548828 0 0 0 0 
2413666666.6666665077 0.163603857159614590743856865629 -0.048588760197162628173828125000 -0.002575022866949439048767089844 0.000973706715740263462066650391 0 0 0 0 
2413833333.3333334923 0.162965327501296997070312500000 -0.049600042402744293212890625000 -0.002557940082624555067775107275 0.000993788940832018852233886719 0 0 0 0 
2414000000.0000000000 0.162509933114051791092080634371 -0.050778161734342582012136091407 -0.002497524954378604888916015625 0.001019247458316385962842631763 0 0 0 0 
2414166666.6666665077 0.162133827805519104003906250000 -0.051643125712871551513671875000 -0.002671599388122559027430868994 0.000983147649094462394714355469 0 0 0 0 
2414333333.3333334923 0.161704838275909396072549384371 -0.052562516182661063457448591407 -0.002670190297067164941074990381 0.001085561932995914979221963037 0 0 0 0 
2414500000.0000000000 0.161688864231109591385049384371 -0.053551115095615386962890625000 -0.002643754938617349104640341650 0.001296961796469986005070351709 0 0 0 0 
2414666666.6666665077 0.161264210939407404143963731258 -0.054480046033859252929687500000 -0.002710730768740177154541015625 0.001257794210687279918073344653 0 0 0 0 
2414833333.3333334923 0.160818472504615811446981865629 -0.055545892566442489624023437500 -0.002852250356227159933802939307 0.001487335190176964022992778247 0 0 0 0 
2415000000.0000000000 0.160577565431594904143963731258 -0.056574292480945587158203125000 -0.002874379744753241972682333838 0.001485255663283169052721333081 0 0 0 0 
2415166666.6666665077 0.160554364323616000076455634371 -0.057660337537527077411692033593 -0.003000488039106131033656454932 0.001621009898371994929072714697 0 0 0 0 
2415333333.3333334923 0.160472407937049893478231865629 -0.058734931051731109619140625000 -0.002875494770705699920654296875 0.001627185149118304035784077222 0 0 0 0 
2415500000.0000000000 0.160305172204971313476562500000 -0.059768617153167731548268903907 -0.002957090269774198965785361182 0.001885221689008175893070839990 0 0 0 0 
2415666666.6666665077 0.160194724798202486892861884371 -0.060789976269006729125976562500 -0.003081801580265163941624306787 0.002036837860941886901855468750 0 0 0 0 
2415833333.3333334923 0.160034671425819396972656250000 -0.062092829495668411254882812500 -0.003067054320126771926879882812 0.002132293069735168977024697412 0 0 0 0 
2416000000.0000000000 0.159768849611282404143963731258 -0.063311159610748291015625000000 -0.003048043465241789817810058594 0.002298030536621809005737304688 0 0 0 0 
2416166666.6666665077 0.159825086593627901931924384371 -0.064481362700462341308593750000 -0.003076615976169704957249306787 0.002584282308816909790039062500 0 0 0 0 
2416333333.3333334923 0.159475699067115811446981865629 -0.065621651709079742431640625000 -0.003016378963366150856018066406 0.002730116015300155119654990088 0 0 0 0 
2416500000.0000000000 0.159194961190223693847656250000 -0.066905878484249114990234375000 -0.003011632943525909943821572412 0.002972959540784358978271484375 0 0 0 0 
2416666666.6666665077 0.158953920006751986404580634371 -0.067986629903316497802734375000 -0.003137860912829637961146689307 0.003244009800255299048182822119 0 0 0 0 
2416833333.3333334923 0.158850803971290588378906250000 -0.069141380488872528076171875000 -0.002781700342893600897548056494 0.003449283074587583975550986182 0 0 0 0 
2417000000.0000000000 0.158293664455413790603799384371 -0.070341028273105621337890625000 -0.002595002530142664909362792969 0.003761522471904755072352743994 0 0 0 0 
2417166666.6666665077 0.157905921339988708496093750000 -0.071210615336894989013671875000 -0.002448202110826969146728515625 0.003789334790781139893772744287 0 0 0 0 
2417333333.3333334923 0.157807797193527193924111884371 -0.072241172194480895996093750000 -0.002264026319608091874363564600 0.003965499810874462127685546875 0 0 0 0 
2417500000.0000000000 0.157387122511863708496093750000 -0.073424339294433593750000000000 -0.001920377137139440016505576025 0.004339669831097126007080078125 0 0 0 0 
2417666666.6666665077 0.157206058502197293380575615629 -0.074120983481407165527343750000 -0.001699715736322104930877685547 0.004288011230528354644775390625 0 0 0 0 
2417833333.3333334923 0.156930118799209594726562500000 -0.075128808617591857910156250000 -0.001314766239374876022338867188 0.004341810476034879684448242188 0 0 0 0 
2418000000.0000000000 0.156434625387191800216513115629 -0.075989887118339538574218750000 -0.000947822351008653640747070312 0.004403306636959314346313476562 0 0 0 0 
2418166666.6666665077 0.156256332993507413009481865629 -0.076666869223117828369140625000 -0.000684462313074618577957153320 0.004321545362472534179687500000 0 0 0 0 
2418333333.3333334923 0.156108707189559908767861884371 -0.077614046633243560791015625000 -0.000524144794326275587081909180 0.004207522608339787396902753613 0 0 0 0 
2418500000.0000000000 0.155671522021293612381143134371 -0.078479707241058349609375000000 -0.000333654985297471284866333008 0.004167729057371616363525390625 0 0 0 0 
2418666666.6666665077 0.155590102076530512054119981258 -0.079114817082881927490234375000 0.000005129258624947397038340569 0.004043115768581628799438476562 0 0 0 0 
2418833333.3333334923 0.155043348670005798339843750000 -0.079947143793106079101562500000 0.000084517560026142746210098267 0.003762217937037349180934286963 0 0 0 0 
2419000000.0000000000 0.154680728912353487869424384371 -0.080773301422595977783203125000 0.000274950900347903425067347394 0.003686021547764540152308798682 0 0 0 0 
2419166666.6666665077 0.154327765107154901702557481258 -0.081384122371673583984375000000 0.000386662286473438089520054950 0.003586549777537583871128701318 0 0 0 0 
2419333333.3333334923 0.153683871030807495117187500000 -0.081720761954784393310546875000 0.000490950187668204307556152344 0.003499334678053855895996093750 0 0 0 0 
2419500000.0000000000 0.153592362999916104415731865629 -0.082610182464122772216796875000 0.000525366165675222873687744141 0.003409506287425756888148642432 0 0 0 0 
2419666666.6666665077 0.153358310461044311523437500000 -0.083210214972496032714843750000 0.000594249344430863857269287109 0.003369828686118125915527343750 0 0 0 0 
2419833333.3333334923 0.152747660875320406814736884371 -0.083608895540237426757812500000 0.000554271624423563480377197266 0.003177735256031156019923544775 0 0 0 0 
