# Hz S RI R 50
2400000000.0000000000 0.173522546887397793868856865629 0.049256414175033569335937500000 0.004016187973320484161376953125 -0.000210903584957122802734375000 0 0 0 0 
2400166666.6666665077 0.173865973949432400802450615629 0.048812616616487503051757812500 0.003894721623510121865513466943 -0.000483276468003168702125549316 0 0 0 0 
2400333333.3333334923 0.174245178699493408203125000000 0.048226721584796912456472028907 0.003795681521296501159667968750 -0.000801329617388546466827392578 0 0 0 0 
2400500000.0000000000 0.174609780311584500411825615629 0.047371722757816321636159528907 0.003755518468096851868870400537 -0.000671061163302510976791381836 0 0 0 0 
2400666666.6666665077 0.174869626760482788085937500000 0.046951957046985633159597028907 0.003556398907676339149475097656 -0.000943267717957496643066406250 0 0 0 0 
2400833333.3333334923 0.175246223807334899902343750000 0.046260513365268707275390625000 0.003361807437613606886622763525 -0.001239101751707494042040180737 0 0 0 0 
2401000000.0000000000 0.175327658653259305099325615629 0.045600932091474533081054687500 0.003288738662376999855041503906 -0.001188297173939645073534321362 0 0 0 0 
2401166666.6666665077 0.175595402717590304275674384371 0.044837165623903281475026716407 0.003241648199036716981175088037 -0.001256698509678245024440146338 0 0 0 0 
2401333333.3333334923 0.175341680645942687988281250000 0.044278383255004882812500000000 0.003099009394645690917968750000 -0.001348035293631256060359335791 0 0 0 0 
2401500000.0000000000 0.175426110625267001053018134371 0.043502055108547210693359375000 0.002931988565251231193542480469 -0.001411486184224485917332314600 0 0 0 0 
2401666666.6666665077 0.175240322947502108474893134371 0.043061479926109307025949846093 0.002618854399770497842075966943 -0.001598392962478101036669086987 0 0 0 0 
2401833333.3333334923 0.175221368670463589767294365629 0.041948042809963233257253278907 0.002545488299801946120021201025 -0.001391770783811808066127158057 0 0 0 0 
2402000000.0000000000 0.174820199608802795410156250000 0.041347756981849670410156250000 0.002435476053506135940551757812 -0.001351645914837718009948730469 0 0 0 0 
2402166666.6666665077 0.174860686063766507247763115629 0.040213119238615042949636091407 0.002270140917971729798557900537 -0.001441069762222469069837260669 0 0 0 0 
2402333333.3333334923 0.174634099006652804275674384371 0.039410091936588287353515625000 0.002245449228212236924412392725 -0.001327246078290045044542622144 0 0 0 0 
2402500000.0000000000 0.174438938498497009277343750000 0.038356769829988479614257812500 0.002163812983781098885777138818 -0.001046377699822186990025185693 0 0 0 0 
2402666666.6666665077 0.174040824174881009200888115629 0.037386152893304831767995466407 0.001993089681491256193873740088 -0.001339629292488097927690815503 0 0 0 0 
2402833333.3333334923 0.173755988478660611251669365629 0.036108359694480902934987653907 0.001903860596939920945408486475 -0.001116120023652910969377827222 0 0 0 0 
2403000000.0000000000 0.173507377505302401443643134371 0.034754693508148193359375000000 0.001903848373331129984614706885 -0.000955190917011350393295288086 0 0 0 0 
2403166666.6666665077 0.173254936933517511565838731258 0.033466391265392303466796875000 0.002020168816670774979832314600 -0.000951012712903320789337158203 0 0 0 0 
2403333333.3333334923 0.172749862074851989746093750000 0.032022837549448013305664062500 0.001787027344107628085492778247 -0.000945250096265226602554321289 0 0 0 0 
2403500000.0000000000 0.172466337680816705901776231258 0.030507300049066540109654610546 0.001997015904635190963745117188 -0.000899026053957641124725341797 0 0 0 0 
2403666666.6666665077 0.172011628746986389160156250000 0.028777576982975009572962576954 0.002022183733060956001281738281 -0.000715094269253313541412353516 0 0 0 0 
2403833333.3333334923 0.171839550137519808670205634371 0.027086013928055759775181954296 0.002004608511924744086024618994 -0.000696589762810617685317993164 0 0 0 0 
2404000000.0000000000 0.171444609761238098144531250000 0.025195937603712078439732735546 0.002050905255600810050964355469 -0.000545868941117078065872192383 0 0 0 0 
2404166666.6666665077 0.170995265245437594314736884371 0.023372374475002288818359375000 0.002229997189715505079982138525 -0.000626046326942741870880126953 0 0 0 0 
2404333333.3333334923 0.170701026916503906250000000000 0.021592129021883010864257812500 0.002187492558732628822326660156 -0.000795502972323447465896606445 0 0 0 0 
2404500000.0000000000 0.170342266559600802322549384371 0.019614458084106448781946951954 0.002353244926780461831333779443 -0.000694304413627833127975463867 0 0 0 0 
2404666666.6666665077 0.170223981142044095138388115629 0.017610011622309691692311872657 0.002316408557817339897155761719 -0.000618929159827530384063720703 0 0 0 0 
2404833333.3333334923 0.170027092099189813811932481258 0.015422755852341650181780430273 0.002470540814101696014404296875 -0.000706532620824873447418212891 0 0 0 0 
2405000000.0000000000 0.169862002134323092361611884371 0.013705682009458540135393711523 0.002561806701123714013340615381 -0.000777774956077337265014648438 0 0 0 0 
2405166666.6666665077 0.169951811432838412185830634371 0.011349004693329330789586251171 0.002716798335313796997070312500 -0.000850444368552416563034057617 0 0 0 0 
2405333333.3333334923 0.169766917824745205978231865629 0.009112304076552391052246093750 0.002599807456135749816894531250 -0.000988997868262231349945068359 0 0 0 0 
2405500000.0000000000 0.170012712478637695312500000000 0.007466325536370277404785156250 0.002640549326315522193908691406 -0.001002032193355262062670063550 0 0 0 0 
2405666666.6666665077 0.170061767101287786285723768742 0.005174336023628711700439453125 0.002893394790589808984043740381 -0.001055301981978117985966347803 0 0 0 0 
2405833333.3333334923 0.170115023851394708831463731258 0.003125496674329042001011513818 0.002782438881695270972010947119 -0.001480374136008322022081684644 0 0 0 0 
2406000000.0000000000 0.170692548155784606933593750000 0.001004142570309340953826904297 0.002677109092473984198329306494 -0.001403237809427082972285605322 0 0 0 0 
2406166666.6666665077 0.170766666531562805175781250000 -0.000707380415406078100204467773 0.002721215365454554991481161963 -0.001463697175495326952693320166 0 0 0 0 
2406333333.3333334923 0.171430885791778592208700615629 -0.002874492201954125924351357568 0.002854891121387482123133993994 -0.001619852380827069065691303784 0 0 0 0 
2406500000.0000000000 0.171847954392433194259481865629 -0.004894717596471309661865234375 0.002655136398971081213710165869 -0.001689080731011926910997700269 0 0 0 0 
2406666666.6666665077 0.172216206789016695877236884371 -0.006731671746820211410522460938 0.002808509394526482062098837744 -0.001986951334401965141296386719 0 0 0 0 
2406833333.3333334923 0.172909900546073913574218750000 -0.008987831883132457733154296875 0.002782899187877773804905556787 -0.001714309910312294960021972656 0 0 0 0 
2407000000.0000000000 0.173642411828041104415731865629 -0.010926629416644569742222969921 0.002671990543603897094726562500 -0.001911884290166198990465473706 0 0 0 0 
2407166666.6666665077 0.174300700426101712325888115629 -0.012641645967960359400739100977 0.002596396487206221060511923682 -0.002079629339277743859532021631 0 0 0 0 
2407333333.3333334923 0.174962043762207003494424384371 -0.014495559036731719970703125000 0.002680460689589380784275673975 -0.002085348824039102034327841650 0 0 0 0 
2407500000.0000000000 0.175727128982544000823651231258 -0.016153562813997268676757812500 0.002887261565774679183959960938 -0.002260518027469515800476074219 0 0 0 0 
2407666666.6666665077 0.176396057009696988204794365629 -0.017750579863786700857142264454 0.002713581081479787826538085938 -0.002466570353135467009303427588 0 0 0 0 
2407833333.3333334923 0.177055448293685913085937500000 -0.019520657137036320077916329296 0.002783548086881638006923056494 -0.002522575668990612030029296875 0 0 0 0 
2408000000.0000000000 0.177978903055191012283486884371 -0.021090762689709659921666329296 0.002629590220749378204345703125 -0.002525165677070618109462118994 0 0 0 0 
2408166666.6666665077 0.178630888462066705901776231258 -0.022358082234859470022181326954 0.002720343880355358123779296875 -0.002862653462216258049011230469 0 0 0 0 
2408333333.3333334923 0.179480805993080111404580634371 -0.023811457678675651550292968750 0.002732966560870409011840820312 -0.002943453378975390954258584131 0 0 0 0 
2408500000.0000000000 0.180045351386070306975994981258 -0.025156809017062190664271170704 0.002603200031444429917576455225 -0.003039677394554018974304199219 0 0 0 0 
2408666666.6666665077 0.180754825472831698318643134371 -0.026455147191882130014439766796 0.002621770137920976118800497900 -0.003304587909951806068420410156 0 0 0 0 
2408833333.3333334923 0.181115120649337796310263115629 -0.027409492060542110097864920704 0.002427982864901423887965536963 -0.003414214355871080918553017725 0 0 0 0 
2409000000.0000000000 0.181658998131751986404580634371 -0.028402406722307208669642264454 0.002292110119014977975132607568 -0.003536317730322480201721191406 0 0 0 0 
2409166666.6666665077 0.182250395417213412185830634371 -0.029296893626451488840123360546 0.002156706992536782784702920068 -0.003763691056519747214076376807 0 0 0 0 
2409333333.3333334923 0.182850077748298700530682481258 -0.030080631375312808645228201954 0.002049436792731285095214843750 -0.003814032301306724982020712744 0 0 0 0 
2409500000.0000000000 0.183009773492813110351562500000 -0.030943760648369789123535156250 0.001970776822417974905726767432 -0.003868195693939923806431435693 0 0 0 0 
2409666666.6666665077 0.183318585157394409179687500000 -0.031522296369075782085378278907 0.001934687374159693934796977466 -0.004107811488211154937744140625 0 0 0 0 
2409833333.3333334923 0.183591127395629910568075615629 -0.031999576836824417114257812500 0.001681287074461579105974506909 -0.003940011840313673019409179688 0 0 0 0 
2410000000.0000000000 0.183870822191238403320312500000 -0.032458748668432242656667341407 0.001536101917736232063890766675 -0.004180727526545524597167968750 0 0 0 0 
2410166666.6666665077 0.184000506997108487228231865629 -0.032877009361982352519948591407 0.001398356282152235941645956885 -0.004205293022096157073974609375 0 0 0 0 
2410333333.3333334923 0.184001550078392001053018134371 -0.033179510384798049926757812500 0.001412725774571299986598349463 -0.004388082772493362426757812500 0 0 0 0 
2410500000.0000000000 0.184117361903190612792968750000 -0.033502373844385147094726562500 0.001181464176625012917759560693 -0.004502408206462860107421875000 0 0 0 0 
2410666666.6666665077 0.183861762285232488434161268742 -0.033986806869506842876393903907 0.001000434858724474906921386719 -0.004561028908938170346731855176 0 0 0 0 
2410833333.3333334923 0.183927655220031710525674384371 -0.034001372754573822021484375000 0.000761402188800275325775146484 -0.004656117409467697143554687500 0 0 0 0 
2411000000.0000000000 0.183577179908752413650674384371 -0.034515812993049621582031250000 0.000668330991175025701522827148 -0.004820650909096002578735351562 0 0 0 0 
2411166666.6666665077 0.183317199349403409103231865629 -0.034753311425447457050363908593 0.000649208552204072475433349609 -0.004779185168445110321044921875 0 0 0 0 
2411333333.3333334923 0.182863533496856689453125000000 -0.035087119787931442260742187500 0.000388574873795732910006922589 -0.004733075387775897979736328125 0 0 0 0 
2411500000.0000000000 0.182103633880615206619424384371 -0.035621631890535361553151716407 0.000280721811577677726745605469 -0.004824213217943906784057617188 0 0 0 0 
2411666666.6666665077 0.181587368249893188476562500000 -0.035681407898664467548410783593 0.000108998610812704996623177800 -0.005020955111831426620483398438 0 0 0 0 
2411833333.3333334923 0.180819481611251803299111884371 -0.036208599805831909179687500000 -0.000080849502410273998975753784 -0.004918791353702545166015625000 0 0 0 0 
2412000000.0000000000 0.180049821734428405761718750000 -0.036800600588321692729909528907 -0.000280293083051219582557678223 -0.005025366321206092834472656250 0 0 0 0 
2412166666.6666665077 0.179054498672485407073651231258 -0.037365593016147606586496721093 -0.000512793194502592086791992188 -0.005068570841103792190551757812 0 0 0 0 
2412333333.3333334923 0.178269028663635309417401231258 -0.037795536220073699951171875000 -0.000564545334782451391220092773 -0.005059767514467239379882812500 0 0 0 0 
2412500000.0000000000 0.177057877182960510253906250000 -0.038410611450672149658203125000 -0.000784251780714839696884155273 -0.004995935130864381790161132812 0 0 0 0 
2412666666.6666665077 0.176008179783821105957031250000 -0.039223030209541320800781250000 -0.001103082322515547058702778394 -0.004969301633536815643310546875 0 0 0 0 
2412833333.3333334923 0.174938499927520807464276231258 -0.039898183196783072734792341407 -0.001239442266523838043212890625 -0.005123515147715806961059570312 0 0 0 0 
2413000000.0000000000 0.173428475856781005859375000000 -0.040542472153902046894113908593 -0.001423132023774086995365761865 -0.005069264676421880722045898438 0 0 0 0 
2413166666.6666665077 0.172226369380950899978799384371 -0.041535768657922751689870466407 -0.001634567626751959107042622144 -0.005130453500896692276000976562 0 0 0 0 
2413333333.3333334923 0.170887023210525512695312500000 -0.042442128062248229980468750000 -0.001800835598260164044023823315 -0.004933049902319908142089843750 0 0 0 0 
2413500000.0000000000 0.169503480195999201018963731258 -0.043300978839397430419921875000 -0.001962601672857999801635742188 -0.005058687180280685424804687500 0 0 0 0 
2413666666.6666665077 0.168346375226974487304687500000 -0.044532969594001770019531250000 -0.002247523749247192902805947412 -0.004989817738533020019531250000 0 0 0 0 
2413833333.3333334923 0.166909188032150296310263115629 -0.045679952949285507202148437500 -0.002409939421340823173522949219 -0.004982451442629098892211914062 0 0 0 0 
2414000000.0000000000 0.165567949414253207107705634371 -0.047011721879243850708007812500 -0.002680839505046606063842773438 -0.004833361599594354629516601562 0 0 0 0 
2414166666.6666665077 0.164459899067878695388955634371 -0.048365518450736999511718750000 -0.002844254719093441963195800781 -0.004779187962412834167480468750 0 0 0 0 
2414333333.3333334923 0.163055762648582486251669365629 -0.049698896706104278564453125000 -0.003092419821768999099731445312 -0.004749258980154991149902343750 0 0 0 0 
2414500000.0000000000 0.162151813507080105880575615629 -0.051239848136901862407643903907 -0.003323672339320182800292968750 -0.004550874698907136917114257812 0 0 0 0 
2414666666.6666665077 0.160818472504615811446981865629 -0.052596952766180038452148437500 -0.003611315041780471801757812500 -0.004449319560080766677856445312 0 0 0 0 
2414833333.3333334923 0.159490197896957397460937500000 -0.054340183734893798828125000000 -0.003906081896275281906127929688 -0.004263400100171566009521484375 0 0 0 0 
2415000000.0000000000 0.158667102456092806717080634371 -0.055959615856409072875976562500 -0.004049643874168395996093750000 -0.004167727660387753572945879199 0 0 0 0 
2415166666.6666665077 0.157560035586357088943643134371 -0.057747881859540939331054687500 -0.004204773809760808944702148438 -0.003770537208765745162963867188 0 0 0 0 
2415333333.3333334923 0.156846717000007601638955634371 -0.059550400823354721069335937500 -0.004404563456773757934570312500 -0.003630599472671747207641601562 0 0 0 0 
2415500000.0000000000 0.156017482280731201171875000000 -0.061402615159749991680104841407 -0.004471058491617441177368164062 -0.003463623812422155900242470850 0 0 0 0 
2415666666.6666665077 0.155357956886291503906250000000 -0.063190333545207977294921875000 -0.004700438585132361325735761426 -0.003114919876679778099060058594 0 0 0 0 
2415833333.3333334923 0.154789254069328308105468750000 -0.065183840692043304443359375000 -0.004789394792169333371634198926 -0.002922383137047290802001953125 0 0 0 0 
2416000000.0000000000 0.153941243886947604080361884371 -0.067189984023571014404296875000 -0.004872993100434541702270507812 -0.002590497490018606185913085938 0 0 0 0 
2416166666.6666665077 0.153714209794998196700888115629 -0.069132812321186065673828125000 -0.004951921757310628890991210938 -0.002473276341333984894993447412 0 0 0 0 
2416333333.3333334923 0.153163775801658602615518134371 -0.070990256965160369873046875000 -0.004990255460143089294433593750 -0.002149695530533791022059775244 0 0 0 0 
2416500000.0000000000 0.152860149741172790527343750000 -0.073011338710784912109375000000 -0.004811568651348352432250976562 -0.001894908957183361053466796875 0 0 0 0 
2416666666.6666665077 0.152546674013137789627236884371 -0.074987150728702545166015625000 -0.004835531581193208694458007812 -0.001649145619012414975407265771 0 0 0 0 
2416833333.3333334923 0.152413904666900607010049384371 -0.077006250619888305664062500000 -0.004971792921423912048339843750 -0.001501996535807847976684570312 0 0 0 0 
2417000000.0000000000 0.152034208178520202636718750000 -0.078829683363437652587890625000 -0.004722326062619686126708984375 -0.001231132773682475090026855469 0 0 0 0 
2417166666.6666665077 0.151994958519935607910156250000 -0.080530107021331787109375000000 -0.004749415908008813858032226562 -0.001010648440569638989092182690 0 0 0 0 
2417333333.3333334923 0.151928350329399108886718750000 -0.082298316061496734619140625000 -0.004650694783776999387259198926 -0.001024900702759623961207724463 0 0 0 0 
2417500000.0000000000 0.151847898960113497635049384371 -0.084168463945388793945312500000 -0.004617157857865095138549804688 -0.000752900727093219757080078125 0 0 0 0 
2417666666.6666665077 0.152038037776946993728799384371 -0.085547968745231628417968750000 -0.004571364726871252059936523438 -0.000755840621422976255416870117 0 0 0 0 
2417833333.3333334923 0.152128025889396695236044365629 -0.087119437754154205322265625000 -0.004507713019847869873046875000 -0.000535477593075484037399291992 0 0 0 0 
2418000000.0000000000 0.152182206511497497558593750000 -0.088793173432350158691406250000 -0.004417045507580041885375976562 -0.000490402861032634973526000977 0 0 0 0 
2418166666.6666665077 0.152346581220626803299111884371 -0.089840427041053771972656250000 -0.004376797471195459365844726562 -0.000466770725324750000804346906 0 0 0 0 
2418333333.3333334923 0.152680769562721307952557481258 -0.091150991618633270263671875000 -0.004384233616292476654052734375 -0.000311217649141326600879114972 0 0 0 0 
2418500000.0000000000 0.152728706598281888107138115629 -0.092301599681377410888671875000 -0.004308691248297691345214843750 -0.000306962814647704417079371320 0 0 0 0 
2418666666.6666665077 0.153144747018814086914062500000 -0.093351997435092926025390625000 -0.004354376345872879028320312500 -0.000252542697126045823097229004 0 0 0 0 
2418833333.3333334923 0.153247058391570989410723768742 -0.094225622713565826416015625000 -0.004423940554261207580566406250 -0.000109205226181075004026135855 0 0 0 0 
2419000000.0000000000 0.153359711170196505447549384371 -0.094873510301113128662109375000 -0.004368511028587818145751953125 -0.000021071218725410290062427521 0 0 0 0 
2419166666.6666665077 0.153619527816772488693075615629 -0.095762163400650024414062500000 -0.004457812756299973401541425488 0.000009795697224035393446683884 0 0 0 0 
2419333333.3333334923 0.153778240084648104568643134371 -0.095882490277290344238281250000 -0.004388576839119195938110351562 0.000128838510136119994238176889 0 0 0 0 
2419500000.0000000000 0.153824344277381896972656250000 -0.096710607409477233886718750000 -0.004482532385736703872680664062 0.000283931236481293981701451434 0 0 0 0 
2419666666.6666665077 0.154236376285553006271200615629 -0.096957683563232421875000000000 -0.004467552527785301208496093750 0.000446011312305927276611328125 0 0 0 0 
2419833333.3333334923 0.154245719313621493240518134371 -0.097036398947238922119140625000 -0.004499934613704681396484375000 0.000518305168952792882919311523 0 0 0 0 
