# Hz S RI R 
2400000000.0000000000 0.162957593798637390136718750000 0.059938084334135062480886091407 0.002949472749605774879455566406 0.001615821500308812098262167822 0 0 0 0 
2400166666.6666665077 0.162945479154586791992187500000 0.058625053614377982402761091407 0.003257322590798140005824423682 0.001278592739254236004473042065 0 0 0 0 
2400333333.3333334923 0.162806585431098910232705634371 0.057038154453039169311523437500 0.003258743556216359138488769531 0.001248929998837410969975136865 0 0 0 0 
2400500000.0000000000 0.163146972656250000000000000000 0.055517736822366707538645158593 0.003274689894169569015502929688 0.001205389969982207038282084888 0 0 0 0 
2400666666.6666665077 0.163180962204933194259481865629 0.053948737680912017822265625000 0.003658648813143372969386435400 0.001247363165020942904828715747 0 0 0 0 
2400833333.3333334923 0.163234949111938504318075615629 0.052490368485450751567800153907 0.003580790478736162185668945312 0.001172428834252059893367148291 0 0 0 0 
2401000000.0000000000 0.163459628820419311523437500000 0.050688676536083221435546875000 0.003732478478923439979553222656 0.000951413006987422704696655273 0 0 0 0 
2401166666.6666665077 0.163616001605987604339276231258 0.049248654395341873168945312500 0.004035189747810363769531250000 0.000911149312742054462432861328 0 0 0 0 
2401333333.3333334923 0.163366124033927889724893134371 0.047419589012861251831054687500 0.003980106208473443984985351562 0.000811841979157179594039916992 0 0 0 0 
2401500000.0000000000 0.163878217339515713790731865629 0.045929063111543662334401716407 0.004334774333983659744262695312 0.000840067979879677295684814453 0 0 0 0 
2401666666.6666665077 0.163911119103431701660156250000 0.044222243130207061767578125000 0.004344948101788759231567382812 0.000574915378820151090621948242 0 0 0 0 
2401833333.3333334923 0.163988530635833712478799384371 0.042538348585367202758789062500 0.004494889173656702041625976562 0.000455745321232825517654418945 0 0 0 0 
2402000000.0000000000 0.164232701063156100174111884371 0.041102640330791473388671875000 0.004540158901363611221313476562 0.000393646827433258295059204102 0 0 0 0 
2402166666.6666665077 0.164369568228721590896768134371 0.039177380502223968505859375000 0.004836995154619216918945312500 0.000001080958440979884895260773 0 0 0 0 
2402333333.3333334923 0.164495006203651400467080634371 0.037589251995086669921875000000 0.004868588875979185104370117188 0.000010750673027359880506992340 0 0 0 0 
2402500000.0000000000 0.165088832378387506683026231258 0.036182954907417297363281250000 0.004874796606600284576416015625 -0.000149248167872428894042968750 0 0 0 0 
2402666666.6666665077 0.165359437465667696853799384371 0.034594409167766571044921875000 0.005072494968771935376639081738 -0.000445816054707393104403895245 0 0 0 0 
2402833333.3333334923 0.165667593479156494140625000000 0.033107552677392959594726562500 0.005260073114186525344848632812 -0.000685601553414016962051391602 0 0 0 0 
2403000000.0000000000 0.166099831461906405349893134371 0.031555604189634323120117187500 0.005012535490095615386962890625 -0.000861970998812466859817504883 0 0 0 0 
2403166666.6666665077 0.166567951440811212737713731258 0.030123483389616009103795235546 0.005147535353899002075195312500 -0.001048146979883312962175678784 0 0 0 0 
2403333333.3333334923 0.167109206318855313400106865629 0.028926692903041839599609375000 0.005094103980809450149536132812 -0.001398440799675882079480815356 0 0 0 0 
2403500000.0000000000 0.167389005422592190841513115629 0.027463588863611221313476562500 0.005288572050631046295166015625 -0.001563404453918338038800883716 0 0 0 0 
2403666666.6666665077 0.167971089482307406326455634371 0.026104718446731570852259451954 0.005242123734205961227416992188 -0.001814540359191596941706992041 0 0 0 0 
2403833333.3333334923 0.168584898114204406738281250000 0.024787712842226028442382812500 0.005230362061411142349243164062 -0.002268974203616381125209189307 0 0 0 0 
2404000000.0000000000 0.169048607349395807464276231258 0.023521967232227328908900076954 0.005197225138545036315917968750 -0.002498794347047805786132812500 0 0 0 0 
2404166666.6666665077 0.169496968388557406326455634371 0.022267911583185199392298514454 0.005138617008924484252929687500 -0.002685331739485263824462890625 0 0 0 0 
2404333333.3333334923 0.170085370540618896484375000000 0.021080752834677699697474295704 0.004967371467500925064086914062 -0.003043262986466289000270224463 0 0 0 0 
2404500000.0000000000 0.170453161001205388824786268742 0.020030559971928599966028983204 0.005010386928915978345389081738 -0.003400452435016632080078125000 0 0 0 0 
2404666666.6666665077 0.171103522181510897537393134371 0.018819760531187060964564139454 0.004873906262218952178955078125 -0.003567143343389033837559365381 0 0 0 0 
2404833333.3333334923 0.171616151928901700118856865629 0.017859192565083500253697579296 0.004644384142011404037475585938 -0.003866325831040740013122558594 0 0 0 0 
2405000000.0000000000 0.172074586153030395507812500000 0.016810324043035510671595389454 0.004470181185752153396606445312 -0.004131479654461145401000976562 0 0 0 0 
2405166666.6666665077 0.172777518630027798751669365629 0.015886237844824790954589843750 0.004392258822917938232421875000 -0.004308715462684631347656250000 0 0 0 0 
2405333333.3333334923 0.173240378499031094650106865629 0.014843856915831569326380545704 0.004062058404088020324707031250 -0.004571303725242614746093750000 0 0 0 0 
2405500000.0000000000 0.173818796873092706878338731258 0.014209603890776630746861641796 0.003861735574901103973388671875 -0.004568366799503564834594726562 0 0 0 0 
2405666666.6666665077 0.174300238490104703048544365629 0.013408591970801349985142891796 0.003697349224239587783813476562 -0.004849186632782220840454101562 0 0 0 0 
2405833333.3333334923 0.174516841769218389313067518742 0.012697407044470310211181640625 0.003514507552608848051783896338 -0.004938915371894836425781250000 0 0 0 0 
2406000000.0000000000 0.175113812088966397384481865629 0.011666643433272840327252772852 0.003263290040194987817051552881 -0.005091636907309293746948242188 0 0 0 0 
2406166666.6666665077 0.175296321511268587967080634371 0.011169058270752429962158203125 0.002885451074689627127406454932 -0.005214754026383162412161542676 0 0 0 0 
2406333333.3333334923 0.175843819975852994064169365629 0.010423413477838039398193359375 0.002989648608490825133082724463 -0.005475438665598630905151367188 0 0 0 0 
2406500000.0000000000 0.176098629832267788986044365629 0.009784440509974956512451171875 0.002588584087789059118983603369 -0.005313141737133265408987714551 0 0 0 0 
2406666666.6666665077 0.176392942667007501800213731258 0.009120247326791286468505859375 0.002294594189152121977565146338 -0.005457994993776082992553710938 0 0 0 0 
2406833333.3333334923 0.176716610789299011230468750000 0.008271742612123489379882812500 0.002125964034348725838902138818 -0.005673940759152173995971679688 0 0 0 0 
2407000000.0000000000 0.177010342478752108474893134371 0.007735634688287973403930664062 0.001808585016988218047498393481 -0.005756053142249584197998046875 0 0 0 0 
2407166666.6666665077 0.177304297685623196700888115629 0.007135945837944746017456054688 0.001693414524197577996494912256 -0.005712166894227266311645507812 0 0 0 0 
2407333333.3333334923 0.177333548665046691894531250000 0.006280918139964342117309570312 0.001474622054956852956059121240 -0.005662229377776384353637695312 0 0 0 0 
2407500000.0000000000 0.177447199821472195724325615629 0.005639880429953336715698242188 0.001263892394490540027618408203 -0.005645274184644222259521484375 0 0 0 0 
2407666666.6666665077 0.177496194839477511306924384371 0.005044743418693543347830487988 0.000979850301519036293029785156 -0.005795664619654417037963867188 0 0 0 0 
2407833333.3333334923 0.177405744791030911544638115629 0.004082750529050827026367187500 0.000767277495469897985458374023 -0.005835231859236955642700195312 0 0 0 0 
2408000000.0000000000 0.177584484219551086425781250000 0.003164955182000995115992880713 0.000538685533683747053146362305 -0.005818323697894811630249023438 0 0 0 0 
2408166666.6666665077 0.177460551261901910979901231258 0.002663310384377837181091308594 0.000561821158044040203094482422 -0.005947093013674020767211914062 0 0 0 0 
2408333333.3333334923 0.177457168698310907561932481258 0.001714445301331579902051616138 0.000170897023053839802742004395 -0.005711112637072801589965820312 0 0 0 0 
2408500000.0000000000 0.177189424633979797363281250000 0.000704843376297503709793090820 -0.000016668314856360669841970137 -0.005801079794764518737792968750 0 0 0 0 
2408666666.6666665077 0.177289202809333801269531250000 -0.000208685014513321193769732065 -0.000109200460428837700329642024 -0.005891420878469944000244140625 0 0 0 0 
2408833333.3333334923 0.176817953586578396896200615629 -0.001011678716167808012721396338 -0.000401427038013935089111328125 -0.005724063143134117126464843750 0 0 0 0 
2409000000.0000000000 0.176681399345398004729901231258 -0.002036612480878829956054687500 -0.000558360072318464517593383789 -0.005579151678830385208129882812 0 0 0 0 
2409166666.6666665077 0.176431417465209988693075615629 -0.003081576200202106995823525537 -0.000814834667835384607315063477 -0.005525103304535151395315839551 0 0 0 0 
2409333333.3333334923 0.176271468400955200195312500000 -0.004240345209836959838867187500 -0.000978762982413172721862792969 -0.005613723304122686386108398438 0 0 0 0 
2409500000.0000000000 0.175941631197929410079794365629 -0.005418518092483282089233398438 -0.001030682353302835984470986475 -0.005485634785145521163940429688 0 0 0 0 
2409666666.6666665077 0.175557807087898309905682481258 -0.006528289057314395904541015625 -0.001275736489333211941960000146 -0.005475693382322788238525390625 0 0 0 0 
2409833333.3333334923 0.175204277038574190994424384371 -0.007749057374894618988037109375 -0.001348282326944171948673867334 -0.005375990178436040878295898438 0 0 0 0 
2410000000.0000000000 0.174999758601188687423544365629 -0.009036019444465637207031250000 -0.001529035274870693900464702075 -0.005256941076368094357962323926 0 0 0 0 
2410166666.6666665077 0.174698516726493807693643134371 -0.010326114483177660161028477148 -0.001657635089941323020337748950 -0.005451345350593329343313886426 0 0 0 0 
2410333333.3333334923 0.174336150288581903655682481258 -0.011773372069001199549664882227 -0.001752438722178339958190917969 -0.005167721305042505264282226562 0 0 0 0 
2410500000.0000000000 0.174020528793334988693075615629 -0.013107091188430789602259451954 -0.001890178536996244950535439600 -0.005302440840750932693481445312 0 0 0 0 
2410666666.6666665077 0.173714458942413302322549384371 -0.014773396775126460683802420704 -0.002155188936740159988403320312 -0.005131726153194904327392578125 0 0 0 0 
2410833333.3333334923 0.173418775200843811035156250000 -0.015938872471451759338378906250 -0.002232410013675690130946493994 -0.005070575047284364700317382812 0 0 0 0 
2411000000.0000000000 0.173196166753768893142861884371 -0.017407249659299850463867187500 -0.002326300367712974982020712744 -0.005113404244184494018554687500 0 0 0 0 
2411166666.6666665077 0.172992184758186312576455634371 -0.019145583733916279184361641796 -0.002375626936554909186122275244 -0.004940108861774206161499023438 0 0 0 0 
2411333333.3333334923 0.172730252146720886230468750000 -0.020680908113718029367467110546 -0.002600036561489104790928506006 -0.004982729442417621612548828125 0 0 0 0 
2411500000.0000000000 0.172586023807525607010049384371 -0.022337410598993301391601562500 -0.002673732582479714913609170068 -0.004856160376220942410940839551 0 0 0 0 
2411666666.6666665077 0.172580733895301791092080634371 -0.023980187252163890493372733204 -0.002918215468525886969325400244 -0.004865675698965787887573242188 0 0 0 0 
2411833333.3333334923 0.172245889902114895919638115629 -0.025440415367484089242955391796 -0.003006848972290753884556435693 -0.004691652022302150726318359375 0 0 0 0 
2412000000.0000000000 0.172246158123016412933026231258 -0.027041697874665260314941406250 -0.003066999139264225959777832031 -0.004668375942856073379516601562 0 0 0 0 
2412166666.6666665077 0.172067821025848388671875000000 -0.028702143579721450805664062500 -0.003256410360336304144618368994 -0.004641088191419839859008789062 0 0 0 0 
2412333333.3333334923 0.172328889369964599609375000000 -0.030212953686714168893834298046 -0.003491406096145511107203818213 -0.004757956136018037796020507812 0 0 0 0 
2412500000.0000000000 0.171959608793258694747763115629 -0.031763095408678061748464216407 -0.003823805134743452072143554688 -0.004659249912947416305541992188 0 0 0 0 
2412666666.6666665077 0.172097027301788302322549384371 -0.033551350235939032817800153907 -0.003843532176688313917872763525 -0.004572395700961351394653320312 0 0 0 0 
2412833333.3333334923 0.172229886054992703536825615629 -0.035010643303394317626953125000 -0.004049438983201980590820312500 -0.004510209895670413970947265625 0 0 0 0 
2413000000.0000000000 0.172158196568489102462606865629 -0.036544878035783767700195312500 -0.004251967649906873703002929688 -0.004368869587779045104980468750 0 0 0 0 
2413166666.6666665077 0.172111362218856811523437500000 -0.038077041506767272949218750000 -0.004372861701995134353637695312 -0.004165887832641602429861737988 0 0 0 0 
2413333333.3333334923 0.172202378511428805252236884371 -0.039636991918087012554128278907 -0.004649646580219268798828125000 -0.004133944865316152572631835938 0 0 0 0 
2413500000.0000000000 0.172336250543594388107138115629 -0.041120380163192749023437500000 -0.004844045732170343399047851562 -0.004080885089933872222900390625 0 0 0 0 
2413666666.6666665077 0.172530487179756192306356865629 -0.042644418776035308837890625000 -0.004910311195999383926391601562 -0.003753087483346461816074990381 0 0 0 0 
2413833333.3333334923 0.172684624791145296951455634371 -0.043904732912778847431223283593 -0.005320974625647068023681640625 -0.003611961379647254943847656250 0 0 0 0 
2414000000.0000000000 0.172748565673828097244424384371 -0.045312553644180297851562500000 -0.005467155482620000839233398438 -0.003425778588280082182643271338 0 0 0 0 
2414166666.6666665077 0.172896802425384493728799384371 -0.046530682593584060668945312500 -0.005487531889230012893676757812 -0.003134032012894750075099326025 0 0 0 0 
2414333333.3333334923 0.172999665141105707366619981258 -0.047720201313495642925222028907 -0.005962692666798830032348632812 -0.002920867176726460890529013525 0 0 0 0 
2414500000.0000000000 0.173477932810783386230468750000 -0.048904765397310256958007812500 -0.005910910665988922119140625000 -0.002696965821087359948399209131 0 0 0 0 
2414666666.6666665077 0.173415616154670687576455634371 -0.049964159727096557617187500000 -0.006163067184388638410086347363 -0.002490574028342961831333779443 0 0 0 0 
2414833333.3333334923 0.173394680023193387130575615629 -0.051004007458686828613281250000 -0.006095919292420148849487304688 -0.002402244601398706002476357568 0 0 0 0 
2415000000.0000000000 0.173604518175125094314736884371 -0.052013695240020751953125000000 -0.006326892878860235214233398438 -0.002074002986773848967311240088 0 0 0 0 
2415166666.6666665077 0.173760622739791897872763115629 -0.053129918873310089111328125000 -0.006505343131721019744873046875 -0.001616712310351430936100625146 0 0 0 0 
2415333333.3333334923 0.173877283930778503417968750000 -0.053961481899023062969167341407 -0.006444680970162153244018554688 -0.001447163638658822016475058447 0 0 0 0 
2415500000.0000000000 0.174016416072845486739950615629 -0.054666962474584579467773437500 -0.006642134394496679306030273438 -0.001175670186057687022565532153 0 0 0 0 
2415666666.6666665077 0.174128964543342590332031250000 -0.055432647466659552837331403907 -0.006565978750586509704589843750 -0.000761523784603923559188842773 0 0 0 0 
2415833333.3333334923 0.174105986952781705001669365629 -0.056295655667781829833984375000 -0.006830506026744843396658612988 -0.000601640669628977775573730469 0 0 0 0 
2416000000.0000000000 0.173971012234687805175781250000 -0.057049028575420379638671875000 -0.006586300209164618578439043262 -0.000327832094626501202583312988 0 0 0 0 
2416166666.6666665077 0.174106985330581692794638115629 -0.057816579937934882427175153907 -0.006737621035426855087280273438 0.000235178638831712305545806885 0 0 0 0 
2416333333.3333334923 0.173990145325660705566406250000 -0.058297112584114081645925153907 -0.006591351702809333801269531250 0.000491489481646567583084106445 0 0 0 0 
2416500000.0000000000 0.173766046762466402908486884371 -0.059083625674247741699218750000 -0.006563949864357709884643554688 0.000747216632589697837829589844 0 0 0 0 
2416666666.6666665077 0.173604339361190795898437500000 -0.059513878077268600463867187500 -0.006523852236568927764892578125 0.001028578495606780052185058594 0 0 0 0 
2416833333.3333334923 0.173481956124305697342080634371 -0.060233965516090393066406250000 -0.006443732418119907379150390625 0.001302396412938833019853901440 0 0 0 0 
2417000000.0000000000 0.173031374812126187423544365629 -0.060780491679906852031667341407 -0.006267933640629053115844726562 0.001672785263508558056474995190 0 0 0 0 
2417166666.6666665077 0.172850549221038790603799384371 -0.061180308461189270019531250000 -0.006237667053937911987304687500 0.001970280660316348075866699219 0 0 0 0 
2417333333.3333334923 0.172487989068031311035156250000 -0.061677876859903342510182966407 -0.005969959776848554611206054688 0.002188612474128603935241699219 0 0 0 0 
2417500000.0000000000 0.171955764293670709808026231258 -0.062445767223834991455078125000 -0.006002189591526985168457031250 0.002498376416042447090148925781 0 0 0 0 
2417666666.6666665077 0.171601235866546603103799384371 -0.062731973826885223388671875000 -0.005640885792672634124755859375 0.002636831486597657203674316406 0 0 0 0 
2417833333.3333334923 0.171084865927696200271768134371 -0.063365191221237182617187500000 -0.005556203424930573377127362988 0.002726709470152854919433593750 0 0 0 0 
2418000000.0000000000 0.170297607779502896407919365629 -0.063919194042682647705078125000 -0.005358426831662654876708984375 0.003112676553428173065185546875 0 0 0 0 
2418166666.6666665077 0.169900521636009188553018134371 -0.064430519938468933105468750000 -0.005296448711305856704711914062 0.003198232036083937124965048682 0 0 0 0 
2418333333.3333334923 0.169392123818397494217080634371 -0.064958222210407257080078125000 -0.004893289878964424133300781250 0.003267073072493075890782021631 0 0 0 0 
2418500000.0000000000 0.168538779020309503753338731258 -0.065489254891872406005859375000 -0.004719799850136041641235351562 0.003528554923832416968104697119 0 0 0 0 
2418666666.6666665077 0.167972654104232788085937500000 -0.066239535808563232421875000000 -0.004521692637354136380667402051 0.003570019733160734176635742188 0 0 0 0 
2418833333.3333334923 0.167025640606880187988281250000 -0.066798277199268341064453125000 -0.004245170392096042633056640625 0.003800011472776532173156738281 0 0 0 0 
2419000000.0000000000 0.166171431541442898849325615629 -0.067578442394733428955078125000 -0.004178180824965238571166992188 0.003947130870074033737182617188 0 0 0 0 
2419166666.6666665077 0.165336668491363497635049384371 -0.068220771849155426025390625000 -0.003888049162924290137050009619 0.004102520179003477096557617188 0 0 0 0 
2419333333.3333334923 0.164473325014114407638388115629 -0.068650826811790466308593750000 -0.003626737510785460905787802588 0.004008863586932420730590820312 0 0 0 0 
2419500000.0000000000 0.163806959986686706542968750000 -0.069687590003013610839843750000 -0.003401199122890830039978027344 0.004305465612560510635375976562 0 0 0 0 
2419666666.6666665077 0.162962198257446289062500000000 -0.070481546223163604736328125000 -0.003236490767449140982386923682 0.004300466738641262054443359375 0 0 0 0 
2419833333.3333334923 0.161916345357894897460937500000 -0.071317404508590698242187500000 -0.002981544239446520805358886719 0.004280609078705310821533203125 0 0 0 0 
