# Hz S RI R 50
2400000000.0000000000 0.169305086135864313323651231258 0.045885816216468811035156250000 -0.000406231236411258578300476074 -0.002127372194081544876098632812 0 0 0 0 
2400166666.6666665077 0.170350879430770901779013115629 0.044901788234710693359375000000 -0.000515620049554854631423950195 -0.002173188142478466033935546875 0 0 0 0 
2400333333.3333334923 0.171230942010879488845986884371 0.043736908584833152080495466407 -0.000461870600702241117328089581 -0.002001991728320717811584472656 0 0 0 0 
2400500000.0000000000 0.172254100441932705978231865629 0.042968630790710449218750000000 -0.000398951873648911714553833008 -0.001849786145612597899196005713 0 0 0 0 
2400666666.6666665077 0.173124015331268310546875000000 0.041867814958095550537109375000 -0.000335801334585994482040405273 -0.001772103249095380089403461987 0 0 0 0 
2400833333.3333334923 0.174234077334403991699218750000 0.041163183748722083354909528907 -0.000340790458722040111392420636 -0.001675137435086071924922324072 0 0 0 0 
2401000000.0000000000 0.175024494528770502288494981258 0.040376082062721252441406250000 -0.000336949771735817193984985352 -0.001493096817284822897670126807 0 0 0 0 
2401166666.6666665077 0.175627797842025812347088731258 0.039765279740095138549804687500 -0.000350882794009521603584289551 -0.001319490838795899911167763818 0 0 0 0 
2401333333.3333334923 0.176408722996711703201455634371 0.039121482521295547485351562500 -0.000234472187003120807096204214 -0.001403806614689528942108154297 0 0 0 0 
2401500000.0000000000 0.177080005407333401779013115629 0.038367647677659988403320312500 -0.000077922093623783439397811890 -0.001271627494134009101270366138 0 0 0 0 
2401666666.6666665077 0.177736014127731295486611884371 0.037929214537143707275390625000 -0.000065530221036169677972793579 -0.001140628126449882984161376953 0 0 0 0 
2401833333.3333334923 0.178335905075073186676348768742 0.037400949746370322490651716407 0.000212602579267695600360316144 -0.001025588368065655014635395581 0 0 0 0 
2402000000.0000000000 0.178642421960830688476562500000 0.036823287606239318847656250000 0.000334716751240193789631444110 -0.000971000175923109054565429688 0 0 0 0 
2402166666.6666665077 0.178958699107170104980468750000 0.036179695278406143188476562500 0.000467378471512347514003199445 -0.000990588334389030933380126953 0 0 0 0 
2402333333.3333334923 0.179402932524681091308593750000 0.035569380968809127807617187500 0.000490798382088541984558105469 -0.001004772260785103061078715747 0 0 0 0 
2402500000.0000000000 0.179840177297592190841513115629 0.034960389137268073345143903907 0.000483659008750692009925842285 -0.001051113475114106915117573315 0 0 0 0 
2402666666.6666665077 0.180031567811965886871661268742 0.034470360726118087768554687500 0.000839538290165364742279052734 -0.001039454597048461003544472803 0 0 0 0 
2402833333.3333334923 0.180040314793586703201455634371 0.033941876143217086791992187500 0.001041612704284488937975239331 -0.001180691760964692072627402197 0 0 0 0 
2403000000.0000000000 0.180086225271225003341513115629 0.033100202679634087299387346093 0.001311829197220504067064594800 -0.001168324030004441954969096606 0 0 0 0 
2403166666.6666665077 0.179969996213912991622763115629 0.032401166856288909912109375000 0.001234345487318933010101318359 -0.001391975209116935946820903247 0 0 0 0 
2403333333.3333334923 0.179851546883583096603231865629 0.031710051000118262554128278907 0.001485758577473462061641074072 -0.001441380474716424942016601562 0 0 0 0 
2403500000.0000000000 0.179612085223197909256143134371 0.030791942030191421508789062500 0.001647818600758909962297749097 -0.001645539421588182015659951318 0 0 0 0 
2403666666.6666665077 0.179224580526351900955361884371 0.029803292825818058359166329296 0.001636110246181488037109375000 -0.001978493761271237893345498193 0 0 0 0 
2403833333.3333334923 0.179208353161811800857705634371 0.028669536113739010202428048046 0.001769418478943407969233847510 -0.002153675071895122961757040869 0 0 0 0 
2404000000.0000000000 0.178681448101997403243856865629 0.027638299390673640859583670704 0.001865615718998014926910400391 -0.002463439246639608903172158350 0 0 0 0 
2404166666.6666665077 0.178301587700843811035156250000 0.026490896940231319772740548046 0.001795622752979397990583110278 -0.002824955852702260017395019531 0 0 0 0 
2404333333.3333334923 0.177853956818580599685830634371 0.025304548442363739013671875000 0.001771259005181490941288613428 -0.002989638131111859841587685693 0 0 0 0 
2404500000.0000000000 0.177222266793251009842080634371 0.023781552910804748535156250000 0.001641245326027273914934467847 -0.003416705876588820977451943506 0 0 0 0 
2404666666.6666665077 0.176866918802261408050213731258 0.022496588528156280517578125000 0.001546592917293309948564838940 -0.003696059109643102125880576025 0 0 0 0 
2404833333.3333334923 0.176366880536079406738281250000 0.021136634051799770700474923046 0.001277908566407858891728066553 -0.003984715789556503295898437500 0 0 0 0 
2405000000.0000000000 0.175686717033386202713174384371 0.019647473469376560556431954296 0.001172540243715048053144145435 -0.004326563328504562377929687500 0 0 0 0 
2405166666.6666665077 0.175195157527923611739950615629 0.017973313108086589467982108204 0.000919129117392003536224365234 -0.004516264423727989196777343750 0 0 0 0 
2405333333.3333334923 0.174938216805458096603231865629 0.016193348914384838449498360546 0.000756579625885933637619018555 -0.004767400678247213363647460938 0 0 0 0 
2405500000.0000000000 0.174393758177757290939169365629 0.014574443921446800231933593750 0.000369112938642501776844578876 -0.004932723473757505416870117188 0 0 0 0 
2405666666.6666665077 0.173946157097816495040731865629 0.012820756062865260732630545704 0.000209865305805578800752916879 -0.005083397030830383300781250000 0 0 0 0 
2405833333.3333334923 0.173478126525878906250000000000 0.010981470346450809133509451954 -0.000301088934065774083137512207 -0.005219556391239166259765625000 0 0 0 0 
2406000000.0000000000 0.173277586698532104492187500000 0.008968062698841094970703125000 -0.000752725289203226566314697266 -0.005277912132441998395437909863 0 0 0 0 
2406166666.6666665077 0.172838062047958401779013115629 0.007193943019956350326538085938 -0.000997641938738524913787841797 -0.005422511603683233261108398438 0 0 0 0 
2406333333.3333334923 0.172896146774291992187500000000 0.005096576642245054244995117188 -0.001401250134222210104104067163 -0.005307598505169153213500976562 0 0 0 0 
2406500000.0000000000 0.172684490680694607833700615629 0.003027713159099220795872353662 -0.001743968809023499922511435400 -0.005391441751271486282348632812 0 0 0 0 
2406666666.6666665077 0.172317117452621487716513115629 0.001054995460435748100280761719 -0.002225102391093968911411904443 -0.005388853140175343427176191113 0 0 0 0 
2406833333.3333334923 0.172398671507835388183593750000 -0.001114537939429282925249409253 -0.002514362335205078125000000000 -0.005279538221657276153564453125 0 0 0 0 
2407000000.0000000000 0.172501340508460998535156250000 -0.003223830601200460953953408350 -0.002973810071125626997706747900 -0.005183862056583166122436523438 0 0 0 0 
2407166666.6666665077 0.172638311982154901702557481258 -0.005341670941561461362356855176 -0.003301384625956416130065917969 -0.004908105358481407165527343750 0 0 0 0 
2407333333.3333334923 0.172673627734184292892294365629 -0.007570599671453238400931073926 -0.003595745656639337973353720557 -0.004807833582162857055664062500 0 0 0 0 
2407500000.0000000000 0.172974959015846307952557481258 -0.009617209434509277343750000000 -0.003918760921806097030639648438 -0.004471935331821441650390625000 0 0 0 0 
2407666666.6666665077 0.173270240426063509842080634371 -0.011715650558471679687500000000 -0.004364565946161746978759765625 -0.004323831759393215179443359375 0 0 0 0 
2407833333.3333334923 0.173513561487197903732138115629 -0.014016202650964260101318359375 -0.004510351922363042831420898438 -0.003953581210225821408743573926 0 0 0 0 
2408000000.0000000000 0.173821911215782193282919365629 -0.016058273613452911376953125000 -0.004849266260862351331228925488 -0.003608346916735171838047646631 0 0 0 0 
2408166666.6666665077 0.174177363514900207519531250000 -0.017907150089740749704381173046 -0.005067733582109212875366210938 -0.003336396533995867209193564307 0 0 0 0 
2408333333.3333334923 0.174802824854850796798544365629 -0.020197996869683269155482108204 -0.005124842282384634017944335938 -0.002794590080156921906712197412 0 0 0 0 
2408500000.0000000000 0.175105795264244107345419365629 -0.022017447277903560293177420704 -0.005287762731313704576974199512 -0.002541564870625733895542763818 0 0 0 0 
2408666666.6666665077 0.175501406192779513260049384371 -0.023884363472461700439453125000 -0.005429124459624291333670331738 -0.002125641796737908883335732568 0 0 0 0 
2408833333.3333334923 0.175990864634513910491619981258 -0.025683891028165820730189139454 -0.005338564980775117874145507812 -0.001889436272904277064679789966 0 0 0 0 
2409000000.0000000000 0.176397532224655206878338731258 -0.027204843237996101379394531250 -0.005187458358705043792724609375 -0.001492579118348658084869384766 0 0 0 0 
2409166666.6666665077 0.176919102668762207031250000000 -0.028687015175819400442103201954 -0.005226533394306898117065429688 -0.001091286656446754932403564453 0 0 0 0 
2409333333.3333334923 0.177581533789634704589843750000 -0.030344810336828228342076485546 -0.005324135068804025650024414062 -0.000769680947996675968170166016 0 0 0 0 
2409500000.0000000000 0.177771300077438410003338731258 -0.031794693320989608764648437500 -0.005225540604442358016967773438 -0.000650479341857135295867919922 0 0 0 0 
2409666666.6666665077 0.178202062845230102539062500000 -0.032897304743528373027761091407 -0.004980296362191438674926757812 -0.000297893973765894824832362042 0 0 0 0 
2409833333.3333334923 0.178692504763603210449218750000 -0.033833779394626617431640625000 -0.004985818173736333847045898438 -0.000137452560011297491475781851 0 0 0 0 
2410000000.0000000000 0.179494023323059109786825615629 -0.034847490489482879638671875000 -0.004916485864669085416311933301 0.000177226087544113397598266602 0 0 0 0 
2410166666.6666665077 0.179939672350883511642294365629 -0.035774800926446921611745466407 -0.004793683998286724090576171875 0.000264206319116056019633692609 0 0 0 0 
2410333333.3333334923 0.180215388536453302581463731258 -0.036491077393293380737304687500 -0.004555119667202234268188476562 0.000454860710306093096733093262 0 0 0 0 
2410500000.0000000000 0.180773243308067294021768134371 -0.037383258342742919921875000000 -0.004539698362350463867187500000 0.000517193460837006568908691406 0 0 0 0 
2410666666.6666665077 0.181063726544380187988281250000 -0.038171537220478057861328125000 -0.004440775606781244277954101562 0.000720580457709729671478271484 0 0 0 0 
2410833333.3333334923 0.181400850415229797363281250000 -0.038341201841831207275390625000 -0.004278023727238178253173828125 0.000895759323611855506896972656 0 0 0 0 
2411000000.0000000000 0.181837052106857299804687500000 -0.039248488843441009521484375000 -0.004224527161568403244018554688 0.000923049810808151960372924805 0 0 0 0 
2411166666.6666665077 0.182153761386871310135049384371 -0.039660938084125518798828125000 -0.004058802500367164611816406250 0.000947681779507547616958618164 0 0 0 0 
2411333333.3333334923 0.182098656892776489257812500000 -0.040038950741291053081472028907 -0.003935737069696187973022460938 0.001169608207419515089747763525 0 0 0 0 
2411500000.0000000000 0.182264432311057988922442518742 -0.040606398135423660278320312500 -0.003814864205196499824523925781 0.001368606812320650057551718604 0 0 0 0 
2411666666.6666665077 0.182309716939926202972088731258 -0.040934022516012191772460937500 -0.003795665455982089042663574219 0.001252342830412090041516948169 0 0 0 0 
2411833333.3333334923 0.182300582528114291092080634371 -0.041286092251539230346679687500 -0.003706527408212422890904091943 0.001485883258283138058306049878 0 0 0 0 
2412000000.0000000000 0.182198673486709594726562500000 -0.041769895702600479125976562500 -0.003718790598213673071620322119 0.001520783174782990975620888818 0 0 0 0 
2412166666.6666665077 0.181719899177551297286825615629 -0.042065847665071487426757812500 -0.003471730276942253112792968750 0.001561313867568969943402934497 0 0 0 0 
2412333333.3333334923 0.181591883301734896560830634371 -0.042192697525024407123606096093 -0.003488766495138407187220908057 0.001762539730407298044917441260 0 0 0 0 
2412500000.0000000000 0.180917665362358093261718750000 -0.042308196425437927246093750000 -0.003405487164855002923252724756 0.001733527868054806969286274487 0 0 0 0 
2412666666.6666665077 0.180388644337654113769531250000 -0.042932357639074332500417341407 -0.003147963434457778930664062500 0.001832923386245965957641601562 0 0 0 0 
2412833333.3333334923 0.179763957858085604568643134371 -0.043278865516185760498046875000 -0.003378249006345868110656738281 0.001710915472358464977861713940 0 0 0 0 
2413000000.0000000000 0.178856566548347500900106865629 -0.043557435274124152446706403907 -0.003150605130940676169154501807 0.001778004574589431069017719800 0 0 0 0 
2413166666.6666665077 0.177954822778701809982138115629 -0.044022075831890113140065778907 -0.003205023240298033194300986182 0.001919592614285648085950541919 0 0 0 0 
2413333333.3333334923 0.177072495222091702560263115629 -0.044377464801073067401926408593 -0.002989573171362280845642089844 0.001876673777587712027906108325 0 0 0 0 
2413500000.0000000000 0.175954788923263605315838731258 -0.044834010303020477294921875000 -0.003036215901374816894531250000 0.001901180483400821902631450122 0 0 0 0 
2413666666.6666665077 0.175098553299903897384481865629 -0.045298773795366287231445312500 -0.003023857716470956802368164062 0.001810351270250976085662841797 0 0 0 0 
2413833333.3333334923 0.173951506614685086349325615629 -0.045882020145654678344726562500 -0.002982728648930788040161132812 0.002045391593128443197963095557 0 0 0 0 
2414000000.0000000000 0.172662854194641113281250000000 -0.046518869698047637939453125000 -0.002981589874252676963806152344 0.002110988367348908944370888818 0 0 0 0 
2414166666.6666665077 0.171704128384590204436932481258 -0.047218620777130126953125000000 -0.002935167169198393821716308594 0.002188048325479031042811728369 0 0 0 0 
2414333333.3333334923 0.170407503843307495117187500000 -0.047925438731908798217773437500 -0.002884357469156384901759482275 0.002204769290983676910400390625 0 0 0 0 
2414500000.0000000000 0.169331416487693786621093750000 -0.048824753612279891967773437500 -0.002968018408864736990687704932 0.002470604376867413954493857275 0 0 0 0 
2414666666.6666665077 0.167865544557571411132812500000 -0.049683157354593276977539062500 -0.002755112946033477783203125000 0.002499765250831841988804482568 0 0 0 0 
2414833333.3333334923 0.166712790727615411956463731258 -0.050791766494512557983398437500 -0.002718781586736441092250204932 0.002564994152635335922241210938 0 0 0 0 
2415000000.0000000000 0.165514066815376309493856865629 -0.051904343068599700927734375000 -0.002877566963434218926670693506 0.002627977170050144195556640625 0 0 0 0 
2415166666.6666665077 0.164257258176803588867187500000 -0.053245130926370620727539062500 -0.002708090236410499052760458838 0.002854183316230773925781250000 0 0 0 0 
2415333333.3333334923 0.163061112165451105315838731258 -0.054548516869544982910156250000 -0.002576780039817094802856445312 0.002779879607260227203369140625 0 0 0 0 
2415500000.0000000000 0.162019833922386197189169365629 -0.055776197463274002075195312500 -0.002716590184718370003941201318 0.002981893485412002043483115088 0 0 0 0 
2415666666.6666665077 0.160797536373138399978799384371 -0.057370934635400772094726562500 -0.002648804336786270141601562500 0.002825972391292452812194824219 0 0 0 0 
2415833333.3333334923 0.159689888358116205413494981258 -0.059051714837551116943359375000 -0.002437267452478408813476562500 0.003082963870838284926173544775 0 0 0 0 
2416000000.0000000000 0.158507853746414212325888115629 -0.060699794441461563110351562500 -0.002528857905417681174037314307 0.003213691757991909980773925781 0 0 0 0 
2416166666.6666665077 0.157674893736839294433593750000 -0.062418974936008453369140625000 -0.002447080565616488890406943213 0.003257009200751781897303915869 0 0 0 0 
2416333333.3333334923 0.156580418348312405685263115629 -0.064239606261253356933593750000 -0.002263589296489953994750976562 0.003385572927072643800022744287 0 0 0 0 
2416500000.0000000000 0.155630812048912103850994981258 -0.066206909716129302978515625000 -0.002211809391155838966369628906 0.003541519399732350869419716943 0 0 0 0 
2416666666.6666665077 0.154813051223754910568075615629 -0.068034373223781585693359375000 -0.002290774369612336158752441406 0.003611773950979114012477255713 0 0 0 0 
2416833333.3333334923 0.154100179672241210937500000000 -0.070123165845870971679687500000 -0.002119366545230149789097451318 0.003646825673058629035949707031 0 0 0 0 
2417000000.0000000000 0.153090462088584899902343750000 -0.072075895965099334716796875000 -0.001888252096250653050066303784 0.003832923248410224914550781250 0 0 0 0 
2417166666.6666665077 0.152510643005371093750000000000 -0.073901310563087463378906250000 -0.001870616921223700046539306641 0.003838128875941038131713867188 0 0 0 0 
2417333333.3333334923 0.151904061436653109451455634371 -0.075808435678482055664062500000 -0.001753537682816386005998920972 0.003985136747360230359549237988 0 0 0 0 
2417500000.0000000000 0.151287525892257690429687500000 -0.077960625290870666503906250000 -0.001695985905826091983197856372 0.004132067319005727767944335938 0 0 0 0 
2417666666.6666665077 0.151048287749290494064169365629 -0.079753473401069641113281250000 -0.001509211026132106997846293872 0.004339801147580146789550781250 0 0 0 0 
2417833333.3333334923 0.150537580251693697830361884371 -0.081662409007549285888671875000 -0.001423006178811192946193076025 0.004472068976610898971557617188 0 0 0 0 
2418000000.0000000000 0.150110796093940707107705634371 -0.083610638976097106933593750000 -0.001243047299794852950452495044 0.004545700736343860626220703125 0 0 0 0 
2418166666.6666665077 0.149888858199119595626669365629 -0.085166871547698974609375000000 -0.001295848167501389980316162109 0.004679610487073659896850585938 0 0 0 0 
2418333333.3333334923 0.150093585252761813064736884371 -0.087030045688152313232421875000 -0.000913662835955619812011718750 0.004876832943409681320190429688 0 0 0 0 
2418500000.0000000000 0.149668410420417813400106865629 -0.088579513132572174072265625000 -0.000858507642988115549087524414 0.004883979912847281369681073926 0 0 0 0 
2418666666.6666665077 0.149786859750747708419638115629 -0.090228930115699768066406250000 -0.000535248720552772283554077148 0.004946908913552761077880859375 0 0 0 0 
2418833333.3333334923 0.149543941020965603927450615629 -0.091764770448207855224609375000 -0.000266702641965821385383605957 0.005176996346563100814819335938 0 0 0 0 
2419000000.0000000000 0.149587273597717312911825615629 -0.093027174472808837890625000000 -0.000017134443623945120384896926 0.005266258958727121353149414062 0 0 0 0 
2419166666.6666665077 0.149822846055030794998330634371 -0.094393789768218994140625000000 0.000194830732652917504310607910 0.005221375729888677597045898438 0 0 0 0 
2419333333.3333334923 0.149735271930694607833700615629 -0.095262266695499420166015625000 0.000428984058089554309844970703 0.005197375547140836715698242188 0 0 0 0 
2419500000.0000000000 0.150012522935867309570312500000 -0.096585229039192199707031250000 0.000794332940131425857543945312 0.005179855506867170333862304688 0 0 0 0 
2419666666.6666665077 0.150293543934822110275106865629 -0.097523234784603118896484375000 0.001011221203953027942060161060 0.005281023681163787841796875000 0 0 0 0 
2419833333.3333334923 0.150581151247024508377236884371 -0.098316773772239685058593750000 0.001427250448614358901977539062 0.005235484335571528348440839551 0 0 0 0 
