# Version 1.00
#
freq[Hz];re:Trc1_S11;im:Trc1_S11;re:Trc2_S21;im:Trc2_S21;
2.400000000000000E+009;1.552439779043198E-001;1.068472415208817E-001;2.074334071949124E-003;6.101841572672129E-004;
2.400166666666667E+009;1.550328433513641E-001;1.044000983238220E-001;1.954399282112718E-003;8.064144640229642E-004;
2.400333333333334E+009;1.551286131143570E-001;1.019321084022522E-001;2.033267170190811E-003;8.696636068634689E-004;
2.400500000000000E+009;1.550863683223724E-001;9.926985204219818E-002;1.920200069434941E-003;9.127862867899239E-004;
2.400666666666667E+009;1.550704985857010E-001;9.687983989715576E-002;2.145846141502261E-003;1.092840335331857E-003;
2.400833333333334E+009;1.550716310739517E-001;9.396527707576752E-002;2.105991821736097E-003;1.161084393970668E-003;
2.401000000000000E+009;1.552751809358597E-001;9.099834412336350E-002;2.275048755109310E-003;1.243197242729366E-003;
2.401166666666667E+009;1.554821878671646E-001;8.835742622613907E-002;2.406194107607007E-003;1.184263848699629E-003;
2.401333333333334E+009;1.558275669813156E-001;8.532093465328217E-002;2.538346219807863E-003;1.219210331328213E-003;
2.401500000000000E+009;1.563313901424408E-001;8.264065533876419E-002;2.547589363530278E-003;1.097466563805938E-003;
2.401666666666667E+009;1.566110253334045E-001;7.968025654554367E-002;2.684306818991900E-003;1.188158756121993E-003;
2.401833333333334E+009;1.574268937110901E-001;7.733140885829926E-002;2.903903368860483E-003;1.026659854687750E-003;
2.402000000000000E+009;1.583601534366608E-001;7.419605553150177E-002;2.969415858387947E-003;1.104952068999410E-003;
2.402166666666667E+009;1.590715646743774E-001;7.181543856859207E-002;2.935437485575676E-003;9.019776480272412E-004;
2.402333333333334E+009;1.597394496202469E-001;6.932926177978516E-002;3.142504021525383E-003;8.397637284360826E-004;
2.402500000000000E+009;1.610267907381058E-001;6.623634696006775E-002;3.173652337864041E-003;8.003463153727353E-004;
2.402666666666667E+009;1.625480949878693E-001;6.392247974872589E-002;3.293358022347093E-003;6.384864682331681E-004;
2.402833333333334E+009;1.638259738683701E-001;6.154936552047730E-002;3.196651581674814E-003;5.161291919648647E-004;
2.403000000000000E+009;1.651375144720078E-001;5.948896333575249E-002;3.229359164834023E-003;4.013494763057679E-004;
2.403166666666667E+009;1.667023748159409E-001;5.702633783221245E-002;3.189420094713569E-003;3.844176826532930E-004;
2.403333333333334E+009;1.682486981153488E-001;5.499219521880150E-002;3.243344603106380E-003;1.983195834327489E-004;
2.403500000000000E+009;1.700652390718460E-001;5.278525128960609E-002;3.150545991957188E-003;1.945416588569060E-004;
2.403666666666667E+009;1.717039197683334E-001;5.089235305786133E-002;3.118850057944655E-003;5.328866973286495E-005;
2.403833333333334E+009;1.733535677194595E-001;4.906324297189713E-002;3.130652708932757E-003;1.207653840538114E-004;
2.404000000000000E+009;1.750733703374863E-001;4.713136702775955E-002;3.263618564233184E-003;1.972927275346592E-004;
2.404166666666667E+009;1.766875535249710E-001;4.580644890666008E-002;3.394688945263624E-003;1.116430430556648E-004;
2.404333333333334E+009;1.783379614353180E-001;4.418985173106194E-002;3.439191961660981E-003;2.950734924525023E-004;
2.404500000000000E+009;1.799036562442780E-001;4.279997944831848E-002;3.525337902829051E-003;6.689805741189048E-005;
2.404666666666667E+009;1.815028786659241E-001;4.168289899826050E-002;3.891203086823225E-003;8.366212568944320E-005;
2.404833333333334E+009;1.831291317939758E-001;4.075981304049492E-002;3.865938168019056E-003;1.858738869486842E-005;
2.405000000000000E+009;1.844197064638138E-001;3.990927338600159E-002;4.024589434266090E-003;-2.599953149911016E-004;
2.405166666666667E+009;1.857667416334152E-001;3.922746330499649E-002;4.233928862959147E-003;-4.600567044690251E-004;
2.405333333333334E+009;1.872656941413879E-001;3.869340941309929E-002;4.190915264189243E-003;-4.935144679620862E-004;
2.405500000000000E+009;1.884885281324387E-001;3.837770968675613E-002;4.242469556629658E-003;-9.870042558759451E-004;
2.405666666666667E+009;1.897995024919510E-001;3.807055205106735E-002;4.228264093399048E-003;-1.071438426151872E-003;
2.405833333333334E+009;1.909574121236801E-001;3.765220567584038E-002;4.190766718238592E-003;-1.415800070390105E-003;
2.406000000000000E+009;1.922096312046051E-001;3.750187158584595E-002;4.204762168228626E-003;-1.681467867456377E-003;
2.406166666666667E+009;1.929778009653091E-001;3.728377819061279E-002;4.205776378512383E-003;-1.755163772031665E-003;
2.406333333333334E+009;1.938479989767075E-001;3.751711174845696E-002;4.222687333822250E-003;-1.694239559583366E-003;
2.406500000000000E+009;1.943343132734299E-001;3.722225129604340E-002;3.787667024880648E-003;-1.815392635762692E-003;
2.406666666666667E+009;1.948912143707275E-001;3.759956732392311E-002;3.853630041703582E-003;-1.918053487315774E-003;
2.406833333333334E+009;1.955055445432663E-001;3.782709687948227E-002;4.111269488930702E-003;-1.758060650900006E-003;
2.407000000000000E+009;1.957006007432938E-001;3.800475597381592E-002;4.185257013887167E-003;-1.993414014577866E-003;
2.407166666666667E+009;1.962543725967407E-001;3.737579658627510E-002;3.890153486281633E-003;-2.592466538771987E-003;
2.407333333333334E+009;1.962886750698090E-001;3.768018633127213E-002;4.019019193947315E-003;-2.662796294316649E-003;
2.407500000000000E+009;1.960662156343460E-001;3.789043799042702E-002;3.986599389463663E-003;-2.807709155604243E-003;
2.407666666666667E+009;1.960488706827164E-001;3.777376562356949E-002;3.900264156982303E-003;-2.977902768179774E-003;
2.407833333333334E+009;1.956042647361755E-001;3.769608959555626E-002;3.871124237775803E-003;-3.268307307735086E-003;
2.408000000000000E+009;1.955194473266602E-001;3.743721917271614E-002;3.881152253597975E-003;-3.221875987946987E-003;
2.408166666666667E+009;1.949508488178253E-001;3.711073473095894E-002;3.809873247519136E-003;-3.488304093480110E-003;
2.408333333333334E+009;1.943116635084152E-001;3.660225495696068E-002;3.648501588031650E-003;-3.879518480971456E-003;
2.408500000000000E+009;1.935999244451523E-001;3.630987182259560E-002;3.663425799459219E-003;-3.921943716704845E-003;
2.408666666666667E+009;1.929922699928284E-001;3.562650457024574E-002;3.389611141756177E-003;-4.210045095533133E-003;
2.408833333333334E+009;1.923158317804337E-001;3.492575138807297E-002;3.357584588229656E-003;-4.488626029342413E-003;
2.409000000000000E+009;1.913444548845291E-001;3.410565853118897E-002;3.014721209183335E-003;-4.636064171791077E-003;
2.409166666666667E+009;1.903801858425140E-001;3.298884257674217E-002;2.993198111653328E-003;-4.913568031042814E-003;
2.409333333333334E+009;1.893950700759888E-001;3.211520612239838E-002;2.667167922481895E-003;-5.081964656710625E-003;
2.409500000000000E+009;1.883153766393662E-001;3.061869554221630E-002;2.234955551102758E-003;-5.311639513820410E-003;
2.409666666666667E+009;1.872945278882980E-001;2.927193231880665E-002;2.195147797465324E-003;-5.381286609917879E-003;
2.409833333333334E+009;1.862985342741013E-001;2.791474014520645E-002;1.810172572731972E-003;-5.297895986586809E-003;
2.410000000000000E+009;1.851878911256790E-001;2.627024427056313E-002;1.647420111112297E-003;-5.410553887486458E-003;
2.410166666666667E+009;1.842244714498520E-001;2.434366941452026E-002;1.284284051507711E-003;-5.459057167172432E-003;
2.410333333333334E+009;1.833915859460831E-001;2.256334759294987E-002;9.990807157009840E-004;-5.497595760971308E-003;
2.410500000000000E+009;1.824163943529129E-001;2.055948786437511E-002;9.578805183991790E-004;-5.578062962740660E-003;
2.410666666666667E+009;1.815351098775864E-001;1.842311210930347E-002;6.184912053868175E-004;-5.415359046310186E-003;
2.410833333333334E+009;1.807703971862793E-001;1.619524694979191E-002;3.751926415134221E-004;-5.502319894731045E-003;
2.411000000000000E+009;1.800450235605240E-001;1.405136380344629E-002;1.378932502120733E-004;-5.601174663752317E-003;
2.411166666666667E+009;1.793543845415115E-001;1.182470377534628E-002;-1.051448198268190E-004;-5.587013438344002E-003;
2.411333333333334E+009;1.788275539875031E-001;9.227237664163113E-003;-2.525284944567829E-004;-5.498703569173813E-003;
2.411500000000000E+009;1.783370077610016E-001;7.022725883871317E-003;-4.770463565364480E-004;-5.487171933054924E-003;
2.411666666666667E+009;1.782706081867218E-001;4.533257335424423E-003;-7.739134016446769E-004;-5.442099645733833E-003;
2.411833333333334E+009;1.780065149068832E-001;2.321533160284162E-003;-9.042895399034023E-004;-5.301077850162983E-003;
2.412000000000000E+009;1.779897660017014E-001;-4.157129442319274E-004;-1.118284300900996E-003;-5.346927791833878E-003;
2.412166666666667E+009;1.782483160495758E-001;-2.677851356565952E-003;-1.189890434034169E-003;-5.351269617676735E-003;
2.412333333333334E+009;1.784291416406632E-001;-5.183347035199404E-003;-1.404294394887984E-003;-5.140953697264195E-003;
2.412500000000000E+009;1.788527518510819E-001;-7.560245692729950E-003;-1.757328282110393E-003;-5.232354160398245E-003;
2.412666666666667E+009;1.794972717761993E-001;-9.999735280871391E-003;-2.081716898828745E-003;-5.246864166110754E-003;
2.412833333333334E+009;1.800833642482758E-001;-1.252251956611872E-002;-2.447638195008040E-003;-4.929629154503346E-003;
2.413000000000000E+009;1.808405518531799E-001;-1.469126995652914E-002;-2.695916686207056E-003;-4.877765197306871E-003;
2.413166666666667E+009;1.815124303102493E-001;-1.687433198094368E-002;-2.822205424308777E-003;-4.807407502084971E-003;
2.413333333333334E+009;1.825807541608810E-001;-1.919788308441639E-002;-3.139057429507375E-003;-4.522690083831549E-003;
2.413500000000000E+009;1.835118532180786E-001;-2.157592400908470E-002;-3.488902235403657E-003;-4.311840049922466E-003;
2.413666666666667E+009;1.845365017652512E-001;-2.353017404675484E-002;-3.661165013909340E-003;-3.969345707446337E-003;
2.413833333333334E+009;1.856490969657898E-001;-2.546085603535175E-002;-3.811053466051817E-003;-3.617710433900356E-003;
2.414000000000000E+009;1.868582516908646E-001;-2.754100412130356E-002;-3.934100735932589E-003;-3.347137942910194E-003;
2.414166666666667E+009;1.881397813558579E-001;-2.926924638450146E-002;-4.093166906386614E-003;-2.886675065383315E-003;
2.414333333333334E+009;1.890673041343689E-001;-3.109786100685597E-002;-4.041345790028572E-003;-2.574300393462181E-003;
2.414500000000000E+009;1.904218047857285E-001;-3.260383382439613E-002;-4.161381162703037E-003;-2.387865679338574E-003;
2.414666666666667E+009;1.915988624095917E-001;-3.398667275905609E-002;-4.032677039504051E-003;-2.010841621086001E-003;
2.414833333333334E+009;1.928310543298721E-001;-3.525414317846298E-002;-3.954417537897825E-003;-1.640724483877420E-003;
2.415000000000000E+009;1.938750147819519E-001;-3.657475113868713E-002;-3.854394191876054E-003;-1.336039393208921E-003;
2.415166666666667E+009;1.951913982629776E-001;-3.757714480161667E-002;-3.726008813828230E-003;-1.230472815223038E-003;
2.415333333333334E+009;1.962011009454727E-001;-3.855130076408386E-002;-3.600774100050330E-003;-9.789459872990847E-004;
2.415500000000000E+009;1.973563432693481E-001;-3.919237479567528E-002;-3.390136873349547E-003;-7.981278467923403E-004;
2.415666666666667E+009;1.983717978000641E-001;-4.009791091084480E-002;-3.236676333472133E-003;-7.146082934923470E-004;
2.415833333333334E+009;1.992501467466354E-001;-4.060666263103485E-002;-3.142505651339889E-003;-6.836283137090504E-004;
2.416000000000000E+009;2.000468820333481E-001;-4.112893715500832E-002;-2.864897949621081E-003;-5.508163594640791E-004;
2.416166666666667E+009;2.007286101579666E-001;-4.172242432832718E-002;-2.918946556746960E-003;-2.880907559301704E-004;
2.416333333333334E+009;2.014394700527191E-001;-4.189032688736916E-002;-2.691298956051469E-003;-3.048333164770156E-004;
2.416500000000000E+009;2.018673270940781E-001;-4.215067252516747E-002;-2.490340732038021E-003;-3.408807388041169E-004;
2.416666666666667E+009;2.021305114030838E-001;-4.251057282090187E-002;-2.346952445805073E-003;-2.144421596312895E-004;
2.416833333333334E+009;2.022797912359238E-001;-4.247891157865524E-002;-2.113991184160113E-003;-1.742789027048275E-004;
2.417000000000000E+009;2.024107724428177E-001;-4.262479394674301E-002;-1.985406503081322E-003;-1.446386449970305E-004;
2.417166666666667E+009;2.021652013063431E-001;-4.249716177582741E-002;-1.724796253256500E-003;-2.939307887572795E-004;
2.417333333333334E+009;2.019617259502411E-001;-4.229065403342247E-002;-1.806100830435753E-003;-3.529810637701303E-004;
2.417500000000000E+009;2.016904503107071E-001;-4.242240265011787E-002;-1.571753062307835E-003;-3.864295431412756E-004;
2.417666666666667E+009;2.010717242956162E-001;-4.216465353965759E-002;-1.464120112359524E-003;-3.980451729148626E-004;
2.417833333333334E+009;2.006733417510986E-001;-4.197628051042557E-002;-1.443226821720600E-003;-5.847807042300701E-004;
2.418000000000000E+009;2.000529915094376E-001;-4.177657514810562E-002;-1.450531301088631E-003;-7.905827951617539E-004;
2.418166666666667E+009;1.992688030004501E-001;-4.167491197586060E-002;-1.283828984014690E-003;-8.436040370725095E-004;
2.418333333333334E+009;1.983043104410172E-001;-4.152365028858185E-002;-1.237671123817563E-003;-8.487544255331159E-004;
2.418500000000000E+009;1.972808986902237E-001;-4.154312983155251E-002;-1.281116390600801E-003;-1.170145580545068E-003;
2.418666666666667E+009;1.963563710451126E-001;-4.157312214374542E-002;-1.226288848556578E-003;-1.305168727412820E-003;
2.418833333333334E+009;1.951649338006973E-001;-4.166980832815170E-002;-1.330511760897934E-003;-1.423894776962698E-003;
2.419000000000000E+009;1.938433498144150E-001;-4.187536239624023E-002;-1.357155852019787E-003;-1.562482560984790E-003;
2.419166666666667E+009;1.924777477979660E-001;-4.220396280288696E-002;-1.365184900350869E-003;-1.711764489300549E-003;
2.419333333333334E+009;1.911743730306625E-001;-4.277011379599571E-002;-1.503147999756038E-003;-1.643574913032353E-003;
2.419500000000000E+009;1.897617578506470E-001;-4.313552379608154E-002;-1.740566920489073E-003;-1.947396085597575E-003;
2.419666666666667E+009;1.882441788911820E-001;-4.397869855165482E-002;-1.764474087394774E-003;-2.006825525313616E-003;
2.419833333333334E+009;1.865761727094650E-001;-4.472995549440384E-002;-1.841456512920559E-003;-2.065804088488221E-003;
2.420000000000000E+009;1.850516647100449E-001;-4.566361755132675E-002;-2.153676236048341E-003;-2.319409977644682E-003;
2.420166666666667E+009;1.834625750780106E-001;-4.656825214624405E-002;-2.300975378602743E-003;-2.288490300998092E-003;
2.420333333333334E+009;1.817939132452011E-001;-4.766285046935082E-002;-2.496225992217660E-003;-2.393760951235890E-003;
2.420500000000000E+009;1.802152693271637E-001;-4.917363822460175E-002;-2.752391621470451E-003;-2.296901540830731E-003;
2.420666666666667E+009;1.786875724792481E-001;-5.028817430138588E-002;-2.761902287602425E-003;-2.256202045828104E-003;
2.420833333333334E+009;1.769808828830719E-001;-5.184531584382057E-002;-3.135629463940859E-003;-2.243457827717066E-003;
2.421000000000000E+009;1.754391938447952E-001;-5.343955755233765E-002;-3.413661848753691E-003;-2.312661148607731E-003;
2.421166666666667E+009;1.740499287843704E-001;-5.507440865039825E-002;-3.709162585437298E-003;-2.173148328438401E-003;
2.421333333333334E+009;1.725352555513382E-001;-5.671740695834160E-002;-3.870937507599592E-003;-1.968301134184003E-003;
2.421500000000000E+009;1.711653620004654E-001;-5.864744260907173E-002;-3.982086200267077E-003;-1.912463572807610E-003;
2.421666666666667E+009;1.700340211391449E-001;-6.044704839587212E-002;-4.203930962830782E-003;-1.867534476332367E-003;
2.421833333333334E+009;1.688188314437866E-001;-6.226647645235062E-002;-4.388085566461086E-003;-1.791330636478961E-003;
2.422000000000000E+009;1.677469760179520E-001;-6.420543044805527E-002;-4.543397575616837E-003;-1.450515235774219E-003;
2.422166666666667E+009;1.669214069843292E-001;-6.641298532485962E-002;-4.820896312594414E-003;-1.237513497471809E-003;
2.422333333333334E+009;1.658989042043686E-001;-6.824865192174912E-002;-5.007264204323292E-003;-1.205422682687640E-003;
2.422500000000000E+009;1.650469899177551E-001;-7.011636346578598E-002;-5.042294505983591E-003;-8.690794929862022E-004;
2.422666666666667E+009;1.644053161144257E-001;-7.223065197467804E-002;-5.152327474206686E-003;-4.228752804920077E-004;
2.422833333333334E+009;1.641068160533905E-001;-7.446752488613129E-002;-5.378333386033773E-003;-3.485610650386661E-004;
2.423000000000000E+009;1.635704785585403E-001;-7.643405348062515E-002;-5.350702442228794E-003;-1.372132537653670E-004;
2.423166666666667E+009;1.631606966257095E-001;-7.838948816061020E-002;-5.538233090192080E-003;1.256454379472416E-005;
2.423333333333334E+009;1.628079414367676E-001;-8.027809113264084E-002;-5.595284514129162E-003;4.943345556966960E-004;
2.423500000000000E+009;1.628848612308502E-001;-8.209446817636490E-002;-5.684334784746170E-003;5.716754239983857E-004;
2.423666666666667E+009;1.628022342920303E-001;-8.394461870193481E-002;-5.575873889029026E-003;1.019464456476271E-003;
2.423833333333334E+009;1.626695245504379E-001;-8.574320375919342E-002;-5.706685595214367E-003;1.137356157414615E-003;
2.424000000000000E+009;1.629257351160049E-001;-8.750987797975540E-002;-5.796035751700401E-003;1.496762153692544E-003;
2.424166666666667E+009;1.629292368888855E-001;-8.900807052850723E-002;-5.776286125183106E-003;1.856493297964335E-003;
2.424333333333334E+009;1.633233428001404E-001;-9.064864367246628E-002;-5.771684926003218E-003;2.285045571625233E-003;
2.424500000000000E+009;1.636482924222946E-001;-9.220463782548904E-002;-5.662309937179089E-003;2.480796072632074E-003;
2.424666666666667E+009;1.638281643390656E-001;-9.344137459993362E-002;-5.505067761987448E-003;2.846531337127090E-003;
2.424833333333334E+009;1.643572747707367E-001;-9.479048103094101E-002;-5.375242792069912E-003;3.290225984528661E-003;
2.425000000000000E+009;1.647411435842514E-001;-9.597285091876984E-002;-5.235870834439993E-003;3.661119146272540E-003;
2.425166666666667E+009;1.650378257036209E-001;-9.706518799066544E-002;-4.985619802027941E-003;3.826588857918978E-003;
2.425333333333334E+009;1.653552502393723E-001;-9.801048785448074E-002;-4.716906696557999E-003;4.184689372777939E-003;
2.425500000000000E+009;1.658257693052292E-001;-9.892193973064423E-002;-4.478172864764929E-003;4.472499247640371E-003;
2.425666666666667E+009;1.661787778139114E-001;-9.948464483022690E-002;-4.051138646900654E-003;4.617533646523953E-003;
2.425833333333334E+009;1.665976196527481E-001;-1.004642024636269E-001;-3.757471451535821E-003;4.734352696686983E-003;
2.426000000000000E+009;1.669974625110626E-001;-1.007426083087921E-001;-3.444753354415298E-003;4.884393420070410E-003;
2.426166666666667E+009;1.674768626689911E-001;-1.013232618570328E-001;-3.195877419784665E-003;4.927666857838631E-003;
2.426333333333334E+009;1.675204336643219E-001;-1.017822921276093E-001;-2.869827207177877E-003;5.026712547987700E-003;
2.426500000000000E+009;1.678515076637268E-001;-1.020629629492760E-001;-2.525612711906433E-003;4.980264231562614E-003;
2.426666666666667E+009;1.681301593780518E-001;-1.024431735277176E-001;-2.392886672168970E-003;5.170155782252550E-003;
2.426833333333334E+009;1.682506501674652E-001;-1.025899872183800E-001;-2.093894872814417E-003;5.083410535007715E-003;
2.427000000000000E+009;1.681570410728455E-001;-1.028745770454407E-001;-1.825628569349647E-003;5.053618922829628E-003;
2.427166666666667E+009;1.682541221380234E-001;-1.029191166162491E-001;-1.637526205740869E-003;4.938954953104258E-003;
2.427333333333334E+009;1.681588143110275E-001;-1.032326146960259E-001;-1.381994225084782E-003;5.027770996093750E-003;
2.427500000000000E+009;1.679094284772873E-001;-1.033365353941917E-001;-1.201266073621810E-003;4.970668815076351E-003;
2.427666666666667E+009;1.676008552312851E-001;-1.033967286348343E-001;-9.840774582698941E-004;5.203870590776205E-003;
