# Hz S RI R 50
2400000000.0000000000 0.155155256390571594238281250000 0.106605671346187605430522182814 0.003346344223245977921726845850 -0.003493609605357050895690917969 0 0 0 0 
2400166666.6666665077 0.154929548501968411544638115629 0.104443639516830402702574076557 0.003213978372514247894287109375 -0.003612370230257511138916015625 0 0 0 0 
2400333333.3333334923 0.154935374855995205978231865629 0.102052241563796997070312500000 0.002996050985530018806457519531 -0.003844165941700338883640908350 0 0 0 0 
2400500000.0000000000 0.155113950371742304046307481258 0.099281705915927886962890625000 0.003043401520699263052699423682 -0.004061184357851743698120117188 0 0 0 0 
2400666666.6666665077 0.155129656195640591720419365629 0.096585512161254882812500000000 0.002786922268569469885585165869 -0.003982684109359979629516601562 0 0 0 0 
2400833333.3333334923 0.155171334743499811370526231258 0.094296880066394805908203125000 0.002743726363405584855320595850 -0.004108289722353219985961914062 0 0 0 0 
2401000000.0000000000 0.155262574553489712814169365629 0.090884089469909667968750000000 0.002484439639374614195582724463 -0.004174462053924798965454101562 0 0 0 0 
2401166666.6666665077 0.155339673161506708343182481258 0.088315665721893310546875000000 0.002484727650880814032313681494 -0.004320390988141298294067382812 0 0 0 0 
2401333333.3333334923 0.156109139323234613616619981258 0.085361890494823455810546875000 0.002416156930848956108093261719 -0.004472024273127317428588867188 0 0 0 0 
2401500000.0000000000 0.156136527657508905608807481258 0.082547992467880249023437500000 0.002066446701064705848693847656 -0.004470436833798885345458984375 0 0 0 0 
2401666666.6666665077 0.156666561961174011230468750000 0.079969100654125213623046875000 0.002100823679938911957981728662 -0.004581355955451726913452148438 0 0 0 0 
2401833333.3333334923 0.157293021678924588302450615629 0.077143646776676177978515625000 0.002099141012877225875854492188 -0.004788656253367662429809570312 0 0 0 0 
2402000000.0000000000 0.158110976219177301604901231258 0.074455969035625457763671875000 0.001841753255575895092607807690 -0.004875328391790390014648437500 0 0 0 0 
2402166666.6666665077 0.158826515078544588943643134371 0.071939811110496520996093750000 0.001701280241832137107849121094 -0.004814259242266417417044355176 0 0 0 0 
2402333333.3333334923 0.159880429506301907638388115629 0.069351851940155029296875000000 0.001352638122625648975372314453 -0.005032342392951250076293945312 0 0 0 0 
2402500000.0000000000 0.160967037081718389313067518742 0.066891372203826904296875000000 0.001341360853984951972961425781 -0.005120638757944107055664062500 0 0 0 0 
2402666666.6666665077 0.162250921130180386642294365629 0.064475178718566894531250000000 0.001197457662783562920214008862 -0.005121746566146612167358398438 0 0 0 0 
2402833333.3333334923 0.163485988974571200271768134371 0.062008805572986602783203125000 0.001010081032291054942487407153 -0.005349440965801477432250976562 0 0 0 0 
2403000000.0000000000 0.164957255125045804122763115629 0.059834849089384078979492187500 0.000642937957309186458587646484 -0.005549846217036247253417968750 0 0 0 0 
2403166666.6666665077 0.166708573698997497558593750000 0.057683188468217849731445312500 0.000397755793528631275326329364 -0.005478661041706801328177167676 0 0 0 0 
2403333333.3333334923 0.168358013033866910079794365629 0.055862952023744583129882812500 -0.000787244178354740142822265625 -0.005847169086337090405935956738 0 0 0 0 
2403500000.0000000000 0.169771373271942110916299384371 0.053798303008079528808593750000 -0.000143639146699570092275896616 -0.005997353233397006988525390625 0 0 0 0 
2403666666.6666665077 0.171914070844650296310263115629 0.051559496670961380004882812500 -0.001135310041718184947967529297 -0.004763704258948565396780683301 0 0 0 0 
2403833333.3333334923 0.173159062862396212478799384371 0.049825880676507949829101562500 -0.000513590872287750244140625000 -0.005539336707442998886108398438 0 0 0 0 
2404000000.0000000000 0.174771487712860107421875000000 0.047819864004850387573242187500 -0.000952021277043968439102172852 -0.004928807727992534637451171875 0 0 0 0 
2404166666.6666665077 0.176566585898399408538494981258 0.046638976782560348510742187500 -0.001181701663881540081621479565 -0.005300456658005714416503906250 0 0 0 0 
2404333333.3333334923 0.178189873695373507400674384371 0.044921763241291053081472028907 -0.001601923839189111969591450269 -0.004860154818743467330932617188 0 0 0 0 
2404500000.0000000000 0.179620534181594904143963731258 0.043284147977828979492187500000 -0.000812597922049462795257568359 -0.004731139168143272399902343750 0 0 0 0 
2404666666.6666665077 0.180886477231979397872763115629 0.042648851871490478515625000000 -0.000475454871775582378536778583 -0.005528917536139488220214843750 0 0 0 0 
2404833333.3333334923 0.182896062731742886642294365629 0.041719138622283942485768903907 -0.001770286122336983897565532153 -0.006026400253176689147949218750 0 0 0 0 
2405000000.0000000000 0.184245884418487604339276231258 0.040832564234733581542968750000 -0.001839126111008227088330913013 -0.004831086378544569015502929688 0 0 0 0 
2405166666.6666665077 0.185641363263130187988281250000 0.040123764425516128540039062500 -0.001954054459929465813877724756 -0.004847941454499959945678710938 0 0 0 0 
2405333333.3333334923 0.187151476740837097167968750000 0.039498697966337197040598283593 -0.002233671722933650016784667969 -0.004852825775742530822753906250 0 0 0 0 
2405500000.0000000000 0.188542321324348505218182481258 0.039122972637414932250976562500 -0.002390442648902535004856728662 -0.004726899322122334566598222949 0 0 0 0 
2405666666.6666665077 0.189737692475318908691406250000 0.038717288523912429809570312500 -0.002473548986017704010009765625 -0.004522462841123343381399823926 0 0 0 0 
2405833333.3333334923 0.190882131457328796386718750000 0.038433156907558441162109375000 -0.002882774686440825896022177588 -0.004363509360700845718383789062 0 0 0 0 
2406000000.0000000000 0.191966757178306607345419365629 0.038236327469348907470703125000 -0.002963576233014463944676064600 -0.004238302819430828094482421875 0 0 0 0 
2406166666.6666665077 0.192808777093887301345986884371 0.037954274564981460571289062500 -0.003056333400309085845947265625 -0.004095715470612049102783203125 0 0 0 0 
2406333333.3333334923 0.193816050887107904632244981258 0.037950895726680762554128278907 -0.003213957650586963133571005713 -0.003938453737646341323852539062 0 0 0 0 
2406500000.0000000000 0.194551810622215298751669365629 0.037939935922622680664062500000 -0.003195612924173473878147744287 -0.003715909784659742875340127100 0 0 0 0 
2406666666.6666665077 0.195082351565360995193643134371 0.037876062095165252685546875000 -0.003534650197252631187438964844 -0.003617829643189907073974609375 0 0 0 0 
2406833333.3333334923 0.195596933364868191818075615629 0.037904206663370132446289062500 -0.003518411424010992050170898438 -0.003190447809174656867980957031 0 0 0 0 
2407000000.0000000000 0.195826396346092196365518134371 0.038129594177007682109792341407 -0.003626914462074636979344033350 -0.003235577605664730072021484375 0 0 0 0 
2407166666.6666665077 0.196215197443962097167968750000 0.037865076214075088500976562500 -0.003604852827265859083888388525 -0.003022650023922324180603027344 0 0 0 0 
2407333333.3333334923 0.196147009730339105804119981258 0.038006525486707687377929687500 -0.003745544236153364181518554688 -0.002802941715344787077662802588 0 0 0 0 
2407500000.0000000000 0.196078956127166803558026231258 0.037996660917997360229492187500 -0.003682217095047235922572470557 -0.002559899818152188821079873193 0 0 0 0 
2407666666.6666665077 0.196057006716728210449218750000 0.037955690175294883037526716407 -0.003709224285557866096496582031 -0.002508966717869042916538857568 0 0 0 0 
2407833333.3333334923 0.195697069168090792556924384371 0.037764579057693481445312500000 -0.003733244026079773902893066406 -0.002165631623938680128810263525 0 0 0 0 
2408000000.0000000000 0.195487886667251586914062500000 0.037524003535509109497070312500 -0.003752523800358175797703408350 -0.002126574283465743064880371094 0 0 0 0 
2408166666.6666665077 0.195019155740737887283486884371 0.037320159375667572021484375000 -0.003738277126103640036342001807 -0.001962306909263134002685546875 0 0 0 0 
2408333333.3333334923 0.194552734494209289550781250000 0.036598891019821166992187500000 -0.003721691202372312979457236182 -0.001871429849416017966029501807 0 0 0 0 
2408500000.0000000000 0.193836897611617986481036268742 0.036381218582391738891601562500 -0.003635904984548687934875488281 -0.001677719876170157952549599756 0 0 0 0 
2408666666.6666665077 0.193143665790557889083700615629 0.035802140831947326660156250000 -0.003739091567695140838623046875 -0.001612126943655312061309814453 0 0 0 0 
2408833333.3333334923 0.192464232444763211349325615629 0.034892179071903228759765625000 -0.003691301681101322174072265625 -0.001395974773913621902465820312 0 0 0 0 
2409000000.0000000000 0.191616818308830288986044365629 0.033967625349760062480886091407 -0.003715018974617124037501669775 -0.001350760110653937079785991138 0 0 0 0 
2409166666.6666665077 0.190508306026458712478799384371 0.033022429794073111797292341407 -0.003592721885070205168483115088 -0.001102638430893420956255268628 0 0 0 0 
2409333333.3333334923 0.189685106277465792556924384371 0.032043755054473876953125000000 -0.003612047061324120001551962744 -0.001066779135726392052294086987 0 0 0 0 
2409500000.0000000000 0.188659995794296292404013115629 0.030577439814805981027623360546 -0.003416265593841671943664550781 -0.001030722050927578969242714990 0 0 0 0 
2409666666.6666665077 0.187557458877563504318075615629 0.029023878276348110544224923046 -0.003389456542208791212794638525 -0.000971750996541231870651245117 0 0 0 0 
2409833333.3333334923 0.186444267630577087402343750000 0.027859775349497798574427420704 -0.003321494208648800849914550781 -0.001040176022797822952270507812 0 0 0 0 
2410000000.0000000000 0.185507580637931795974893134371 0.026096444576978680002232735546 -0.003186504822224379019496298682 -0.000799296307377517223358154297 0 0 0 0 
2410166666.6666665077 0.184650614857673700530682481258 0.024197144433856010437011718750 -0.003284009872004390196559286963 -0.000961625191848725080490112305 0 0 0 0 
2410333333.3333334923 0.183673515915870694259481865629 0.022373383864760398864746093750 -0.003167103510349988937377929688 -0.000768696190789341926574707031 0 0 0 0 
2410500000.0000000000 0.182815581560134887695312500000 0.020410278812050819396972656250 -0.003216945799067616896388388525 -0.000935393269173801053702199670 0 0 0 0 
2410666666.6666665077 0.181791424751281710525674384371 0.018106175586581230163574218750 -0.003023186000064014954807900537 -0.000777352135628461837768554688 0 0 0 0 
2410833333.3333334923 0.181155964732170104980468750000 0.015979565680027011526087576954 -0.003072862746194005012512207031 -0.000800970185082405805587768555 0 0 0 0 
2411000000.0000000000 0.180512621998786898513955634371 0.013908276334404950577705584180 -0.003002904588356614112854003906 -0.000809281715191900730133056641 0 0 0 0 
2411166666.6666665077 0.179737329483032198806924384371 0.011812753975391389674176600977 -0.003071108134463429884669638525 -0.000885567569639533758163452148 0 0 0 0 
2411333333.3333334923 0.179325252771377591232138115629 0.009243438020348548889160156250 -0.003005786333233118057250976562 -0.000730375235434621572494506836 0 0 0 0 
2411500000.0000000000 0.178746104240417508224325615629 0.006671429146081209182739257812 -0.002906142268329859213588095557 -0.000650245288852602243423461914 0 0 0 0 
2411666666.6666665077 0.178678154945373507400674384371 0.004539614543318749341482831738 -0.002877096412703394889831542969 -0.000785622745752334594726562500 0 0 0 0 
2411833333.3333334923 0.178369060158729608733807481258 0.002251973841339350180384970557 -0.003166517708450555801391601562 -0.000769328558817505836486816406 0 0 0 0 
2412000000.0000000000 0.178703293204307611663494981258 -0.000488106481498107314109802246 -0.002959034172818065123317099463 -0.000953536306042224168777465820 0 0 0 0 
2412166666.6666665077 0.178678423166274996658486884371 -0.002753966022282838821411132812 -0.003154658246785401864292763818 -0.000892118841875344514846801758 0 0 0 0 
2412333333.3333334923 0.178691923618316705901776231258 -0.005289047025144100189208984375 -0.003162888810038567023036337744 -0.000823578215204179286956787109 0 0 0 0 
2412500000.0000000000 0.179362162947654696365518134371 -0.007569510955363512039184570312 -0.003274175105616449876072548975 -0.000913933326955884695053100586 0 0 0 0 
2412666666.6666665077 0.179928466677665710449218750000 -0.010001982562243940180768397852 -0.003321620402857660813572548975 -0.000917132478207349777221679688 0 0 0 0 
2412833333.3333334923 0.180570781230926513671875000000 -0.012484505772590640676478201954 -0.003433309728279709815979003906 -0.001007035374641419107552553491 0 0 0 0 
2413000000.0000000000 0.181217432022094698806924384371 -0.014776813797652719670305820898 -0.003684359136968851089477539062 -0.000851497228723019361495971680 0 0 0 0 
2413166666.6666665077 0.182071015238761901855468750000 -0.016859486699104309082031250000 -0.003760536899790167808532714844 -0.000796208390966057777404785156 0 0 0 0 
2413333333.3333334923 0.182941004633903503417968750000 -0.019259613007307049142857735546 -0.003803565632551908926722861182 -0.000733268971089273691177368164 0 0 0 0 
2413500000.0000000000 0.183867603540420504470986884371 -0.021426605060696598398228829296 -0.004108613356947898864746093750 -0.000457846588687971180111485614 0 0 0 0 
2413666666.6666665077 0.184982478618621798416299384371 -0.023501990363001819955846016796 -0.004233653191477060317993164062 -0.000413950328947976177364903583 0 0 0 0 
2413833333.3333334923 0.186206459999084500411825615629 -0.025534955784678459167480468750 -0.004280836321413516998291015625 -0.000260364613495767116546630859 0 0 0 0 
2414000000.0000000000 0.187185913324356106857138115629 -0.027402712032198909414271170704 -0.004278456792235375318045331738 -0.000106301049527246505022048950 0 0 0 0 
2414166666.6666665077 0.188393548130989102462606865629 -0.029150880873203281057337576954 -0.004377636592835187911987304688 -0.000000317495249646526591998135 0 0 0 0 
2414333333.3333334923 0.189432442188262911697549384371 -0.031181257218122478830357735546 -0.004273774567991495132446289062 0.000319651589961722493171691895 0 0 0 0 
2414500000.0000000000 0.190661907196044894119424384371 -0.032668359577655792236328125000 -0.004364098422229290008544921875 0.000338350626407191211551112042 0 0 0 0 
2414666666.6666665077 0.191716879606247003753338731258 -0.033906325697898871684987653907 -0.004364780616015195846557617188 0.000658393895719200372695922852 0 0 0 0 
2414833333.3333334923 0.192949190735817011077557481258 -0.035319026559591293334960937500 -0.004307384137064219388479902051 0.000675550079904496669769287109 0 0 0 0 
2415000000.0000000000 0.194083601236343411544638115629 -0.036506161093711853027343750000 -0.004388268571346998214721679688 0.000822654750663787126541137695 0 0 0 0 
2415166666.6666665077 0.195314392447471590896768134371 -0.037552975118160247802734375000 -0.004414333961904048919677734375 0.000847420480567961931228637695 0 0 0 0 
2415333333.3333334923 0.196292996406555203536825615629 -0.038460444658994681621511091407 -0.004423822276294231414794921875 0.001048236852511764006373740088 0 0 0 0 
2415500000.0000000000 0.197401076555252102950888115629 -0.039129190146923072124440778907 -0.004438526928424835205078125000 0.001140349078923464038251567310 0 0 0 0 
2415666666.6666665077 0.198380798101425198654013115629 -0.039921734482049942016601562500 -0.004399993922561407089233398438 0.001276807044632733085035014575 0 0 0 0 
2415833333.3333334923 0.199128836393356295486611884371 -0.040444791316986077045481096093 -0.004498700611293315887451171875 0.001471410039812325997593545068 0 0 0 0 
2416000000.0000000000 0.199973955750465393066406250000 -0.041076429188251502300222028907 -0.004313650075346232327933027051 0.001552843139506876902339316260 0 0 0 0 
2416166666.6666665077 0.200589805841445895095986884371 -0.041534397751092910766601562500 -0.004726867657154799375052167676 0.001913496293127536990522075122 0 0 0 0 
2416333333.3333334923 0.201187431812286404708700615629 -0.041867945343255996704101562500 -0.004519747104495763778686523438 0.002073137322440743012669228662 0 0 0 0 
2416500000.0000000000 0.201796665787696810623330634371 -0.042157534509897232055664062500 -0.004493588116019964218139648438 0.002243364229798316955566406250 0 0 0 0 
2416666666.6666665077 0.202043250203132601638955634371 -0.042473334819078452373464216407 -0.004446491133421660336966230176 0.002524981973692775206324911963 0 0 0 0 
2416833333.3333334923 0.202165529131889287750567518742 -0.042521048337221152568776716407 -0.004299554042518138885498046875 0.002720132470130919976475381006 0 0 0 0 
2417000000.0000000000 0.202324256300926208496093750000 -0.042681869119405753398854841407 -0.004091646522283554077148437500 0.003167885355651379065272665869 0 0 0 0 
2417166666.6666665077 0.202004373073577908614950615629 -0.042624875903129577636718750000 -0.004069930408149957656860351562 0.003165272995829582214355468750 0 0 0 0 
2417333333.3333334923 0.201730951666831997970419365629 -0.042406890541315078735351562500 -0.003972426056861876574044512012 0.003431761637330054803135537256 0 0 0 0 
2417500000.0000000000 0.201428458094596890548544365629 -0.042511787265539169311523437500 -0.003799732308834791183471679688 0.003602961543947457833531045068 0 0 0 0 
2417666666.6666665077 0.200908839702606201171875000000 -0.042203381657600402832031250000 -0.003653653897345066070556640625 0.003762304317206143899204873193 0 0 0 0 
2417833333.3333334923 0.200460806488990811446981865629 -0.042089466005563742900807966407 -0.003410850185900927023646689307 0.003829509485512971878051757812 0 0 0 0 
2418000000.0000000000 0.199802935123443603515625000000 -0.041857857257127761840820312500 -0.003346344223245977921726845850 0.004046214278787375363821698926 0 0 0 0 
2418166666.6666665077 0.199069574475288391113281250000 -0.041751306504011147235910783593 -0.003125522052869201140162802588 0.004107618704438210401053144238 0 0 0 0 
2418333333.3333334923 0.198068991303443908691406250000 -0.041646435856819152832031250000 -0.002859306987375020980834960938 0.004389618989080190658569335938 0 0 0 0 
2418500000.0000000000 0.197103932499885586837606865629 -0.041657738387584693218190778907 -0.002627367153763771057128906250 0.004451861605048179626464843750 0 0 0 0 
2418666666.6666665077 0.196219146251678494552450615629 -0.041785560548305511474609375000 -0.002489891834557055993321084131 0.004435826558619737625122070312 0 0 0 0 
2418833333.3333334923 0.194946825504303006271200615629 -0.041874103248119347309152971093 -0.002416518749669193787815713037 0.004556281026452779769897460938 0 0 0 0 
2419000000.0000000000 0.193623051047325106521768134371 -0.042128544300794601440429687500 -0.002107983920723199844360351562 0.004518013913184404373168945312 0 0 0 0 
2419166666.6666665077 0.192304834723472595214843750000 -0.042495049536228179931640625000 -0.001901475945487618012669228662 0.004541147500276566419119550488 0 0 0 0 
2419333333.3333334923 0.191081926226615905761718750000 -0.043002057820558547973632812500 -0.001780426362529397010803222656 0.004620176739990711212158203125 0 0 0 0 
2419500000.0000000000 0.189591839909553500076455634371 -0.043460883200168609619140625000 -0.001724124187603593089460063403 0.004576512146741151809692382812 0 0 0 0 
2419666666.6666665077 0.188002020120620699783486884371 -0.044157851487398147583007812500 -0.001572427223436533971073769678 0.004527159966528415679931640625 0 0 0 0 
2419833333.3333334923 0.186503931879997308929119981258 -0.045040890574455261230468750000 -0.001356382737867533943773579175 0.004550591576844453811645507812 0 0 0 0 
