# Hz S RI R 50
2400000000.0000000000 0.155241727828979492187500000000 0.106611907482147202919087192186 0.003298694267868996100184775244 -0.003567679086700081825256347656 0 0 0 0 
2400166666.6666665077 0.154939040541648892501669365629 0.104328885674476595779580634371 0.003166938200592995123622275244 -0.003618721617385745048522949219 0 0 0 0 
2400333333.3333334923 0.155101150274276705642861884371 0.101900376379489898681640625000 0.003147168084979056878330849756 -0.003834841772913932800292968750 0 0 0 0 
2400500000.0000000000 0.155121937394142206390057481258 0.099224261939525604248046875000 0.003042690455913544134852743994 -0.003841227618977427916285849463 0 0 0 0 
2400666666.6666665077 0.155227184295654296875000000000 0.096822530031204223632812500000 0.002849255921319127082824707031 -0.004049615003168582916259765625 0 0 0 0 
2400833333.3333334923 0.155129909515380887130575615629 0.093942806124687194824218750000 0.002562581794336438179016113281 -0.004056810867041349411010742188 0 0 0 0 
2401000000.0000000000 0.155438050627708407303018134371 0.090986996889114379882812500000 0.002529313787817955017089843750 -0.004160477314144372940063476562 0 0 0 0 
2401166666.6666665077 0.155491843819618197342080634371 0.088390357792377471923828125000 0.002542820060625671906712197412 -0.004402852617204189300537109375 0 0 0 0 
2401333333.3333334923 0.155984163284301813323651231258 0.085499152541160583496093750000 0.002389319241046905951258993994 -0.004244200885295867919921875000 0 0 0 0 
2401500000.0000000000 0.156491890549659701248330634371 0.082651190459728240966796875000 0.002154714660719037055969238281 -0.004403793718665838241577148438 0 0 0 0 
2401666666.6666665077 0.156829074025154113769531250000 0.079918265342712402343750000000 0.002153094159439206123352050781 -0.004483744036406278610229492188 0 0 0 0 
2401833333.3333334923 0.157266616821289090255575615629 0.077142812311649322509765625000 0.001992304343730210824253701318 -0.004796833731234073638916015625 0 0 0 0 
2402000000.0000000000 0.158157169818878201583700615629 0.074330292642116546630859375000 0.001678357832133769989013671875 -0.004826878663152456283569335938 0 0 0 0 
2402166666.6666665077 0.158971622586250305175781250000 0.071949630975723266601562500000 0.001637638430111109993578266675 -0.004932213108986616134643554688 0 0 0 0 
2402333333.3333334923 0.160024359822273309905682481258 0.069420352578163146972656250000 0.001505707856267691092250204932 -0.005070937797427177429199218750 0 0 0 0 
2402500000.0000000000 0.161232948303222711761151231258 0.066820718348026275634765625000 0.001182134728878736929652548682 -0.005118619650602340698242187500 0 0 0 0 
2402666666.6666665077 0.162225842475891113281250000000 0.064453884959220886230468750000 0.000947044522035866975784301758 -0.005000464618206024169921875000 0 0 0 0 
2402833333.3333334923 0.163753032684326199630575615629 0.061890657991170883178710937500 0.000928170687984675168991088867 -0.005325083155184984207153320312 0 0 0 0 
2403000000.0000000000 0.165187582373619107345419365629 0.059639215469360351562500000000 0.000644219922833144664764404297 -0.005247060209512710571289062500 0 0 0 0 
2403166666.6666665077 0.166962936520576504806356865629 0.057597603648900992656667341407 0.000425151141826063394546508789 -0.005247444380074740323538495801 0 0 0 0 
2403333333.3333334923 0.168129161000251797775106865629 0.055395573377609252929687500000 0.000289510615402832573086339130 -0.005438051186501979827880859375 0 0 0 0 
2403500000.0000000000 0.170091494917869595626669365629 0.053566273301839828491210937500 -0.000159194954903796288088121957 -0.005383852869272232055664062500 0 0 0 0 
2403666666.6666665077 0.171645566821098299881143134371 0.051582530140876770019531250000 -0.000261210807366296703189295636 -0.005343858152627944946289062500 0 0 0 0 
2403833333.3333334923 0.172993212938308688064736884371 0.049648568034172058105468750000 -0.000640561920590698719024658203 -0.005156436003744602203369140625 0 0 0 0 
2404000000.0000000000 0.174693629145622308929119981258 0.047747094184160232543945312500 -0.000660103978589177131652832031 -0.005110862664878368377685546875 0 0 0 0 
2404166666.6666665077 0.176692113280296297928018134371 0.046401295810937881469726562500 -0.000999456387944519519805908203 -0.005145449656993150711059570312 0 0 0 0 
2404333333.3333334923 0.178169578313827486892861884371 0.044890068471431732177734375000 -0.001077057793736458041547465747 -0.005216213408857583999633789062 0 0 0 0 
2404500000.0000000000 0.179848909378051813323651231258 0.043453689664602279663085937500 -0.001325871213339268944383930737 -0.005078097339719533920288085938 0 0 0 0 
2404666666.6666665077 0.181401118636131286621093750000 0.042564928531646728515625000000 -0.001495711272582411982892680591 -0.004974956624209880828857421875 0 0 0 0 
2404833333.3333334923 0.182969018816947909256143134371 0.041514206677675247192382812500 -0.001480026403442024967790913159 -0.004942403640598058700561523438 0 0 0 0 
2405000000.0000000000 0.184223681688308688064736884371 0.040797807276248931884765625000 -0.001778714591637253978131938403 -0.004995481576770544052124023438 0 0 0 0 
2405166666.6666665077 0.185673117637634305099325615629 0.040139805525541312480886091407 -0.001890470623038708946825336987 -0.004930481780320405960083007812 0 0 0 0 
2405333333.3333334923 0.187101587653160095214843750000 0.039622362703084952617604841407 -0.002131513785570859909057617188 -0.004793502390384674072265625000 0 0 0 0 
2405500000.0000000000 0.188647240400314303299111884371 0.038995910435914993286132812500 -0.002396037569269537925720214844 -0.004593308083713054656982421875 0 0 0 0 
2405666666.6666665077 0.189648061990737887283486884371 0.038719873875379562377929687500 -0.002671089489012957052943564307 -0.004649349953979253768920898438 0 0 0 0 
2405833333.3333334923 0.190851151943206787109375000000 0.038313478231430046772043596093 -0.002848915057256817817687988281 -0.004447702318429946899414062500 0 0 0 0 
2406000000.0000000000 0.191866114735603304763955634371 0.038228414952754967426340471093 -0.002908756723627448081970214844 -0.004272955469787120819091796875 0 0 0 0 
2406166666.6666665077 0.192906424403190612792968750000 0.038049649447202682495117187500 -0.003241101745516062216517783057 -0.004041043575853109359741210938 0 0 0 0 
2406333333.3333334923 0.193767249584197998046875000000 0.037864681333303451538085937500 -0.003202850930392742156982421875 -0.003627907717600464820861816406 0 0 0 0 
2406500000.0000000000 0.193947330117225702483807481258 0.038162007927894592285156250000 -0.002099860692396759986877441406 -0.004183116368949413299560546875 0 0 0 0 
2406666666.6666665077 0.194849655032157897949218750000 0.037605065852403640747070312500 -0.002709371037781238989589072119 -0.002763058291748166084289550781 0 0 0 0 
2406833333.3333334923 0.195434153079986600021200615629 0.038138516247272491455078125000 -0.003223789157345890998840332031 -0.003930250182747840881347656250 0 0 0 0 
2407000000.0000000000 0.195969253778457613845986884371 0.038468148559331886982004533593 -0.003943328280001878738403320312 -0.003774396842345594926121377100 0 0 0 0 
2407166666.6666665077 0.196152746677398709396200615629 0.037912182509899139404296875000 -0.003460662905126810073852539062 -0.003108569886535406112670898438 0 0 0 0 
2407333333.3333334923 0.196101352572441101074218750000 0.038034562021493911743164062500 -0.003607396269217133955714560400 -0.002820646623149514198303222656 0 0 0 0 
2407500000.0000000000 0.196077466011047391036825615629 0.037986621260643012309987653907 -0.003513525240123271942138671875 -0.002538329456001520156860351562 0 0 0 0 
2407666666.6666665077 0.196355581283569308181924384371 0.038119997829198837280273437500 -0.004155015572905541333670331738 -0.002786826575174928145167685400 0 0 0 0 
2407833333.3333334923 0.195685088634490994552450615629 0.037792138755321502685546875000 -0.003619334893301128907444619287 -0.002374292118474841117858886719 0 0 0 0 
2408000000.0000000000 0.195481270551681490799111884371 0.037556972354650497436523437500 -0.003773922333493829207179404150 -0.002199006499722599983215332031 0 0 0 0 
2408166666.6666665077 0.194937929511070306975994981258 0.037171300500631332397460937500 -0.003827177919447422027587890625 -0.001896840403787791945813823169 0 0 0 0 
2408333333.3333334923 0.194525942206382806975994981258 0.036719746887683868408203125000 -0.003821489633992313905003213037 -0.001678455038927495913264609229 0 0 0 0 
2408500000.0000000000 0.193734899163246210296307481258 0.036248572170734412456472028907 -0.003771478077396750883815146338 -0.001700012595392764048335410010 0 0 0 0 
2408666666.6666665077 0.193111076951026888748330634371 0.035639956593513488769531250000 -0.003790316637605429129359579932 -0.001640593516640364906908344800 0 0 0 0 
2408833333.3333334923 0.192523434758186312576455634371 0.034956794232130050659179687500 -0.003726159920915960831883095850 -0.001412767334841191985486674731 0 0 0 0 
2409000000.0000000000 0.191604837775230407714843750000 0.033962212502956390380859375000 -0.003612080588936806158778525244 -0.001280692522414029078242636572 0 0 0 0 
2409166666.6666665077 0.190658390522003201583700615629 0.032875530421733863140065778907 -0.003486460307613015174865722656 -0.001119432621635497050044394385 0 0 0 0 
2409333333.3333334923 0.189667865633964510818643134371 0.031825199723243713378906250000 -0.003381967544555664062500000000 -0.001139809610322118022321391528 0 0 0 0 
2409500000.0000000000 0.188566297292709406097088731258 0.030492780730128288269042968750 -0.003420404857024550004246377100 -0.001000216463580728010890341650 0 0 0 0 
2409666666.6666665077 0.187542200088501004318075615629 0.029022058472037318838099295704 -0.003201821353286505179164267432 -0.000876219419296830892562866211 0 0 0 0 
2409833333.3333334923 0.186465889215469388107138115629 0.027643604204058650625208670704 -0.003202763618901371955871582031 -0.000990335014648735523223876953 0 0 0 0 
2410000000.0000000000 0.185616418719291687011718750000 0.025892686098814010620117187500 -0.003154717851430178122279501807 -0.000893426244147121906280517578 0 0 0 0 
2410166666.6666665077 0.184531599283218411544638115629 0.024054715409874919546107108204 -0.003087009536102414131164550781 -0.000753807544242590665817260742 0 0 0 0 
2410333333.3333334923 0.183608233928680392166299384371 0.022265041247010231018066406250 -0.003235612297430634932277060400 -0.000826468749437481164932250977 0 0 0 0 
2410500000.0000000000 0.182676970958709689041299384371 0.020356329157948490488072579296 -0.003053320106118917898890829932 -0.000918751931749284267425537109 0 0 0 0 
2410666666.6666665077 0.181819841265678405761718750000 0.018091017380356788635253906250 -0.003114886581897736029383993994 -0.000761471688747406005859375000 0 0 0 0 
2410833333.3333334923 0.181076899170875604827557481258 0.015995580703020099294642264454 -0.003062824951484798951389931787 -0.000925251690205186605453491211 0 0 0 0 
2411000000.0000000000 0.180381447076797513107138115629 0.013836360536515709268590157421 -0.002934539923444389863255166162 -0.000715053291060030460357666016 0 0 0 0 
2411166666.6666665077 0.179827243089675903320312500000 0.011618969030678270512590977148 -0.003021116368472576141357421875 -0.000700627395417541265487670898 0 0 0 0 
2411333333.3333334923 0.179360926151275607010049384371 0.009090770035982131958007812500 -0.002944941399618982835056923975 -0.000757984700612723827362060547 0 0 0 0 
2411500000.0000000000 0.178939104080200195312500000000 0.006684713065624237060546875000 -0.003008052008226513862609863281 -0.000678059412166476249694824219 0 0 0 0 
2411666666.6666665077 0.178678348660469110686932481258 0.004478203598409891128540039062 -0.002922775922343134880065917969 -0.000762197887524962425231933594 0 0 0 0 
2411833333.3333334923 0.178247675299644497970419365629 0.002146345097571610970738076318 -0.003043841803446412086486816406 -0.000754865817725658416748046875 0 0 0 0 
2412000000.0000000000 0.178496032953262301345986884371 -0.000300915446132421493530273438 -0.003066470380872488021850585938 -0.000830245611723512411117553711 0 0 0 0 
2412166666.6666665077 0.178615733981132507324218750000 -0.002876133425161242918727255713 -0.003060001647099852995631552588 -0.000891345320269465446472167969 0 0 0 0 
2412333333.3333334923 0.178847461938858004470986884371 -0.005376763176172971725463867188 -0.003135137958452105955836630713 -0.000859505380503833293914794922 0 0 0 0 
2412500000.0000000000 0.179294660687446594238281250000 -0.007545582950115203857421875000 -0.003180944593623280958888388525 -0.000850742391776293516159057617 0 0 0 0 
2412666666.6666665077 0.179845437407493591308593750000 -0.010129230096936229360560233204 -0.003370529972016810937168740381 -0.000787094351835548877716064453 0 0 0 0 
2412833333.3333334923 0.180374562740325899978799384371 -0.012532334774732589721679687500 -0.003523405408486723899841308594 -0.000856352620758116353689992639 0 0 0 0 
2413000000.0000000000 0.181247264146804809570312500000 -0.014781196601688860112200352148 -0.003557524178177117867710732568 -0.000792015227489173412322998047 0 0 0 0 
2413166666.6666665077 0.181853547692298889160156250000 -0.016989391297101971017857735546 -0.003558702534064650969264365088 -0.000717082293704152107238769531 0 0 0 0 
2413333333.3333334923 0.183046326041221590896768134371 -0.019281780347228050231933593750 -0.003950169775635004043579101562 -0.000775734952185302972793579102 0 0 0 0 
2413500000.0000000000 0.183815285563468905349893134371 -0.021542526781558990478515625000 -0.003909103572368621826171875000 -0.000448880047770217115252894269 0 0 0 0 
2413666666.6666665077 0.185006082057952908614950615629 -0.023658737540245059621790701954 -0.004208114929497241973876953125 -0.000302999949781224077374058856 0 0 0 0 
2413833333.3333334923 0.186004936695098904708700615629 -0.025498326867818828928013985546 -0.004173071589320898056030273438 -0.000135381545987911495283403940 0 0 0 0 
2414000000.0000000000 0.187153324484825106521768134371 -0.027459945529699329030970389454 -0.004188625141978263854980468750 -0.000078455319453496485948562622 0 0 0 0 
2414166666.6666665077 0.188224062323570306975994981258 -0.029113188385963439941406250000 -0.004504216834902763366699218750 0.000218956120079383308261317120 0 0 0 0 
2414333333.3333334923 0.189347296953201293945312500000 -0.031047087162733081472376639454 -0.004286237526685000333304120801 0.000263216468738391995429992676 0 0 0 0 
2414500000.0000000000 0.190655976533889798263388115629 -0.032489378005266189575195312500 -0.004434934817254543304443359375 0.000576313002966344356536865234 0 0 0 0 
2414666666.6666665077 0.191727757453918512542401231258 -0.033858850598335273052175153907 -0.004529069643467664718627929688 0.000760584603995084762573242188 0 0 0 0 
2414833333.3333334923 0.192899912595748901367187500000 -0.035264566540718078613281250000 -0.004347929265350103378295898438 0.000826102506835013628005981445 0 0 0 0 
2415000000.0000000000 0.193948194384574890136718750000 -0.036612957715988159179687500000 -0.004349472001194953918457031250 0.000902085273992270231246948242 0 0 0 0 
2415166666.6666665077 0.195150673389434786697549384371 -0.037522602826356887817382812500 -0.004333574324846267700195312500 0.001044679316692054054857563550 0 0 0 0 
2415333333.3333334923 0.196256086230277987381143134371 -0.038475476205348968505859375000 -0.004418880213052034378051757812 0.001116745872423053004621196216 0 0 0 0 
2415500000.0000000000 0.197413548827171297928018134371 -0.039202839136123657226562500000 -0.004445980302989482879638671875 0.001248579355888068892835307544 0 0 0 0 
2415666666.6666665077 0.198352798819541903396768134371 -0.040057592093944549560546875000 -0.004421378020197153091430664062 0.001285731210373342037200927734 0 0 0 0 
2415833333.3333334923 0.199093133211135892013388115629 -0.040591362863779067993164062500 -0.004460688680410385131835937500 0.001617339905351399941685341943 0 0 0 0 
2416000000.0000000000 0.199820533394813509842080634371 -0.041194181889295578002929687500 -0.004408888518810272216796875000 0.001748555339872837066650390625 0 0 0 0 
2416166666.6666665077 0.200641274452209500411825615629 -0.041589733213186257099192033593 -0.004459965508431196212768554688 0.001903066411614418029785156250 0 0 0 0 
2416333333.3333334923 0.201228946447372408767861884371 -0.041867699474096298217773437500 -0.004518273752182722091674804688 0.002104408806189895109889365088 0 0 0 0 
2416500000.0000000000 0.201792463660240201095419365629 -0.042094450443983078002929687500 -0.004541616886854171752929687500 0.002330572577193378968479775537 0 0 0 0 
2416666666.6666665077 0.202006250619888305664062500000 -0.042396578937768943096120466407 -0.004382449667900800704956054688 0.002460785908624529838562011719 0 0 0 0 
2416833333.3333334923 0.202177420258522005935830634371 -0.042485095560550689697265625000 -0.004283753223717212677001953125 0.002641303231939672990086220850 0 0 0 0 
2417000000.0000000000 0.202274918556213406661825615629 -0.042627528309822082519531250000 -0.004323611967265605926513671875 0.002971409121528267860412597656 0 0 0 0 
2417166666.6666665077 0.201926112174987792968750000000 -0.042679049074649810791015625000 -0.004196222405880689620971679688 0.003113332903012632889988564600 0 0 0 0 
2417333333.3333334923 0.201757445931434603592080634371 -0.042313657701015472412109375000 -0.003995352424681186676025390625 0.003369543235749005837681435693 0 0 0 0 
2417500000.0000000000 0.201525300741195706466513115629 -0.042463723570108406757395158593 -0.003871028544381260871887207031 0.003391440492123364968540810693 0 0 0 0 
2417666666.6666665077 0.200906544923782404143963731258 -0.042278178036212921142578125000 -0.003697061911225318908691406250 0.003658804809674621062037802588 0 0 0 0 
2417833333.3333334923 0.200434342026710510253906250000 -0.042137831449508666992187500000 -0.003409220138564705848693847656 0.003962840419262647628784179688 0 0 0 0 
2418000000.0000000000 0.199833005666732788085937500000 -0.041853237897157669067382812500 -0.003505631582811474800109863281 0.004059613682329654693603515625 0 0 0 0 
2418166666.6666665077 0.198989406228065490722656250000 -0.041897945106029510498046875000 -0.003054871922358870939967490088 0.004089259076863527297973632812 0 0 0 0 
2418333333.3333334923 0.198113471269607488434161268742 -0.041715774685144417499582658593 -0.002879910636693239212036132812 0.004296443425118923187255859375 0 0 0 0 
2418500000.0000000000 0.197237282991409301757812500000 -0.041875008493661880493164062500 -0.002777693327516316933872841943 0.004348561167716979980468750000 0 0 0 0 
2418666666.6666665077 0.196169391274452209472656250000 -0.041787046939134597778320312500 -0.002617900492623447938206338037 0.004401759710162878036499023438 0 0 0 0 
2418833333.3333334923 0.194860443472862188141192518742 -0.041919209063053131103515625000 -0.002324457978829741911647177588 0.004466643556952477368826581738 0 0 0 0 
2419000000.0000000000 0.193640440702438410003338731258 -0.042163234204053878784179687500 -0.002216184046119451956508017432 0.004499353002756834030151367188 0 0 0 0 
2419166666.6666665077 0.192387804388999911209268134371 -0.042496133595705032348632812500 -0.001961366971954702897312783350 0.004484377801418303575997637012 0 0 0 0 
2419333333.3333334923 0.191032230854034396072549384371 -0.043066486716270446777343750000 -0.001747739850543438954594277490 0.004567313939332962036132812500 0 0 0 0 
2419500000.0000000000 0.189605385065078707595986884371 -0.043526463210582733154296875000 -0.001521445810794830105425190503 0.004519375972449780377859784863 0 0 0 0 
2419666666.6666665077 0.188035935163497897049111884371 -0.044289018958806991577148437500 -0.001465199398808181069017719800 0.004464590921998023986816406250 0 0 0 0 
2419833333.3333334923 0.186493188142776489257812500000 -0.045008867979049682617187500000 -0.001233023474924265904667519678 0.004540204536169767379760742188 0 0 0 0 
