# Hz S RI R 50
2400000000.0000000000 0.155990660190582303146200615629 0.061896190047264099121093750000 -0.004730338696390390396118164062 -0.000349249254213646108477991925 0 0 0 0 
2400166666.6666665077 0.155979871749877901931924384371 0.060262277722358696674387346093 -0.004454282112419605255126953125 -0.000171850173501297804430285043 0 0 0 0 
2400333333.3333334923 0.155849203467369107345419365629 0.058022525161504752422292341407 -0.004710256122052670392508222363 -0.000162981436005793511867523193 0 0 0 0 
2400500000.0000000000 0.155856266617774991134481865629 0.056102216243743903423268903907 -0.004855487961322069168090820312 -0.000100571327493526000850139479 0 0 0 0 
2400666666.6666665077 0.155872434377670288085937500000 0.053899403661489486694335937500 -0.004869403783231973648071289062 0.000244748051045462489128112793 0 0 0 0 
2400833333.3333334923 0.156125664710998507400674384371 0.051838625222444527362863908593 -0.004722928628325462341308593750 0.000212666593142785104826250620 0 0 0 0 
2401000000.0000000000 0.156410858035087613204794365629 0.049796137958765029907226562500 -0.004866139031946659088134765625 0.000433471344877034425735473633 0 0 0 0 
2401166666.6666665077 0.156733393669128390213174384371 0.047525640577077872539479841407 -0.004880397580564022064208984375 0.000634545926004648208618164062 0 0 0 0 
2401333333.3333334923 0.157036557793617304046307481258 0.045587100088596337055246721093 -0.004883496090769767761230468750 0.000559104548301547765731811523 0 0 0 0 
2401500000.0000000000 0.157479673624038696289062500000 0.043309085071086876606027971093 -0.004880694206804037094116210938 0.000849902047775685787200927734 0 0 0 0 
2401666666.6666665077 0.157949522137641906738281250000 0.041314881294965737079660783593 -0.004904393106698989868164062500 0.001013312255963682911516499097 0 0 0 0 
2401833333.3333334923 0.158651351928710909744424384371 0.039191465824842453002929687500 -0.005031260196119546890258789062 0.001097732689231633923174213940 0 0 0 0 
2402000000.0000000000 0.159021645784378107268963731258 0.037155900150537490844726562500 -0.004952368326485157012939453125 0.001106303767301141998888325269 0 0 0 0 
2402166666.6666665077 0.159809663891792297363281250000 0.035271562635898590087890625000 -0.004978367593139410018920898438 0.001576866838149725957157754053 0 0 0 0 
2402333333.3333334923 0.160381257534027099609375000000 0.033330392092466347431223283593 -0.004953282885253429412841796875 0.001485494780354202010511088794 0 0 0 0 
2402500000.0000000000 0.161491811275482205489950615629 0.031653918325901031494140625000 -0.004917558282613754272460937500 0.001657486893236636898638081128 0 0 0 0 
2402666666.6666665077 0.162314385175705011565838731258 0.030033953487873080862025076954 -0.004813249688595533370971679688 0.001931614475324749946594238281 0 0 0 0 
2402833333.3333334923 0.163213059306144686599893134371 0.028121417388319969177246093750 -0.004951123613864183425903320312 0.002017723396420478820800781250 0 0 0 0 
2403000000.0000000000 0.164099425077438410003338731258 0.026729289442300799978236014454 -0.004863387905061244964599609375 0.002165178768336772918701171875 0 0 0 0 
2403166666.6666665077 0.165312036871910095214843750000 0.025141526013612750661829764454 -0.004887377377599477767944335938 0.002402167767286301092860556494 0 0 0 0 
2403333333.3333334923 0.166361242532730102539062500000 0.023938024416565898550013358204 -0.004823582246899604797363281250 0.002507640514522790908813476562 0 0 0 0 
2403500000.0000000000 0.167080625891685513595419365629 0.022622168064117431640625000000 -0.004760172218084335327148437500 0.002783089643344283103942871094 0 0 0 0 
2403666666.6666665077 0.168286219239234896560830634371 0.021292744204401969909667968750 -0.004708977881819009780883789062 0.002770607359707355932948447119 0 0 0 0 
2403833333.3333334923 0.169456019997596712967080634371 0.019942170009016990661621093750 -0.004619490820914506912231445312 0.003029334126040339903590536963 0 0 0 0 
2404000000.0000000000 0.170583084225654602050781250000 0.019076069816946979867955391796 -0.004540961701422929763793945312 0.003140160348266363143920898438 0 0 0 0 
2404166666.6666665077 0.171583995223045404632244981258 0.017920706421136859548548514454 -0.004583918489515781402587890625 0.003249830799177289009094238281 0 0 0 0 
2404333333.3333334923 0.172661170363426208496093750000 0.017296086996793750417689139454 -0.004385917447507380571847246387 0.003459330881014465852024697412 0 0 0 0 
2404500000.0000000000 0.173519700765609713455361884371 0.016334151849150661123255545704 -0.004220036789774894714355468750 0.003570926375687121911289834131 0 0 0 0 
2404666666.6666665077 0.174505189061164911468182481258 0.015753876417875289916992187500 -0.004286017268896102905273437500 0.003672838211059569878819131006 0 0 0 0 
2404833333.3333334923 0.175584092736244201660156250000 0.015046330168843269348144531250 -0.004207512363791465759277343750 0.003987633623182773590087890625 0 0 0 0 
2405000000.0000000000 0.176500245928764287750567518742 0.014415712095797060185442539648 -0.004080588929355145368094159863 0.004152564797550439834594726562 0 0 0 0 
2405166666.6666665077 0.177300065755844088455361884371 0.013972908258438110351562500000 -0.003970961086452007293701171875 0.004401431884616613388061523438 0 0 0 0 
2405333333.3333334923 0.178155422210693387130575615629 0.013501342386007310694684413477 -0.003868095576763153076171875000 0.004378698300570250424856855176 0 0 0 0 
2405500000.0000000000 0.178794682025909396072549384371 0.013111741282045839482317539648 -0.003609300125390291213989257812 0.004642064683139324188232421875 0 0 0 0 
2405666666.6666665077 0.179288074374198913574218750000 0.012836472131311889993687813671 -0.003674026811495422883274697412 0.004732248373329638567452715137 0 0 0 0 
2405833333.3333334923 0.179711490869522094726562500000 0.012592214159667490178118320898 -0.003521652193740009827854775537 0.004795067477971315383911132812 0 0 0 0 
2406000000.0000000000 0.180229321122169494628906250000 0.012245205231010910379430001171 -0.003060608869418501853942871094 0.005028740037232637405395507812 0 0 0 0 
2406166666.6666665077 0.180434703826904296875000000000 0.012228371575474740809430507227 -0.003131383331492542786839150537 0.005105214659124612808227539062 0 0 0 0 
2406333333.3333334923 0.180891275405883789062500000000 0.011933803558349609375000000000 -0.002718905219808220863342285156 0.005196096841245889663696289062 0 0 0 0 
2406500000.0000000000 0.181077688932418795486611884371 0.011547315865755079442034336523 -0.002656111959367990927455283057 0.005335235036909580230712890625 0 0 0 0 
2406666666.6666665077 0.180988162755966186523437500000 0.011486041359603410202949724805 -0.002356359269469975991490029443 0.005525745917111635208129882812 0 0 0 0 
2406833333.3333334923 0.181157752871513394454794365629 0.011199046857655050105084804102 -0.002176787238568067984340048682 0.005524463485926389694213867188 0 0 0 0 
2407000000.0000000000 0.180989980697631808181924384371 0.010916573926806449890136718750 -0.001940450980328023000004433740 0.005612010136246681213378906250 0 0 0 0 
2407166666.6666665077 0.181082293391227694412393134371 0.010722828097641469782819179102 -0.001721528475172817923902202075 0.005458357278257608413696289062 0 0 0 0 
2407333333.3333334923 0.180571585893631009200888115629 0.010207837447524070739746093750 -0.001735357451252639076830219800 0.005870327353477478027343750000 0 0 0 0 
2407500000.0000000000 0.180306985974311800857705634371 0.009862661361694335937500000000 -0.001447541755624115900752402197 0.005678993184119462966918945312 0 0 0 0 
2407666666.6666665077 0.179972365498542813400106865629 0.009395509026944637298583984375 -0.001084252144210041002986288916 0.005746669601649045944213867188 0 0 0 0 
2407833333.3333334923 0.179362177848815890213174384371 0.008729179389774799346923828125 -0.000915394746698439121246337891 0.005822412669658660888671875000 0 0 0 0 
2408000000.0000000000 0.178917005658149691482705634371 0.007900439202785491943359375000 -0.000717741029802709817886352539 0.005910431966185569763183593750 0 0 0 0 
2408166666.6666665077 0.178366586565971402267294365629 0.007474725600332021713256835938 -0.000441647222032770514488220215 0.005674440879374743375296308301 0 0 0 0 
2408333333.3333334923 0.177787601947784396072549384371 0.006767442915588617324829101562 -0.000424163969000801389843541278 0.005718239117413759231567382812 0 0 0 0 
2408500000.0000000000 0.177005723118781987945880018742 0.005658756010234355926513671875 -0.000281846703728660886913853778 0.005713698454201222333426191113 0 0 0 0 
2408666666.6666665077 0.176301985979080200195312500000 0.004647224210202693939208984375 0.000046752404159633442759513855 0.005618713330477476119995117188 0 0 0 0 
2408833333.3333334923 0.175651386380195589920205634371 0.003646979574114083810093545068 0.000185969955055043101310729980 0.005647758021950721740722656250 0 0 0 0 
2409000000.0000000000 0.174703568220138605315838731258 0.002429447369650005860569619287 0.000279329571640119010775965558 0.005550106987357139587402343750 0 0 0 0 
2409166666.6666665077 0.173916071653366088867187500000 0.001186735229566693089128803784 0.000413397734519094174534398212 0.005637838970869779586791992188 0 0 0 0 
2409333333.3333334923 0.173251092433929387848223768742 -0.000190995750017464188024243765 0.000624130072537809610366821289 0.005758482031524181365966796875 0 0 0 0 
2409500000.0000000000 0.172369748353958102127236884371 -0.001677459222264588096021342700 0.000771520833950489759445190430 0.005592734087258577346801757812 0 0 0 0 
2409666666.6666665077 0.171714887022972106933593750000 -0.003145873779430985884425497900 0.000984306563623249530792236328 0.005490513052791357040405273438 0 0 0 0 
2409833333.3333334923 0.170810908079147311111611884371 -0.004700012505054473876953125000 0.001200527418404818014857626807 0.005483476910740137100219726562 0 0 0 0 
2410000000.0000000000 0.170140743255615206619424384371 -0.006294449325650930404663085938 0.001372985541820525906206440503 0.005341993179172278317923261426 0 0 0 0 
2410166666.6666665077 0.169606536626815795898437500000 -0.008028419688344001770019531250 0.001393129583448172049281454932 0.005287319421768189343924237988 0 0 0 0 
2410333333.3333334923 0.168820023536682101150674384371 -0.009825126267969608306884765625 0.001546851475723088004468608325 0.005280581768602132797241210938 0 0 0 0 
2410500000.0000000000 0.168443590402603204925213731258 -0.011682746000587940216064453125 0.001675248378887772993800497900 0.005070446524769067764282226562 0 0 0 0 
2410666666.6666665077 0.167964532971382113357705634371 -0.013800430111587049311627772852 0.001715033198706805922864604419 0.005108146928250789642333984375 0 0 0 0 
2410833333.3333334923 0.167380556464195306975994981258 -0.015515843406319619959821132227 0.002046508248895407156703329932 0.004999568220227956771850585938 0 0 0 0 
2411000000.0000000000 0.167117372155189486404580634371 -0.017353296279907230031946951954 0.002232576953247189955470419775 0.005038511008024215698242187500 0 0 0 0 
2411166666.6666665077 0.166893303394317599197549384371 -0.019519783556461330759068673046 0.002195554086938499970677041162 0.004883280489593744277954101562 0 0 0 0 
2411333333.3333334923 0.166733264923095703125000000000 -0.021432748064398769033411795704 0.002344297245144844055175781250 0.004836765583604574203491210938 0 0 0 0 
2411500000.0000000000 0.166516840457916287521200615629 -0.023684814572334289550781250000 0.002563931047916411919834756006 0.004696396645158529281616210938 0 0 0 0 
2411666666.6666665077 0.166678830981254605392294365629 -0.025493562221527099609375000000 0.002640395658090711073634482275 0.004572669044137001037597656250 0 0 0 0 
2411833333.3333334923 0.166710957884788513183593750000 -0.027501059696078300476074218750 0.002930203219875692887547158350 0.004421413410454989346975995801 0 0 0 0 
2412000000.0000000000 0.166887730360031100174111884371 -0.029624549672007560729980468750 0.003100045723840593858006142725 0.004411421250551939010620117188 0 0 0 0 
2412166666.6666665077 0.167021259665489196777343750000 -0.031490739434957497333567033593 0.002998885698616505102870322119 0.004379307385534048080444335938 0 0 0 0 
2412333333.3333334923 0.167561173439025906661825615629 -0.033372651785612113262136091407 0.003062429605051875114440917969 0.004208567086607217788696289062 0 0 0 0 
2412500000.0000000000 0.167868897318839999099893134371 -0.035411238670349121093750000000 0.003193801036104559898376464844 0.003994530998170375823974609375 0 0 0 0 
2412666666.6666665077 0.168372616171836908538494981258 -0.037406362593173980712890625000 0.003315559588372706933262490381 0.003808184294030069871189736475 0 0 0 0 
2412833333.3333334923 0.168789610266685513595419365629 -0.039155874401330947875976562500 0.003561689052730799154994345557 0.003866670420393348173854208838 0 0 0 0 
2413000000.0000000000 0.169457152485847500900106865629 -0.040894318372011191631276716407 0.003653355874121189117431640625 0.003554165828973054885864257812 0 0 0 0 
2413166666.6666665077 0.169876053929328890701455634371 -0.042618997395038611675222028907 0.003583972807973622842075966943 0.003494710894301534132716513525 0 0 0 0 
2413333333.3333334923 0.170560017228126498123330634371 -0.044261105358600623393972028907 0.003601293778046966032740927588 0.003462737193331121964695595850 0 0 0 0 
2413500000.0000000000 0.171306878328323392013388115629 -0.045976717025041580200195312500 0.003613536944612861113307333838 0.003367098979651927947998046875 0 0 0 0 
2413666666.6666665077 0.172088652849197387695312500000 -0.047215584665536880493164062500 0.004003948997706174850463867188 0.003136850893497467041015625000 0 0 0 0 
2413833333.3333334923 0.172506600618362399002236884371 -0.048768252134323120117187500000 0.003862379118800162835362099756 0.003003441030159593062159872900 0 0 0 0 
2414000000.0000000000 0.173145651817321805099325615629 -0.050076149404048919677734375000 0.003836516989395021958592080225 0.003044085344299674034118652344 0 0 0 0 
2414166666.6666665077 0.173823729157447787185830634371 -0.051248021423816680908203125000 0.003823573002591729164123535156 0.002721223048865795135498046875 0 0 0 0 
2414333333.3333334923 0.174543544650077792068643134371 -0.052420549094676971435546875000 0.003775442717596888975856161963 0.002591312630102037949803017725 0 0 0 0 
2414500000.0000000000 0.175280258059501703460369981258 -0.053357355296611792827565778907 0.004156969022005796432495117188 0.002469317754730581803562783350 0 0 0 0 
2414666666.6666665077 0.175733089447021512130575615629 -0.054232832044363021850585937500 0.004075943026691675186157226562 0.002413762966170907020568847656 0 0 0 0 
2414833333.3333334923 0.176377400755882290939169365629 -0.055179804563522338867187500000 0.004047369118779897689819335938 0.002301528118550777001621865381 0 0 0 0 
2415000000.0000000000 0.176890134811401394943075615629 -0.055834542959928512573242187500 0.003987493924796581268310546875 0.002083966042846440835240029443 0 0 0 0 
2415166666.6666665077 0.177325457334518404861611884371 -0.056484617292881011962890625000 0.003899968462064861817600869287 0.001998035935685039000270224463 0 0 0 0 
2415333333.3333334923 0.177801877260208102127236884371 -0.057188112288713462139089216407 0.004177012946456670761108398438 0.001783091225661336941960000146 0 0 0 0 
2415500000.0000000000 0.178043201565742492675781250000 -0.057449724525213241577148437500 0.004193668253719806671142578125 0.001666817930527030987980507959 0 0 0 0 
2415666666.6666665077 0.178299188613891601562500000000 -0.057830102741718292236328125000 0.004200267139822244644165039062 0.001683438895270227952244423975 0 0 0 0 
2415833333.3333334923 0.178605705499649103362713731258 -0.058127049356698989868164062500 0.004013774916529656323904706738 0.001483469037339091084123920972 0 0 0 0 
2416000000.0000000000 0.178651660680770901779013115629 -0.058633904904127120971679687500 0.004252668470144271850585937500 0.001367524033412337086321186597 0 0 0 0 
2416166666.6666665077 0.178829878568649291992187500000 -0.058765836060047149658203125000 0.004197675734758377075195312500 0.001222877181135118007659912109 0 0 0 0 
2416333333.3333334923 0.178548857569694491287393134371 -0.058895103633403778076171875000 0.004144718870520591735839843750 0.001165351830422878048540424878 0 0 0 0 
2416500000.0000000000 0.178540900349617004394531250000 -0.059182409197092063213307966407 0.004237092100083827972412109375 0.001184013905003667094587016528 0 0 0 0 
2416666666.6666665077 0.178198471665382413009481865629 -0.059172000735998146747629533593 0.004233234096318483352661132812 0.001025692909024656035779643481 0 0 0 0 
2416833333.3333334923 0.177923068404197692871093750000 -0.059458285570144653320312500000 0.004250405356287956237792968750 0.000926704728044569492340087891 0 0 0 0 
2417000000.0000000000 0.177398815751075689117755018742 -0.059689689427614212036132812500 0.004441686905920506391043378613 0.000997899333015084266662597656 0 0 0 0 
2417166666.6666665077 0.176898181438445989410723768742 -0.059641107916831970214843750000 0.004300408530980348587036132812 0.000733179389499127864837646484 0 0 0 0 
2417333333.3333334923 0.176230713725089999099893134371 -0.059663206338882453227956403907 0.004354158416390419006347656250 0.000555454520508646965026855469 0 0 0 0 
2417500000.0000000000 0.175510928034782409667968750000 -0.060123298317193991924245466407 0.004282726440578699111938476562 0.000770826241932809352874755859 0 0 0 0 
2417666666.6666665077 0.174799650907516507247763115629 -0.060031976550817489624023437500 0.004275458399206399917602539062 0.000481023133033886606067103253 0 0 0 0 
2417833333.3333334923 0.173860847949981689453125000000 -0.060254044830799102783203125000 0.004175334703177213668823242188 0.000238521068240515887737274170 0 0 0 0 
2418000000.0000000000 0.172755375504493713378906250000 -0.060721695423126220703125000000 0.004157147835940122604370117188 0.000170689090737141695901593619 0 0 0 0 
2418166666.6666665077 0.171719431877136202713174384371 -0.060938447713851928710937500000 0.004229129292070865631103515625 0.000114625916467048200681963510 0 0 0 0 
2418333333.3333334923 0.170782044529914911468182481258 -0.061335738748312003398854841407 0.004182207863777875900268554688 0.000086356667452491819858551025 0 0 0 0 
2418500000.0000000000 0.169697389006614712814169365629 -0.061789795756340026855468750000 0.004254067782312631607055664062 -0.000124325539218261810854235239 0 0 0 0 
2418666666.6666665077 0.168451040983200100997763115629 -0.062288399785757071758229841407 0.004053942393511533737182617188 -0.000226557953283190700128832407 0 0 0 0 
2418833333.3333334923 0.167119830846786499023437500000 -0.062870763242244720458984375000 0.004092711023986339569091796875 -0.000238790758885443210601806641 0 0 0 0 
2419000000.0000000000 0.165559098124504089355468750000 -0.063560321927070617675781250000 0.004101880826056003570556640625 -0.000401577854063361883163452148 0 0 0 0 
2419166666.6666665077 0.164481878280639703948651231258 -0.064288459718227386474609375000 0.004071008879691362380981445312 -0.000412561057601124102443140851 0 0 0 0 
2419333333.3333334923 0.163110896944999694824218750000 -0.064973384141921997070312500000 0.004131318535655736923217773438 -0.000589890696574002504348754883 0 0 0 0 
2419500000.0000000000 0.161843702197074890136718750000 -0.066102243959903717041015625000 0.004022108856588602066040039062 -0.000712599314283579587936401367 0 0 0 0 
2419666666.6666665077 0.160615503787994412521200615629 -0.067170150578022003173828125000 0.003996103536337614059448242188 -0.000742581323720514774322509766 0 0 0 0 
2419833333.3333334923 0.159305155277252197265625000000 -0.068060472607612609863281250000 0.004113346803933382034301757812 -0.000783450843300670385360717773 0 0 0 0 
2420000000.0000000000 0.158217474818229703048544365629 -0.069233730435371398925781250000 0.003844045102596282958984375000 -0.000854563724715262651443481445 0 0 0 0 
