# Hz S RI R 50
2400000000.0000000000 0.167857810854911804199218750000 0.040704779326915740966796875000 0.003013489767909049987792968750 0.001428478513844311020494770581 0 0 0 0 
2400166666.6666665077 0.168530464172363309005575615629 0.040204446762800216674804687500 0.002702855272218585014343261719 0.001463194261305033943773579175 0 0 0 0 
2400333333.3333334923 0.168994918465614291092080634371 0.039267320185899727558176408593 0.002676136791706085205078125000 0.001115685794502496936200786060 0 0 0 0 
2400500000.0000000000 0.169637754559516906738281250000 0.038310669362545013427734375000 0.002460021292790770964381552588 0.001185426372103393077850341797 0 0 0 0 
2400666666.6666665077 0.170090079307556207854901231258 0.037470135837793350219726562500 0.002587410388514399962184286963 0.000874281104188412427902221680 0 0 0 0 
2400833333.3333334923 0.170569211244583102127236884371 0.036605861037969589233398437500 0.002553409663960338072535849463 0.000924652384128421653448903772 0 0 0 0 
2401000000.0000000000 0.170965239405631991287393134371 0.035799004137516021728515625000 0.002370718866586685180664062500 0.000640281301457434892654418945 0 0 0 0 
2401166666.6666665077 0.171190723776817294021768134371 0.034790240228176116943359375000 0.002441659569740294976475381006 0.000718902738299220800399780273 0 0 0 0 
2401333333.3333334923 0.171340286731719998458700615629 0.034092862159013748168945312500 0.002205919474363327026367187500 0.000523728260304778814315795898 0 0 0 0 
2401500000.0000000000 0.171763956546783502776776231258 0.033365014940500259399414062500 0.002242999151349068121669150244 0.000540779903531074523925781250 0 0 0 0 
2401666666.6666665077 0.171993806958198602874432481258 0.032570462673902511596679687500 0.002031278796494007110595703125 0.000422695535235106999247950421 0 0 0 0 
2401833333.3333334923 0.172243282198905889313067518742 0.031706552952527999877929687500 0.002146320650354028181788779150 0.000383971666451543623774927960 0 0 0 0 
2402000000.0000000000 0.172033160924911499023437500000 0.030723305419087409973144531250 0.002002518391236662864685058594 0.000430785265052691102027893066 0 0 0 0 
2402166666.6666665077 0.172198429703712491134481865629 0.029840188100934028625488281250 0.001813287148252129988429404150 0.000275675178272649700015467511 0 0 0 0 
2402333333.3333334923 0.172269269824027987381143134371 0.028849489986896518362025076954 0.001907324534840882041333842700 0.000328677153447642922401428223 0 0 0 0 
2402500000.0000000000 0.172406762838363702972088731258 0.028361663222312930715540701954 0.001743294647894799926160502856 0.000530431221704930067062377930 0 0 0 0 
2402666666.6666665077 0.172262415289878900725994981258 0.027143608778715130197545235546 0.001614553155377506992937397534 0.000466312107164412682682591571 0 0 0 0 
2402833333.3333334923 0.172349750995635986328125000000 0.026175865903496738779088204296 0.001647395780310034968732524341 0.000763701216783374547958374023 0 0 0 0 
2403000000.0000000000 0.172250851988792391678018134371 0.025152741000056270254114920704 0.001696072169579565958735800635 0.000736736401449888944625854492 0 0 0 0 
2403166666.6666665077 0.172237768769264193435830634371 0.024171214550733569753626639454 0.001803178340196609930751181494 0.000886903784703463315963745117 0 0 0 0 
2403333333.3333334923 0.171981543302536010742187500000 0.023009253665804859506627266796 0.001821750542148947932599711841 0.000884956622030586004257202148 0 0 0 0 
2403500000.0000000000 0.171966552734375000000000000000 0.021906519308686259878138358204 0.001931744511239231066462851416 0.000824694463517516851425170898 0 0 0 0 
2403666666.6666665077 0.171723037958145113845986884371 0.020575230941176411020299141796 0.002212475752457975907566689600 0.001047778408974409103393554688 0 0 0 0 
2403833333.3333334923 0.171783879399299593826455634371 0.019492134451866149902343750000 0.002265261486172676086425781250 0.000944489729590713977813720703 0 0 0 0 
2404000000.0000000000 0.171453088521957397460937500000 0.018240353092551231384277343750 0.002533531980589032173156738281 0.000902995525393635034561157227 0 0 0 0 
2404166666.6666665077 0.171167850494384793380575615629 0.016850136220455169677734375000 0.002578237093985081152675009619 0.000863898196257650852203369141 0 0 0 0 
2404333333.3333334923 0.170965269207954406738281250000 0.015701828524470329284667968750 0.002583269262686371803283691406 0.000660448975395411252975463867 0 0 0 0 
2404500000.0000000000 0.170829176902770996093750000000 0.014066976495087150228480155079 0.002713130088523029847386025537 0.000579852494411170482635498047 0 0 0 0 
2404666666.6666665077 0.170845687389373807052450615629 0.012957656756043430673619454296 0.002886295085772871971130371094 0.000247849500738084316253662109 0 0 0 0 
2404833333.3333334923 0.170760169625282287597656250000 0.011427865363657479721992693555 0.002872468670830131010768271338 0.000287218863377347588539123535 0 0 0 0 
2405000000.0000000000 0.170594215393066406250000000000 0.009943417273461818695068359375 0.002901263302192091941833496094 0.000198169553186744505732935773 0 0 0 0 
2405166666.6666665077 0.170512259006500188629473768742 0.008445554412901401519775390625 0.002988889580592513084411621094 -0.000141200536745600402355194092 0 0 0 0 
2405333333.3333334923 0.170481055974960299392861884371 0.006788004189729691419119550488 0.002878148574382067160365439307 -0.000121348697575740502633233342 0 0 0 0 
2405500000.0000000000 0.170387297868728609939736884371 0.005390429869294167432303144238 0.002976567251607776121852255713 -0.000186406759894452989101409912 0 0 0 0 
2405666666.6666665077 0.170211240649223299881143134371 0.003890187246724963188171386719 0.002947632689028977914097451318 -0.000349682261003181284100133075 0 0 0 0 
2405833333.3333334923 0.170064434409141512771768134371 0.002207882702350616888758993994 0.002943368162959814071655273438 -0.000525153358466923236846923828 0 0 0 0 
2406000000.0000000000 0.170009881258010892013388115629 0.000533640559297055006027221680 0.002948441542685031890869140625 -0.000524682924151420593261718750 0 0 0 0 
2406166666.6666665077 0.169784441590309087555255018742 -0.001085978467017411968828510815 0.002867108676582574844360351562 -0.000933683069888502359390258789 0 0 0 0 
2406333333.3333334923 0.169767141342163113693075615629 -0.002658277982845902009251259912 0.002776040928438305854797363281 -0.000935382151510566473007202148 0 0 0 0 
2406500000.0000000000 0.169464886188507107833700615629 -0.004233798477798700332641601562 0.002885797293856739997863769531 -0.000966362305916845798492431641 0 0 0 0 
2406666666.6666665077 0.169156983494758605957031250000 -0.005891309585422278317923261426 0.002680520294234157042262411963 -0.001043841359205543994903564453 0 0 0 0 
2406833333.3333334923 0.169042468070983886718750000000 -0.007423674222081899642944335938 0.002690386725589632987976074219 -0.001466567977331578948377299731 0 0 0 0 
2407000000.0000000000 0.169075012207031305511151231258 -0.009010490030050277709960937500 0.002565478440374135971069335938 -0.001327056554146111011505126953 0 0 0 0 
2407166666.6666665077 0.168952032923698397537393134371 -0.010424885898828509939173514454 0.002417390234768391089198447119 -0.001484290696680546023725200122 0 0 0 0 
2407333333.3333334923 0.168479636311531094650106865629 -0.011862669140100480860700038477 0.002376197371631861166713095557 -0.001490154303610325076459575122 0 0 0 0 
2407500000.0000000000 0.168421864509582491775674384371 -0.013235516846179960423479649023 0.002193420892581344084498740088 -0.001515384647063910961151123047 0 0 0 0 
2407666666.6666665077 0.168256610631942804534588731258 -0.014358142390847209585169608204 0.002212306484580039978027343750 -0.001660656067542731978772807544 0 0 0 0 
2407833333.3333334923 0.168076679110527010818643134371 -0.015638016164302829397181326954 0.002207897137850522994995117188 -0.001845596358180046081542968750 0 0 0 0 
2408000000.0000000000 0.167864039540290804763955634371 -0.016846202313899990427037423046 0.002033820375800133185145712744 -0.001900749164633452892303466797 0 0 0 0 
2408166666.6666665077 0.167866230010986300369424384371 -0.017668776214122768747349923046 0.001860094838775693936588906396 -0.001653389306738973097560263525 0 0 0 0 
2408333333.3333334923 0.167937844991683987716513115629 -0.018872480839490890502929687500 0.001645411481149495081660605322 -0.001822062884457408948185586084 0 0 0 0 
2408500000.0000000000 0.168003708124160794357138115629 -0.019877647981047630310058593750 0.001644380041398108005523681641 -0.001957912929356098175048828125 0 0 0 0 
2408666666.6666665077 0.168145000934600802322549384371 -0.020842866972088810312291329296 0.001541995443403721072553325122 -0.001819061697460711002349853516 0 0 0 0 
2408833333.3333334923 0.168080538511276300628338731258 -0.021654035896062850952148437500 0.001505656749941409067866660010 -0.001715150778181850910186767578 0 0 0 0 
2409000000.0000000000 0.168259635567665100097656250000 -0.022622246295213699340820312500 0.001465262845158576965332031250 -0.001637844368815422058105468750 0 0 0 0 
2409166666.6666665077 0.168584689497947692871093750000 -0.023567801341414451599121093750 0.001440413994714617946027446216 -0.001609217724762856960296630859 0 0 0 0 
2409333333.3333334923 0.168852254748344393631143134371 -0.024398872628808021545410156250 0.001351956161670387008069682544 -0.001632853993214667060254741138 0 0 0 0 
2409500000.0000000000 0.168883085250854492187500000000 -0.025542844086885448801060860546 0.001497578341513871929766010815 -0.001529327128082514026044536060 0 0 0 0 
2409666666.6666665077 0.169123068451881408691406250000 -0.026329798623919490468958670704 0.001399863860569894096971821362 -0.001470667659305036067962646484 0 0 0 0 
2409833333.3333334923 0.169186949729919405838174384371 -0.027082478627562519418736641796 0.001506590167991816997528076172 -0.001444780151359736919403076172 0 0 0 0 
2410000000.0000000000 0.169457226991653386871661268742 -0.028167793527245521545410156250 0.001595076289959252097486186450 -0.001563932746648789102669740991 0 0 0 0 
2410166666.6666665077 0.169646322727203396896200615629 -0.029078278690576549875279610546 0.001517990604043006896972656250 -0.001689718803390860991237021338 0 0 0 0 
2410333333.3333334923 0.169634133577346801757812500000 -0.029970681294798851013183593750 0.001583248493261635086656879956 -0.001640051836147903962376259912 0 0 0 0 
2410500000.0000000000 0.169741094112396212478799384371 -0.030874280259013179433802420704 0.001635841443203390078303671729 -0.001766386907547711892368935693 0 0 0 0 
2410666666.6666665077 0.169459700584411593338174384371 -0.031848505139350891113281250000 0.001717557432129978916765522534 -0.001799511373974383094190288013 0 0 0 0 
2410833333.3333334923 0.169689998030662508865518134371 -0.032556749880313873291015625000 0.001809642766602336926701211084 -0.001892152475193143107770610278 0 0 0 0 
2411000000.0000000000 0.169505074620246887207031250000 -0.033319074660539627075195312500 0.001716068480163813071009970557 -0.002046023961156607107875204932 0 0 0 0 
2411166666.6666665077 0.169426202774047907073651231258 -0.034434974193572998046875000000 0.001597982016392051956774067456 -0.002368194516748189926147460938 0 0 0 0 
2411333333.3333334923 0.169384032487869290450888115629 -0.035179380327463150024414062500 0.001630696468055248043657612378 -0.002256495645269751982447958838 0 0 0 0 
2411500000.0000000000 0.169092267751693697830361884371 -0.036046188324689872051198591407 0.001528651337139309103127504663 -0.002527868375182151794433593750 0 0 0 0 
2411666666.6666665077 0.169080451130867004394531250000 -0.037067536264657967304270158593 0.001118798623792826912523579175 -0.002490794053301215171813964844 0 0 0 0 
2411833333.3333334923 0.168713241815566988845986884371 -0.037628799676895141601562500000 0.001547474996186793067334819263 -0.002605285495519638061523437500 0 0 0 0 
2412000000.0000000000 0.168661668896675109863281250000 -0.038642257452011108398437500000 0.001304529490880667946459126050 -0.002625611145049334006068564307 0 0 0 0 
2412166666.6666665077 0.168409064412117004394531250000 -0.039539910852909088134765625000 0.001232384936884046034571982275 -0.002657411387190223173854208838 0 0 0 0 
2412333333.3333334923 0.168192535638809204101562500000 -0.040276214480400092388112653907 0.001310222898609936020494770581 -0.002622995525598526000976562500 0 0 0 0 
2412500000.0000000000 0.167630270123481805999432481258 -0.041085179895162582397460937500 0.001021220581606030897853232275 -0.002772652078419924216029501807 0 0 0 0 
2412666666.6666665077 0.167483016848564203460369981258 -0.042274769395589828491210937500 0.001153467572294176058528281104 -0.002861205721274017853977822412 0 0 0 0 
2412833333.3333334923 0.166971698403358487228231865629 -0.043219488114118582988698591407 0.001018499373458326079724955981 -0.002975817536935209794285439600 0 0 0 0 
2413000000.0000000000 0.166591152548790005782919365629 -0.044055033475160598754882812500 0.000925935339182615280151367188 -0.003000722499564290046691894531 0 0 0 0 
2413166666.6666665077 0.166238650679588290115518134371 -0.045077778398990631103515625000 0.000749847909901291131973266602 -0.003178880084306002096888876807 0 0 0 0 
2413333333.3333334923 0.165705546736717196365518134371 -0.045950073748826980590820312500 0.000854979269206523895263671875 -0.003300718031823635101318359375 0 0 0 0 
2413500000.0000000000 0.165074989199638394454794365629 -0.047055836766958236694335937500 0.000709844927769154310226440430 -0.003376690670847893194911337744 0 0 0 0 
2413666666.6666665077 0.164787873625755310058593750000 -0.048065535724163062358815778907 0.000509006495121866464614868164 -0.003549768123775721029994345557 0 0 0 0 
2413833333.3333334923 0.164236858487129211425781250000 -0.048923667520284652709960937500 0.000359442463377490585476475848 -0.003621245734393597082850790869 0 0 0 0 
2414000000.0000000000 0.163598984479904202560263115629 -0.049948006868362426757812500000 0.000259709049714729189872741699 -0.003775775898247956795933388818 0 0 0 0 
2414166666.6666665077 0.163282960653305109222088731258 -0.050792876631021499633789062500 0.000058987923694076023321559293 -0.003861224045976995988133095850 0 0 0 0 
2414333333.3333334923 0.162673577666282709319744981258 -0.051796481013298041606862653907 -0.000320866354741156101226806641 -0.003968924283981323242187500000 0 0 0 0 
2414500000.0000000000 0.162419095635414095779580634371 -0.052690174430608749389648437500 -0.000446072430349886417388916016 -0.003960365895181894302368164062 0 0 0 0 
2414666666.6666665077 0.162185057997703607757244981258 -0.053620208054780960083007812500 -0.000791930768173187971115112305 -0.004082817584276199340820312500 0 0 0 0 
2414833333.3333334923 0.161748051643371609786825615629 -0.054576359689235687255859375000 -0.001042762189172208092333149487 -0.004188480321317911148071289062 0 0 0 0 
2415000000.0000000000 0.161547571420669611175213731258 -0.055671203881502151489257812500 -0.001230838475748897032496786963 -0.003893267363309859795811318506 0 0 0 0 
2415166666.6666665077 0.161240547895431490799111884371 -0.056659143418073647235910783593 -0.001553597743622959093806601416 -0.003818564116954803900477743994 0 0 0 0 
2415333333.3333334923 0.161288708448410006424111884371 -0.058008782565593719482421875000 -0.001841695280745625929591513525 -0.003786468645557761192321777344 0 0 0 0 
2415500000.0000000000 0.160895556211471613128338731258 -0.059018313884735107421875000000 -0.002050662413239479064941406250 -0.003541697282344102859497070312 0 0 0 0 
2415666666.6666665077 0.160656347870826693435830634371 -0.060207452625036239624023437500 -0.002189354272559285163879394531 -0.003356029046699405150172568213 0 0 0 0 
2415833333.3333334923 0.160561472177505493164062500000 -0.061351120471954352642018903907 -0.002227192511782050132751464844 -0.003112253034487367110011435400 0 0 0 0 
2416000000.0000000000 0.160089701414108304122763115629 -0.062588617205619812011718750000 -0.002542964881286025047302246094 -0.003124112030491232872009277344 0 0 0 0 
2416166666.6666665077 0.160116776823997497558593750000 -0.063954517245292663574218750000 -0.002447684761136769814732216943 -0.002729306695982813835144042969 0 0 0 0 
2416333333.3333334923 0.159651756286621093750000000000 -0.065076351165771484375000000000 -0.002579407999292016029357910156 -0.002716632094234228134155273438 0 0 0 0 
2416500000.0000000000 0.159326478838920593261718750000 -0.066526263952255249023437500000 -0.002562832785770297050476074219 -0.002496279310435057120082236182 0 0 0 0 
2416666666.6666665077 0.159052148461341913421307481258 -0.067604884505271911621093750000 -0.002678026445209980010986328125 -0.002367737470194696946385048975 0 0 0 0 
2416833333.3333334923 0.158749207854270907303018134371 -0.068895846605300903320312500000 -0.002607761882245541052577353369 -0.002027426846325397925135947119 0 0 0 0 
2417000000.0000000000 0.158234640955924987792968750000 -0.070172794163227081298828125000 -0.002854602644219994978663779150 -0.002113927854225039915797568213 0 0 0 0 
2417166666.6666665077 0.157978966832161005218182481258 -0.071157537400722503662109375000 -0.002851232420653105215785361182 -0.001962027279660106138942099463 0 0 0 0 
2417333333.3333334923 0.157638207077980013748330634371 -0.072284400463104248046875000000 -0.002972702495753765106201171875 -0.001685123774223030047175742041 0 0 0 0 
2417500000.0000000000 0.157240286469459505935830634371 -0.073377974331378936767578125000 -0.003049851860851048989536904443 -0.001517316559329628944396972656 0 0 0 0 
2417666666.6666665077 0.156982377171516390701455634371 -0.074262589216232299804687500000 -0.002952706301584839820861816406 -0.001399046508595346970799111475 0 0 0 0 
2417833333.3333334923 0.156733259558677701095419365629 -0.075064726173877716064453125000 -0.003089467994868754906895302881 -0.001103530288673937103868794019 0 0 0 0 
2418000000.0000000000 0.156351938843727111816406250000 -0.076230473816394805908203125000 -0.002993470290675758881809853662 -0.000960091187153011560440063477 0 0 0 0 
2418166666.6666665077 0.156075477600097711761151231258 -0.076922357082366943359375000000 -0.002796287648379803137538290869 -0.000915137236006557941436767578 0 0 0 0 
2418333333.3333334923 0.156091392040252713302450615629 -0.077853113412857055664062500000 -0.002708876971155405044555664062 -0.000611672818195074796676635742 0 0 0 0 
2418500000.0000000000 0.155777215957641601562500000000 -0.078727804124355316162109375000 -0.002565900795161724090576171875 -0.000540899811312556266784667969 0 0 0 0 
2418666666.6666665077 0.155625388026237487792968750000 -0.079665854573249816894531250000 -0.002542723668739200072047568213 -0.000436271860962733626365661621 0 0 0 0 
2418833333.3333334923 0.155109286308288601974325615629 -0.080550476908683776855468750000 -0.002354527823626995086669921875 -0.000474197848234325701564234601 0 0 0 0 
2419000000.0000000000 0.154789417982101412674111884371 -0.081159397959709167480468750000 -0.002238111104816197915318154443 -0.000459903094451874494552612305 0 0 0 0 
2419166666.6666665077 0.154676318168640108963174384371 -0.081998877227306365966796875000 -0.002357324585318564934971474756 -0.000423127959948033094406127930 0 0 0 0 
2419333333.3333334923 0.154249534010887201507244981258 -0.082480996847152709960937500000 -0.002089994261041284041163779150 -0.000473788444651290774345397949 0 0 0 0 
2419500000.0000000000 0.153956905007362393478231865629 -0.083392322063446044921875000000 -0.002120829420164227919337607275 -0.000472580955829471403926295148 0 0 0 0 
2419666666.6666665077 0.153784200549125699142294365629 -0.084028892219066619873046875000 -0.002021778607740997834446572412 -0.000572206859942525625228881836 0 0 0 0 
2419833333.3333334923 0.153457716107368496993856865629 -0.084627680480480194091796875000 -0.002019074279814959006068564307 -0.000440905598225072026252746582 0 0 0 0 
