# Hz S RI R 50
2400000000.0000000000 0.173206150531768798828125000000 0.048906199634075171733815778907 -0.002251890953630208969116210938 0.003920461516827344894409179688 0 0 0 0 
2400166666.6666665077 0.173980310559272793868856865629 0.048333261162042617797851562500 -0.002432335633784532980677939307 0.004118170123547315597534179688 0 0 0 0 
2400333333.3333334923 0.174336299300193786621093750000 0.047548223286867141723632812500 -0.002196874236688017845153808594 0.004094530362635850906372070312 0 0 0 0 
2400500000.0000000000 0.174864858388900812347088731258 0.046829655766487121582031250000 -0.002248685341328382925746298682 0.004138569347560405731201171875 0 0 0 0 
2400666666.6666665077 0.175155133008956909179687500000 0.046222843229770660400390625000 -0.002283494919538497924804687500 0.004316732753068208694458007812 0 0 0 0 
2400833333.3333334923 0.175485074520111111739950615629 0.045532893389463431621511091407 -0.002206693403422832922694540869 0.004388166591525077819824218750 0 0 0 0 
2401000000.0000000000 0.175527319312095586578692518742 0.045109417289495468139648437500 -0.002310675336048007011413574219 0.004664292559027671813964843750 0 0 0 0 
2401166666.6666665077 0.175973892211914090255575615629 0.044391941279172897338867187500 -0.002064827596768736839294433594 0.004841674584895372390747070312 0 0 0 0 
2401333333.3333334923 0.175886437296867398361044365629 0.043611276894807822490651716407 -0.001994323916733264923095703125 0.005053041037172079086303710938 0 0 0 0 
2401500000.0000000000 0.176188439130783108810263115629 0.043068572878837592388112653907 -0.001890404964797198989270854419 0.005203439388424158096313476562 0 0 0 0 
2401666666.6666665077 0.176159694790840204436932481258 0.042481556534767150878906250000 -0.001755124772898853042005229419 0.005465576425194740295410156250 0 0 0 0 
2401833333.3333334923 0.176344633102416992187500000000 0.041580908000469207763671875000 -0.001627640333026648001429892432 0.005548844113945960998535156250 0 0 0 0 
2402000000.0000000000 0.175886511802673312088174384371 0.040855426341295242309570312500 -0.001409080927260220050811767578 0.005781031679362058639526367188 0 0 0 0 
2402166666.6666665077 0.175933942198753412444744981258 0.039704270660877227783203125000 -0.001212649047374724908116006006 0.005938166286796331405639648438 0 0 0 0 
2402333333.3333334923 0.175811529159545898437500000000 0.038845814764499657367746721093 -0.000954029674176126718521118164 0.006019007414579392346853925488 0 0 0 0 
2402500000.0000000000 0.175865352153778103927450615629 0.038033429533243179321289062500 -0.000581996457185596227645874023 0.006190799642354249954223632812 0 0 0 0 
2402666666.6666665077 0.175506576895713806152343750000 0.036814719438552863384206403907 -0.000450891355285421013832092285 0.006122927647083997726440429688 0 0 0 0 
2402833333.3333334923 0.175211429595947293380575615629 0.035692200064659118652343750000 -0.000150583466165699091836652213 0.006199553608894348144531250000 0 0 0 0 
2403000000.0000000000 0.174885109066963195800781250000 0.034566264599561691284179687500 0.000077088552643544971942901611 0.006279455963522195816040039062 0 0 0 0 
2403166666.6666665077 0.174572989344596890548544365629 0.033064525574445717548410783593 0.000478802277939394116401672363 0.006399920675903558731079101562 0 0 0 0 
2403333333.3333334923 0.174322232604026794433593750000 0.031619030982255942607839216407 0.000648521468974649906158447266 0.006345548201352357864379882812 0 0 0 0 
2403500000.0000000000 0.173710167407989501953125000000 0.030176248401403430593470389454 0.001135415630415081977844238281 0.006294769700616598129272460938 0 0 0 0 
2403666666.6666665077 0.173522666096687289138955634371 0.028603946790099140512486641796 0.001224872772581875107408833081 0.006239071488380432128906250000 0 0 0 0 
2403833333.3333334923 0.173025786876678494552450615629 0.026906000450253490102747733204 0.001493683434091507954838418115 0.006173050031065940856933593750 0 0 0 0 
2404000000.0000000000 0.172791361808776910979901231258 0.025136791169643398630162423046 0.001578403636813163974164653247 0.006049263756722211837768554688 0 0 0 0 
2404166666.6666665077 0.172383546829223605056924384371 0.023417126387357708322545235546 0.001900256727822124958038330078 0.005787212401628494262695312500 0 0 0 0 
2404333333.3333334923 0.172030508518218994140625000000 0.021451404318213459360142891796 0.002173186512663960890529013525 0.005882513243705034255981445312 0 0 0 0 
2404500000.0000000000 0.171689391136169405838174384371 0.019654041156172748910924141796 0.002222511218860744996311806787 0.005654373206198216351980878613 0 0 0 0 
2404666666.6666665077 0.171370401978492709060830634371 0.017736649140715599060058593750 0.002402090467512608008143759619 0.005525374785065650939941406250 0 0 0 0 
2404833333.3333334923 0.171297281980514498611611884371 0.015827760100364688528040701954 0.002607279457151889801025390625 0.005521343089640141400809003613 0 0 0 0 
2405000000.0000000000 0.171100407838821411132812500000 0.013645160011947160202949724805 0.002688297536224126815795898438 0.005465090740472078323364257812 0 0 0 0 
2405166666.6666665077 0.170825079083442687988281250000 0.011672453954815869767158709180 0.002949952613562345938441611182 0.005355011671781539916992187500 0 0 0 0 
2405333333.3333334923 0.170963495969772311111611884371 0.009456767700612545013427734375 0.003073785919696093039271689307 0.005268101580440998077392578125 0 0 0 0 
2405500000.0000000000 0.171050056815147399902343750000 0.007606605533510447415823652051 0.003083355724811553955078125000 0.004896198865026235580444335938 0 0 0 0 
2405666666.6666665077 0.170888841152191189864950615629 0.005632030777633190155029296875 0.003351547755300999121425009619 0.005033109337091445922851562500 0 0 0 0 
2405833333.3333334923 0.170940339565277099609375000000 0.003532857168465853171107626807 0.003560147481039166884181357275 0.004923003260046243667602539062 0 0 0 0 
2406000000.0000000000 0.171400099992752102950888115629 0.001368545112200080914738320459 0.003537562442943453788757324219 0.004883139859884977340698242188 0 0 0 0 
2406166666.6666665077 0.171417400240898104568643134371 -0.000555354519747197628021240234 0.003668599994853138923645019531 0.004891013726592063903808593750 0 0 0 0 
2406333333.3333334923 0.171972453594207791427450615629 -0.002644177293404936790466308594 0.003891725093126296997070312500 0.004835805855691432952880859375 0 0 0 0 
2406500000.0000000000 0.172374159097671508789062500000 -0.004697179887443780899047851562 0.003977404907345771789550781250 0.004759853705763816833496093750 0 0 0 0 
2406666666.6666665077 0.172678887844085693359375000000 -0.006624707486480475339407636426 0.004365415312349796295166015625 0.004526304081082344055175781250 0 0 0 0 
2406833333.3333334923 0.173133790493011502364950615629 -0.008676336146891117095947265625 0.004515557549893856048583984375 0.004438326694071292877197265625 0 0 0 0 
2407000000.0000000000 0.173879936337471008300781250000 -0.010650609619915490586250506055 0.004697602707892656326293945312 0.004357124213129281997680664062 0 0 0 0 
2407166666.6666665077 0.174476906657218905349893134371 -0.012414807453751560556431954296 0.004816375207155942916870117188 0.004254859872162342071533203125 0 0 0 0 
2407333333.3333334923 0.175138548016548212249432481258 -0.014458973892033100128173828125 0.005190974567085505399222089551 0.004011014476418495178222656250 0 0 0 0 
2407500000.0000000000 0.175732269883155794998330634371 -0.016164219006896018981933593750 0.005345635116100311279296875000 0.003866655286401509804966591943 0 0 0 0 
2407666666.6666665077 0.176471859216690091232138115629 -0.017943184822797778738001639454 0.005526976659893990430350019238 0.003664071206003427939174033057 0 0 0 0 
2407833333.3333334923 0.177111282944679288009481865629 -0.019734483212232589721679687500 0.005677579436451196670532226562 0.003322592703625559806823730469 0 0 0 0 
2408000000.0000000000 0.177737623453140286544638115629 -0.021385231986641880380650704296 0.005998841486871243390555097363 0.003103993367403746084925986182 0 0 0 0 
2408166666.6666665077 0.178405657410621587555255018742 -0.022840017452836040151575858204 0.006113548297435045242309570312 0.002866292838007212118861533057 0 0 0 0 
2408333333.3333334923 0.179197743535041809082031250000 -0.024260058999061581003209298046 0.006175283342599868774414062500 0.002346062799915670914890908350 0 0 0 0 
2408500000.0000000000 0.179796203970909090896768134371 -0.025770742446184158325195312500 0.006326171569526196393484784863 0.002213587285950779914855957031 0 0 0 0 
2408666666.6666665077 0.180295944213867187500000000000 -0.027085088193416598928431326954 0.006158112548291683197021484375 0.001861082622781395912170410156 0 0 0 0 
2408833333.3333334923 0.180792525410652188400106865629 -0.028279941529035571706751639454 0.006246522068977355957031250000 0.001477609504945575974108051831 0 0 0 0 
2409000000.0000000000 0.181134834885597201248330634371 -0.029260471463203430175781250000 0.006158309988677501678466796875 0.001117740175686777071711874854 0 0 0 0 
2409166666.6666665077 0.181732237339019803146200615629 -0.030201904475688930856724923046 0.006275199819356203079223632812 0.000882688153069466352462768555 0 0 0 0 
2409333333.3333334923 0.182172298431396512130575615629 -0.031084783375263210641881173046 0.006254182662814855575561523438 0.000704118050634860992431640625 0 0 0 0 
2409500000.0000000000 0.182407423853874206542968750000 -0.032092660665512091899831403907 0.005960125010460615158081054688 0.000389614695450290983349400653 0 0 0 0 
2409666666.6666665077 0.182742342352867098709268134371 -0.032571800053119659423828125000 0.005944306030869483947753906250 0.000218483139178715700477045880 0 0 0 0 
2409833333.3333334923 0.182921603322029113769531250000 -0.033064376562833792949636091407 0.005908752791583538055419921875 0.000117046867671888294533052988 0 0 0 0 
2410000000.0000000000 0.183293625712394686599893134371 -0.033433899283409118652343750000 0.005730272270739079389090253613 -0.000215782725717872408315381461 0 0 0 0 
2410166666.6666665077 0.183279529213905306717080634371 -0.033937465399503707885742187500 0.005770530086010695371145917676 -0.000421019969508051926463526593 0 0 0 0 
2410333333.3333334923 0.183403387665748596191406250000 -0.034430541098117828369140625000 0.005596617236733436584472656250 -0.000598692975472658872604370117 0 0 0 0 
2410500000.0000000000 0.183434173464775113204794365629 -0.034606490284204483032226562500 0.005479765590280294418334960938 -0.000699553755111992359161376953 0 0 0 0 
2410666666.6666665077 0.183328345417976407150106865629 -0.035130459815263748168945312500 0.005314901471138001355642987988 -0.000924493593629449605941772461 0 0 0 0 
2410833333.3333334923 0.183333575725555392166299384371 -0.035246368497610092163085937500 0.005126708187162876129150390625 -0.000965499901212751865386962891 0 0 0 0 
2411000000.0000000000 0.183096140623092706878338731258 -0.035507857799530029296875000000 0.005220094230026006698608398438 -0.001072968239895998997929238428 0 0 0 0 
2411166666.6666665077 0.182743981480598505218182481258 -0.035884745419025421142578125000 0.005035310052335262298583984375 -0.001198647078126668930053710938 0 0 0 0 
2411333333.3333334923 0.182331964373588589767294365629 -0.036185741424560546875000000000 0.004866878502070903778076171875 -0.001475076656788588003871298682 0 0 0 0 
2411500000.0000000000 0.181967347860336303710937500000 -0.036463648080825812602956403907 0.004680105485022068023681640625 -0.001513299532234668948529887622 0 0 0 0 
2411666666.6666665077 0.181337475776672391036825615629 -0.036925137042999267578125000000 0.004792941268533468246459960938 -0.001504666637629270987269736182 0 0 0 0 
2411833333.3333334923 0.180711656808853204925213731258 -0.037199880927801132202148437500 0.004659381695091724395751953125 -0.001778909820131957964656210791 0 0 0 0 
2412000000.0000000000 0.180121883749961908538494981258 -0.037788417190313339233398437500 0.004514446482062339782714843750 -0.001747167785651982047437358325 0 0 0 0 
2412166666.6666665077 0.179071500897407503982705634371 -0.038257598876953131938893903907 0.004405492916703224182128906250 -0.001764892018400133089778281104 0 0 0 0 
2412333333.3333334923 0.178408876061439486404580634371 -0.038452848792076110839843750000 0.004225417505949735641479492188 -0.001907196594402194023132324219 0 0 0 0 
2412500000.0000000000 0.177252382040023803710937500000 -0.039049070328474051738698591407 0.004166713450103998184204101562 -0.001993629848584533171412802588 0 0 0 0 
2412666666.6666665077 0.176471158862114008147869981258 -0.039883527904748916625976562500 0.004177802707999944686889648438 -0.002120838733389974074122763525 0 0 0 0 
2412833333.3333334923 0.175187140703201293945312500000 -0.040500719100236892700195312500 0.003790557384490966796875000000 -0.001993335783481597900390625000 0 0 0 0 
2413000000.0000000000 0.174097135663032503982705634371 -0.041121065616607672954518903907 0.003737818682566285133361816406 -0.001936642918735743002650595557 0 0 0 0 
2413166666.6666665077 0.172750413417816189864950615629 -0.042016059160232537006418596093 0.003772255033254622979405068506 -0.001978988526389002799987792969 0 0 0 0 
2413333333.3333334923 0.171453237533569308181924384371 -0.042875945568084716796875000000 0.003615861758589745001551962744 -0.001942093949764966964721679688 0 0 0 0 
2413500000.0000000000 0.170368239283561706542968750000 -0.043751113116741180419921875000 0.003750065341591835021972656250 -0.001851635635830461978912353516 0 0 0 0 
2413666666.6666665077 0.168964058160781888107138115629 -0.044888768345117568969726562500 0.003664525924250483946559286963 -0.001775066019035876014112163013 0 0 0 0 
2413833333.3333334923 0.167612627148628207107705634371 -0.045872267335653311992604841407 0.003552392590790987014770507812 -0.001923493575304747061488486182 0 0 0 0 
2414000000.0000000000 0.166314512491226196289062500000 -0.047120545059442520141601562500 0.003692898666486144065856933594 -0.001882520271465182087541889722 0 0 0 0 
2414166666.6666665077 0.165190026164054898361044365629 -0.048341274261474609375000000000 0.003620840841904283003566122900 -0.001799833728000522093531943213 0 0 0 0 
2414333333.3333334923 0.163796544075012207031250000000 -0.049551378935575492168386091407 0.003796625882387160821201943506 -0.001756301731802522919298481519 0 0 0 0 
2414500000.0000000000 0.162755772471427889724893134371 -0.051079634577035896991770158593 0.003674777457490562958958291162 -0.001885461853817105076433491284 0 0 0 0 
2414666666.6666665077 0.161677658557891901214276231258 -0.052440714091062552715261091407 0.003794767893850802941563271631 -0.001936575048603117899653769385 0 0 0 0 
2414833333.3333334923 0.160518988966941805740518134371 -0.054069224745035171508789062500 0.004023939836770296096801757812 -0.001963465474545956091639853369 0 0 0 0 
2415000000.0000000000 0.159457832574844388107138115629 -0.055591676384210586547851562500 0.004064138047397136688232421875 -0.002155186608433723016026162256 0 0 0 0 
2415166666.6666665077 0.158531725406646700760049384371 -0.057315055280923843383789062500 0.004185066092759370803833007812 -0.002112087095156311988830566406 0 0 0 0 
2415333333.3333334923 0.157747656106948908050213731258 -0.059181049466133117675781250000 0.004121704958379268646240234375 -0.002509894547984004020690917969 0 0 0 0 
2415500000.0000000000 0.156790882349014309982138115629 -0.060895226895809166645090471093 0.004387281835079193115234375000 -0.002661197679117321968078613281 0 0 0 0 
2415666666.6666665077 0.156139999628066988845986884371 -0.062717691063880920410156250000 0.004263143055140972137451171875 -0.002882834291085600852966308594 0 0 0 0 
2415833333.3333334923 0.155519783496856689453125000000 -0.064802601933479309082031250000 0.004270378034561873349661542676 -0.003165805246680974960327148438 0 0 0 0 
2416000000.0000000000 0.154785215854644803146200615629 -0.066664583981037139892578125000 0.004232183098793029785156250000 -0.003306897822767496109008789062 0 0 0 0 
2416166666.6666665077 0.154397711157798794845419365629 -0.068707816302776336669921875000 0.004139833617955446243286132812 -0.003585272934287786917445517432 0 0 0 0 
2416333333.3333334923 0.153695940971374511718750000000 -0.070549637079238891601562500000 0.004141043871641159057617187500 -0.003846918931230903105494833838 0 0 0 0 
2416500000.0000000000 0.153311923146247891525106865629 -0.072676889598369598388671875000 0.003991073463112115859985351562 -0.004068140406161546707153320312 0 0 0 0 
2416666666.6666665077 0.152879700064659090896768134371 -0.074531190097332000732421875000 0.003695179941132665114161826025 -0.004233091603964567184448242188 0 0 0 0 
2416833333.3333334923 0.152731195092201205154580634371 -0.076611079275608062744140625000 0.003737746970728040175196982275 -0.004583790432661771774291992188 0 0 0 0 
2417000000.0000000000 0.152292579412460299392861884371 -0.078454740345478057861328125000 0.003680371679365634918212890625 -0.004758221097290515899658203125 0 0 0 0 
2417166666.6666665077 0.152125537395477294921875000000 -0.080300018191337585449218750000 0.003431111574172974066493368994 -0.004914217162877321243286132812 0 0 0 0 
2417333333.3333334923 0.152093842625618008712606865629 -0.082049265503883361816406250000 0.003167236922308803038356161963 -0.005234456155449151992797851562 0 0 0 0 
2417500000.0000000000 0.151950418949127197265625000000 -0.083929315209388732910156250000 0.002801830181851983070373535156 -0.005306938663125038146972656250 0 0 0 0 
2417666666.6666665077 0.152045339345932006835937500000 -0.085393205285072326660156250000 0.002751732477918266816380166162 -0.005473624914884567260742187500 0 0 0 0 
2417833333.3333334923 0.151914551854133605957031250000 -0.086944974958896636962890625000 0.002503550378605722947361611475 -0.005561668425798416137695312500 0 0 0 0 
2418000000.0000000000 0.152058511972427395919638115629 -0.088517002761363983154296875000 0.002149482956156135039088583838 -0.005752666853368282318115234375 0 0 0 0 
2418166666.6666665077 0.151986196637153597732705634371 -0.089888721704483032226562500000 0.001963494112715125083923339844 -0.005796805024147033691406250000 0 0 0 0 
2418333333.3333334923 0.152509078383445711990518134371 -0.091261394321918487548828125000 0.001784056192263961055158305591 -0.005855816882103682431692792676 0 0 0 0 
2418500000.0000000000 0.152446463704109191894531250000 -0.092353500425815582275390625000 0.001475904951803385994554829175 -0.005939574912190437316894531250 0 0 0 0 
2418666666.6666665077 0.152785375714302090743856865629 -0.093481823801994323730468750000 0.001254431903362273953081440503 -0.005955144762992858886718750000 0 0 0 0 
2418833333.3333334923 0.152769371867179898361044365629 -0.094532407820224761962890625000 0.000913448107894510030746459961 -0.006191317457705736160278320312 0 0 0 0 
2419000000.0000000000 0.152974471449851989746093750000 -0.095283098518848419189453125000 0.000667591928504407405853271484 -0.006165723316371440887451171875 0 0 0 0 
2419166666.6666665077 0.153153985738754300216513115629 -0.096086397767066955566406250000 0.000605662935413420200347900391 -0.006279492750763893127441406250 0 0 0 0 
2419333333.3333334923 0.153181642293930109222088731258 -0.096365772187709808349609375000 0.000186289311386644813135424203 -0.006120035424828529357910156250 0 0 0 0 
2419500000.0000000000 0.153397381305694607833700615629 -0.097117349505424499511718750000 0.000037730569601990282535552979 -0.006158499512821435928344726562 0 0 0 0 
2419666666.6666665077 0.153657600283622686188067518742 -0.097566120326519012451171875000 -0.000191334765986539396360674448 -0.006091154646128416061401367188 0 0 0 0 
2419833333.3333334923 0.153867065906524713714276231258 -0.097732931375503540039062500000 -0.000542673340532928705215454102 -0.006134328898042440414428710938 0 0 0 0 
