# Version 1.00
#
freq[Hz];re:Trc1_S11;im:Trc1_S11;re:Trc2_S21;im:Trc2_S21;
2.400000000000000E+009;1.554276049137116E-001;1.070488467812538E-001;-5.618293071165681E-004;4.930807743221521E-003;
2.400166666666667E+009;1.552023142576218E-001;1.045895963907242E-001;-6.386635359376669E-004;4.843533039093018E-003;
2.400333333333334E+009;1.553350985050201E-001;1.022800430655479E-001;-3.503902989905328E-004;4.857531748712063E-003;
2.400500000000000E+009;1.552173942327499E-001;9.948289394378662E-002;-2.585987967904657E-004;4.755844827741385E-003;
2.400666666666667E+009;1.551975905895233E-001;9.703770279884338E-002;-3.599451447371393E-004;4.733308684080839E-003;
2.400833333333334E+009;1.551389396190643E-001;9.412398189306259E-002;-3.617987676989287E-004;4.886371549218893E-003;
2.401000000000000E+009;1.551402062177658E-001;9.134580940008164E-002;-2.620509185362607E-004;4.854389466345310E-003;
2.401166666666667E+009;1.554550826549530E-001;8.834067732095718E-002;-1.502196682849899E-004;4.915889818221331E-003;
2.401333333333334E+009;1.557203978300095E-001;8.543748408555985E-002;5.007294021197595E-006;5.038833711296320E-003;
2.401500000000000E+009;1.560963243246079E-001;8.279899507761002E-002;2.380955702392384E-004;5.088507663458586E-003;
2.401666666666667E+009;1.564206331968308E-001;7.982455939054489E-002;2.950604248326272E-004;5.081701092422009E-003;
2.401833333333334E+009;1.567708551883698E-001;7.707980275154114E-002;6.297968793660402E-004;4.933769814670086E-003;
2.402000000000000E+009;1.577751338481903E-001;7.437281310558319E-002;7.458599284291267E-004;4.975332412868738E-003;
2.402166666666667E+009;1.584117412567139E-001;7.175384461879730E-002;1.046399818733335E-003;4.922537598758936E-003;
2.402333333333334E+009;1.594364494085312E-001;6.885579973459244E-002;1.152314012870193E-003;4.745531827211380E-003;
2.402500000000000E+009;1.604981869459152E-001;6.646452844142914E-002;1.468111877329648E-003;4.764893092215061E-003;
2.402666666666667E+009;1.617698073387146E-001;6.412023305892944E-002;1.535916817374528E-003;4.681413527578116E-003;
2.402833333333334E+009;1.628951579332352E-001;6.158978864550591E-002;1.608764985576272E-003;4.570071119815111E-003;
2.403000000000000E+009;1.644857972860336E-001;5.917350575327873E-002;1.830480643548071E-003;4.411474335938692E-003;
2.403166666666667E+009;1.661227345466614E-001;5.694793909788132E-002;2.046852139756084E-003;4.595439881086350E-003;
2.403333333333334E+009;1.675180643796921E-001;5.486309155821800E-002;1.993102021515369E-003;4.210325889289379E-003;
2.403500000000000E+009;1.693497598171234E-001;5.286134406924248E-002;2.178231487050653E-003;4.053869284689426E-003;
2.403666666666667E+009;1.710183918476105E-001;5.090924724936485E-002;2.091424306854606E-003;3.988300450146198E-003;
2.403833333333334E+009;1.725350618362427E-001;4.900757968425751E-002;2.151957713067532E-003;3.889160929247737E-003;
2.404000000000000E+009;1.741994321346283E-001;4.738197848200798E-002;2.375643467530608E-003;3.849947825074196E-003;
2.404166666666667E+009;1.759402304887772E-001;4.571865499019623E-002;2.268082927912474E-003;3.754286328330636E-003;
2.404333333333334E+009;1.775261759757996E-001;4.431604593992233E-002;2.435440430417657E-003;3.748339600861073E-003;
2.404500000000000E+009;1.792316883802414E-001;4.294634982943535E-002;2.428367501124740E-003;3.554611699655652E-003;
2.404666666666667E+009;1.809747070074081E-001;4.194590449333191E-002;2.658800454810262E-003;3.543117316439748E-003;
2.404833333333334E+009;1.825630068778992E-001;4.076251760125160E-002;2.509822137653828E-003;3.492000978440046E-003;
2.405000000000000E+009;1.839501410722733E-001;4.026430845260620E-002;2.739178715273738E-003;3.336901310831308E-003;
2.405166666666667E+009;1.854357272386551E-001;3.945327922701836E-002;2.744165249168873E-003;3.345572389662266E-003;
2.405333333333334E+009;1.868661195039749E-001;3.901398926973343E-002;2.713246038183570E-003;3.142971312627196E-003;
2.405500000000000E+009;1.884045600891113E-001;3.849225118756294E-002;2.937898505479097E-003;3.026143182069063E-003;
2.405666666666667E+009;1.895262897014618E-001;3.804621845483780E-002;2.929707756265998E-003;3.038843395188451E-003;
2.405833333333334E+009;1.908961981534958E-001;3.796428069472313E-002;2.968935528770089E-003;2.903233515098691E-003;
2.406000000000000E+009;1.917651444673538E-001;3.770566359162331E-002;2.981031546369195E-003;2.853788202628493E-003;
2.406166666666667E+009;1.930490434169769E-001;3.753706440329552E-002;3.134287428110838E-003;2.740982221439481E-003;
2.406333333333334E+009;1.939546614885330E-001;3.760805726051331E-002;3.172809258103371E-003;2.554455306380987E-003;
2.406500000000000E+009;1.946103125810623E-001;3.766941279172897E-002;3.285072045400739E-003;2.444606041535735E-003;
2.406666666666667E+009;1.953501105308533E-001;3.771496191620827E-002;3.217440098524094E-003;2.380991354584694E-003;
2.406833333333334E+009;1.958117932081223E-001;3.776685148477554E-002;3.202542895451188E-003;2.278553089126945E-003;
2.407000000000000E+009;1.961823999881744E-001;3.788099065423012E-002;3.322690259665251E-003;2.174265915527940E-003;
2.407166666666667E+009;1.967226713895798E-001;3.771949559450150E-002;3.182775806635618E-003;1.908971229568124E-003;
2.407333333333334E+009;1.965017467737198E-001;3.787160664796829E-002;3.360663773491979E-003;2.153907669708133E-003;
2.407500000000000E+009;1.965419054031372E-001;3.796154633164406E-002;3.325688652694225E-003;1.918706111609936E-003;
2.407666666666667E+009;1.965799778699875E-001;3.802110627293587E-002;3.317149821668863E-003;1.879381015896797E-003;
2.407833333333334E+009;1.959741711616516E-001;3.781126067042351E-002;3.321464173495770E-003;1.804888132028282E-003;
2.408000000000000E+009;1.959681808948517E-001;3.766996040940285E-002;3.183741588145495E-003;1.761590945534408E-003;
2.408166666666667E+009;1.953849941492081E-001;3.745461627840996E-002;3.305028192698956E-003;1.748020062223077E-003;
2.408333333333334E+009;1.948625892400742E-001;3.688138350844383E-002;3.399162553250790E-003;1.657262095250189E-003;
2.408500000000000E+009;1.942661851644516E-001;3.668663278222084E-002;3.344741882756352E-003;1.536844763904810E-003;
2.408666666666667E+009;1.936277151107788E-001;3.615992516279221E-002;3.358313348144293E-003;1.474524964578450E-003;
2.408833333333334E+009;1.930440515279770E-001;3.534817323088646E-002;3.412571037188172E-003;1.401282148435712E-003;
2.409000000000000E+009;1.919583529233933E-001;3.442039713263512E-002;3.351031336933374E-003;1.363447983749211E-003;
2.409166666666667E+009;1.911403238773346E-001;3.346259146928787E-002;3.467584261670709E-003;1.266965409740806E-003;
2.409333333333334E+009;1.902689635753632E-001;3.263474255800247E-002;3.361320355907083E-003;1.385184936225414E-003;
2.409500000000000E+009;1.889886111021042E-001;3.109868243336678E-002;3.341074567288160E-003;1.222149701789022E-003;
2.409666666666667E+009;1.880341023206711E-001;2.959285117685795E-002;3.350023413076997E-003;1.202006125822663E-003;
2.409833333333334E+009;1.870231479406357E-001;2.818451635539532E-002;3.362237708643079E-003;1.137704122811556E-003;
2.410000000000000E+009;1.861550807952881E-001;2.653951942920685E-002;3.434880636632443E-003;1.147463801316917E-003;
2.410166666666667E+009;1.849268078804016E-001;2.462157048285008E-002;3.255808493122459E-003;1.221394166350365E-003;
2.410333333333334E+009;1.840429008007050E-001;2.287572622299194E-002;3.363916184753180E-003;1.126798102632165E-003;
2.410500000000000E+009;1.831150799989700E-001;2.088193781673908E-002;3.333761123940349E-003;1.113619655370712E-003;
2.410666666666667E+009;1.820600330829620E-001;1.861030049622059E-002;3.189224982634187E-003;1.277459901757538E-003;
2.410833333333334E+009;1.813648641109467E-001;1.642488874495029E-002;3.361935028806329E-003;1.226140302605927E-003;
2.411000000000000E+009;1.806177347898483E-001;1.423616055399180E-002;3.345056436955929E-003;1.268082298338413E-003;
2.411166666666667E+009;1.799620538949966E-001;1.194733195006847E-002;3.442150307819247E-003;1.379128778353334E-003;
2.411333333333334E+009;1.794082224369049E-001;9.469669312238693E-003;3.675987012684345E-003;1.283944933675230E-003;
2.411500000000000E+009;1.789233982563019E-001;6.916427984833717E-003;3.625395242124796E-003;1.312845502980053E-003;
2.411666666666667E+009;1.787694841623306E-001;4.722149111330509E-003;3.917595371603966E-003;1.316229230724275E-003;
2.411833333333334E+009;1.784168481826782E-001;2.187576610594988E-003;4.068117123097181E-003;1.301859389059246E-003;
2.412000000000000E+009;1.785879284143448E-001;-3.361460403539240E-004;4.247887991368771E-003;1.169002731330693E-003;
2.412166666666667E+009;1.786668449640274E-001;-2.717082621529698E-003;4.443102050572634E-003;9.609113330952823E-004;
2.412333333333334E+009;1.787416189908981E-001;-5.217699799686670E-003;4.504316486418247E-003;8.036243962123990E-004;
2.412500000000000E+009;1.792817115783691E-001;-7.770205382257700E-003;4.588955547660589E-003;7.274569943547249E-004;
2.412666666666667E+009;1.796946674585342E-001;-1.030915882438421E-002;4.797028377652168E-003;5.652076797559857E-004;
2.412833333333334E+009;1.804675757884979E-001;-1.256046164780855E-002;4.932461306452751E-003;3.088864323217422E-004;
2.413000000000000E+009;1.810944527387619E-001;-1.485602837055922E-002;4.898495972156525E-003;-1.086019074136857E-005;
2.413166666666667E+009;1.820293217897415E-001;-1.717168651521206E-002;4.945142194628716E-003;-1.032487634802237E-004;
2.413333333333334E+009;1.830711960792542E-001;-1.964770630002022E-002;5.169000942260027E-003;-5.430432502180338E-004;
2.413500000000000E+009;1.838110089302063E-001;-2.196844480931759E-002;4.931283649057150E-003;-7.287822663784027E-004;
2.413666666666667E+009;1.851169764995575E-001;-2.412806451320648E-002;5.054164212197065E-003;-1.024782191962004E-003;
2.413833333333334E+009;1.863041371107101E-001;-2.610882744193077E-002;5.005998536944389E-003;-1.179143320769072E-003;
2.414000000000000E+009;1.871490627527237E-001;-2.815802209079266E-002;4.772522952407599E-003;-1.486336928792298E-003;
2.414166666666667E+009;1.885751038789749E-001;-2.986906841397286E-002;4.739204421639442E-003;-1.709925476461649E-003;
2.414333333333334E+009;1.894784718751907E-001;-3.186979517340660E-002;4.690561909228563E-003;-1.832322450354695E-003;
2.414500000000000E+009;1.908273696899414E-001;-3.336417675018311E-002;4.394688643515110E-003;-1.931559876538813E-003;
2.414666666666667E+009;1.920088827610016E-001;-3.481030091643333E-002;4.431751091033220E-003;-2.017941093072295E-003;
2.414833333333334E+009;1.931488960981369E-001;-3.630762919783592E-002;4.062137100845575E-003;-2.210978884249926E-003;
2.415000000000000E+009;1.942385286092758E-001;-3.747867420315743E-002;3.929538186639547E-003;-2.513785613700748E-003;
2.415166666666667E+009;1.954881995916367E-001;-3.865811228752136E-002;3.745178459212184E-003;-2.523730974644423E-003;
2.415333333333334E+009;1.966111510992050E-001;-3.961252421140671E-002;3.764122258871794E-003;-2.683011349290609E-003;
2.415500000000000E+009;1.977600604295731E-001;-4.033843055367470E-002;3.552759531885386E-003;-2.764538861811161E-003;
2.415666666666667E+009;1.987218707799912E-001;-4.115464165806770E-002;3.451744792982936E-003;-2.915048506110907E-003;
2.415833333333334E+009;1.995205432176590E-001;-4.163406789302826E-002;3.245201194658876E-003;-3.038524882867932E-003;
2.416000000000000E+009;2.002915591001511E-001;-4.231964796781540E-002;3.234057454392314E-003;-3.142830217257142E-003;
2.416166666666667E+009;2.010836452245712E-001;-4.288608208298683E-002;3.048207145184279E-003;-3.060213988646865E-003;
2.416333333333334E+009;2.015869915485382E-001;-4.318333417177200E-002;2.858022926375270E-003;-3.099552122876048E-003;
2.416500000000000E+009;2.020759433507919E-001;-4.342269152402878E-002;2.854961436241865E-003;-3.063826821744442E-003;
2.416666666666667E+009;2.023005485534668E-001;-4.363032430410385E-002;2.616788027808070E-003;-3.308296203613281E-003;
2.416833333333334E+009;2.024211585521698E-001;-4.367627948522568E-002;2.454766072332859E-003;-3.125147661194205E-003;
2.417000000000000E+009;2.025379687547684E-001;-4.382238164544106E-002;2.416577422991395E-003;-3.308778628706932E-003;
2.417166666666667E+009;2.021475434303284E-001;-4.358816146850586E-002;2.212226623669267E-003;-3.279484575614333E-003;
2.417333333333334E+009;2.020341902971268E-001;-4.351005330681801E-002;2.169449348002672E-003;-3.200322622433305E-003;
2.417500000000000E+009;2.017466276884079E-001;-4.345982521772385E-002;1.985958544537425E-003;-3.215954406186938E-003;
2.417666666666667E+009;2.011181563138962E-001;-4.311257600784302E-002;1.971083227545023E-003;-3.041164949536324E-003;
2.417833333333334E+009;2.006838023662567E-001;-4.296057671308518E-002;1.895168214105070E-003;-3.106579883024097E-003;
2.418000000000000E+009;1.999549865722656E-001;-4.265479370951653E-002;1.828800188377500E-003;-3.305216087028384E-003;
2.418166666666667E+009;1.992875635623932E-001;-4.249294847249985E-002;1.718060346320272E-003;-3.100623609498143E-003;
2.418333333333334E+009;1.983097642660141E-001;-4.229336977005005E-002;1.527091604657471E-003;-3.151294309645891E-003;
2.418500000000000E+009;1.971158236265183E-001;-4.238184913992882E-002;1.466118497774005E-003;-2.902360865846276E-003;
2.418666666666667E+009;1.963259130716324E-001;-4.224225133657455E-002;1.506273169070482E-003;-3.168552881106734E-003;
2.418833333333334E+009;1.950332671403885E-001;-4.234498366713524E-002;1.412741374224424E-003;-3.151308977976441E-003;
2.419000000000000E+009;1.936612725257874E-001;-4.253640770912170E-002;1.309464336372912E-003;-2.968544838950038E-003;
2.419166666666667E+009;1.923469156026840E-001;-4.289217293262482E-002;1.235058647580445E-003;-3.059593960642815E-003;
2.419333333333334E+009;1.909996867179871E-001;-4.329337179660797E-002;1.199791091494262E-003;-2.920063678175211E-003;
2.419500000000000E+009;1.894047260284424E-001;-4.377464205026627E-002;9.331450564786792E-004;-2.915908116847277E-003;
2.419666666666667E+009;1.877586990594864E-001;-4.432154074311256E-002;1.048875041306019E-003;-2.854006830602884E-003;
2.419833333333334E+009;1.862191855907440E-001;-4.516493156552315E-002;1.102501177228987E-003;-2.840915229171515E-003;
2.420000000000000E+009;1.846907287836075E-001;-4.592937231063843E-002;1.026035402901471E-003;-2.761183073744178E-003;
2.420166666666667E+009;1.829448193311691E-001;-4.687694832682610E-002;1.074226689524949E-003;-2.644684864208102E-003;
2.420333333333334E+009;1.813317239284515E-001;-4.789945483207703E-002;1.026244484819472E-003;-2.617038087919354E-003;
2.420500000000000E+009;1.796701401472092E-001;-4.927090182900429E-002;1.044659060426056E-003;-2.627207431942225E-003;
2.420666666666667E+009;1.779801547527313E-001;-5.037520825862885E-002;1.038358546793461E-003;-2.583858091384172E-003;
2.420833333333334E+009;1.763431727886200E-001;-5.190288275480270E-002;1.188891706988215E-003;-2.627958776429296E-003;
2.421000000000000E+009;1.748646348714829E-001;-5.362620204687119E-002;1.194344251416624E-003;-2.697902964428067E-003;
2.421166666666667E+009;1.735348254442215E-001;-5.512855574488640E-002;1.125520677305758E-003;-2.751276129856706E-003;
2.421333333333334E+009;1.718782633543015E-001;-5.668545141816139E-002;9.504330810159445E-004;-2.681870711967349E-003;
2.421500000000000E+009;1.704541891813278E-001;-5.857604742050171E-002;1.164715271443129E-003;-2.662478946149349E-003;
2.421666666666667E+009;1.692457199096680E-001;-6.040489301085472E-002;1.296124653890729E-003;-2.741815056651831E-003;
2.421833333333334E+009;1.682805866003037E-001;-6.225912272930145E-002;1.239508274011314E-003;-2.788611687719822E-003;
2.422000000000000E+009;1.669754087924957E-001;-6.427867710590363E-002;1.244575832970440E-003;-2.756658010184765E-003;
2.422166666666667E+009;1.661576032638550E-001;-6.627482175827026E-002;1.297056674957275E-003;-2.918775193393230E-003;
2.422333333333334E+009;1.651444882154465E-001;-6.824411451816559E-002;1.117490348406136E-003;-2.892209449782968E-003;
2.422500000000000E+009;1.643571555614471E-001;-7.016448676586151E-002;1.208844128996134E-003;-3.096310654655099E-003;
2.422666666666667E+009;1.637889295816422E-001;-7.239510864019394E-002;1.303775468841195E-003;-3.055532695725560E-003;
2.422833333333334E+009;1.634433567523956E-001;-7.438575476408005E-002;1.221556332893670E-003;-3.144340123981237E-003;
2.423000000000000E+009;1.628612726926804E-001;-7.631608843803406E-002;1.203698222525418E-003;-3.304240526631475E-003;
2.423166666666667E+009;1.625161617994309E-001;-7.839415967464447E-002;1.174003817141056E-003;-3.339052665978670E-003;
2.423333333333334E+009;1.623152941465378E-001;-8.025339990854263E-002;1.052940962836146E-003;-3.478342201560736E-003;
2.423500000000000E+009;1.622860431671143E-001;-8.207380026578903E-002;1.008017454296351E-003;-3.675903193652630E-003;
2.423666666666667E+009;1.624251306056976E-001;-8.407280594110489E-002;1.061338116414845E-003;-3.662407863885164E-003;
2.423833333333334E+009;1.622776985168457E-001;-8.587003499269486E-002;9.455758845433593E-004;-3.931947052478790E-003;
2.424000000000000E+009;1.625891029834747E-001;-8.772093057632446E-002;6.449511274695396E-004;-4.077600780874491E-003;
2.424166666666667E+009;1.626071184873581E-001;-8.918366581201553E-002;4.896872560493648E-004;-4.015715792775154E-003;
2.424333333333334E+009;1.629128754138947E-001;-9.072796255350113E-002;5.076724337413907E-004;-4.120051860809326E-003;
2.424500000000000E+009;1.632116883993149E-001;-9.258878231048584E-002;1.790549868019298E-004;-4.081355407834053E-003;
2.424666666666667E+009;1.635912060737610E-001;-9.381306171417236E-002;1.060315698850900E-004;-4.167513921856880E-003;
2.424833333333334E+009;1.641492247581482E-001;-9.514998644590378E-002;-5.699078246834688E-005;-4.305311013013125E-003;
2.425000000000000E+009;1.646077632904053E-001;-9.632652252912521E-002;-9.749783203005791E-005;-4.323954228311777E-003;
2.425166666666667E+009;1.648899316787720E-001;-9.740125387907028E-002;-2.531518402975053E-004;-4.371391143649817E-003;
2.425333333333334E+009;1.653033643960953E-001;-9.843915700912476E-002;-3.515469143167138E-004;-4.306307993829250E-003;
2.425500000000000E+009;1.657335758209229E-001;-9.940151870250702E-002;-6.090443930588663E-004;-4.424026701599360E-003;
2.425666666666667E+009;1.663040220737457E-001;-1.000460982322693E-001;-8.155813557095826E-004;-4.399885423481464E-003;
2.425833333333334E+009;1.666494160890579E-001;-1.009725406765938E-001;-8.796334732323885E-004;-4.386592656373978E-003;
2.426000000000000E+009;1.670178174972534E-001;-1.012571826577187E-001;-1.176537829451263E-003;-4.220460541546345E-003;
2.426166666666667E+009;1.674132496118546E-001;-1.017623543739319E-001;-1.193116535432637E-003;-4.444850608706474E-003;
2.426333333333334E+009;1.676351279020309E-001;-1.023438423871994E-001;-1.319934031926096E-003;-4.247560165822506E-003;
2.426500000000000E+009;1.679265648126602E-001;-1.025700941681862E-001;-1.439880463294685E-003;-4.275011830031872E-003;
2.426666666666667E+009;1.682344377040863E-001;-1.028942242264748E-001;-1.598445582203567E-003;-4.182112403213978E-003;
2.426833333333334E+009;1.685223132371903E-001;-1.032347604632378E-001;-1.822679769247770E-003;-4.163932986557484E-003;
2.427000000000000E+009;1.684624105691910E-001;-1.034500822424889E-001;-1.928232144564390E-003;-4.056775476783514E-003;
2.427166666666667E+009;1.685139983892441E-001;-1.034325882792473E-001;-2.085739281028509E-003;-3.976551815867424E-003;
2.427333333333334E+009;1.683738380670548E-001;-1.036673858761787E-001;-2.162311458960176E-003;-3.933913074433804E-003;
2.427500000000000E+009;1.681335121393204E-001;-1.039103716611862E-001;-2.365761203691363E-003;-3.955734428018332E-003;
2.427666666666667E+009;1.677990853786469E-001;-1.039442494511604E-001;-2.541721565648913E-003;-3.757013473659754E-003;
2.427833333333334E+009;1.674164384603500E-001;-1.040234789252281E-001;-2.543321345001459E-003;-3.602801123633981E-003;
