# Version 1.00
#
freq[Hz];re:Trc1_S11;im:Trc1_S11;re:Trc2_S21;im:Trc2_S21;
2.400000000000000E+009;1.555147618055344E-001;1.069412007927895E-001;-6.829930935055018E-004;4.837122280150652E-003;
2.400166666666667E+009;1.552399098873138E-001;1.045310273766518E-001;-4.656527598854154E-004;4.829639103263617E-003;
2.400333333333334E+009;1.552233397960663E-001;1.022959947586060E-001;-5.289668333716691E-004;4.792445804923773E-003;
2.400500000000000E+009;1.551030129194260E-001;9.932861477136612E-002;-4.619756364263594E-004;4.939429461956024E-003;
2.400666666666667E+009;1.551427096128464E-001;9.703034907579422E-002;-4.882134089712054E-004;4.663485568016768E-003;
2.400833333333334E+009;1.551953405141830E-001;9.399152547121048E-002;-2.065465232590213E-004;4.808152560144663E-003;
2.401000000000000E+009;1.554120182991028E-001;9.104770421981812E-002;-8.711696864338592E-005;4.918970167636871E-003;
2.401166666666667E+009;1.554752737283707E-001;8.827136456966400E-002;4.884668669546954E-005;4.910453688353300E-003;
2.401333333333334E+009;1.556991785764694E-001;8.556890487670898E-002;2.097510150633752E-004;4.940335638821125E-003;
2.401500000000000E+009;1.560557782649994E-001;8.249860256910324E-002;2.928034227807075E-004;4.893656820058823E-003;
2.401666666666667E+009;1.563975960016251E-001;7.966163754463196E-002;3.306308935862035E-004;5.059211049228907E-003;
2.401833333333334E+009;1.567937284708023E-001;7.691343873739243E-002;4.980883677490056E-004;5.030893255025148E-003;
2.402000000000000E+009;1.577918529510498E-001;7.409979403018951E-002;7.711036596447229E-004;5.016141571104527E-003;
2.402166666666667E+009;1.583875715732575E-001;7.158441096544266E-002;1.070991507731378E-003;4.992389120161533E-003;
2.402333333333334E+009;1.594639867544174E-001;6.883427500724793E-002;1.199926482513547E-003;4.877199884504080E-003;
2.402500000000000E+009;1.605088561773300E-001;6.638676673173904E-002;1.359938294626772E-003;4.749952815473080E-003;
2.402666666666667E+009;1.616081446409226E-001;6.409262120723724E-002;1.491480972617865E-003;4.616952035576105E-003;
2.402833333333334E+009;1.628949195146561E-001;6.145196780562401E-002;1.650218386203051E-003;4.516073036938906E-003;
2.403000000000000E+009;1.643494665622711E-001;5.919513106346130E-002;1.776525983586907E-003;4.470970947295427E-003;
2.403166666666667E+009;1.660569608211517E-001;5.690854787826538E-002;1.853128080256283E-003;4.304676782339811E-003;
2.403333333333334E+009;1.675851643085480E-001;5.479964241385460E-002;2.018006984144449E-003;4.218276124447584E-003;
2.403500000000000E+009;1.690112650394440E-001;5.292245745658875E-002;2.185841556638479E-003;3.958615474402905E-003;
2.403666666666667E+009;1.709519624710083E-001;5.101514607667923E-002;2.144273370504379E-003;3.919553011655808E-003;
2.403833333333334E+009;1.726455688476563E-001;4.890618473291397E-002;2.156581729650497E-003;3.813351737335324E-003;
2.404000000000000E+009;1.741227209568024E-001;4.719287157058716E-002;2.338925842195749E-003;3.678819397464395E-003;
2.404166666666667E+009;1.758943200111389E-001;4.582232236862183E-002;2.346098655834794E-003;3.668007208034396E-003;
2.404333333333334E+009;1.775211095809937E-001;4.431399330496788E-002;2.432863228023052E-003;3.597025293856859E-003;
2.404500000000000E+009;1.791935116052628E-001;4.294987767934799E-002;2.299611689522862E-003;3.637697547674179E-003;
2.404666666666667E+009;1.809030324220657E-001;4.181324318051338E-002;2.607338596135378E-003;3.423703368753195E-003;
2.404833333333334E+009;1.825114339590073E-001;4.071510583162308E-002;2.568964147940278E-003;3.410385223105550E-003;
2.405000000000000E+009;1.838629692792893E-001;4.001393914222717E-002;2.665579551830888E-003;3.177111269906163E-003;
2.405166666666667E+009;1.854553222656250E-001;3.944048658013344E-002;2.793610561639071E-003;3.208340378478169E-003;
2.405333333333334E+009;1.867926269769669E-001;3.899801522493362E-002;2.942210063338280E-003;3.089119913056493E-003;
2.405500000000000E+009;1.883480846881867E-001;3.836786746978760E-002;2.874876139685512E-003;3.106377553194761E-003;
2.405666666666667E+009;1.895842552185059E-001;3.825990483164787E-002;2.995845628902316E-003;2.946331398561597E-003;
2.405833333333334E+009;1.907851099967957E-001;3.791779279708862E-002;2.933300100266933E-003;2.874909667298198E-003;
2.406000000000000E+009;1.920055747032166E-001;3.761137649416924E-002;3.123726928606629E-003;2.759063616394997E-003;
2.406166666666667E+009;1.928981989622116E-001;3.764376416802406E-002;3.130802419036627E-003;2.656648866832256E-003;
2.406333333333334E+009;1.938895583152771E-001;3.772057220339775E-002;3.220324637368321E-003;2.580597065389156E-003;
2.406500000000000E+009;1.945755034685135E-001;3.770261630415916E-002;3.280891338363290E-003;2.332261996343732E-003;
2.406666666666667E+009;1.953492909669876E-001;3.784009814262390E-002;3.169577103108168E-003;2.273770049214363E-003;
2.406833333333334E+009;1.959861814975739E-001;3.779854625463486E-002;3.224022453650832E-003;2.244866685941815E-003;
2.407000000000000E+009;1.962394118309021E-001;3.794388100504875E-002;3.081698436290026E-003;2.109002321958542E-003;
2.407166666666667E+009;1.965715140104294E-001;3.777720034122467E-002;3.115992527455092E-003;2.112675225362182E-003;
2.407333333333334E+009;1.965044140815735E-001;3.790609538555145E-002;3.277440555393696E-003;1.856539980508387E-003;
2.407500000000000E+009;1.964234858751297E-001;3.809123858809471E-002;3.352441126480699E-003;1.818131073378027E-003;
2.407666666666667E+009;1.965018510818481E-001;3.803264722228050E-002;3.385299351066351E-003;1.819534343667328E-003;
2.407833333333334E+009;1.960215568542481E-001;3.796321526169777E-002;3.437423147261143E-003;1.724081346765161E-003;
2.408000000000000E+009;1.959395110607147E-001;3.774914517998695E-002;3.219170728698373E-003;1.652192673645914E-003;
2.408166666666667E+009;1.954410225152969E-001;3.739387169480324E-002;3.254354000091553E-003;1.639452879317105E-003;
2.408333333333334E+009;1.949311345815659E-001;3.698920086026192E-002;3.474812489002943E-003;1.606971258297563E-003;
2.408500000000000E+009;1.942828595638275E-001;3.662928566336632E-002;3.373691812157631E-003;1.663326402194798E-003;
2.408666666666667E+009;1.936345398426056E-001;3.613451495766640E-002;3.357009962201119E-003;1.606354955583811E-003;
2.408833333333334E+009;1.930956095457077E-001;3.546591475605965E-002;3.357521025463939E-003;1.443864661268890E-003;
2.409000000000000E+009;1.921293288469315E-001;3.448961675167084E-002;3.438275540247560E-003;1.403512083925307E-003;
2.409166666666667E+009;1.911584585905075E-001;3.350505232810974E-002;3.327172715216875E-003;1.377550070174038E-003;
2.409333333333334E+009;1.903283149003983E-001;3.250695392489433E-002;3.234432078897953E-003;1.286461832933128E-003;
2.409500000000000E+009;1.890777498483658E-001;3.120955266058445E-002;3.401882015168667E-003;1.161496737040579E-003;
2.409666666666667E+009;1.880286484956741E-001;2.970441430807114E-002;3.271407913416624E-003;1.116545055992901E-003;
2.409833333333334E+009;1.870796084403992E-001;2.828590758144856E-002;3.285339800640941E-003;1.230340916663408E-003;
2.410000000000000E+009;1.861121356487274E-001;2.655259333550930E-002;3.238964593037963E-003;9.150767000392079E-004;
2.410166666666667E+009;1.851916164159775E-001;2.466399595141411E-002;3.114840714260936E-003;1.235016505233944E-003;
2.410333333333334E+009;1.841208934783936E-001;2.293808571994305E-002;3.109447890892625E-003;1.188629656098783E-003;
2.410500000000000E+009;1.831531822681427E-001;2.101788111031056E-002;3.147023497149348E-003;1.208397210575640E-003;
2.410666666666667E+009;1.820841580629349E-001;1.870643720030785E-002;3.185302484780550E-003;1.212992006912828E-003;
2.410833333333334E+009;1.815142184495926E-001;1.657349802553654E-002;3.376301610842347E-003;1.275620772503316E-003;
2.411000000000000E+009;1.805161982774735E-001;1.405061595141888E-002;3.369723912328482E-003;1.299680909141898E-003;
2.411166666666667E+009;1.800576448440552E-001;1.193376537412405E-002;3.516325261443853E-003;1.224752631969750E-003;
2.411333333333334E+009;1.795277148485184E-001;9.352508932352066E-003;3.582965116947889E-003;1.278211711905897E-003;
2.411500000000000E+009;1.790801137685776E-001;6.913772318512201E-003;3.635072614997625E-003;1.440936583094299E-003;
2.411666666666667E+009;1.787438988685608E-001;4.567262716591358E-003;3.779150312766433E-003;1.470568589866161E-003;
2.411833333333334E+009;1.783122122287750E-001;2.364990301430225E-003;4.031123127788305E-003;1.290910178795457E-003;
2.412000000000000E+009;1.785128265619278E-001;-4.489118873607367E-004;4.117161035537720E-003;1.159500679932535E-003;
2.412166666666667E+009;1.786253005266190E-001;-2.760044531896710E-003;4.342225380241871E-003;9.498016443103552E-004;
2.412333333333334E+009;1.787734478712082E-001;-5.321198143064976E-003;4.516986664384604E-003;8.311264100484550E-004;
2.412500000000000E+009;1.791537851095200E-001;-7.651792839169502E-003;4.532920662313700E-003;7.813470438122749E-004;
2.412666666666667E+009;1.798569262027741E-001;-1.032243669033051E-002;4.770171828567982E-003;3.674020990729332E-004;
2.412833333333334E+009;1.802578121423721E-001;-1.268198154866695E-002;4.770478699356318E-003;4.161358810961247E-004;
2.413000000000000E+009;1.813114583492279E-001;-1.505848858505487E-002;5.102870985865593E-003;1.274698734050617E-004;
2.413166666666667E+009;1.820120662450790E-001;-1.737110503017902E-002;4.933024756610394E-003;-2.035457437159494E-004;
2.413333333333334E+009;1.828718930482864E-001;-1.967955939471722E-002;5.042737349867821E-003;-3.999207692686468E-004;
2.413500000000000E+009;1.838078647851944E-001;-2.187864109873772E-002;4.927780944854021E-003;-6.955354474484921E-004;
2.413666666666667E+009;1.850313395261765E-001;-2.429104782640934E-002;5.043123383074999E-003;-9.174186270684004E-004;
2.413833333333334E+009;1.861231178045273E-001;-2.606450021266937E-002;4.813245031982660E-003;-1.100156689062715E-003;
2.414000000000000E+009;1.872354447841644E-001;-2.813592925667763E-002;4.811963066458702E-003;-1.392372767440975E-003;
2.414166666666667E+009;1.884175986051559E-001;-2.996469847857952E-002;4.713374655693770E-003;-1.652105129323900E-003;
2.414333333333334E+009;1.895817518234253E-001;-3.188811987638474E-002;4.500657785683870E-003;-1.636835513636470E-003;
2.414500000000000E+009;1.907844096422195E-001;-3.335410356521606E-002;4.313556011766195E-003;-1.863400335423648E-003;
2.414666666666667E+009;1.920800656080246E-001;-3.481516242027283E-002;4.246189724653959E-003;-2.021935069933534E-003;
2.414833333333334E+009;1.930983364582062E-001;-3.629470989108086E-002;4.151210654526949E-003;-2.278180560097098E-003;
2.415000000000000E+009;1.941752433776856E-001;-3.752471134066582E-002;3.960032016038895E-003;-2.420731587335467E-003;
2.415166666666667E+009;1.954681724309921E-001;-3.867590427398682E-002;3.906391561031342E-003;-2.483843592926860E-003;
2.415333333333334E+009;1.965873390436173E-001;-3.964583948254585E-002;3.800959559157491E-003;-2.573414938524365E-003;
2.415500000000000E+009;1.976080983877182E-001;-4.047746583819389E-002;3.623716300353408E-003;-2.692747395485640E-003;
2.415666666666667E+009;1.986395269632340E-001;-4.117580875754356E-002;3.454619785770774E-003;-2.964192535728216E-003;
2.415833333333334E+009;1.995377987623215E-001;-4.182629287242889E-002;3.239350859075785E-003;-3.031748346984386E-003;
2.416000000000000E+009;2.001247107982636E-001;-4.224708676338196E-002;3.120874287560582E-003;-2.874404657632113E-003;
2.416166666666667E+009;2.010095715522766E-001;-4.297724366188049E-002;3.102549817413092E-003;-3.071514889597893E-003;
2.416333333333334E+009;2.016237974166870E-001;-4.319699481129646E-002;2.747221384197474E-003;-3.006427315995097E-003;
2.416500000000000E+009;2.021031528711319E-001;-4.339783638715744E-002;2.737096045166254E-003;-3.234840231016278E-003;
2.416666666666667E+009;2.022815346717835E-001;-4.379728436470032E-002;2.639306243509054E-003;-3.187065245583654E-003;
2.416833333333334E+009;2.024242877960205E-001;-4.360278323292732E-002;2.602840308099985E-003;-3.063553711399436E-003;
2.417000000000000E+009;2.025063782930374E-001;-4.379310831427574E-002;2.512022387236357E-003;-3.162896260619164E-003;
2.417166666666667E+009;2.022288441658020E-001;-4.358897358179092E-002;2.208710415288806E-003;-3.299420932307839E-003;
2.417333333333334E+009;2.020122855901718E-001;-4.355676472187042E-002;2.062011975795031E-003;-3.261282341554761E-003;
2.417500000000000E+009;2.016753405332565E-001;-4.338141903281212E-002;2.005118411034346E-003;-3.147674957290292E-003;
2.417666666666667E+009;2.011204361915588E-001;-4.310569167137146E-002;1.950943144038320E-003;-3.158308332785964E-003;
2.417833333333334E+009;2.006702274084091E-001;-4.295557737350464E-002;1.786211389116943E-003;-3.171022282913327E-003;
2.418000000000000E+009;2.000737488269806E-001;-4.258577525615692E-002;1.624151482246816E-003;-3.154110629111528E-003;
2.418166666666667E+009;1.992175728082657E-001;-4.250116273760796E-002;1.739608705975115E-003;-3.136073006317020E-003;
2.418333333333334E+009;1.981980651617050E-001;-4.235538840293884E-002;1.455101999454200E-003;-3.070221282541752E-003;
2.418500000000000E+009;1.971837282180786E-001;-4.236791282892227E-002;1.556523493491113E-003;-3.162463428452611E-003;
2.418666666666667E+009;1.961401253938675E-001;-4.215889796614647E-002;1.398431253619492E-003;-3.085191361606121E-003;
2.418833333333334E+009;1.948955506086350E-001;-4.226782172918320E-002;1.424600486643612E-003;-2.917227335274220E-003;
2.419000000000000E+009;1.935331523418427E-001;-4.252060502767563E-002;1.213514478877187E-003;-3.114166902378202E-003;
2.419166666666667E+009;1.922930777072907E-001;-4.294227063655853E-002;1.206970307976008E-003;-3.025452140718699E-003;
2.419333333333334E+009;1.908734589815140E-001;-4.329087957739830E-002;1.149514340795577E-003;-2.821230096742511E-003;
2.419500000000000E+009;1.893186718225479E-001;-4.370502382516861E-002;1.019445480778813E-003;-3.010060172528029E-003;
2.419666666666667E+009;1.876826137304306E-001;-4.446908086538315E-002;1.016278751194477E-003;-2.811698010191321E-003;
2.419833333333334E+009;1.860722899436951E-001;-4.501304402947426E-002;1.094974461011589E-003;-2.732153749093413E-003;
2.420000000000000E+009;1.846321374177933E-001;-4.593713209033012E-002;1.085899421013892E-003;-2.808101009577513E-003;
2.420166666666667E+009;1.828896850347519E-001;-4.688402637839317E-002;1.105491421185434E-003;-2.495172200724483E-003;
2.420333333333334E+009;1.811333596706390E-001;-4.804544895887375E-002;1.048198435455561E-003;-2.477693837136030E-003;
2.420500000000000E+009;1.795123815536499E-001;-4.935670271515846E-002;1.096695545129478E-003;-2.522187074646354E-003;
2.420666666666667E+009;1.779017001390457E-001;-5.040708556771278E-002;1.048764912411571E-003;-2.629341324791312E-003;
2.420833333333334E+009;1.764378100633621E-001;-5.196444317698479E-002;1.225536223500967E-003;-2.516804030165076E-003;
2.421000000000000E+009;1.747715324163437E-001;-5.349377542734146E-002;1.175266457721591E-003;-2.482063835486770E-003;
2.421166666666667E+009;1.733662784099579E-001;-5.518542230129242E-002;1.254466827958822E-003;-2.457187743857503E-003;
2.421333333333334E+009;1.717745214700699E-001;-5.664962157607079E-002;1.073753810487688E-003;-2.691725967451930E-003;
2.421500000000000E+009;1.704189032316208E-001;-5.841452255845070E-002;1.200900878757238E-003;-2.753116656094790E-003;
2.421666666666667E+009;1.691946983337402E-001;-6.037464737892151E-002;1.260860357433558E-003;-2.651719143614173E-003;
2.421833333333334E+009;1.681236922740936E-001;-6.234382465481758E-002;1.258709467947483E-003;-2.753584878519177E-003;
2.422000000000000E+009;1.670410484075546E-001;-6.407454609870911E-002;1.178811886347830E-003;-2.797921886667609E-003;
2.422166666666667E+009;1.661441624164581E-001;-6.628267467021942E-002;1.132886856794357E-003;-2.843375550583005E-003;
2.422333333333334E+009;1.650721728801727E-001;-6.831724196672440E-002;1.317335991188884E-003;-2.936620032414794E-003;
2.422500000000000E+009;1.645071655511856E-001;-7.016503065824509E-002;1.124704489484429E-003;-2.926310524344444E-003;
2.422666666666667E+009;1.636600494384766E-001;-7.223305106163025E-002;1.162148895673454E-003;-3.037195419892669E-003;
2.422833333333334E+009;1.632193326950073E-001;-7.447012513875961E-002;1.235997071489692E-003;-3.158361883834004E-003;
2.423000000000000E+009;1.627893596887589E-001;-7.650604099035263E-002;1.169906696304679E-003;-3.292298875749111E-003;
2.423166666666667E+009;1.625609993934631E-001;-7.831187546253204E-002;1.047329395078123E-003;-3.362650983035564E-003;
2.423333333333334E+009;1.621631830930710E-001;-8.035621792078018E-002;1.163680222816765E-003;-3.452163422480226E-003;
2.423500000000000E+009;1.621761322021484E-001;-8.217610418796539E-002;1.063567120581865E-003;-3.604193450883031E-003;
2.423666666666667E+009;1.622683405876160E-001;-8.404804021120071E-002;9.890353539958596E-004;-3.657185705378652E-003;
2.423833333333334E+009;1.622361689805985E-001;-8.587667346000671E-002;8.183232857845724E-004;-3.812482114881277E-003;
2.424000000000000E+009;1.624896079301834E-001;-8.762406557798386E-002;7.789431256242096E-004;-3.822224913164973E-003;
2.424166666666667E+009;1.625952720642090E-001;-8.930952101945877E-002;7.122524548321962E-004;-4.152675624936819E-003;
2.424333333333334E+009;1.627660393714905E-001;-9.073661267757416E-002;3.718622610904276E-004;-4.134404007345438E-003;
2.424500000000000E+009;1.632287502288818E-001;-9.252884238958359E-002;2.629416121635586E-004;-4.239753820002079E-003;
2.424666666666667E+009;1.634557247161865E-001;-9.379152208566666E-002;1.983710353670176E-005;-4.204958211630583E-003;
2.424833333333334E+009;1.641516238451004E-001;-9.502713382244110E-002;4.577511208481155E-005;-4.199565853923559E-003;
2.425000000000000E+009;1.645439416170120E-001;-9.621151536703110E-002;-1.677173859206960E-004;-4.361609928309917E-003;
2.425166666666667E+009;1.649131029844284E-001;-9.737619757652283E-002;-2.800045767799020E-004;-4.202038049697876E-003;
2.425333333333334E+009;1.652527004480362E-001;-9.827824681997299E-002;-3.809262416325510E-004;-4.225217271596193E-003;
2.425500000000000E+009;1.657724827528000E-001;-9.928820282220841E-002;-5.680472822859883E-004;-4.224704578518868E-003;
2.425666666666667E+009;1.662233173847199E-001;-9.984136372804642E-002;-6.386003224179149E-004;-4.430503118783236E-003;
2.425833333333334E+009;1.665240973234177E-001;-1.008084863424301E-001;-9.361418779008091E-004;-4.460416268557310E-003;
2.426000000000000E+009;1.669508069753647E-001;-1.013039201498032E-001;-8.634113473817706E-004;-4.434834234416485E-003;
2.426166666666667E+009;1.674044579267502E-001;-1.016618907451630E-001;-1.148626673966646E-003;-4.292707424610853E-003;
2.426333333333334E+009;1.675294786691666E-001;-1.021941825747490E-001;-1.315651927143335E-003;-4.279714543372393E-003;
2.426500000000000E+009;1.680504828691483E-001;-1.025628522038460E-001;-1.454188954085112E-003;-4.304761998355389E-003;
2.426666666666667E+009;1.681264787912369E-001;-1.028047204017639E-001;-1.618534908629954E-003;-4.189264494925737E-003;
2.426833333333334E+009;1.684662252664566E-001;-1.031443029642105E-001;-1.885467441752553E-003;-4.152191802859306E-003;
2.427000000000000E+009;1.684981435537338E-001;-1.032784432172775E-001;-1.815490075387061E-003;-4.086112603545189E-003;
2.427166666666667E+009;1.683672368526459E-001;-1.033755540847778E-001;-2.061825012788177E-003;-4.135445691645145E-003;
2.427333333333334E+009;1.683430373668671E-001;-1.037043258547783E-001;-2.261193934828043E-003;-4.103360697627068E-003;
2.427500000000000E+009;1.681991219520569E-001;-1.037946268916130E-001;-2.300112275406718E-003;-3.986166790127754E-003;
2.427666666666667E+009;1.678322702646256E-001;-1.038240417838097E-001;-2.452336018905044E-003;-3.847262589260936E-003;
2.427833333333334E+009;1.673310697078705E-001;-1.039577722549439E-001;-2.506959950551391E-003;-3.713587764650583E-003;
