# Hz S RI R 50
2400000000.0000000000 0.168737635016441400725994981258 0.045844428241252899169921875000 -0.005877464544028043746948242188 -0.001023324555717409090754843604 0 0 0 0 
2400166666.6666665077 0.169919520616531399825888115629 0.044918499886989586566965471093 -0.005935147404670715332031250000 -0.001048034522682427926304482568 0 0 0 0 
2400333333.3333334923 0.170836001634597806075888115629 0.043692272156476967548410783593 -0.006072912830859422683715820312 -0.000780711765401065349578857422 0 0 0 0 
2400500000.0000000000 0.171774879097938509842080634371 0.042792681604623801494557966407 -0.006057485938072204589843750000 -0.000703692086972296237945556641 0 0 0 0 
2400666666.6666665077 0.172596722841262789627236884371 0.041751340031623840332031250000 -0.006216288544237613677978515625 -0.000471043691504746675491333008 0 0 0 0 
2400833333.3333334923 0.173379242420196505447549384371 0.041003067046403891826589216407 -0.006336531601846218109130859375 -0.000425275298766791820526123047 0 0 0 0 
2401000000.0000000000 0.174404963850975008865518134371 0.040362481027841567993164062500 -0.006306758616119623184204101562 -0.000257254781899973804324549542 0 0 0 0 
2401166666.6666665077 0.175213709473609896560830634371 0.039525024592876427387277971093 -0.006551085039973258972167968750 -0.000034938537282869219779968262 0 0 0 0 
2401333333.3333334923 0.175932392477989196777343750000 0.038800407201051712036132812500 -0.006624863948673009872436523438 0.000384555110940709710121154785 0 0 0 0 
2401500000.0000000000 0.176580160856247003753338731258 0.038261339068412780761718750000 -0.006651720032095909118652343750 0.000469671009341254776150303973 0 0 0 0 
2401666666.6666665077 0.177295520901679992675781250000 0.037618022412061691284179687500 -0.006632301956415176391601562500 0.000646436179522424936294555664 0 0 0 0 
2401833333.3333334923 0.177906349301338195800781250000 0.036971993744373321533203125000 -0.006850662175565958023071289062 0.000949180568568408489227294922 0 0 0 0 
2402000000.0000000000 0.178176060318946810623330634371 0.036378815770149230957031250000 -0.006798822432756423950195312500 0.001121112843975424983380961841 0 0 0 0 
2402166666.6666665077 0.178720489144325311858807481258 0.035603255033493041992187500000 -0.006987595930695533752441406250 0.001550521934404968998552631909 0 0 0 0 
2402333333.3333334923 0.179003432393074007888955634371 0.035114943981170647357981096093 -0.006779365707188844680786132812 0.001714700949378312067744589697 0 0 0 0 
2402500000.0000000000 0.179524451494216891189736884371 0.034453321248292922973632812500 -0.006919370964169502258300781250 0.002006895607337356047389365088 0 0 0 0 
2402666666.6666665077 0.179742485284805297851562500000 0.034006435424089431762695312500 -0.006743334233760833740234375000 0.002312056953087449073791503906 0 0 0 0 
2402833333.3333334923 0.179853513836860712249432481258 0.033194396644830696796457658593 -0.006906485650688409805297851562 0.002642135834321380095240927588 0 0 0 0 
2403000000.0000000000 0.179971605539321899414062500000 0.032431766390800483013112653907 -0.006615825928747653961181640625 0.002951200585812329812290810693 0 0 0 0 
2403166666.6666665077 0.179869458079338101486044365629 0.031666230410337448120117187500 -0.006744774058461189270019531250 0.003047071630135178999659872900 0 0 0 0 
2403333333.3333334923 0.179884880781173706054687500000 0.030855841934680938720703125000 -0.006637433078140020370483398438 0.003433968639001249833347939600 0 0 0 0 
2403500000.0000000000 0.179661989212036105056924384371 0.030084606260061260568638985546 -0.006558245047926902770996093750 0.003849673783406614823582314600 0 0 0 0 
2403666666.6666665077 0.179455682635307312011718750000 0.029035955667495731008509451954 -0.006563187111169099807739257812 0.004200423136353492736816406250 0 0 0 0 
2403833333.3333334923 0.179141566157341003417968750000 0.028048424050211909902552420704 -0.006251675542443990707397460938 0.004444238264113664627075195312 0 0 0 0 
2404000000.0000000000 0.178824931383132906814736884371 0.026833942160010341299036795704 -0.006216216366738080978393554688 0.004742319695651531219482421875 0 0 0 0 
2404166666.6666665077 0.178242132067680386642294365629 0.025802075862884521484375000000 -0.006001326721161603927612304688 0.004937357734888792037963867188 0 0 0 0 
2404333333.3333334923 0.177862986922264099121093750000 0.024466671049594879150390625000 -0.005828474182635545730590820312 0.005241037812083959579467773438 0 0 0 0 
2404500000.0000000000 0.177321463823318509200888115629 0.023054398596286770212193673046 -0.005526711698621512326712323926 0.005523264873772859573364257812 0 0 0 0 
2404666666.6666665077 0.176862135529518099685830634371 0.021881749853491779672642891796 -0.005358540453016757965087890625 0.005649581085890532407278730176 0 0 0 0 
2404833333.3333334923 0.176489025354385403732138115629 0.020503222942352298391321951954 -0.005006784573197364807128906250 0.005987062584608793258666992188 0 0 0 0 
2405000000.0000000000 0.175863832235336303710937500000 0.019014304503798488271693045704 -0.004917179699987173080444335938 0.006043627392500638961791992188 0 0 0 0 
2405166666.6666665077 0.175430104136467007736044365629 0.017382590100169178354283516796 -0.004432735964655876159667968750 0.006379709113389253616333007812 0 0 0 0 
2405333333.3333334923 0.175045609474182101150674384371 0.015632057562470439565638358204 -0.004328770563006401062011718750 0.006514368113130331039428710938 0 0 0 0 
2405500000.0000000000 0.174592480063438387771768134371 0.014226614497601989400843436329 -0.004081400576978921890258789062 0.006615393329411745071411132812 0 0 0 0 
2405666666.6666665077 0.174235820770263699630575615629 0.012516680173575879878034022852 -0.003733949968591332001927041162 0.006668210029602050781250000000 0 0 0 0 
2405833333.3333334923 0.173663198947906494140625000000 0.010683561675250530242919921875 -0.003357610432431101799011230469 0.006862009409815073013305664062 0 0 0 0 
2406000000.0000000000 0.173494905233383206466513115629 0.008775082416832447052001953125 -0.002982774050906300978419638525 0.007016738876700401306152343750 0 0 0 0 
2406166666.6666665077 0.173211127519607488434161268742 0.006888333708047866821289062500 -0.002813498023897409005406045068 0.006986577529460191726684570312 0 0 0 0 
2406333333.3333334923 0.173184752464294405838174384371 0.005014517344534397125244140625 -0.002515982603654264970066689600 0.006999354809522628784179687500 0 0 0 0 
2406500000.0000000000 0.172838792204856900314169365629 0.002977958880364894866943359375 -0.002110565081238747076747275244 0.006935839541256427764892578125 0 0 0 0 
2406666666.6666665077 0.172796219587326105315838731258 0.000896374695003032684326171875 -0.001733293291181325912475585938 0.007017998490482568740844726562 0 0 0 0 
2406833333.3333334923 0.172832936048507690429687500000 -0.001135592930950223965885781396 -0.001458195038139820098876953125 0.007157166022807359695434570312 0 0 0 0 
2407000000.0000000000 0.172868698835372897049111884371 -0.003217840567231177850010537256 -0.001259398995898663997650146484 0.007140693720430135726928710938 0 0 0 0 
2407166666.6666665077 0.173010393977165194412393134371 -0.005216733086854218569283769824 -0.001037051901221274895908974756 0.007053753826767206192016601562 0 0 0 0 
2407333333.3333334923 0.173046469688415499588174384371 -0.007402837742120028409475995801 -0.000933256233111023902893066406 0.007065706886351109418387128613 0 0 0 0 
2407500000.0000000000 0.173405617475509588043536268742 -0.009506381116807460784912109375 -0.000543195346836000680923461914 0.007027432322502136230468750000 0 0 0 0 
2407666666.6666665077 0.173570230603218106368856865629 -0.011580737307667730504046055273 -0.000347982742823660373687744141 0.007083284668624401092529296875 0 0 0 0 
2407833333.3333334923 0.173690244555473299881143134371 -0.013693052344024179631243320898 -0.000069462214014492928981781006 0.007061522454023361206054687500 0 0 0 0 
2408000000.0000000000 0.174204126000404413421307481258 -0.016018219292163848876953125000 0.000208308018045499893739977426 0.006761135067790746688842773438 0 0 0 0 
2408166666.6666665077 0.174497485160827608963174384371 -0.017880076542496681213378906250 0.000502825248986482620239257812 0.006563151720911264419555664062 0 0 0 0 
2408333333.3333334923 0.175161048769950894454794365629 -0.019952841103076938283900076954 0.000423211546149104779392796649 0.006636235862970352172851562500 0 0 0 0 
2408500000.0000000000 0.175316259264946011642294365629 -0.021814180538058280944824218750 0.000755698652938008308410644531 0.006707071792334318161010742188 0 0 0 0 
2408666666.6666665077 0.175742551684379605392294365629 -0.023712100461125370370885079296 0.000897965626791119575500488281 0.006592962890863418579101562500 0 0 0 0 
2408833333.3333334923 0.176069885492324801345986884371 -0.025441026315093040466308593750 0.000965645478572696447372436523 0.006389873102307319641113281250 0 0 0 0 
2409000000.0000000000 0.176477059721946688553018134371 -0.027110585942864421499232108204 0.001241417950950562953948974609 0.006418935488909482955932617188 0 0 0 0 
2409166666.6666665077 0.176765084266662597656250000000 -0.028670072555541988718053048046 0.001438545878045260906219482422 0.006282125599682331085205078125 0 0 0 0 
2409333333.3333334923 0.177360355854034396072549384371 -0.030146347358822819101353829296 0.001431377138942480087280273438 0.006078035570681095123291015625 0 0 0 0 
2409500000.0000000000 0.177670702338218688964843750000 -0.031647756695747382427175153907 0.001604051794856786944745707935 0.006232369225472211837768554688 0 0 0 0 
2409666666.6666665077 0.178205251693725613693075615629 -0.032682191580533981323242187500 0.001688519376330078081843710791 0.006155442446470260620117187500 0 0 0 0 
2409833333.3333334923 0.178569242358207702636718750000 -0.033662836998701102519948591407 0.001810570480301975987078022534 0.006047626025974751386160566113 0 0 0 0 
2410000000.0000000000 0.179065078496933011154013115629 -0.034746766090393073345143903907 0.001925650984048842950108193506 0.006034486927092075347900390625 0 0 0 0 
2410166666.6666665077 0.179582431912422207931356865629 -0.035788364708423621440847028907 0.002064822940155864195582724463 0.005937765818089246749877929688 0 0 0 0 
2410333333.3333334923 0.179858803749084500411825615629 -0.036517862230539321899414062500 0.002217065310105680985691689600 0.006030823569744825363159179688 0 0 0 0 
2410500000.0000000000 0.180265814065933199783486884371 -0.037398543208837509155273437500 0.002297793049365282058715820312 0.005972589366137981414794921875 0 0 0 0 
2410666666.6666665077 0.180767729878425598144531250000 -0.038154244422912597656250000000 0.002542572328820825056788779150 0.006048586685210466384887695312 0 0 0 0 
2410833333.3333334923 0.181211948394775390625000000000 -0.038582235574722290039062500000 0.002770143328234552903416298975 0.006063218228518962860107421875 0 0 0 0 
2411000000.0000000000 0.181401833891868591308593750000 -0.039184153079986572265625000000 0.002885674592107533974888466943 0.005925795063376426696777343750 0 0 0 0 
2411166666.6666665077 0.181574732065200805664062500000 -0.040010083466768271709401716407 0.002984220860525966124293661963 0.006012883502990007400512695312 0 0 0 0 
2411333333.3333334923 0.181707292795181302169638115629 -0.040400575846433639526367187500 0.003349365433678030967712402344 0.005980168934911490354056073926 0 0 0 0 
2411500000.0000000000 0.181899338960647610763388115629 -0.040843188762664801860768903907 0.003551206085830926895141601562 0.005865806248039007186889648438 0 0 0 0 
2411666666.6666665077 0.181941419839859008789062500000 -0.041096646338701248168945312500 0.003649559570476413206813193213 0.005920185241848230361938476562 0 0 0 0 
2411833333.3333334923 0.181786313652992304046307481258 -0.041550904512405402446706403907 0.004078585654497146606445312500 0.005770950578153133392333984375 0 0 0 0 
2412000000.0000000000 0.181650191545486505706463731258 -0.041886758059263229370117187500 0.004373115487396717071533203125 0.005756880622357130050659179688 0 0 0 0 
2412166666.6666665077 0.181186348199844388107138115629 -0.042269986122846603393554687500 0.004495495464652776718139648438 0.005702052265405654907226562500 0 0 0 0 
2412333333.3333334923 0.181109070777893094161825615629 -0.042580984532833099365234375000 0.004672141280025243759155273438 0.005415712483227252960205078125 0 0 0 0 
2412500000.0000000000 0.180621176958084106445312500000 -0.042903002351522452617604841407 0.004988734144717454910278320312 0.005610520485788583755493164062 0 0 0 0 
2412666666.6666665077 0.180059805512428311446981865629 -0.043306153267621987079660783593 0.005315862596035003662109375000 0.005263785831630229949951171875 0 0 0 0 
2412833333.3333334923 0.179281920194625910003338731258 -0.043632179498672492290456403907 0.005712777841836214065551757812 0.005283519160002470016479492188 0 0 0 0 
2413000000.0000000000 0.178554803133010892013388115629 -0.044011928141117102886159528907 0.005822853185236454010009765625 0.004915587138384580612182617188 0 0 0 0 
2413166666.6666665077 0.177868232131004305740518134371 -0.044485714286565780639648437500 0.006190236192196607589721679688 0.004614745266735553741455078125 0 0 0 0 
2413333333.3333334923 0.176809385418891906738281250000 -0.044881604611873626708984375000 0.006313363090157508850097656250 0.004504844080656766891479492188 0 0 0 0 
2413500000.0000000000 0.175964966416359003265057481258 -0.045474316924810409545898437500 0.006488761398941279325003339551 0.004198618698865175247192382812 0 0 0 0 
2413666666.6666665077 0.175054758787155206878338731258 -0.045995213091373436664621721093 0.006582393776625394821166992188 0.004097068682312965393066406250 0 0 0 0 
2413833333.3333334923 0.173840194940566988845986884371 -0.046390201896429061889648437500 0.007048144470900297164916992188 0.003701511537656188011169433594 0 0 0 0 
2414000000.0000000000 0.172549784183502197265625000000 -0.047236330807209021831472028907 0.007085079792886972427368164062 0.003393473802134395079371786963 0 0 0 0 
2414166666.6666665077 0.171637967228889493087606865629 -0.047662399709224700927734375000 0.007410275284200906753540039062 0.003020444419234991073608398438 0 0 0 0 
2414333333.3333334923 0.170474082231521606445312500000 -0.048641696572303771972656250000 0.007368890102952718734741210938 0.002654668642207980155944824219 0 0 0 0 
2414500000.0000000000 0.169356539845466613769531250000 -0.049457576125860207294504533593 0.007511463947594165802001953125 0.002423854777589439912083291162 0 0 0 0 
2414666666.6666665077 0.168066918849945096114950615629 -0.050369605422019958496093750000 0.007537649944424629211425781250 0.002183593809604645209071493994 0 0 0 0 
2414833333.3333334923 0.166931539773941012283486884371 -0.051569335162639617919921875000 0.007525133900344371795654296875 0.001872270717285573916194296729 0 0 0 0 
2415000000.0000000000 0.165733739733696011642294365629 -0.052448872476816177368164062500 0.007778228260576725006103515625 0.001599341398105025074602436597 0 0 0 0 
2415166666.6666665077 0.164560839533805902679119981258 -0.053773444145917892456054687500 0.007732530590146780014038085938 0.001326985191553831100463867188 0 0 0 0 
2415333333.3333334923 0.163608536124229403396768134371 -0.055243648588657379150390625000 0.007615240290760993957519531250 0.000896052748430520296096801758 0 0 0 0 
2415500000.0000000000 0.162336036562919588943643134371 -0.056622784584760672832448591407 0.007678241003304719924926757812 0.000482691539218649322360438214 0 0 0 0 
2415666666.6666665077 0.161146312952041598220986884371 -0.057942833751440048217773437500 0.007594785653054714202880859375 0.000286814058199524879455566406 0 0 0 0 
2415833333.3333334923 0.160183712840080288986044365629 -0.059549212455749511718750000000 0.007682961877435445785522460938 -0.000002025716185016789981399336 0 0 0 0 
2416000000.0000000000 0.159015432000160189529580634371 -0.061212323606014251708984375000 0.007576919160783290863037109375 -0.000291425909381359815597534180 0 0 0 0 
2416166666.6666665077 0.158129468560218811035156250000 -0.063048109412193298339843750000 0.007608756888657808303833007812 -0.000825997209176421165466308594 0 0 0 0 
2416333333.3333334923 0.157189190387725802322549384371 -0.064787901937961578369140625000 0.007360964547842741012573242188 -0.001117578358389436981798481519 0 0 0 0 
2416500000.0000000000 0.156097725033760098556356865629 -0.066751003265380859375000000000 0.007312063593417406082153320312 -0.001456178957596421024919819409 0 0 0 0 
2416666666.6666665077 0.155294582247734097579794365629 -0.068482629954814910888671875000 0.007356268353760243329519941113 -0.001454878365620970942853618091 0 0 0 0 
2416833333.3333334923 0.154462188482284601409588731258 -0.070589527487754821777343750000 0.007107800338417291641235351562 -0.001686366857029498057124472510 0 0 0 0 
2417000000.0000000000 0.153530433773994501311932481258 -0.072545841336250305175781250000 0.007016685325652360916137695312 -0.001956155057996511893031454932 0 0 0 0 
2417166666.6666665077 0.152775958180427606780682481258 -0.074308857321739196777343750000 0.006795451510697603225708007812 -0.002148977480828762054443359375 0 0 0 0 
2417333333.3333334923 0.152229011058807400802450615629 -0.076285503804683685302734375000 0.006818993948400020599365234375 -0.002440755488350987000706338037 0 0 0 0 
2417500000.0000000000 0.151621118187904413421307481258 -0.078301303088665008544921875000 0.006534823216497898101806640625 -0.002597196260467172102687216650 0 0 0 0 
2417666666.6666665077 0.151241898536682101150674384371 -0.080013498663902282714843750000 0.006463399156928061571603105762 -0.002856806619092822074890136719 0 0 0 0 
2417833333.3333334923 0.150730356574058504959268134371 -0.081966944038867950439453125000 0.006272621918469666567330644824 -0.002991166198626161055323935400 0 0 0 0 
2418000000.0000000000 0.150260850787162808517294365629 -0.083822406828403472900390625000 0.006056115496903657913208007812 -0.003069444093853234811070107568 0 0 0 0 
2418166666.6666665077 0.149973019957542391678018134371 -0.085300281643867492675781250000 0.006082335021346808347220136426 -0.003195197787135839895961142432 0 0 0 0 
2418333333.3333334923 0.149994134902954101562500000000 -0.087165065109729766845703125000 0.005900992080569267272949218750 -0.003515275660902262167689658057 0 0 0 0 
2418500000.0000000000 0.149572655558586092849893134371 -0.088804066181182861328125000000 0.005841432604938746366018964551 -0.003720752196386456923243857275 0 0 0 0 
2418666666.6666665077 0.149622842669486999511718750000 -0.090251699090003967285156250000 0.005659399088472127914428710938 -0.003956931177526712417602539062 0 0 0 0 
2418833333.3333334923 0.149362042546272305587606865629 -0.091719843447208404541015625000 0.005524658132344484329223632812 -0.004118259996175765991210937500 0 0 0 0 
2419000000.0000000000 0.149368613958358792404013115629 -0.092982165515422821044921875000 0.005423097871243953704833984375 -0.004234704189002513885498046875 0 0 0 0 
2419166666.6666665077 0.149466946721076993087606865629 -0.094255097210407257080078125000 0.005210849922150374326224042676 -0.004473890643566846847534179688 0 0 0 0 
2419333333.3333334923 0.149542033672332791427450615629 -0.095222972333431243896484375000 0.005164769012480974197387695312 -0.004537030588835477828979492188 0 0 0 0 
2419500000.0000000000 0.149693772196769686599893134371 -0.096327573060989379882812500000 0.004893256351351737976074218750 -0.004792551510035991668701171875 0 0 0 0 
2419666666.6666665077 0.149864032864570589920205634371 -0.097294822335243225097656250000 0.004706277046352624893188476562 -0.004997571464627981185913085938 0 0 0 0 
2419833333.3333334923 0.149926424026489313323651231258 -0.097986556589603424072265625000 0.004510944709181785583496093750 -0.005063982680439949035644531250 0 0 0 0 
