# Version 1.00
#
freq[Hz];re:Trc1_S11;im:Trc1_S11;re:Trc2_S21;im:Trc2_S21;
2.400000000000000E+009;1.563713401556015E-001;1.119594946503639E-001;8.398731588385999E-004;3.823669394478202E-003;
2.400166666666667E+009;1.558764874935150E-001;1.096734106540680E-001;9.984037606045604E-004;3.891357220709324E-003;
2.400333333333334E+009;1.556048095226288E-001;1.072422713041306E-001;1.250211382284761E-003;3.958521410822868E-003;
2.400500000000000E+009;1.553300768136978E-001;1.046840324997902E-001;1.471930649131537E-003;4.026449285447598E-003;
2.400666666666667E+009;1.551813334226608E-001;1.022076010704041E-001;1.627030549570918E-003;4.009294323623180E-003;
2.400833333333334E+009;1.549126356840134E-001;9.929490834474564E-002;1.827408326789737E-003;4.047280177474022E-003;
2.401000000000000E+009;1.548369526863098E-001;9.646757692098618E-002;1.962348120287061E-003;4.048126749694347E-003;
2.401166666666667E+009;1.544656753540039E-001;9.359390288591385E-002;2.120457589626312E-003;4.106728825718164E-003;
2.401333333333334E+009;1.547031402587891E-001;9.059118479490280E-002;2.470034873113036E-003;4.040835890918970E-003;
2.401500000000000E+009;1.549805402755737E-001;8.768473565578461E-002;2.739982213824987E-003;3.948965575546026E-003;
2.401666666666667E+009;1.551517993211746E-001;8.459018915891647E-002;3.054144559428096E-003;3.859938355162740E-003;
2.401833333333334E+009;1.553482115268707E-001;8.172707259654999E-002;3.066805889829993E-003;3.732722252607346E-003;
2.402000000000000E+009;1.558587849140167E-001;7.881433516740799E-002;3.192441537976265E-003;3.720722626894712E-003;
2.402166666666667E+009;1.566676497459412E-001;7.607881724834442E-002;3.335491521283984E-003;3.651092061772943E-003;
2.402333333333334E+009;1.572642922401428E-001;7.281121611595154E-002;3.719777334481478E-003;3.321500262245536E-003;
2.402500000000000E+009;1.585076451301575E-001;7.029334455728531E-002;3.658053465187550E-003;3.164099063724279E-003;
2.402666666666667E+009;1.595016121864319E-001;6.758741289377213E-002;3.830338362604380E-003;3.223814303055406E-003;
2.402833333333334E+009;1.607566326856613E-001;6.475608795881271E-002;4.069097340106964E-003;2.902291249483824E-003;
2.403000000000000E+009;1.621476709842682E-001;6.207383796572685E-002;4.373871721327305E-003;2.783735515549779E-003;
2.403166666666667E+009;1.639902591705322E-001;5.967498943209648E-002;4.240652546286583E-003;2.635370008647442E-003;
2.403333333333334E+009;1.653759628534317E-001;5.716200917959213E-002;4.472624976187944E-003;2.700131852179766E-003;
2.403500000000000E+009;1.673378497362137E-001;5.499621853232384E-002;4.475709982216358E-003;2.412633271887898E-003;
2.403666666666667E+009;1.689732670783997E-001;5.263189971446991E-002;4.548474680632353E-003;2.243158640339971E-003;
2.403833333333334E+009;1.707928031682968E-001;5.056349933147430E-002;4.770081490278244E-003;2.182895317673683E-003;
2.404000000000000E+009;1.721397042274475E-001;4.848978668451309E-002;4.829828161746264E-003;1.811209833249450E-003;
2.404166666666667E+009;1.743029505014420E-001;4.688611999154091E-002;4.828810691833496E-003;1.880876021459699E-003;
2.404333333333334E+009;1.758906394243240E-001;4.477253556251526E-002;5.038648378103972E-003;1.456054509617388E-003;
2.404500000000000E+009;1.779095232486725E-001;4.331890493631363E-002;5.082610063254833E-003;1.292907167226076E-003;
2.404666666666667E+009;1.796506941318512E-001;4.209791868925095E-002;5.181206390261650E-003;1.096114981919527E-003;
2.404833333333334E+009;1.814481765031815E-001;4.085872322320938E-002;5.271920002996922E-003;9.999885223805904E-004;
2.405000000000000E+009;1.829446852207184E-001;3.999376296997070E-002;5.361335352063179E-003;8.412732277065516E-004;
2.405166666666667E+009;1.848289072513580E-001;3.917383030056953E-002;5.491611082106829E-003;5.225779605098069E-004;
2.405333333333334E+009;1.864529848098755E-001;3.858068212866783E-002;5.527415312826634E-003;3.040100855287164E-004;
2.405500000000000E+009;1.880369335412979E-001;3.796473518013954E-002;5.671361926943064E-003;1.742441963870078E-004;
2.405666666666667E+009;1.895624697208405E-001;3.759513050317764E-002;5.498006939888001E-003;-1.270821958314627E-004;
2.405833333333334E+009;1.911149173974991E-001;3.722148388624191E-002;5.439576692879200E-003;-4.874723090324551E-004;
2.406000000000000E+009;1.923672407865524E-001;3.707796707749367E-002;5.570868495851755E-003;-6.561466143466532E-004;
2.406166666666667E+009;1.934743076562882E-001;3.705837205052376E-002;5.556022282689810E-003;-1.148629118688405E-003;
2.406333333333334E+009;1.946836113929749E-001;3.709883242845535E-002;5.526115652173758E-003;-1.148091512732208E-003;
2.406500000000000E+009;1.957211792469025E-001;3.721936792135239E-002;5.442698020488024E-003;-1.428927760571241E-003;
2.406666666666667E+009;1.966437995433807E-001;3.729147836565971E-002;5.367494188249111E-003;-1.529247383587062E-003;
2.406833333333334E+009;1.974542737007141E-001;3.760122880339623E-002;5.278469994664192E-003;-1.953427679836750E-003;
2.407000000000000E+009;1.979278326034546E-001;3.797459602355957E-002;5.092274863272905E-003;-2.125032711774111E-003;
2.407166666666667E+009;1.985075473785400E-001;3.803678974509239E-002;4.991643596440554E-003;-2.363395178690553E-003;
2.407333333333334E+009;1.985621005296707E-001;3.840023651719093E-002;4.867947194725275E-003;-2.545035211369395E-003;
2.407500000000000E+009;1.988246589899063E-001;3.870461508631706E-002;4.690089263021946E-003;-2.634923672303557E-003;
2.407666666666667E+009;1.988735646009445E-001;3.896027058362961E-002;4.542181268334389E-003;-2.753285458311439E-003;
2.407833333333334E+009;1.986825913190842E-001;3.916701674461365E-002;4.434444475919008E-003;-2.849040087312460E-003;
2.408000000000000E+009;1.986044943332672E-001;3.932044655084610E-002;4.285603761672974E-003;-3.048083977773786E-003;
2.408166666666667E+009;1.980395317077637E-001;3.933818638324738E-002;4.144673701375723E-003;-3.190828021615744E-003;
2.408333333333334E+009;1.978124380111694E-001;3.912229463458061E-002;4.036446567624807E-003;-3.260772675275803E-003;
2.408500000000000E+009;1.969489008188248E-001;3.913777694106102E-002;3.834659233689308E-003;-3.435584018006921E-003;
2.408666666666667E+009;1.963522583246231E-001;3.880248591303825E-002;3.662436036393046E-003;-3.511687042191625E-003;
2.408833333333334E+009;1.955665647983551E-001;3.849182650446892E-002;3.494148841127753E-003;-3.451162716373801E-003;
2.409000000000000E+009;1.946588158607483E-001;3.786002472043037E-002;3.265600884333253E-003;-3.592105815187097E-003;
2.409166666666667E+009;1.934984326362610E-001;3.719901666045189E-002;3.228534711524844E-003;-3.745617344975472E-003;
2.409333333333334E+009;1.925294101238251E-001;3.642055019736290E-002;3.107711439952254E-003;-3.812370589002967E-003;
2.409500000000000E+009;1.912639290094376E-001;3.541224077343941E-002;2.779300324618816E-003;-3.848942229524255E-003;
2.409666666666667E+009;1.900340020656586E-001;3.437352925539017E-002;2.608653390780091E-003;-3.980950918048620E-003;
2.409833333333334E+009;1.889622360467911E-001;3.307338058948517E-002;2.499470021575689E-003;-3.810521448031068E-003;
2.410000000000000E+009;1.876446902751923E-001;3.162783011794090E-002;2.212565625086427E-003;-3.990268800407648E-003;
2.410166666666667E+009;1.865222603082657E-001;3.018359094858170E-002;2.102018101140857E-003;-3.849491477012634E-003;
2.410333333333334E+009;1.853054016828537E-001;2.852877043187618E-002;1.906517543829978E-003;-3.926993813365698E-003;
2.410500000000000E+009;1.841348111629486E-001;2.675115689635277E-002;1.818914082832634E-003;-3.905829740688205E-003;
2.410666666666667E+009;1.830142438411713E-001;2.462180703878403E-002;1.644119620323181E-003;-3.734058234840632E-003;
2.410833333333334E+009;1.819885969161987E-001;2.269692346453667E-002;1.662898925133050E-003;-3.804902778938413E-003;
2.411000000000000E+009;1.809788942337036E-001;2.029694616794586E-002;1.671925652772188E-003;-3.756698220968247E-003;
2.411166666666667E+009;1.801876127719879E-001;1.823670789599419E-002;1.532612484879792E-003;-3.769292030483484E-003;
2.411333333333334E+009;1.793128103017807E-001;1.562309265136719E-002;1.557396957650781E-003;-3.824329236522317E-003;
2.411500000000000E+009;1.784775853157044E-001;1.335771009325981E-002;1.320514595136046E-003;-3.831664798781276E-003;
2.411666666666667E+009;1.782236844301224E-001;1.101085916161537E-002;1.184204360470176E-003;-3.614677581936121E-003;
2.411833333333334E+009;1.776009202003479E-001;8.336011320352554E-003;1.111176214180887E-003;-3.747212700545788E-003;
2.412000000000000E+009;1.775496304035187E-001;5.677981302142143E-003;1.074953121133149E-003;-3.660181770101190E-003;
2.412166666666667E+009;1.774960905313492E-001;3.289724932983518E-003;1.121959183365107E-003;-3.779017133638263E-003;
2.412333333333334E+009;1.776556968688965E-001;6.456294213421643E-004;9.671663865447044E-004;-3.641966497525573E-003;
2.412500000000000E+009;1.777254343032837E-001;-1.960876397788525E-003;8.911400218494237E-004;-3.467121627181768E-003;
2.412666666666667E+009;1.779986023902893E-001;-4.626311827450991E-003;8.753124275244772E-004;-3.715622937306762E-003;
2.412833333333334E+009;1.787585318088532E-001;-7.299866061657667E-003;8.717888849787414E-004;-3.588532796129584E-003;
2.413000000000000E+009;1.794364601373673E-001;-9.796057827770710E-003;8.117104298435152E-004;-3.619537455961108E-003;
2.413166666666667E+009;1.800078749656677E-001;-1.230931561440229E-002;9.079372975975275E-004;-3.626723308116198E-003;
2.413333333333334E+009;1.812193393707275E-001;-1.488453615456820E-002;7.766659255139530E-004;-3.649652935564518E-003;
2.413500000000000E+009;1.820501089096069E-001;-1.751824282109737E-002;7.591723697260022E-004;-3.705908078700304E-003;
2.413666666666667E+009;1.831664592027664E-001;-1.988300308585167E-002;6.753902416676283E-004;-3.826593281701207E-003;
2.413833333333334E+009;1.843915134668350E-001;-2.200689353048801E-002;5.349240964278579E-004;-3.936540335416794E-003;
2.414000000000000E+009;1.854910105466843E-001;-2.430856600403786E-002;5.601457087323070E-004;-3.876896575093269E-003;
2.414166666666667E+009;1.869175881147385E-001;-2.646010369062424E-002;4.412215494085103E-004;-4.021421540528536E-003;
2.414333333333334E+009;1.879953593015671E-001;-2.844230085611343E-002;3.559965407475829E-004;-4.069331567734480E-003;
2.414500000000000E+009;1.894096285104752E-001;-3.025705553591251E-002;1.734551624394953E-004;-4.145308397710323E-003;
2.414666666666667E+009;1.909033507108688E-001;-3.182798624038696E-002;1.440694468328729E-004;-4.202272277325392E-003;
2.414833333333334E+009;1.922553628683090E-001;-3.354190662503243E-002;-3.006870429089759E-005;-4.199924413114786E-003;
2.415000000000000E+009;1.934790760278702E-001;-3.498625382781029E-002;-1.846879458753392E-004;-4.272463265806437E-003;
2.415166666666667E+009;1.949609071016312E-001;-3.628933429718018E-002;-1.569313899381086E-004;-4.290013574063778E-003;
2.415333333333334E+009;1.964696496725082E-001;-3.750799223780632E-002;-2.783336094580591E-004;-4.228402394801378E-003;
2.415500000000000E+009;1.976715326309204E-001;-3.833121806383133E-002;-4.032597644254565E-004;-4.316961392760277E-003;
2.415666666666667E+009;1.990264505147934E-001;-3.931150957942009E-002;-4.751362430397421E-004;-4.422962665557861E-003;
2.415833333333334E+009;2.000236064195633E-001;-4.000515490770340E-002;-6.436419207602739E-004;-4.519753623753786E-003;
2.416000000000000E+009;2.011054307222366E-001;-4.066102579236031E-002;-7.161309476941824E-004;-4.625223577022553E-003;
2.416166666666667E+009;2.022407650947571E-001;-4.140060395002365E-002;-9.974450804293156E-004;-4.653252195566893E-003;
2.416333333333334E+009;2.031147480010986E-001;-4.162928462028503E-002;-1.246120547875762E-003;-4.612124525010586E-003;
2.416500000000000E+009;2.039502859115601E-001;-4.194971174001694E-002;-1.293758396059275E-003;-4.726873710751534E-003;
2.416666666666667E+009;2.044872939586639E-001;-4.231374338269234E-002;-1.462571672163904E-003;-4.757830873131752E-003;
2.416833333333334E+009;2.049371302127838E-001;-4.231547191739082E-002;-1.855987589806318E-003;-4.740366246551275E-003;
2.417000000000000E+009;2.053844034671783E-001;-4.245559126138687E-002;-1.969273900613189E-003;-4.814739339053631E-003;
2.417166666666667E+009;2.053033262491226E-001;-4.227902367711067E-002;-2.251298399642110E-003;-4.628050606697798E-003;
2.417333333333334E+009;2.052486240863800E-001;-4.191054403781891E-002;-2.487778896465898E-003;-4.485446494072676E-003;
2.417500000000000E+009;2.053345590829849E-001;-4.180564358830452E-002;-2.506735501810908E-003;-4.524284508079290E-003;
2.417666666666667E+009;2.050236314535141E-001;-4.143494367599487E-002;-2.806744305416942E-003;-4.440908785909414E-003;
2.417833333333334E+009;2.047466784715653E-001;-4.111043736338615E-002;-2.904392546042800E-003;-4.151234403252602E-003;
2.418000000000000E+009;2.042823284864426E-001;-4.075139760971069E-002;-3.117934567853808E-003;-4.214640706777573E-003;
2.418166666666667E+009;2.036586254835129E-001;-4.035231471061707E-002;-3.308455226942897E-003;-3.931808751076460E-003;
2.418333333333334E+009;2.028504312038422E-001;-4.011425748467445E-002;-3.280826844274998E-003;-3.809942398220301E-003;
2.418500000000000E+009;2.018635571002960E-001;-4.000006988644600E-002;-3.513127565383911E-003;-3.823140403255820E-003;
2.418666666666667E+009;2.011006474494934E-001;-3.954022377729416E-002;-3.591921646147966E-003;-3.692100057378411E-003;
2.418833333333334E+009;1.999417692422867E-001;-3.960728272795677E-002;-3.764840075746179E-003;-3.583809826523066E-003;
2.419000000000000E+009;1.986535191535950E-001;-3.946250304579735E-002;-3.909082617610693E-003;-3.453560406342149E-003;
2.419166666666667E+009;1.973844319581986E-001;-3.943652659654617E-002;-3.782844869419932E-003;-3.283224068582058E-003;
2.419333333333334E+009;1.960441917181015E-001;-3.979212045669556E-002;-4.006210248917341E-003;-3.228745423257351E-003;
2.419500000000000E+009;1.944674849510193E-001;-4.016036167740822E-002;-4.009754862636328E-003;-3.215472679585218E-003;
2.419666666666667E+009;1.927684992551804E-001;-4.071983322501183E-002;-4.295908380299807E-003;-3.103296970948577E-003;
2.419833333333334E+009;1.911420375108719E-001;-4.118467867374420E-002;-4.388285335153341E-003;-2.927164779976010E-003;
2.420000000000000E+009;1.894390583038330E-001;-4.179840534925461E-002;-4.464609548449516E-003;-2.953906077891588E-003;
2.420166666666667E+009;1.876792758703232E-001;-4.252199456095696E-002;-4.584609996527433E-003;-2.778400201350451E-003;
2.420333333333334E+009;1.858861744403839E-001;-4.355135560035706E-002;-4.766235593706369E-003;-2.633696654811502E-003;
2.420500000000000E+009;1.840677559375763E-001;-4.475837200880051E-002;-4.978987388312817E-003;-2.471286337822676E-003;
2.420666666666667E+009;1.822018325328827E-001;-4.578811675310135E-002;-5.122546106576920E-003;-2.152130706235766E-003;
2.420833333333334E+009;1.804512292146683E-001;-4.715024307370186E-002;-5.309405736625195E-003;-2.106867963448167E-003;
2.421000000000000E+009;1.787415891885757E-001;-4.854562506079674E-002;-5.518215708434582E-003;-1.976654166355729E-003;
2.421166666666667E+009;1.772404909133911E-001;-5.045509710907936E-002;-5.596960429102182E-003;-1.765502966009080E-003;
2.421333333333334E+009;1.752534359693527E-001;-5.183468014001846E-002;-5.692522507160902E-003;-1.478597987443209E-003;
2.421500000000000E+009;1.738998740911484E-001;-5.382571741938591E-002;-5.724349059164524E-003;-1.206361455842853E-003;
2.421666666666667E+009;1.723262667655945E-001;-5.559981614351273E-002;-5.792406853288412E-003;-8.517263922840357E-004;
2.421833333333334E+009;1.708300709724426E-001;-5.765149369835854E-002;-5.812441464513540E-003;-7.415002910420299E-004;
2.422000000000000E+009;1.695589274168015E-001;-5.954315885901451E-002;-5.747540853917599E-003;-3.164571535307914E-004;
2.422166666666667E+009;1.684527993202210E-001;-6.186789274215698E-002;-5.788129288703203E-003;-9.745950228534639E-005;
2.422333333333334E+009;1.671746671199799E-001;-6.395474821329117E-002;-5.709031131118536E-003;2.343956439290196E-004;
2.422500000000000E+009;1.663387268781662E-001;-6.606956571340561E-002;-5.609853193163872E-003;3.922259493265301E-004;
2.422666666666667E+009;1.656621545553207E-001;-6.820142269134522E-002;-5.508335772901774E-003;6.373006035573781E-004;
2.422833333333334E+009;1.648567318916321E-001;-7.044871151447296E-002;-5.525982007384300E-003;1.010870561003685E-003;
2.423000000000000E+009;1.642334461212158E-001;-7.272636890411377E-002;-5.231558345258236E-003;1.117850886657834E-003;
2.423166666666667E+009;1.636623293161392E-001;-7.492530345916748E-002;-5.136083811521530E-003;1.327957375906408E-003;
2.423333333333334E+009;1.633872985839844E-001;-7.725179940462112E-002;-4.957027267664671E-003;1.557118725031614E-003;
2.423500000000000E+009;1.633083075284958E-001;-7.927566766738892E-002;-4.966557957231998E-003;1.739351078867912E-003;
2.423666666666667E+009;1.631709635257721E-001;-8.140181750059128E-002;-4.744739271700382E-003;1.815716037526727E-003;
2.423833333333334E+009;1.630434691905975E-001;-8.350837975740433E-002;-4.572109784930944E-003;1.908101490698755E-003;
2.424000000000000E+009;1.632739454507828E-001;-8.544805645942688E-002;-4.502126015722752E-003;2.035966143012047E-003;
2.424166666666667E+009;1.634019166231155E-001;-8.732066303491592E-002;-4.453729838132858E-003;2.367930719628930E-003;
2.424333333333334E+009;1.635252833366394E-001;-8.914066851139069E-002;-4.242254421114922E-003;2.317798323929310E-003;
2.424500000000000E+009;1.641020327806473E-001;-9.108804911375046E-002;-4.197744652628899E-003;2.245575888082385E-003;
2.424666666666667E+009;1.642598360776901E-001;-9.265085309743881E-002;-4.121245816349983E-003;2.564895432442427E-003;
2.424833333333334E+009;1.650470048189163E-001;-9.430345892906189E-002;-3.886323189362884E-003;2.522159833461046E-003;
2.425000000000000E+009;1.654912084341049E-001;-9.560576081275940E-002;-3.706857096403837E-003;2.695508766919375E-003;
2.425166666666667E+009;1.659350395202637E-001;-9.700673073530197E-002;-3.699738532304764E-003;2.648494439199567E-003;
2.425333333333334E+009;1.663799285888672E-001;-9.825056791305542E-002;-3.543137107044458E-003;2.771014580503106E-003;
2.425500000000000E+009;1.671033799648285E-001;-9.942539036273956E-002;-3.470443189144135E-003;2.752661006525159E-003;
2.425666666666667E+009;1.674738526344299E-001;-1.001490652561188E-001;-3.391685662791133E-003;2.885378198698163E-003;
2.425833333333334E+009;1.680461764335632E-001;-1.012020707130432E-001;-3.327196929603815E-003;2.902403939515352E-003;
2.426000000000000E+009;1.687565892934799E-001;-1.017094030976296E-001;-3.181381616741419E-003;3.092050785198808E-003;
2.426166666666667E+009;1.693105846643448E-001;-1.022548377513886E-001;-3.203289816156030E-003;2.967742970213294E-003;
2.426333333333334E+009;1.696299463510513E-001;-1.028619483113289E-001;-2.995823277160525E-003;3.095917636528611E-003;
2.426500000000000E+009;1.703171432018280E-001;-1.031932383775711E-001;-2.845752518624067E-003;3.226867178454995E-003;
2.426666666666667E+009;1.707309037446976E-001;-1.034603044390678E-001;-2.902002772316337E-003;3.176425350829959E-003;
2.426833333333334E+009;1.712086796760559E-001;-1.038383394479752E-001;-2.712790854275227E-003;3.284369129687548E-003;
2.427000000000000E+009;1.714985370635986E-001;-1.040161252021790E-001;-2.575272228568792E-003;3.221976803615689E-003;
2.427166666666667E+009;1.716732829809189E-001;-1.040183380246162E-001;-2.593353623524308E-003;3.350375918671489E-003;
2.427333333333334E+009;1.718436926603317E-001;-1.041457578539848E-001;-2.484169788658619E-003;3.373378654941917E-003;
2.427500000000000E+009;1.719105839729309E-001;-1.043127998709679E-001;-2.325311070308089E-003;3.604753641411662E-003;
2.427666666666667E+009;1.717698425054550E-001;-1.042947173118591E-001;-2.148769097402692E-003;3.549211658537388E-003;
