# Hz S RI R 50
2400000000.0000000000 0.171423643827438410003338731258 0.040029734373092651367187500000 -0.003694647224619985060450888525 0.000112953282950911698028287344 0 0 0 0 
2400166666.6666665077 0.172095939517021206954794365629 0.039713490754365921020507812500 -0.003769791452214121818542480469 0.000237147702137008309364318848 0 0 0 0 
2400333333.3333334923 0.172370597720146206954794365629 0.039064522832632071758229841407 -0.003767509013414382934570312500 0.000312233605654910206794738770 0 0 0 0 
2400500000.0000000000 0.172966882586479187011718750000 0.038587454706430442119557966407 -0.003893409855663775964024209131 0.000442118616774678176075535907 0 0 0 0 
2400666666.6666665077 0.173122644424438504318075615629 0.037641294300556182861328125000 -0.003680799622088671164271689307 0.000458665774203836917877197266 0 0 0 0 
2400833333.3333334923 0.173435196280479403396768134371 0.037236031144857406616210937500 -0.003802062943577765984776162256 0.000663592887576669454574584961 0 0 0 0 
2401000000.0000000000 0.173691570758819607833700615629 0.036484055221080780029296875000 -0.003952417057007551193237304688 0.000772786850575357675552368164 0 0 0 0 
2401166666.6666665077 0.173817142844200106521768134371 0.036052472889423370361328125000 -0.003743282286450266838073730469 0.000837276515085250139236450195 0 0 0 0 
2401333333.3333334923 0.173516720533370999435263115629 0.035463754087686538696289062500 -0.004074747208505868911743164062 0.000919726211577653884887695312 0 0 0 0 
2401500000.0000000000 0.173733100295066805740518134371 0.034843858331441879272460937500 -0.003923647105693817138671875000 0.001030919840559362931492470850 0 0 0 0 
2401666666.6666665077 0.173701271414756802657919365629 0.034119170159101493144948591407 -0.003789884736761451201197958838 0.001236913958564401106593466650 0 0 0 0 
2401833333.3333334923 0.173225283622741699218750000000 0.033270761370658881450612653907 -0.003766770241782069206237792969 0.001278964686207473061205219800 0 0 0 0 
2402000000.0000000000 0.173126146197319003006143134371 0.032635748386383056640625000000 -0.003756155725568532943725585938 0.001531856134533881924272846753 0 0 0 0 
2402166666.6666665077 0.172896608710289001464843750000 0.031784240156412131572682966407 -0.003862724639475346045253134619 0.001454044366255402998683310400 0 0 0 0 
2402333333.3333334923 0.172642022371292086502236884371 0.031059110537171360361119454296 -0.003798695513978600935695029150 0.001715738093480468013166118091 0 0 0 0 
2402500000.0000000000 0.172505810856819208343182481258 0.030226552858948711050013358204 -0.003757874947041273117065429688 0.001917799469083548025843954932 0 0 0 0 
2402666666.6666665077 0.172042950987815912444744981258 0.029167203232645988464355468750 -0.003504978725686668915989541162 0.001982552697882055802586220850 0 0 0 0 
2402833333.3333334923 0.171945348381996210296307481258 0.028083303943276408803919608204 -0.003574135014787315888645791162 0.002136520342901349067687988281 0 0 0 0 
2403000000.0000000000 0.171480268239975003341513115629 0.027025505900382999074915701954 -0.003586690640076994895935058594 0.002285993425175548033473349463 0 0 0 0 
2403166666.6666665077 0.171283289790153503417968750000 0.025967363268136981618861014454 -0.003490334609523415999171591650 0.002326311776414514021632529150 0 0 0 0 
2403333333.3333334923 0.170938715338706997970419365629 0.024844655767083171499232108204 -0.003372264793142675919773720850 0.002482545096427201791050576318 0 0 0 0 
2403500000.0000000000 0.170423626899719210525674384371 0.023591173812747001647949218750 -0.003295989008620380921604775537 0.002704806160181760787963867188 0 0 0 0 
2403666666.6666665077 0.170290410518646212478799384371 0.022093987092375758779505545704 -0.003370441030710936026332236182 0.002836375962942839102504111182 0 0 0 0 
2403833333.3333334923 0.169829547405242892166299384371 0.020592251792550090444544608204 -0.003144574351608753204345703125 0.002981396857649087905883789062 0 0 0 0 
2404000000.0000000000 0.169558167457580594161825615629 0.019201392307877540588378906250 -0.003031242173165082931518554688 0.003288441104814410209655761719 0 0 0 0 
2404166666.6666665077 0.169171363115310696700888115629 0.017588412389159199106236641796 -0.002810342237353324890136718750 0.003211149945855141119716025244 0 0 0 0 
2404333333.3333334923 0.168962135910987909515057481258 0.015925740823149681091308593750 -0.002748343860730528831481933594 0.003386161988601088957545615088 0 0 0 0 
2404500000.0000000000 0.168574929237365694900674384371 0.014411053620278840500801287305 -0.002604301786050200896022177588 0.003529059700667858123779296875 0 0 0 0 
2404666666.6666665077 0.168572783470153808593750000000 0.012875705957412719726562500000 -0.002261463552713394165039062500 0.003605238627642393112182617188 0 0 0 0 
2404833333.3333334923 0.168321490287780789474325615629 0.010960523970425130671491054102 -0.001990246819332242012023925781 0.003754300530999898910522460938 0 0 0 0 
2405000000.0000000000 0.168076336383819607833700615629 0.009354297071695327758789062500 -0.001982347806915640830993652344 0.003687809919938445091247558594 0 0 0 0 
2405166666.6666665077 0.168074145913124112228231865629 0.007536076474934816360473632812 -0.001792642055079340934753417969 0.003607018152251840071437216650 0 0 0 0 
2405333333.3333334923 0.168023630976676913162393134371 0.005573932547122240066528320312 -0.001705578062683344104169536060 0.003476122627034782929661416162 0 0 0 0 
2405500000.0000000000 0.167909100651741000076455634371 0.003846584353595972061157226562 -0.001369942794553935961482382666 0.003597558708861469788792275537 0 0 0 0 
2405666666.6666665077 0.167973205447196988204794365629 0.001945638796314596912981342847 -0.001371910911984741904615092700 0.003689351957291365103480673682 0 0 0 0 
2405833333.3333334923 0.167746618390083312988281250000 0.000225762152695097002104082651 -0.001263594487681984901428222656 0.003653313266113400892970419775 0 0 0 0 
2406000000.0000000000 0.167968109250068692306356865629 -0.001705693895928561904309916919 -0.001010558451525866985321044922 0.003602220676839352087733603369 0 0 0 0 
2406166666.6666665077 0.167723760008812006194744981258 -0.003521887585520743890049599756 -0.001026412937790154977085732568 0.003659807611256837844848632812 0 0 0 0 
2406333333.3333334923 0.167870312929153386871661268742 -0.005452144891023635864257812500 -0.001008041435852647044538188403 0.003658005502074956893920898438 0 0 0 0 
2406500000.0000000000 0.167798042297363309005575615629 -0.007221090607345104217529296875 -0.000885455752722918987274169922 0.003538095625117421150207519531 0 0 0 0 
2406666666.6666665077 0.167614877223968505859375000000 -0.008955747820436954498291015625 -0.000678194803185760974884033203 0.003623572643846272988560341943 0 0 0 0 
2406833333.3333334923 0.167797535657882690429687500000 -0.010665391571819780522356602148 -0.000675797753501683473587036133 0.003689503762871026992797851562 0 0 0 0 
2407000000.0000000000 0.167881518602371188064736884371 -0.012305906042456630361536795704 -0.000556415878236293792724609375 0.003576650749891995949986123193 0 0 0 0 
2407166666.6666665077 0.167980432510376004318075615629 -0.013776319101452829188336757227 -0.000239020460867323008462628775 0.003569945460185409025904990088 0 0 0 0 
2407333333.3333334923 0.168051719665527288238848768742 -0.015405922196805480611780936329 -0.000246996292844414710998535156 0.003551366971805692152736044775 0 0 0 0 
2407500000.0000000000 0.168052807450294494628906250000 -0.016728581860661510122278983204 -0.000108885316876694600708545824 0.003603710327297449111938476562 0 0 0 0 
2407666666.6666665077 0.168232172727584811111611884371 -0.017912054434418678283691406250 0.000046261597162811092358043058 0.003571895416826010184047079932 0 0 0 0 
2407833333.3333334923 0.168099984526634188553018134371 -0.019258236512541770935058593750 0.000155970294144935905933380127 0.003442018991336226896998740088 0 0 0 0 
2408000000.0000000000 0.168318137526512201507244981258 -0.020314197987318038940429687500 0.000313553871819749474525451660 0.003521969774737954139709472656 0 0 0 0 
2408166666.6666665077 0.168484076857566805740518134371 -0.021163232624530788766881173046 0.000362548016710206920474451886 0.003413410158827900886535644531 0 0 0 0 
2408333333.3333334923 0.168849438428878811935263115629 -0.022026088088750839233398437500 0.000369555753422900980145054950 0.003518039360642433166503906250 0 0 0 0 
2408500000.0000000000 0.169151589274406405349893134371 -0.023101098835468288766881173046 0.000631799222901463508605957031 0.003427940653637052016017294775 0 0 0 0 
2408666666.6666665077 0.169460505247116088867187500000 -0.023851823061704639089564139454 0.000641940394416451454162597656 0.003409719094634056091308593750 0 0 0 0 
2408833333.3333334923 0.169662728905677795410156250000 -0.024641467258334159851074218750 0.000756823341362178325653076172 0.003276161151006817817687988281 0 0 0 0 
2409000000.0000000000 0.169971227645873995681924384371 -0.025318447500467300415039062500 0.000965086219366639852523803711 0.003269636072218418121337890625 0 0 0 0 
2409166666.6666665077 0.170327782630920410156250000000 -0.026000274345278739929199218750 0.001119160908274352984187460791 0.003064265474677085876464843750 0 0 0 0 
2409333333.3333334923 0.170817106962204007247763115629 -0.026804197579622268676757812500 0.001032100873999298052546835791 0.003101468784734607176539755713 0 0 0 0 
2409500000.0000000000 0.171050205826759310623330634371 -0.027625339105725288391113281250 0.001281235832720994949340820312 0.003040725830942391915562295068 0 0 0 0 
2409666666.6666665077 0.171305984258651705642861884371 -0.028125638142228129995325858204 0.001323104370385407967808388818 0.002908753696829081015345908057 0 0 0 0 
2409833333.3333334923 0.171594560146331787109375000000 -0.028784880414605140686035156250 0.001582033117301762104034423828 0.002858372172340751127955771338 0 0 0 0 
2410000000.0000000000 0.171806871891021700760049384371 -0.029582504183053970336914062500 0.001627152203582227013231586987 0.002818050095811485810520791162 0 0 0 0 
2410166666.6666665077 0.171919003129005404373330634371 -0.030178528279066089284876639454 0.001645766315050422928453754956 0.002578929765149950981140136719 0 0 0 0 
2410333333.3333334923 0.171841859817504910568075615629 -0.030858267098665240896204764454 0.001737235346809030012843466650 0.002374950330704451040980673682 0 0 0 0 
2410500000.0000000000 0.171975076198577908614950615629 -0.031494785100221626972238908593 0.001890660147182642979862832178 0.002263105474412440819981240381 0 0 0 0 
2410666666.6666665077 0.171793699264526394943075615629 -0.032266184687614440917968750000 0.001719368621706963019130087744 0.002151872031390666961669921875 0 0 0 0 
2410833333.3333334923 0.171772703528404208084268134371 -0.032755881547927863384206403907 0.001643178868107497908948588794 0.001901182113215327046037983472 0 0 0 0 
2411000000.0000000000 0.171589851379394503494424384371 -0.033394444733858108520507812500 0.001818945282138884067535400391 0.001840345677919686057447123950 0 0 0 0 
2411166666.6666665077 0.171317696571350097656250000000 -0.034021060913801193237304687500 0.001552148954942823106881166773 0.001645757467485964081407856519 0 0 0 0 
2411333333.3333334923 0.170956954360008211990518134371 -0.034421108663082122802734375000 0.001709577976725995974299765479 0.001501818420365452983258891528 0 0 0 0 
2411500000.0000000000 0.170633241534233093261718750000 -0.035457476973533630371093750000 0.001394512364640831947326660156 0.001539879012852906963945698315 0 0 0 0 
2411666666.6666665077 0.170339107513427706619424384371 -0.035944510251283652568776716407 0.001456885016523302035090781104 0.001398405060172080993652343750 0 0 0 0 
2411833333.3333334923 0.169900164008140591720419365629 -0.036409597843885421752929687500 0.001160164130851625962498330225 0.001342646428383887030957866138 0 0 0 0 
2412000000.0000000000 0.169637128710746792892294365629 -0.037394262850284583354909528907 0.001180869061499834060668945312 0.001245715771801769950269389575 0 0 0 0 
2412166666.6666665077 0.169023945927619906326455634371 -0.038132201880216598510742187500 0.000972894893493503332138061523 0.001351177110336720943450927734 0 0 0 0 
2412333333.3333334923 0.168642699718475286285723768742 -0.038822054862976067279856096093 0.001005665399134159088134765625 0.001403852715156971974613808740 0 0 0 0 
2412500000.0000000000 0.168030321598053006271200615629 -0.039752282202243811870534528907 0.001047857222147285938262939453 0.001480353181250392956974648584 0 0 0 0 
2412666666.6666665077 0.167477622628212002853231865629 -0.040534514933824539184570312500 0.000902779924217611551284790039 0.001540865050628781101824116284 0 0 0 0 
2412833333.3333334923 0.166762322187423706054687500000 -0.041748974472284317016601562500 0.000893486023414880037307739258 0.001618277863599359989166259766 0 0 0 0 
2413000000.0000000000 0.166083768010139493087606865629 -0.042514476925134658813476562500 0.000901794002857059240341186523 0.001755422679707407951354980469 0 0 0 0 
2413166666.6666665077 0.165318354964256286621093750000 -0.043387550860643386840820312500 0.000939110002946108579635620117 0.001690091448836029009578085791 0 0 0 0 
2413333333.3333334923 0.164559885859489413162393134371 -0.044455021619796752929687500000 0.000866154383402317762374877930 0.001838571857661009051679301685 0 0 0 0 
2413500000.0000000000 0.163922205567359896560830634371 -0.045524548739194869995117187500 0.000892649986781179904937744141 0.001977290026843547821044921875 0 0 0 0 
2413666666.6666665077 0.163230091333389309982138115629 -0.046528462320566177368164062500 0.000926739652641117572784423828 0.001978210639208554787876748193 0 0 0 0 
2413833333.3333334923 0.162436053156852694412393134371 -0.047616340219974517822265625000 0.000942414335440844297409057617 0.002067124703899025917053222656 0 0 0 0 
2414000000.0000000000 0.161675557494163513183593750000 -0.048702199012041091918945312500 0.000994349364191293716430664062 0.001950068282894789955736469800 0 0 0 0 
2414166666.6666665077 0.161234244704246493240518134371 -0.049848698079586029052734375000 0.001068483106791972897173237378 0.002105375751852989196777343750 0 0 0 0 
2414333333.3333334923 0.160449966788291903396768134371 -0.050993848592042922973632812500 0.001046716468408704020856547778 0.002006572671234608130214072119 0 0 0 0 
2414500000.0000000000 0.160370066761970492263955634371 -0.052012171596288681030273437500 0.001209929934702814059016562354 0.002340939361602067947387695312 0 0 0 0 
2414666666.6666665077 0.159668758511543301681356865629 -0.053139541298151023174245466407 0.001214357092976569912554096753 0.002437904709950089888331747900 0 0 0 0 
2414833333.3333334923 0.159199863672256497482138115629 -0.054591901600360870361328125000 0.001349979895167052962659526294 0.002522389404475688934326171875 0 0 0 0 
2415000000.0000000000 0.158898234367370605468750000000 -0.055535469204187393188476562500 0.001372594852000474929809570312 0.002491140970960259003880166162 0 0 0 0 
2415166666.6666665077 0.158563762903213500976562500000 -0.057027891278266906738281250000 0.001668715616688132069231342847 0.002667802618816494941711425781 0 0 0 0 
2415333333.3333334923 0.158367991447448702713174384371 -0.058313511312007897113840471093 0.001757341669872402927995991284 0.002703909995034337043762207031 0 0 0 0 
2415500000.0000000000 0.158048570156097412109375000000 -0.059685625135898590087890625000 0.001930645667016505978227924878 0.002775293542072176933288574219 0 0 0 0 
2415666666.6666665077 0.157830268144607488434161268742 -0.061084520071744918823242187500 0.002254050690680741830113076318 0.002644883701577783064601279150 0 0 0 0 
2415833333.3333334923 0.157772168517112704178018134371 -0.062573008239269256591796875000 0.002493241801857947869541787256 0.002801737980917096138000488281 0 0 0 0 
2416000000.0000000000 0.157484814524650601486044365629 -0.063986770808696746826171875000 0.002710387110710144042968750000 0.002714776434004306793212890625 0 0 0 0 
2416166666.6666665077 0.157478496432304410079794365629 -0.065562717616558074951171875000 0.002737559843808412985560751807 0.002642287174239755110499716650 0 0 0 0 
2416333333.3333334923 0.157273232936859103103799384371 -0.066949166357517242431640625000 0.003039149800315498872044228662 0.002289487048983573913574218750 0 0 0 0 
2416500000.0000000000 0.157094776630401611328125000000 -0.068518735468387603759765625000 0.003205358749255537986755371094 0.002355037955567241148707724463 0 0 0 0 
2416666666.6666665077 0.156808048486709594726562500000 -0.069850750267505645751953125000 0.003398264292627573013305664062 0.002367607783526182174682617188 0 0 0 0 
2416833333.3333334923 0.156789273023605402190838731258 -0.071327283978462219238281250000 0.003515396034345030784606933594 0.002149257576093078093287802588 0 0 0 0 
2417000000.0000000000 0.156326517462730407714843750000 -0.072673790156841278076171875000 0.003573442110791801972630166162 0.001922254916280508041381835938 0 0 0 0 
2417166666.6666665077 0.156274423003196688553018134371 -0.073781296610832214355468750000 0.003713496029376984076258993994 0.001722930115647614002227783203 0 0 0 0 
2417333333.3333334923 0.156122803688049288650674384371 -0.074883431196212768554687500000 0.003876199247315526008605957031 0.001512221177108586051343608325 0 0 0 0 
2417500000.0000000000 0.155847802758216913421307481258 -0.076209194958209991455078125000 0.003939293790608645352835370801 0.001277346163988112969639443506 0 0 0 0 
2417666666.6666665077 0.155888259410858209808026231258 -0.077037505805492401123046875000 0.003942973911762238416189862988 0.001260804478079081015345908057 0 0 0 0 
2417833333.3333334923 0.155733242630958612640057481258 -0.078155897557735443115234375000 0.003908614162355661392211914062 0.001069568563252688104744936304 0 0 0 0 
2418000000.0000000000 0.155607149004936190506143134371 -0.079159282147884368896484375000 0.004077141173183917999267578125 0.000968165928497910499572753906 0 0 0 0 
2418166666.6666665077 0.155550986528396606445312500000 -0.079775825142860412597656250000 0.004055671859532594680786132812 0.000694385729730129241943359375 0 0 0 0 
2418333333.3333334923 0.155825614929199190994424384371 -0.080646097660064697265625000000 0.004000967368483543395996093750 0.000648955232463777065277099609 0 0 0 0 
2418500000.0000000000 0.155673131346702603439169365629 -0.081480607390403747558593750000 0.004194788634777069091796875000 0.000452745385700836777687072754 0 0 0 0 
2418666666.6666665077 0.155620619654655512054119981258 -0.082115128636360168457031250000 0.004193577449768781661987304688 0.000434191868407651782035827637 0 0 0 0 
2418833333.3333334923 0.155407726764679010589276231258 -0.083013780415058135986328125000 0.004400912672281265258789062500 0.000097844953415915369987487793 0 0 0 0 
2419000000.0000000000 0.155358716845512390136718750000 -0.083552636206150054931640625000 0.004411112051457166671752929688 -0.000214176237932406392976483755 0 0 0 0 
2419166666.6666665077 0.155312821269035311599893134371 -0.084173478186130523681640625000 0.004235305823385716351980878613 -0.000303297361824661493301391602 0 0 0 0 
2419333333.3333334923 0.155060559511184692382812500000 -0.084463402628898620605468750000 0.004198434762656688690185546875 -0.000559833133593201637268066406 0 0 0 0 
2419500000.0000000000 0.154985710978507995605468750000 -0.085304245352745056152343750000 0.004187801387161017331595136426 -0.000729676103219389915466308594 0 0 0 0 
2419666666.6666665077 0.154863759875297601897869981258 -0.085773386061191558837890625000 0.004158965777605772018432617188 -0.000907434383407235253989064905 0 0 0 0 
2419833333.3333334923 0.154567763209343012054119981258 -0.086125940084457397460937500000 0.004044020548462867736816406250 -0.001093642204068600914598774487 0 0 0 0 
2420000000.0000000000 0.154640123248100308517294365629 -0.086449205875396728515625000000 0.004011585842818021774291992188 -0.001193303847685456059099506909 0 0 0 0 
