# Hz S RI R 
2400000000.0000000000 0.173175007104873712737713731258 0.049222700297832489013671875000 0.007355128414928913116455078125 0.002213639905676246123072958838 0 0 0 0 
2400166666.6666665077 0.173703268170356805999432481258 0.048726849257946007465402971093 0.007650555577129125595092773438 0.001883773365989326997044228662 0 0 0 0 
2400333333.3333334923 0.174089670181274386306924384371 0.047958742827177047729492187500 0.007681027520447968569283769824 0.001709791598841547966003417969 0 0 0 0 
2400500000.0000000000 0.174595430493354797363281250000 0.047162603586912162090261091407 0.007761342916637659072875976562 0.001439188257791101932525634766 0 0 0 0 
2400666666.6666665077 0.174797117710113497635049384371 0.046505760401487350463867187500 0.008057873696088790893554687500 0.001174652599729598002192831885 0 0 0 0 
2400833333.3333334923 0.175084233283996609786825615629 0.046042498201131820678710937500 0.007845239713788032531738281250 0.000994169618934392929077148438 0 0 0 0 
2401000000.0000000000 0.175137326121330288986044365629 0.045315079391002661968190778907 0.008010939694941043853759765625 0.000652420567348599433898925781 0 0 0 0 
2401166666.6666665077 0.175255879759788513183593750000 0.044535133987665183330495466407 0.008110986091196537017822265625 0.000373282906366512179374694824 0 0 0 0 
2401333333.3333334923 0.175221204757690401931924384371 0.043927896767854690551757812500 0.007898073643445968627929687500 -0.000129599517094902694225311279 0 0 0 0 
2401500000.0000000000 0.175371885299682589431924384371 0.043340340256690979003906250000 0.008114788681268692016601562500 -0.000300993531709536910057067871 0 0 0 0 
2401666666.6666665077 0.175384432077407809158486884371 0.042721502482891082763671875000 0.008260500617325305938720703125 -0.000619796686805784702301025391 0 0 0 0 
2401833333.3333334923 0.175254046916961697677450615629 0.041691947728395462036132812500 0.008293936029076576232910156250 -0.000884511217009276151657104492 0 0 0 0 
2402000000.0000000000 0.174910664558410589020098768742 0.040978565812110900878906250000 0.008239623159170150756835937500 -0.001393463928252459006068564307 0 0 0 0 
2402166666.6666665077 0.174890577793121310135049384371 0.040058214217424392700195312500 0.008173159323632717132568359375 -0.001693793339654803059221577222 0 0 0 0 
2402333333.3333334923 0.174698412418365506271200615629 0.038864795118570327758789062500 0.008053423836827278137207031250 -0.002087468747049570083618164062 0 0 0 0 
2402500000.0000000000 0.174587175250053405761718750000 0.038074225187301642681081403907 0.008134541101753711700439453125 -0.002520777983590960936305380713 0 0 0 0 
2402666666.6666665077 0.174410820007324190994424384371 0.037188574671745300292968750000 0.007832360453903675079345703125 -0.002867048606276512145996093750 0 0 0 0 
2402833333.3333334923 0.173989921808242797851562500000 0.035842865705490112304687500000 0.007729511242359876632690429688 -0.002964227925986051993129111182 0 0 0 0 
2403000000.0000000000 0.173564940690994290450888115629 0.034792389720678329467773437500 0.007513187825679779052734375000 -0.003306679660454391999485634912 0 0 0 0 
2403166666.6666665077 0.173473715782165499588174384371 0.033463794738054282451589216407 0.007541043683886528015136718750 -0.003550063353031874136683798682 0 0 0 0 
2403333333.3333334923 0.173189997673034695724325615629 0.032119065523147583007812500000 0.007229298818856477737426757812 -0.003812036477029324011561728369 0 0 0 0 
2403500000.0000000000 0.172717973589897211272869981258 0.030529214069247249258021170704 0.007046673446893692016601562500 -0.004376762546598911285400390625 0 0 0 0 
2403666666.6666665077 0.172452047467231805999432481258 0.028757514432072639465332031250 0.006846269126981496810913085938 -0.004514447879046201705932617188 0 0 0 0 
2403833333.3333334923 0.172068312764167813400106865629 0.026992153376340869558314139454 0.006679051090031862258911132812 -0.004706104751676321029663085938 0 0 0 0 
2404000000.0000000000 0.171731919050216702560263115629 0.025408554822206500661829764454 0.006237007677555084228515625000 -0.005008504260331392288208007812 0 0 0 0 
2404166666.6666665077 0.171543657779693603515625000000 0.023439066484570499765416329296 0.006028466392308473587036132812 -0.005013687536120414733886718750 0 0 0 0 
2404333333.3333334923 0.171029642224311800857705634371 0.021741980686783790588378906250 0.005804342683404684066772460938 -0.005152343306690455350393964551 0 0 0 0 
2404500000.0000000000 0.170809701085090609451455634371 0.019697574898600578308105468750 0.005515210330486297607421875000 -0.005300270393490791320800781250 0 0 0 0 
2404666666.6666665077 0.170589745044708307464276231258 0.017772890627384189260462576954 0.005216502584517002105712890625 -0.005498519167304039001464843750 0 0 0 0 
2404833333.3333334923 0.170617476105690002441406250000 0.015874160453677180898646170704 0.005030866712331771850585937500 -0.005545599851757287979125976562 0 0 0 0 
2405000000.0000000000 0.170466750860214205642861884371 0.013947262428700920450230782421 0.004765298217535018920898437500 -0.005574098322540521621704101562 0 0 0 0 
2405166666.6666665077 0.170221388339996310135049384371 0.011843680404126640665074532421 0.004437432624399662017822265625 -0.005631763488054276380057050488 0 0 0 0 
2405333333.3333334923 0.170368686318397494217080634371 0.009593831375241279602050781250 0.004616294056177139282226562500 -0.005604916717857122421264648438 0 0 0 0 
2405500000.0000000000 0.170454561710357693771200615629 0.007676592096686363220214843750 0.004169572144746780395507812500 -0.005622818600386381149291992188 0 0 0 0 
2405666666.6666665077 0.170550271868705805022869981258 0.005665989592671394348144531250 0.004085741471499204635620117188 -0.005657242611050605773925781250 0 0 0 0 
2405833333.3333334923 0.170517861843109103103799384371 0.003742367029190063910243368994 0.003944449126720429334158612988 -0.005798855796456336975097656250 0 0 0 0 
2406000000.0000000000 0.170925304293632507324218750000 0.001480021630413830063463520581 0.003956653643399477005004882812 -0.005774005316197872161865234375 0 0 0 0 
2406166666.6666665077 0.171167984604835510253906250000 -0.000363476981874555403560084210 0.003646350931376218795776367188 -0.005688600242137908935546875000 0 0 0 0 
2406333333.3333334923 0.171892806887626703460369981258 -0.002489434555172919793369912256 0.003758336883038281960728310693 -0.005916434340178967389578534863 0 0 0 0 
2406500000.0000000000 0.172249004244804410079794365629 -0.004489409271627665433401777051 0.003559133503586053848266601562 -0.006033678073436021804809570312 0 0 0 0 
2406666666.6666665077 0.172441169619560186188067518742 -0.006493329536169767379760742188 0.003501001978293060822727822412 -0.005898277275264263153076171875 0 0 0 0 
2406833333.3333334923 0.173308938741683987716513115629 -0.008512862958014011383056640625 0.003322455799207090897801064600 -0.006214697845280169573312090137 0 0 0 0 
2407000000.0000000000 0.173835992813110407073651231258 -0.010293485596776010340680507227 0.003335454734042286872863769531 -0.006306484341621398925781250000 0 0 0 0 
2407166666.6666665077 0.174640104174614008147869981258 -0.012074020691215990239153477148 0.003286911873146892027613974463 -0.006337240338325501355642987988 0 0 0 0 
2407333333.3333334923 0.175146803259849603850994981258 -0.014023933559656139719029610546 0.003175591584295033974888466943 -0.006524024996906518936157226562 0 0 0 0 
2407500000.0000000000 0.176045790314674405196981865629 -0.015635965391993519174596016796 0.003106758231297134919407509912 -0.006676970515400171279907226562 0 0 0 0 
2407666666.6666665077 0.176681876182556207854901231258 -0.017354711890220638620396798046 0.002971295267343521118164062500 -0.007009082939475774765014648438 0 0 0 0 
2407833333.3333334923 0.177362650632858304122763115629 -0.019155723974108699453333670704 0.002843728754669427871704101562 -0.007151044439524412155151367188 0 0 0 0 
2408000000.0000000000 0.178072780370712308029013115629 -0.020776519551873210561732108204 0.002711855107918382124659872900 -0.007228952366858720779418945312 0 0 0 0 
2408166666.6666665077 0.178948014974594088455361884371 -0.022069340571761131286621093750 0.002458275062963366942164755713 -0.007484461646527051925659179688 0 0 0 0 
2408333333.3333334923 0.179742559790611294845419365629 -0.023593321442604068410853201954 0.002337910700589417977574013818 -0.007762583903968334197998046875 0 0 0 0 
2408500000.0000000000 0.180179521441459711272869981258 -0.024993781000375751150111014454 0.002026763977482914924621582031 -0.007850350812077522277832031250 0 0 0 0 
2408666666.6666665077 0.180778250098228510100994981258 -0.026187278330326080322265625000 0.001713702222332357926609658350 -0.008103919215500354766845703125 0 0 0 0 
2408833333.3333334923 0.181338652968406705001669365629 -0.027436111122369769704798514454 0.001445919740945101001142192310 -0.008398599922657012939453125000 0 0 0 0 
2409000000.0000000000 0.181811437010765103439169365629 -0.028468627482652660715123360546 0.001049132784828544096705771338 -0.008504333905875682830810546875 0 0 0 0 
2409166666.6666665077 0.182363912463188199142294365629 -0.029504787176847461355189139454 0.000784531875979155302047729492 -0.008737178519368171691894531250 0 0 0 0 
2409333333.3333334923 0.182803392410278292556924384371 -0.030256567522883418691614920704 0.000381507968995720202296656476 -0.008661664091050624847412109375 0 0 0 0 
2409500000.0000000000 0.182997047901153592208700615629 -0.031156837940216060983678048046 0.000089669541921466588973999023 -0.008896382525563240051269531250 0 0 0 0 
2409666666.6666665077 0.183166235685348510742187500000 -0.031754754483699798583984375000 -0.000297237973427399992942810059 -0.008981237187981605529785156250 0 0 0 0 
2409833333.3333334923 0.183441013097763089279013115629 -0.032285626977682106708567033593 -0.000637827091850340366363525391 -0.009171529673039913177490234375 0 0 0 0 
2410000000.0000000000 0.183656394481658907791299384371 -0.032828196883201599121093750000 -0.001276640687137841961504292065 -0.009102370589971542358398437500 0 0 0 0 
2410166666.6666665077 0.183848172426223810393963731258 -0.033223129808902740478515625000 -0.001591388252563775019404745947 -0.009209780022501945495605468750 0 0 0 0 
2410333333.3333334923 0.183801651000976590255575615629 -0.033595871180295937274973283593 -0.001991058001294732093811035156 -0.009161109104752540588378906250 0 0 0 0 
2410500000.0000000000 0.183811902999877901931924384371 -0.033938746899366378784179687500 -0.002519501838833094076869345557 -0.009037914685904979705810546875 0 0 0 0 
2410666666.6666665077 0.183697491884231595138388115629 -0.034499499946832656860351562500 -0.002793830819427967071533203125 -0.009045424871146678924560546875 0 0 0 0 
2410833333.3333334923 0.183674767613411005218182481258 -0.034731842577457427978515625000 -0.003285391023382544951197958838 -0.008906180970370769500732421875 0 0 0 0 
2411000000.0000000000 0.183364704251289395431356865629 -0.034892048686742782592773437500 -0.003766715992242097854614257812 -0.008850360289216041564941406250 0 0 0 0 
2411166666.6666665077 0.182902276515960693359375000000 -0.035304311662912368774414062500 -0.004212470725178718566894531250 -0.008655188605189323425292968750 0 0 0 0 
2411333333.3333334923 0.182351440191268893142861884371 -0.035812143236398696899414062500 -0.004592795856297016143798828125 -0.008521616458892822265625000000 0 0 0 0 
2411500000.0000000000 0.182033732533454895019531250000 -0.036127701401710510253906250000 -0.005006961524486541748046875000 -0.008206686004996299743652343750 0 0 0 0 
2411666666.6666665077 0.181253463029861505706463731258 -0.036510512232780456542968750000 -0.005541482474654912948608398438 -0.007926950231194496154785156250 0 0 0 0 
2411833333.3333334923 0.180537328124046297928018134371 -0.036736994981765747070312500000 -0.005815706215798854827880859375 -0.007795765530318021774291992188 0 0 0 0 
2412000000.0000000000 0.179913133382797213455361884371 -0.037365943193435668945312500000 -0.006283764727413654327392578125 -0.007437183056026697158813476562 0 0 0 0 
2412166666.6666665077 0.178773254156112698654013115629 -0.037869088351726531982421875000 -0.006635152269154787063598632812 -0.007021467667073011398315429688 0 0 0 0 
2412333333.3333334923 0.178012236952781705001669365629 -0.038217540830373757099192033593 -0.006972167175263166427612304688 -0.006674618925899267196655273438 0 0 0 0 
2412500000.0000000000 0.176900804042816189864950615629 -0.038878135383129119873046875000 -0.007265391293913125991821289062 -0.006219688802957534790039062500 0 0 0 0 
2412666666.6666665077 0.175717994570732088943643134371 -0.039588876068592071533203125000 -0.007469453848898410797119140625 -0.005846193525940179824829101562 0 0 0 0 
2412833333.3333334923 0.174582466483116205413494981258 -0.040183521807193763042409528907 -0.007597946561872959136962890625 -0.005474558565765619277954101562 0 0 0 0 
2413000000.0000000000 0.173400208353996304611044365629 -0.040896601974964141845703125000 -0.007727812975645065307617187500 -0.004974380601197481155395507812 0 0 0 0 
2413166666.6666665077 0.172118157148361206054687500000 -0.041799988597631447528879533593 -0.007893714122474193572998046875 -0.004426386673003435134887695312 0 0 0 0 
2413333333.3333334923 0.170703142881393404861611884371 -0.042606808245182037353515625000 -0.008022469468414783477783203125 -0.004020971711724996566772460938 0 0 0 0 
2413500000.0000000000 0.169581219553947504241619981258 -0.043560627847909927368164062500 -0.008179348893463611602783203125 -0.003609288716688752174377441406 0 0 0 0 
2413666666.6666665077 0.168202802538871792892294365629 -0.044696889817714691162109375000 -0.008095507510006427764892578125 -0.002982027595862745805027627100 0 0 0 0 
2413833333.3333334923 0.167009472846984891036825615629 -0.045699249953031539916992187500 -0.008234150707721710205078125000 -0.002715069334954022927525185693 0 0 0 0 
2414000000.0000000000 0.165588483214378412444744981258 -0.046939384192228317260742187500 -0.008052124641835689544677734375 -0.002244289731606841087341308594 0 0 0 0 
2414166666.6666665077 0.164456039667129488845986884371 -0.048314008861780166625976562500 -0.007822268642485141754150390625 -0.001863497076556086973903036963 0 0 0 0 
2414333333.3333334923 0.163156673312187194824218750000 -0.049582883715629577636718750000 -0.007785367313772439956665039062 -0.001643888419494033076642680591 0 0 0 0 
2414500000.0000000000 0.162132531404495211502236884371 -0.051025982946157462383229841407 -0.007691767066717147827148437500 -0.001314591150730848095537495190 0 0 0 0 
2414666666.6666665077 0.160930737853050204178018134371 -0.052453499287366867065429687500 -0.007604288402944803237915039062 -0.001054758555255830071092915112 0 0 0 0 
2414833333.3333334923 0.159867197275161687652911268742 -0.054088916629552841186523437500 -0.007458968088030815124511718750 -0.000713285757228732109069824219 0 0 0 0 
2415000000.0000000000 0.158851504325866699218750000000 -0.055649835616350167011301408593 -0.007421527523547410964965820312 -0.000348270667018368786007481708 0 0 0 0 
2415166666.6666665077 0.157906591892242403885049384371 -0.057389572262763977050781250000 -0.007021471392363309860229492188 -0.000267566880211234092712402344 0 0 0 0 
2415333333.3333334923 0.157183125615119906326455634371 -0.059170745313167572021484375000 -0.007056422997266054153442382812 -0.000015376243027276359498500824 0 0 0 0 
2415500000.0000000000 0.156390026211738586425781250000 -0.060922469943761832500417341407 -0.006865301169455051422119140625 0.000151912128785625100135803223 0 0 0 0 
2415666666.6666665077 0.155560150742530794998330634371 -0.062764808535575866699218750000 -0.006796794943511486053466796875 0.000627998611889779567718505859 0 0 0 0 
2415833333.3333334923 0.154952943325042696853799384371 -0.064725846052169799804687500000 -0.006494311615824699401855468750 0.000698957592248916625976562500 0 0 0 0 
2416000000.0000000000 0.154356837272643987457598768742 -0.066734969615936279296875000000 -0.006528052501380443572998046875 0.000830320990644395351409912109 0 0 0 0 
2416166666.6666665077 0.154037654399871798416299384371 -0.068686231970787048339843750000 -0.006204683333635330200195312500 0.000958425109274685382843017578 0 0 0 0 
2416333333.3333334923 0.153492122888565091232138115629 -0.070537641644477844238281250000 -0.006153800059109926223754882812 0.001217233831994235949275351416 0 0 0 0 
2416500000.0000000000 0.153273254632949801345986884371 -0.072532139718532562255859375000 -0.006023339927196502685546875000 0.001361075788736342950108193506 0 0 0 0 
2416666666.6666665077 0.152670592069625910003338731258 -0.074368529021739959716796875000 -0.005890801548957824707031250000 0.001605731784366071007372211987 0 0 0 0 
2416833333.3333334923 0.152708783745765713790731865629 -0.076490052044391632080078125000 -0.005742058623582124710083007812 0.001740924082696438052533793872 0 0 0 0 
2417000000.0000000000 0.152238756418228204925213731258 -0.078227289021015167236328125000 -0.005470081698149442672729492188 0.001821019803173840045928955078 0 0 0 0 
2417166666.6666665077 0.152156829833984402755575615629 -0.080095775425434112548828125000 -0.005455861799418926239013671875 0.001939166337251662991167378003 0 0 0 0 
2417333333.3333334923 0.152141168713569613357705634371 -0.081740505993366241455078125000 -0.005132265388965606689453125000 0.002218649256974459128138876807 0 0 0 0 
2417500000.0000000000 0.152032330632209805587606865629 -0.083598695695400238037109375000 -0.004874669946730136871337890625 0.002200211398303509192225790869 0 0 0 0 
2417666666.6666665077 0.152151167392730712890625000000 -0.084987454116344451904296875000 -0.004758998751640319824218750000 0.002275235950946807861328125000 0 0 0 0 
2417833333.3333334923 0.152170538902282687088174384371 -0.086661711335182189941406250000 -0.004752599634230136871337890625 0.002423658268526196913478232275 0 0 0 0 
2418000000.0000000000 0.152201905846595791915731865629 -0.088189966976642608642578125000 -0.004372616764158011350149823926 0.002557579427957534790039062500 0 0 0 0 
2418166666.6666665077 0.152259945869445800781250000000 -0.089402548968791961669921875000 -0.004310742951929569244384765625 0.002322839340195060209987021338 0 0 0 0 
2418333333.3333334923 0.152748271822929410079794365629 -0.090685330331325531005859375000 -0.004159281961619853973388671875 0.002387338783591986136195517432 0 0 0 0 
2418500000.0000000000 0.152747020125389099121093750000 -0.091756157577037811279296875000 -0.003916634712368249893188476562 0.002361333929002285003662109375 0 0 0 0 
2418666666.6666665077 0.153182491660118103027343750000 -0.092936426401138305664062500000 -0.003785450709983706907985068213 0.002324911765754222869873046875 0 0 0 0 
2418833333.3333334923 0.153202310204505892654580634371 -0.093848980963230133056640625000 -0.003767326474189757867100381006 0.002241070382297039031982421875 0 0 0 0 
2419000000.0000000000 0.153351664543151910979901231258 -0.094817422330379486083984375000 -0.003660860704258083863499306787 0.002148003783077002005336142432 0 0 0 0 
2419166666.6666665077 0.153527081012725802322549384371 -0.095354467630386352539062500000 -0.003613553708419204191920615088 0.002172810491174459891078329932 0 0 0 0 
2419333333.3333334923 0.153645142912864712814169365629 -0.095751330256462097167968750000 -0.003801890416070818901062011719 0.002029579831287264823913574219 0 0 0 0 
2419500000.0000000000 0.153948634862899808029013115629 -0.096377499401569366455078125000 -0.003768123686313629150390625000 0.002125670667737721963169716943 0 0 0 0 
2419666666.6666665077 0.154146879911422701736611884371 -0.096855953335762023925781250000 -0.003747595241293311119079589844 0.002194661181420087814331054688 0 0 0 0 
2419833333.3333334923 0.154112562537193298339843750000 -0.096905767917633056640625000000 -0.003832578193396329879760742188 0.002039439277723432020900107275 0 0 0 0 
