# Hz S RI R 
2400000000.0000000000 0.171497955918312100509481865629 0.040105562657117836689035783593 -0.002508491976186633110046386719 -0.001350609003566205935237265479 0 0 0 0 
2400166666.6666665077 0.172182947397232111175213731258 0.039625272154808037494699846093 -0.002225345931947230859043740381 -0.001155071891844273047206259619 0 0 0 0 
2400333333.3333334923 0.172475427389144897460937500000 0.038896720856428153301198591407 -0.002421734854578971862792968750 -0.001197948120534420013427734375 0 0 0 0 
2400500000.0000000000 0.173160046339035006424111884371 0.038323797285556793212890625000 -0.002254731720313429832458496094 -0.001061280490830541090724326025 0 0 0 0 
2400666666.6666665077 0.173285767436027499099893134371 0.037658113986253738403320312500 -0.002171425614506005807163857568 -0.001013071509078145027160644531 0 0 0 0 
2400833333.3333334923 0.173532634973526000976562500000 0.037128724157810211181640625000 -0.002136569237336515946629189600 -0.000910834001842886209487915039 0 0 0 0 
2401000000.0000000000 0.173714250326156588455361884371 0.036456946283578872680664062500 -0.002156227128580213026759482275 -0.000939172110520303249359130859 0 0 0 0 
2401166666.6666665077 0.173867493867874201018963731258 0.035857919603586196899414062500 -0.001968006603419781164882040869 -0.000831471115816384553909301758 0 0 0 0 
2401333333.3333334923 0.173794046044349698165731865629 0.034982666373252868652343750000 -0.001902317628264426968218159253 -0.001007102429866790988324809497 0 0 0 0 
2401500000.0000000000 0.173734724521636990646200615629 0.034576665610074996948242187500 -0.001895776484161614938023232568 -0.001115377643145621039746928638 0 0 0 0 
2401666666.6666665077 0.173582807183265713790731865629 0.033810149878263466571848283593 -0.002042782958596944808959960938 -0.000992977758869528770446777344 0 0 0 0 
2401833333.3333334923 0.173479497432708712478799384371 0.033016446977853781963307966407 -0.002096294192597270011901855469 -0.000962717633228749036788940430 0 0 0 0 
2402000000.0000000000 0.173089087009429903885049384371 0.032239753752946846698801408593 -0.002070449758321046829223632812 -0.000915204756893217563629150391 0 0 0 0 
2402166666.6666665077 0.172988876700401306152343750000 0.031494181603193283081054687500 -0.002076373668387531800511025537 -0.001033224631100893020629882812 0 0 0 0 
2402333333.3333334923 0.172711685299873407561932481258 0.030701383948326110839843750000 -0.002129156840965151786804199219 -0.000894558033905923366546630859 0 0 0 0 
2402500000.0000000000 0.172389701008796691894531250000 0.029836488887667659414271170704 -0.002251161262392998175380087744 -0.000806688447482883930206298828 0 0 0 0 
2402666666.6666665077 0.172036707401275607010049384371 0.028945365920662879943847656250 -0.002223183168098330931422568213 -0.000871594122145325053870046350 0 0 0 0 
2402833333.3333334923 0.171799182891845703125000000000 0.027898943051695820199986641796 -0.002181212417781352996826171875 -0.000937500852160155773162841797 0 0 0 0 
2403000000.0000000000 0.171399712562561007400674384371 0.026823397725820541381835937500 -0.002376798773184419111964560400 -0.000856422178912907838821411133 0 0 0 0 
2403166666.6666665077 0.171030312776565607268963731258 0.025826657190918918954869454296 -0.002115507377311586899998330225 -0.000725945923477411270141601562 0 0 0 0 
2403333333.3333334923 0.170637235045432988922442518742 0.024733839556574821472167968750 -0.002216311637312173843383789062 -0.000702805060427635908126831055 0 0 0 0 
2403500000.0000000000 0.170077323913574190994424384371 0.023339364677667621267298514454 -0.002372634829953312873840332031 -0.000556970946490764617919921875 0 0 0 0 
2403666666.6666665077 0.169803664088249206542968750000 0.022001964971423149108886718750 -0.002430082997307180924656533350 -0.000571159063838422298431396484 0 0 0 0 
2403833333.3333334923 0.169561490416526794433593750000 0.020550783723592761648157889454 -0.002389864297583698792698525537 -0.000444856355898082310527247296 0 0 0 0 
2404000000.0000000000 0.169071525335311889648437500000 0.019141562283039089548131173046 -0.002279928885400294823887490381 -0.000307778653223067522048950195 0 0 0 0 
2404166666.6666665077 0.168848767876625088790731865629 0.017771761864423748361607735546 -0.002290466334670782089233398438 -0.000281056709354743415683192120 0 0 0 0 
2404333333.3333334923 0.168406262993812588790731865629 0.016269372776150699960728829296 -0.002241163048893212838413857568 -0.000354097777744755203097742902 0 0 0 0 
2404500000.0000000000 0.168226122856140108963174384371 0.014414218254387380427350429102 -0.002272830344736576080322265625 -0.000258728774497285485267639160 0 0 0 0 
2404666666.6666665077 0.168141767382621792892294365629 0.012978564947843549901018711523 -0.002245658542960882186889648438 -0.000258250540355220382839757098 0 0 0 0 
2404833333.3333334923 0.167897462844848605056924384371 0.011244209483265880239466483204 -0.002165817888453602790832519531 -0.000189615398994646993562421255 0 0 0 0 
2405000000.0000000000 0.167731553316116305252236884371 0.009463327005505561828613281250 -0.002136857714504003958461142432 -0.000192972045624628690168103629 0 0 0 0 
2405166666.6666665077 0.167618364095687893966513115629 0.007781379390507937345022870801 -0.002102574566379189924952841650 -0.000175575158209540004104060040 0 0 0 0 
2405333333.3333334923 0.167735099792480496505575615629 0.005812878720462322235107421875 -0.002202620962634683089015341650 -0.000309629744151607210009974347 0 0 0 0 
2405500000.0000000000 0.167702272534370394607705634371 0.004188861232250928878784179688 -0.002082124585285782814025878906 -0.000248079857556149417727869855 0 0 0 0 
2405666666.6666665077 0.167742013931274386306924384371 0.002229135716333984894993447412 -0.002144085010513662858250283350 -0.000378696597181260585784912109 0 0 0 0 
2405833333.3333334923 0.167574658989906311035156250000 0.000533798534888774156570434570 -0.002284419722855091094970703125 -0.000267163210082799196243286133 0 0 0 0 
2406000000.0000000000 0.167674005031585693359375000000 -0.001533536938950418992283486475 -0.002242267364636064009425497900 -0.000154896042658947408199310303 0 0 0 0 
2406166666.6666665077 0.167542800307273892501669365629 -0.003283840604126452965977334131 -0.002236730884760618209838867188 -0.000224684699787758290767669678 0 0 0 0 
2406333333.3333334923 0.167863562703132601638955634371 -0.005187761038541793823242187500 -0.002285226713865994973423623193 -0.000218016706639900803565979004 0 0 0 0 
2406500000.0000000000 0.167778283357620211502236884371 -0.007045766804367303848266601562 -0.002372765680775045914890908350 -0.000178795526153407990932464600 0 0 0 0 
2406666666.6666665077 0.167679265141487093826455634371 -0.008695903234183788299560546875 -0.002446588361635804176330566406 -0.000080310695921070873737335205 0 0 0 0 
2406833333.3333334923 0.167876332998275812347088731258 -0.010468453168869020289410975977 -0.002478768350556492805480957031 -0.000110837157990317805252890315 0 0 0 0 
2407000000.0000000000 0.167953178286552401443643134371 -0.012107143178582189732561680273 -0.002691664267331362204310751807 -0.000088008528109639883041381836 0 0 0 0 
2407166666.6666665077 0.168066740036010686676348768742 -0.013514021411538120615025704296 -0.002661598147824407057521201025 -0.000046089768147794529795646667 0 0 0 0 
2407333333.3333334923 0.167968586087226895431356865629 -0.015179583802819250279436680273 -0.002869512652978301048278808594 -0.000247701245825737714767456055 0 0 0 0 
2407500000.0000000000 0.168155878782272311111611884371 -0.016585126519203189504603201954 -0.002837061649188398881199502100 0.000037482699553947902541568143 0 0 0 0 
2407666666.6666665077 0.168248727917671203613281250000 -0.017740003764629360544224923046 -0.002974019385874270959141396631 0.000175366876646876308038988657 0 0 0 0 
2407833333.3333334923 0.168187931180000305175781250000 -0.019121473655104640615443045704 -0.003150185570120811896083212744 0.000199006812181323793813428336 0 0 0 0 
2408000000.0000000000 0.168514817953109713455361884371 -0.020221313461661338806152343750 -0.003116089152172207832336425781 0.000305877270875498706668299542 0 0 0 0 
2408166666.6666665077 0.168626889586448697189169365629 -0.021117802709341049194335937500 -0.003129377495497465133666992188 0.000627982430160045623779296875 0 0 0 0 
2408333333.3333334923 0.169158905744552612304687500000 -0.022042170166969299316406250000 -0.003151273122057319121119833838 0.000739166804123669862747192383 0 0 0 0 
2408500000.0000000000 0.169234678149223299881143134371 -0.022881651297211650503138358204 -0.003240705700591206984279013525 0.000799851608462631702423095703 0 0 0 0 
2408666666.6666665077 0.169506072998046902755575615629 -0.023891091346740719186803048046 -0.003293588524684309959411621094 0.000940914382226765155792236328 0 0 0 0 
2408833333.3333334923 0.169810980558395413497763115629 -0.024556564167141910898228829296 -0.003149400465190411047694540869 0.001178331323899328925489116138 0 0 0 0 
2409000000.0000000000 0.170145735144615201095419365629 -0.025363434106111529958704764454 -0.003154954640194774107692099463 0.001370380632579327063319540869 0 0 0 0 
2409166666.6666665077 0.170578271150588989257812500000 -0.026051685214042660104771798046 -0.003139526583254336877110146631 0.001442612381651997999904013525 0 0 0 0 
2409333333.3333334923 0.170833021402359008789062500000 -0.026742218062281608581542968750 -0.002991379704326390786411904443 0.001628092722967267036437988281 0 0 0 0 
2409500000.0000000000 0.171082407236099187652911268742 -0.027779566124081611633300781250 -0.002947865286841988997218466650 0.001811802270822227001190185547 0 0 0 0 
2409666666.6666665077 0.171369254589080810546875000000 -0.028235038742423061025599295704 -0.002822420094162226156947470557 0.001805858570151031017303466797 0 0 0 0 
2409833333.3333334923 0.171563863754272488693075615629 -0.028804227709770199167271798046 -0.002898135920986533164978027344 0.001862429780885576985002827222 0 0 0 0 
2410000000.0000000000 0.171795487403869601150674384371 -0.029404405504465099679967110546 -0.002868020674213767051696777344 0.002044590888544917106628417969 0 0 0 0 
2410166666.6666665077 0.171914651989936800857705634371 -0.030204419046640399587611014454 -0.002640589140355587005615234375 0.002061829203739761872532509912 0 0 0 0 
2410333333.3333334923 0.172002956271171597579794365629 -0.030857793986797329294224923046 -0.002721878234297037124633789062 0.002318640938028693199157714844 0 0 0 0 
2410500000.0000000000 0.172083765268325805664062500000 -0.031427785754203803325612653907 -0.002533482154831289811375283350 0.002295916201546788215637207031 0 0 0 0 
2410666666.6666665077 0.171781122684478787521200615629 -0.032217856496572501445729841407 -0.002599682193249464035034179688 0.002284875372424722151515341650 0 0 0 0 
2410833333.3333334923 0.171772301197052001953125000000 -0.032796710729598999023437500000 -0.002433604793623089790344238281 0.002525818534195423126220703125 0 0 0 0 
2411000000.0000000000 0.171718955039977999588174384371 -0.033313687890768051147460937500 -0.002356673823669552803039550781 0.002625670982524753050563193213 0 0 0 0 
2411166666.6666665077 0.171339392662048312088174384371 -0.033946339040994637226145158593 -0.002468002028763293786289834131 0.002736785681918263001682900537 0 0 0 0 
2411333333.3333334923 0.171076193451881408691406250000 -0.034570675343275070190429687500 -0.002316547324880958037135458838 0.002861197339370847182032919775 0 0 0 0 
2411500000.0000000000 0.170600131154060391525106865629 -0.035381209105253219604492187500 -0.002242295769974588914158486475 0.002830440411344171004054404150 0 0 0 0 
2411666666.6666665077 0.170542329549789400955361884371 -0.036054182797670357440988908593 -0.002012498211115599112269736182 0.003017884213477373123168945312 0 0 0 0 
2411833333.3333334923 0.169920280575752313811932481258 -0.036480844020843512798268903907 -0.002079350408166646957397460938 0.003129549324512482123133993994 0 0 0 0 
2412000000.0000000000 0.169596016407012911697549384371 -0.037322048097848892211914062500 -0.001765055232681334018707275391 0.003309632185846567153930664062 0 0 0 0 
2412166666.6666665077 0.169066593050956698318643134371 -0.038035571575164801860768903907 -0.001700019463896750970127724756 0.003346282057464123205897665869 0 0 0 0 
2412333333.3333334923 0.168694913387298611739950615629 -0.038694441318511962890625000000 -0.001615655724890529892565083081 0.003432691330090165138244628906 0 0 0 0 
2412500000.0000000000 0.167974933981895502288494981258 -0.039535306394100189208984375000 -0.001379849389195441982866596753 0.003525955602526665167567587744 0 0 0 0 
2412666666.6666665077 0.167534589767456110198651231258 -0.040653750300407409667968750000 -0.001271425746381283023236918872 0.003513379953801631927490234375 0 0 0 0 
2412833333.3333334923 0.166942328214645413497763115629 -0.041493266820907592773437500000 -0.001089726225472986914991069263 0.003474219702184199853184365381 0 0 0 0 
2413000000.0000000000 0.166038110852241488357705634371 -0.042277980595827102661132812500 -0.001007481361739337010624550928 0.003403673879802227020263671875 0 0 0 0 
2413166666.6666665077 0.165371984243392888824786268742 -0.043353386223316192626953125000 -0.000697726092766970396041870117 0.003624588483944534821751259912 0 0 0 0 
2413333333.3333334923 0.164699167013168307205361884371 -0.044224418699741356586496721093 -0.000598143436945974826812744141 0.003456298960372806029078818213 0 0 0 0 
2413500000.0000000000 0.164142996072769192794638115629 -0.045318931341171271587331403907 -0.000616839970462024211883544922 0.003493375377729535102844238281 0 0 0 0 
2413666666.6666665077 0.163433790206909207443075615629 -0.046442002058029181743581403907 -0.000375784846255555803149622784 0.003455094061791896820068359375 0 0 0 0 
2413833333.3333334923 0.162564948201179504394531250000 -0.047582313418388366699218750000 -0.000128252897411584908336085187 0.003402164438739418983459472656 0 0 0 0 
2414000000.0000000000 0.161801189184188787262286268742 -0.048641745001077651977539062500 -0.000133549052407033687264042987 0.003337996080517768859863281250 0 0 0 0 
2414166666.6666665077 0.161294937133789090255575615629 -0.049710672348737716674804687500 -0.000013070718523522369900738069 0.003419129876419901847839355469 0 0 0 0 
2414333333.3333334923 0.160764306783676202972088731258 -0.050955843180418021465261091407 -0.000086631487647537142038345337 0.003362039802595973014831542969 0 0 0 0 
2414500000.0000000000 0.160467267036437988281250000000 -0.052042596042156219482421875000 0.000223145121708512306213378906 0.003353892359882593154907226562 0 0 0 0 
2414666666.6666665077 0.159746482968330411056356865629 -0.053163792937994003295898437500 0.000245313014602288603782653809 0.003298372961580752892735146631 0 0 0 0 
2414833333.3333334923 0.159260138869285611251669365629 -0.054418291896581649780273437500 0.000513471662998199462890625000 0.003181392326951026916503906250 0 0 0 0 
2415000000.0000000000 0.158953204751014709472656250000 -0.055622786283493041992187500000 0.000598997226916253566741943359 0.003010691376402974128723144531 0 0 0 0 
2415166666.6666665077 0.158659815788268987457598768742 -0.057136986404657356952707658593 0.000674895592965185642242431641 0.003223530948162078857421875000 0 0 0 0 
2415333333.3333334923 0.158508330583572387695312500000 -0.058471873402595520019531250000 0.000738231930881738662719726562 0.002878199331462382836582802881 0 0 0 0 
2415500000.0000000000 0.158219903707504300216513115629 -0.059759750962257392192800153907 0.000783043855335563421249389648 0.003032230539247394041774130713 0 0 0 0 
2415666666.6666665077 0.157983690500259399414062500000 -0.061148699373006820678710937500 0.000877704587765038013458251953 0.002777327317744493918177939307 0 0 0 0 
2415833333.3333334923 0.157902821898460388183593750000 -0.062715917825698852539062500000 0.000872398493811488151550292969 0.002686283085495233969447470557 0 0 0 0 
2416000000.0000000000 0.157478258013725308517294365629 -0.064196005463600158691406250000 0.000897419697139412164688110352 0.002637118799611926078796386719 0 0 0 0 
2416166666.6666665077 0.157471269369125393966513115629 -0.065616168081760406494140625000 0.000915282114874571561813354492 0.002538584172725677923915243994 0 0 0 0 
2416333333.3333334923 0.157275676727294894119424384371 -0.067033857107162475585937500000 0.000896304263733327388763427734 0.002547321375459433035609579932 0 0 0 0 
2416500000.0000000000 0.157011851668357904632244981258 -0.068553633987903594970703125000 0.000902339175809174776077270508 0.002488314174115657806396484375 0 0 0 0 
2416666666.6666665077 0.156705528497695895095986884371 -0.069880038499832153320312500000 0.000742911826819181442260742188 0.002394750248640776114222861182 0 0 0 0 
2416833333.3333334923 0.156818568706512506683026231258 -0.071419730782508850097656250000 0.000779544643592089414596557617 0.002459402428939938978907919775 0 0 0 0 
2417000000.0000000000 0.156402811408042907714843750000 -0.072704970836639404296875000000 0.000745589321013540029525756836 0.002469190163537859916687011719 0 0 0 0 
2417166666.6666665077 0.156315714120864895919638115629 -0.073905952274799346923828125000 0.000870595860760658979415893555 0.002522294409573078155517578125 0 0 0 0 
2417333333.3333334923 0.156185194849968012054119981258 -0.075064137578010559082031250000 0.000965965795330703258514404297 0.002424840116873383955714560400 0 0 0 0 
2417500000.0000000000 0.156001567840576199630575615629 -0.076346583664417266845703125000 0.000672296679113060235977172852 0.002391182584688067002537392725 0 0 0 0 
2417666666.6666665077 0.155947998166084289550781250000 -0.077268533408641815185546875000 0.000810017809271812438964843750 0.002675043186172842979431152344 0 0 0 0 
2417833333.3333334923 0.155916243791580200195312500000 -0.078220590949058532714843750000 0.000695978465955704450607299805 0.002769678365439176993129111182 0 0 0 0 
2418000000.0000000000 0.155785918235778808593750000000 -0.079289577901363372802734375000 0.000824532879050821065902709961 0.002649091649800539016723632812 0 0 0 0 
2418166666.6666665077 0.155625179409980801681356865629 -0.080035522580146789550781250000 0.000842979177832603454589843750 0.002671483671292663054225302588 0 0 0 0 
2418333333.3333334923 0.155896663665771512130575615629 -0.080941513180732727050781250000 0.001037196023389697074890136719 0.002766355872154235839843750000 0 0 0 0 
2418500000.0000000000 0.155710548162460299392861884371 -0.081688471138477325439453125000 0.001122638466767966964124370044 0.002790383296087383790257119287 0 0 0 0 
2418666666.6666665077 0.155749142169952392578125000000 -0.082486473023891448974609375000 0.001187093788757920048357319409 0.002797793131321669058558798682 0 0 0 0 
2418833333.3333334923 0.155485108494758605957031250000 -0.083210490643978118896484375000 0.001360815484076737923863076318 0.002794762142002582983729697119 0 0 0 0 
2419000000.0000000000 0.155364945530891390701455634371 -0.083820559084415435791015625000 0.001527396729215980009791708838 0.002725957427173852920532226562 0 0 0 0 
2419166666.6666665077 0.155331805348396301269531250000 -0.084344118833541870117187500000 0.001776505494490266063092875903 0.002950745634734631018397665869 0 0 0 0 
2419333333.3333334923 0.155110478401184109786825615629 -0.084751531481742858886718750000 0.001798269920982420010807656396 0.002857030835002661185023642432 0 0 0 0 
2419500000.0000000000 0.154906556010246304611044365629 -0.085470363497734069824218750000 0.001876113354228436946868896484 0.002881645457819104194641113281 0 0 0 0 
2419666666.6666665077 0.154974505305290194412393134371 -0.085929423570632934570312500000 0.001973518868908286094665527344 0.002770491875708103179931640625 0 0 0 0 
2419833333.3333334923 0.154665157198905889313067518742 -0.086102478206157684326171875000 0.002342375693842769102809286963 0.002734040375798941092250204932 0 0 0 0 
