# Hz S RI R 50
2400000000.0000000000 0.169312387704849187652911268742 0.046043418347835540771484375000 0.000252004363574087619781494141 -0.003791809082031250000000000000 0 0 0 0 
2400166666.6666665077 0.170295402407646206954794365629 0.045075867325067520141601562500 0.000045175293053034693002700806 -0.003601267468184233145472861182 0 0 0 0 
2400333333.3333334923 0.171378910541534396072549384371 0.044019460678100592876393903907 0.000124732992844656109809875488 -0.003649830119684339003321982275 0 0 0 0 
2400500000.0000000000 0.172252401709556607345419365629 0.043003667145967476581613908593 0.000012906324627692809497016106 -0.003670426784083247184753417969 0 0 0 0 
2400666666.6666665077 0.173132091760635403732138115629 0.042154561728239059448242187500 0.000121707926155067993841986385 -0.003603614168241620063781738281 0 0 0 0 
2400833333.3333334923 0.174282416701316805740518134371 0.041292421519756317138671875000 0.000054793035815237089991569519 -0.003729877062141894860508584131 0 0 0 0 
2401000000.0000000000 0.174908116459846496582031250000 0.040667105466127402568776716407 -0.000059182893892284482717514038 -0.003579505020752549171447753906 0 0 0 0 
2401166666.6666665077 0.175899282097816495040731865629 0.039871528744697570800781250000 -0.000111699897388462004348477774 -0.003625708399340509934666298975 0 0 0 0 
2401333333.3333334923 0.176516413688659695724325615629 0.039220761507749557495117187500 -0.000218293193029239800855359488 -0.003830027068033813996555947412 0 0 0 0 
2401500000.0000000000 0.177390649914741488357705634371 0.038596212863922119140625000000 -0.000307385227642953395843505859 -0.003913066349923610687255859375 0 0 0 0 
2401666666.6666665077 0.177842095494270296951455634371 0.038187772035598761821706403907 -0.000311064010020345503657740460 -0.003967177122831344604492187500 0 0 0 0 
2401833333.3333334923 0.178337037563324002364950615629 0.037453565746545791625976562500 -0.000646382279228419065475463867 -0.004014263395220041275024414062 0 0 0 0 
2402000000.0000000000 0.178978130221366910079794365629 0.036869149655103676532785783593 -0.000824273680336773395538330078 -0.004035390447825193405151367188 0 0 0 0 
2402166666.6666665077 0.179542005062103299239950615629 0.036195926368236541748046875000 -0.000939394230954349040985107422 -0.004240929614752531051635742188 0 0 0 0 
2402333333.3333334923 0.179733678698539706131143134371 0.035637464374303817749023437500 -0.001243876875378191904780722510 -0.004079959820955991744995117188 0 0 0 0 
2402500000.0000000000 0.180092036724090603927450615629 0.035166822373867041851003278907 -0.001344597432762383980991982568 -0.003999341744929552078247070312 0 0 0 0 
2402666666.6666665077 0.180246874690055902679119981258 0.034507520496845252300222028907 -0.001606291625648736953735351562 -0.003921089228242635726928710938 0 0 0 0 
2402833333.3333334923 0.180180981755256708343182481258 0.033794261515140533447265625000 -0.001832601614296436092974018628 -0.003812985960394144058227539062 0 0 0 0 
2403000000.0000000000 0.180369004607200594803018134371 0.032979175448417656635324846093 -0.001837871503084897994995117188 -0.003765260335057973861694335938 0 0 0 0 
2403166666.6666665077 0.180255532264709500411825615629 0.032252307981252670288085937500 -0.002062998944893478913548134912 -0.003657657885923982100245810400 0 0 0 0 
2403333333.3333334923 0.180241793394088800628338731258 0.031600113958120353008229841407 -0.002440885873511434035060263525 -0.003324137302115560011622763525 0 0 0 0 
2403500000.0000000000 0.179835855960846002776776231258 0.030484203249216079711914062500 -0.002427353290840982957127236475 -0.003330887760967015786411904443 0 0 0 0 
2403666666.6666665077 0.179759323596954401214276231258 0.029514936730265620840052420704 -0.002668681321665645079371786963 -0.003148731077089906172511435400 0 0 0 0 
2403833333.3333334923 0.179451629519462613204794365629 0.028441173955798149108886718750 -0.002777608344331384138820029150 -0.002992754802107810974121093750 0 0 0 0 
2404000000.0000000000 0.179062709212303189376669365629 0.027282871305942538869837576954 -0.002766897669062017960789345850 -0.002849909709766507148742675781 0 0 0 0 
2404166666.6666665077 0.178571432828903198242187500000 0.026223799213767051696777343750 -0.002874467521905899047851562500 -0.002783264499157667160034179688 0 0 0 0 
2404333333.3333334923 0.177999109029769897460937500000 0.024990363046526908874511718750 -0.002854056190699338912963867188 -0.002816270571202040152308798682 0 0 0 0 
2404500000.0000000000 0.177498325705528287032919365629 0.023449268192052841186523437500 -0.002852019853889942169189453125 -0.002366368193179368972778320312 0 0 0 0 
2404666666.6666665077 0.177004948258399991134481865629 0.022245908156037330627441406250 -0.003005509730428456826450966943 -0.002403476508334279060363769531 0 0 0 0 
2404833333.3333334923 0.176318511366844205001669365629 0.020626962184906009328821951954 -0.002988598309457302093505859375 -0.002173258922994136810302734375 0 0 0 0 
2405000000.0000000000 0.175853654742240905761718750000 0.018983369693160060537318045704 -0.002951808739453554153442382812 -0.002052164403721690177917480469 0 0 0 0 
2405166666.6666665077 0.175262838602066012283486884371 0.017530128359794620168665701954 -0.002775286091491580009460449219 -0.001775682787410914897918701172 0 0 0 0 
2405333333.3333334923 0.174798175692558288574218750000 0.015696957707405090332031250000 -0.002866773167625070051905966650 -0.001718949293717741966247558594 0 0 0 0 
2405500000.0000000000 0.174172908067703302581463731258 0.014046570286154750478724295704 -0.002874180441722273826599121094 -0.001866100239567459063289023291 0 0 0 0 
2405666666.6666665077 0.173854842782020596603231865629 0.012194734998047350102434727148 -0.003010786836966872215270996094 -0.001683920854702591896057128906 0 0 0 0 
2405833333.3333334923 0.173250332474708612640057481258 0.010517475195229050027867501171 -0.002962844911962748007533408057 -0.001443334273062645955326699365 0 0 0 0 
2406000000.0000000000 0.172943785786628695388955634371 0.008486137725412845611572265625 -0.003108384320512413978576660156 -0.001389850629493593952776264722 0 0 0 0 
2406166666.6666665077 0.172614067792892511565838731258 0.006851933430880308151245117188 -0.002978723030537366867065429688 -0.001310777734033762974980019678 0 0 0 0 
2406333333.3333334923 0.172723263502120999435263115629 0.004823676776140928268432617188 -0.002968562534078956084010458838 -0.001225442159920931079267192310 0 0 0 0 
2406500000.0000000000 0.172255039215087890625000000000 0.002707586158066987991333007812 -0.002937894081696867942810058594 -0.001175825949758291027666401440 0 0 0 0 
2406666666.6666665077 0.171920374035835293868856865629 0.000802063790615648031234741211 -0.003017240902408957915065146338 -0.001085983589291573004481650244 0 0 0 0 
2406833333.3333334923 0.172145798802375793457031250000 -0.001320985145866871096967387622 -0.003191344207152723832371377100 -0.001101619680412114100215292822 0 0 0 0 
2407000000.0000000000 0.172244459390640286544638115629 -0.003457876387983560995814658057 -0.003122103866189717812779091943 -0.000979712698608636856079101562 0 0 0 0 
2407166666.6666665077 0.172480806708335904220419365629 -0.005550398491322994232177734375 -0.003198692575097084045410156250 -0.001137607265263796069501567310 0 0 0 0 
2407333333.3333334923 0.172544792294502313811932481258 -0.007631692104041576385498046875 -0.003316147485747932954075478662 -0.000898936123121529817581176758 0 0 0 0 
2407500000.0000000000 0.172642469406127901931924384371 -0.009712803177535533905029296875 -0.003274594433605670928955078125 -0.000709436542820185422897338867 0 0 0 0 
2407666666.6666665077 0.173152670264244107345419365629 -0.011782306246459480630894844921 -0.003355889348313211961033486475 -0.000542068795766681432723999023 0 0 0 0 
2407833333.3333334923 0.173237740993499811370526231258 -0.014036322943866249429722969921 -0.003415484447032213211059570312 -0.000463673408376052975654602051 0 0 0 0 
2408000000.0000000000 0.173656404018402099609375000000 -0.016103876754641529428502266796 -0.003455724567174911932704306494 -0.000320409308187663609355372296 0 0 0 0 
2408166666.6666665077 0.174093678593635586837606865629 -0.017954431474208828317662423046 -0.003456145059317349953892373193 -0.000207548466278240111753186636 0 0 0 0 
2408333333.3333334923 0.174686327576637295821981865629 -0.019963648170232769357701485546 -0.003514660289511084990260458838 0.000012339491149759849702017937 0 0 0 0 
2408500000.0000000000 0.175019457936286898513955634371 -0.021948521956801411020299141796 -0.003428639611229300932643271338 0.000332478201016783714294433594 0 0 0 0 
2408666666.6666665077 0.175613448023796109298544365629 -0.023841036483645439147949218750 -0.003328239079564809799194335938 0.000425469508627429604530334473 0 0 0 0 
2408833333.3333334923 0.175855189561843899825888115629 -0.025729363784193989145299141796 -0.003317497903481125831604003906 0.000537933257874101400375366211 0 0 0 0 
2409000000.0000000000 0.176256373524665804763955634371 -0.027293376624584201467493826954 -0.003311471082270144982578896631 0.000499146583024412393569946289 0 0 0 0 
2409166666.6666665077 0.176821261644363403320312500000 -0.028890471905469890939732735546 -0.003197507001459598974940634619 0.000723404344171285629272460938 0 0 0 0 
2409333333.3333334923 0.177388012409210205078125000000 -0.030447248369455340993861014454 -0.003129110205918550925013876807 0.000843140180222690105438232422 0 0 0 0 
2409500000.0000000000 0.177694246172904996017294365629 -0.031691078096628189086914062500 -0.003057872410863637924194335938 0.000876030127983540296554565430 0 0 0 0 
2409666666.6666665077 0.178149282932281494140625000000 -0.032879505306482322002370466407 -0.003078882582485675811767578125 0.000871095864567905664443969727 0 0 0 0 
2409833333.3333334923 0.178598120808601407150106865629 -0.033958099782466888427734375000 -0.002989040454849600791931152344 0.001040085917338728904724121094 0 0 0 0 
2410000000.0000000000 0.179256394505500793457031250000 -0.034794196486473076557199846093 -0.002875289181247353987452841650 0.001242383732460438988329243237 0 0 0 0 
2410166666.6666665077 0.179702728986740112304687500000 -0.035806570202112197875976562500 -0.002678659744560718970057822119 0.001172519056126474900486611475 0 0 0 0 
2410333333.3333334923 0.180042341351509094238281250000 -0.036671169102191931987722028907 -0.002857871819287538962123251807 0.001159007544629276015638041919 0 0 0 0 
2410500000.0000000000 0.180500254034996004959268134371 -0.037148624658584601665456403907 -0.002703227102756499810459756006 0.001131838653236628012416220557 0 0 0 0 
2410666666.6666665077 0.180956393480300903320312500000 -0.037972658872604370117187500000 -0.002617020392790437178370810400 0.001364788622595370032666850513 0 0 0 0 
2410833333.3333334923 0.181232094764709500411825615629 -0.038515508174896240234375000000 -0.002711579203605651855468750000 0.001439649495296180031420063550 0 0 0 0 
2411000000.0000000000 0.181592568755149813553018134371 -0.038964822888374328613281250000 -0.002646852051839232011082314600 0.001489514135755598978755331885 0 0 0 0 
2411166666.6666665077 0.181857138872146606445312500000 -0.039535604417324073101003278907 -0.002571285702288150787353515625 0.001695861923508346080780029297 0 0 0 0 
2411333333.3333334923 0.182048439979553194900674384371 -0.039957348257303237915039062500 -0.002558809006586670875549316406 0.001778883393853903033612895435 0 0 0 0 
2411500000.0000000000 0.182264700531959505935830634371 -0.040585897862911217426340471093 -0.002542830770835279984715127100 0.001997911371290684180018759619 0 0 0 0 
2411666666.6666665077 0.182353556156158502776776231258 -0.040847163647413246845285783593 -0.002461819443851708932163857568 0.001976901665329933166503906250 0 0 0 0 
2411833333.3333334923 0.182207107543945312500000000000 -0.041123449802398681640625000000 -0.002161551499739288850071572412 0.002073361771181226210353232275 0 0 0 0 
2412000000.0000000000 0.181996852159500094314736884371 -0.041502859443426132202148437500 -0.002118307631462811990025185693 0.001941614667885005907771445166 0 0 0 0 
2412166666.6666665077 0.181632742285728510100994981258 -0.041838672012090682983398437500 -0.002075413940474390983581542969 0.002156622475013136863708496094 0 0 0 0 
2412333333.3333334923 0.181481584906578091720419365629 -0.041908696293830871582031250000 -0.001875377027317882017848349463 0.002160656033083796934840536963 0 0 0 0 
2412500000.0000000000 0.180888324975967407226562500000 -0.042240034788846969604492187500 -0.001979567343369125886204384912 0.002249005250632762908935546875 0 0 0 0 
2412666666.6666665077 0.180236086249351501464843750000 -0.042820811271667480468750000000 -0.001594535540789365985273051685 0.002291287528350948853733681787 0 0 0 0 
2412833333.3333334923 0.179801359772682189941406250000 -0.042888909578323357318918596093 -0.001580265816301106972935341943 0.002344595734030007882359170068 0 0 0 0 
2413000000.0000000000 0.178940370678901700118856865629 -0.043484259396791458129882812500 -0.001471628434956073977826762622 0.002379628829658031897303915869 0 0 0 0 
2413166666.6666665077 0.178162857890129089355468750000 -0.043693929910659790039062500000 -0.001402327441610395908355712891 0.002287443261593579812290810693 0 0 0 0 
2413333333.3333334923 0.177126422524452209472656250000 -0.044025659561157226562500000000 -0.001241551944985985972760844653 0.002394154435023664994480752100 0 0 0 0 
2413500000.0000000000 0.176137909293174688141192518742 -0.044623970985412597656250000000 -0.001196172321215271949768066406 0.002325300360098481178283691406 0 0 0 0 
2413666666.6666665077 0.175234988331794711013955634371 -0.045153502374887473369557966407 -0.000932485389057546854019165039 0.002337528392672539191005087744 0 0 0 0 
2413833333.3333334923 0.174009278416633605957031250000 -0.045667655766010277484934221093 -0.000919951242394745349884033203 0.002247123513370751900913857568 0 0 0 0 
2414000000.0000000000 0.172709658741950988769531250000 -0.046499449759721762920339216407 -0.000784312433097511529922485352 0.002240763744339346885681152344 0 0 0 0 
2414166666.6666665077 0.171684324741363497635049384371 -0.047192126512527472759206403907 -0.000733083637896925210952758789 0.002011516829952598051783896338 0 0 0 0 
2414333333.3333334923 0.170320272445678710937500000000 -0.047939434647560119628906250000 -0.000771489925682544708251953125 0.001941002672538161060930561597 0 0 0 0 
2414500000.0000000000 0.169503405690193204025106865629 -0.048740234225988388061523437500 -0.000603635970037430524826049805 0.002102473052218555970432900537 0 0 0 0 
2414666666.6666665077 0.168116882443428011795205634371 -0.049458600580692291259765625000 -0.000612087023910135030746459961 0.001993914367631078200099326025 0 0 0 0 
2414833333.3333334923 0.166847363114356994628906250000 -0.050735119730234153057057966407 -0.000719991978257894515991210938 0.001884308643639087893842387622 0 0 0 0 
2415000000.0000000000 0.165637493133544894119424384371 -0.051905062049627297138254533593 -0.000756077875848859548568725586 0.001812970847822725989698100513 0 0 0 0 
2415166666.6666665077 0.164306327700614901443643134371 -0.053246997296810150146484375000 -0.000606400310061872005462646484 0.001805376610718667940852499854 0 0 0 0 
2415333333.3333334923 0.163297608494758605957031250000 -0.054507289081811911846120466407 -0.000694394460879266262054443359 0.001734939985908567905426025391 0 0 0 0 
2415500000.0000000000 0.162066623568534906585369981258 -0.055950056761503219604492187500 -0.000591055140830576419830322266 0.001735568395815789916394877856 0 0 0 0 
2415666666.6666665077 0.160853758454322787185830634371 -0.057417996227741241455078125000 -0.000698254851158708333969116211 0.001729557756334543011308979565 0 0 0 0 
2415833333.3333334923 0.159852892160415704925213731258 -0.059101242572069168090820312500 -0.000568708404898643493652343750 0.001687238225713372013689350659 0 0 0 0 
2416000000.0000000000 0.158511072397232111175213731258 -0.060919959098100662231445312500 -0.000809126591775566339492797852 0.001613935106433928012847900391 0 0 0 0 
2416166666.6666665077 0.157670378684997586349325615629 -0.062604725360870361328125000000 -0.000678399286698549985885620117 0.001667229225859045982360839844 0 0 0 0 
2416333333.3333334923 0.156735256314277704436932481258 -0.064299754798412322998046875000 -0.000779244990553706884384155273 0.001769981230609118938446044922 0 0 0 0 
2416500000.0000000000 0.155745521187782287597656250000 -0.066250510513782501220703125000 -0.000749171944335103034973144531 0.001772957737557590007781982422 0 0 0 0 
2416666666.6666665077 0.154836699366569491287393134371 -0.068156026303768157958984375000 -0.000831943645607680082321166992 0.001750732306391000964521098560 0 0 0 0 
2416833333.3333334923 0.154014468193054199218750000000 -0.070157364010810852050781250000 -0.000879768689628690481185913086 0.001812134403735399029375385815 0 0 0 0 
2417000000.0000000000 0.152990907430648803710937500000 -0.072190053761005401611328125000 -0.000901170074939727783203125000 0.001841081306338310024858784253 0 0 0 0 
2417166666.6666665077 0.152477934956550598144531250000 -0.074030973017215728759765625000 -0.000821590365376323461532592773 0.001999499043449759917018271338 0 0 0 0 
2417333333.3333334923 0.151841446757316589355468750000 -0.075935199856758117675781250000 -0.000692605215590447187423706055 0.001972561469301580949070595850 0 0 0 0 
2417500000.0000000000 0.151257589459419305999432481258 -0.078071564435958862304687500000 -0.000929121975786983966827392578 0.002240504836663604216334677588 0 0 0 0 
2417666666.6666665077 0.150797918438911410232705634371 -0.079861387610435485839843750000 -0.000722228316590189933776855469 0.002123322570696473121643066406 0 0 0 0 
2417833333.3333334923 0.150384366512298611739950615629 -0.081742167472839355468750000000 -0.000905331515241414308547973633 0.002288198564201592965366982568 0 0 0 0 
2418000000.0000000000 0.150020077824592590332031250000 -0.083597220480442047119140625000 -0.000735384703148156404495239258 0.002301048254594206809997558594 0 0 0 0 
2418166666.6666665077 0.149825647473335293868856865629 -0.085264474153518676757812500000 -0.000632837647572159767150878906 0.002553788945078849792480468750 0 0 0 0 
2418333333.3333334923 0.149734258651733398437500000000 -0.087040178477764129638671875000 -0.000689781620167195796966552734 0.002602228429168463186976767432 0 0 0 0 
2418500000.0000000000 0.149594902992248507400674384371 -0.088633723556995391845703125000 -0.000544378592167049646377563477 0.002746598795056343078613281250 0 0 0 0 
2418666666.6666665077 0.149487674236297607421875000000 -0.090235620737075805664062500000 -0.000365066080121323520511072980 0.002822762820869683785679482568 0 0 0 0 
2418833333.3333334923 0.149448245763778686523437500000 -0.091671869158744812011718750000 -0.000218416040297597700923365460 0.002823806134983897209167480469 0 0 0 0 
2419000000.0000000000 0.149427995085716303069744981258 -0.093032628297805786132812500000 -0.000140854943310841890886583871 0.002915749559178947968723916162 0 0 0 0 
2419166666.6666665077 0.149638012051582308670205634371 -0.094136759638786315917968750000 0.000053768391808262101631572111 0.003132908372208476066589355469 0 0 0 0 
2419333333.3333334923 0.149567097425460787674111884371 -0.095218956470489501953125000000 0.000112446970888413502417425838 0.002910958370193839073181152344 0 0 0 0 
2419500000.0000000000 0.149851590394973810393963731258 -0.096428036689758300781250000000 0.000426281563704833388328552246 0.003001678735017776922938681494 0 0 0 0 
2419666666.6666665077 0.150279179215431213378906250000 -0.097244545817375183105468750000 0.000466887024231255108683985577 0.002788555808365345001220703125 0 0 0 0 
2419833333.3333334923 0.150343149900436401367187500000 -0.098075769841670989990234375000 0.000659228418953716754913330078 0.002828713739290833906886435400 0 0 0 0 
