# Version 1.00
#
freq[Hz];re:Trc1_S11;im:Trc1_S11;re:Trc2_S21;im:Trc2_S21;
2.400000000000000E+009;1.553307771682739E-001;1.113217100501061E-001;-4.822059068828821E-003;2.061173552647233E-003;
2.400166666666667E+009;1.549218595027924E-001;1.090478673577309E-001;-4.887283314019442E-003;2.162831136956811E-003;
2.400333333333334E+009;1.545756161212921E-001;1.067844405770302E-001;-4.834091756492853E-003;2.419279655441642E-003;
2.400500000000000E+009;1.542463302612305E-001;1.041104048490524E-001;-4.765486810356379E-003;2.597811631858349E-003;
2.400666666666667E+009;1.541461497545242E-001;1.016873195767403E-001;-4.640018101781607E-003;2.749592764303088E-003;
2.400833333333334E+009;1.537848263978958E-001;9.887783229351044E-002;-4.601566120982170E-003;2.881364431232214E-003;
2.401000000000000E+009;1.537237167358398E-001;9.600640088319778E-002;-4.635542631149292E-003;3.109771292656660E-003;
2.401166666666667E+009;1.535351723432541E-001;9.301989525556564E-002;-4.470657091587782E-003;3.280494362115860E-003;
2.401333333333334E+009;1.538061648607254E-001;9.012417495250702E-002;-4.320872481912375E-003;3.258367069065571E-003;
2.401500000000000E+009;1.541281640529633E-001;8.715433627367020E-002;-4.376603290438652E-003;3.542043501511216E-003;
2.401666666666667E+009;1.542100012302399E-001;8.413425087928772E-002;-4.298603627830744E-003;3.612651722505689E-003;
2.401833333333334E+009;1.545035094022751E-001;8.111231029033661E-002;-4.469208884984255E-003;3.929173108190298E-003;
2.402000000000000E+009;1.552218943834305E-001;7.828127592802048E-002;-4.395434632897377E-003;4.101762548089027E-003;
2.402166666666667E+009;1.558336168527603E-001;7.551094889640808E-002;-4.107045941054821E-003;4.206970334053040E-003;
2.402333333333334E+009;1.567489504814148E-001;7.254002988338471E-002;-4.156418610364199E-003;4.485623911023140E-003;
2.402500000000000E+009;1.578180789947510E-001;6.978964060544968E-002;-3.994484897702932E-003;4.680408630520105E-003;
2.402666666666667E+009;1.587413102388382E-001;6.709059327840805E-002;-3.827962558716536E-003;4.773618187755346E-003;
2.402833333333334E+009;1.597938090562820E-001;6.441683322191238E-002;-3.713992424309254E-003;5.012819077819586E-003;
2.403000000000000E+009;1.615122109651566E-001;6.184993311762810E-002;-3.571556182578206E-003;5.436217412352562E-003;
2.403166666666667E+009;1.631705909967423E-001;5.934384837746620E-002;-3.406536299735308E-003;5.296476185321808E-003;
2.403333333333334E+009;1.646211147308350E-001;5.684182047843933E-002;-3.306710626929998E-003;5.602751858532429E-003;
2.403500000000000E+009;1.663045585155487E-001;5.462042614817619E-002;-3.011830616742373E-003;5.769199226051569E-003;
2.403666666666667E+009;1.681805998086929E-001;5.240604653954506E-002;-2.956046489998698E-003;5.991230718791485E-003;
2.403833333333334E+009;1.699586510658264E-001;5.016615614295006E-002;-2.644451800733805E-003;6.145900115370750E-003;
2.404000000000000E+009;1.715606898069382E-001;4.819343984127045E-002;-2.436146140098572E-003;6.385083775967360E-003;
2.404166666666667E+009;1.734146177768707E-001;4.667165875434876E-002;-2.042254898697138E-003;6.494522560387850E-003;
2.404333333333334E+009;1.754123866558075E-001;4.489248618483543E-002;-1.866642618551850E-003;6.763840094208717E-003;
2.404500000000000E+009;1.771319806575775E-001;4.315827786922455E-002;-1.387972384691238E-003;6.863100919872522E-003;
2.404666666666667E+009;1.790127754211426E-001;4.191048443317413E-002;-1.211691182106733E-003;6.881852168589830E-003;
2.404833333333334E+009;1.809068471193314E-001;4.064430668950081E-002;-8.881140383891761E-004;7.203080225735903E-003;
2.405000000000000E+009;1.826072931289673E-001;3.985466808080673E-002;-6.399670965038240E-004;7.293081376701593E-003;
2.405166666666667E+009;1.843173503875732E-001;3.902219980955124E-002;-1.622820127522573E-004;7.191257551312447E-003;
2.405333333333334E+009;1.859390288591385E-001;3.844576328992844E-002;2.941605634987354E-004;7.428317330777645E-003;
2.405500000000000E+009;1.871761083602905E-001;3.801795840263367E-002;4.911592695862055E-004;6.586391013115645E-003;
2.405666666666667E+009;1.887166500091553E-001;3.726519271731377E-002;1.581019838340581E-003;6.838194094598293E-003;
2.405833333333334E+009;1.909125000238419E-001;3.722226992249489E-002;1.247463864274323E-003;7.608145009726286E-003;
2.406000000000000E+009;1.915620267391205E-001;3.679117560386658E-002;1.997183775529265E-003;6.726965773850679E-003;
2.406166666666667E+009;1.931253522634506E-001;3.651542961597443E-002;2.603959990665317E-003;6.796593312174082E-003;
2.406333333333334E+009;1.944680064916611E-001;3.716417029500008E-002;2.545127645134926E-003;6.861221976578236E-003;
2.406500000000000E+009;1.954658478498459E-001;3.705289587378502E-002;2.905648201704025E-003;6.686542648822069E-003;
2.406666666666667E+009;1.961502432823181E-001;3.743369877338409E-002;2.917679725214839E-003;6.383274681866169E-003;
2.406833333333334E+009;1.970415115356445E-001;3.811449185013771E-002;2.724065445363522E-003;5.946361925452948E-003;
2.407000000000000E+009;1.972009092569351E-001;3.819049522280693E-002;3.467872040346265E-003;5.654547363519669E-003;
2.407166666666667E+009;1.979941874742508E-001;3.781235218048096E-002;3.854673122987151E-003;5.649762693792582E-003;
2.407333333333334E+009;1.981180310249329E-001;3.848788142204285E-002;3.887814469635487E-003;5.435534287244082E-003;
2.407500000000000E+009;1.982027441263199E-001;3.883092105388641E-002;4.040275700390339E-003;5.479608196765184E-003;
2.407666666666667E+009;1.985226422548294E-001;3.897666931152344E-002;4.350817762315273E-003;5.237998906522989E-003;
2.407833333333334E+009;1.980735957622528E-001;3.924416378140450E-002;4.412651527673006E-003;5.078705027699471E-003;
2.408000000000000E+009;1.981278061866760E-001;3.931519389152527E-002;4.517096094787121E-003;4.751745611429215E-003;
2.408166666666667E+009;1.976487189531326E-001;3.945847973227501E-002;4.790323320776224E-003;4.445794969797134E-003;
2.408333333333334E+009;1.971842646598816E-001;3.920781612396240E-002;5.083644762635231E-003;4.210878629237413E-003;
2.408500000000000E+009;1.963436305522919E-001;3.918741643428803E-002;5.058094393461943E-003;3.977438900619745E-003;
2.408666666666667E+009;1.958457976579666E-001;3.907443955540657E-002;5.272590555250645E-003;3.766837995499373E-003;
2.408833333333334E+009;1.950924694538117E-001;3.862359002232552E-002;5.213612690567970E-003;3.380435518920422E-003;
2.409000000000000E+009;1.940633356571198E-001;3.804392740130425E-002;5.326026119291782E-003;3.229882800951600E-003;
2.409166666666667E+009;1.930463314056397E-001;3.734857961535454E-002;5.218401085585356E-003;2.914745360612869E-003;
2.409333333333334E+009;1.919860392808914E-001;3.675332292914391E-002;5.296242423355579E-003;2.754594432190061E-003;
2.409500000000000E+009;1.906116008758545E-001;3.577062115073204E-002;5.245496053248644E-003;2.528411336243153E-003;
2.409666666666667E+009;1.895347684621811E-001;3.465303778648377E-002;5.160639993846417E-003;2.311200369149447E-003;
2.409833333333334E+009;1.884730607271195E-001;3.345054760575295E-002;5.303985439240933E-003;2.087648725137115E-003;
2.410000000000000E+009;1.872639954090118E-001;3.205408900976181E-002;5.209147930145264E-003;2.055502030998468E-003;
2.410166666666667E+009;1.858350634574890E-001;3.042203187942505E-002;5.060388706624508E-003;1.920898677781224E-003;
2.410333333333334E+009;1.847396045923233E-001;2.884189225733280E-002;5.168284755200148E-003;1.627735560759902E-003;
2.410500000000000E+009;1.834302395582199E-001;2.710126526653767E-002;5.060885101556778E-003;1.599649549461901E-003;
2.410666666666667E+009;1.823685616254807E-001;2.484978735446930E-002;5.103740375488997E-003;1.541449455544353E-003;
2.410833333333334E+009;1.816025227308273E-001;2.285457588732243E-002;5.040386226028204E-003;1.337864086963236E-003;
2.411000000000000E+009;1.805894374847412E-001;2.065695822238922E-002;4.988077562302351E-003;1.292258151806891E-003;
2.411166666666667E+009;1.796123534440994E-001;1.856492273509502E-002;5.162145942449570E-003;1.032117870636284E-003;
2.411333333333334E+009;1.788544058799744E-001;1.592515222728252E-002;5.056648515164852E-003;1.033798209391534E-003;
2.411500000000000E+009;1.781741529703140E-001;1.369158457964659E-002;5.023943725973368E-003;9.739956003613770E-004;
2.411666666666667E+009;1.777948737144470E-001;1.113374903798103E-002;5.036239977926016E-003;8.810461149550974E-004;
2.411833333333334E+009;1.772318780422211E-001;8.644857443869114E-003;5.071436520665884E-003;5.538945551961660E-004;
2.412000000000000E+009;1.772115975618362E-001;5.873999558389187E-003;4.943844862282276E-003;5.242007318884134E-004;
2.412166666666667E+009;1.770844310522080E-001;3.497055266052485E-003;5.002064630389214E-003;4.097533528693020E-004;
2.412333333333334E+009;1.770297437906265E-001;7.743603782728314E-004;5.059828981757164E-003;3.161357017233968E-004;
2.412500000000000E+009;1.775015890598297E-001;-1.738731749355793E-003;5.153909325599670E-003;2.335807075724006E-004;
2.412666666666667E+009;1.778202652931213E-001;-4.426035098731518E-003;5.101094953715801E-003;-6.254350591916591E-005;
2.412833333333334E+009;1.782574355602264E-001;-6.990984547883272E-003;5.175619386136532E-003;-4.754258043249138E-005;
2.413000000000000E+009;1.789641678333283E-001;-9.638097137212753E-003;5.297147203236818E-003;-2.137191331712529E-004;
2.413166666666667E+009;1.797993183135986E-001;-1.209366600960493E-002;5.359633825719357E-003;-2.286903472850099E-004;
2.413333333333334E+009;1.807960867881775E-001;-1.446450315415859E-002;5.326183047145605E-003;-4.187660524621606E-004;
2.413500000000000E+009;1.816288232803345E-001;-1.713086478412151E-002;5.354358814656735E-003;-7.628124440088868E-004;
2.413666666666667E+009;1.828348636627197E-001;-1.952770538628101E-002;5.246610380709171E-003;-9.776096558198333E-004;
2.413833333333334E+009;1.840954720973969E-001;-2.174963429570198E-002;5.165559239685535E-003;-1.069555059075356E-003;
2.414000000000000E+009;1.852404326200485E-001;-2.409458160400391E-002;5.150037351995707E-003;-1.319383387453854E-003;
2.414166666666667E+009;1.867240518331528E-001;-2.623756416141987E-002;5.196368787437677E-003;-1.528410008177161E-003;
2.414333333333334E+009;1.879703104496002E-001;-2.832742035388947E-002;5.008216481655836E-003;-1.674697385169566E-003;
2.414500000000000E+009;1.892267763614655E-001;-2.997239679098129E-002;5.001158453524113E-003;-1.859339419752359E-003;
2.414666666666667E+009;1.906728893518448E-001;-3.170066326856613E-002;4.814894404262304E-003;-1.898302230983973E-003;
2.414833333333334E+009;1.920190006494522E-001;-3.336828947067261E-002;4.729040898382664E-003;-2.209146507084370E-003;
2.415000000000000E+009;1.933077275753021E-001;-3.489461541175842E-002;4.655539058148861E-003;-2.353366697207093E-003;
2.415166666666667E+009;1.948585063219070E-001;-3.606432303786278E-002;4.667835310101509E-003;-2.456073649227619E-003;
2.415333333333334E+009;1.962742954492569E-001;-3.714127093553543E-002;4.655879456549883E-003;-2.618668368086219E-003;
2.415500000000000E+009;1.976788491010666E-001;-3.811107948422432E-002;4.588523879647255E-003;-2.769805258139968E-003;
2.415666666666667E+009;1.989038288593292E-001;-3.906865417957306E-002;4.523649346083403E-003;-2.774590859189630E-003;
2.415833333333334E+009;2.000153511762619E-001;-3.985751792788506E-002;4.371465649455786E-003;-2.867868170142174E-003;
2.416000000000000E+009;2.012359201908112E-001;-4.040475562214851E-002;4.229062236845493E-003;-3.325300058349967E-003;
2.416166666666667E+009;2.021582126617432E-001;-4.107712209224701E-002;4.273766186088324E-003;-3.410005476325750E-003;
2.416333333333334E+009;2.032459378242493E-001;-4.136234521865845E-002;4.153782501816750E-003;-3.745208261534572E-003;
2.416500000000000E+009;2.039985954761505E-001;-4.160917550325394E-002;3.870548447594047E-003;-3.861434990540147E-003;
2.416666666666667E+009;2.046262174844742E-001;-4.202874377369881E-002;3.830170724540949E-003;-3.986853640526533E-003;
2.416833333333334E+009;2.049547582864761E-001;-4.201353713870049E-002;3.590985899791122E-003;-4.139609169214964E-003;
2.417000000000000E+009;2.054853886365891E-001;-4.207495227456093E-002;3.384869778528810E-003;-4.150310531258583E-003;
2.417166666666667E+009;2.054693698883057E-001;-4.195007309317589E-002;3.193107200786471E-003;-4.356741439551115E-003;
2.417333333333334E+009;2.053917646408081E-001;-4.167569801211357E-002;2.971076872199774E-003;-4.585407674312592E-003;
2.417500000000000E+009;2.055337429046631E-001;-4.150295630097389E-002;2.810894977301359E-003;-4.580826032906771E-003;
2.417666666666667E+009;2.050354033708572E-001;-4.116700589656830E-002;2.676086965948343E-003;-4.527922254055738E-003;
2.417833333333334E+009;2.048985660076141E-001;-4.084043204784393E-002;2.449369989335537E-003;-4.553544800728560E-003;
2.418000000000000E+009;2.044492810964584E-001;-4.053514078259468E-002;2.246082760393620E-003;-4.484387114644051E-003;
2.418166666666667E+009;2.037867307662964E-001;-4.020516946911812E-002;2.148142317309976E-003;-4.628203343600035E-003;
2.418333333333334E+009;2.029741704463959E-001;-3.981767594814301E-002;1.886562095023692E-003;-4.696810152381659E-003;
2.418500000000000E+009;2.020753473043442E-001;-3.977169841527939E-002;1.899445778690279E-003;-4.766928497701883E-003;
2.418666666666667E+009;2.012070864439011E-001;-3.930975496768951E-002;1.750347786583006E-003;-4.803563002496958E-003;
2.418833333333334E+009;1.999889612197876E-001;-3.938929736614227E-002;1.490284572355449E-003;-4.672883544117212E-003;
2.419000000000000E+009;1.988209486007690E-001;-3.931257501244545E-002;1.455994672141969E-003;-4.738687537610531E-003;
2.419166666666667E+009;1.975477486848831E-001;-3.940017521381378E-002;1.130547723732889E-003;-4.862614441663027E-003;
2.419333333333334E+009;1.961680203676224E-001;-3.971484676003456E-002;1.132597913965583E-003;-4.874744452536106E-003;
2.419500000000000E+009;1.947344392538071E-001;-3.979170322418213E-002;9.868396446108818E-004;-4.942914471030235E-003;
2.419666666666667E+009;1.930790543556213E-001;-4.061901941895485E-002;6.804526783525944E-004;-4.956082440912724E-003;
2.419833333333334E+009;1.912240087985992E-001;-4.092940315604210E-002;6.560612819157541E-004;-4.872282966971397E-003;
2.420000000000000E+009;1.895576566457748E-001;-4.175508022308350E-002;4.244410665705800E-004;-4.909180104732513E-003;
2.420166666666667E+009;1.877003163099289E-001;-4.259573295712471E-002;3.908063517883420E-004;-4.861250985413790E-003;
2.420333333333334E+009;1.860379129648209E-001;-4.362501576542854E-002;2.050287148449570E-004;-4.760545212775469E-003;
2.420500000000000E+009;1.840414404869080E-001;-4.477621987462044E-002;1.606551377335563E-004;-4.881531931459904E-003;
2.420666666666667E+009;1.823215484619141E-001;-4.575761407613754E-002;-2.451142609061208E-005;-4.878790583461523E-003;
2.420833333333334E+009;1.805412471294403E-001;-4.738694801926613E-002;-1.385845243930817E-004;-4.870435688644648E-003;
2.421000000000000E+009;1.788248568773270E-001;-4.872623085975647E-002;-2.456188085488975E-004;-4.717807751148939E-003;
2.421166666666667E+009;1.771451085805893E-001;-5.035671591758728E-002;-4.933622549287975E-004;-4.805871285498142E-003;
2.421333333333334E+009;1.752316355705261E-001;-5.188903585076332E-002;-5.637375288642943E-004;-4.893788136541843E-003;
2.421500000000000E+009;1.735013872385025E-001;-5.385151132941246E-002;-7.832251721993089E-004;-4.732606932520866E-003;
2.421666666666667E+009;1.722337603569031E-001;-5.576735734939575E-002;-8.463574340566993E-004;-4.723732359707356E-003;
2.421833333333334E+009;1.708019375801086E-001;-5.763033777475357E-002;-9.215295431204140E-004;-4.581252578645945E-003;
2.422000000000000E+009;1.695820093154907E-001;-5.984308943152428E-002;-1.139121828600764E-003;-4.732901696115732E-003;
2.422166666666667E+009;1.685962378978729E-001;-6.185573339462280E-002;-1.387320924550295E-003;-4.444563295692205E-003;
2.422333333333334E+009;1.672073602676392E-001;-6.418357044458389E-002;-1.365194562822580E-003;-4.596007056534290E-003;
2.422500000000000E+009;1.661541461944580E-001;-6.606809049844742E-002;-1.545161823742092E-003;-4.734835121780634E-003;
2.422666666666667E+009;1.653104126453400E-001;-6.833064556121826E-002;-1.521106343716383E-003;-4.538920242339373E-003;
2.422833333333334E+009;1.646096259355545E-001;-7.067871093750000E-002;-1.858830917626619E-003;-4.410343710333109E-003;
2.423000000000000E+009;1.641414314508438E-001;-7.296746969223023E-002;-2.060691826045513E-003;-4.432626534253359E-003;
2.423166666666667E+009;1.635973304510117E-001;-7.506203651428223E-002;-2.092540264129639E-003;-4.434222355484963E-003;
2.423333333333334E+009;1.633077710866928E-001;-7.731431722640991E-002;-2.179201692342758E-003;-4.312454722821713E-003;
2.423500000000000E+009;1.631989777088165E-001;-7.930552959442139E-002;-2.455326728522778E-003;-4.245303105562925E-003;
2.423666666666667E+009;1.630559116601944E-001;-8.143674582242966E-002;-2.575691556558013E-003;-4.121736623346806E-003;
2.423833333333334E+009;1.631011813879013E-001;-8.342748135328293E-002;-2.652851631864905E-003;-4.058841615915299E-003;
2.424000000000000E+009;1.631084680557251E-001;-8.558372408151627E-002;-3.018264891579747E-003;-4.020980559289455E-003;
2.424166666666667E+009;1.632760316133499E-001;-8.735939860343933E-002;-3.279542084783316E-003;-3.772001480683684E-003;
2.424333333333334E+009;1.635848730802536E-001;-8.928062021732330E-002;-3.291163593530655E-003;-3.602985991165042E-003;
2.424500000000000E+009;1.638971269130707E-001;-9.114523231983185E-002;-3.489300841465592E-003;-3.526651998981834E-003;
2.424666666666667E+009;1.642605364322662E-001;-9.275944530963898E-002;-3.543279133737087E-003;-3.413366386666894E-003;
2.424833333333334E+009;1.649120151996613E-001;-9.430362284183502E-002;-3.728186711668968E-003;-3.239348763599992E-003;
2.425000000000000E+009;1.653748750686646E-001;-9.567476063966751E-002;-3.755113575607538E-003;-3.016883274540305E-003;
2.425166666666667E+009;1.659020483493805E-001;-9.687549620866776E-002;-3.951246384531260E-003;-2.804400166496635E-003;
2.425333333333334E+009;1.664583683013916E-001;-9.806616604328156E-002;-3.910757601261139E-003;-2.443076111376286E-003;
2.425500000000000E+009;1.669428050518036E-001;-9.926630556583405E-002;-4.145829938352108E-003;-2.340126084163785E-003;
2.425666666666667E+009;1.677075475454330E-001;-9.999887645244598E-002;-3.982094582170248E-003;-2.104910090565682E-003;
2.425833333333334E+009;1.682225167751312E-001;-1.010751277208328E-001;-3.936608321964741E-003;-2.019923878833652E-003;
2.426000000000000E+009;1.687489748001099E-001;-1.015798151493073E-001;-4.017380066215992E-003;-1.916644047014415E-003;
2.426166666666667E+009;1.694224625825882E-001;-1.022432222962380E-001;-3.856747178360820E-003;-1.784479012712836E-003;
2.426333333333334E+009;1.698263883590698E-001;-1.027836725115776E-001;-3.944475669413805E-003;-1.553138135932386E-003;
2.426500000000000E+009;1.704730242490768E-001;-1.030781790614128E-001;-3.831564448773861E-003;-1.481269486248493E-003;
2.426666666666667E+009;1.709896326065064E-001;-1.034887954592705E-001;-3.974356688559055E-003;-1.404198003001511E-003;
2.426833333333334E+009;1.714922338724136E-001;-1.036198660731316E-001;-3.996107727289200E-003;-1.168211689218879E-003;
2.427000000000000E+009;1.717428267002106E-001;-1.039340198040009E-001;-4.052982199937105E-003;-1.048076548613608E-003;
2.427166666666667E+009;1.720233261585236E-001;-1.039960086345673E-001;-3.939818125218153E-003;-1.076234737411141E-003;
2.427333333333334E+009;1.722068190574646E-001;-1.042133346199989E-001;-3.934458363801241E-003;-9.810327319428325E-004;
2.427500000000000E+009;1.721610575914383E-001;-1.041977405548096E-001;-4.002044908702374E-003;-7.346234633587301E-004;
2.427666666666667E+009;1.721665263175964E-001;-1.043083444237709E-001;-3.936740104109049E-003;-5.488533060997725E-004;
2.427833333333334E+009;1.719867140054703E-001;-1.042237803339958E-001;-4.134740214794874E-003;-5.416169879026711E-004;
