# Hz S RI R 50
2400000000.0000000000 0.172993242740631103515625000000 0.049469709396362311626393903907 0.004712895490229129791259765625 -0.000750930572394281625747680664 0 0 0 0 
2400166666.6666665077 0.173598855733871487716513115629 0.049003385007381439208984375000 0.004636335186660289764404296875 -0.001005475758574903011322021484 0 0 0 0 
2400333333.3333334923 0.173892036080360412597656250000 0.048170592635869979858398437500 0.004788068588823080062866210938 -0.001151607488282025077222514575 0 0 0 0 
2400500000.0000000000 0.174440205097198486328125000000 0.047340553253889076923410783593 0.004690497182309628400320722363 -0.001329343765974045016645121997 0 0 0 0 
2400666666.6666665077 0.174683004617691012283486884371 0.046831544488668441772460937500 0.004645768087357282638549804688 -0.001534620532765984968898154150 0 0 0 0 
2400833333.3333334923 0.174819961190223693847656250000 0.046375963836908340454101562500 0.004622317384928464889526367188 -0.001671074191108345985412597656 0 0 0 0 
2401000000.0000000000 0.175033882260322598556356865629 0.045483611524105072021484375000 0.004574481397867202758789062500 -0.002016136189922689957859658350 0 0 0 0 
2401166666.6666665077 0.175150424242019708831463731258 0.044789336621761322021484375000 0.004604948684573174390310956738 -0.002176287584006785912754677881 0 0 0 0 
2401333333.3333334923 0.175226971507072504241619981258 0.044141873717308037494699846093 0.004439604934304952621459960938 -0.002218390814960002899169921875 0 0 0 0 
2401500000.0000000000 0.175311580300331087967080634371 0.043417502194643020629882812500 0.004366388078778982162475585938 -0.002406216692179441885707236182 0 0 0 0 
2401666666.6666665077 0.175131887197494506835937500000 0.042977403849363327026367187500 0.004443737212568522366995527051 -0.002694083144888281822204589844 0 0 0 0 
2401833333.3333334923 0.175199747085571289062500000000 0.042029604315757751464843750000 0.004174163565039634704589843750 -0.002723944140598177909851074219 0 0 0 0 
2402000000.0000000000 0.174982056021690396407919365629 0.041332084685564041137695312500 0.004355895332992076873779296875 -0.002769203623756765885594033350 0 0 0 0 
2402166666.6666665077 0.174834415316581698318643134371 0.040202297270297997211496721093 0.004152999725192785263061523438 -0.003052346874028443856480263818 0 0 0 0 
2402333333.3333334923 0.174595981836318997482138115629 0.039552405476570129394531250000 0.003939302172511816024780273438 -0.003144448623061180114746093750 0 0 0 0 
2402500000.0000000000 0.174635544419288607498330634371 0.038437977433204650878906250000 0.003955339081585407257080078125 -0.003349353326484560966491699219 0 0 0 0 
2402666666.6666665077 0.174393385648727389236611884371 0.037169136106967932964284528907 0.003931877668946981430053710938 -0.003409666242077947096583701025 0 0 0 0 
2402833333.3333334923 0.174142643809318486969317518742 0.036186937242746353149414062500 0.003631292609497905211207724463 -0.003685391275212169127223349463 0 0 0 0 
2403000000.0000000000 0.173789620399475097656250000000 0.034849770367145538330078125000 0.003519886871799827055690146338 -0.003678513225167990164515829932 0 0 0 0 
2403166666.6666665077 0.173723191022872897049111884371 0.033489335328340530395507812500 0.003524515312165021896362304688 -0.003862751182168722152709960938 0 0 0 0 
2403333333.3333334923 0.173246413469314602950888115629 0.032067738473415381694753278907 0.003305652411654591994044638525 -0.004051421303302049636840820312 0 0 0 0 
2403500000.0000000000 0.172844275832176208496093750000 0.030397199094295501708984375000 0.003122851718217134909388876807 -0.004007204901427031430716230176 0 0 0 0 
2403666666.6666665077 0.172559365630149813553018134371 0.028577947989106178283691406250 0.002962932456284760995152138818 -0.004017714876681566238403320312 0 0 0 0 
2403833333.3333334923 0.172377973794937106033486884371 0.026989582926034930837611014454 0.003024693811312317848205566406 -0.003944234456866979598999023438 0 0 0 0 
2404000000.0000000000 0.171742349863052395919638115629 0.025192283093929290771484375000 0.002853818703442811965942382812 -0.004081586841493844985961914062 0 0 0 0 
2404166666.6666665077 0.171319440007209805587606865629 0.023446593433618549001673514454 0.002807961078360677199122763525 -0.004020303022116422653198242188 0 0 0 0 
2404333333.3333334923 0.171131581068038912674111884371 0.021610062569379809988001639454 0.002889371709898114204406738281 -0.004095047712326049804687500000 0 0 0 0 
2404500000.0000000000 0.170772299170494107345419365629 0.019605103880167010915736014454 0.002790649654343723817112588037 -0.004191859159618616104125976562 0 0 0 0 
2404666666.6666665077 0.170632138848304804046307481258 0.017635975033044818532923514454 0.002849432639777659936192177881 -0.004341667052358388900756835938 0 0 0 0 
2404833333.3333334923 0.170307070016860989669638115629 0.015756657347083088266392891796 0.002818879205733538107631064307 -0.004340838640928268432617187500 0 0 0 0 
2405000000.0000000000 0.170318633317947387695312500000 0.013724627904593949753730974805 0.002703101141378283934352255713 -0.004569985438138247403616620801 0 0 0 0 
2405166666.6666665077 0.170067161321639986892861884371 0.011633695103228090458880039648 0.002667824737727642059326171875 -0.004577192477881908416748046875 0 0 0 0 
2405333333.3333334923 0.170264512300491305252236884371 0.009478433988988399505615234375 0.002791133010759950117823935400 -0.004764612764120101928710937500 0 0 0 0 
2405500000.0000000000 0.170327782630920410156250000000 0.007661445066332817077636718750 0.002440930809825658798217773438 -0.004931967705488204956054687500 0 0 0 0 
2405666666.6666665077 0.170434579253196688553018134371 0.005618473049253225326538085938 0.002401937497779726982116699219 -0.005096386186778545379638671875 0 0 0 0 
2405833333.3333334923 0.170553386211395291427450615629 0.003646594705060123963596963037 0.002305470872670412063598632812 -0.005350584629923105239868164062 0 0 0 0 
2406000000.0000000000 0.170869484543800409515057481258 0.001492979354225099086761474609 0.002285502152517437934875488281 -0.005307978019118309020996093750 0 0 0 0 
2406166666.6666665077 0.171101897954940795898437500000 -0.000467724457848817110061645508 0.002374999457970262007472372900 -0.005503566935658454895019531250 0 0 0 0 
2406333333.3333334923 0.171590596437454195877236884371 -0.002421905985102057890651083838 0.002029338385909796194789267432 -0.005727186799049376574044512012 0 0 0 0 
2406500000.0000000000 0.171981856226921109298544365629 -0.004446277394890785217285156250 0.001999888336285949187037802588 -0.005714985541999340057373046875 0 0 0 0 
2406666666.6666665077 0.172435194253921508789062500000 -0.006315194536000490188598632812 0.001677452935837209007860493237 -0.005863030441105365753173828125 0 0 0 0 
2406833333.3333334923 0.173064336180687006194744981258 -0.008315897546708583831787109375 0.001545422943308949904200888525 -0.006011586636304855346679687500 0 0 0 0 
2407000000.0000000000 0.173753768205642700195312500000 -0.010274995118379589426060860546 0.001530321897007524967193603516 -0.006301697343587875366210937500 0 0 0 0 
2407166666.6666665077 0.174583226442337008377236884371 -0.011976601555943490809430507227 0.001419441192410886070848774487 -0.006295645143836736679077148438 0 0 0 0 
2407333333.3333334923 0.175019636750221307952557481258 -0.013803269714117050170898437500 0.001220633042976259968401264722 -0.006462012417614459991455078125 0 0 0 0 
2407500000.0000000000 0.175730347633361788650674384371 -0.015443414449691770726214024023 0.001080419751815498092054057544 -0.006710045970976352691650390625 0 0 0 0 
2407666666.6666665077 0.176598265767097500900106865629 -0.017194299027323719369908516796 0.001057508983649313016178750146 -0.006931259296834468841552734375 0 0 0 0 
2407833333.3333334923 0.177325651049614008147869981258 -0.018798472359776500356653983204 0.000628804031293839216232299805 -0.007237026002258062362670898438 0 0 0 0 
2408000000.0000000000 0.178086608648300198654013115629 -0.020461643114686008798619454296 0.000508185359649360179901123047 -0.007365920580923557281494140625 0 0 0 0 
2408166666.6666665077 0.178773716092109707931356865629 -0.021850435063242908823033516796 0.000283511850284412503242492676 -0.007481072563678026199340820312 0 0 0 0 
2408333333.3333334923 0.179582402110099792480468750000 -0.023309307172894481313685233204 -0.000159585688379593193531036377 -0.007662975694984197616577148438 0 0 0 0 
2408500000.0000000000 0.180191129446029690841513115629 -0.024571636691689491271972656250 -0.000525992363691329956054687500 -0.007787111215293406572823808887 0 0 0 0 
2408666666.6666665077 0.180967628955841092208700615629 -0.025936253368854519235631173046 -0.000789340119808912277221679688 -0.008015124127268791198730468750 0 0 0 0 
2408833333.3333334923 0.181292161345481900314169365629 -0.027045518159866329538365548046 -0.001221506739966570897343300928 -0.008086700923740863800048828125 0 0 0 0 
2409000000.0000000000 0.181948542594909695724325615629 -0.028150301426649090158482735546 -0.001455672667361795902252197266 -0.008195057511329650878906250000 0 0 0 0 
2409166666.6666665077 0.182366386055946405608807481258 -0.029143685474991798400878906250 -0.002182940253987907929661416162 -0.008312642574310302734375000000 0 0 0 0 
2409333333.3333334923 0.182954221963882501800213731258 -0.030042247846722599374791329296 -0.002378859790042043165919638525 -0.008247903548181056976318359375 0 0 0 0 
2409500000.0000000000 0.183221280574798611739950615629 -0.030957082286477088928222656250 -0.002913231030106544928309775244 -0.008337278850376605987548828125 0 0 0 0 
2409666666.6666665077 0.183423101902008112151776231258 -0.031648218631744391704518903907 -0.003315393812954425811767578125 -0.008453137241303920745849609375 0 0 0 0 
2409833333.3333334923 0.183619871735572787185830634371 -0.032110307365655899047851562500 -0.003714044112712144851684570312 -0.008285281248390674591064453125 0 0 0 0 
2410000000.0000000000 0.183821797370910589020098768742 -0.032625541090965270996093750000 -0.004227611236274242401123046875 -0.008227884769439697265625000000 0 0 0 0 
2410166666.6666665077 0.184050127863883999923544365629 -0.033132482320070266723632812500 -0.004859215579926967620849609375 -0.008069247938692569732666015625 0 0 0 0 
2410333333.3333334923 0.183996066451072692871093750000 -0.033409629017114639282226562500 -0.005321305710822343826293945312 -0.007945501245558261871337890625 0 0 0 0 
2410500000.0000000000 0.184116154909133911132812500000 -0.033940587192773818969726562500 -0.005759454332292079925537109375 -0.007724971976131200790405273438 0 0 0 0 
2410666666.6666665077 0.183770239353179903885049384371 -0.034374322742223739624023437500 -0.006123332772403956326956464551 -0.007446523290127515792846679688 0 0 0 0 
2410833333.3333334923 0.183794602751731900314169365629 -0.034461598843336112285573591407 -0.006551987491548061370849609375 -0.007247390225529670715332031250 0 0 0 0 
2411000000.0000000000 0.183529853820800809005575615629 -0.034855462610721588134765625000 -0.007064800243824720382690429688 -0.007075562141835690412039472363 0 0 0 0 
2411166666.6666665077 0.183076784014701787750567518742 -0.035335026681423187255859375000 -0.007383585441857576370239257812 -0.006422960199415683746337890625 0 0 0 0 
2411333333.3333334923 0.182617008686065701583700615629 -0.035431988537311547016184221093 -0.007820700295269489288330078125 -0.006210857070982456207275390625 0 0 0 0 
2411500000.0000000000 0.181943774223327608963174384371 -0.035998418927192687988281250000 -0.008210050873458385467529296875 -0.005838904995471239089965820312 0 0 0 0 
2411666666.6666665077 0.181442156434059087555255018742 -0.036349665373563773418386091407 -0.008685931563377380371093750000 -0.005330508109182119369506835938 0 0 0 0 
2411833333.3333334923 0.180710822343826293945312500000 -0.036812577396631240844726562500 -0.008824589662253856658935546875 -0.004882220178842545423025800488 0 0 0 0 
2412000000.0000000000 0.179968461394309997558593750000 -0.037214554846286766742746721093 -0.009080113843083381652832031250 -0.004333547782152891159057617188 0 0 0 0 
2412166666.6666665077 0.178877681493759210784588731258 -0.037664804607629782939870466407 -0.009375317022204399108886718750 -0.003690643934532999992370605469 0 0 0 0 
2412333333.3333334923 0.178245380520820589920205634371 -0.038118351250886917114257812500 -0.009425009600818157196044921875 -0.003282463643699883980991982568 0 0 0 0 
2412500000.0000000000 0.177068397402763394454794365629 -0.038827981799840927124023437500 -0.009693401865661144256591796875 -0.002659187885001302199122763525 0 0 0 0 
2412666666.6666665077 0.175979629158973693847656250000 -0.039494622498750686645507812500 -0.009765649214386940002441406250 -0.002220026915892959074733115088 0 0 0 0 
2412833333.3333334923 0.174654513597488403320312500000 -0.040107771754264831542968750000 -0.009724741801619529724121093750 -0.001700132386758923964259482275 0 0 0 0 
2413000000.0000000000 0.173468887805938692947549384371 -0.040926847606897347187082658593 -0.009653536602854728698730468750 -0.000956501753535121679306030273 0 0 0 0 
2413166666.6666665077 0.172149732708930996993856865629 -0.041687637567520141601562500000 -0.009610928595066070556640625000 -0.000469321908894926309585571289 0 0 0 0 
2413333333.3333334923 0.170871138572692898849325615629 -0.042592119425535202026367187500 -0.009576279670000076293945312500 0.000218134446186013492658892221 0 0 0 0 
2413500000.0000000000 0.169540703296661404708700615629 -0.043527334928512573242187500000 -0.009525128640234470367431640625 0.000342412531608715707629603253 0 0 0 0 
2413666666.6666665077 0.168440431356430109222088731258 -0.044669132679700851440429687500 -0.009349226020276546478271484375 0.000816714251413941383361816406 0 0 0 0 
2413833333.3333334923 0.167106986045837402343750000000 -0.045613158494234092021901716407 -0.009124457836151123046875000000 0.001502109109424055056331015479 0 0 0 0 
2414000000.0000000000 0.165584474802017211914062500000 -0.046899683773517608642578125000 -0.008701729588210582733154296875 0.001814188202843070030212402344 0 0 0 0 
2414166666.6666665077 0.164493635296821594238281250000 -0.048139397054910659790039062500 -0.008529506623744964599609375000 0.002241945592686533927917480469 0 0 0 0 
2414333333.3333334923 0.163400590419769287109375000000 -0.049583688378334052349050153907 -0.008037966676056385040283203125 0.002559300046414136886596679688 0 0 0 0 
2414500000.0000000000 0.162345901131629888336505018742 -0.051057275384664542461354841407 -0.007874499075114727020263671875 0.002880755579099059104919433594 0 0 0 0 
2414666666.6666665077 0.161114126443862887283486884371 -0.052559312433004379272460937500 -0.007643983699381352338309003613 0.002983229933306574821472167969 0 0 0 0 
2414833333.3333334923 0.160035029053688104827557481258 -0.054269056767225272441823591407 -0.007302656304091215133666992188 0.003308952087536454200744628906 0 0 0 0 
2415000000.0000000000 0.158885657787322998046875000000 -0.055799074470996856689453125000 -0.007031125482171773910522460938 0.003438508836552501158473349463 0 0 0 0 
2415166666.6666665077 0.157957509160041809082031250000 -0.057407181710004813457448591407 -0.006710481364279985427856445312 0.003698804415762424902675009619 0 0 0 0 
2415333333.3333334923 0.157244056463241604904013115629 -0.059295143932104110717773437500 -0.006502280943095684051513671875 0.003807664616033434867858886719 0 0 0 0 
2415500000.0000000000 0.156520232558250399490518134371 -0.061021987348794937133789062500 -0.006001860834658145904541015625 0.004001895431429147720336914062 0 0 0 0 
2415666666.6666665077 0.155681386590003995040731865629 -0.062890045344829559326171875000 -0.005689449142664670944213867188 0.004054783843457698822021484375 0 0 0 0 
2415833333.3333334923 0.155088663101196289062500000000 -0.064780361950397491455078125000 -0.005472905002534390363211347363 0.003877415787428617911097861182 0 0 0 0 
2416000000.0000000000 0.154410347342491205413494981258 -0.066766962409019470214843750000 -0.005146604962646961212158203125 0.004151100292801856994628906250 0 0 0 0 
2416166666.6666665077 0.154121935367584200760049384371 -0.068555958569049835205078125000 -0.004888949915766716003417968750 0.004166611470282077789306640625 0 0 0 0 
2416333333.3333334923 0.153487160801887512207031250000 -0.070535175502300262451171875000 -0.004727927967905998229980468750 0.004002240952104330062866210938 0 0 0 0 
2416500000.0000000000 0.153219565749168395996093750000 -0.072590284049510955810546875000 -0.004605159629136323928833007812 0.004071462433785200119018554688 0 0 0 0 
2416666666.6666665077 0.152768164873123196700888115629 -0.074345514178276062011718750000 -0.004408104345202445983886718750 0.004187840502709150314331054688 0 0 0 0 
2416833333.3333334923 0.152620851993560791015625000000 -0.076522536575794219970703125000 -0.004063254687935113906860351562 0.004042730201035737991333007812 0 0 0 0 
2417000000.0000000000 0.152269691228866604904013115629 -0.078356884419918060302734375000 -0.003966492135077714920043945312 0.004160766955465078353881835938 0 0 0 0 
2417166666.6666665077 0.152151420712471008300781250000 -0.080120265483856201171875000000 -0.003672055201604961915257119287 0.004099860787391662597656250000 0 0 0 0 
2417333333.3333334923 0.152089834213256808181924384371 -0.081862024962902069091796875000 -0.003416323801502584977390908350 0.003946685697883368405813886426 0 0 0 0 
2417500000.0000000000 0.152049094438552911956463731258 -0.083605952560901641845703125000 -0.003465692512691020965576171875 0.004049147479236125946044921875 0 0 0 0 
2417666666.6666665077 0.152249693870544405838174384371 -0.085055455565452575683593750000 -0.003192157717421650886535644531 0.004094150383025407791137695312 0 0 0 0 
2417833333.3333334923 0.152377590537071200271768134371 -0.086657673120498657226562500000 -0.002996180905029178099391318213 0.003842084901407361030578613281 0 0 0 0 
2418000000.0000000000 0.152302682399749811370526231258 -0.088194534182548522949218750000 -0.003057412104681133790257119287 0.003852087771520019011256552588 0 0 0 0 
2418166666.6666665077 0.152360200881958007812500000000 -0.089371517300605773925781250000 -0.002899667015299201011657714844 0.003745665308088064193725585938 0 0 0 0 
2418333333.3333334923 0.152737915515899713714276231258 -0.090750955045223236083984375000 -0.002854696009308100180384970557 0.003727478673681617216822958838 0 0 0 0 
2418500000.0000000000 0.152873098850250188629473768742 -0.091822274029254913330078125000 -0.002646561013534665107727050781 0.003660816699266434149501181494 0 0 0 0 
2418666666.6666665077 0.153222233057022094726562500000 -0.092883527278900146484375000000 -0.002651211107149720191955566406 0.003585976548492908911464072119 0 0 0 0 
2418833333.3333334923 0.153067842125892611404580634371 -0.093891985714435577392578125000 -0.002833802253007888793945312500 0.003494160482659935951232910156 0 0 0 0 
2419000000.0000000000 0.153265148401260403732138115629 -0.094689130783081054687500000000 -0.002718881005421280860900878906 0.003406591480597854094264365088 0 0 0 0 
2419166666.6666665077 0.153558284044265802581463731258 -0.095496542751789093017578125000 -0.002790862228721379800083779443 0.003370640333741902871372841943 0 0 0 0 
2419333333.3333334923 0.153596058487892206390057481258 -0.095765009522438049316406250000 -0.002894295146688818931579589844 0.003312105312943458990809775244 0 0 0 0 
2419500000.0000000000 0.153772026300430297851562500000 -0.096417881548404693603515625000 -0.003023932455107570128199911963 0.003550370689481496810913085938 0 0 0 0 
2419666666.6666665077 0.154058277606964111328125000000 -0.096781067550182342529296875000 -0.002940196311101316972019814600 0.003512648632749915122985839844 0 0 0 0 
2419833333.3333334923 0.154181182384490994552450615629 -0.096810817718505859375000000000 -0.003167889313772321181056357275 0.003623734461143612861633300781 0 0 0 0 
