# Version 1.00
#
freq[Hz];re:Trc1_S11;im:Trc1_S11;re:Trc2_S21;im:Trc2_S21;
2.400000000000000E+009;1.636890321969986E-001;5.174702405929565E-002;3.242136677727103E-003;3.704595146700740E-004;
2.400166666666667E+009;1.635608226060867E-001;5.010233819484711E-002;3.253410803154111E-003;3.380392736289650E-004;
2.400333333333334E+009;1.632976382970810E-001;4.835170879960060E-002;3.225709544494748E-003;2.544225717429072E-004;
2.400500000000000E+009;1.633689850568771E-001;4.660494625568390E-002;3.166767070069909E-003;2.301201020600274E-004;
2.400666666666667E+009;1.633837074041367E-001;4.454211145639420E-002;3.462043823674321E-003;4.517821944318712E-004;
2.400833333333334E+009;1.635245084762573E-001;4.281887784600258E-002;3.523142077028751E-003;2.862797991838306E-004;
2.401000000000000E+009;1.633725911378861E-001;4.093028977513313E-002;3.507446264848113E-003;3.118456806987524E-004;
2.401166666666667E+009;1.636790335178375E-001;3.890730440616608E-002;3.603871678933501E-003;2.421025274088606E-004;
2.401333333333334E+009;1.635137200355530E-001;3.696632757782936E-002;3.644452430307865E-003;1.511007139924914E-004;
2.401500000000000E+009;1.637467592954636E-001;3.510904684662819E-002;3.864848753437400E-003;1.057128683896735E-004;
2.401666666666667E+009;1.640877574682236E-001;3.331760689616203E-002;3.909374587237835E-003;5.262975901132450E-005;
2.401833333333334E+009;1.641591340303421E-001;3.122186847031117E-002;3.905348945409060E-003;-2.990062785102055E-005;
2.402000000000000E+009;1.641838103532791E-001;2.932907268404961E-002;4.082665313035250E-003;-1.923886738950387E-004;
2.402166666666667E+009;1.647833883762360E-001;2.742698416113854E-002;4.141470417380333E-003;-2.724311489146203E-004;
2.402333333333334E+009;1.650074571371079E-001;2.569622360169888E-002;4.404164850711823E-003;-4.435947339516133E-004;
2.402500000000000E+009;1.655951291322708E-001;2.406819351017475E-002;4.544062539935112E-003;-4.773192340508103E-004;
2.402666666666667E+009;1.661754250526428E-001;2.229913510382175E-002;4.610256757587194E-003;-7.020379998721182E-004;
2.402833333333334E+009;1.666286289691925E-001;2.058609575033188E-002;4.652640782296658E-003;-8.635657140985131E-004;
2.403000000000000E+009;1.670855730772018E-001;1.890276931226254E-002;4.627143032848835E-003;-1.087874406948686E-003;
2.403166666666667E+009;1.677983701229096E-001;1.736288331449032E-002;4.785511177033186E-003;-1.418326748535037E-003;
2.403333333333334E+009;1.685907244682312E-001;1.583237014710903E-002;4.739813972264528E-003;-1.643317635171115E-003;
2.403500000000000E+009;1.692720800638199E-001;1.428520958870649E-002;4.941407591104507E-003;-1.801698119379580E-003;
2.403666666666667E+009;1.698323190212250E-001;1.288979128003120E-002;4.940294660627842E-003;-2.216503722593188E-003;
2.403833333333334E+009;1.707063466310501E-001;1.155582349747419E-002;4.958539735525847E-003;-2.354708267375827E-003;
2.404000000000000E+009;1.715260297060013E-001;1.037887763231993E-002;4.769466817378998E-003;-2.762995660305023E-003;
2.404166666666667E+009;1.722213327884674E-001;9.243059903383255E-003;4.777508322149515E-003;-3.152445890009403E-003;
2.404333333333334E+009;1.729128658771515E-001;8.047102019190788E-003;4.614084027707577E-003;-3.265831619501114E-003;
2.404500000000000E+009;1.737229377031326E-001;7.018859498202801E-003;4.641170147806406E-003;-3.649778198450804E-003;
2.404666666666667E+009;1.745133697986603E-001;6.186216603964567E-003;4.411289002746344E-003;-3.934509120881558E-003;
2.404833333333334E+009;1.749636381864548E-001;5.329559557139874E-003;4.364995751529932E-003;-4.240670241415501E-003;
2.405000000000000E+009;1.756844371557236E-001;4.455856513231993E-003;4.241930320858955E-003;-4.263777751475573E-003;
2.405166666666667E+009;1.763900816440582E-001;3.613642882555723E-003;3.987189847975969E-003;-4.627042450010777E-003;
2.405333333333334E+009;1.771282851696014E-001;2.926955930888653E-003;3.747430397197604E-003;-5.150956101715565E-003;
2.405500000000000E+009;1.775853633880615E-001;2.346117515116930E-003;3.383150091394782E-003;-5.129707045853138E-003;
2.405666666666667E+009;1.780960857868195E-001;1.932787243276835E-003;3.108215983957052E-003;-5.310903303325176E-003;
2.405833333333334E+009;1.785829216241837E-001;1.390669727697969E-003;2.680101199075580E-003;-5.444067530333996E-003;
2.406000000000000E+009;1.791743338108063E-001;7.887870306149125E-004;2.656663767993450E-003;-5.695631261914969E-003;
2.406166666666667E+009;1.793899983167648E-001;5.300536286085844E-004;2.196691464632750E-003;-5.652157589793205E-003;
2.406333333333334E+009;1.797912716865540E-001;5.145412433193997E-005;1.912231324240565E-003;-5.707983393222094E-003;
2.406500000000000E+009;1.801119148731232E-001;-2.268851094413549E-004;1.584076089784503E-003;-5.764842499047518E-003;
2.406666666666667E+009;1.800821721553803E-001;-5.347773549146950E-004;1.322726369835436E-003;-5.904479883611202E-003;
2.406833333333334E+009;1.802359819412231E-001;-1.080232555978000E-003;9.985057404264808E-004;-5.887721199542284E-003;
2.407000000000000E+009;1.804207414388657E-001;-1.326645142398775E-003;5.715264705941081E-004;-6.046125199645758E-003;
2.407166666666667E+009;1.804495304822922E-001;-1.575283356942236E-003;4.644607834052295E-004;-6.009428296238184E-003;
2.407333333333334E+009;1.802484095096588E-001;-2.093446208164096E-003;1.257639960385859E-004;-6.020439788699150E-003;
2.407500000000000E+009;1.801946461200714E-001;-2.547635929659009E-003;-2.311617572559044E-004;-5.925090517848730E-003;
2.407666666666667E+009;1.800274848937988E-001;-2.971969079226255E-003;-4.755863628815860E-004;-5.756720434874296E-003;
2.407833333333334E+009;1.795552074909210E-001;-3.597328439354897E-003;-7.026826497167349E-004;-5.714236292988062E-003;
2.408000000000000E+009;1.792665868997574E-001;-4.288237541913986E-003;-9.928073268383741E-004;-5.572570953518152E-003;
2.408166666666667E+009;1.789088249206543E-001;-4.587206989526749E-003;-1.014175359159708E-003;-5.600353702902794E-003;
2.408333333333334E+009;1.785151511430740E-001;-5.386317614465952E-003;-1.391664147377014E-003;-5.448492243885994E-003;
2.408500000000000E+009;1.778604537248612E-001;-6.184465251863003E-003;-1.610233332030475E-003;-5.230856128036976E-003;
2.408666666666667E+009;1.774098426103592E-001;-7.074370048940182E-003;-1.909539685584605E-003;-5.040593445301056E-003;
2.408833333333334E+009;1.766139566898346E-001;-7.856160402297974E-003;-1.938839326612651E-003;-5.119642708450556E-003;
2.409000000000000E+009;1.758991181850433E-001;-8.761363103985786E-003;-2.237610286101699E-003;-4.966124426573515E-003;
2.409166666666667E+009;1.753337681293488E-001;-9.819846600294113E-003;-2.457722788676620E-003;-4.714691545814276E-003;
2.409333333333334E+009;1.748048514127731E-001;-1.094828173518181E-002;-2.361048944294453E-003;-4.530201666057110E-003;
2.409500000000000E+009;1.738249361515045E-001;-1.221450790762901E-002;-2.671380992978811E-003;-4.306172020733357E-003;
2.409666666666667E+009;1.732141077518463E-001;-1.341173239052296E-002;-2.673154696822166E-003;-4.270608536899090E-003;
2.409833333333334E+009;1.723528504371643E-001;-1.480500958859921E-002;-3.019322641193867E-003;-3.860916011035442E-003;
2.410000000000000E+009;1.719449311494827E-001;-1.617005653679371E-002;-2.972705988213420E-003;-3.923515789210796E-003;
2.410166666666667E+009;1.712292432785034E-001;-1.743430830538273E-002;-3.124553710222244E-003;-3.700131550431252E-003;
2.410333333333334E+009;1.705435812473297E-001;-1.921790093183518E-002;-3.101709065958858E-003;-3.489969763904810E-003;
2.410500000000000E+009;1.699909865856171E-001;-2.082426100969315E-002;-3.250696696341038E-003;-3.275554860010743E-003;
2.410666666666667E+009;1.692448556423187E-001;-2.259528450667858E-002;-3.222133498638868E-003;-3.078684676438570E-003;
2.410833333333334E+009;1.687629073858261E-001;-2.411481738090515E-002;-3.117101266980171E-003;-2.878414932638407E-003;
2.411000000000000E+009;1.681372374296188E-001;-2.590951696038246E-002;-3.131820820271969E-003;-2.742650918662548E-003;
2.411166666666667E+009;1.677699685096741E-001;-2.771195210516453E-002;-3.180283587425947E-003;-2.700713230296969E-003;
2.411333333333334E+009;1.672653853893280E-001;-2.938218787312508E-002;-3.087306860834360E-003;-2.428689505904913E-003;
2.411500000000000E+009;1.668870598077774E-001;-3.153020888566971E-002;-3.335804445669055E-003;-2.556617371737957E-003;
2.411666666666667E+009;1.668979674577713E-001;-3.323283046483994E-002;-3.235810203477740E-003;-2.400326775386930E-003;
2.411833333333334E+009;1.664734333753586E-001;-3.509778529405594E-002;-3.284310223534703E-003;-2.113270806148648E-003;
2.412000000000000E+009;1.666349917650223E-001;-3.731053322553635E-002;-3.311560489237309E-003;-2.149539999663830E-003;
2.412166666666667E+009;1.663260608911514E-001;-3.901043906807900E-002;-3.350336803123355E-003;-2.055536489933729E-003;
2.412333333333334E+009;1.664036214351654E-001;-4.081725701689720E-002;-3.338133450597525E-003;-2.054102951660752E-003;
2.412500000000000E+009;1.663842499256134E-001;-4.269817098975182E-002;-3.267745021730661E-003;-1.803629216738045E-003;
2.412666666666667E+009;1.667584925889969E-001;-4.477073624730110E-002;-3.399832174181938E-003;-1.733251498080790E-003;
2.412833333333334E+009;1.667041778564453E-001;-4.649457335472107E-002;-3.277039621025324E-003;-1.722982968203723E-003;
2.413000000000000E+009;1.668879240751267E-001;-4.828033968806267E-002;-3.382659051567316E-003;-1.654016901738942E-003;
2.413166666666667E+009;1.671950668096542E-001;-4.995413497090340E-002;-3.349015489220619E-003;-1.521667116321623E-003;
2.413333333333334E+009;1.673867553472519E-001;-5.166859552264214E-002;-3.552794922143221E-003;-1.448470749892294E-003;
2.413500000000000E+009;1.677138358354569E-001;-5.341178178787231E-002;-3.330447478219867E-003;-1.390875200740993E-003;
2.413666666666667E+009;1.682707965373993E-001;-5.506590008735657E-002;-3.456458915024996E-003;-1.390384975820780E-003;
2.413833333333334E+009;1.684468090534210E-001;-5.652164667844772E-002;-3.594855312258005E-003;-1.223033061251044E-003;
2.414000000000000E+009;1.686329245567322E-001;-5.800410732626915E-002;-3.452620469033718E-003;-1.065829303115606E-003;
2.414166666666667E+009;1.692829877138138E-001;-5.924592912197113E-002;-3.450156887993217E-003;-1.053717802278698E-003;
2.414333333333334E+009;1.697383075952530E-001;-6.059542298316956E-002;-3.630235325545073E-003;-8.569374913349748E-004;
2.414500000000000E+009;1.702221184968948E-001;-6.173789873719215E-002;-3.500063903629780E-003;-8.655846468172967E-004;
2.414666666666667E+009;1.706413626670837E-001;-6.280328333377838E-002;-3.562010824680328E-003;-6.781296688131988E-004;
2.414833333333334E+009;1.709903180599213E-001;-6.398633122444153E-002;-3.573296358808875E-003;-6.926992791704834E-004;
2.415000000000000E+009;1.713551133871079E-001;-6.463655084371567E-002;-3.735361387953162E-003;-3.401909780222923E-004;
2.415166666666667E+009;1.718066781759262E-001;-6.546588242053986E-002;-3.565463935956359E-003;-4.669641784857959E-004;
2.415333333333334E+009;1.721213907003403E-001;-6.632808595895767E-002;-3.612462198361754E-003;-3.229425929021090E-004;
2.415500000000000E+009;1.724243313074112E-001;-6.694293767213821E-002;-3.688460448756814E-003;-9.443119051866233E-005;
2.415666666666667E+009;1.727379709482193E-001;-6.756252050399780E-002;-3.627590602263808E-003;-1.796044671209529E-004;
2.415833333333334E+009;1.729404777288437E-001;-6.816957890987396E-002;-3.792965784668922E-003;4.304736285121180E-005;
2.416000000000000E+009;1.729040443897247E-001;-6.863383203744888E-002;-3.725598566234112E-003;2.018298400798813E-004;
2.416166666666667E+009;1.731505990028381E-001;-6.905383616685867E-002;-3.858064301311970E-003;3.446895570959896E-004;
2.416333333333334E+009;1.731277704238892E-001;-6.934385001659393E-002;-3.599554533138871E-003;5.204232875257731E-004;
2.416500000000000E+009;1.730434894561768E-001;-6.975251436233521E-002;-3.574684960767627E-003;4.371374088805169E-004;
2.416666666666667E+009;1.728590577840805E-001;-6.993485987186432E-002;-3.538841847330332E-003;6.829226622357965E-004;
2.416833333333334E+009;1.727467924356461E-001;-7.047459483146668E-002;-3.625425510108471E-003;8.418512879870832E-004;
2.417000000000000E+009;1.723073124885559E-001;-7.058595120906830E-002;-3.555597271770239E-003;1.026224344968796E-003;
2.417166666666667E+009;1.719105392694473E-001;-7.072991132736206E-002;-3.568546148017049E-003;1.034377492032945E-003;
2.417333333333334E+009;1.714343577623367E-001;-7.085116207599640E-002;-3.417749190703034E-003;1.139724627137184E-003;
2.417500000000000E+009;1.708615720272064E-001;-7.127988338470459E-002;-3.338372800499201E-003;1.250840025022626E-003;
2.417666666666667E+009;1.702861487865448E-001;-7.122585922479630E-002;-3.408757736906409E-003;1.494578085839748E-003;
2.417833333333334E+009;1.695970445871353E-001;-7.165552675724030E-002;-3.277442650869489E-003;1.595592475496233E-003;
2.418000000000000E+009;1.687106937170029E-001;-7.198047637939453E-002;-3.124396782368422E-003;1.639910624362528E-003;
2.418166666666667E+009;1.679276227951050E-001;-7.199565321207047E-002;-3.083094023168087E-003;1.723620458506048E-003;
2.418333333333334E+009;1.672315150499344E-001;-7.237421721220017E-002;-3.103203140199184E-003;1.851463573984802E-003;
2.418500000000000E+009;1.660246104001999E-001;-7.282095402479172E-002;-3.041691146790981E-003;1.930511556565762E-003;
2.418666666666667E+009;1.650557965040207E-001;-7.320543378591538E-002;-2.906770678237081E-003;1.935684937052429E-003;
2.418833333333334E+009;1.637529283761978E-001;-7.364823669195175E-002;-2.760651055723429E-003;2.163994358852506E-003;
2.419000000000000E+009;1.624774187803268E-001;-7.416290044784546E-002;-2.735887188464403E-003;2.208753023296595E-003;
2.419166666666667E+009;1.615467071533203E-001;-7.489179819822311E-002;-2.626524539664388E-003;2.260047709569335E-003;
2.419333333333334E+009;1.601114869117737E-001;-7.517626881599426E-002;-2.496171742677689E-003;2.253548474982381E-003;
2.419500000000000E+009;1.589686572551727E-001;-7.603803277015686E-002;-2.346579916775227E-003;2.259233500808477E-003;
2.419666666666667E+009;1.579379886388779E-001;-7.703118026256561E-002;-2.476220019161701E-003;2.627139911055565E-003;
2.419833333333334E+009;1.565685421228409E-001;-7.763076573610306E-002;-2.244507661089301E-003;2.562996698543429E-003;
2.420000000000000E+009;1.554202884435654E-001;-7.866846770048142E-002;-2.346268855035305E-003;2.474835375323892E-003;
2.420166666666667E+009;1.543082445859909E-001;-7.971680164337158E-002;-1.958248671144247E-003;2.609502756968141E-003;
2.420333333333334E+009;1.532286107540131E-001;-8.078951388597488E-002;-1.940749818459153E-003;2.558348933234811E-003;
2.420500000000000E+009;1.521028131246567E-001;-8.176178485155106E-002;-2.038081642240286E-003;2.719673560932279E-003;
2.420666666666667E+009;1.509511321783066E-001;-8.295548707246780E-002;-1.901107840240002E-003;2.664656378328800E-003;
2.420833333333334E+009;1.498695015907288E-001;-8.432644605636597E-002;-1.764210523106158E-003;2.797826426103711E-003;
2.421000000000000E+009;1.489740461111069E-001;-8.572907000780106E-002;-1.887315185740590E-003;2.703484380617738E-003;
2.421166666666667E+009;1.479875296354294E-001;-8.721306920051575E-002;-1.583704957738519E-003;2.850037300959230E-003;
2.421333333333334E+009;1.473239511251450E-001;-8.879222720861435E-002;-1.415153848938644E-003;2.984700258821249E-003;
2.421500000000000E+009;1.463422179222107E-001;-9.004580974578857E-002;-1.363034127280116E-003;2.922719577327371E-003;
2.421666666666667E+009;1.458345055580139E-001;-9.191662818193436E-002;-1.179466722533107E-003;2.933624666184187E-003;
2.421833333333334E+009;1.452203094959259E-001;-9.346084296703339E-002;-1.231104601174593E-003;2.897627651691437E-003;
2.422000000000000E+009;1.444127410650253E-001;-9.515154361724854E-002;-1.080961083061993E-003;2.918348414823413E-003;
2.422166666666667E+009;1.441727131605148E-001;-9.677542746067047E-002;-1.044517848640680E-003;3.171198535710573E-003;
2.422333333333334E+009;1.438128799200058E-001;-9.844730794429779E-002;-8.584563038311899E-004;3.041071118786931E-003;
2.422500000000000E+009;1.434028744697571E-001;-1.001817882061005E-001;-6.873391685076058E-004;3.088031429797411E-003;
2.422666666666667E+009;1.429806947708130E-001;-1.019542515277863E-001;-5.854400806128979E-004;2.879134146496654E-003;
2.422833333333334E+009;1.431015729904175E-001;-1.036173254251480E-001;-3.714434860739857E-004;3.048021579161286E-003;
2.423000000000000E+009;1.428620666265488E-001;-1.052408888936043E-001;-2.115663373842835E-004;3.046992700546980E-003;
2.423166666666667E+009;1.430939137935638E-001;-1.069691181182861E-001;-2.601081505417824E-004;3.096909029409289E-003;
2.423333333333334E+009;1.430923789739609E-001;-1.085022389888763E-001;-5.944835356785916E-005;3.101253183558583E-003;
2.423500000000000E+009;1.431264430284500E-001;-1.100952997803688E-001;-1.108659344026819E-004;3.032285720109940E-003;
2.423666666666667E+009;1.433561146259308E-001;-1.117602959275246E-001;1.402178459102288E-004;3.084380878135562E-003;
2.423833333333334E+009;1.436279416084290E-001;-1.131671667098999E-001;2.872157783713192E-004;2.958819735795260E-003;
2.424000000000000E+009;1.437776982784271E-001;-1.145320460200310E-001;2.948931942228228E-004;3.026408609002829E-003;
2.424166666666667E+009;1.439873725175858E-001;-1.160010620951653E-001;4.356770950835198E-004;2.806947333738208E-003;
2.424333333333334E+009;1.444565057754517E-001;-1.173050999641419E-001;6.012199446558952E-004;2.873301273211837E-003;
2.424500000000000E+009;1.448335647583008E-001;-1.186237707734108E-001;4.867966636084020E-004;2.558418083935976E-003;
2.424666666666667E+009;1.453324407339096E-001;-1.195520386099815E-001;6.563842180185020E-004;2.582877874374390E-003;
2.424833333333334E+009;1.454415768384934E-001;-1.206487417221069E-001;8.421261445619166E-004;2.536088228225708E-003;
2.425000000000000E+009;1.458745896816254E-001;-1.218075230717659E-001;9.318894590251148E-004;2.553717931732535E-003;
2.425166666666667E+009;1.461433172225952E-001;-1.225313469767571E-001;1.057947287335992E-003;2.443869365379214E-003;
2.425333333333334E+009;1.464969813823700E-001;-1.233881115913391E-001;1.048550941050053E-003;2.421545563265681E-003;
2.425500000000000E+009;1.468158811330795E-001;-1.241693720221520E-001;1.031100749969482E-003;2.327466849237680E-003;
2.425666666666667E+009;1.469291299581528E-001;-1.247822567820549E-001;1.068798475898802E-003;2.195324748754501E-003;
2.425833333333334E+009;1.472511738538742E-001;-1.253427267074585E-001;1.137730083428323E-003;2.220351481810212E-003;
2.426000000000000E+009;1.474180221557617E-001;-1.259775608778000E-001;1.206612912937999E-003;1.914665102958679E-003;
2.426166666666667E+009;1.476234048604965E-001;-1.263532787561417E-001;1.312699983827770E-003;1.983306370675564E-003;
2.426333333333334E+009;1.476052552461624E-001;-1.265785992145538E-001;1.145761460065842E-003;1.905323821119964E-003;
2.426500000000000E+009;1.477288156747818E-001;-1.268015503883362E-001;1.298874849453569E-003;1.872504828497767E-003;
2.426666666666667E+009;1.477569639682770E-001;-1.268529146909714E-001;1.361845177598298E-003;1.728985342197120E-003;
2.426833333333334E+009;1.475190371274948E-001;-1.270676851272583E-001;1.287874416448176E-003;1.705086207948625E-003;
2.427000000000000E+009;1.472001075744629E-001;-1.273015439510346E-001;1.366053475067020E-003;1.661677844822407E-003;
2.427166666666667E+009;1.468693017959595E-001;-1.271404623985291E-001;1.451707212254405E-003;1.738718710839748E-003;
2.427333333333334E+009;1.465019434690476E-001;-1.271351724863052E-001;1.425846945494413E-003;1.408168463967741E-003;
2.427500000000000E+009;1.460415571928024E-001;-1.271021962165833E-001;1.369682955555618E-003;1.412490266375244E-003;
2.427666666666667E+009;1.453814208507538E-001;-1.270755976438522E-001;1.430520089343190E-003;1.434370991773903E-003;
