# Version 1.00
#
freq[Hz];re:Trc1_S11;im:Trc1_S11;re:Trc2_S21;im:Trc2_S21;
2.400000000000000E+009;1.636131107807159E-001;5.165154486894608E-002;3.242805367335677E-003;4.046689427923411E-004;
2.400166666666667E+009;1.635220050811768E-001;5.016762390732765E-002;3.328355494886637E-003;2.148659405065700E-004;
2.400333333333334E+009;1.634391695261002E-001;4.844872280955315E-002;3.402881557121873E-003;2.117407711921260E-004;
2.400500000000000E+009;1.633393913507462E-001;4.665146768093109E-002;3.436529543250799E-003;2.646149077918381E-004;
2.400666666666667E+009;1.632359027862549E-001;4.458159208297730E-002;3.371380269527435E-003;1.678522094152868E-004;
2.400833333333334E+009;1.633524447679520E-001;4.300579428672791E-002;3.420208813622594E-003;2.188671205658466E-004;
2.401000000000000E+009;1.635875701904297E-001;4.100315645337105E-002;3.433383302763104E-003;2.613285323604941E-004;
2.401166666666667E+009;1.633823812007904E-001;3.899521753191948E-002;3.706881776452065E-003;2.646507346071303E-004;
2.401333333333334E+009;1.634136885404587E-001;3.691595420241356E-002;3.710243850946426E-003;1.733355311444029E-004;
2.401500000000000E+009;1.637594848871231E-001;3.509202972054482E-002;3.795386524870992E-003;-3.425794784561731E-005;
2.401666666666667E+009;1.639657169580460E-001;3.320239484310150E-002;3.860608208924532E-003;3.136522354907356E-005;
2.401833333333334E+009;1.641502678394318E-001;3.115761466324329E-002;3.953568171709776E-003;1.293173772864975E-005;
2.402000000000000E+009;1.642746180295944E-001;2.932970412075520E-002;4.067662637680769E-003;-2.596049162093550E-004;
2.402166666666667E+009;1.647599786520004E-001;2.745220810174942E-002;4.318601451814175E-003;-4.931233706884086E-004;
2.402333333333334E+009;1.650854349136353E-001;2.562976442277432E-002;4.398415796458721E-003;-4.496102628763765E-004;
2.402500000000000E+009;1.655574887990952E-001;2.393002994358540E-002;4.382620565593243E-003;-5.769586423411965E-004;
2.402666666666667E+009;1.662149429321289E-001;2.205468341708183E-002;4.573729820549488E-003;-7.163137779571116E-004;
2.402833333333334E+009;1.666317731142044E-001;2.056745067238808E-002;4.539561923593283E-003;-1.035993685945869E-003;
2.403000000000000E+009;1.672529876232147E-001;1.894501410424709E-002;4.835586529225111E-003;-1.272802590392530E-003;
2.403166666666667E+009;1.678235381841660E-001;1.725324802100658E-002;4.853700753301382E-003;-1.288140309043229E-003;
2.403333333333334E+009;1.686953902244568E-001;1.592105813324451E-002;4.916367586702108E-003;-1.705028465948999E-003;
2.403500000000000E+009;1.691988557577133E-001;1.440979633480310E-002;4.786077886819840E-003;-1.946782460436225E-003;
2.403666666666667E+009;1.699991226196289E-001;1.284207869321108E-002;4.959373734891415E-003;-2.217514906078577E-003;
2.403833333333334E+009;1.705348789691925E-001;1.158508285880089E-002;4.748306702822447E-003;-2.538919681683183E-003;
2.404000000000000E+009;1.715194433927536E-001;1.042655576020479E-002;4.829068202525377E-003;-2.720591146498919E-003;
2.404166666666667E+009;1.721486002206802E-001;9.341921657323837E-003;4.760431591421366E-003;-3.096716245636344E-003;
2.404333333333334E+009;1.728742271661758E-001;8.229292929172516E-003;4.509833175688982E-003;-3.373973304405808E-003;
2.404500000000000E+009;1.734067499637604E-001;7.010392844676971E-003;4.545848350971937E-003;-3.530696965754032E-003;
2.404666666666667E+009;1.743387877941132E-001;5.981312599033117E-003;4.144267179071903E-003;-3.882264951243997E-003;
2.404833333333334E+009;1.750245392322540E-001;5.259111057966948E-003;4.235294181853533E-003;-4.233029671013355E-003;
2.405000000000000E+009;1.757370680570602E-001;4.493956454098225E-003;3.886885009706020E-003;-4.451601300388575E-003;
2.405166666666667E+009;1.765513271093369E-001;3.746919566765428E-003;3.793583484366536E-003;-4.691707435995340E-003;
2.405333333333334E+009;1.772104203701019E-001;2.895951503887773E-003;3.716266946867108E-003;-4.978964105248451E-003;
2.405500000000000E+009;1.776802390813828E-001;2.418292453512549E-003;3.147669602185488E-003;-5.178838036954403E-003;
2.405666666666667E+009;1.782021075487137E-001;1.864171936176717E-003;2.887178445234895E-003;-5.275903735309839E-003;
2.405833333333334E+009;1.787432581186295E-001;1.452384982258081E-003;2.858681604266167E-003;-5.567145999521017E-003;
2.406000000000000E+009;1.792047768831253E-001;8.433398324996233E-004;2.512908773496747E-003;-5.592118483036757E-003;
2.406166666666667E+009;1.794045418500900E-001;4.439411277417094E-004;2.036697464063764E-003;-5.639595910906792E-003;
2.406333333333334E+009;1.799187362194061E-001;1.672558573773131E-004;1.961949747055769E-003;-5.816462915390730E-003;
2.406500000000000E+009;1.800610721111298E-001;-2.129123458871618E-004;1.574247609823942E-003;-5.828633438795805E-003;
2.406666666666667E+009;1.802429705858231E-001;-4.987805150449276E-004;1.251651556231082E-003;-5.822464823722839E-003;
2.406833333333334E+009;1.803228855133057E-001;-9.294209303334355E-004;9.080506861209869E-004;-5.806338973343372E-003;
2.407000000000000E+009;1.804029047489166E-001;-1.330104307271540E-003;7.362723699770868E-004;-5.779382307082415E-003;
2.407166666666667E+009;1.805002242326737E-001;-1.588496263138950E-003;3.451259981375188E-004;-5.925040692090988E-003;
2.407333333333334E+009;1.802390962839127E-001;-2.226054668426514E-003;3.166196984238923E-005;-5.771249998360872E-003;
2.407500000000000E+009;1.802015900611877E-001;-2.529945690184832E-003;-7.582957914564759E-005;-5.991628393530846E-003;
2.407666666666667E+009;1.798904687166214E-001;-2.874029567465186E-003;-4.715721297543496E-004;-5.840904079377651E-003;
2.407833333333334E+009;1.794333904981613E-001;-3.647992154583335E-003;-6.804622244089842E-004;-5.728846881538630E-003;
2.408000000000000E+009;1.791230738162994E-001;-4.191764164716005E-003;-8.688997477293015E-004;-5.648487713187933E-003;
2.408166666666667E+009;1.786982566118240E-001;-4.703651182353497E-003;-1.183432294055820E-003;-5.483901593834162E-003;
2.408333333333334E+009;1.784319579601288E-001;-5.403031595051289E-003;-1.313529675826430E-003;-5.264803301542997E-003;
2.408500000000000E+009;1.778549104928970E-001;-6.114253308624029E-003;-1.750483992509544E-003;-5.223193671554327E-003;
2.408666666666667E+009;1.771632581949234E-001;-7.007729262113571E-003;-1.867652405053377E-003;-5.211461801081896E-003;
2.408833333333334E+009;1.765140891075134E-001;-7.860597223043442E-003;-1.908929203636944E-003;-4.864483140408993E-003;
2.409000000000000E+009;1.759786605834961E-001;-8.712680079042912E-003;-2.066859044134617E-003;-4.752541892230511E-003;
2.409166666666667E+009;1.751814782619476E-001;-9.828188456594944E-003;-2.278081374242902E-003;-4.721361212432385E-003;
2.409333333333334E+009;1.745572090148926E-001;-1.088237110525370E-002;-2.433930523693562E-003;-4.525261931121349E-003;
2.409500000000000E+009;1.739596873521805E-001;-1.229353342205286E-002;-2.698260359466076E-003;-4.139367025345564E-003;
2.409666666666667E+009;1.732214838266373E-001;-1.339671388268471E-002;-2.881497377529740E-003;-3.978898748755455E-003;
2.409833333333334E+009;1.724283695220947E-001;-1.456624083220959E-002;-2.775609027594328E-003;-3.857816103845835E-003;
2.410000000000000E+009;1.718120574951172E-001;-1.591551490128040E-002;-2.946729538962245E-003;-3.732262644916773E-003;
2.410166666666667E+009;1.710753738880158E-001;-1.756988093256950E-002;-2.900670282542706E-003;-3.613542532548308E-003;
2.410333333333334E+009;1.703680455684662E-001;-1.901728101074696E-002;-3.040694398805499E-003;-3.467635950073600E-003;
2.410500000000000E+009;1.696600019931793E-001;-2.045161835849285E-002;-3.143090521916747E-003;-3.179693827405572E-003;
2.410666666666667E+009;1.692487597465515E-001;-2.233393676578999E-002;-3.146788571029902E-003;-3.052897984161973E-003;
2.410833333333334E+009;1.688898354768753E-001;-2.408878505229950E-002;-3.210037015378475E-003;-2.850217046216130E-003;
2.411000000000000E+009;1.683056205511093E-001;-2.576313912868500E-002;-3.087139222770929E-003;-2.782905474305153E-003;
2.411166666666667E+009;1.677704751491547E-001;-2.775457873940468E-002;-3.199879545718432E-003;-2.601614687591791E-003;
2.411333333333334E+009;1.674525141716003E-001;-2.925242669880390E-002;-3.145605791360140E-003;-2.552247839048505E-003;
2.411500000000000E+009;1.669931411743164E-001;-3.139081969857216E-002;-3.051962237805128E-003;-2.303208922967315E-003;
2.411666666666667E+009;1.667685061693192E-001;-3.341796994209290E-002;-3.139070933684707E-003;-2.172998152673245E-003;
2.411833333333334E+009;1.667092144489288E-001;-3.519212454557419E-002;-3.007401479408145E-003;-2.062307205051184E-003;
2.412000000000000E+009;1.665316820144653E-001;-3.706348687410355E-002;-3.289145883172751E-003;-2.051602117717266E-003;
2.412166666666667E+009;1.664352566003799E-001;-3.885553032159805E-002;-3.248485503718257E-003;-2.070433227345347E-003;
2.412333333333334E+009;1.667895019054413E-001;-4.075950011610985E-002;-3.293251851573587E-003;-1.778695266693831E-003;
2.412500000000000E+009;1.664270460605621E-001;-4.283060878515244E-002;-3.114088904112577E-003;-1.910325605422258E-003;
2.412666666666667E+009;1.665830165147781E-001;-4.479150101542473E-002;-3.272233065217733E-003;-1.818676828406751E-003;
2.412833333333334E+009;1.668310463428497E-001;-4.642322286963463E-002;-3.317709080874920E-003;-1.724752015434206E-003;
2.413000000000000E+009;1.670857816934586E-001;-4.829585924744606E-002;-3.337471513077617E-003;-1.662809634581208E-003;
2.413166666666667E+009;1.673182398080826E-001;-4.999839141964912E-002;-3.197524696588516E-003;-1.573543762788177E-003;
2.413333333333334E+009;1.674880385398865E-001;-5.166912078857422E-002;-3.282626625150442E-003;-1.414675032719970E-003;
2.413500000000000E+009;1.679098904132843E-001;-5.335168167948723E-002;-3.454424208030105E-003;-1.265580649487674E-003;
2.413666666666667E+009;1.682787686586380E-001;-5.497327446937561E-002;-3.390316851437092E-003;-1.208094879984856E-003;
2.413833333333334E+009;1.684397459030151E-001;-5.638981238007546E-002;-3.500049933791161E-003;-1.206677756272256E-003;
2.414000000000000E+009;1.688625812530518E-001;-5.792398005723953E-002;-3.361329669132829E-003;-1.024411874823272E-003;
2.414166666666667E+009;1.693885624408722E-001;-5.909537896513939E-002;-3.518194193020463E-003;-9.447989286854863E-004;
2.414333333333334E+009;1.697711050510407E-001;-6.055802479386330E-002;-3.395876847207546E-003;-9.868746856227517E-004;
2.414500000000000E+009;1.703282892704010E-001;-6.163861230015755E-002;-3.598642535507679E-003;-7.689429912716150E-004;
2.414666666666667E+009;1.707247197628021E-001;-6.266082078218460E-002;-3.540084697306156E-003;-6.969555397517979E-004;
2.414833333333334E+009;1.711091995239258E-001;-6.393486261367798E-002;-3.545210463926196E-003;-6.606545066460967E-004;
2.415000000000000E+009;1.713916063308716E-001;-6.465047597885132E-002;-3.738188650459051E-003;-6.894101970829070E-004;
2.415166666666667E+009;1.717592328786850E-001;-6.543708592653275E-002;-3.498591016978025E-003;-4.597129009198397E-004;
2.415333333333334E+009;1.722708493471146E-001;-6.637996435165405E-002;-3.715021535754204E-003;-2.051629271591082E-004;
2.415500000000000E+009;1.725416779518127E-001;-6.691644340753555E-002;-3.552170936018229E-003;-1.335622509941459E-004;
2.415666666666667E+009;1.727591305971146E-001;-6.742782890796661E-002;-3.576105460524559E-003;-2.534514896979090E-005;
2.415833333333334E+009;1.730581820011139E-001;-6.813452392816544E-002;-3.609721316024661E-003;1.504254905739799E-004;
2.416000000000000E+009;1.729544252157211E-001;-6.862161308526993E-002;-3.543716156855226E-003;6.755313370376825E-005;
2.416166666666667E+009;1.732952445745468E-001;-6.889779120683670E-002;-3.660040907561779E-003;4.189219907857478E-004;
2.416333333333334E+009;1.730456799268723E-001;-6.926951557397842E-002;-3.725168760865927E-003;3.106746589764953E-004;
2.416500000000000E+009;1.731609404087067E-001;-6.975475698709488E-002;-3.562107915058732E-003;6.019630236551166E-004;
2.416666666666667E+009;1.728426218032837E-001;-6.987276673316956E-002;-3.640976734459400E-003;5.492525524459779E-004;
2.416833333333334E+009;1.728083789348602E-001;-7.023341208696365E-002;-3.659118665382266E-003;8.045478607527912E-004;
2.417000000000000E+009;1.723542660474777E-001;-7.050377875566483E-002;-3.557955846190453E-003;9.887401247397065E-004;
2.417166666666667E+009;1.720111221075058E-001;-7.064940780401230E-002;-3.652696264907718E-003;1.168858259916306E-003;
2.417333333333334E+009;1.714730411767960E-001;-7.083345949649811E-002;-3.462732769548893E-003;1.175070414319634E-003;
2.417500000000000E+009;1.709137558937073E-001;-7.133195549249649E-002;-3.358107060194016E-003;1.184771419502795E-003;
2.417666666666667E+009;1.703604757785797E-001;-7.127021998167038E-002;-3.237282158806920E-003;1.389680663123727E-003;
2.417833333333334E+009;1.696311980485916E-001;-7.149025797843933E-002;-3.318034578114748E-003;1.482772990129888E-003;
2.418000000000000E+009;1.687102913856506E-001;-7.195339351892471E-002;-3.206978319212794E-003;1.603000098839402E-003;
2.418166666666667E+009;1.678817570209503E-001;-7.202042639255524E-002;-3.205311251804233E-003;1.724013243801892E-003;
2.418333333333334E+009;1.671377867460251E-001;-7.245653122663498E-002;-2.993579721078277E-003;1.836351002566516E-003;
2.418500000000000E+009;1.660659313201904E-001;-7.272218167781830E-002;-3.033777000382543E-003;1.970569137483835E-003;
2.418666666666667E+009;1.650638580322266E-001;-7.319033890962601E-002;-2.842987887561321E-003;2.073570387437940E-003;
2.418833333333334E+009;1.638132631778717E-001;-7.377925515174866E-002;-2.809182973578572E-003;2.065856941044331E-003;
2.419000000000000E+009;1.626388132572174E-001;-7.406572252511978E-002;-2.686311490833759E-003;2.220753580331802E-003;
2.419166666666667E+009;1.616044491529465E-001;-7.461394369602203E-002;-2.538787666708231E-003;2.297468017786741E-003;
2.419333333333334E+009;1.601212322711945E-001;-7.513451576232910E-002;-2.585415728390217E-003;2.300876658409834E-003;
2.419500000000000E+009;1.590231508016586E-001;-7.611405849456787E-002;-2.300151158124209E-003;2.315909834578633E-003;
2.419666666666667E+009;1.579156070947647E-001;-7.684676349163055E-002;-2.297296654433012E-003;2.364342333748937E-003;
2.419833333333334E+009;1.567413061857224E-001;-7.758604735136032E-002;-2.302655251696706E-003;2.419790253043175E-003;
2.420000000000000E+009;1.555950641632080E-001;-7.858028262853622E-002;-2.171875210478902E-003;2.552684163674712E-003;
2.420166666666667E+009;1.544260680675507E-001;-7.959936559200287E-002;-2.037764061242342E-003;2.488208236172795E-003;
2.420333333333334E+009;1.532186120748520E-001;-8.059465885162354E-002;-2.008617622777820E-003;2.598361112177372E-003;
2.420500000000000E+009;1.522282212972641E-001;-8.169307559728622E-002;-1.956199994310737E-003;2.529971767216921E-003;
2.420666666666667E+009;1.510896831750870E-001;-8.287342637777329E-002;-1.770355040207505E-003;2.599673578515649E-003;
2.420833333333334E+009;1.501043140888214E-001;-8.436316996812820E-002;-1.707063638605177E-003;2.731910208240151E-003;
2.421000000000000E+009;1.490447074174881E-001;-8.566263318061829E-002;-1.573681831359863E-003;2.892612013965845E-003;
2.421166666666667E+009;1.482411772012711E-001;-8.709941804409027E-002;-1.542978337965906E-003;2.781104994937778E-003;
2.421333333333334E+009;1.473778188228607E-001;-8.871770650148392E-002;-1.428859541192651E-003;2.853466430678964E-003;
2.421500000000000E+009;1.465880125761032E-001;-9.015472978353500E-002;-1.297197886742652E-003;2.761091105639935E-003;
2.421666666666667E+009;1.459833532571793E-001;-9.180646389722824E-002;-1.244431477971375E-003;2.796521643176675E-003;
2.421833333333334E+009;1.453308165073395E-001;-9.332787245512009E-002;-1.202935236506164E-003;2.850401680916548E-003;
2.422000000000000E+009;1.446570456027985E-001;-9.501383453607559E-002;-1.100304769352078E-003;2.988143824040890E-003;
2.422166666666667E+009;1.441994011402130E-001;-9.682188183069229E-002;-9.999892208725214E-004;2.969390479847789E-003;
2.422333333333334E+009;1.437701731920242E-001;-9.830955415964127E-002;-9.121771436184645E-004;2.894601551815867E-003;
2.422500000000000E+009;1.434149444103241E-001;-1.000431105494499E-001;-7.066062535159290E-004;3.071815939620137E-003;
2.422666666666667E+009;1.430889368057251E-001;-1.018849760293961E-001;-5.688628298230469E-004;2.939552767202258E-003;
2.422833333333334E+009;1.430385410785675E-001;-1.035478562116623E-001;-3.606064710766077E-004;2.907125977799296E-003;
2.423000000000000E+009;1.430938988924027E-001;-1.053573340177536E-001;-2.694272552616894E-004;3.038506489247084E-003;
2.423166666666667E+009;1.430467665195465E-001;-1.070042774081230E-001;-2.051914634648711E-004;3.069356782361865E-003;
2.423333333333334E+009;1.432501524686813E-001;-1.084518879652023E-001;-1.231073838425800E-004;2.981805009767413E-003;
2.423500000000000E+009;1.433238983154297E-001;-1.103418543934822E-001;-4.522034578258172E-005;2.884302521124482E-003;
2.423666666666667E+009;1.432888954877853E-001;-1.119157597422600E-001;2.227188815595582E-005;2.956230193376541E-003;
2.423833333333334E+009;1.435254514217377E-001;-1.133280098438263E-001;2.516975800972432E-004;2.974758855998516E-003;
2.424000000000000E+009;1.438823491334915E-001;-1.146626472473145E-001;2.606781781651080E-004;2.745673991739750E-003;
2.424166666666667E+009;1.442163884639740E-001;-1.159555613994598E-001;4.385352367535234E-004;2.858923980966210E-003;
2.424333333333334E+009;1.444075256586075E-001;-1.173556372523308E-001;4.966829437762499E-004;2.727613551542163E-003;
2.424500000000000E+009;1.447895169258118E-001;-1.186679676175118E-001;5.982827860862017E-004;2.671462483704090E-003;
2.424666666666667E+009;1.454051733016968E-001;-1.195111200213432E-001;6.634144810959697E-004;2.466957317665219E-003;
2.424833333333334E+009;1.454980969429016E-001;-1.207426115870476E-001;8.420423255302012E-004;2.626664005219936E-003;
2.425000000000000E+009;1.459548473358154E-001;-1.217302232980728E-001;7.815879653207958E-004;2.395757008343935E-003;
2.425166666666667E+009;1.460587382316589E-001;-1.227243319153786E-001;8.892618352547288E-004;2.559883054345846E-003;
2.425333333333334E+009;1.465327590703964E-001;-1.235100924968720E-001;9.129894315265119E-004;2.450948581099510E-003;
2.425500000000000E+009;1.467988938093185E-001;-1.242444887757301E-001;1.314525958150625E-003;2.368698129430413E-003;
2.425666666666667E+009;1.469852924346924E-001;-1.247693076729775E-001;1.127691473811865E-003;2.393084578216076E-003;
2.425833333333334E+009;1.472863405942917E-001;-1.252589821815491E-001;1.292318338528276E-003;2.145404228940606E-003;
2.426000000000000E+009;1.473951041698456E-001;-1.258604526519775E-001;1.347187790088356E-003;2.161434385925531E-003;
2.426166666666667E+009;1.477469056844711E-001;-1.263164728879929E-001;1.352988765574992E-003;2.075499854981899E-003;
2.426333333333334E+009;1.476260423660278E-001;-1.264965981245041E-001;1.496577984653413E-003;1.863038400188088E-003;
2.426500000000000E+009;1.477250009775162E-001;-1.267942637205124E-001;1.490043243393302E-003;1.911570667289197E-003;
2.426666666666667E+009;1.476930677890778E-001;-1.267470866441727E-001;1.520650228485465E-003;1.838709227740765E-003;
2.426833333333334E+009;1.475080400705338E-001;-1.270187050104141E-001;1.404142007231712E-003;1.550567569211125E-003;
2.427000000000000E+009;1.472730338573456E-001;-1.271193474531174E-001;1.443805987946689E-003;1.627007382921875E-003;
2.427166666666667E+009;1.469376534223557E-001;-1.271063387393951E-001;1.597267924807966E-003;1.780370832420886E-003;
2.427333333333334E+009;1.465657800436020E-001;-1.271258443593979E-001;1.530412235297263E-003;1.562987104989588E-003;
2.427500000000000E+009;1.461374312639237E-001;-1.271612197160721E-001;1.645040116272867E-003;1.385978423058987E-003;
2.427666666666667E+009;1.454918533563614E-001;-1.270591616630554E-001;1.556110335513949E-003;1.304138102568686E-003;
