# Version 1.00
#
freq[Hz];re:Trc1_S11;im:Trc1_S11;re:Trc2_S21;im:Trc2_S21;
2.400000000000000E+009;1.732126176357269E-001;4.872374981641769E-002;5.103681236505508E-003;4.102457780390978E-003;
2.400166666666667E+009;1.736344993114471E-001;4.816544428467751E-002;5.132360383868218E-003;3.918479662388563E-003;
2.400333333333334E+009;1.742908358573914E-001;4.737068340182304E-002;5.411139689385891E-003;3.971263300627470E-003;
2.400500000000000E+009;1.748138070106506E-001;4.658307135105133E-002;5.551884416490793E-003;4.000251647084951E-003;
2.400666666666667E+009;1.750916838645935E-001;4.599746689200401E-002;5.705006420612335E-003;3.772084135562182E-003;
2.400833333333334E+009;1.754289716482163E-001;4.560594260692596E-002;5.711587145924568E-003;3.753719618543983E-003;
2.401000000000000E+009;1.756254583597183E-001;4.486013948917389E-002;5.918802227824926E-003;3.605307545512915E-003;
2.401166666666667E+009;1.757902950048447E-001;4.413832351565361E-002;6.235036998987198E-003;3.490508068352938E-003;
2.401333333333334E+009;1.757991760969162E-001;4.349108785390854E-002;6.341823376715183E-003;3.432299476116896E-003;
2.401500000000000E+009;1.760829538106918E-001;4.280218854546547E-002;6.547909695655108E-003;3.269635839387775E-003;
2.401666666666667E+009;1.759006828069687E-001;4.213237762451172E-002;6.690215319395065E-003;3.076971508562565E-003;
2.401833333333334E+009;1.757995784282684E-001;4.151801392436028E-002;6.991902366280556E-003;2.856952371075749E-003;
2.402000000000000E+009;1.757937520742416E-001;4.078514501452446E-002;7.059290073812008E-003;2.789024729281664E-003;
2.402166666666667E+009;1.757144778966904E-001;3.990089520812035E-002;7.263191975653172E-003;2.632493386045098E-003;
2.402333333333334E+009;1.753561198711395E-001;3.892008587718010E-002;7.417570799589157E-003;2.358127385377884E-003;
2.402500000000000E+009;1.753670424222946E-001;3.795837983489037E-002;7.512083742767572E-003;2.215069951489568E-003;
2.402666666666667E+009;1.750611811876297E-001;3.670893609523773E-002;7.619318552315235E-003;1.854316447861493E-003;
2.402833333333334E+009;1.747468709945679E-001;3.565978258848190E-002;7.993572391569614E-003;1.654785242862999E-003;
2.403000000000000E+009;1.743809431791306E-001;3.449850156903267E-002;7.953688502311707E-003;1.403275178745389E-003;
2.403166666666667E+009;1.743610352277756E-001;3.310294076800346E-002;8.112079463899136E-003;1.138624851591885E-003;
2.403333333333334E+009;1.739484667778015E-001;3.176158666610718E-002;8.409777656197548E-003;8.500576368533075E-004;
2.403500000000000E+009;1.733554750680924E-001;3.045872785151005E-002;8.492470718920231E-003;5.637703579850495E-004;
2.403666666666667E+009;1.731213480234146E-001;2.871537767350674E-002;8.442054502665997E-003;2.500462578609586E-004;
2.403833333333334E+009;1.727427542209625E-001;2.720756642520428E-002;8.616819977760315E-003;-9.214822784997523E-005;
2.404000000000000E+009;1.722606122493744E-001;2.544065564870834E-002;8.609046228230000E-003;-3.943349584005773E-004;
2.404166666666667E+009;1.720346063375473E-001;2.373227663338184E-002;8.544541895389557E-003;-7.916743634268642E-004;
2.404333333333334E+009;1.715269535779953E-001;2.191885933279991E-002;8.585146628320217E-003;-1.217180630192161E-003;
2.404500000000000E+009;1.712409257888794E-001;1.981124840676785E-002;8.607102558016777E-003;-1.448118593543768E-003;
2.404666666666667E+009;1.711775213479996E-001;1.813635230064392E-002;8.733397349715233E-003;-1.726704766042531E-003;
2.404833333333334E+009;1.708645522594452E-001;1.630749739706516E-002;8.661091327667236E-003;-2.164524979889393E-003;
2.405000000000000E+009;1.706693321466446E-001;1.430097967386246E-002;8.427403867244721E-003;-2.542756265029311E-003;
2.405166666666667E+009;1.705169379711151E-001;1.220612227916718E-002;8.402221836149693E-003;-2.933400217443705E-003;
2.405333333333334E+009;1.706004589796066E-001;1.003386452794075E-002;8.159623481333256E-003;-3.204372711479664E-003;
2.405500000000000E+009;1.705367267131805E-001;8.265180513262749E-003;8.139315992593765E-003;-3.368734614923596E-003;
2.405666666666667E+009;1.706136167049408E-001;6.131203845143318E-003;7.767186500132084E-003;-3.706013783812523E-003;
2.405833333333334E+009;1.706595718860626E-001;4.084759857505560E-003;7.655945606529713E-003;-3.887726459652185E-003;
2.406000000000000E+009;1.709600985050201E-001;2.036400837823749E-003;7.469060365110636E-003;-4.152278881520033E-003;
2.406166666666667E+009;1.711458712816238E-001;6.945851782802492E-005;7.246356457471848E-003;-4.506710916757584E-003;
2.406333333333334E+009;1.717429608106613E-001;-2.116902265697718E-003;7.186521776020527E-003;-4.756202921271324E-003;
2.406500000000000E+009;1.720559895038605E-001;-3.972870763391256E-003;6.932613905519247E-003;-4.930288065224886E-003;
2.406666666666667E+009;1.724689006805420E-001;-5.969209130853415E-003;6.692471913993359E-003;-5.168430041521788E-003;
2.406833333333334E+009;1.730388402938843E-001;-8.027179166674614E-003;6.479385308921337E-003;-5.321553908288479E-003;
2.407000000000000E+009;1.736720949411392E-001;-9.966953657567501E-003;6.283993367105722E-003;-5.554052069783211E-003;
2.407166666666667E+009;1.743369102478027E-001;-1.165118068456650E-002;6.195887457579374E-003;-5.669097881764174E-003;
2.407333333333334E+009;1.750173866748810E-001;-1.372045837342739E-002;6.028407718986273E-003;-5.886808969080448E-003;
2.407500000000000E+009;1.757419407367706E-001;-1.546143367886543E-002;5.774145480245352E-003;-6.066498346626759E-003;
2.407666666666667E+009;1.764314472675324E-001;-1.707402803003788E-002;5.729664582759142E-003;-6.237389985471964E-003;
2.407833333333334E+009;1.770859360694885E-001;-1.887504011392593E-002;5.428543314337730E-003;-6.352137774229050E-003;
2.408000000000000E+009;1.778846532106400E-001;-2.068351954221726E-002;5.309870466589928E-003;-6.487029604613781E-003;
2.408166666666667E+009;1.785230040550232E-001;-2.200221084058285E-002;5.118412431329489E-003;-6.583592854440212E-003;
2.408333333333334E+009;1.794207692146301E-001;-2.349856868386269E-002;4.826568067073822E-003;-6.663436535745859E-003;
2.408500000000000E+009;1.799398064613342E-001;-2.508839219808579E-002;4.777797963470221E-003;-6.809779908508062E-003;
2.408666666666667E+009;1.806898415088654E-001;-2.633307315409184E-002;4.448828753083944E-003;-6.983399856835604E-003;
2.408833333333334E+009;1.809934079647064E-001;-2.753271162509918E-002;4.313221201300621E-003;-6.984640844166279E-003;
2.409000000000000E+009;1.815988123416901E-001;-2.861667051911354E-002;3.960216417908669E-003;-7.192909251898527E-003;
2.409166666666667E+009;1.820527911186218E-001;-2.977067790925503E-002;3.922077361494303E-003;-7.409829180687666E-003;
2.409333333333334E+009;1.825660020112991E-001;-3.061787970364094E-002;3.524355124682188E-003;-7.433238904923201E-003;
2.409500000000000E+009;1.827410906553268E-001;-3.142196312546730E-002;3.422696376219392E-003;-7.678458932787180E-003;
2.409666666666667E+009;1.829966306686401E-001;-3.200532868504524E-002;3.350561950355768E-003;-7.716619875282049E-003;
2.409833333333334E+009;1.832486093044281E-001;-3.271687403321266E-002;3.167860908433795E-003;-7.895703427493572E-003;
2.410000000000000E+009;1.836889386177063E-001;-3.304512798786163E-002;2.922085812315345E-003;-7.931055501103401E-003;
2.410166666666667E+009;1.838929504156113E-001;-3.363777697086334E-002;2.619920531287789E-003;-8.193045854568481E-003;
2.410333333333334E+009;1.838488578796387E-001;-3.399012237787247E-002;2.524978015571833E-003;-8.279685862362385E-003;
2.410500000000000E+009;1.839557886123657E-001;-3.438412025570869E-002;2.241917653009296E-003;-8.392395451664925E-003;
2.410666666666667E+009;1.839695721864700E-001;-3.483209013938904E-002;1.918367808684707E-003;-8.577816188335419E-003;
2.410833333333334E+009;1.839239746332169E-001;-3.509955480694771E-002;1.763795618899167E-003;-8.639221079647541E-003;
2.411000000000000E+009;1.837352067232132E-001;-3.524392098188400E-002;1.367452670820057E-003;-8.909001015126705E-003;
2.411166666666667E+009;1.833106130361557E-001;-3.575732558965683E-002;1.183136133477092E-003;-9.082017466425896E-003;
2.411333333333334E+009;1.829140782356262E-001;-3.607289493083954E-002;7.113898172974587E-004;-8.925794623792172E-003;
2.411500000000000E+009;1.824327707290649E-001;-3.649623319506645E-002;4.663820436690003E-004;-9.236114099621773E-003;
2.411666666666667E+009;1.820999383926392E-001;-3.677837923169136E-002;3.568420652300119E-005;-9.250975213944912E-003;
2.411833333333334E+009;1.814537942409515E-001;-3.703834861516953E-002;-3.897584392689169E-004;-9.425487369298935E-003;
2.412000000000000E+009;1.806236058473587E-001;-3.760769590735436E-002;-6.123712519183755E-004;-9.341794066131115E-003;
2.412166666666667E+009;1.798710376024246E-001;-3.808600455522537E-002;-1.058850204572082E-003;-9.350288659334183E-003;
2.412333333333334E+009;1.789996325969696E-001;-3.848731890320778E-002;-1.498659723438323E-003;-9.331494569778442E-003;
2.412500000000000E+009;1.779350340366364E-001;-3.905708342790604E-002;-1.990424469113350E-003;-9.218185208737850E-003;
2.412666666666667E+009;1.769315302371979E-001;-3.993561863899231E-002;-2.102364785969257E-003;-9.178712964057922E-003;
2.412833333333334E+009;1.756885796785355E-001;-4.044018313288689E-002;-2.700203098356724E-003;-8.932525292038918E-003;
2.413000000000000E+009;1.745117455720902E-001;-4.116814956068993E-002;-2.816070569679141E-003;-8.819800801575184E-003;
2.413166666666667E+009;1.733753532171249E-001;-4.202181473374367E-002;-3.372089471668005E-003;-8.634088560938835E-003;
2.413333333333334E+009;1.718190312385559E-001;-4.297805204987526E-002;-3.729197662323713E-003;-8.552368730306625E-003;
2.413500000000000E+009;1.705438047647476E-001;-4.400991275906563E-002;-3.970464691519737E-003;-8.299326524138451E-003;
2.413666666666667E+009;1.694533377885819E-001;-4.492970928549767E-002;-4.256502725183964E-003;-8.017850108444691E-003;
2.413833333333334E+009;1.680261194705963E-001;-4.606248065829277E-002;-4.559431690722704E-003;-7.771938573569059E-003;
2.414000000000000E+009;1.667165160179138E-001;-4.730296134948731E-002;-4.886307287961245E-003;-7.646753452718258E-003;
2.414166666666667E+009;1.655526459217072E-001;-4.849003627896309E-002;-5.053164903074503E-003;-7.254953496158123E-003;
2.414333333333334E+009;1.643578261137009E-001;-4.984416812658310E-002;-5.320907570421696E-003;-6.987625733017921E-003;
2.414500000000000E+009;1.633373647928238E-001;-5.123039335012436E-002;-5.555650219321251E-003;-7.015908602625132E-003;
2.414666666666667E+009;1.619667708873749E-001;-5.274914205074310E-002;-5.507776048034430E-003;-6.618270184844732E-003;
2.414833333333334E+009;1.607892960309982E-001;-5.451827496290207E-002;-5.630136001855135E-003;-6.371912080794573E-003;
2.415000000000000E+009;1.597382277250290E-001;-5.593395605683327E-002;-5.893622059375048E-003;-6.047805771231651E-003;
2.415166666666667E+009;1.588196903467178E-001;-5.765956640243530E-002;-6.074144970625639E-003;-5.841408856213093E-003;
2.415333333333334E+009;1.579536199569702E-001;-5.954751744866371E-002;-6.303271278738976E-003;-5.534388124942780E-003;
2.415500000000000E+009;1.570555716753006E-001;-6.126662343740463E-002;-6.398788653314114E-003;-5.331575404852629E-003;
2.415666666666667E+009;1.562995761632919E-001;-6.323595345020294E-002;-6.442084908485413E-003;-5.153192207217217E-003;
2.415833333333334E+009;1.555462479591370E-001;-6.508203595876694E-002;-6.415380164980888E-003;-4.790351726114750E-003;
2.416000000000000E+009;1.548839360475540E-001;-6.712231785058975E-002;-6.587794050574303E-003;-4.544158466160297E-003;
2.416166666666667E+009;1.543627977371216E-001;-6.899423152208328E-002;-6.825300864875317E-003;-4.402752965688705E-003;
2.416333333333334E+009;1.537195891141892E-001;-7.084650546312332E-002;-6.848794408142567E-003;-4.081497434526682E-003;
2.416500000000000E+009;1.532707810401917E-001;-7.298799604177475E-002;-6.964849308133125E-003;-3.783068386837840E-003;
2.416666666666667E+009;1.528059244155884E-001;-7.492187619209290E-002;-7.050693500787020E-003;-3.532192436978221E-003;
2.416833333333334E+009;1.526244580745697E-001;-7.694342732429504E-002;-7.112058810889721E-003;-3.303028177469969E-003;
2.417000000000000E+009;1.521605551242828E-001;-7.877078652381897E-002;-7.188556715846062E-003;-3.090916434302926E-003;
2.417166666666667E+009;1.519082486629486E-001;-8.051855117082596E-002;-7.141192443668842E-003;-2.718438161537051E-003;
2.417333333333334E+009;1.518959552049637E-001;-8.233846724033356E-002;-6.957292556762695E-003;-2.532337792217732E-003;
2.417500000000000E+009;1.517302244901657E-001;-8.419346064329147E-002;-7.129061501473188E-003;-2.345643937587738E-003;
2.417666666666667E+009;1.517438590526581E-001;-8.566139638423920E-002;-7.148586213588715E-003;-2.040812745690346E-003;
2.417833333333334E+009;1.516468971967697E-001;-8.730670809745789E-002;-7.114659063518047E-003;-1.843500649556518E-003;
2.418000000000000E+009;1.516416370868683E-001;-8.874265104532242E-002;-7.088716141879559E-003;-1.507238601334393E-003;
2.418166666666667E+009;1.517274379730225E-001;-9.001695364713669E-002;-7.120472844690085E-003;-1.501940772868693E-003;
2.418333333333334E+009;1.520802080631256E-001;-9.122999757528305E-002;-7.084801327437162E-003;-1.011264510452747E-003;
2.418500000000000E+009;1.520953029394150E-001;-9.245392680168152E-002;-7.088958751410246E-003;-8.307241369038820E-004;
2.418666666666667E+009;1.524416208267212E-001;-9.353190660476685E-002;-7.248377427458763E-003;-7.091835141181946E-004;
2.418833333333334E+009;1.523082107305527E-001;-9.442105889320374E-002;-7.117810659110546E-003;-2.903191489167512E-004;
2.419000000000000E+009;1.525421589612961E-001;-9.522677212953568E-002;-7.044851314276457E-003;-2.121174329658970E-004;
2.419166666666667E+009;1.527059227228165E-001;-9.596943110227585E-002;-7.108716294169426E-003;1.636053493712097E-004;
2.419333333333334E+009;1.529964655637741E-001;-9.638613462448120E-002;-6.915288046002388E-003;3.251283196732402E-004;
2.419500000000000E+009;1.532208621501923E-001;-9.698640555143356E-002;-6.828499957919121E-003;6.253735627979040E-004;
2.419666666666667E+009;1.533746421337128E-001;-9.745652228593826E-002;-6.684785243123770E-003;7.826667861081660E-004;
2.419833333333334E+009;1.535207480192184E-001;-9.743137657642365E-002;-6.716418080031872E-003;1.009622006677091E-003;
2.420000000000000E+009;1.537786722183228E-001;-9.762946516275406E-002;-6.528894882649183E-003;1.207492663525045E-003;
2.420166666666667E+009;1.539206504821777E-001;-9.766138345003128E-002;-6.307249888777733E-003;1.476676785387099E-003;
2.420333333333334E+009;1.540387272834778E-001;-9.781607985496521E-002;-6.217427551746368E-003;1.565068494528532E-003;
2.420500000000000E+009;1.540978848934174E-001;-9.743312001228333E-002;-6.060162093490362E-003;1.737976912409067E-003;
2.420666666666667E+009;1.539762765169144E-001;-9.733258932828903E-002;-5.831269081681967E-003;2.033378696069121E-003;
2.420833333333334E+009;1.540011018514633E-001;-9.719038009643555E-002;-5.755989812314510E-003;2.078803488984704E-003;
2.421000000000000E+009;1.536736786365509E-001;-9.687776863574982E-002;-5.516511388123035E-003;2.119997283443809E-003;
2.421166666666667E+009;1.538192927837372E-001;-9.673249721527100E-002;-5.377891939133406E-003;2.185067627578974E-003;
2.421333333333334E+009;1.534306406974793E-001;-9.634432196617127E-002;-5.293485242873430E-003;2.263327362015843E-003;
2.421500000000000E+009;1.530450731515884E-001;-9.601478278636932E-002;-5.227149929851294E-003;2.354712923988700E-003;
2.421666666666667E+009;1.526840478181839E-001;-9.582155197858810E-002;-5.146240815520287E-003;2.335948869585991E-003;
2.421833333333334E+009;1.521639972925186E-001;-9.537176787853241E-002;-4.982933402061462E-003;2.506811171770096E-003;
2.422000000000000E+009;1.514598578214645E-001;-9.516314417123795E-002;-5.035846959799528E-003;2.616774290800095E-003;
2.422166666666667E+009;1.507278978824616E-001;-9.513564407825470E-002;-4.888772033154964E-003;2.761867595836520E-003;
2.422333333333334E+009;1.500151902437210E-001;-9.475637227296829E-002;-4.800257273018360E-003;2.834564540535212E-003;
2.422500000000000E+009;1.488642990589142E-001;-9.447659552097321E-002;-4.682122264057398E-003;2.967104315757752E-003;
2.422666666666667E+009;1.477112025022507E-001;-9.446191787719727E-002;-4.594774451106787E-003;3.126204712316394E-003;
2.422833333333334E+009;1.465928405523300E-001;-9.423878788948059E-002;-4.555009771138430E-003;3.263847203925252E-003;
2.423000000000000E+009;1.454624384641647E-001;-9.416099637746811E-002;-4.500859882682562E-003;3.200678853318095E-003;
2.423166666666667E+009;1.441979855298996E-001;-9.416103363037109E-002;-4.313713870942593E-003;3.472687210887671E-003;
2.423333333333334E+009;1.429082453250885E-001;-9.402354061603546E-002;-4.142816644161940E-003;3.443130757659674E-003;
2.423500000000000E+009;1.410625576972961E-001;-9.416189044713974E-002;-4.030314274132252E-003;3.671897575259209E-003;
2.423666666666667E+009;1.397043615579605E-001;-9.434094280004501E-002;-3.823305247351527E-003;3.653901396319270E-003;
2.423833333333334E+009;1.382790654897690E-001;-9.445836395025253E-002;-3.727560164406896E-003;3.742868080735207E-003;
2.424000000000000E+009;1.366882324218750E-001;-9.451819211244583E-002;-3.605844918638468E-003;3.849194850772619E-003;
2.424166666666667E+009;1.351270824670792E-001;-9.483888745307922E-002;-3.242134815081954E-003;3.874407149851322E-003;
2.424333333333334E+009;1.337203681468964E-001;-9.534741938114166E-002;-3.038290189579129E-003;3.983411937952042E-003;
2.424500000000000E+009;1.322455406188965E-001;-9.586544334888458E-002;-3.092981176450849E-003;4.003406036645174E-003;
2.424666666666667E+009;1.309600621461868E-001;-9.641426801681519E-002;-2.773410407826304E-003;3.986613824963570E-003;
2.424833333333334E+009;1.294669359922409E-001;-9.697304666042328E-002;-2.586187561973929E-003;4.025892354547977E-003;
2.425000000000000E+009;1.281181424856186E-001;-9.788823872804642E-002;-2.473386004567146E-003;3.921787720173597E-003;
2.425166666666667E+009;1.265908330678940E-001;-9.877857565879822E-002;-2.348563168197870E-003;3.819949924945831E-003;
2.425333333333334E+009;1.253771781921387E-001;-9.968394786119461E-002;-2.146896673366427E-003;3.774821525439620E-003;
2.425500000000000E+009;1.242984160780907E-001;-1.008911952376366E-001;-2.094804542139173E-003;3.761571599170566E-003;
2.425666666666667E+009;1.229698285460472E-001;-1.020887121558189E-001;-1.798358280211687E-003;3.820048179477453E-003;
2.425833333333334E+009;1.218634322285652E-001;-1.032986417412758E-001;-1.739886123687029E-003;3.625246696174145E-003;
2.426000000000000E+009;1.208390146493912E-001;-1.046852841973305E-001;-1.752830925397575E-003;3.628837643191218E-003;
2.426166666666667E+009;1.200818195939064E-001;-1.061309278011322E-001;-1.788657973520458E-003;3.660309361293912E-003;
2.426333333333334E+009;1.190377101302147E-001;-1.074963659048080E-001;-1.665574149228633E-003;3.596318652853370E-003;
2.426500000000000E+009;1.183964684605598E-001;-1.090852618217468E-001;-1.545762526802719E-003;3.392037469893694E-003;
2.426666666666667E+009;1.177856847643852E-001;-1.105044260621071E-001;-1.509201014414430E-003;3.314590081572533E-003;
2.426833333333334E+009;1.169839203357697E-001;-1.121175438165665E-001;-1.315118744969368E-003;3.203041385859251E-003;
2.427000000000000E+009;1.165075302124023E-001;-1.139456182718277E-001;-1.344038173556328E-003;3.183335531502962E-003;
2.427166666666667E+009;1.160411536693573E-001;-1.153811663389206E-001;-1.321787829510868E-003;3.098793560639024E-003;
2.427333333333334E+009;1.154893040657044E-001;-1.170460954308510E-001;-1.282047131098807E-003;3.060325980186462E-003;
2.427500000000000E+009;1.153834238648415E-001;-1.187163069844246E-001;-1.323080854490399E-003;3.015209222212434E-003;
2.427666666666667E+009;1.150589212775230E-001;-1.201810389757156E-001;-1.268029445782304E-003;2.939013764262199E-003;
