# Version 1.00
#
freq[Hz];re:Trc1_S11;im:Trc1_S11;re:Trc2_S21;im:Trc2_S21;
2.400000000000000E+009;1.730274707078934E-001;4.868256673216820E-002;1.050652470439673E-003;3.395241918042302E-003;
2.400166666666667E+009;1.736350655555725E-001;4.796523600816727E-002;8.498996030539274E-004;3.287717001512647E-003;
2.400333333333334E+009;1.740572750568390E-001;4.718197137117386E-002;8.627236820757389E-004;3.286046208813787E-003;
2.400500000000000E+009;1.746038347482681E-001;4.669336974620819E-002;7.808155496604741E-004;3.223507199436426E-003;
2.400666666666667E+009;1.748655438423157E-001;4.608285799622536E-002;7.936806650832295E-004;3.122331807389855E-003;
2.400833333333334E+009;1.753676980733872E-001;4.557261615991592E-002;8.832518360577524E-004;3.137679072096944E-003;
2.401000000000000E+009;1.757217347621918E-001;4.497145488858223E-002;6.392060313373804E-004;3.136758459731937E-003;
2.401166666666667E+009;1.760192066431046E-001;4.424346983432770E-002;7.376556168310344E-004;3.113416023552418E-003;
2.401333333333334E+009;1.759393662214279E-001;4.364921525120735E-002;6.943008629605174E-004;3.209751565009356E-003;
2.401500000000000E+009;1.762135773897171E-001;4.292944818735123E-002;7.052395958453417E-004;3.244286403059959E-003;
2.401666666666667E+009;1.764176189899445E-001;4.244493320584297E-002;7.609765743836761E-004;3.441043896600604E-003;
2.401833333333334E+009;1.762941032648087E-001;4.188128933310509E-002;7.049461710266769E-004;3.491395851597190E-003;
2.402000000000000E+009;1.759684085845947E-001;4.107867926359177E-002;7.980727823451161E-004;3.641026327386499E-003;
2.402166666666667E+009;1.760394573211670E-001;4.029335826635361E-002;8.783924859017134E-004;3.618485527113080E-003;
2.402333333333334E+009;1.757960170507431E-001;3.935999795794487E-002;9.867567569017410E-004;3.752321237698197E-003;
2.402500000000000E+009;1.759256869554520E-001;3.852103650569916E-002;1.230239751748741E-003;3.949212376028299E-003;
2.402666666666667E+009;1.755497157573700E-001;3.745375946164131E-002;1.354634761810303E-003;3.890670835971832E-003;
2.402833333333334E+009;1.751081049442291E-001;3.636264428496361E-002;1.577642397023737E-003;4.010419361293316E-003;
2.403000000000000E+009;1.748960018157959E-001;3.513569757342339E-002;1.719148713164032E-003;3.978671971708536E-003;
2.403166666666667E+009;1.745564788579941E-001;3.403230011463165E-002;1.707517891190946E-003;4.110308364033699E-003;
2.403333333333334E+009;1.743009090423584E-001;3.264789283275604E-002;1.815636409446597E-003;4.163241479545832E-003;
2.403500000000000E+009;1.738021671772003E-001;3.118213638663292E-002;2.176520414650440E-003;4.093239549547434E-003;
2.403666666666667E+009;1.734582781791687E-001;2.963212877511978E-002;2.253937302157283E-003;4.065183456987143E-003;
2.403833333333334E+009;1.731245666742325E-001;2.789905481040478E-002;2.406640909612179E-003;4.063005559146404E-003;
2.404000000000000E+009;1.727348715066910E-001;2.635993808507919E-002;2.670706482604146E-003;4.012233112007380E-003;
2.404166666666667E+009;1.721061319112778E-001;2.445217408239842E-002;2.739781979471445E-003;4.040135070681572E-003;
2.404333333333334E+009;1.717696487903595E-001;2.272999286651611E-002;2.879305044189096E-003;3.864858066663146E-003;
2.404500000000000E+009;1.712923496961594E-001;2.091289125382900E-002;3.239133860915899E-003;3.761838190257549E-003;
2.404666666666667E+009;1.709812283515930E-001;1.883481442928314E-002;3.546331077814102E-003;3.688771510496736E-003;
2.404833333333334E+009;1.707807332277298E-001;1.708314381539822E-002;3.609397681429982E-003;3.720889333635569E-003;
2.405000000000000E+009;1.704392135143280E-001;1.505207270383835E-002;3.591929096728563E-003;3.745782887563109E-003;
2.405166666666667E+009;1.703210771083832E-001;1.300561055541039E-002;3.968686796724796E-003;3.571845823898912E-003;
2.405333333333334E+009;1.702320873737335E-001;1.087308861315250E-002;4.125718493014574E-003;3.496874589473009E-003;
2.405500000000000E+009;1.703112721443176E-001;8.980893529951572E-003;4.306760150939226E-003;3.395808162167668E-003;
2.405666666666667E+009;1.702434867620468E-001;6.869313772767782E-003;4.591388627886772E-003;3.122147871181369E-003;
2.405833333333334E+009;1.701918393373489E-001;4.845161456614733E-003;4.621969070285559E-003;3.049460938200355E-003;
2.406000000000000E+009;1.704952567815781E-001;2.663354855030775E-003;4.908499307930470E-003;2.962745260447264E-003;
2.406166666666667E+009;1.706393212080002E-001;6.419860874302685E-004;5.018847528845072E-003;2.612906973809004E-003;
2.406333333333334E+009;1.710936278104782E-001;-1.360828755423427E-003;5.156126338988543E-003;2.460538642480969E-003;
2.406500000000000E+009;1.714460104703903E-001;-3.575817914679647E-003;5.425334442406893E-003;2.347802976146340E-003;
2.406666666666667E+009;1.718857437372208E-001;-5.512136500328779E-003;5.408776924014092E-003;2.220981288701296E-003;
2.406833333333334E+009;1.723642200231552E-001;-7.564051076769829E-003;5.633103661239147E-003;1.843136618845165E-003;
2.407000000000000E+009;1.729581952095032E-001;-9.549608454108238E-003;5.781344138085842E-003;1.669392688199878E-003;
2.407166666666667E+009;1.737755388021469E-001;-1.144719589501619E-002;5.859081633388996E-003;1.326997298747301E-003;
2.407333333333334E+009;1.743399053812027E-001;-1.338216941803694E-002;5.976151209324598E-003;1.180114224553108E-003;
2.407500000000000E+009;1.750184446573257E-001;-1.525760442018509E-002;5.973888095468283E-003;8.659776067361236E-004;
2.407666666666667E+009;1.757459044456482E-001;-1.694063656032085E-002;6.168226245790720E-003;4.450569686014205E-004;
2.407833333333334E+009;1.764021217823029E-001;-1.877956837415695E-002;6.201069336384535E-003;1.776184944901615E-004;
2.408000000000000E+009;1.772674173116684E-001;-2.064738795161247E-002;6.231341511011124E-003;-9.760964167071506E-005;
2.408166666666667E+009;1.780390590429306E-001;-2.209238521754742E-002;6.229783408343792E-003;-4.423127393238246E-004;
2.408333333333334E+009;1.788984686136246E-001;-2.372521162033081E-002;6.207635626196861E-003;-8.166702464222908E-004;
2.408500000000000E+009;1.794781237840653E-001;-2.519487403333187E-002;6.095077842473984E-003;-1.199828810058534E-003;
2.408666666666667E+009;1.800591498613358E-001;-2.644674107432365E-002;5.893841851502657E-003;-1.502968254499137E-003;
2.408833333333334E+009;1.805685460567474E-001;-2.785072475671768E-002;5.746316164731979E-003;-1.758401282131672E-003;
2.409000000000000E+009;1.813080012798309E-001;-2.880183979868889E-002;5.607772618532181E-003;-2.073823008686304E-003;
2.409166666666667E+009;1.818381100893021E-001;-2.995854616165161E-002;5.467668175697327E-003;-2.341938903555274E-003;
2.409333333333334E+009;1.822957843542099E-001;-3.092925250530243E-002;5.015765782445669E-003;-2.537189517170191E-003;
2.409500000000000E+009;1.826188564300537E-001;-3.178398683667183E-002;5.052668508142233E-003;-2.640287857502699E-003;
2.409666666666667E+009;1.829795539379120E-001;-3.249000012874603E-002;4.671564791351557E-003;-2.866811351850629E-003;
2.409833333333334E+009;1.831694990396500E-001;-3.312817215919495E-002;4.596425220370293E-003;-3.023269819095731E-003;
2.410000000000000E+009;1.835067570209503E-001;-3.354614600539208E-002;4.287839867174625E-003;-3.108799690380693E-003;
2.410166666666667E+009;1.837351471185684E-001;-3.403534367680550E-002;4.202438518404961E-003;-3.294149180874229E-003;
2.410333333333334E+009;1.839097887277603E-001;-3.435574471950531E-002;4.093770403414965E-003;-3.311282955110073E-003;
2.410500000000000E+009;1.839840263128281E-001;-3.469932451844215E-002;3.899795236065984E-003;-3.296284237876535E-003;
2.410666666666667E+009;1.840357482433319E-001;-3.505191206932068E-002;3.512026509270072E-003;-3.485857043415308E-003;
2.410833333333334E+009;1.839524358510971E-001;-3.525643795728684E-002;3.539519151672721E-003;-3.525584004819393E-003;
2.411000000000000E+009;1.836375743150711E-001;-3.558539599180222E-002;3.446501214057207E-003;-3.504806431010366E-003;
2.411166666666667E+009;1.834306716918945E-001;-3.588794544339180E-002;3.065828699618578E-003;-3.733615390956402E-003;
2.411333333333334E+009;1.831435859203339E-001;-3.611604496836662E-002;3.048745216801763E-003;-3.592721186578274E-003;
2.411500000000000E+009;1.827340275049210E-001;-3.640110790729523E-002;2.818692009896040E-003;-3.563520498573780E-003;
2.411666666666667E+009;1.823261827230454E-001;-3.681833669543266E-002;2.694509690627456E-003;-3.729532239958644E-003;
2.411833333333334E+009;1.816791146993637E-001;-3.700839355587959E-002;2.505565294995904E-003;-3.683757735416293E-003;
2.412000000000000E+009;1.810272634029388E-001;-3.748092427849770E-002;2.484525553882122E-003;-3.625852055847645E-003;
2.412166666666667E+009;1.802209019660950E-001;-3.785337880253792E-002;2.265216084197164E-003;-3.571718931198120E-003;
2.412333333333334E+009;1.793067008256912E-001;-3.831350430846214E-002;2.180180978029966E-003;-3.723806701600552E-003;
2.412500000000000E+009;1.781818568706513E-001;-3.880432993173599E-002;2.026757691055536E-003;-3.581021912395954E-003;
2.412666666666667E+009;1.772378087043762E-001;-3.950845450162888E-002;1.761732390150428E-003;-3.691351274028420E-003;
2.412833333333334E+009;1.761641204357147E-001;-4.010829329490662E-002;1.695362385362387E-003;-3.715232247486711E-003;
2.413000000000000E+009;1.749579012393951E-001;-4.062382131814957E-002;1.694563776254654E-003;-3.620201256126165E-003;
2.413166666666667E+009;1.735462844371796E-001;-4.153909161686897E-002;1.632470404729247E-003;-3.364817472174764E-003;
2.413333333333334E+009;1.722229570150375E-001;-4.226442426443100E-002;1.632241299375892E-003;-3.694730345159769E-003;
2.413500000000000E+009;1.711552739143372E-001;-4.331906139850617E-002;1.462743384763598E-003;-3.278052201494575E-003;
2.413666666666667E+009;1.698064953088760E-001;-4.433073475956917E-002;1.461402163840830E-003;-3.514181589707732E-003;
2.413833333333334E+009;1.682258844375610E-001;-4.522406682372093E-002;1.385768759064376E-003;-3.296217182651162E-003;
2.414000000000000E+009;1.668853759765625E-001;-4.636112600564957E-002;1.329749473370612E-003;-3.309260122478008E-003;
2.414166666666667E+009;1.657474488019943E-001;-4.769409820437431E-002;1.369995181448758E-003;-3.429430071264505E-003;
2.414333333333334E+009;1.644194722175598E-001;-4.887831211090088E-002;1.273662783205509E-003;-3.352865576744080E-003;
2.414500000000000E+009;1.632370054721832E-001;-5.026418343186379E-002;1.223817816935480E-003;-3.280700184404850E-003;
2.414666666666667E+009;1.619576960802078E-001;-5.174507945775986E-002;1.383751165121794E-003;-3.387305419892073E-003;
2.414833333333334E+009;1.606848388910294E-001;-5.337458103895187E-002;1.000332878902555E-003;-3.422730602324009E-003;
2.415000000000000E+009;1.596185266971588E-001;-5.490972474217415E-002;1.409252407029271E-003;-3.395386040210724E-003;
2.415166666666667E+009;1.585133224725723E-001;-5.676019564270973E-002;1.304443343542516E-003;-3.480890765786171E-003;
2.415333333333334E+009;1.577327251434326E-001;-5.857292190194130E-002;1.229780260473490E-003;-3.351205727085471E-003;
2.415500000000000E+009;1.568492501974106E-001;-6.027841940522194E-002;1.346006640233100E-003;-3.600316587835550E-003;
2.415666666666667E+009;1.559780687093735E-001;-6.210542842745781E-002;1.363708055578172E-003;-3.594435518607497E-003;
2.415833333333334E+009;1.552200615406036E-001;-6.397539377212524E-002;1.181110390461981E-003;-3.638007212430239E-003;
2.416000000000000E+009;1.543642282485962E-001;-6.597699224948883E-002;1.197117380797863E-003;-3.698786953464150E-003;
2.416166666666667E+009;1.540492475032806E-001;-6.807360053062439E-002;1.108254073187709E-003;-3.759999526664615E-003;
2.416333333333334E+009;1.533682942390442E-001;-6.980214267969132E-002;1.071451464667916E-003;-3.931096754968166E-003;
2.416500000000000E+009;1.528577208518982E-001;-7.190109789371491E-002;1.211576978676021E-003;-4.004247952252626E-003;
2.416666666666667E+009;1.524504274129868E-001;-7.390616089105606E-002;1.081638503819704E-003;-4.211433697491884E-003;
2.416833333333334E+009;1.522625833749771E-001;-7.602724432945252E-002;8.673712145537138E-004;-4.325675778090954E-003;
2.417000000000000E+009;1.517430841922760E-001;-7.796265184879303E-002;6.555978907272220E-004;-4.450973123311997E-003;
2.417166666666667E+009;1.514465510845184E-001;-7.981564104557037E-002;6.635643658228219E-004;-4.599611740559340E-003;
2.417333333333334E+009;1.514460593461990E-001;-8.155421912670136E-002;6.180666969157755E-004;-4.646337125450373E-003;
2.417500000000000E+009;1.514026969671249E-001;-8.352626115083695E-002;5.126286996528506E-004;-4.880928434431553E-003;
2.417666666666667E+009;1.514041125774384E-001;-8.496806025505066E-002;2.865550341084600E-004;-4.945235792547464E-003;
2.417833333333334E+009;1.514211148023605E-001;-8.674034476280212E-002;5.062524724053219E-005;-5.072400439530611E-003;
2.418000000000000E+009;1.513249725103378E-001;-8.829092234373093E-002;-7.530747825512663E-005;-5.396434571594000E-003;
2.418166666666667E+009;1.514869928359985E-001;-8.957199752330780E-002;-2.764057426247746E-004;-5.471358075737953E-003;
2.418333333333334E+009;1.519104689359665E-001;-9.104408323764801E-002;-4.654949880205095E-004;-5.595046095550060E-003;
2.418500000000000E+009;1.519147008657455E-001;-9.218838810920715E-002;-8.629413205198944E-004;-5.617802496999502E-003;
2.418666666666667E+009;1.523527950048447E-001;-9.350670874118805E-002;-8.657737052999437E-004;-5.748580675572157E-003;
2.418833333333334E+009;1.523066610097885E-001;-9.448533505201340E-002;-1.334326225332916E-003;-5.769211798906326E-003;
2.419000000000000E+009;1.525404453277588E-001;-9.543125331401825E-002;-1.659092027693987E-003;-5.791880656033754E-003;
2.419166666666667E+009;1.528398245573044E-001;-9.599510580301285E-002;-2.001029206439853E-003;-5.869899876415730E-003;
2.419333333333334E+009;1.528300791978836E-001;-9.654532372951508E-002;-2.440689830109477E-003;-5.699869245290756E-003;
2.419500000000000E+009;1.533497571945190E-001;-9.728579968214035E-002;-2.680318895727396E-003;-5.748840980231762E-003;
2.419666666666667E+009;1.536643952131271E-001;-9.767130017280579E-002;-3.046029945835471E-003;-5.525432061403990E-003;
2.419833333333334E+009;1.536074131727219E-001;-9.782303869724274E-002;-3.272322705015540E-003;-5.472389515489340E-003;
2.420000000000000E+009;1.540339738130570E-001;-9.814073890447617E-002;-3.565976163372397E-003;-5.112393759191036E-003;
2.420166666666667E+009;1.541383862495422E-001;-9.819238632917404E-002;-4.079991485923529E-003;-5.100299604237080E-003;
2.420333333333334E+009;1.543263196945190E-001;-9.828447550535202E-002;-4.138907417654991E-003;-4.797840025275946E-003;
2.420500000000000E+009;1.544804275035858E-001;-9.801389276981354E-002;-4.454074427485466E-003;-4.432379268109798E-003;
2.420666666666667E+009;1.542220711708069E-001;-9.769999235868454E-002;-4.759991541504860E-003;-4.309106618165970E-003;
2.420833333333334E+009;1.544603556394577E-001;-9.755251556634903E-002;-4.802227020263672E-003;-4.061301704496145E-003;
2.421000000000000E+009;1.542307883501053E-001;-9.750106185674667E-002;-4.970492329448462E-003;-3.880890086293221E-003;
2.421166666666667E+009;1.541856378316879E-001;-9.706318378448486E-002;-5.151157733052969E-003;-3.649562597274780E-003;
2.421333333333334E+009;1.540092378854752E-001;-9.683366119861603E-002;-5.350391380488873E-003;-3.411830868571997E-003;
2.421500000000000E+009;1.534837484359741E-001;-9.628338366746903E-002;-5.457749124616385E-003;-3.111112164333463E-003;
2.421666666666667E+009;1.532001793384552E-001;-9.604606777429581E-002;-5.596760194748640E-003;-2.771721221506596E-003;
2.421833333333334E+009;1.527111977338791E-001;-9.575057774782181E-002;-5.698052700608969E-003;-2.608494600281119E-003;
2.422000000000000E+009;1.521548032760620E-001;-9.543190896511078E-002;-5.792490672320128E-003;-2.221017144620419E-003;
2.422166666666667E+009;1.512705683708191E-001;-9.508236497640610E-002;-5.873116664588451E-003;-1.901673851534724E-003;
2.422333333333334E+009;1.505320221185684E-001;-9.475867450237274E-002;-5.885062273591757E-003;-1.548186060972512E-003;
2.422500000000000E+009;1.496904492378235E-001;-9.448684751987457E-002;-5.986145697534084E-003;-1.338843256235123E-003;
2.422666666666667E+009;1.484255790710449E-001;-9.433692693710327E-002;-5.817692726850510E-003;-8.635299745947123E-004;
2.422833333333334E+009;1.473657488822937E-001;-9.409238398075104E-002;-5.999608896672726E-003;-6.228791316971183E-004;
2.423000000000000E+009;1.461255252361298E-001;-9.393188357353210E-002;-5.782467778772116E-003;-4.703891463577747E-004;
2.423166666666667E+009;1.449088156223297E-001;-9.380026906728745E-002;-5.751219578087330E-003;-8.834548498271033E-005;
2.423333333333334E+009;1.435736566781998E-001;-9.358429908752441E-002;-5.683821160346270E-003;3.473917313385755E-004;
2.423500000000000E+009;1.420402824878693E-001;-9.376081079244614E-002;-5.423014517873526E-003;4.774565750267357E-004;
2.423666666666667E+009;1.403881013393402E-001;-9.385466575622559E-002;-5.412252619862557E-003;5.399233778007329E-004;
2.423833333333334E+009;1.389617174863815E-001;-9.395717084407806E-002;-5.177570041269064E-003;6.865879986435175E-004;
2.424000000000000E+009;1.375256776809692E-001;-9.406445920467377E-002;-4.949891939759255E-003;9.715423220768571E-004;
2.424166666666667E+009;1.359149217605591E-001;-9.449208527803421E-002;-4.976563155651093E-003;9.426815668120980E-004;
2.424333333333334E+009;1.344439536333084E-001;-9.469583630561829E-002;-4.813174717128277E-003;1.138514722697437E-003;
2.424500000000000E+009;1.329201608896256E-001;-9.530079364776611E-002;-4.648841451853514E-003;1.365101197734475E-003;
2.424666666666667E+009;1.314373314380646E-001;-9.579847007989883E-002;-4.480804316699505E-003;1.412399229593575E-003;
2.424833333333334E+009;1.298124343156815E-001;-9.652901440858841E-002;-4.343941807746887E-003;1.589168095961213E-003;
2.425000000000000E+009;1.284644305706024E-001;-9.741382300853729E-002;-4.299500491470099E-003;1.657082699239254E-003;
2.425166666666667E+009;1.269196569919586E-001;-9.819893538951874E-002;-3.925816155970097E-003;1.620547962374985E-003;
2.425333333333334E+009;1.256596148014069E-001;-9.927207976579666E-002;-3.976230975240469E-003;1.795398187823594E-003;
2.425500000000000E+009;1.243715435266495E-001;-1.003674417734146E-001;-3.652902320027351E-003;1.706576324068010E-003;
2.425666666666667E+009;1.230120286345482E-001;-1.015229299664497E-001;-3.777047153562307E-003;1.933634979650378E-003;
2.425833333333334E+009;1.218220368027687E-001;-1.027229055762291E-001;-3.559838281944394E-003;1.960983499884605E-003;
2.426000000000000E+009;1.207481324672699E-001;-1.043445467948914E-001;-3.555904375389218E-003;1.900943578220904E-003;
2.426166666666667E+009;1.198705360293388E-001;-1.057454273104668E-001;-3.449777374044061E-003;2.015639562159777E-003;
2.426333333333334E+009;1.189731806516647E-001;-1.072505563497543E-001;-3.332785563543439E-003;2.005164744332433E-003;
2.426500000000000E+009;1.181181669235230E-001;-1.087099462747574E-001;-3.228396875783801E-003;2.216979861259460E-003;
2.426666666666667E+009;1.174835562705994E-001;-1.101783514022827E-001;-3.329192753881216E-003;2.002583583816886E-003;
2.426833333333334E+009;1.167608126997948E-001;-1.119877249002457E-001;-2.956707729026675E-003;2.124403603374958E-003;
2.427000000000000E+009;1.160584390163422E-001;-1.136414334177971E-001;-3.039084374904633E-003;2.180129988119006E-003;
2.427166666666667E+009;1.155567914247513E-001;-1.151946187019348E-001;-2.751430962234736E-003;2.263091737404466E-003;
2.427333333333334E+009;1.150685101747513E-001;-1.168243214488030E-001;-2.664091996848583E-003;2.362389583140612E-003;
2.427500000000000E+009;1.148659363389015E-001;-1.185210794210434E-001;-2.746798098087311E-003;2.364158164709806E-003;
2.427666666666667E+009;1.145304366946220E-001;-1.202432736754417E-001;-2.683852333575487E-003;2.232722006738186E-003;
