# Hz S RI R 50
2400000000.0000000000 0.158836305141449002364950615629 0.062726847827434539794921875000 -0.001643325784243643067003559644 -0.001699941465631126923802041162 0 0 0 0 
2400166666.6666665077 0.158605441451072692871093750000 0.061409328132867813110351562500 -0.001605805126018821976305317456 -0.001757032005116343931910849463 0 0 0 0 
2400333333.3333334923 0.158521190285682705978231865629 0.059476394206285476684570312500 -0.001525090658105910041211772388 -0.001784152234904468059539794922 0 0 0 0 
2400500000.0000000000 0.158416435122489901443643134371 0.057426571846008300781250000000 -0.001554476679302752017974853516 -0.001713831909000873999354697119 0 0 0 0 
2400666666.6666665077 0.158316373825073186676348768742 0.055639997124671942974050153907 -0.001582763390615582899806357275 -0.001762154512107372067095112378 0 0 0 0 
2400833333.3333334923 0.158434823155403109451455634371 0.053729303181171417236328125000 -0.001637513516470789909362792969 -0.001726112910546361966374062646 0 0 0 0 
2401000000.0000000000 0.158489957451820401290731865629 0.051711194217205047607421875000 -0.001543174497783184051513671875 -0.001836420735344290950177836841 0 0 0 0 
2401166666.6666665077 0.158586084842681912521200615629 0.049547415226697921752929687500 -0.001751787145622075037715292822 -0.001769618946127593950984335791 0 0 0 0 
2401333333.3333334923 0.158659026026725796798544365629 0.047710593789815902709960937500 -0.001679393695667386054992675781 -0.001730721560306847095489501953 0 0 0 0 
2401500000.0000000000 0.158895477652549688141192518742 0.045584246516227722167968750000 -0.001617709291167557022692036206 -0.001727428869344294071197509766 0 0 0 0 
2401666666.6666665077 0.159056738018989590743856865629 0.043591428548097610473632812500 -0.001699952525086700916290283203 -0.001679618377238512039184570312 0 0 0 0 
2401833333.3333334923 0.159543797373771695236044365629 0.041381530463695533061940778907 -0.001917422516271471977233886719 -0.001734250108711421923396445166 0 0 0 0 
2402000000.0000000000 0.159793466329574612716513115629 0.039581440389156341552734375000 -0.001749509247019886970520019531 -0.001813516137190162918688129956 0 0 0 0 
2402166666.6666665077 0.160302534699440002441406250000 0.037472657859325408935546875000 -0.001871720305643975951551127856 -0.001818825607188045978546142578 0 0 0 0 
2402333333.3333334923 0.160705223679542513748330634371 0.035684879869222640991210937500 -0.001809947891160845973371196216 -0.001907974365167319991468120044 0 0 0 0 
2402500000.0000000000 0.161518290638923700530682481258 0.033791754394769668579101562500 -0.001831062370911241011378622900 -0.001968005439266562895533896338 0 0 0 0 
2402666666.6666665077 0.162088289856910705566406250000 0.032047215849161148071289062500 -0.001882857410237193107604980469 -0.001917170011438428921940468896 0 0 0 0 
2402833333.3333334923 0.162615537643432589431924384371 0.030346950516104701650599295704 -0.002164887497201561927795410156 -0.001943266834132372899296425928 0 0 0 0 
2403000000.0000000000 0.163479492068290710449218750000 0.028619946911931041372278983204 -0.002122554695233703093287802588 -0.001929588266648351929308247144 0 0 0 0 
2403166666.6666665077 0.164444699883460998535156250000 0.026969280093908309936523437500 -0.002361465711146593093872070312 -0.001806864747777580998064350659 0 0 0 0 
2403333333.3333334923 0.165329352021217401702557481258 0.025395851582288738595982735546 -0.002369659254327415986302041162 -0.002134173410013318061828613281 0 0 0 0 
2403500000.0000000000 0.165954068303108187576455634371 0.024004925042390819894810860546 -0.002497696550562977790832519531 -0.001962631009519100189208984375 0 0 0 0 
2403666666.6666665077 0.167087838053703308105468750000 0.022649001330137249338170235546 -0.002591440686956048011779785156 -0.001855608890764415047289204175 0 0 0 0 
2403833333.3333334923 0.168042600154876708984375000000 0.021126994863152500497838204296 -0.002735797083005309104919433594 -0.001910384045913815932032919775 0 0 0 0 
2404000000.0000000000 0.168913006782531710525674384371 0.020040240138769149780273437500 -0.002812646562233566804173134912 -0.001895553781650960011723183740 0 0 0 0 
2404166666.6666665077 0.169990107417106600662393134371 0.018654093146324161184290701954 -0.002823531394824386076686240088 -0.001708543160930275917053222656 0 0 0 0 
2404333333.3333334923 0.170803204178810091873330634371 0.017731722444295879709263985546 -0.003084639552980660958531045068 -0.001814499148167669989942241138 0 0 0 0 
2404500000.0000000000 0.171804174780845586578692518742 0.016573898494243618356724923046 -0.003209145739674568176269531250 -0.001720125437714159922358847510 0 0 0 0 
2404666666.6666665077 0.172748684883117703536825615629 0.015739679336547851562500000000 -0.003406065981835126876831054688 -0.001492459559813142039655375903 0 0 0 0 
2404833333.3333334923 0.173743888735771206954794365629 0.014955145306885240727434727148 -0.003547996515408157868626259912 -0.001520896679721773104426718604 0 0 0 0 
2405000000.0000000000 0.174523860216140802581463731258 0.014114094898104669398297694727 -0.003603653516620398001429892432 -0.001174599747173487923265766675 0 0 0 0 
2405166666.6666665077 0.175455689430236788650674384371 0.013272698037326339376429373829 -0.003702115500345826148986816406 -0.001148609095253049893620156396 0 0 0 0 
2405333333.3333334923 0.176364660263061495681924384371 0.012530783191323280334472656250 -0.003834695089608430862426757812 -0.001082210219465195915819477612 0 0 0 0 
2405500000.0000000000 0.177030622959136990646200615629 0.012145173735916619736641131055 -0.003790969494730234146118164062 -0.000714947702363133430480957031 0 0 0 0 
2405666666.6666665077 0.177741289138794000823651231258 0.011672248132526879746406756055 -0.003863438498228787942173623193 -0.000514727900736033916473388672 0 0 0 0 
2405833333.3333334923 0.178414553403854397872763115629 0.011287194676697250711461251171 -0.003946842160075902938842773438 -0.000472205720143392682075500488 0 0 0 0 
2406000000.0000000000 0.179083198308944702148437500000 0.010726745240390300750732421875 -0.003728435840457677841186523438 -0.000512760598212480653464162561 0 0 0 0 
2406166666.6666665077 0.179423317313194302657919365629 0.010356007143855100113838396680 -0.004037059843540191650390625000 -0.000276635284535586779743748798 0 0 0 0 
2406333333.3333334923 0.180105984210967989822549384371 0.010064046829938890284528163477 -0.004020735155791044235229492188 0.000032596213713986799120903015 0 0 0 0 
2406500000.0000000000 0.180400803685188293457031250000 0.009714976884424686431884765625 -0.003813797375187277793884277344 -0.000031770847272127866744995117 0 0 0 0 
2406666666.6666665077 0.180591717362403897384481865629 0.009327111765742301940917968750 -0.003969635348767042160034179688 0.000278961262665688991546630859 0 0 0 0 
2406833333.3333334923 0.180838778614997891525106865629 0.008980228565633296966552734375 -0.003731220494955778121948242188 0.000504979281686246395111083984 0 0 0 0 
2407000000.0000000000 0.181078463792800903320312500000 0.008698716759681701660156250000 -0.003683252027258276939392089844 0.000464007345726713483959752216 0 0 0 0 
2407166666.6666665077 0.181104540824890108963174384371 0.008299831300973892211914062500 -0.003780806437134743170497275244 0.000689374981448054313659667969 0 0 0 0 
2407333333.3333334923 0.181012973189353887359942518742 0.007700140122324228286743164062 -0.003703534137457609176635742188 0.000850333424750715494155883789 0 0 0 0 
2407500000.0000000000 0.180858924984932001311932481258 0.007473770529031754407400800488 -0.003695540595799684958217001807 0.000910924340132623910903930664 0 0 0 0 
2407666666.6666665077 0.180713176727294894119424384371 0.007063630502671003341674804688 -0.003704410279169679121730185400 0.001096876105293631987330771338 0 0 0 0 
2407833333.3333334923 0.180292978882789611816406250000 0.006347503513097763061523437500 -0.003704930189996958212611533057 0.001148711889982223944423056494 0 0 0 0 
2408000000.0000000000 0.179941698908805902679119981258 0.005783560685813426971435546875 -0.003501606639474629922154091943 0.001278649899177253029466938550 0 0 0 0 
2408166666.6666665077 0.179574310779571505447549384371 0.005357843823730945587158203125 -0.003667373675853013992309570312 0.001352033927105366966844868237 0 0 0 0 
2408333333.3333334923 0.179392188787460299392861884371 0.004657243378460407257080078125 -0.003503519808873534202575683594 0.001401908579282463030574179541 0 0 0 0 
2408500000.0000000000 0.178686589002609308440838731258 0.003818606492131948904750204932 -0.003492241026833653883693076025 0.001483310479670763015747070312 0 0 0 0 
2408666666.6666665077 0.178136944770812988281250000000 0.003055935259908438162562704932 -0.003319730283692479133605957031 0.001547516789287328936933207935 0 0 0 0 
2408833333.3333334923 0.177503123879432705978231865629 0.002089333022013307051417685400 -0.003363451920449734167811728369 0.001555963768623769066454243237 0 0 0 0 
2409000000.0000000000 0.176823973655700711349325615629 0.001291492604650557041168212891 -0.003363785566762090162989951025 0.001710336306132375977159809644 0 0 0 0 
2409166666.6666665077 0.176174148917198208907919365629 0.000094811643066350370645523071 -0.003364711534231901168823242188 0.001800370169803499958635639722 0 0 0 0 
2409333333.3333334923 0.175633415579795809646768134371 -0.001220180303789675018907856519 -0.003330472158268094062805175781 0.001748965703882277011871337891 0 0 0 0 
2409500000.0000000000 0.174708291888236999511718750000 -0.002424150472506881193873740088 -0.003335826331749558015110634912 0.001897021313197911002515483325 0 0 0 0 
2409666666.6666665077 0.174084797501563998123330634371 -0.003646779339760541915893554688 -0.003238931763917208151576376807 0.001953877042979001998901367188 0 0 0 0 
2409833333.3333334923 0.173364490270614596267861884371 -0.004838420078158378601074218750 -0.003196058329194784164428710938 0.002140470081940292878391884912 0 0 0 0 
2410000000.0000000000 0.172893896698951693435830634371 -0.006406966131180524826049804688 -0.003268480766564608053920126807 0.002084379782900214195251464844 0 0 0 0 
2410166666.6666665077 0.172172307968139703948651231258 -0.007882502861320972442626953125 -0.003151156241074204011204384912 0.002257795073091983795166015625 0 0 0 0 
2410333333.3333334923 0.171596527099609402755575615629 -0.009547836147248744964599609375 -0.003182654269039630889892578125 0.002325534122064710097071982275 0 0 0 0 
2410500000.0000000000 0.170972079038619995117187500000 -0.011093187145888810593574724805 -0.003123803529888391928431845557 0.002532876562327146963832236182 0 0 0 0 
2410666666.6666665077 0.170381173491477994064169365629 -0.012992952018976209813128086523 -0.003040750743821262879612588037 0.002559581305831671194789267432 0 0 0 0 
2410833333.3333334923 0.169899523258209200760049384371 -0.014516984112560750788678554102 -0.003002023324370384216308593750 0.002747749444097280936000204932 0 0 0 0 
2411000000.0000000000 0.169407755136489895919638115629 -0.016355570405721660959263985546 -0.003004235215485095977783203125 0.002585041336715220971348427881 0 0 0 0 
2411166666.6666665077 0.169022142887115506271200615629 -0.018298637121915820730189139454 -0.003075957531109451813938759912 0.002874784404411911964416503906 0 0 0 0 
2411333333.3333334923 0.168811395764350891113281250000 -0.019964123144745830190638358204 -0.002962961560115218162536621094 0.002749207895249127907993935693 0 0 0 0 
2411500000.0000000000 0.168478325009346008300781250000 -0.022063760086894038808802420704 -0.002764210570603609085083007812 0.003013529349118471145629882812 0 0 0 0 
2411666666.6666665077 0.168241262435913113693075615629 -0.023982532322406768798828125000 -0.002920044120401144027709960938 0.003162339795380831198451376807 0 0 0 0 
2411833333.3333334923 0.168366104364395113845986884371 -0.025819268077611919748326485546 -0.002777073066681623892543173682 0.003319634124636650085449218750 0 0 0 0 
2412000000.0000000000 0.168362721800804110428018134371 -0.027796139940619468688964843750 -0.002704848302528262138366699219 0.003389309160411357879638671875 0 0 0 0 
2412166666.6666665077 0.168279126286506708343182481258 -0.029715375974774360656738281250 -0.002441871212795377211329794775 0.003484137821942567825317382812 0 0 0 0 
2412333333.3333334923 0.168675437569618197342080634371 -0.031507425010204322124440778907 -0.002485945820808411078212118994 0.003432127414271235899684286963 0 0 0 0 
2412500000.0000000000 0.168539687991142300704794365629 -0.033480051904916763305664062500 -0.002466161968186498121974326025 0.003627200145274401144740439307 0 0 0 0 
2412666666.6666665077 0.168952375650405911544638115629 -0.035320326685905456542968750000 -0.002352504059672356085536337744 0.003870050888508557839634560693 0 0 0 0 
2412833333.3333334923 0.169236764311790494064169365629 -0.037265002727508551860768903907 -0.002250491408631205992457724463 0.003987462259829044342041015625 0 0 0 0 
2413000000.0000000000 0.169510647654533386230468750000 -0.039043571799993521953542341407 -0.002034910954535007910487509619 0.004063229542225599288940429688 0 0 0 0 
2413166666.6666665077 0.169812917709350613693075615629 -0.040741503238677978515625000000 -0.001840329845435916943791054834 0.004251213278621435165405273438 0 0 0 0 
2413333333.3333334923 0.170175075531005887130575615629 -0.042415242642164230346679687500 -0.001882020616903901100158691406 0.004192571621388196945190429688 0 0 0 0 
2413500000.0000000000 0.170812293887138394454794365629 -0.044096253812313079833984375000 -0.001704344875179230949999165112 0.004316217266023159027099609375 0 0 0 0 
2413666666.6666665077 0.171510413289070101638955634371 -0.045727234333753592754323591407 -0.001417155261151493029353476416 0.004383363761007785797119140625 0 0 0 0 
2413833333.3333334923 0.171816527843475286285723768742 -0.047185495495796196674387346093 -0.001315952511504292921779013525 0.004591617267578840255737304688 0 0 0 0 
2414000000.0000000000 0.172348871827125604827557481258 -0.048749938607215881347656250000 -0.001291512162424623966217041016 0.004560852423310279846191406250 0 0 0 0 
2414166666.6666665077 0.173004582524299593826455634371 -0.050069376826286322856862653907 -0.001015406567603349902509379810 0.004686493892222642898559570312 0 0 0 0 
2414333333.3333334923 0.173442617058753995040731865629 -0.051335893571376800537109375000 -0.000859864871017634868621826172 0.004693819209933280944824218750 0 0 0 0 
2414500000.0000000000 0.174194663763046292404013115629 -0.052618466317653662944753278907 -0.000664460007101297378540039062 0.004754330497235059738159179688 0 0 0 0 
2414666666.6666665077 0.174640566110610989669638115629 -0.053538754582405090332031250000 -0.000514040060807019472122192383 0.004764487035572528839111328125 0 0 0 0 
2414833333.3333334923 0.175056919455528287032919365629 -0.054714798927307128906250000000 -0.000356951146386563777923583984 0.004895756952464581403250409863 0 0 0 0 
2415000000.0000000000 0.175442308187484713455361884371 -0.055649559944868087768554687500 -0.000260722386883571689755040302 0.004805411212146282196044921875 0 0 0 0 
2415166666.6666665077 0.175901487469673212249432481258 -0.056287474930286407470703125000 -0.000004270504177839029580354691 0.004763061646372079849243164062 0 0 0 0 
2415333333.3333334923 0.176416277885437011718750000000 -0.057216156274080283428151716407 0.000250247423537075519561767578 0.004745087120682001113891601562 0 0 0 0 
2415500000.0000000000 0.176802724599838312347088731258 -0.057877086102962486957590471093 0.000345295586157590205043238507 0.004867518786340951919555664062 0 0 0 0 
2415666666.6666665077 0.177032053470611600021200615629 -0.058439590036869049072265625000 0.000467779609607532620429992676 0.004724474623799324035644531250 0 0 0 0 
2415833333.3333334923 0.177388474345207186599893134371 -0.059008773416280753398854841407 0.000697597221005707979202270508 0.004752789158374071121215820312 0 0 0 0 
2416000000.0000000000 0.177485898137092590332031250000 -0.059604488313198089599609375000 0.000825782888568937778472900391 0.004644308704882860183715820312 0 0 0 0 
2416166666.6666665077 0.177614718675613403320312500000 -0.060001999139785766601562500000 0.001045698067173361995099711841 0.004754145164042711257934570312 0 0 0 0 
2416333333.3333334923 0.177759870886802701095419365629 -0.060214597731828689575195312500 0.001152610871940850994707417065 0.004712166730314493179321289062 0 0 0 0 
2416500000.0000000000 0.177678599953651400467080634371 -0.060540899634361267089843750000 0.001330954022705554962158203125 0.004618261475116015347952558301 0 0 0 0 
2416666666.6666665077 0.177426323294639587402343750000 -0.060775194317102432250976562500 0.001530729117803276018855429541 0.004526896402239800366873456738 0 0 0 0 
2416833333.3333334923 0.177458584308624295333700615629 -0.061263270676136016845703125000 0.001699260435998440005658793872 0.004502420313656330108642578125 0 0 0 0 
2417000000.0000000000 0.176837787032127408126669365629 -0.061520423740148537372629533593 0.001837400253862142996547079932 0.004367054905742406845092773438 0 0 0 0 
2417166666.6666665077 0.176527902483940096756143134371 -0.061741139739751822734792341407 0.001866221311502159075496054541 0.004429514054208993911743164062 0 0 0 0 
2417333333.3333334923 0.175982892513275201995526231258 -0.061888024210929870605468750000 0.002062395680695772171020507812 0.004438738338649272918701171875 0 0 0 0 
2417500000.0000000000 0.175484955310821505447549384371 -0.062340110540390021587331403907 0.001966103445738554000854492188 0.004198316950350999832153320312 0 0 0 0 
2417666666.6666665077 0.174938738346099909026776231258 -0.062459181994199752807617187500 0.002291138516739010810852050781 0.004141839221119880676269531250 0 0 0 0 
2417833333.3333334923 0.174060434103012112716513115629 -0.062642559409141540527343750000 0.002357018878683447837829589844 0.003944384399801492691040039062 0 0 0 0 
2418000000.0000000000 0.173150718212127713302450615629 -0.063255935907363891601562500000 0.002429332816973329024073935400 0.004055579192936419573312090137 0 0 0 0 
2418166666.6666665077 0.172381475567817687988281250000 -0.063334323465824127197265625000 0.002514071995392442183253622900 0.003730572294443846182582236182 0 0 0 0 
2418333333.3333334923 0.171603500843048095703125000000 -0.063870400190353393554687500000 0.002617302350699902014491415869 0.003908906597644090652465820312 0 0 0 0 
2418500000.0000000000 0.170418500900268610198651231258 -0.064177952706813812255859375000 0.002715097274631261825561523438 0.003609266597777605056762695312 0 0 0 0 
2418666666.6666665077 0.169583573937416104415731865629 -0.064674362540245056152343750000 0.002736775670200585885288857568 0.003676996566355227990391396631 0 0 0 0 
2418833333.3333334923 0.168245777487754794021768134371 -0.065153285861015319824218750000 0.002800647169351578192469931494 0.003619760507717729048487997900 0 0 0 0 
2419000000.0000000000 0.167063057422637911697549384371 -0.065682493150234222412109375000 0.003021767595782876014709472656 0.003619037568569182915928506006 0 0 0 0 
2419166666.6666665077 0.165959119796752901931924384371 -0.066418506205081939697265625000 0.002992456546053289933445595850 0.003605987876653670830967568506 0 0 0 0 
2419333333.3333334923 0.164557754993438692947549384371 -0.067036159336566925048828125000 0.003017053939402102990391396631 0.003388402052223681969883584131 0 0 0 0 
2419500000.0000000000 0.163557440042495699783486884371 -0.068077795207500457763671875000 0.003154129721224308013916015625 0.003406855743378400802612304688 0 0 0 0 
2419666666.6666665077 0.162424191832542391678018134371 -0.068761914968490600585937500000 0.003333515720441937012913369287 0.003255211981013416810276650537 0 0 0 0 
2419833333.3333334923 0.161095067858696011642294365629 -0.069651380181312561035156250000 0.003464567940682173208949423682 0.003303000703454018072841025244 0 0 0 0 
