# Hz S RI R 50
2400000000.0000000000 0.158788040280342102050781250000 0.062793008983135223388671875000 -0.001471417839638889052747416919 -0.001460299012251198074938129956 0 0 0 0 
2400166666.6666665077 0.158689141273498507400674384371 0.061322771012783050537109375000 -0.001398653374053538062452006763 -0.001550436951220035986659384619 0 0 0 0 
2400333333.3333334923 0.158311545848846407791299384371 0.059429749846458441997487653907 -0.001360428403131664016126323169 -0.001533505390398203892948769678 0 0 0 0 
2400500000.0000000000 0.158317342400550786774005018742 0.057728916406631469726562500000 -0.001444486901164055087445903247 -0.001551137072965502955793071216 0 0 0 0 
2400666666.6666665077 0.158211544156074496170205634371 0.055556021630764007568359375000 -0.001443136367015541033503867041 -0.001466966234147548892377543872 0 0 0 0 
2400833333.3333334923 0.158222764730453491210937500000 0.053748909384012222290039062500 -0.001406946103088557937024760669 -0.001580996438860893032671284253 0 0 0 0 
2401000000.0000000000 0.158352315425872802734375000000 0.051825620234012596820871721093 -0.001420086482539772987365722656 -0.001618628273718059062957763672 0 0 0 0 
2401166666.6666665077 0.158387839794158907791299384371 0.049732271581888198852539062500 -0.001333136809989809989929199219 -0.001703620422631501934648823315 0 0 0 0 
2401333333.3333334923 0.158459618687629699707031250000 0.047496233135461807250976562500 -0.001460618572309613011003803784 -0.001446175971068442084668803638 0 0 0 0 
2401500000.0000000000 0.158850461244583102127236884371 0.045641936361789703369140625000 -0.001607627491466701030731201172 -0.001629038248211144967320107568 0 0 0 0 
2401666666.6666665077 0.159067422151565607268963731258 0.043632525950670242309570312500 -0.001550000044517219066619873047 -0.001535090035758912997004843604 0 0 0 0 
2401833333.3333334923 0.159475579857826205154580634371 0.041495285928249359130859375000 -0.001568887499161065058467245947 -0.001629613572731613896013569409 0 0 0 0 
2402000000.0000000000 0.159646362066268893142861884371 0.039655618369579322124440778907 -0.001575625152327120087267231519 -0.001745500485412776903865195166 0 0 0 0 
2402166666.6666665077 0.160135909914970397949218750000 0.037582691758871078491210937500 -0.001420180080458522059796977466 -0.001667352393269539096234965747 0 0 0 0 
2402333333.3333334923 0.160384565591812106033486884371 0.035672839730978012084960937500 -0.001716240425594151020050048828 -0.001781341154128313064575195312 0 0 0 0 
2402500000.0000000000 0.161321058869361905196981865629 0.033921785652637481689453125000 -0.001720526372082532102700258569 -0.001708388910628855011583637769 0 0 0 0 
2402666666.6666665077 0.161835059523582486251669365629 0.032047841697931289672851562500 -0.001554096117615699984906840747 -0.001849411986768245913861918872 0 0 0 0 
2402833333.3333334923 0.162723660469055203536825615629 0.030642418190836909902552420704 -0.001838850206695497035980224609 -0.001877820934168993993046425928 0 0 0 0 
2403000000.0000000000 0.163448274135589599609375000000 0.028769738972187038766881173046 -0.001873568748123944022535014575 -0.001949195750057697079302143628 0 0 0 0 
2403166666.6666665077 0.164261326193809509277343750000 0.027056718245148658752441406250 -0.002018097089603542847874306787 -0.001971025019884109930751181494 0 0 0 0 
2403333333.3333334923 0.165148437023162786285723768742 0.025655591860413551330566406250 -0.002079336205497384071350097656 -0.001733570592477918104884482275 0 0 0 0 
2403500000.0000000000 0.166053891181945800781250000000 0.024266365915536880493164062500 -0.002140950411558150811436318506 -0.002001082524657249884364462744 0 0 0 0 
2403666666.6666665077 0.166969746351242093185263115629 0.022807007655501369131068045704 -0.002187723759561777114868164062 -0.001881176605820656039594340747 0 0 0 0 
2403833333.3333334923 0.168058231472969110686932481258 0.021310696378350261342982108204 -0.002411796944215894179103232275 -0.002026461763307452201843261719 0 0 0 0 
2404000000.0000000000 0.169004663825035095214843750000 0.020158583298325538635253906250 -0.002589704236015677885768271338 -0.001899084192700684070587158203 0 0 0 0 
2404166666.6666665077 0.169987142086029108245526231258 0.018892534077167510986328125000 -0.002764912554994225935695029150 -0.001855697599239646954777382959 0 0 0 0 
2404333333.3333334923 0.170868948101997403243856865629 0.017901172861456871032714843750 -0.002930364571511745886561728369 -0.001670063124038279056549072266 0 0 0 0 
2404500000.0000000000 0.171818926930427606780682481258 0.016831027343869209289550781250 -0.003108817851170897917506552588 -0.001594171044416726069209433447 0 0 0 0 
2404666666.6666665077 0.172709763050079401214276231258 0.015859387814998630178431326954 -0.003059922950342297987696982275 -0.001613559667021035931230854565 0 0 0 0 
2404833333.3333334923 0.173692643642425509353799384371 0.014966467395424839365025704296 -0.003360827686265110969543457031 -0.001374970888718963103053427588 0 0 0 0 
2405000000.0000000000 0.174637466669082613845986884371 0.014218840748071670532226562500 -0.003265634411945939064025878906 -0.001185302739031613089917827075 0 0 0 0 
2405166666.6666665077 0.175609216094017001053018134371 0.013509367592632770538330078125 -0.003487376961857080893275595557 -0.001157035585492848916294716943 0 0 0 0 
2405333333.3333334923 0.176451027393341092208700615629 0.012715314514935020101527030079 -0.003677146043628454208374023438 -0.001020349329337477900861430591 0 0 0 0 
2405500000.0000000000 0.177268594503402709960937500000 0.012336259707808499772041521680 -0.003700903849676250977757119287 -0.000998926465399563312530517578 0 0 0 0 
2405666666.6666665077 0.177928254008293207366619981258 0.011670862324535850179652030079 -0.003562896279618144035339355469 -0.000648517219815403223037719727 0 0 0 0 
2405833333.3333334923 0.178431525826454190353231865629 0.011300229467451570683489414648 -0.003707550000399351119995117188 -0.000635436037555336952209472656 0 0 0 0 
2406000000.0000000000 0.179211646318435696700888115629 0.010739345103502270090123360546 -0.003884770907461642785313271631 -0.000417734467191621715396326886 0 0 0 0 
2406166666.6666665077 0.179455205798149108886718750000 0.010470714420080190140693865430 -0.003753740573301910920384072412 -0.000301564985420554876327514648 0 0 0 0 
2406333333.3333334923 0.180109903216361999511718750000 0.010026711039245130366315272852 -0.003789543872699141936061240088 -0.000218815752305090400293627328 0 0 0 0 
2406500000.0000000000 0.180392354726791409591513115629 0.009738833643496036529541015625 -0.003657025052234530015232705225 0.000057348406699020422320773466 0 0 0 0 
2406666666.6666665077 0.180556327104568509200888115629 0.009569586254656314849853515625 -0.003753870958462357954737997900 0.000279694708297029083401280536 0 0 0 0 
2406833333.3333334923 0.180903986096382113357705634371 0.008955592289566993713378906250 -0.003668805118650197982788085938 0.000156402922584675306647700177 0 0 0 0 
2407000000.0000000000 0.181070461869239807128906250000 0.008666499517858028411865234375 -0.003839636454358696937561035156 0.000428285042289644479751586914 0 0 0 0 
2407166666.6666665077 0.181160181760787991622763115629 0.008549537509679794311523437500 -0.003589464584365487098693847656 0.000434227811638265902369898663 0 0 0 0 
2407333333.3333334923 0.181148201227188110351562500000 0.007917352020740509033203125000 -0.003747157985344529151916503906 0.000513383070938289165496826172 0 0 0 0 
2407500000.0000000000 0.180940225720405606368856865629 0.007561428006738424301147460938 -0.003668660763651133017299033057 0.000682585639879107475280761719 0 0 0 0 
2407666666.6666665077 0.180859014391899108886718750000 0.007136262021958827972412109375 -0.003543757833540440039393759619 0.000930627807974815368652343750 0 0 0 0 
2407833333.3333334923 0.180356219410896301269531250000 0.006500684656202793121337890625 -0.003573204856365919113159179688 0.000831951911095529794692993164 0 0 0 0 
2408000000.0000000000 0.180112183094024713714276231258 0.005988965276628732681274414062 -0.003473140299320220947265625000 0.001073058927431703047511435400 0 0 0 0 
2408166666.6666665077 0.179751843214035006424111884371 0.005284091923385859403128339551 -0.003485596505925058884861611475 0.001145501621067523956298828125 0 0 0 0 
2408333333.3333334923 0.179406270384788513183593750000 0.004792392719537019729614257812 -0.003474146826192737059352255713 0.001040562754496932029724121094 0 0 0 0 
2408500000.0000000000 0.178823128342628506759481865629 0.003861709963530302047729492188 -0.003536061849445105032679892432 0.001312972977757453918457031250 0 0 0 0 
2408666666.6666665077 0.178280636668205288986044365629 0.003058925038203597068786621094 -0.003397379070520401000976562500 0.001436327002011239962336874854 0 0 0 0 
2408833333.3333334923 0.177609831094741793533486884371 0.001985077979043126106262207031 -0.003427971620112657980677939307 0.001301363459788263060926127856 0 0 0 0 
2409000000.0000000000 0.176933452486991910079794365629 0.001197801553644239902496337891 -0.003416281891986728148219443213 0.001536216703243554072139120947 0 0 0 0 
2409166666.6666665077 0.176317006349563598632812500000 0.000067138622398488223552703857 -0.003410529810935258865356445312 0.001681848894804715893389057690 0 0 0 0 
2409333333.3333334923 0.175787106156349209884481865629 -0.001072197919711471037623740088 -0.003198649501428008079528808594 0.001748413895256816907169961084 0 0 0 0 
2409500000.0000000000 0.175017476081848089020098768742 -0.002377492841333150863647460938 -0.003266593441367148919346474756 0.001709579373709857897517538916 0 0 0 0 
2409666666.6666665077 0.174197793006897000411825615629 -0.003677103668451309204101562500 -0.003220664337277411980869912256 0.001812772126868366978288960034 0 0 0 0 
2409833333.3333334923 0.173570141196250887771768134371 -0.004991216119378805160522460938 -0.003256632946431636810302734375 0.001877547474578022956848144531 0 0 0 0 
2410000000.0000000000 0.173027068376541109939736884371 -0.006410988979041576385498046875 -0.003154518315568565888645791162 0.002066217130050063133239746094 0 0 0 0 
2410166666.6666665077 0.172228112816810607910156250000 -0.008024412207305431365966796875 -0.003249878063797951178309775244 0.002038958249613643126246786963 0 0 0 0 
2410333333.3333334923 0.171568289399147005935830634371 -0.009560626000165939331054687500 -0.003227006178349256949183798682 0.002189215505495667891261435400 0 0 0 0 
2410500000.0000000000 0.171082884073257501800213731258 -0.011332711204886439931849295704 -0.003155862912535666985752724756 0.002209266880527139143702841650 0 0 0 0 
2410666666.6666665077 0.170405834913253811935263115629 -0.013030537404119970149030116602 -0.003017463954165577888488769531 0.002371722832322121100184775244 0 0 0 0 
2410833333.3333334923 0.170065447688102694412393134371 -0.014840634539723399770716483204 -0.003166090929880737824680947412 0.002287436975166202025172568213 0 0 0 0 
2411000000.0000000000 0.169639751315116910079794365629 -0.016461893916130069387415701954 -0.003118784399703145027160644531 0.002573389792814850807189941406 0 0 0 0 
2411166666.6666665077 0.169057935476303100585937500000 -0.018387645483016971242884451954 -0.002941823098808526992797851562 0.002789889229461551146266318213 0 0 0 0 
2411333333.3333334923 0.168706908822059603592080634371 -0.020083431154489520681361014454 -0.003055052598938345909118652344 0.002684877486899495124816894531 0 0 0 0 
2411500000.0000000000 0.168309614062309292892294365629 -0.022304883226752281188964843750 -0.003032007021829485893249511719 0.002806704491376876831054687500 0 0 0 0 
2411666666.6666665077 0.168270930647850008865518134371 -0.024133417755365371704101562500 -0.002899664686992764906642294775 0.002901161089539527893066406250 0 0 0 0 
2411833333.3333334923 0.168306350708007812500000000000 -0.025939499959349628793736641796 -0.002832668833434582190272665869 0.003084855852648615837097167969 0 0 0 0 
2412000000.0000000000 0.168171614408492986481036268742 -0.027964040637016299856165701954 -0.002753643319010734991786337744 0.003155892016366124153137207031 0 0 0 0 
2412166666.6666665077 0.168183699250221307952557481258 -0.029922535642981529235839843750 -0.002951787784695624871494912256 0.003224301617592573165893554688 0 0 0 0 
2412333333.3333334923 0.168492376804351806640625000000 -0.031685464084148406982421875000 -0.002628007205203175978419638525 0.003537785029038786888122558594 0 0 0 0 
2412500000.0000000000 0.168613150715827886383380018742 -0.033475708216428756713867187500 -0.002524390118196607069728232275 0.003477685153484344916102743994 0 0 0 0 
2412666666.6666665077 0.168920859694480895996093750000 -0.035524055361747741699218750000 -0.002495459746569395065307617188 0.003663367126137018203735351562 0 0 0 0 
2412833333.3333334923 0.169050857424735995193643134371 -0.037566740065813071514089216407 -0.002299896208569407896754599463 0.003778959624469279809239052881 0 0 0 0 
2413000000.0000000000 0.169472500681877108474893134371 -0.039054799824953079223632812500 -0.002277717692777514891383505713 0.003892397042363882064819335938 0 0 0 0 
2413166666.6666665077 0.169899344444274902343750000000 -0.040889643132686621929128278907 -0.002006080001592636108398437500 0.003918548580259084701538085938 0 0 0 0 
2413333333.3333334923 0.170359149575233487228231865629 -0.042503494769334793090820312500 -0.001960923429578543143031454932 0.004172507207840681076049804688 0 0 0 0 
2413500000.0000000000 0.170786038041114807128906250000 -0.044272981584072113037109375000 -0.001773522933945059993146586841 0.004290689248591662320608808301 0 0 0 0 
2413666666.6666665077 0.171240419149398803710937500000 -0.045865282416343688964843750000 -0.001645927899517118930816650391 0.004396133590489625930786132812 0 0 0 0 
2413833333.3333334923 0.171644434332847595214843750000 -0.047441378235816962505300153907 -0.001484336680732667012455605615 0.004307941533625125885009765625 0 0 0 0 
2414000000.0000000000 0.172134742140769986251669365629 -0.048856336623430252075195312500 -0.001374479848891497092006064307 0.004379680380225181579589843750 0 0 0 0 
2414166666.6666665077 0.172756314277648898025674384371 -0.050080880522727973247487653907 -0.001191218383610248999354697119 0.004608235321938992413992597363 0 0 0 0 
2414333333.3333334923 0.173370525240898104568643134371 -0.051494549959898001934011091407 -0.001087603159248829104779887622 0.004649001639336347579956054688 0 0 0 0 
2414500000.0000000000 0.174170672893524197677450615629 -0.052585899829864501953125000000 -0.000735640060156583786010742188 0.004696645773947238922119140625 0 0 0 0 
2414666666.6666665077 0.174457579851150512695312500000 -0.053544033318758010864257812500 -0.000622951192781329154968261719 0.004827206954360008239746093750 0 0 0 0 
2414833333.3333334923 0.174838498234748812576455634371 -0.054648205637931816791574846093 -0.000564181827940046787261962891 0.004732607863843441009521484375 0 0 0 0 
2415000000.0000000000 0.175356715917587308029013115629 -0.055522892624139792705495466407 -0.000183658630703575909137725830 0.004744654521346092224121093750 0 0 0 0 
2415166666.6666665077 0.175784766674041803558026231258 -0.056182887405157089233398437500 -0.000316530116833746379047948016 0.004918211139738559722900390625 0 0 0 0 
2415333333.3333334923 0.176277860999107388595419365629 -0.057263679802417762065847028907 0.000083177488704677671194076538 0.004775543697178363800048828125 0 0 0 0 
2415500000.0000000000 0.176734685897827203948651231258 -0.057814855128526687622070312500 0.000178984584636054905966082162 0.004759636241942644119262695312 0 0 0 0 
2415666666.6666665077 0.176934674382209805587606865629 -0.058432478457689292217214216407 0.000190904145711101591587066650 0.004669043701142072677612304688 0 0 0 0 
2415833333.3333334923 0.177161663770675686935263115629 -0.059010274708271026611328125000 0.000629921793006360530853271484 0.004680333659052848815917968750 0 0 0 0 
2416000000.0000000000 0.177329301834106500823651231258 -0.059427522122859961772878278907 0.000635951699223369359970092773 0.004710706882178783416748046875 0 0 0 0 
2416166666.6666665077 0.177653864026069613357705634371 -0.059895392507314682006835937500 0.000817784573882818222045898438 0.004573717713356018066406250000 0 0 0 0 
2416333333.3333334923 0.177670761942863492111044365629 -0.060164108872413642192800153907 0.000922064005862921476364135742 0.004524973686784505844116210938 0 0 0 0 
2416500000.0000000000 0.177503496408462496658486884371 -0.060571778565645217895507812500 0.001148440409451723098754882812 0.004474312998354434967041015625 0 0 0 0 
2416666666.6666665077 0.177405551075935391525106865629 -0.060835771262645721435546875000 0.001195735530927777073503803784 0.004587507341057062149047851562 0 0 0 0 
2416833333.3333334923 0.177337944507598904708700615629 -0.061188571155071258544921875000 0.001286850892938673929927206885 0.004412325564771890640258789062 0 0 0 0 
2417000000.0000000000 0.176884517073631286621093750000 -0.061526264995336532592773437500 0.001497028744779526970506977612 0.004497597925364971160888671875 0 0 0 0 
2417166666.6666665077 0.176441863179206903655682481258 -0.061661701649427407001535783593 0.001727434690110384984257363428 0.004296534694731236371512128613 0 0 0 0 
2417333333.3333334923 0.175976917147636413574218750000 -0.061814159154891967773437500000 0.001782371778972446918487548828 0.004264364484697580337524414062 0 0 0 0 
2417500000.0000000000 0.175428733229637201507244981258 -0.062252093106508261943776716407 0.001794615411199629089952778394 0.004215908236801624298095703125 0 0 0 0 
2417666666.6666665077 0.174840256571769686599893134371 -0.062295079231262207031250000000 0.002045729430392384962794638525 0.004097447730600833892822265625 0 0 0 0 
2417833333.3333334923 0.174028635025024386306924384371 -0.062622688710689544677734375000 0.002284424612298607826232910156 0.004010585602372884750366210938 0 0 0 0 
2418000000.0000000000 0.173156425356864901443643134371 -0.063019111752510070800781250000 0.002227515680715442137477255713 0.004064153414219617843627929688 0 0 0 0 
2418166666.6666665077 0.172302812337875393966513115629 -0.063227742910385131835937500000 0.002338215475901960892918252100 0.004022135864943265914916992188 0 0 0 0 
2418333333.3333334923 0.171546906232833890060263115629 -0.063601881265640258789062500000 0.002419372554868460135218954932 0.003928897902369499206542968750 0 0 0 0 
2418500000.0000000000 0.170475646853446988204794365629 -0.064196102321147918701171875000 0.002601129701361060142517089844 0.003751380136236547990086220850 0 0 0 0 
2418666666.6666665077 0.169561743736267089843750000000 -0.064625531435012817382812500000 0.002698343247175217108485556494 0.003861102974042295975926064600 0 0 0 0 
2418833333.3333334923 0.168152928352356012542401231258 -0.065079391002655029296875000000 0.002805132418870925903320312500 0.003732992336153984069824218750 0 0 0 0 
2419000000.0000000000 0.167043313384056091308593750000 -0.065618567168712615966796875000 0.002791834063827991919276572119 0.003682308597490191893336630713 0 0 0 0 
2419166666.6666665077 0.166029378771781893631143134371 -0.066208191215991973876953125000 0.002843098016455769972560263525 0.003647175151854753927943564307 0 0 0 0 
2419333333.3333334923 0.164596900343894986251669365629 -0.066760122776031494140625000000 0.003042628522962332205531454932 0.003625671844929457144496298682 0 0 0 0 
2419500000.0000000000 0.163471087813377408126669365629 -0.067904040217399597167968750000 0.003140985965728760199305868994 0.003559536067768930955174111475 0 0 0 0 
2419666666.6666665077 0.162571191787719698806924384371 -0.068677291274070739746093750000 0.003227322129532694816589355469 0.003386355936527252197265625000 0 0 0 0 
2419833333.3333334923 0.161089107394218389313067518742 -0.069516107439994812011718750000 0.003253988921642303900477743994 0.003451293567195535139796591650 0 0 0 0 
