# Hz S RI R 50
2400000000.0000000000 0.155605792999267605880575615629 0.060343958437442779541015625000 -0.003038024762645363807678222656 -0.001794205163605510971666645581 0 0 0 0 
2400166666.6666665077 0.155957520008087213714276231258 0.058767955750226967548410783593 -0.003038756083697081045863486182 -0.001976969651877880096435546875 0 0 0 0 
2400333333.3333334923 0.155820399522781399825888115629 0.056397657841444022441823591407 -0.003100763773545622825622558594 -0.001784822903573513031005859375 0 0 0 0 
2400500000.0000000000 0.156161308288574190994424384371 0.054400775581598281860351562500 -0.003086604876443744139430380713 -0.001758931088261306069017719800 0 0 0 0 
2400666666.6666665077 0.156499028205871609786825615629 0.052492208778858191753347028907 -0.003238666569814085960388183594 -0.001536813797429203987121582031 0 0 0 0 
2400833333.3333334923 0.156786769628524808029013115629 0.050528440624475479125976562500 -0.003365989308804274039027548682 -0.001516362768597901084302592700 0 0 0 0 
2401000000.0000000000 0.157175362110137911697549384371 0.048325192183256149291992187500 -0.003241433994844555854797363281 -0.001298707211390138106105185400 0 0 0 0 
2401166666.6666665077 0.157702580094337491134481865629 0.046360857784748077392578125000 -0.003482863539829850196838378906 -0.001239552861079574064967490088 0 0 0 0 
2401333333.3333334923 0.157986372709274291992187500000 0.044226959347724921489675153907 -0.003412988502532244162318564307 -0.001146650989539921066881489331 0 0 0 0 
2401500000.0000000000 0.158723548054695101638955634371 0.042272746562957756732981096093 -0.003463558154180645942687988281 -0.001175137236714363098144531250 0 0 0 0 
2401666666.6666665077 0.159280270338058499435263115629 0.040318220853805541992187500000 -0.003613641485571860833408974756 -0.001253185328096150918247841943 0 0 0 0 
2401833333.3333334923 0.160037890076637295821981865629 0.038226451724767691875417341407 -0.003913707099854946136474609375 -0.001085103838704525990727089990 0 0 0 0 
2402000000.0000000000 0.160568460822105407714843750000 0.036397654563188552856445312500 -0.003571434644982219176051474463 -0.000858592276927083730697631836 0 0 0 0 
2402166666.6666665077 0.161525517702102688888388115629 0.034372970461845397949218750000 -0.003760301275178790092468261719 -0.000760298746172338724136352539 0 0 0 0 
2402333333.3333334923 0.162059873342514010330361884371 0.032717421650886542583425153907 -0.003884096862748264832737588037 -0.000648827699478715658187866211 0 0 0 0 
2402500000.0000000000 0.163337767124175997635049384371 0.031121544539928439748743826954 -0.003799468977376819090602255713 -0.000753505213651806116104125977 0 0 0 0 
2402666666.6666665077 0.164212375879287691970986884371 0.029513597488403320312500000000 -0.003766755340620874924900673975 -0.000482216390082612579495030536 0 0 0 0 
2402833333.3333334923 0.164965361356735201736611884371 0.028080204501748088491419608204 -0.004021466244012117385864257812 -0.000442856893641874194145202637 0 0 0 0 
2403000000.0000000000 0.166018605232238797286825615629 0.026514144614338878286341483204 -0.004001987632364034652709960938 -0.000443737546447664499282836914 0 0 0 0 
2403166666.6666665077 0.167026042938232394119424384371 0.025353407487273219717005545704 -0.004233059938997030258178710938 -0.000297185266390442902415675031 0 0 0 0 
2403333333.3333334923 0.168150261044502313811932481258 0.024016547948122031475026716407 -0.003904174780473113059997558594 0.000088303684606216847896575928 0 0 0 0 
2403500000.0000000000 0.169009491801261901855468750000 0.022861061617732051504114920704 -0.004007437732070684432983398438 0.000124158963444642695501604623 0 0 0 0 
2403666666.6666665077 0.169950336217880304534588731258 0.021687950938940051687220389454 -0.004148329608142375946044921875 0.000382857833756133913993835449 0 0 0 0 
2403833333.3333334923 0.171051591634750393966513115629 0.020550251007080081594446951954 -0.004204242024570704373831464551 0.000423994963057339191436767578 0 0 0 0 
2404000000.0000000000 0.171996861696243286132812500000 0.019855080172419551504114920704 -0.004206792451441287994384765625 0.000579827115871012210845947266 0 0 0 0 
2404166666.6666665077 0.172843724489212008377236884371 0.018833322450518611562708670704 -0.004361086059361696243286132812 0.000714289490133523941040039062 0 0 0 0 
2404333333.3333334923 0.173732280731201199630575615629 0.018171533942222598684290701954 -0.004238667432218790054321289062 0.000940568512305617332458496094 0 0 0 0 
2404500000.0000000000 0.174589276313781710525674384371 0.017408428713679310190221016796 -0.004245856311172246932983398438 0.001077803783118725039838481372 0 0 0 0 
2404666666.6666665077 0.175469681620597811599893134371 0.016803599894046779977818673046 -0.004296827130019664764404296875 0.001165013178251683928846049731 0 0 0 0 
2404833333.3333334923 0.176247254014015197753906250000 0.016100564971566200256347656250 -0.004294224549084901809692382812 0.001355735701508820056915283203 0 0 0 0 
2405000000.0000000000 0.176924899220466613769531250000 0.015780394896864891052246093750 -0.004207731690257787704467773438 0.001618529902771115086199116284 0 0 0 0 
2405166666.6666665077 0.177534043788909912109375000000 0.015296993777155879629114920704 -0.004235341679304838180541992188 0.001880044350400567054748535156 0 0 0 0 
2405333333.3333334923 0.178186371922493008712606865629 0.014781463891267779958704764454 -0.003993031103163957595825195312 0.001938251894898713068721152197 0 0 0 0 
2405500000.0000000000 0.178773999214172391036825615629 0.014585585333406930405586443555 -0.003908940590918064117431640625 0.002193200634792447090148925781 0 0 0 0 
2405666666.6666665077 0.179129675030708312988281250000 0.014213280752301219594935233204 -0.004000822547823190689086914062 0.002264641458168625831604003906 0 0 0 0 
2405833333.3333334923 0.179400429129600497146768134371 0.014017391018569469451904296875 -0.003934290725737810134887695312 0.002893124939873815016505576025 0 0 0 0 
2406000000.0000000000 0.179760664701461791992187500000 0.013558263890445230656633945898 -0.003663921495899558067321777344 0.002603356726467608971836709131 0 0 0 0 
2406166666.6666665077 0.179831892251968411544638115629 0.013449568301439290482490740430 -0.003606957616284490065333701025 0.002802108181640505790710449219 0 0 0 0 
2406333333.3333334923 0.180160641670227106292401231258 0.013097312301397320138951485546 -0.003451853524893521828892373193 0.003025649581104516983032226562 0 0 0 0 
2406500000.0000000000 0.179998427629470797439736884371 0.012944500893354419363001639454 -0.003369919024407864050624228369 0.003145278897136449813842773438 0 0 0 0 
2406666666.6666665077 0.179878547787666293045205634371 0.012555595487356189382532889454 -0.003213917138054966926574707031 0.003184124594554305076599121094 0 0 0 0 
2406833333.3333334923 0.179724872112274197677450615629 0.012102285400033000600794608204 -0.002991914516314864158630371094 0.003337207715958356857299804688 0 0 0 0 
2407000000.0000000000 0.179628849029540987869424384371 0.011750099249184129887590977148 -0.002886480418965220885035849463 0.003348548663780093193054199219 0 0 0 0 
2407166666.6666665077 0.179446116089820889571981865629 0.011394851841032510239570818555 -0.002815241459757090048549033057 0.003409694181755185127258300781 0 0 0 0 
2407333333.3333334923 0.178964689373970003982705634371 0.010808031074702739715576171875 -0.002368202432990074157714843750 0.003555781906470655961277627100 0 0 0 0 
2407500000.0000000000 0.178582295775413513183593750000 0.010228047147393230092982108204 -0.002356169279664754867553710938 0.003689877688884735107421875000 0 0 0 0 
2407666666.6666665077 0.178291976451873807052450615629 0.009796250611543655395507812500 -0.002283276291564106941223144531 0.003674746491014956994297646631 0 0 0 0 
2407833333.3333334923 0.177495956420898409744424384371 0.008938123472034931182861328125 -0.002142621902748941941502236475 0.003929102327674627304077148438 0 0 0 0 
2408000000.0000000000 0.177015051245689392089843750000 0.008111117407679557800292968750 -0.002067637164145708084106445312 0.003703654976561665968654013525 0 0 0 0 
2408166666.6666665077 0.176575213670730590820312500000 0.007484144065529108047485351562 -0.001764828339219093105913471753 0.003737074788659811019897460938 0 0 0 0 
2408333333.3333334923 0.176005750894546508789062500000 0.006445440463721752166748046875 -0.001602080534212291023851704175 0.003752974094823002815246582031 0 0 0 0 
2408500000.0000000000 0.175236985087394686599893134371 0.005341294687241315841674804688 -0.001401783782057463905931782300 0.003737762570381164984462118994 0 0 0 0 
2408666666.6666665077 0.174644157290458706954794365629 0.004044805653393268585205078125 -0.001322098309174180030822753906 0.003831307636573911146876669775 0 0 0 0 
2408833333.3333334923 0.173785537481308011154013115629 0.002920933533459901809692382812 -0.001250350615009665922877646338 0.003850404173135757012608193506 0 0 0 0 
2409000000.0000000000 0.172977477312088012695312500000 0.001712495810352266051648784106 -0.001109892968088388009312295068 0.003797857323661447005030966650 0 0 0 0 
2409166666.6666665077 0.172491058707237188141192518742 0.000248612544964999014705103741 -0.000872095115482807159423828125 0.003707477822899817986729287256 0 0 0 0 
2409333333.3333334923 0.171861529350280789474325615629 -0.001206900575198232910753559644 -0.000779726717155426740646362305 0.003815982257947326140162802588 0 0 0 0 
2409500000.0000000000 0.171086311340332003494424384371 -0.002739326562732458114624023438 -0.000788388948421925306320190430 0.003651602426543831825256347656 0 0 0 0 
2409666666.6666665077 0.170353248715400695800781250000 -0.004491386935114861402029706738 -0.000714340654667466878890991211 0.003798619611188768906834267725 0 0 0 0 
2409833333.3333334923 0.169817373156547601897869981258 -0.005979334469884634017944335938 -0.000548442651052027940750122070 0.003748135874047874970677041162 0 0 0 0 
2410000000.0000000000 0.169374346733093289474325615629 -0.007618998177349567413330078125 -0.000418356066802516579627990723 0.003751265816390513940098427881 0 0 0 0 
2410166666.6666665077 0.168839290738105801681356865629 -0.009318842552602291107177734375 -0.000348205212503671700328272687 0.003764991182833909988403320312 0 0 0 0 
2410333333.3333334923 0.168367296457290704925213731258 -0.011395475827157499140729335352 -0.000205397096578963100910186768 0.003622687421739100976231240381 0 0 0 0 
2410500000.0000000000 0.168005213141441400725994981258 -0.013290914706885819870918474805 -0.000115965500299353206723612653 0.003616490168496965928318642725 0 0 0 0 
2410666666.6666665077 0.167777106165885897537393134371 -0.015362291596829889470110508398 0.000022588223146158270537853241 0.003657947527244687080383300781 0 0 0 0 
2410833333.3333334923 0.167425289750099209884481865629 -0.017146335914731029165247733204 0.000061892365920357406139373779 0.003394292667508124871494912256 0 0 0 0 
2411000000.0000000000 0.167340844869613702972088731258 -0.019016971811652180063267891796 -0.000038798712921561673283576965 0.003518412588164209885838173975 0 0 0 0 
2411166666.6666665077 0.167188853025436401367187500000 -0.021123070269823070871373360546 0.000152248554513789713382720947 0.003466740949079393906834267725 0 0 0 0 
2411333333.3333334923 0.167272448539733886718750000000 -0.023044945672154430044153983204 0.000171262727235443890094757080 0.003357293549925088882446289062 0 0 0 0 
2411500000.0000000000 0.167098611593246487716513115629 -0.025057597085833549499511718750 0.000236238163779489696025848389 0.003449760843068360848667763818 0 0 0 0 
2411666666.6666665077 0.167568027973175104339276231258 -0.026926539838314059865931326954 0.000344046362442895824283045636 0.003396827029064298109767294775 0 0 0 0 
2411833333.3333334923 0.167753010988235501388388115629 -0.028930393978953361511230468750 0.000536576320882886648178100586 0.003404686227440834045410156250 0 0 0 0 
2412000000.0000000000 0.168084487318992586990518134371 -0.030993930995464328420618826954 0.000551589822862297296524047852 0.003398361383005977110621786963 0 0 0 0 
2412166666.6666665077 0.168179079890251187423544365629 -0.032700210809707641601562500000 0.000695786206051707267761230469 0.003329140599817038016078329932 0 0 0 0 
2412333333.3333334923 0.168875649571418789962606865629 -0.034543775022029876708984375000 0.000726693368051201105117797852 0.003319038311019539833068847656 0 0 0 0 
2412500000.0000000000 0.169176310300826998611611884371 -0.036277577280998229980468750000 0.000715699687134474515914916992 0.003310613101348280906677246094 0 0 0 0 
2412666666.6666665077 0.169767856597900390625000000000 -0.038342349231243126606027971093 0.000958324235398322343826293945 0.003097153035923839049098349463 0 0 0 0 
2412833333.3333334923 0.170424938201904296875000000000 -0.039962567389011383056640625000 0.000808355165645480155944824219 0.002998185344040393829345703125 0 0 0 0 
2413000000.0000000000 0.170961409807205200195312500000 -0.041487250477075576782226562500 0.001035215798765420913696289062 0.003044929821044207052943564307 0 0 0 0 
2413166666.6666665077 0.171551957726478604415731865629 -0.043117880821228027343750000000 0.001168690505437552928924560547 0.003101734910160303115844726562 0 0 0 0 
2413333333.3333334923 0.172155842185020502288494981258 -0.044628705829381942749023437500 0.001086261123418807983398437500 0.003143682377412914796116494287 0 0 0 0 
2413500000.0000000000 0.172834068536758395095986884371 -0.045992113649845123291015625000 0.001129275886341929002049111475 0.003040360054001212120056152344 0 0 0 0 
2413666666.6666665077 0.173463031649589510818643134371 -0.047477267682552337646484375000 0.001278352574445307037950825269 0.003033948363736271858215332031 0 0 0 0 
2413833333.3333334923 0.173865646123886108398437500000 -0.048685248941183090209960937500 0.001394165679812430901768349756 0.002945034299045801162719726562 0 0 0 0 
2414000000.0000000000 0.174628362059593200683593750000 -0.049877054989337921142578125000 0.001259835204109549956080771338 0.003061867319047451019287109375 0 0 0 0 
2414166666.6666665077 0.175379738211631802657919365629 -0.050847198814153671264648437500 0.001661783666349948103066469507 0.002846048446372150941136025537 0 0 0 0 
2414333333.3333334923 0.175787240266799899002236884371 -0.051940463483333587646484375000 0.001551665016449988105176616138 0.002695972099900246100184775244 0 0 0 0 
2414500000.0000000000 0.176532655954360989669638115629 -0.052800789475440979003906250000 0.001703742425888776996015239185 0.002764633391052484946009970557 0 0 0 0 
2414666666.6666665077 0.177014231681823702713174384371 -0.053428515791893012309987653907 0.001844454207457602024078369141 0.002712930785492063002345419775 0 0 0 0 
2414833333.3333334923 0.177355617284774808029013115629 -0.054341521114110946655273437500 0.001868117251433432102203369141 0.002497630892321466965916298975 0 0 0 0 
2415000000.0000000000 0.177716389298438998123330634371 -0.054886374622583389282226562500 0.001917228801175951957702636719 0.002730131382122635841369628906 0 0 0 0 
2415166666.6666665077 0.178019523620605496505575615629 -0.055477701127529137348215471093 0.001777005498297512964961386572 0.002564060036092997030970908057 0 0 0 0 
2415333333.3333334923 0.178316161036491394042968750000 -0.056107748299837112426757812500 0.001987282186746596856358193506 0.002529334975406527952906943213 0 0 0 0 
2415500000.0000000000 0.178643256425857488434161268742 -0.056398380547761917114257812500 0.001962459878996015028712607275 0.002412138041108847098109579932 0 0 0 0 
2415666666.6666665077 0.178554832935333307464276231258 -0.056811265647411353374440778907 0.002202349714934825897216796875 0.002427194034680724143981933594 0 0 0 0 
2415833333.3333334923 0.178724646568298312088174384371 -0.057087477296590811992604841407 0.002163616474717855887172079932 0.002466029254719614982604980469 0 0 0 0 
2416000000.0000000000 0.178583130240440396407919365629 -0.057430826127529137348215471093 0.002265455201268196105957031250 0.002371163107454777197596884619 0 0 0 0 
2416166666.6666665077 0.178676113486290005782919365629 -0.057600196450948722148854841407 0.002331860363483428955078125000 0.002293245168402791023254394531 0 0 0 0 
2416333333.3333334923 0.178304821252822903732138115629 -0.057807214558124542236328125000 0.002291115466505289077758789062 0.002283565001562238173243857275 0 0 0 0 
2416500000.0000000000 0.177929043769836398025674384371 -0.058074671775102622295339216407 0.002576992381364107131958007812 0.002168574370443820953369140625 0 0 0 0 
2416666666.6666665077 0.177543878555297907073651231258 -0.058152381330728530883789062500 0.002540620276704431013820029150 0.002224996685981750921962118994 0 0 0 0 
2416833333.3333334923 0.177135244011878995040731865629 -0.058413621038198471069335937500 0.002500504488125443892237997900 0.002160659292712808089015341650 0 0 0 0 
2417000000.0000000000 0.176321759819984408279580634371 -0.058724157512187957763671875000 0.002608154201880096955540322412 0.002069100039079784913303994287 0 0 0 0 
2417166666.6666665077 0.175642713904380798339843750000 -0.058820690959692001342773437500 0.002628680318593978881835937500 0.001852519344538450024248432690 0 0 0 0 
2417333333.3333334923 0.174958825111389187911825615629 -0.058986704796552658081054687500 0.002675481140613555908203125000 0.001701040775515139102935791016 0 0 0 0 
2417500000.0000000000 0.174028858542442294021768134371 -0.059406075626611709594726562500 0.002679308876395225958583212744 0.001718097715638577938079833984 0 0 0 0 
2417666666.6666665077 0.173212826251983587066973768742 -0.059554770588874816894531250000 0.002791919047012925148010253906 0.001654061372391879992244101416 0 0 0 0 
2417833333.3333334923 0.172170430421829195877236884371 -0.059863053262233727191965471093 0.002745052333921194076538085938 0.001510619069449603991267538916 0 0 0 0 
2418000000.0000000000 0.171081200242042513748330634371 -0.060395993292331702495534528907 0.002918482292443513870239257812 0.001314687542617321014404296875 0 0 0 0 
2418166666.6666665077 0.169893324375152587890625000000 -0.060755483806133270263671875000 0.002921584993600844903233193506 0.001387602649629116058349609375 0 0 0 0 
2418333333.3333334923 0.168917998671531705001669365629 -0.061310525983572013164479841407 0.002837204840034246011021279443 0.001176404766738414981244731372 0 0 0 0 
2418500000.0000000000 0.167581990361213711837606865629 -0.061814796179533011699636091407 0.002702768426388502120971679688 0.001215819502249360084533691406 0 0 0 0 
2418666666.6666665077 0.166599556803703308105468750000 -0.062555968761444091796875000000 0.002864010864868760108947753906 0.001024497556500137069104838794 0 0 0 0 
2418833333.3333334923 0.165051385760307312011718750000 -0.063270166516304016113281250000 0.002783752977848052978515625000 0.001027683727443218014360737378 0 0 0 0 
2419000000.0000000000 0.163939699530601501464843750000 -0.064050845801830291748046875000 0.002895668381825089888331747900 0.001041785464622079892399453271 0 0 0 0 
2419166666.6666665077 0.162656307220459012130575615629 -0.064830034971237182617187500000 0.002934735501185059981105185400 0.000891609233804047107696533203 0 0 0 0 
2419333333.3333334923 0.161220729351043701171875000000 -0.065745480358600616455078125000 0.003003546735271811918971396338 0.000839950691442936658859252930 0 0 0 0 
2419500000.0000000000 0.160069182515144403655682481258 -0.066981405019760131835937500000 0.002873924095183610916137695312 0.000742059201002120971679687500 0 0 0 0 
2419666666.6666665077 0.158977687358856201171875000000 -0.067946076393127441406250000000 0.002913925796747208075282431494 0.000762341544032096862792968750 0 0 0 0 
2419833333.3333334923 0.157808884978294400314169365629 -0.069060131907463073730468750000 0.002851322293281555175781250000 0.000690628716256469488143920898 0 0 0 0 
