# Version 1.00
#
freq[Hz];re:Trc1_S11;im:Trc1_S11;re:Trc2_S21;im:Trc2_S21;
2.400000000000000E+009;1.732168644666672E-001;4.867557436227799E-002;-2.256473759189248E-003;4.065939690917730E-003;
2.400166666666667E+009;1.738617718219757E-001;4.827520623803139E-002;-2.211733721196652E-003;3.917344845831394E-003;
2.400333333333334E+009;1.741592884063721E-001;4.758606106042862E-002;-2.296748338267207E-003;4.250658210366964E-003;
2.400500000000000E+009;1.747501790523529E-001;4.681731760501862E-002;-2.247355179861188E-003;4.333309829235077E-003;
2.400666666666667E+009;1.749622821807861E-001;4.610231518745422E-002;-2.241616602987051E-003;4.424566868692637E-003;
2.400833333333334E+009;1.753941029310226E-001;4.573535546660423E-002;-2.261804416775703E-003;4.422632046043873E-003;
2.401000000000000E+009;1.756949871778488E-001;4.486531764268875E-002;-2.114246133714914E-003;4.616511985659599E-003;
2.401166666666667E+009;1.758303195238113E-001;4.429323226213455E-002;-2.134591573849320E-003;4.974548704922199E-003;
2.401333333333334E+009;1.758810430765152E-001;4.364785552024841E-002;-1.903020427562296E-003;4.983714781701565E-003;
2.401500000000000E+009;1.761799156665802E-001;4.301078245043755E-002;-1.915240311063826E-003;5.285877268761396E-003;
2.401666666666667E+009;1.760875731706619E-001;4.244787991046906E-002;-1.841184799559414E-003;5.355146247893572E-003;
2.401833333333334E+009;1.762364655733109E-001;4.150358960032463E-002;-1.688434043899179E-003;5.680551286786795E-003;
2.402000000000000E+009;1.758838742971420E-001;4.072792083024979E-002;-1.427989569492638E-003;5.882244091480970E-003;
2.402166666666667E+009;1.759209483861923E-001;3.982605040073395E-002;-1.194068463519216E-003;5.914732813835144E-003;
2.402333333333334E+009;1.758208274841309E-001;3.887259587645531E-002;-8.926802547648549E-004;5.865817423909903E-003;
2.402500000000000E+009;1.758195310831070E-001;3.794592618942261E-002;-7.035236340016127E-004;6.026975810527802E-003;
2.402666666666667E+009;1.754443496465683E-001;3.708612546324730E-002;-4.241507267579436E-004;6.134221330285072E-003;
2.402833333333334E+009;1.751746237277985E-001;3.584922477602959E-002;-2.390899462625384E-004;6.284362170845270E-003;
2.403000000000000E+009;1.749008446931839E-001;3.444913402199745E-002;-3.843485683319159E-005;6.264620460569859E-003;
2.403166666666667E+009;1.745511591434479E-001;3.309047594666481E-002;4.688267654273659E-004;6.367087829858065E-003;
2.403333333333334E+009;1.743707656860352E-001;3.182303160429001E-002;5.977858672849834E-004;6.438236217945814E-003;
2.403500000000000E+009;1.738744378089905E-001;3.022113442420960E-002;8.586572948843241E-004;6.263004150241613E-003;
2.403666666666667E+009;1.735365986824036E-001;2.843511477112770E-002;1.176400692202151E-003;6.201381329447031E-003;
2.403833333333334E+009;1.731385588645935E-001;2.678036130964756E-002;1.474388758651912E-003;6.124251522123814E-003;
2.404000000000000E+009;1.728992462158203E-001;2.514108456671238E-002;1.623301766812801E-003;6.131666246801615E-003;
2.404166666666667E+009;1.724595874547958E-001;2.328832820057869E-002;1.778350211679936E-003;6.062800996005535E-003;
2.404333333333334E+009;1.719652265310288E-001;2.144405059516430E-002;2.038248814642429E-003;5.917362403124571E-003;
2.404500000000000E+009;1.718170493841171E-001;1.950800605118275E-002;2.414322225376964E-003;5.752524361014366E-003;
2.404666666666667E+009;1.715751290321350E-001;1.749007590115070E-002;2.459762850776315E-003;5.699778907001019E-003;
2.404833333333334E+009;1.709479987621307E-001;1.552012469619513E-002;2.447834005579352E-003;5.607929546386004E-003;
2.405000000000000E+009;1.709193587303162E-001;1.357617322355509E-002;2.812820486724377E-003;5.471153650432825E-003;
2.405166666666667E+009;1.707840412855148E-001;1.157333794981241E-002;2.887991257011890E-003;5.387173034250736E-003;
2.405333333333334E+009;1.707787364721298E-001;9.476169012486935E-003;3.139210399240255E-003;5.320975091308355E-003;
2.405500000000000E+009;1.708154827356339E-001;7.370340637862682E-003;3.301205812022090E-003;5.225596018135548E-003;
2.405666666666667E+009;1.708812564611435E-001;5.493415519595146E-003;3.336694557219744E-003;5.116631742566824E-003;
2.405833333333334E+009;1.708735078573227E-001;3.571824170649052E-003;3.440342377871275E-003;5.079803057014942E-003;
2.406000000000000E+009;1.712582260370255E-001;1.285536563955247E-003;3.614941146224737E-003;5.091647151857615E-003;
2.406166666666667E+009;1.714296489953995E-001;-5.328965489752591E-004;3.773374017328024E-003;4.826798103749752E-003;
2.406333333333334E+009;1.719515025615692E-001;-2.765779383480549E-003;3.961694426834583E-003;4.745000973343849E-003;
2.406500000000000E+009;1.723118126392365E-001;-4.777637775987387E-003;4.153774119913578E-003;4.663578234612942E-003;
2.406666666666667E+009;1.724963933229446E-001;-6.682924926280975E-003;4.200367722660303E-003;4.541459959000349E-003;
2.406833333333334E+009;1.732406914234161E-001;-8.830168284475803E-003;4.446472506970167E-003;4.576546140015125E-003;
2.407000000000000E+009;1.737795919179916E-001;-1.078073214739561E-002;4.691944923251867E-003;4.316708538681269E-003;
2.407166666666667E+009;1.744892448186874E-001;-1.256443466991186E-002;4.919385537505150E-003;4.332458600401878E-003;
2.407333333333334E+009;1.749949008226395E-001;-1.455936487764120E-002;5.096950568258762E-003;4.113362170755863E-003;
2.407500000000000E+009;1.756877154111862E-001;-1.625049300491810E-002;5.316176917403936E-003;3.869943786412478E-003;
2.407666666666667E+009;1.762913167476654E-001;-1.781006902456284E-002;5.450902972370386E-003;3.534229006618261E-003;
2.407833333333334E+009;1.770199388265610E-001;-1.978011615574360E-002;5.692778620868921E-003;3.429203759878874E-003;
2.408000000000000E+009;1.777184307575226E-001;-2.152351289987564E-002;5.870306398719549E-003;3.013610839843750E-003;
2.408166666666667E+009;1.783251166343689E-001;-2.278221398591995E-002;6.077329162508249E-003;2.797493245452642E-003;
2.408333333333334E+009;1.792366206645966E-001;-2.415171079337597E-002;6.152452901005745E-003;2.417469630017877E-003;
2.408500000000000E+009;1.796470582485199E-001;-2.566338144242764E-002;6.257961504161358E-003;2.108498942106962E-003;
2.408666666666667E+009;1.802691817283630E-001;-2.709357813000679E-002;6.368589121848345E-003;1.842986210249364E-003;
2.408833333333334E+009;1.806957125663757E-001;-2.824923023581505E-002;6.233157124370337E-003;1.430094009265304E-003;
2.409000000000000E+009;1.810995340347290E-001;-2.926277741789818E-002;6.334775127470493E-003;1.196025405079126E-003;
2.409166666666667E+009;1.816037297248840E-001;-3.021813184022903E-002;6.188890896737576E-003;8.603711030445993E-004;
2.409333333333334E+009;1.820611059665680E-001;-3.115337528288364E-002;6.038440391421318E-003;6.774098146706820E-004;
2.409500000000000E+009;1.824332475662231E-001;-3.213502839207649E-002;6.106493994593620E-003;3.007315390277654E-004;
2.409666666666667E+009;1.826522499322891E-001;-3.257218003273010E-002;5.852380301803350E-003;1.345754571957514E-004;
2.409833333333334E+009;1.828002333641052E-001;-3.306272998452187E-002;5.869810003787279E-003;4.052839358337224E-005;
2.410000000000000E+009;1.831900775432587E-001;-3.350922465324402E-002;5.712320096790791E-003;-3.196470788680017E-004;
2.410166666666667E+009;1.832603961229324E-001;-3.410806506872177E-002;5.556656979024410E-003;-3.494631673675031E-004;
2.410333333333334E+009;1.833514273166657E-001;-3.436165675520897E-002;5.709665827453136E-003;-5.637522554025054E-004;
2.410500000000000E+009;1.832305490970612E-001;-3.475516289472580E-002;5.547876935452223E-003;-5.575719405896962E-004;
2.410666666666667E+009;1.833460181951523E-001;-3.515674918889999E-002;5.413322709500790E-003;-8.430926245637238E-004;
2.410833333333334E+009;1.833274066448212E-001;-3.541091084480286E-002;5.274865310639143E-003;-1.037752605043352E-003;
2.411000000000000E+009;1.829957067966461E-001;-3.548351675271988E-002;5.069019272923470E-003;-1.140853040851653E-003;
2.411166666666667E+009;1.827363818883896E-001;-3.590828552842140E-002;5.005765240639448E-003;-1.337256981059909E-003;
2.411333333333334E+009;1.823908239603043E-001;-3.604040294885635E-002;4.858380183577538E-003;-1.419084845110774E-003;
2.411500000000000E+009;1.818570345640183E-001;-3.658060729503632E-002;4.821769427508116E-003;-1.497886143624783E-003;
2.411666666666667E+009;1.814039498567581E-001;-3.691299259662628E-002;4.652121104300022E-003;-1.551963621750474E-003;
2.411833333333334E+009;1.807343214750290E-001;-3.733175992965698E-002;4.534879699349403E-003;-1.576568000018597E-003;
2.412000000000000E+009;1.799508780241013E-001;-3.787800297141075E-002;4.506928380578756E-003;-1.561878947541118E-003;
2.412166666666667E+009;1.791834086179733E-001;-3.809347376227379E-002;4.334429744631052E-003;-1.820223988033831E-003;
2.412333333333334E+009;1.782631427049637E-001;-3.851388394832611E-002;4.282516427338123E-003;-1.786333508789539E-003;
2.412500000000000E+009;1.772867292165756E-001;-3.910126164555550E-002;4.111137706786394E-003;-1.863601733930409E-003;
2.412666666666667E+009;1.761885285377502E-001;-3.966884687542915E-002;4.138664342463017E-003;-1.885354984551668E-003;
2.412833333333334E+009;1.752548366785049E-001;-4.044467210769653E-002;4.056561272591353E-003;-1.966846408322454E-003;
2.413000000000000E+009;1.740345060825348E-001;-4.112523049116135E-002;3.943717107176781E-003;-2.029567025601864E-003;
2.413166666666667E+009;1.727275699377060E-001;-4.189436137676239E-002;3.771009156480432E-003;-1.807390013709664E-003;
2.413333333333334E+009;1.713442802429199E-001;-4.280161485075951E-002;3.705576527863741E-003;-1.681835041381419E-003;
2.413500000000000E+009;1.702259778976440E-001;-4.383148625493050E-002;3.759256098419428E-003;-1.906053512357175E-003;
2.413666666666667E+009;1.689279824495316E-001;-4.489356651902199E-002;3.877966664731503E-003;-1.855403766967356E-003;
2.413833333333334E+009;1.676427423954010E-001;-4.587430134415627E-002;3.664328949525952E-003;-1.921837683767080E-003;
2.414000000000000E+009;1.662558168172836E-001;-4.714251682162285E-002;3.684254363179207E-003;-1.920771901495755E-003;
2.414166666666667E+009;1.651260107755661E-001;-4.829707369208336E-002;3.767587943002582E-003;-1.791774295270443E-003;
2.414333333333334E+009;1.639466434717178E-001;-4.959378764033318E-002;3.863653633743525E-003;-1.919836853630841E-003;
2.414500000000000E+009;1.629319339990616E-001;-5.102484300732613E-002;3.799067111685872E-003;-1.961223082616925E-003;
2.414666666666667E+009;1.616813391447067E-001;-5.238506570458412E-002;3.860336961224675E-003;-2.080122008919716E-003;
2.414833333333334E+009;1.604736298322678E-001;-5.400797352194786E-002;4.137546289712191E-003;-2.068108180537820E-003;
2.415000000000000E+009;1.595157980918884E-001;-5.558149516582489E-002;4.180455114692450E-003;-2.414701273664832E-003;
2.415166666666667E+009;1.584211438894272E-001;-5.743355304002762E-002;4.259468987584114E-003;-2.369107678532600E-003;
2.415333333333334E+009;1.576698273420334E-001;-5.926276370882988E-002;4.345749504864216E-003;-2.511445432901382E-003;
2.415500000000000E+009;1.569077521562576E-001;-6.106515973806381E-002;4.239662550389767E-003;-2.771353814750910E-003;
2.415666666666667E+009;1.561444848775864E-001;-6.283862143754959E-002;4.332873970270157E-003;-2.950896043330431E-003;
2.415833333333334E+009;1.554641425609589E-001;-6.481178104877472E-002;4.387672524899244E-003;-3.201055806130171E-003;
2.416000000000000E+009;1.546877473592758E-001;-6.669243425130844E-002;4.411947447806597E-003;-3.459649858996272E-003;
2.416166666666667E+009;1.542639136314392E-001;-6.867723166942596E-002;4.155614878982306E-003;-3.661191090941429E-003;
2.416333333333334E+009;1.537019163370132E-001;-7.069909572601318E-002;4.226119723170996E-003;-3.867558436468244E-003;
2.416500000000000E+009;1.532583087682724E-001;-7.270465046167374E-002;3.934040665626526E-003;-4.059192724525929E-003;
2.416666666666667E+009;1.529522091150284E-001;-7.450003921985626E-002;3.908226266503334E-003;-4.327275324612856E-003;
2.416833333333334E+009;1.526396870613098E-001;-7.651491463184357E-002;3.715802449733019E-003;-4.642258398234844E-003;
2.417000000000000E+009;1.522014588117600E-001;-7.854594290256500E-002;3.632930107414722E-003;-4.752435721457005E-003;
2.417166666666667E+009;1.520881354808807E-001;-8.024375885725021E-002;3.366302698850632E-003;-5.015514791011810E-003;
2.417333333333334E+009;1.520410627126694E-001;-8.209930360317230E-002;3.111955244094133E-003;-5.102301016449928E-003;
2.417500000000000E+009;1.519442945718765E-001;-8.401048183441162E-002;2.902923617511988E-003;-5.239871330559254E-003;
2.417666666666667E+009;1.520676165819168E-001;-8.545511960983276E-002;2.626810455694795E-003;-5.593259353190661E-003;
2.417833333333334E+009;1.519732922315598E-001;-8.697482943534851E-002;2.511179074645042E-003;-5.462725181132555E-003;
2.418000000000000E+009;1.518909186124802E-001;-8.862607926130295E-002;2.126123290508986E-003;-5.598974879831076E-003;
2.418166666666667E+009;1.520946919918060E-001;-8.977118134498596E-002;1.957955537363887E-003;-5.730755627155304E-003;
2.418333333333334E+009;1.523844450712204E-001;-9.118701517581940E-002;1.745550078339875E-003;-5.854109767824411E-003;
2.418500000000000E+009;1.525398641824722E-001;-9.229177236557007E-002;1.433128491044045E-003;-5.990354809910059E-003;
2.418666666666667E+009;1.527059525251389E-001;-9.341306239366531E-002;1.336383633315563E-003;-6.111249327659607E-003;
2.418833333333334E+009;1.527543365955353E-001;-9.438496828079224E-002;1.072390587069094E-003;-6.071167998015881E-003;
2.419000000000000E+009;1.528729200363159E-001;-9.524703770875931E-002;6.628704140894115E-004;-6.156755611300468E-003;
2.419166666666667E+009;1.530745625495911E-001;-9.601208567619324E-002;4.346796777099371E-004;-6.146678701043129E-003;
2.419333333333334E+009;1.532066911458969E-001;-9.629252552986145E-002;3.026828635483980E-004;-5.982541944831610E-003;
2.419500000000000E+009;1.534996628761292E-001;-9.702824056148529E-002;-1.150302632595412E-004;-6.133472081273794E-003;
2.419666666666667E+009;1.537868231534958E-001;-9.756799042224884E-002;-2.433935878798366E-004;-6.112856324762106E-003;
2.419833333333334E+009;1.537799239158630E-001;-9.764885157346726E-002;-6.145401857793331E-004;-6.025803275406361E-003;
2.420000000000000E+009;1.539581716060638E-001;-9.783605486154556E-002;-6.535723223350942E-004;-5.919585935771465E-003;
2.420166666666667E+009;1.539679914712906E-001;-9.807965159416199E-002;-1.157809514552355E-003;-5.969873629510403E-003;
2.420333333333334E+009;1.541078835725784E-001;-9.796117991209030E-002;-1.262438483536243E-003;-5.899757612496615E-003;
2.420500000000000E+009;1.541679799556732E-001;-9.784393012523651E-002;-1.397842075675726E-003;-5.736350081861019E-003;
2.420666666666667E+009;1.541417241096497E-001;-9.752385318279266E-002;-1.682186615653336E-003;-5.758468527346849E-003;
2.420833333333334E+009;1.540693491697311E-001;-9.744296222925186E-002;-1.896215020678937E-003;-5.690807476639748E-003;
2.421000000000000E+009;1.538083851337433E-001;-9.713945537805557E-002;-2.153661800548434E-003;-5.594773218035698E-003;
2.421166666666667E+009;1.537256985902786E-001;-9.690850228071213E-002;-2.380575984716415E-003;-5.669977050274611E-003;
2.421333333333334E+009;1.535833925008774E-001;-9.666605293750763E-002;-2.797011053189635E-003;-5.379726178944111E-003;
2.421500000000000E+009;1.530224531888962E-001;-9.624321758747101E-002;-2.884684130549431E-003;-5.206037778407335E-003;
2.421666666666667E+009;1.526094675064087E-001;-9.603418409824371E-002;-3.242328763008118E-003;-5.005278624594212E-003;
2.421833333333334E+009;1.520065367221832E-001;-9.573363512754440E-002;-3.473768942058086E-003;-4.817659500986338E-003;
2.422000000000000E+009;1.514506936073303E-001;-9.555070102214813E-002;-3.760702209547162E-003;-4.688295535743237E-003;
2.422166666666667E+009;1.505953520536423E-001;-9.542768448591232E-002;-3.779020858928561E-003;-4.332900512963533E-003;
2.422333333333334E+009;1.498532295227051E-001;-9.508089721202850E-002;-4.324359353631735E-003;-4.173422232270241E-003;
2.422500000000000E+009;1.487192213535309E-001;-9.483257681131363E-002;-4.340093582868576E-003;-3.911465872079134E-003;
2.422666666666667E+009;1.477480083703995E-001;-9.460424631834030E-002;-4.519298207014799E-003;-3.645684802904725E-003;
2.422833333333334E+009;1.464619487524033E-001;-9.464032948017120E-002;-4.642006941139698E-003;-3.326860722154379E-003;
2.423000000000000E+009;1.450513899326325E-001;-9.468594938516617E-002;-4.770534113049507E-003;-2.962734084576368E-003;
2.423166666666667E+009;1.440704017877579E-001;-9.447084367275238E-002;-4.785828758031130E-003;-2.632565097883344E-003;
2.423333333333334E+009;1.426561176776886E-001;-9.431082010269165E-002;-4.719109274446964E-003;-2.282878616824746E-003;
2.423500000000000E+009;1.411961019039154E-001;-9.453378617763519E-002;-4.778659436851740E-003;-2.065246924757958E-003;
2.423666666666667E+009;1.396353244781494E-001;-9.453177452087402E-002;-4.558556713163853E-003;-1.709604519419372E-003;
2.423833333333334E+009;1.380404680967331E-001;-9.482309222221375E-002;-4.411839414387941E-003;-1.492385752499104E-003;
2.424000000000000E+009;1.365152150392532E-001;-9.491735696792603E-002;-4.419704433530569E-003;-1.228479901328683E-003;
2.424166666666667E+009;1.350470334291458E-001;-9.539624303579330E-002;-4.331915639340878E-003;-8.948389440774918E-004;
2.424333333333334E+009;1.334899067878723E-001;-9.584484249353409E-002;-4.148076754063368E-003;-8.958944818004966E-004;
2.424500000000000E+009;1.320001035928726E-001;-9.627805650234222E-002;-4.006822593510151E-003;-6.484813056886196E-004;
2.424666666666667E+009;1.305564641952515E-001;-9.665074199438095E-002;-3.876906121149659E-003;-3.876596747431904E-004;
2.424833333333334E+009;1.290118396282196E-001;-9.736982733011246E-002;-3.822111058980227E-003;-5.192430689930916E-004;
2.425000000000000E+009;1.277926564216614E-001;-9.817687422037125E-002;-3.736007260158658E-003;-2.718835021369159E-004;
2.425166666666667E+009;1.262129843235016E-001;-9.918726980686188E-002;-3.536619246006012E-003;-1.855892769526690E-004;
2.425333333333334E+009;1.249968782067299E-001;-1.000342667102814E-001;-3.455438651144505E-003;-6.662886153208092E-005;
2.425500000000000E+009;1.238673776388168E-001;-1.013198941946030E-001;-3.221673425287008E-003;4.972116221324541E-005;
2.425666666666667E+009;1.225328966975212E-001;-1.024004220962524E-001;-3.183652646839619E-003;2.821613088599406E-005;
2.425833333333334E+009;1.214460507035255E-001;-1.036721989512444E-001;-3.133798949420452E-003;7.813694537617266E-005;
2.426000000000000E+009;1.204829961061478E-001;-1.050282716751099E-001;-2.981172874569893E-003;2.928064204752445E-004;
2.426166666666667E+009;1.196565926074982E-001;-1.063900515437126E-001;-2.947050146758556E-003;3.538655291777104E-004;
2.426333333333334E+009;1.186881065368652E-001;-1.079474017024040E-001;-2.618568483740091E-003;5.002198740839958E-004;
2.426500000000000E+009;1.179550513625145E-001;-1.093280538916588E-001;-2.594671212136746E-003;4.647909372579306E-004;
2.426666666666667E+009;1.173468008637428E-001;-1.108527630567551E-001;-2.673576818779111E-003;6.298728985711932E-004;
2.426833333333334E+009;1.166982576251030E-001;-1.123176366090775E-001;-2.316750818863511E-003;6.355189252644777E-004;
2.427000000000000E+009;1.160506755113602E-001;-1.140546873211861E-001;-2.214276464655995E-003;6.570093100890517E-004;
2.427166666666667E+009;1.155950427055359E-001;-1.154180243611336E-001;-2.074987161904573E-003;6.352065829560161E-004;
2.427333333333334E+009;1.151313185691834E-001;-1.171720027923584E-001;-1.952907303348184E-003;7.289326749742031E-004;
2.427500000000000E+009;1.149911954998970E-001;-1.187529638409615E-001;-1.743513159453869E-003;5.904368590563536E-004;
2.427666666666667E+009;1.146673932671547E-001;-1.204223185777664E-001;-1.492816605605185E-003;6.648683338426054E-004;
