# Version 1.00
#
freq[Hz];re:Trc1_S11;im:Trc1_S11;re:Trc2_S21;im:Trc2_S21;
2.400000000000000E+009;1.734184771776199E-001;4.884311929345131E-002;-2.191170817241073E-003;4.076487850397825E-003;
2.400166666666667E+009;1.738209873437882E-001;4.817188158631325E-002;-2.163699362426996E-003;4.178628325462341E-003;
2.400333333333334E+009;1.742625832557678E-001;4.763391986489296E-002;-2.287627663463354E-003;4.136594012379646E-003;
2.400500000000000E+009;1.747722327709198E-001;4.691345617175102E-002;-2.141269389539957E-003;4.237338900566101E-003;
2.400666666666667E+009;1.750534325838089E-001;4.620508104562759E-002;-2.256748732179403E-003;4.503677599132061E-003;
2.400833333333334E+009;1.754965186119080E-001;4.571795091032982E-002;-2.366912551224232E-003;4.308423027396202E-003;
2.401000000000000E+009;1.757534295320511E-001;4.505932331085205E-002;-2.122233854606748E-003;4.555972758680582E-003;
2.401166666666667E+009;1.758332103490830E-001;4.442270845174789E-002;-2.146533923223615E-003;4.867024719715118E-003;
2.401333333333334E+009;1.759607940912247E-001;4.359234496951103E-002;-1.913331798277795E-003;4.952487070113421E-003;
2.401500000000000E+009;1.762078404426575E-001;4.304998740553856E-002;-1.941555878147483E-003;5.129912402480841E-003;
2.401666666666667E+009;1.761985719203949E-001;4.231318831443787E-002;-1.664572861045599E-003;5.399659276008606E-003;
2.401833333333334E+009;1.763454973697662E-001;4.162261635065079E-002;-1.646104152314365E-003;5.428071599453688E-003;
2.402000000000000E+009;1.761865466833115E-001;4.066548496484757E-002;-1.534382347017527E-003;5.792669020593166E-003;
2.402166666666667E+009;1.759987026453018E-001;3.958519548177719E-002;-1.258089323528111E-003;5.945670418441296E-003;
2.402333333333334E+009;1.757654249668121E-001;3.884160891175270E-002;-1.099727465771139E-003;6.042558234184980E-003;
2.402500000000000E+009;1.760283708572388E-001;3.789848834276199E-002;-7.497898768633604E-004;6.310156080871820E-003;
2.402666666666667E+009;1.755656599998474E-001;3.681726008653641E-002;-4.481218347791582E-004;6.127092521637678E-003;
2.402833333333334E+009;1.751933842897415E-001;3.552312403917313E-002;-2.310628624400124E-004;6.420806981623173E-003;
2.403000000000000E+009;1.748544126749039E-001;3.431324660778046E-002;1.405219663865864E-004;6.490151397883892E-003;
2.403166666666667E+009;1.747532188892365E-001;3.291630372405052E-002;3.186453832313418E-004;6.359769497066736E-003;
2.403333333333334E+009;1.743536740541458E-001;3.154553845524788E-002;5.200998857617378E-004;6.400307640433312E-003;
2.403500000000000E+009;1.740698218345642E-001;3.005950152873993E-002;1.016682712361217E-003;6.241955328732729E-003;
2.403666666666667E+009;1.734630614519119E-001;2.842858806252480E-002;1.279635122045875E-003;6.362518295645714E-003;
2.403833333333334E+009;1.731853187084198E-001;2.680095843970776E-002;1.319369068369269E-003;6.280868779867888E-003;
2.404000000000000E+009;1.728628873825073E-001;2.511318027973175E-002;1.689176773652434E-003;6.263374350965023E-003;
2.404166666666667E+009;1.724671572446823E-001;2.324230782687664E-002;1.879356685094535E-003;6.005828268826008E-003;
2.404333333333334E+009;1.719439774751663E-001;2.162769809365273E-002;2.143658930435777E-003;5.776804871857166E-003;
2.404500000000000E+009;1.716357469558716E-001;1.951679214835167E-002;2.217389876022935E-003;5.783596541732550E-003;
2.404666666666667E+009;1.714247018098831E-001;1.771399565041065E-002;2.363952808082104E-003;5.568431690335274E-003;
2.404833333333334E+009;1.710214763879776E-001;1.565225049853325E-002;2.737139351665974E-003;5.426908843219280E-003;
2.405000000000000E+009;1.709158271551132E-001;1.361344195902348E-002;2.798318164423108E-003;5.396281369030476E-003;
2.405166666666667E+009;1.708765178918839E-001;1.182006858289242E-002;2.986536128446460E-003;5.138652399182320E-003;
2.405333333333334E+009;1.707843691110611E-001;9.625051170587540E-003;3.178285900503397E-003;5.379698704928160E-003;
2.405500000000000E+009;1.708104014396668E-001;7.536266930401325E-003;3.253206145018339E-003;5.243075545877218E-003;
2.405666666666667E+009;1.708592623472214E-001;5.528484936803579E-003;3.247136250138283E-003;5.104748066514731E-003;
2.405833333333334E+009;1.709233373403549E-001;3.609899664297700E-003;3.331698477268219E-003;4.938036669045687E-003;
2.406000000000000E+009;1.713109910488129E-001;1.342759118415415E-003;3.635884262621403E-003;4.935878328979015E-003;
2.406166666666667E+009;1.714984923601151E-001;-6.043851608410478E-004;3.729027230292559E-003;4.833310842514038E-003;
2.406333333333334E+009;1.719335019588471E-001;-2.708087209612131E-003;3.924736287444830E-003;4.702598322182894E-003;
2.406500000000000E+009;1.722782701253891E-001;-4.701178055256605E-003;4.155799746513367E-003;4.669972695410252E-003;
2.406666666666667E+009;1.725357621908188E-001;-6.640961393713951E-003;4.410802386701107E-003;4.559673368930817E-003;
2.406833333333334E+009;1.732420027256012E-001;-8.716654963791370E-003;4.551248624920845E-003;4.496735520660877E-003;
2.407000000000000E+009;1.738060861825943E-001;-1.062386110424995E-002;4.671670030802488E-003;4.424582701176405E-003;
2.407166666666667E+009;1.745433658361435E-001;-1.253655645996332E-002;4.915017168968916E-003;4.171041771769524E-003;
2.407333333333334E+009;1.749920547008514E-001;-1.450465898960829E-002;5.163244903087616E-003;3.996114712208509E-003;
2.407500000000000E+009;1.756609827280045E-001;-1.612891070544720E-002;5.323737394064665E-003;3.845580620691180E-003;
2.407666666666667E+009;1.763606369495392E-001;-1.794528588652611E-002;5.540944170206785E-003;3.703941125422716E-003;
2.407833333333334E+009;1.769748032093048E-001;-1.976270973682404E-002;5.660901777446270E-003;3.335790475830436E-003;
2.408000000000000E+009;1.778372079133987E-001;-2.148886211216450E-002;5.907810758799315E-003;3.106048796325922E-003;
2.408166666666667E+009;1.785001158714294E-001;-2.275541611015797E-002;6.132876966148615E-003;2.758572110906243E-003;
2.408333333333334E+009;1.792247593402863E-001;-2.426934242248535E-002;6.229879334568977E-003;2.397367265075445E-003;
2.408500000000000E+009;1.797075271606445E-001;-2.576393075287342E-002;6.252372637391090E-003;2.070981776341796E-003;
2.408666666666667E+009;1.802321821451187E-001;-2.699823863804340E-002;6.299183703958988E-003;1.806489424780011E-003;
2.408833333333334E+009;1.806950718164444E-001;-2.805409580469132E-002;6.198839284479618E-003;1.480526989325881E-003;
2.409000000000000E+009;1.811534315347672E-001;-2.928529866039753E-002;6.376844830811024E-003;1.182226347737014E-003;
2.409166666666667E+009;1.815853863954544E-001;-3.015650063753128E-002;6.016680039465427E-003;9.373156935907900E-004;
2.409333333333334E+009;1.820635497570038E-001;-3.112281858921051E-002;6.084979046136141E-003;6.811091443523765E-004;
2.409500000000000E+009;1.823494434356690E-001;-3.195533901453018E-002;5.940766539424658E-003;4.634559445548803E-004;
2.409666666666667E+009;1.825989335775375E-001;-3.254124149680138E-002;6.033853162080050E-003;1.923159143188968E-004;
2.409833333333334E+009;1.828945130109787E-001;-3.297363221645355E-002;6.024968344718218E-003;-9.115415195992682E-006;
2.410000000000000E+009;1.831017285585403E-001;-3.342187032103539E-002;5.805009976029396E-003;-2.212168765254319E-004;
2.410166666666667E+009;1.833443641662598E-001;-3.394427150487900E-002;5.640160758048296E-003;-4.101315280422568E-004;
2.410333333333334E+009;1.832543313503265E-001;-3.434919193387032E-002;5.559322424232960E-003;-3.980808251071721E-004;
2.410500000000000E+009;1.833906620740891E-001;-3.480659797787666E-002;5.419787485152483E-003;-7.151197060011327E-004;
2.410666666666667E+009;1.833510100841522E-001;-3.513108938932419E-002;5.278337746858597E-003;-7.920671487227082E-004;
2.410833333333334E+009;1.832279413938522E-001;-3.530290722846985E-002;5.279271863400936E-003;-1.059627626091242E-003;
2.411000000000000E+009;1.829811632633209E-001;-3.553240746259689E-002;5.182174965739250E-003;-1.035054912790656E-003;
2.411166666666667E+009;1.826191246509552E-001;-3.595797345042229E-002;5.119256675243378E-003;-1.008283114060760E-003;
2.411333333333334E+009;1.821901947259903E-001;-3.613901510834694E-002;4.942571278661490E-003;-1.282912911847234E-003;
2.411500000000000E+009;1.818579882383347E-001;-3.655576705932617E-002;4.882072564214468E-003;-1.362130627967417E-003;
2.411666666666667E+009;1.816388666629791E-001;-3.686783090233803E-002;4.573937039822340E-003;-1.609866623766720E-003;
2.411833333333334E+009;1.807323992252350E-001;-3.731169179081917E-002;4.671216942369938E-003;-1.771872281096876E-003;
2.412000000000000E+009;1.800287216901779E-001;-3.759725764393807E-002;4.426843952387571E-003;-1.749450457282364E-003;
2.412166666666667E+009;1.790001243352890E-001;-3.817097097635269E-002;4.532025661319494E-003;-1.844846527092159E-003;
2.412333333333334E+009;1.784022152423859E-001;-3.842550143599510E-002;4.232183098793030E-003;-1.882751588709652E-003;
2.412500000000000E+009;1.772228628396988E-001;-3.893044590950012E-002;4.230549093335867E-003;-1.963825197890401E-003;
2.412666666666667E+009;1.761956363916397E-001;-3.986066207289696E-002;4.113253671675921E-003;-1.849037478677928E-003;
2.412833333333334E+009;1.752038300037384E-001;-4.038253054022789E-002;3.961252979934216E-003;-1.965990755707026E-003;
2.413000000000000E+009;1.739587783813477E-001;-4.109326004981995E-002;3.748116083443165E-003;-1.885816454887390E-003;
2.413166666666667E+009;1.727602332830429E-001;-4.187858104705811E-002;3.720342414453626E-003;-2.040073275566101E-003;
2.413333333333334E+009;1.713579148054123E-001;-4.287220165133476E-002;3.764603752642870E-003;-1.923342351801693E-003;
2.413500000000000E+009;1.702255606651306E-001;-4.381648078560829E-002;3.768937895074487E-003;-1.881286152638495E-003;
2.413666666666667E+009;1.690358966588974E-001;-4.488296806812286E-002;3.484959481284022E-003;-1.960171153768897E-003;
2.413833333333334E+009;1.676118820905685E-001;-4.579402506351471E-002;3.788081230595708E-003;-2.015618374571204E-003;
2.414000000000000E+009;1.663029640913010E-001;-4.713189601898193E-002;3.777047386392951E-003;-2.068630885332823E-003;
2.414166666666667E+009;1.651831716299057E-001;-4.834290966391563E-002;3.681219182908535E-003;-1.901517156511545E-003;
2.414333333333334E+009;1.639002710580826E-001;-4.971694201231003E-002;3.911769483238459E-003;-1.924612326547504E-003;
2.414500000000000E+009;1.630107760429382E-001;-5.097136646509171E-002;3.918175585567951E-003;-2.039413899183273E-003;
2.414666666666667E+009;1.617561280727387E-001;-5.262604355812073E-002;3.898015012964606E-003;-2.265136921778321E-003;
2.414833333333334E+009;1.605211496353149E-001;-5.418110638856888E-002;3.991388715803623E-003;-2.314759185537696E-003;
2.415000000000000E+009;1.595792621374130E-001;-5.576291307806969E-002;4.264603834599257E-003;-2.334800083190203E-003;
2.415166666666667E+009;1.584999710321426E-001;-5.741490423679352E-002;4.128321539610624E-003;-2.465621335431933E-003;
2.415333333333334E+009;1.577945202589035E-001;-5.915508419275284E-002;4.173611290752888E-003;-2.565289614722133E-003;
2.415500000000000E+009;1.569002121686935E-001;-6.093320995569229E-002;4.236766602844000E-003;-2.826903248205781E-003;
2.415666666666667E+009;1.561281383037567E-001;-6.273237615823746E-002;4.274761769920588E-003;-3.027922473847866E-003;
2.415833333333334E+009;1.555934697389603E-001;-6.478706002235413E-002;4.280447028577328E-003;-3.273304784670472E-003;
2.416000000000000E+009;1.546916663646698E-001;-6.685923784971237E-002;4.302810411900282E-003;-3.492271760478616E-003;
2.416166666666667E+009;1.542744338512421E-001;-6.864736974239349E-002;4.350773990154266E-003;-3.655239706858993E-003;
2.416333333333334E+009;1.537374556064606E-001;-7.058561593294144E-002;4.139906726777554E-003;-3.803516970947385E-003;
2.416500000000000E+009;1.533317416906357E-001;-7.272803783416748E-002;3.872634842991829E-003;-4.071780014783144E-003;
2.416666666666667E+009;1.528410017490387E-001;-7.461293041706085E-002;3.830771194770932E-003;-4.385106731206179E-003;
2.416833333333334E+009;1.527418345212936E-001;-7.671867311000824E-002;3.672114107757807E-003;-4.362802952528000E-003;
2.417000000000000E+009;1.522445231676102E-001;-7.849137485027313E-002;3.443033667281270E-003;-4.736778791993856E-003;
2.417166666666667E+009;1.521368175745010E-001;-8.020606637001038E-002;3.295963397249579E-003;-4.884590860456228E-003;
2.417333333333334E+009;1.520717442035675E-001;-8.196407556533814E-002;3.161717671900988E-003;-5.192557815462351E-003;
2.417500000000000E+009;1.519257724285126E-001;-8.388764411211014E-002;2.906647976487875E-003;-5.194663535803556E-003;
2.417666666666667E+009;1.521416157484055E-001;-8.541220426559448E-002;2.746366895735264E-003;-5.457500927150250E-003;
2.417833333333334E+009;1.519743055105209E-001;-8.695492893457413E-002;2.373616676777601E-003;-5.550943315029144E-003;
2.418000000000000E+009;1.520204246044159E-001;-8.869337290525436E-002;2.228063996881247E-003;-5.553393624722958E-003;
2.418166666666667E+009;1.520495414733887E-001;-8.978790789842606E-002;2.179181203246117E-003;-5.682733375579119E-003;
2.418333333333334E+009;1.524497419595718E-001;-9.113454818725586E-002;1.695556798949838E-003;-5.687241908162832E-003;
2.418500000000000E+009;1.524635553359985E-001;-9.243223071098328E-002;1.547460909932852E-003;-5.888306535780430E-003;
2.418666666666667E+009;1.526580899953842E-001;-9.342265874147415E-002;1.325113233178854E-003;-5.841057281941176E-003;
2.418833333333334E+009;1.527033746242523E-001;-9.447106719017029E-002;9.871538495644927E-004;-5.979135632514954E-003;
2.419000000000000E+009;1.529022455215454E-001;-9.520301222801209E-002;6.957032601349056E-004;-6.123457103967667E-003;
2.419166666666667E+009;1.531547009944916E-001;-9.597472846508026E-002;4.535446641966701E-004;-6.113646551966667E-003;
2.419333333333334E+009;1.532206386327744E-001;-9.632819890975952E-002;2.329904527869076E-004;-6.095693912357092E-003;
2.419500000000000E+009;1.534586399793625E-001;-9.708914905786514E-002;1.113863690989092E-004;-6.113076116889715E-003;
2.419666666666667E+009;1.538038402795792E-001;-9.751868993043900E-002;-2.188903017668054E-004;-6.053709425032139E-003;
2.419833333333334E+009;1.538201421499252E-001;-9.772357344627380E-002;-5.157434497959912E-004;-6.039898842573166E-003;
2.420000000000000E+009;1.539965867996216E-001;-9.793329238891602E-002;-8.043215493671596E-004;-6.034052465111017E-003;
2.420166666666667E+009;1.541130989789963E-001;-9.805447608232498E-002;-1.013038679957390E-003;-5.850209854543209E-003;
2.420333333333334E+009;1.541230678558350E-001;-9.809308499097824E-002;-1.407670206390321E-003;-5.946226418018341E-003;
2.420500000000000E+009;1.542298495769501E-001;-9.787701815366745E-002;-1.349629252217710E-003;-5.796815268695355E-003;
2.420666666666667E+009;1.542496085166931E-001;-9.751467406749725E-002;-1.776752877049148E-003;-5.879521835595369E-003;
2.420833333333334E+009;1.542489528656006E-001;-9.756945818662643E-002;-1.949756406247616E-003;-5.635798443108797E-003;
2.421000000000000E+009;1.538891047239304E-001;-9.724335372447968E-002;-2.321308245882392E-003;-5.747893359512091E-003;
2.421166666666667E+009;1.538554579019547E-001;-9.691769629716873E-002;-2.495208987966180E-003;-5.348360631614924E-003;
2.421333333333334E+009;1.535800099372864E-001;-9.681099653244019E-002;-2.738530514761806E-003;-5.335801746696234E-003;
2.421500000000000E+009;1.530769467353821E-001;-9.632820636034012E-002;-2.899338258430362E-003;-5.263243801891804E-003;
2.421666666666667E+009;1.528587341308594E-001;-9.613253921270371E-002;-3.223597770556808E-003;-5.127924960106611E-003;
2.421833333333334E+009;1.521849632263184E-001;-9.572630375623703E-002;-3.505989909172058E-003;-4.955867305397987E-003;
2.422000000000000E+009;1.513395607471466E-001;-9.543754905462265E-002;-3.689196193590760E-003;-4.764067009091377E-003;
2.422166666666667E+009;1.506395041942596E-001;-9.542198479175568E-002;-3.922645468264818E-003;-4.427114501595497E-003;
2.422333333333334E+009;1.498089134693146E-001;-9.511285275220871E-002;-4.205779172480106E-003;-4.243661649525166E-003;
2.422500000000000E+009;1.488026380538940E-001;-9.483060240745544E-002;-4.361111205071211E-003;-3.861543722450733E-003;
2.422666666666667E+009;1.477171331644058E-001;-9.473746269941330E-002;-4.648538772016764E-003;-3.690693993121386E-003;
2.422833333333334E+009;1.465350091457367E-001;-9.460865706205368E-002;-4.560737404972315E-003;-3.269233042374253E-003;
2.423000000000000E+009;1.453676670789719E-001;-9.447840601205826E-002;-4.763831850141287E-003;-2.914672484621406E-003;
2.423166666666667E+009;1.440532058477402E-001;-9.475310146808624E-002;-4.696077201515436E-003;-2.471502171829343E-003;
2.423333333333334E+009;1.426967382431030E-001;-9.428348392248154E-002;-4.823358263820410E-003;-2.250446239486337E-003;
2.423500000000000E+009;1.412590146064758E-001;-9.451728314161301E-002;-4.760790616273880E-003;-1.959958812221885E-003;
2.423666666666667E+009;1.394988894462585E-001;-9.473560750484467E-002;-4.667910747230053E-003;-1.753119169734418E-003;
2.423833333333334E+009;1.381290704011917E-001;-9.480106085538864E-002;-4.518688190728426E-003;-1.358878682367504E-003;
2.424000000000000E+009;1.364274919033051E-001;-9.502589702606201E-002;-4.351642914116383E-003;-1.090281875804067E-003;
2.424166666666667E+009;1.349781006574631E-001;-9.538082033395767E-002;-4.324319772422314E-003;-1.011278829537332E-003;
2.424333333333334E+009;1.336115151643753E-001;-9.567145258188248E-002;-4.233797546476126E-003;-7.405552896670997E-004;
2.424500000000000E+009;1.321084350347519E-001;-9.627680480480194E-002;-4.077307879924774E-003;-5.985247553326190E-004;
2.424666666666667E+009;1.306844502687454E-001;-9.668518602848053E-002;-3.830207046121359E-003;-4.523858660832048E-004;
2.424833333333334E+009;1.290951371192932E-001;-9.742596745491028E-002;-3.832859219983220E-003;-2.789795689750463E-004;
2.425000000000000E+009;1.277820616960526E-001;-9.843432903289795E-002;-3.675811225548387E-003;-2.651546092238277E-004;
2.425166666666667E+009;1.261762380599976E-001;-9.913812577724457E-002;-3.521371865645051E-003;-6.642218795605004E-005;
2.425333333333334E+009;1.250203847885132E-001;-1.002002879977226E-001;-3.414279315620661E-003;-3.171971184201539E-005;
2.425500000000000E+009;1.238638907670975E-001;-1.013453304767609E-001;-3.237540367990732E-003;-6.462033343268558E-005;
2.425666666666667E+009;1.225906759500504E-001;-1.025225594639778E-001;-3.150471718981862E-003;1.521811282145791E-005;
2.425833333333334E+009;1.215185001492500E-001;-1.037378385663033E-001;-2.990661654621363E-003;2.405122213531286E-004;
2.426000000000000E+009;1.204433068633080E-001;-1.050629541277885E-001;-2.957242541015148E-003;4.016323073301464E-004;
2.426166666666667E+009;1.196359544992447E-001;-1.064292788505554E-001;-2.942012622952461E-003;3.913522523362190E-004;
2.426333333333334E+009;1.186813414096832E-001;-1.078981459140778E-001;-2.766458084806800E-003;2.991247456520796E-004;
2.426500000000000E+009;1.179030016064644E-001;-1.093296036124229E-001;-2.624053275212646E-003;5.495506338775158E-004;
2.426666666666667E+009;1.172748804092407E-001;-1.107593923807144E-001;-2.540384884923697E-003;7.541774539276958E-004;
2.426833333333334E+009;1.165790408849716E-001;-1.124064773321152E-001;-2.461846685037017E-003;7.629298488609493E-004;
2.427000000000000E+009;1.159934699535370E-001;-1.140337735414505E-001;-2.216485096141696E-003;7.667994359508157E-004;
2.427166666666667E+009;1.155255287885666E-001;-1.154648214578629E-001;-2.102587139233947E-003;8.310044649988413E-004;
2.427333333333334E+009;1.151441410183907E-001;-1.171602383255959E-001;-1.827883417718113E-003;7.530634175054729E-004;
2.427500000000000E+009;1.148924455046654E-001;-1.186370998620987E-001;-1.732242293655872E-003;8.074410143308342E-004;
2.427666666666667E+009;1.146614924073219E-001;-1.202708408236504E-001;-1.474873744882643E-003;8.519298280589283E-004;
