# Version 1.00
#
freq[Hz];re:Trc1_S11;im:Trc1_S11;re:Trc2_S21;im:Trc2_S21;
2.400000000000000E+009;1.567356139421463E-001;1.052888184785843E-001;-1.867916871560738E-004;-1.673388760536909E-003;
2.400166666666667E+009;1.565950512886047E-001;1.029696613550186E-001;-4.637221281882376E-004;-1.398363150656223E-003;
2.400333333333334E+009;1.569777727127075E-001;1.009401157498360E-001;-2.894184144679457E-004;-1.286419224925339E-003;
2.400500000000000E+009;1.570567637681961E-001;9.838306903839111E-002;-3.658252244349569E-004;-1.495621982030571E-003;
2.400666666666667E+009;1.573746800422669E-001;9.611478447914124E-002;-2.793323656078428E-004;-1.430983073078096E-003;
2.400833333333334E+009;1.575206071138382E-001;9.326536953449249E-002;-1.306189369643107E-004;-1.501128077507019E-003;
2.401000000000000E+009;1.580407470464706E-001;9.075620025396347E-002;-2.343291416764259E-004;-1.507395412772894E-003;
2.401166666666667E+009;1.581790894269943E-001;8.841661363840103E-002;-2.688158128876239E-004;-1.422163797542453E-003;
2.401333333333334E+009;1.584342867136002E-001;8.556593209505081E-002;-3.566701197996736E-004;-1.532523310743272E-003;
2.401500000000000E+009;1.592513024806976E-001;8.292496949434280E-002;-3.293151385150850E-004;-1.606820151209831E-003;
2.401666666666667E+009;1.595381647348404E-001;8.037190884351730E-002;-3.868583007715643E-004;-1.535388873890042E-003;
2.401833333333334E+009;1.599750220775604E-001;7.779549807310104E-002;-6.234943284653127E-004;-1.532902824692428E-003;
2.402000000000000E+009;1.609849631786346E-001;7.535668462514877E-002;-7.191741606220603E-004;-1.474309130571783E-003;
2.402166666666667E+009;1.616908609867096E-001;7.283068448305130E-002;-8.713538991287351E-004;-1.550369895994663E-003;
2.402333333333334E+009;1.626612693071365E-001;7.041644304990768E-002;-7.185704889707267E-004;-1.390113146044314E-003;
2.402500000000000E+009;1.638630330562592E-001;6.817308813333511E-002;-9.959265589714050E-004;-1.310467603616417E-003;
2.402666666666667E+009;1.648484766483307E-001;6.616461277008057E-002;-9.195387247018516E-004;-1.343190087936819E-003;
2.402833333333334E+009;1.660307049751282E-001;6.391374766826630E-002;-1.091693062335253E-003;-1.107327756471932E-003;
2.403000000000000E+009;1.673863083124161E-001;6.152055785059929E-002;-1.283627585507929E-003;-9.770372416824102E-004;
2.403166666666667E+009;1.688815504312515E-001;5.934236571192741E-002;-1.114832935854793E-003;-7.757919956929982E-004;
2.403333333333334E+009;1.701494753360748E-001;5.751529708504677E-002;-1.175446202978492E-003;-8.034370257519186E-004;
2.403500000000000E+009;1.716218888759613E-001;5.554591491818428E-002;-1.139610307291150E-003;-6.279433146119118E-004;
2.403666666666667E+009;1.731782853603363E-001;5.374325811862946E-002;-9.997701272368431E-004;-5.675145657733083E-004;
2.403833333333334E+009;1.745823472738266E-001;5.210676789283752E-002;-1.028703409247100E-003;-4.516804474405944E-004;
2.404000000000000E+009;1.758954674005508E-001;5.022015422582626E-002;-7.983547402545810E-004;-3.636887995526195E-004;
2.404166666666667E+009;1.774993836879730E-001;4.892172291874886E-002;-8.953951182775199E-004;-3.155868907924742E-004;
2.404333333333334E+009;1.788545399904251E-001;4.752916842699051E-002;-8.003075490705669E-004;-4.166621947661042E-004;
2.404500000000000E+009;1.801189631223679E-001;4.606110975146294E-002;-5.758081679232419E-004;-4.346756322775036E-004;
2.404666666666667E+009;1.816067099571228E-001;4.493112862110138E-002;-4.512418527156115E-004;-4.548339929897338E-004;
2.404833333333334E+009;1.830392032861710E-001;4.395947605371475E-002;-6.117487209849060E-004;-4.206745361443609E-004;
2.405000000000000E+009;1.841128617525101E-001;4.320292174816132E-002;-5.477159866131842E-004;-5.204869084991515E-004;
2.405166666666667E+009;1.854291707277298E-001;4.234259575605393E-002;-4.979413351975381E-004;-5.473787314258516E-004;
2.405333333333334E+009;1.866481453180313E-001;4.185573011636734E-002;-3.301432006992400E-004;-6.686850683763623E-004;
2.405500000000000E+009;1.877219974994659E-001;4.109438881278038E-002;-4.146903229411691E-004;-5.592231755144894E-004;
2.405666666666667E+009;1.888193190097809E-001;4.075636342167854E-002;-5.495068617165089E-004;-6.803181022405624E-004;
2.405833333333334E+009;1.899190843105316E-001;4.028796777129173E-002;-4.987998981960118E-004;-6.970548420213163E-004;
2.406000000000000E+009;1.906221956014633E-001;3.997939825057983E-002;-4.802637267857790E-004;-5.304067744873464E-004;
2.406166666666667E+009;1.914179474115372E-001;3.968030586838722E-002;-5.486693116836250E-004;-6.716269417665899E-004;
2.406333333333334E+009;1.922178268432617E-001;3.951584920287132E-002;-7.192501216195524E-004;-7.192484918050468E-004;
2.406500000000000E+009;1.928434222936630E-001;3.936839476227760E-002;-7.661790587007999E-004;-5.281724152155221E-004;
2.406666666666667E+009;1.934294700622559E-001;3.910826146602631E-002;-7.255609962157905E-004;-6.075879209674895E-004;
2.406833333333334E+009;1.937738955020905E-001;3.906242549419403E-002;-8.178391726687551E-004;-5.709998076781631E-004;
2.407000000000000E+009;1.940916925668716E-001;3.901838511228561E-002;-8.528984035365284E-004;-4.831151454709470E-004;
2.407166666666667E+009;1.944021433591843E-001;3.864735737442970E-002;-7.922110962681472E-004;-5.080460105091333E-004;
2.407333333333334E+009;1.942614763975143E-001;3.853688761591911E-002;-6.664554821327329E-004;-6.139767356216908E-004;
2.407500000000000E+009;1.943490505218506E-001;3.837283700704575E-002;-7.941522053442895E-004;-5.449769669212401E-004;
2.407666666666667E+009;1.944583952426910E-001;3.805855289101601E-002;-6.953762494958937E-004;-4.576172796078026E-004;
2.407833333333334E+009;1.939971148967743E-001;3.781906515359879E-002;-7.159577216953039E-004;-4.714196256827563E-004;
2.408000000000000E+009;1.940211653709412E-001;3.742377087473869E-002;-7.322967285290361E-004;-4.006919043604285E-004;
2.408166666666667E+009;1.935568898916245E-001;3.707303479313850E-002;-6.290316814556718E-004;-5.082662682980299E-004;
2.408333333333334E+009;1.933139711618424E-001;3.626358509063721E-002;-7.997874636203051E-004;-3.691068268381059E-004;
2.408500000000000E+009;1.927498131990433E-001;3.574903681874275E-002;-6.458549760282040E-004;-3.040108131244779E-004;
2.408666666666667E+009;1.923537701368332E-001;3.507038950920105E-002;-7.540804799646139E-004;-2.685588842723519E-004;
2.408833333333334E+009;1.917904168367386E-001;3.435426950454712E-002;-7.719238637946546E-004;-2.862330875359476E-004;
2.409000000000000E+009;1.909745633602142E-001;3.319886699318886E-002;-7.777669816277921E-004;-3.147862153127790E-004;
2.409166666666667E+009;1.903850287199020E-001;3.217834234237671E-002;-6.944432388991118E-004;-2.320676430827007E-004;
2.409333333333334E+009;1.897577494382858E-001;3.113165497779846E-002;-7.316395058296621E-004;-2.248192322440445E-004;
2.409500000000000E+009;1.886466294527054E-001;2.965798228979111E-002;-6.461188313551247E-004;-1.370081590721384E-004;
2.409666666666667E+009;1.880302727222443E-001;2.842104248702526E-002;-5.293230060487986E-004;-6.822970317443833E-005;
2.409833333333334E+009;1.871035546064377E-001;2.693959698081017E-002;-5.221290048211813E-004;-1.228016044478864E-004;
2.410000000000000E+009;1.865245848894119E-001;2.543765306472778E-002;-5.844060797244310E-004;-1.863692014012486E-004;
2.410166666666667E+009;1.855953335762024E-001;2.346677519381046E-002;-4.323671164456755E-004;-2.366211556363851E-004;
2.410333333333334E+009;1.848730444908142E-001;2.182008139789105E-002;-4.477276524994522E-004;-3.497430006973445E-004;
2.410500000000000E+009;1.841431111097336E-001;1.995904557406902E-002;-3.899499424733222E-004;-3.507393121253699E-004;
2.410666666666667E+009;1.833897829055786E-001;1.792481541633606E-002;-2.900339895859361E-004;-4.096232296433300E-004;
2.410833333333334E+009;1.829349249601364E-001;1.593572460114956E-002;-3.779126273002476E-004;-6.055240519344807E-004;
2.411000000000000E+009;1.824988871812820E-001;1.409790478646755E-002;-3.735623031388968E-004;-6.549852550961077E-004;
2.411166666666667E+009;1.818671971559525E-001;1.184595003724098E-002;-4.254238156136125E-004;-7.830500253476203E-004;
2.411333333333334E+009;1.815031021833420E-001;9.523968212306500E-003;-4.844210925512016E-004;-9.300417732447386E-004;
2.411500000000000E+009;1.811644732952118E-001;7.471310440450907E-003;-5.503881839103997E-004;-1.092254184186459E-003;
2.411666666666667E+009;1.809632182121277E-001;5.221208557486534E-003;-6.977498414926231E-004;-9.463654132559896E-004;
2.411833333333334E+009;1.808659136295319E-001;3.195033175870776E-003;-9.600418852642179E-004;-1.275247428566217E-003;
2.412000000000000E+009;1.809012144804001E-001;7.538681966252625E-004;-1.012958469800651E-003;-1.158047001808882E-003;
2.412166666666667E+009;1.812986582517624E-001;-1.388488686643541E-003;-1.218954799696803E-003;-1.167469308711588E-003;
2.412333333333334E+009;1.812970191240311E-001;-3.599596675485373E-003;-1.316127716563642E-003;-1.171785057522357E-003;
2.412500000000000E+009;1.818158626556397E-001;-5.689586047083139E-003;-1.568402280099690E-003;-1.116610947065055E-003;
2.412666666666667E+009;1.821481436491013E-001;-7.751471828669310E-003;-1.927446806803346E-003;-1.025426434352994E-003;
2.412833333333334E+009;1.828118115663528E-001;-1.028448063880205E-002;-1.988412113860250E-003;-8.381421794183552E-004;
2.413000000000000E+009;1.833707392215729E-001;-1.219990756362677E-002;-2.041743835434318E-003;-7.838549208827317E-004;
2.413166666666667E+009;1.841047257184982E-001;-1.414150092750788E-002;-2.168963430449367E-003;-5.279370816424489E-004;
2.413333333333334E+009;1.850457340478897E-001;-1.633281260728836E-002;-2.160147996619344E-003;-2.252382400911301E-004;
2.413500000000000E+009;1.858361661434174E-001;-1.833081804215908E-002;-2.371880924329162E-003;-6.389302870957181E-005;
2.413666666666667E+009;1.868652105331421E-001;-2.031783387064934E-002;-2.218827838078141E-003;1.184715220006183E-004;
2.413833333333334E+009;1.879173219203949E-001;-2.225194685161114E-002;-2.236824017018080E-003;2.466565929353237E-004;
2.414000000000000E+009;1.886867284774780E-001;-2.399337105453014E-002;-2.293276600539684E-003;4.031366843264550E-004;
2.414166666666667E+009;1.898932009935379E-001;-2.552487142384052E-002;-2.143994206562638E-003;7.033269503153861E-004;
2.414333333333334E+009;1.908229589462280E-001;-2.745571359992027E-002;-1.992654521018267E-003;8.340743370354176E-004;
2.414500000000000E+009;1.917444914579392E-001;-2.871188707649708E-002;-1.778717618435621E-003;1.005709287710488E-003;
2.414666666666667E+009;1.927819997072220E-001;-3.017978928983212E-002;-1.764550455845892E-003;1.119808759540319E-003;
2.414833333333334E+009;1.936650425195694E-001;-3.153251484036446E-002;-1.738839549943805E-003;1.065271790139377E-003;
2.415000000000000E+009;1.945752650499344E-001;-3.275852650403976E-002;-1.576151116751134E-003;1.041867304593325E-003;
2.415166666666667E+009;1.957502216100693E-001;-3.388411924242973E-002;-1.499140635132790E-003;1.173922093585134E-003;
2.415333333333334E+009;1.965866237878799E-001;-3.482291474938393E-002;-1.360675087198615E-003;1.201412407681346E-003;
2.415500000000000E+009;1.975232511758804E-001;-3.555664047598839E-002;-1.279743039049208E-003;1.151707023382187E-003;
2.415666666666667E+009;1.982994824647903E-001;-3.648388013243675E-002;-1.234694616869092E-003;1.268450636416674E-003;
2.415833333333334E+009;1.989348381757736E-001;-3.708062693476677E-002;-1.180384890176356E-003;1.181417144834995E-003;
2.416000000000000E+009;1.995708197355270E-001;-3.785099089145660E-002;-1.121775014325976E-003;1.238733297213912E-003;
2.416166666666667E+009;2.001871913671494E-001;-3.848899528384209E-002;-1.020555384457111E-003;1.180412597022951E-003;
2.416333333333334E+009;2.006538063287735E-001;-3.892520070075989E-002;-9.896238334476948E-004;1.204136060550809E-003;
2.416500000000000E+009;2.009864151477814E-001;-3.931230306625366E-002;-9.949920931831002E-004;1.316567067988217E-003;
2.416666666666667E+009;2.011033892631531E-001;-3.974949568510056E-002;-8.828646969050169E-004;1.249160966835916E-003;
2.416833333333334E+009;2.011498063802719E-001;-4.007713124155998E-002;-9.146261145360768E-004;1.304631121456623E-003;
2.417000000000000E+009;2.012543380260468E-001;-4.033245146274567E-002;-7.943304954096675E-004;1.420491375029087E-003;
2.417166666666667E+009;2.007165402173996E-001;-4.037770256400108E-002;-7.811348186805844E-004;1.519284211099148E-003;
2.417333333333334E+009;2.005413025617600E-001;-4.038642346858978E-002;-6.818138062953949E-004;1.640538452193141E-003;
2.417500000000000E+009;2.002531439065933E-001;-4.052871093153954E-002;-4.829376994166523E-004;1.447204384021461E-003;
2.417666666666667E+009;1.996372640132904E-001;-4.056454822421074E-002;-5.071157356724143E-004;1.594417844898999E-003;
2.417833333333334E+009;1.993852108716965E-001;-4.067314043641090E-002;-3.825809981208295E-004;1.521619153209031E-003;
2.418000000000000E+009;1.987178027629852E-001;-4.063098877668381E-002;-3.492684918455780E-004;1.519118784926832E-003;
2.418166666666667E+009;1.980272531509399E-001;-4.066980257630348E-002;-2.868975279852748E-004;1.423529232852161E-003;
2.418333333333334E+009;1.970659345388413E-001;-4.072662070393562E-002;-1.984646951314062E-004;1.438634004443884E-003;
2.418500000000000E+009;1.962119787931442E-001;-4.095435515046120E-002;-1.079345893231221E-004;1.348749268800020E-003;
2.418666666666667E+009;1.953860372304916E-001;-4.102024063467979E-002;1.541352830827236E-004;1.333267078734934E-003;
2.418833333333334E+009;1.943187266588211E-001;-4.139801114797592E-002;2.888718518079259E-005;1.300903619267047E-003;
2.419000000000000E+009;1.931385397911072E-001;-4.178168252110481E-002;2.357630728511140E-004;1.090102246962488E-003;
2.419166666666667E+009;1.921423822641373E-001;-4.218059778213501E-002;2.312302385689691E-004;1.256176852621138E-003;
2.419333333333334E+009;1.909060776233673E-001;-4.285698756575584E-002;2.500537957530469E-004;1.097822678275406E-003;
2.419500000000000E+009;1.896525025367737E-001;-4.338378086686134E-002;2.402300160611048E-004;9.414472151547670E-004;
2.419666666666667E+009;1.883350759744644E-001;-4.416560381650925E-002;2.671656257007271E-004;8.383658714592457E-004;
2.419833333333334E+009;1.870002448558807E-001;-4.488279297947884E-002;1.775002456270158E-004;7.707901531830430E-004;
2.420000000000000E+009;1.856012493371964E-001;-4.587112739682198E-002;2.859785745386034E-004;7.020035991445184E-004;
2.420166666666667E+009;1.841559708118439E-001;-4.693608731031418E-002;3.220567668904550E-005;7.455032900907099E-004;
2.420333333333334E+009;1.827779859304428E-001;-4.810424149036408E-002;4.913124212180264E-005;6.223114905878902E-004;
2.420500000000000E+009;1.813590079545975E-001;-4.913483932614327E-002;1.482214156567352E-005;7.739774300716817E-004;
2.420666666666667E+009;1.799102723598480E-001;-5.027439445257187E-002;-2.386274572927505E-004;6.600691704079509E-004;
2.420833333333334E+009;1.785177290439606E-001;-5.188594385981560E-002;-9.871757356449962E-005;6.711717578582466E-004;
2.421000000000000E+009;1.773553043603897E-001;-5.343317613005638E-002;-2.011952601606026E-004;8.309520781040192E-004;
2.421166666666667E+009;1.762271076440811E-001;-5.494108423590660E-002;-2.461155818309635E-004;8.428224828094244E-004;
2.421333333333334E+009;1.745699197053909E-001;-5.634840577840805E-002;-9.095943096326664E-005;9.078840957954526E-004;
2.421500000000000E+009;1.735384613275528E-001;-5.814004689455032E-002;9.380705705552828E-006;9.208419942297041E-004;
2.421666666666667E+009;1.724174916744232E-001;-5.981015786528587E-002;4.096245538676158E-005;1.096854568459094E-003;
2.421833333333334E+009;1.714653372764587E-001;-6.151178851723671E-002;-5.205298657529056E-005;9.253860334865749E-004;
2.422000000000000E+009;1.705053895711899E-001;-6.326295435428619E-002;-2.707661587919574E-005;7.555964402854443E-004;
2.422166666666667E+009;1.696176379919052E-001;-6.520313024520874E-002;-2.616484380268958E-005;9.350011823698878E-004;
2.422333333333334E+009;1.688647419214249E-001;-6.703380495309830E-002;6.566898809978738E-005;9.505496709607542E-004;
2.422500000000000E+009;1.680468767881393E-001;-6.874310225248337E-002;4.089503272552975E-005;9.453057427890599E-004;
2.422666666666667E+009;1.673906743526459E-001;-7.053309679031372E-002;6.482252501882613E-005;8.637720020487905E-004;
2.422833333333334E+009;1.669383794069290E-001;-7.250072062015533E-002;1.726796654111240E-006;9.864296298474073E-004;
2.423000000000000E+009;1.664696633815765E-001;-7.430898398160934E-002;1.361865633953130E-005;9.532950934953988E-004;
2.423166666666667E+009;1.661141812801361E-001;-7.601418346166611E-002;-9.429358033230528E-005;7.756777340546250E-004;
2.423333333333334E+009;1.658245623111725E-001;-7.778165489435196E-002;-1.256222731171874E-005;9.998156456276774E-004;
2.423500000000000E+009;1.658373922109604E-001;-7.958512008190155E-002;1.085719195543788E-004;1.036252593621612E-003;
2.423666666666667E+009;1.657754778862000E-001;-8.125010132789612E-002;1.102681999327615E-004;1.012106426060200E-003;
2.423833333333334E+009;1.655970960855484E-001;-8.286038041114807E-002;1.472919975640252E-004;1.059105619788170E-003;
2.424000000000000E+009;1.655856370925903E-001;-8.449751883745194E-002;9.844380838330835E-005;1.112414407543838E-003;
2.424166666666667E+009;1.656748354434967E-001;-8.599341660737991E-002;2.036054938798770E-004;1.186646637506783E-003;
2.424333333333334E+009;1.656700819730759E-001;-8.735369145870209E-002;3.430003416724503E-004;1.179415266960859E-003;
2.424500000000000E+009;1.660817414522171E-001;-8.904944360256195E-002;6.708083092235029E-004;1.222922117449343E-003;
2.424666666666667E+009;1.661578416824341E-001;-9.033280611038208E-002;4.405875224620104E-004;1.142457011155784E-003;
2.424833333333334E+009;1.666363477706909E-001;-9.150128811597824E-002;4.869117110501975E-004;1.079111243598163E-003;
2.425000000000000E+009;1.667375862598419E-001;-9.275557845830917E-002;6.537102162837982E-004;1.247479347512126E-003;
2.425166666666667E+009;1.668177992105484E-001;-9.388193488121033E-002;7.138652144931257E-004;1.086983713321388E-003;
2.425333333333334E+009;1.671736538410187E-001;-9.473882615566254E-002;6.649448187090457E-004;8.934426587074995E-004;
2.425500000000000E+009;1.674161851406097E-001;-9.583214670419693E-002;6.781314732506871E-004;8.503964054398239E-004;
2.425666666666667E+009;1.677070707082748E-001;-9.649981558322907E-002;6.446406478062272E-004;1.029545674100518E-003;
2.425833333333334E+009;1.678785085678101E-001;-9.741396456956863E-002;7.402970222756267E-004;9.184895898215473E-004;
2.426000000000000E+009;1.681962758302689E-001;-9.790640324354172E-002;7.668056641705334E-004;9.276077034883201E-004;
2.426166666666667E+009;1.684213131666184E-001;-9.859558194875717E-002;6.210632272996008E-004;6.838401895947754E-004;
2.426333333333334E+009;1.685748398303986E-001;-9.925831109285355E-002;7.624918944202364E-004;7.717857370153070E-004;
2.426500000000000E+009;1.688355654478073E-001;-9.958644211292267E-002;7.491162978112698E-004;7.263955776579678E-004;
2.426666666666667E+009;1.689367592334747E-001;-9.997789561748505E-002;8.995461394079030E-004;7.513664895668626E-004;
2.426833333333334E+009;1.691539734601975E-001;-1.005148217082024E-001;6.940776365809143E-004;6.522707408294082E-004;
2.427000000000000E+009;1.690964698791504E-001;-1.008996665477753E-001;8.252810803242028E-004;6.328489980660379E-004;
2.427166666666667E+009;1.690848022699356E-001;-1.010821536183357E-001;7.013712893240154E-004;7.178232190199196E-004;
2.427333333333334E+009;1.689865589141846E-001;-1.016650050878525E-001;8.093834039755166E-004;5.984985036775470E-004;
2.427500000000000E+009;1.687020957469940E-001;-1.020105332136154E-001;1.025873352773488E-003;5.433434271253645E-004;
2.427666666666667E+009;1.683870255947113E-001;-1.022896915674210E-001;9.866044856607914E-004;5.551259382627904E-004;
