# Hz S RI R 
2400000000.0000000000 0.166545137763023404220419365629 0.041039440780878067016601562500 0.001590147730894386985181498950 -0.003255103016272186799290322412 0 0 0 0 
2400166666.6666665077 0.167324677109718294998330634371 0.040310285985469818115234375000 0.001449762261472641988041543115 -0.003097238019108771844151162256 0 0 0 0 
2400333333.3333334923 0.167778655886650113204794365629 0.039160370826721191406250000000 0.001351139508187771060346293872 -0.003382142167538404898402548682 0 0 0 0 
2400500000.0000000000 0.168303340673446710784588731258 0.038229152560234069824218750000 0.001199739053845406012294150244 -0.003347449703142046928405761719 0 0 0 0 
2400666666.6666665077 0.168689042329788208007812500000 0.037218652665615081787109375000 0.001090916572138667106628417969 -0.003458834020420908927917480469 0 0 0 0 
2400833333.3333334923 0.169338762760162409026776231258 0.036414440721273422241210937500 0.001041765906848012967350625146 -0.003643300384283065795898437500 0 0 0 0 
2401000000.0000000000 0.169479593634605407714843750000 0.035346601158380508422851562500 0.000870263669639825820922851562 -0.003688311437144875960109091650 0 0 0 0 
2401166666.6666665077 0.169928163290023803710937500000 0.034148517996072769165039062500 0.000583156535867601633071899414 -0.003782383631914854049682617188 0 0 0 0 
2401333333.3333334923 0.169916480779647799392861884371 0.033307760953903198242187500000 0.000402486330131068825721740723 -0.003863448277115821838378906250 0 0 0 0 
2401500000.0000000000 0.170482993125915499588174384371 0.032404396682977683330495466407 0.000133987457957118803828638898 -0.003961819689720869064331054688 0 0 0 0 
2401666666.6666665077 0.170643568038940401931924384371 0.031541943550109863281250000000 -0.000025342691515106711199487380 -0.003930250648409128189086914062 0 0 0 0 
2401833333.3333334923 0.170637056231498690506143134371 0.030547283589839938772181326954 -0.000348713714629411697387695312 -0.003736465703696012930629111182 0 0 0 0 
2402000000.0000000000 0.170728623867034912109375000000 0.029543060809373859060267264454 -0.000449457613285630887180882587 -0.003763170680031179948094033350 0 0 0 0 
2402166666.6666665077 0.171065077185630798339843750000 0.028436932712793350219726562500 -0.000645961612462997436523437500 -0.003616575617343186898472451318 0 0 0 0 
2402333333.3333334923 0.170945465564727810958700615629 0.027410166338086131704310233204 -0.000724765181075781583786010742 -0.003463958157226442857029580225 0 0 0 0 
2402500000.0000000000 0.171352073550224304199218750000 0.026632707566022869455357735546 -0.000905659515410661697387695312 -0.003363485448062419891357421875 0 0 0 0 
2402666666.6666665077 0.171309828758239801604901231258 0.025750212371349341655690778907 -0.000984977115876972675323486328 -0.003136839717626572088954306494 0 0 0 0 
2402833333.3333334923 0.171276763081550598144531250000 0.024514557793736461294153983204 -0.001242533442564309077021933447 -0.003107895143330097198486328125 0 0 0 0 
2403000000.0000000000 0.171472758054733304122763115629 0.023406557738780978811243826954 -0.001241344376467167897465371240 -0.003042836906388401985168457031 0 0 0 0 
2403166666.6666665077 0.171501591801643399337606865629 0.022434752434492111206054687500 -0.001282174140214920043945312500 -0.002827129559591412977931357275 0 0 0 0 
2403333333.3333334923 0.171412914991378811935263115629 0.021350638940930369985560233204 -0.001047475729137659072875976562 -0.002735940972343087196350097656 0 0 0 0 
2403500000.0000000000 0.171372994780540494064169365629 0.020280823111534118652343750000 -0.001261224038898945071576762622 -0.002660004887729883193969726562 0 0 0 0 
2403666666.6666665077 0.171428948640823392013388115629 0.018942099064588550222376639454 -0.001145429210737348036525107275 -0.002629255875945090813877724756 0 0 0 0 
2403833333.3333334923 0.171395719051361111739950615629 0.017934942618012428283691406250 -0.001362754148431122086168598706 -0.002539801644161344008204794775 0 0 0 0 
2404000000.0000000000 0.171313911676406888107138115629 0.016831047832965850830078125000 -0.001232604263350367979762411963 -0.002611127216368914084193564307 0 0 0 0 
2404166666.6666665077 0.171306163072586087325888115629 0.015511023811995979654332344921 -0.001373808248899877071380615234 -0.002540637040510774092433310400 0 0 0 0 
2404333333.3333334923 0.171271592378616305252236884371 0.014320839196443559473981288477 -0.001382861053571105003356933594 -0.002330214250832796096801757812 0 0 0 0 
2404500000.0000000000 0.171241566538810702224893134371 0.012895483523607250558873360546 -0.001363640069030225060106586987 -0.002438123337924480004551552881 0 0 0 0 
2404666666.6666665077 0.171221613883972195724325615629 0.011623540893197059631347656250 -0.001525877043604850985883403247 -0.002273621503263711929321289062 0 0 0 0 
2404833333.3333334923 0.171103283762931795974893134371 0.010331378318369390315045741602 -0.001469924929551780007006001050 -0.002262962516397238211390829932 0 0 0 0 
2405000000.0000000000 0.171162113547325106521768134371 0.008987336419522762298583984375 -0.001498401165008544921875000000 -0.002304418245330452919006347656 0 0 0 0 
2405166666.6666665077 0.171167403459549005706463731258 0.007664917502552270889282226562 -0.001665339688770473003387451172 -0.002092679031193255944492959131 0 0 0 0 
2405333333.3333334923 0.171207010746002197265625000000 0.006172344554215669631958007812 -0.001403887988999485969543457031 -0.002130831591784954071044921875 0 0 0 0 
2405500000.0000000000 0.171225532889366205413494981258 0.004676485899835824966430664062 -0.001512873568572103977203369141 -0.002099586650729178948643349756 0 0 0 0 
2405666666.6666665077 0.171182632446289090255575615629 0.003268604399636387825012207031 -0.001551612629555165984510112231 -0.001965188654139637947082519531 0 0 0 0 
2405833333.3333334923 0.170922815799713107010049384371 0.001867959857918322086334228516 -0.001560830860398709990857768481 -0.002060311147943139076232910156 0 0 0 0 
2406000000.0000000000 0.171001985669136102874432481258 0.000183006224688142510965624399 -0.001621789182536303997039794922 -0.001985844457522035078761435400 0 0 0 0 
2406166666.6666665077 0.170800939202308710296307481258 -0.001148139825090765953063964844 -0.001431675511412322954890585791 -0.001886732759885489940643310547 0 0 0 0 
2406333333.3333334923 0.170765578746795709808026231258 -0.002733344212174416022059775244 -0.001351223909296094937565468896 -0.001908185076899826960322714697 0 0 0 0 
2406500000.0000000000 0.170498386025428799728231865629 -0.004257712047547101974487304688 -0.001674395985901355960248637622 -0.001874611363746226050733256763 0 0 0 0 
2406666666.6666665077 0.170247524976730402190838731258 -0.005529063753783702850341796875 -0.001491502160206436894060444409 -0.001987928757444024085998535156 0 0 0 0 
2406833333.3333334923 0.170030489563942011077557481258 -0.007192828226834535598754882812 -0.001566234743222594044328999097 -0.002060472266748547987696982275 0 0 0 0 
2407000000.0000000000 0.169817432761192294021768134371 -0.008660061284899711608886718750 -0.001504599349573255018946982275 -0.001941004535183310942408896338 0 0 0 0 
2407166666.6666665077 0.169672533869743402679119981258 -0.009851266629993915557861328125 -0.001690296572633088068721152197 -0.002013001590967177911045693506 0 0 0 0 
2407333333.3333334923 0.169301331043243408203125000000 -0.011402037926018239802350429102 -0.001697530504316091971156454932 -0.002158548915758728981018066406 0 0 0 0 
2407500000.0000000000 0.169091492891311701018963731258 -0.012466853484511380631416521680 -0.001742780441418289921404194409 -0.002153779147192835807800292969 0 0 0 0 
2407666666.6666665077 0.168863445520401000976562500000 -0.013804149813950060063372227148 -0.001897349604405462958692241138 -0.002170315477997065024134970557 0 0 0 0 
2407833333.3333334923 0.168352514505386408050213731258 -0.014992474578320980072021484375 -0.002078598598018289046046591650 -0.002291397424414753913879394531 0 0 0 0 
2408000000.0000000000 0.168261349201202392578125000000 -0.016219157725572589529017264454 -0.002168275415897368951084756006 -0.002122310688719152970554970850 0 0 0 0 
2408166666.6666665077 0.168116256594657897949218750000 -0.016893366351723670959472656250 -0.002209599828347564177272177588 -0.002201961120590568022487021338 0 0 0 0 
2408333333.3333334923 0.168016508221626309493856865629 -0.017958147451281551015833670704 -0.002355804899707436995265341650 -0.001995364902541040940525673975 0 0 0 0 
2408500000.0000000000 0.167818084359169006347656250000 -0.019038125872611999511718750000 -0.002455983543768525123596191406 -0.002130463486537336869480752100 0 0 0 0 
2408666666.6666665077 0.167848363518714904785156250000 -0.019939204677939418447474295704 -0.002459697891026734872105263818 -0.002048917580395936965942382812 0 0 0 0 
2408833333.3333334923 0.167836815118789700607138115629 -0.020737282931804660451868826954 -0.002518398920074104829075478662 -0.002040258608758449988124228369 0 0 0 0 
2409000000.0000000000 0.167836248874664306640625000000 -0.021848868578672409057617187500 -0.002891157288104296164271689307 -0.001953993691131473021266318213 0 0 0 0 
2409166666.6666665077 0.167861059308052090743856865629 -0.022856261581182479858398437500 -0.002947013592347503142115927588 -0.001931309234350919940351176685 0 0 0 0 
2409333333.3333334923 0.167855396866798400878906250000 -0.023698717355728149414062500000 -0.002938695251941680908203125000 -0.001714685233309864997863769531 0 0 0 0 
2409500000.0000000000 0.167957231402397211272869981258 -0.024742295965552330017089843750 -0.002976912073791027069091796875 -0.001762151368893682956695556641 0 0 0 0 
2409666666.6666665077 0.168052285909652709960937500000 -0.025546889752149578439732735546 -0.002991717774420977072474814307 -0.001566805993206799030303955078 0 0 0 0 
2409833333.3333334923 0.168039485812187194824218750000 -0.026573875918984409677525704296 -0.003256617579609156088588095557 -0.001455284189432858987095498193 0 0 0 0 
2410000000.0000000000 0.167997211217880304534588731258 -0.027530482038855549203892891796 -0.003162751672789454893824911963 -0.001299912575632333972333598560 0 0 0 0 
2410166666.6666665077 0.168138369917869595626669365629 -0.028586050495505329477330391796 -0.003498766338452696800231933594 -0.001255099778063595078111958081 0 0 0 0 
2410333333.3333334923 0.168062016367912292480468750000 -0.029596822336316108703613281250 -0.003508452093228698210475302588 -0.001203666208311914963963173975 0 0 0 0 
2410500000.0000000000 0.168033868074417086502236884371 -0.030549891293048858642578125000 -0.003653603373095393180847167969 -0.001048804377205670096753764575 0 0 0 0 
2410666666.6666665077 0.168034821748733492752236884371 -0.031611479818820953369140625000 -0.003465029411017895178553915869 -0.000885898421984165906906127930 0 0 0 0 
2410833333.3333334923 0.167882993817329406738281250000 -0.032508444041013717651367187500 -0.003712799167260528044459677588 -0.000807549105957150459289550781 0 0 0 0 
2411000000.0000000000 0.167888224124908502776776231258 -0.033479213714599609375000000000 -0.003918763250112533569335937500 -0.000533789163455367088317871094 0 0 0 0 
2411166666.6666665077 0.167660117149352999588174384371 -0.034414712339639656757395158593 -0.003853019792586565017700195312 -0.000562265282496809959411621094 0 0 0 0 
2411333333.3333334923 0.167528539896011408050213731258 -0.035419274121522903442382812500 -0.003926897421479225158691406250 -0.000339036225341260378986912860 0 0 0 0 
2411500000.0000000000 0.167267635464668301681356865629 -0.036624550819396972656250000000 -0.003922880627214908599853515625 -0.000116588176751974997207364493 0 0 0 0 
2411666666.6666665077 0.167423874139785794357138115629 -0.037506412714719772338867187500 -0.003859444288536905808689736475 0.000065223408455494791269302368 0 0 0 0 
2411833333.3333334923 0.167055279016494806487713731258 -0.038444586098194122314453125000 -0.004011932760477066040039062500 0.000124066020362079089314061298 0 0 0 0 
2412000000.0000000000 0.166959241032600402832031250000 -0.039551384747028350830078125000 -0.003978974651545286178588867188 0.000298724975436925888061523438 0 0 0 0 
2412166666.6666665077 0.166766703128814697265625000000 -0.040482223033905029296875000000 -0.003960807342082262039184570312 0.000491500890348106622695922852 0 0 0 0 
2412333333.3333334923 0.166511923074722290039062500000 -0.041354335844516747211496721093 -0.004003069829195737838745117188 0.000655095791444182395935058594 0 0 0 0 
2412500000.0000000000 0.166109308600425692459268134371 -0.042425125837326049804687500000 -0.004094257485121488571166992188 0.000794050109107047319412231445 0 0 0 0 
2412666666.6666665077 0.165839672088623102386151231258 -0.043416276574134826660156250000 -0.004061228130012750625610351562 0.001111414749175309918047260815 0 0 0 0 
2412833333.3333334923 0.165729463100433405120526231258 -0.044353261590003967285156250000 -0.003962598275393247604370117188 0.001259044045582414107081747900 0 0 0 0 
2413000000.0000000000 0.165230840444564791580361884371 -0.045268088579177863384206403907 -0.003716728184372187094447470557 0.001481815008446573994280170972 0 0 0 0 
2413166666.6666665077 0.164855509996414212325888115629 -0.046408716589212417602539062500 -0.003718813182786107063293457031 0.001542739220894872925401997144 0 0 0 0 
2413333333.3333334923 0.164406955242157010177450615629 -0.047507192939519882202148437500 -0.003750098403543233871459960938 0.001711734454147517897962260669 0 0 0 0 
2413500000.0000000000 0.164249822497367886642294365629 -0.048466093838214867328684221093 -0.003555017756298183961155556787 0.001983332680538297133204794775 0 0 0 0 
2413666666.6666665077 0.163801550865173312088174384371 -0.049419417977333068847656250000 -0.003387042554095387892482138525 0.001931660925038158893585205078 0 0 0 0 
2413833333.3333334923 0.163424476981162997146768134371 -0.050323598086833946918527971093 -0.003264796221628785133361816406 0.002207375131547451019287109375 0 0 0 0 
2414000000.0000000000 0.162839904427528409103231865629 -0.051269911229610443115234375000 -0.003033820772543549971339560400 0.002279937965795398192164755713 0 0 0 0 
2414166666.6666665077 0.162769749760627802093182481258 -0.052199587225914001464843750000 -0.002848123200237751007080078125 0.002360346959903835816624306787 0 0 0 0 
2414333333.3333334923 0.162314653396606500823651231258 -0.053106561303138732910156250000 -0.002786864293739200072047568213 0.002495940774679183959960937500 0 0 0 0 
2414500000.0000000000 0.162267163395881708343182481258 -0.054084375500679023052175153907 -0.002481263363733888106105185400 0.002611425705254077911376953125 0 0 0 0 
2414666666.6666665077 0.161883294582366887848223768742 -0.054865069687366492534597028907 -0.002378011355176568031311035156 0.002405491424724460081813193213 0 0 0 0 
2414833333.3333334923 0.161614507436752291580361884371 -0.055868249386549002910573591407 -0.002326068235561252074000693213 0.002406906336545944213867187500 0 0 0 0 
2415000000.0000000000 0.161478966474533108810263115629 -0.056748554110527038574218750000 -0.002179881557822227911708212744 0.002443722216412425041198730469 0 0 0 0 
2415166666.6666665077 0.161283686757087707519531250000 -0.057711236178874969482421875000 -0.001909280894324183897731161963 0.002554811537265778021571493994 0 0 0 0 
2415333333.3333334923 0.161184474825859097579794365629 -0.058861836791038513183593750000 -0.002108858665451406998875283350 0.002412227680906652970554970850 0 0 0 0 
2415500000.0000000000 0.161045566201209994217080634371 -0.059710029512643807148020158593 -0.001936308224685489914537739331 0.002425212645903230147120810400 0 0 0 0 
2415666666.6666665077 0.160853192210197504241619981258 -0.060780502855777740478515625000 -0.001984153175726532936096191406 0.002512682229280471801757812500 0 0 0 0 
2415833333.3333334923 0.160832494497299194335937500000 -0.061862595379352569580078125000 -0.001815453753806651072261191260 0.002309730043634771867039345850 0 0 0 0 
2416000000.0000000000 0.160507634282112093826455634371 -0.063002228736877441406250000000 -0.001763080712407826943638466943 0.002315367339178919792175292969 0 0 0 0 
2416166666.6666665077 0.160320669412612887283486884371 -0.064103245735168457031250000000 -0.001784456195309757969499897534 0.002384283579885960058925009619 0 0 0 0 
2416333333.3333334923 0.160029157996177701095419365629 -0.065270915627479553222656250000 -0.001720176078379153988481831128 0.002315114485099912123439169775 0 0 0 0 
2416500000.0000000000 0.159887284040451105315838731258 -0.066442467272281646728515625000 -0.001617068308405577919603657300 0.002293467987328768210170126807 0 0 0 0 
2416666666.6666665077 0.159490466117858886718750000000 -0.067387126386165618896484375000 -0.001742291613481939055799174731 0.002339414088055491013767861475 0 0 0 0 
2416833333.3333334923 0.159282580018043490310830634371 -0.068706706166267395019531250000 -0.001583521836437284946441650391 0.002332864794880152182338095557 0 0 0 0 
2417000000.0000000000 0.158736869692802401443643134371 -0.069670967757701873779296875000 -0.001679303939454257921931601416 0.002404714701697229905369423975 0 0 0 0 
2417166666.6666665077 0.158247753977775601486044365629 -0.070720948278903961181640625000 -0.001523330225609242916107177734 0.002555429702624679045436240088 0 0 0 0 
2417333333.3333334923 0.157961681485176086425781250000 -0.071531794965267181396484375000 -0.001460518920794128937962197412 0.002580667147412896156311035156 0 0 0 0 
2417500000.0000000000 0.157510980963706997970419365629 -0.072638280689716339111328125000 -0.001621015602722764015197753906 0.002541912952437996864318847656 0 0 0 0 
2417666666.6666665077 0.157216370105743408203125000000 -0.073373451828956604003906250000 -0.001488646143116056919097900391 0.002573970239609479904174804688 0 0 0 0 
2417833333.3333334923 0.156868383288383511642294365629 -0.074263200163841247558593750000 -0.001445634406991302967071533203 0.002684250241145492033717490088 0 0 0 0 
2418000000.0000000000 0.156399875879287691970986884371 -0.075259447097778320312500000000 -0.001339838374406099102617573315 0.002810562029480934143066406250 0 0 0 0 
2418166666.6666665077 0.156076118350028991699218750000 -0.075837053358554840087890625000 -0.001446600421331823089002299731 0.002780522918328642845153808594 0 0 0 0 
2418333333.3333334923 0.156035199761390713790731865629 -0.076685070991516113281250000000 -0.001199682708829640908482216943 0.002930553397163749174830771338 0 0 0 0 
2418500000.0000000000 0.155477687716484097579794365629 -0.077533714473247528076171875000 -0.001333970343694091060041118091 0.002848566276952623887303017725 0 0 0 0 
2418666666.6666665077 0.155200332403183011154013115629 -0.078265614807605743408203125000 -0.001044191885739564895629882812 0.003043290693312882943394326318 0 0 0 0 
2418833333.3333334923 0.154708012938499506194744981258 -0.079094536602497100830078125000 -0.001023740391246974901912070166 0.002939163707196712927577353369 0 0 0 0 
2419000000.0000000000 0.154306232929229708572549384371 -0.079778924584388732910156250000 -0.001047649537213146903394389575 0.003037812188267707824707031250 0 0 0 0 
2419166666.6666665077 0.153938472270965603927450615629 -0.080602660775184631347656250000 -0.000840360764414072036743164062 0.002954379422590136961696005713 0 0 0 0 
2419333333.3333334923 0.153480052947998102386151231258 -0.081130601465702056884765625000 -0.000821301364339888095855712891 0.003152537625283002853393554688 0 0 0 0 
2419500000.0000000000 0.153158470988273592849893134371 -0.082071803510189056396484375000 -0.000824510469101369380950927734 0.003010686719790101051330566406 0 0 0 0 
2419666666.6666665077 0.152858361601829501053018134371 -0.082733221352100372314453125000 -0.000800545385573059320449829102 0.003105922136455773873570107568 0 0 0 0 
2419833333.3333334923 0.152227237820625305175781250000 -0.083039820194244384765625000000 -0.000664975203108042478561401367 0.003116446547210216955897665869 0 0 0 0 
