# Version 1.00
#
freq[Hz];re:Trc1_S11;im:Trc1_S11;re:Trc2_S21;im:Trc2_S21;
2.400000000000000E+009;1.689979583024979E-001;4.047896713018417E-002;-1.172994961962104E-003;-2.113646827638149E-003;
2.400166666666667E+009;1.697123646736145E-001;3.996470570564270E-002;-1.288364990614355E-003;-2.051754854619503E-003;
2.400333333333334E+009;1.702721714973450E-001;3.888315707445145E-002;-1.119792112149298E-003;-2.156864618882537E-003;
2.400500000000000E+009;1.706817746162415E-001;3.815050795674324E-002;-1.405288232490420E-003;-2.202189061790705E-003;
2.400666666666667E+009;1.711334288120270E-001;3.741794824600220E-002;-1.534449052996934E-003;-2.194202737882733E-003;
2.400833333333334E+009;1.713313013315201E-001;3.674248605966568E-002;-1.639379770494998E-003;-2.108443528413773E-003;
2.401000000000000E+009;1.716484874486923E-001;3.577337414026260E-002;-1.969275530427694E-003;-2.129523782059550E-003;
2.401166666666667E+009;1.720435768365860E-001;3.489733114838600E-002;-2.190594095736742E-003;-2.076800214126706E-003;
2.401333333333334E+009;1.719538718461990E-001;3.424099087715149E-002;-2.461042022332549E-003;-1.939505920745432E-003;
2.401500000000000E+009;1.721418946981430E-001;3.338988497853279E-002;-2.286005998030305E-003;-1.950167003087699E-003;
2.401666666666667E+009;1.721685230731964E-001;3.272569552063942E-002;-2.478242386132479E-003;-1.654320862144232E-003;
2.401833333333334E+009;1.723203063011169E-001;3.185785934329033E-002;-2.612276934087277E-003;-1.534173614345491E-003;
2.402000000000000E+009;1.722025573253632E-001;3.108027763664722E-002;-2.720700576901436E-003;-1.393221551552415E-003;
2.402166666666667E+009;1.720722168684006E-001;3.007961995899677E-002;-2.550093922764063E-003;-1.315894187428057E-003;
2.402333333333334E+009;1.720034033060074E-001;2.915700711309910E-002;-2.680196659639478E-003;-1.032085390761495E-003;
2.402500000000000E+009;1.721643656492233E-001;2.857200615108013E-002;-2.651486778631806E-003;-9.485128684900701E-004;
2.402666666666667E+009;1.720153838396072E-001;2.753861248493195E-002;-2.567289397120476E-003;-7.063079974614084E-004;
2.402833333333334E+009;1.718962639570236E-001;2.657692693173885E-002;-2.581982640549541E-003;-6.849569617770612E-004;
2.403000000000000E+009;1.714985072612763E-001;2.570093795657158E-002;-2.574986545369029E-003;-5.036494112573564E-004;
2.403166666666667E+009;1.715686023235321E-001;2.450587972998619E-002;-2.295550191774964E-003;-4.748721548821777E-004;
2.403333333333334E+009;1.713334470987320E-001;2.343795262277126E-002;-2.349744085222483E-003;-4.824331263080239E-004;
2.403500000000000E+009;1.710241734981537E-001;2.242835052311420E-002;-2.238932996988297E-003;-5.835492629557848E-004;
2.403666666666667E+009;1.708443909883499E-001;2.099149860441685E-002;-2.233819803223014E-003;-4.144722770433873E-004;
2.403833333333334E+009;1.708552986383438E-001;1.980206370353699E-002;-2.153601497411728E-003;-3.887542989104986E-004;
2.404000000000000E+009;1.705816835165024E-001;1.847877353429794E-002;-2.198863308876753E-003;-4.341181775089353E-004;
2.404166666666667E+009;1.704537719488144E-001;1.707968302071095E-002;-2.198661677539349E-003;-5.219167214818299E-004;
2.404333333333334E+009;1.700710952281952E-001;1.572860032320023E-002;-2.236262895166874E-003;-6.305988063104451E-004;
2.404500000000000E+009;1.697980016469955E-001;1.427418179810047E-002;-2.321204636245966E-003;-5.031813634559512E-004;
2.404666666666667E+009;1.698635071516037E-001;1.284535229206085E-002;-2.436054637655616E-003;-4.619610845111311E-004;
2.404833333333334E+009;1.696806102991104E-001;1.138598471879959E-002;-2.408187137916684E-003;-4.765671910718083E-004;
2.405000000000000E+009;1.696150749921799E-001;9.639955125749111E-003;-2.620535204187036E-003;-4.704503517132253E-004;
2.405166666666667E+009;1.696334481239319E-001;8.281911723315716E-003;-2.754125976935029E-003;-3.206967667210847E-004;
2.405333333333334E+009;1.695236563682556E-001;6.438127718865871E-003;-2.774469787254930E-003;-2.112982765538618E-004;
2.405500000000000E+009;1.695175468921661E-001;4.814165644347668E-003;-2.830620622262359E-003;5.280972254695371E-005;
2.405666666666667E+009;1.694614738225937E-001;3.200456267222762E-003;-2.908891765400767E-003;9.245190449291840E-005;
2.405833333333334E+009;1.691304594278336E-001;1.530055538751185E-003;-2.921199891716242E-003;2.363508247071877E-004;
2.406000000000000E+009;1.692427694797516E-001;-3.908921789843589E-004;-2.968550892546773E-003;3.918024012818933E-004;
2.406166666666667E+009;1.690146178007126E-001;-1.895428868010640E-003;-2.716355258598924E-003;6.153135909698904E-004;
2.406333333333334E+009;1.690499186515808E-001;-3.641185117885470E-003;-2.628989284858108E-003;6.990712718106806E-004;
2.406500000000000E+009;1.689042001962662E-001;-5.210419651120901E-003;-2.669827779754996E-003;8.394190808758140E-004;
2.406666666666667E+009;1.686352044343948E-001;-6.799040827900171E-003;-2.767829922959209E-003;9.252096060663462E-004;
2.406833333333334E+009;1.686214655637741E-001;-8.655237965285778E-003;-2.405615989118815E-003;9.247016860172153E-004;
2.407000000000000E+009;1.685720682144165E-001;-1.014794781804085E-002;-2.436108188703656E-003;9.743885020725429E-004;
2.407166666666667E+009;1.686915308237076E-001;-1.146132498979569E-002;-2.490617567673326E-003;9.844911983236671E-004;
2.407333333333334E+009;1.683127731084824E-001;-1.296110823750496E-002;-2.348239533603191E-003;1.199598656967282E-003;
2.407500000000000E+009;1.682984232902527E-001;-1.424125768244267E-002;-2.145505044609308E-003;1.147933769971132E-003;
2.407666666666667E+009;1.682851314544678E-001;-1.552561391144991E-002;-2.200346207246184E-003;1.209748908877373E-003;
2.407833333333334E+009;1.680575311183929E-001;-1.701796241104603E-002;-2.064686734229326E-003;1.392952282913029E-003;
2.408000000000000E+009;1.680703759193420E-001;-1.809360273182392E-002;-2.072104020044208E-003;1.321073621511459E-003;
2.408166666666667E+009;1.681151092052460E-001;-1.894780993461609E-002;-1.844388432800770E-003;1.271501532755792E-003;
2.408333333333334E+009;1.683296263217926E-001;-1.988452300429344E-002;-1.835184753872454E-003;1.351378159597516E-003;
2.408500000000000E+009;1.683055758476257E-001;-2.091016806662083E-002;-1.948388991877437E-003;1.200065249577165E-003;
2.408666666666667E+009;1.683991253376007E-001;-2.196893282234669E-002;-1.879667863249779E-003;1.218444434925914E-003;
2.408833333333334E+009;1.685091555118561E-001;-2.292673289775848E-002;-1.826072810217738E-003;1.330735278315842E-003;
2.409000000000000E+009;1.686722338199616E-001;-2.361971326172352E-002;-1.762225292623043E-003;1.307729049585760E-003;
2.409166666666667E+009;1.688835769891739E-001;-2.448563091456890E-002;-1.699034008197486E-003;1.239925506524742E-003;
2.409333333333334E+009;1.692759245634079E-001;-2.544894255697727E-002;-1.863196957856417E-003;1.342198811471462E-003;
2.409500000000000E+009;1.693543046712875E-001;-2.616784535348415E-002;-1.992749283090234E-003;1.191145158372819E-003;
2.409666666666667E+009;1.695384532213211E-001;-2.708537131547928E-002;-1.862211385741830E-003;1.106881187297404E-003;
2.409833333333334E+009;1.696646511554718E-001;-2.780628576874733E-002;-1.951440121047199E-003;1.180671039037406E-003;
2.410000000000000E+009;1.699762642383575E-001;-2.862741239368916E-002;-2.115090610459447E-003;1.230500289238989E-003;
2.410166666666667E+009;1.700301766395569E-001;-2.958151884377003E-002;-2.047830494120717E-003;1.435276353731751E-003;
2.410333333333334E+009;1.701059192419052E-001;-3.033928945660591E-002;-2.302360255271196E-003;1.404723385348916E-003;
2.410500000000000E+009;1.701063811779022E-001;-3.119248524308205E-002;-2.248131204396486E-003;1.658200984820724E-003;
2.410666666666667E+009;1.700534969568253E-001;-3.191814199090004E-002;-2.253169659525156E-003;1.550363027490675E-003;
2.410833333333334E+009;1.700560450553894E-001;-3.268752247095108E-002;-2.206933218985796E-003;1.741512096486986E-003;
2.411000000000000E+009;1.700093895196915E-001;-3.351349383592606E-002;-2.342128660529852E-003;1.946402946487069E-003;
2.411166666666667E+009;1.698175966739655E-001;-3.432011604309082E-002;-2.284501213580370E-003;2.180089941248298E-003;
2.411333333333334E+009;1.695998609066010E-001;-3.502054139971733E-002;-2.299064537510276E-003;2.334430348128080E-003;
2.411500000000000E+009;1.693770736455917E-001;-3.583628684282303E-002;-2.008050680160523E-003;2.624148502945900E-003;
2.411666666666667E+009;1.693154871463776E-001;-3.648045659065247E-002;-1.906540477648377E-003;2.769052516669035E-003;
2.411833333333334E+009;1.688943654298782E-001;-3.734698891639710E-002;-2.027926268056035E-003;3.025378566235304E-003;
2.412000000000000E+009;1.686763465404511E-001;-3.805867955088615E-002;-1.687267445959151E-003;3.081343136727810E-003;
2.412166666666667E+009;1.683113723993301E-001;-3.913376852869988E-002;-1.609523547813296E-003;3.221504855901003E-003;
2.412333333333334E+009;1.682398021221161E-001;-3.989812359213829E-002;-1.309708924964070E-003;3.271317575126886E-003;
2.412500000000000E+009;1.674230247735977E-001;-4.071135818958283E-002;-1.216466072946787E-003;3.264561295509338E-003;
2.412666666666667E+009;1.671661287546158E-001;-4.187060892581940E-002;-9.577916935086250E-004;3.295560367405415E-003;
2.412833333333334E+009;1.669413000345230E-001;-4.266496002674103E-002;-8.185894112102687E-004;3.287703031674027E-003;
2.413000000000000E+009;1.661646962165833E-001;-4.367200657725334E-002;-6.152748246677220E-004;3.392302896827459E-003;
2.413166666666667E+009;1.657342463731766E-001;-4.452372342348099E-002;-4.393467970658094E-004;3.371992381289601E-003;
2.413333333333334E+009;1.651421189308167E-001;-4.558974504470825E-002;-2.713048597797751E-004;3.201976418495178E-003;
2.413500000000000E+009;1.647044867277145E-001;-4.668128490447998E-002;-2.342123625567183E-004;3.346901154145598E-003;
2.413666666666667E+009;1.641266345977783E-001;-4.767867922782898E-002;-2.410754386801273E-004;3.291489090770483E-003;
2.413833333333334E+009;1.635133177042007E-001;-4.863727092742920E-002;-4.781492316396907E-005;3.330705221742392E-003;
2.414000000000000E+009;1.627520471811295E-001;-4.967624321579933E-002;2.281192610098515E-005;3.163140499964356E-003;
2.414166666666667E+009;1.624294072389603E-001;-5.061857029795647E-002;1.785615895641968E-004;3.082188079133630E-003;
2.414333333333334E+009;1.619949042797089E-001;-5.167605727910996E-002;2.682495978660882E-004;3.175826277583838E-003;
2.414500000000000E+009;1.614736467599869E-001;-5.253397673368454E-002;4.278806154616177E-004;3.138034371659160E-003;
2.414666666666667E+009;1.611871421337128E-001;-5.365708842873573E-002;4.131251771468669E-004;3.109509358182550E-003;
2.414833333333334E+009;1.607552021741867E-001;-5.484677478671074E-002;6.994637660682201E-004;3.066195873543620E-003;
2.415000000000000E+009;1.604010760784149E-001;-5.575094744563103E-002;7.334866677410901E-004;3.014401067048311E-003;
2.415166666666667E+009;1.602041870355606E-001;-5.700720101594925E-002;8.675241260789335E-004;3.076746361330152E-003;
2.415333333333334E+009;1.600457280874252E-001;-5.824722722172737E-002;8.412289898842573E-004;2.970427973195911E-003;
2.415500000000000E+009;1.598275452852249E-001;-5.952695012092590E-002;8.375343750230968E-004;2.966438885778189E-003;
2.415666666666667E+009;1.595179140567780E-001;-6.062881276011467E-002;1.056770444847643E-003;2.813087310642004E-003;
2.415833333333334E+009;1.594387292861939E-001;-6.194502115249634E-002;1.133437501266599E-003;2.693811198696494E-003;
2.416000000000000E+009;1.589683592319489E-001;-6.330440193414688E-002;1.234269817359746E-003;2.872251672670245E-003;
2.416166666666667E+009;1.590560823678970E-001;-6.452464312314987E-002;1.269777887500823E-003;2.675872063264251E-003;
2.416333333333334E+009;1.587214767932892E-001;-6.580691784620285E-002;1.333407708443701E-003;2.669818699359894E-003;
2.416500000000000E+009;1.584846377372742E-001;-6.711219996213913E-002;1.372975762933493E-003;2.572169061750174E-003;
2.416666666666667E+009;1.581717431545258E-001;-6.835246831178665E-002;1.502114580944181E-003;2.327153924852610E-003;
2.416833333333334E+009;1.579646021127701E-001;-6.977998465299606E-002;1.350054983049631E-003;2.349414629861713E-003;
2.417000000000000E+009;1.573807895183563E-001;-7.099572569131851E-002;1.312862848863006E-003;2.257144777104259E-003;
2.417166666666667E+009;1.572671234607697E-001;-7.197683304548264E-002;1.414548140019178E-003;2.338722581043840E-003;
2.417333333333334E+009;1.569922119379044E-001;-7.321153581142426E-002;1.338893664069474E-003;2.303597982972860E-003;
2.417500000000000E+009;1.566789597272873E-001;-7.426350563764572E-002;1.493098912760615E-003;2.220910275354981E-003;
2.417666666666667E+009;1.565670818090439E-001;-7.517322897911072E-002;1.640860689803958E-003;2.254327991977334E-003;
2.417833333333334E+009;1.562309563159943E-001;-7.615710049867630E-002;1.589152961969376E-003;2.106455154716969E-003;
2.418000000000000E+009;1.559549719095230E-001;-7.719820737838745E-002;1.639801776036620E-003;2.076941076666117E-003;
2.418166666666667E+009;1.557206660509110E-001;-7.774321734905243E-002;1.644194941036403E-003;2.280138432979584E-003;
2.418333333333334E+009;1.557713150978088E-001;-7.871965318918228E-002;1.807432272471488E-003;2.191197359934449E-003;
2.418500000000000E+009;1.554573029279709E-001;-7.965029776096344E-002;1.865729223936796E-003;2.230622805655003E-003;
2.418666666666667E+009;1.554535329341888E-001;-8.048420399427414E-002;1.805127947591245E-003;2.338383579626679E-003;
2.418833333333334E+009;1.550879776477814E-001;-8.121415972709656E-002;1.873371540568769E-003;2.299226587638259E-003;
2.419000000000000E+009;1.549366861581802E-001;-8.196751028299332E-002;1.980443252250552E-003;2.163719618692994E-003;
2.419166666666667E+009;1.547081917524338E-001;-8.265759050846100E-002;2.264113631099463E-003;2.133694244548678E-003;
2.419333333333334E+009;1.543308049440384E-001;-8.325453102588654E-002;2.271354664117098E-003;2.282756613567472E-003;
2.419500000000000E+009;1.541881263256073E-001;-8.399437367916107E-002;2.496856963261962E-003;2.153960987925530E-003;
2.419666666666667E+009;1.540440618991852E-001;-8.470053225755692E-002;2.708204789087176E-003;2.085316227748990E-003;
2.419833333333334E+009;1.534346789121628E-001;-8.500351756811142E-002;2.908372553065419E-003;1.958004664629698E-003;
2.420000000000000E+009;1.533465981483460E-001;-8.559479564428330E-002;3.040316281840205E-003;1.911233761347830E-003;
2.420166666666667E+009;1.530485153198242E-001;-8.611813187599182E-002;3.130485070869327E-003;1.581432181410492E-003;
2.420333333333334E+009;1.527886092662811E-001;-8.666146546602249E-002;3.237404860556126E-003;1.469789771363139E-003;
2.420500000000000E+009;1.523511707782745E-001;-8.716478943824768E-002;3.497004974633455E-003;1.338192843832076E-003;
2.420666666666667E+009;1.521012037992477E-001;-8.755558729171753E-002;3.422774840146303E-003;1.106470124796033E-003;
2.420833333333334E+009;1.517037153244019E-001;-8.809956163167954E-002;3.270469140261412E-003;9.979079477488995E-004;
2.421000000000000E+009;1.513887643814087E-001;-8.874153345823288E-002;3.551773959770799E-003;8.289503166452050E-004;
2.421166666666667E+009;1.509397029876709E-001;-8.930689841508865E-002;3.515189513564110E-003;7.802144391462207E-004;
2.421333333333334E+009;1.505849510431290E-001;-8.982503414154053E-002;3.398513421416283E-003;4.356485733296722E-004;
2.421500000000000E+009;1.500069499015808E-001;-9.050041437149048E-002;3.302488243207336E-003;2.489368198439479E-004;
2.421666666666667E+009;1.494661420583725E-001;-9.110161662101746E-002;3.333623288199306E-003;-3.816412208834663E-005;
2.421833333333334E+009;1.489880234003067E-001;-9.148539602756500E-002;3.270248882472515E-003;-2.026973525062203E-004;
2.422000000000000E+009;1.483582407236099E-001;-9.222549945116043E-002;3.112165955826640E-003;-3.325275320094079E-004;
2.422166666666667E+009;1.476386040449143E-001;-9.295070171356201E-002;2.966520609334111E-003;-3.638176131062210E-004;
2.422333333333334E+009;1.470277458429337E-001;-9.344552457332611E-002;3.110225545242429E-003;-4.862405476160348E-004;
2.422500000000000E+009;1.463137120008469E-001;-9.412258118391037E-002;2.999192569404841E-003;-6.820569396950305E-004;
2.422666666666667E+009;1.456983238458633E-001;-9.486033022403717E-002;2.797450404614210E-003;-5.681051989085972E-004;
2.422833333333334E+009;1.450223624706268E-001;-9.572561085224152E-002;2.821072936058044E-003;-7.697333348914981E-004;
2.423000000000000E+009;1.442400217056274E-001;-9.642986208200455E-002;2.786983968690038E-003;-6.514941342175007E-004;
2.423166666666667E+009;1.436955481767654E-001;-9.729149937629700E-002;2.584651112556458E-003;-7.321349694393575E-004;
2.423333333333334E+009;1.429903507232666E-001;-9.796343743801117E-002;2.514066640287638E-003;-8.540722774341703E-004;
2.423500000000000E+009;1.421933174133301E-001;-9.891209006309509E-002;2.328126691281796E-003;-8.644591434858739E-004;
2.423666666666667E+009;1.411919891834259E-001;-1.000315025448799E-001;2.151930704712868E-003;-1.003281795419753E-003;
2.423833333333334E+009;1.407463103532791E-001;-1.008441224694252E-001;2.175026573240757E-003;-8.028555312193930E-004;
2.424000000000000E+009;1.396622061729431E-001;-1.016907766461372E-001;2.054893178865314E-003;-8.737563039176166E-004;
2.424166666666667E+009;1.389399170875549E-001;-1.024428531527519E-001;2.045614179223776E-003;-9.225069661624730E-004;
2.424333333333334E+009;1.384149044752121E-001;-1.034894734621048E-001;2.075461437925696E-003;-7.684212177991867E-004;
2.424500000000000E+009;1.376230269670487E-001;-1.045192256569862E-001;2.119841752573848E-003;-7.880056509748101E-004;
2.424666666666667E+009;1.370137035846710E-001;-1.054142341017723E-001;2.029535127803683E-003;-7.872904534451664E-004;
2.424833333333334E+009;1.362184733152390E-001;-1.064123809337616E-001;2.040419960394502E-003;-8.890014141798019E-004;
2.425000000000000E+009;1.357398927211762E-001;-1.074651107192040E-001;2.073017181828618E-003;-8.609587093815208E-004;
2.425166666666667E+009;1.349240690469742E-001;-1.084382161498070E-001;2.139966702088714E-003;-9.140571928583086E-004;
2.425333333333334E+009;1.344879865646362E-001;-1.094633638858795E-001;2.168155042454600E-003;-8.805000106804073E-004;
2.425500000000000E+009;1.338640600442886E-001;-1.105638146400452E-001;2.107356442138553E-003;-1.009164843708277E-003;
2.425666666666667E+009;1.332040727138519E-001;-1.116281375288963E-001;2.174337860196829E-003;-1.076191780157387E-003;
2.425833333333334E+009;1.327607482671738E-001;-1.126505732536316E-001;2.347561996430159E-003;-1.011734944768250E-003;
2.426000000000000E+009;1.321702152490616E-001;-1.137575060129166E-001;2.158731454983354E-003;-1.103259623050690E-003;
2.426166666666667E+009;1.318215280771256E-001;-1.147751659154892E-001;2.075211377814412E-003;-1.422928646206856E-003;
2.426333333333334E+009;1.311975717544556E-001;-1.157006099820137E-001;2.069237409159541E-003;-1.498831901699305E-003;
2.426500000000000E+009;1.308760195970535E-001;-1.168087646365166E-001;1.879413379356265E-003;-1.304096775129437E-003;
2.426666666666667E+009;1.304780095815659E-001;-1.176918148994446E-001;1.884350320324302E-003;-1.484529930166900E-003;
2.426833333333334E+009;1.301417797803879E-001;-1.186376810073853E-001;1.833927934058011E-003;-1.619901275262237E-003;
2.427000000000000E+009;1.295521110296249E-001;-1.195849850773811E-001;1.819353434257209E-003;-1.353804138489068E-003;
2.427166666666667E+009;1.293160468339920E-001;-1.203338429331780E-001;1.648321049287915E-003;-1.500250422395766E-003;
2.427333333333334E+009;1.289710253477097E-001;-1.211857125163078E-001;1.551228226162493E-003;-1.465906156226993E-003;
2.427500000000000E+009;1.287514120340347E-001;-1.219448596239090E-001;1.577572780661285E-003;-1.421215129084885E-003;
2.427666666666667E+009;1.284900307655335E-001;-1.227868273854256E-001;1.527105574496090E-003;-1.371232792735100E-003;
