# Version 1.00
#
freq[Hz];re:Trc1_S11;im:Trc1_S11;re:Trc2_S21;im:Trc2_S21;
2.400000000000000E+009;1.688842475414276E-001;4.043618589639664E-002;-1.181020750664175E-003;-1.931653474457562E-003;
2.400166666666667E+009;1.695505976676941E-001;3.988992422819138E-002;-1.313078915700316E-003;-2.122559351846576E-003;
2.400333333333334E+009;1.702084541320801E-001;3.903015330433846E-002;-1.389487180858851E-003;-2.184199867770076E-003;
2.400500000000000E+009;1.706906855106354E-001;3.835708647966385E-002;-1.443969318643212E-003;-2.214646199718118E-003;
2.400666666666667E+009;1.709322035312653E-001;3.751589357852936E-002;-1.627117511816323E-003;-2.258760156109929E-003;
2.400833333333334E+009;1.714135706424713E-001;3.680296242237091E-002;-1.717383041977882E-003;-2.400632016360760E-003;
2.401000000000000E+009;1.716542243957520E-001;3.577873110771179E-002;-1.931216800585389E-003;-2.203483833000064E-003;
2.401166666666667E+009;1.719640791416168E-001;3.503325581550598E-002;-1.992838457226753E-003;-2.038741251453757E-003;
2.401333333333334E+009;1.719077825546265E-001;3.423501551151276E-002;-2.408209722489119E-003;-1.983852824196219E-003;
2.401500000000000E+009;1.722712516784668E-001;3.356529399752617E-002;-2.312468364834786E-003;-1.848581829108298E-003;
2.401666666666667E+009;1.722048819065094E-001;3.269094601273537E-002;-2.395844087004662E-003;-1.760557177476585E-003;
2.401833333333334E+009;1.723145991563797E-001;3.193404898047447E-002;-2.553559606894851E-003;-1.594190835021436E-003;
2.402000000000000E+009;1.720786094665527E-001;3.120899572968483E-002;-2.723098732531071E-003;-1.437700120732188E-003;
2.402166666666667E+009;1.722220033407211E-001;3.022623062133789E-002;-2.643727464601398E-003;-1.056956127285957E-003;
2.402333333333334E+009;1.719352304935455E-001;2.932082861661911E-002;-2.708499087020755E-003;-1.060493756085634E-003;
2.402500000000000E+009;1.721316576004028E-001;2.853002771735191E-002;-2.549510216340423E-003;-9.709027945064008E-004;
2.402666666666667E+009;1.719703525304794E-001;2.762226015329361E-002;-2.507888711988926E-003;-7.576534408144653E-004;
2.402833333333334E+009;1.718837320804596E-001;2.651790902018547E-002;-2.571271266788244E-003;-6.458765710704029E-004;
2.403000000000000E+009;1.716626733541489E-001;2.553422562777996E-002;-2.518195891752839E-003;-7.328325300477445E-004;
2.403166666666667E+009;1.717216074466705E-001;2.462366595864296E-002;-2.285534283146262E-003;-4.643191641662270E-004;
2.403333333333334E+009;1.713308095932007E-001;2.349704876542091E-002;-2.293766010552645E-003;-5.663482588715851E-004;
2.403500000000000E+009;1.710901707410812E-001;2.224117517471314E-002;-2.259268425405026E-003;-4.671837959904224E-004;
2.403666666666667E+009;1.709423214197159E-001;2.086757309734821E-002;-2.079436089843512E-003;-4.063091764692217E-004;
2.403833333333334E+009;1.708431690931320E-001;1.973656937479973E-002;-2.171800239011645E-003;-5.074837827123702E-004;
2.404000000000000E+009;1.706328988075256E-001;1.834022812545300E-002;-2.327875699847937E-003;-5.109077901579440E-004;
2.404166666666667E+009;1.704405844211578E-001;1.705372333526611E-002;-2.034326782450080E-003;-5.217450088821352E-004;
2.404333333333334E+009;1.701948344707489E-001;1.569514535367489E-002;-2.111398614943028E-003;-4.835121508222073E-004;
2.404500000000000E+009;1.698897480964661E-001;1.415281090885401E-002;-2.309787785634399E-003;-7.009356049820781E-004;
2.404666666666667E+009;1.698791235685349E-001;1.278747338801622E-002;-2.486855257302523E-003;-5.321213975548744E-004;
2.404833333333334E+009;1.697412431240082E-001;1.115475781261921E-002;-2.698589814826846E-003;-5.842469399794936E-004;
2.405000000000000E+009;1.696424484252930E-001;9.647479280829430E-003;-2.594804391264916E-003;-3.767967573367059E-004;
2.405166666666667E+009;1.696110814809799E-001;8.167145773768425E-003;-2.580953761935234E-003;-1.822639460442588E-004;
2.405333333333334E+009;1.695887446403503E-001;6.306476891040802E-003;-2.847641007974744E-003;-2.955610107164830E-004;
2.405500000000000E+009;1.694743484258652E-001;4.862657282501459E-003;-2.849956043064594E-003;-1.160415777121671E-004;
2.405666666666667E+009;1.693674474954605E-001;3.128186566755176E-003;-2.909679897129536E-003;7.386929792119190E-005;
2.405833333333334E+009;1.691735386848450E-001;1.599920680746436E-003;-2.850283868610859E-003;1.908115664264187E-004;
2.406000000000000E+009;1.691437512636185E-001;-3.363093128427863E-004;-2.949373563751578E-003;3.969543322455138E-004;
2.406166666666667E+009;1.690401285886765E-001;-1.913061132654548E-003;-2.870811847969890E-003;5.016530631110072E-004;
2.406333333333334E+009;1.691069006919861E-001;-3.643626812845469E-003;-2.762098098173738E-003;6.836935062892735E-004;
2.406500000000000E+009;1.688463836908341E-001;-5.181892774999142E-003;-2.636349759995937E-003;8.590883226133883E-004;
2.406666666666667E+009;1.686271727085114E-001;-6.831047590821981E-003;-2.643991028890014E-003;8.560938877053559E-004;
2.406833333333334E+009;1.686443537473679E-001;-8.411900140345097E-003;-2.581522101536393E-003;1.033474924042821E-003;
2.407000000000000E+009;1.685470789670944E-001;-9.978339076042175E-003;-2.397077623754740E-003;9.517696453258395E-004;
2.407166666666667E+009;1.685477197170258E-001;-1.133888214826584E-002;-2.462202683091164E-003;1.145967980846763E-003;
2.407333333333334E+009;1.683079749345779E-001;-1.287100743502379E-002;-2.265710150822997E-003;1.142404507845640E-003;
2.407500000000000E+009;1.681330651044846E-001;-1.415022462606430E-002;-2.283233217895031E-003;1.139744301326573E-003;
2.407666666666667E+009;1.682314276695252E-001;-1.548919267952442E-002;-2.133986679837108E-003;1.116483355872333E-003;
2.407833333333334E+009;1.680559813976288E-001;-1.676863245666027E-002;-2.108944347128272E-003;1.225682091899216E-003;
2.408000000000000E+009;1.680159419775009E-001;-1.799034886062145E-002;-2.052701078355312E-003;1.280855387449265E-003;
2.408166666666667E+009;1.678669899702072E-001;-1.881953701376915E-002;-1.925699179992080E-003;1.326473895460367E-003;
2.408333333333334E+009;1.682522296905518E-001;-1.993275620043278E-002;-1.928644720464945E-003;1.304164645262063E-003;
2.408500000000000E+009;1.682695895433426E-001;-2.095213532447815E-002;-1.901273615658283E-003;1.357608591206372E-003;
2.408666666666667E+009;1.683931350708008E-001;-2.184694819152355E-002;-1.628412399441004E-003;1.223484869115055E-003;
2.408833333333334E+009;1.684696674346924E-001;-2.276957780122757E-002;-1.744569279253483E-003;1.304389094002545E-003;
2.409000000000000E+009;1.686331778764725E-001;-2.353891171514988E-002;-1.751685864292085E-003;1.245568972080946E-003;
2.409166666666667E+009;1.690082550048828E-001;-2.432216517627239E-002;-1.774031086824834E-003;1.250513596460223E-003;
2.409333333333334E+009;1.692724674940109E-001;-2.523827366530895E-002;-1.816428150050342E-003;1.098134322091937E-003;
2.409500000000000E+009;1.694722622632980E-001;-2.611283399164677E-002;-1.950198784470558E-003;1.106330309994519E-003;
2.409666666666667E+009;1.696463823318481E-001;-2.700247243046761E-002;-1.985616050660610E-003;1.105103292502463E-003;
2.409833333333334E+009;1.695541292428970E-001;-2.765053324401379E-002;-1.936752232722938E-003;1.325137796811760E-003;
2.410000000000000E+009;1.699974238872528E-001;-2.843978255987167E-002;-2.283599460497499E-003;1.257200958207250E-003;
2.410166666666667E+009;1.699338108301163E-001;-2.941765263676643E-002;-2.033559372648597E-003;1.302306191064417E-003;
2.410333333333334E+009;1.702023595571518E-001;-3.018910624086857E-002;-2.270678523927927E-003;1.277624396607280E-003;
2.410500000000000E+009;1.701690405607224E-001;-3.101160749793053E-002;-2.146647777408361E-003;1.701160450465977E-003;
2.410666666666667E+009;1.700557917356491E-001;-3.186670690774918E-002;-2.360686892643571E-003;1.670000376179814E-003;
2.410833333333334E+009;1.699466407299042E-001;-3.267296403646469E-002;-2.444114303216338E-003;1.946990960277617E-003;
2.411000000000000E+009;1.699385792016983E-001;-3.345483541488648E-002;-2.301208209246397E-003;2.054737880825996E-003;
2.411166666666667E+009;1.698889881372452E-001;-3.426877036690712E-002;-2.443899633362889E-003;2.150768646970391E-003;
2.411333333333334E+009;1.695479303598404E-001;-3.498001769185066E-002;-2.255323575809598E-003;2.442189492285252E-003;
2.411500000000000E+009;1.693800091743469E-001;-3.589387983083725E-002;-2.137602074071765E-003;2.551976125687361E-003;
2.411666666666667E+009;1.693176329135895E-001;-3.652995824813843E-002;-2.080618636682630E-003;2.720586955547333E-003;
2.411833333333334E+009;1.688281446695328E-001;-3.740868717432022E-002;-2.013686113059521E-003;2.839543623849750E-003;
2.412000000000000E+009;1.686044335365295E-001;-3.814804181456566E-002;-1.754803699441254E-003;3.046394558623433E-003;
2.412166666666667E+009;1.682824641466141E-001;-3.895761072635651E-002;-1.605995697900653E-003;3.222798462957144E-003;
2.412333333333334E+009;1.682224124670029E-001;-3.991924598813057E-002;-1.414553029462695E-003;3.365788608789444E-003;
2.412500000000000E+009;1.675088703632355E-001;-4.070389643311501E-002;-1.086569274775684E-003;3.376099746674299E-003;
2.412666666666667E+009;1.670614629983902E-001;-4.173226654529572E-002;-1.143029192462564E-003;3.360507544130087E-003;
2.412833333333334E+009;1.666952818632126E-001;-4.275305941700935E-002;-8.630834054201841E-004;3.304781392216682E-003;
2.413000000000000E+009;1.662876754999161E-001;-4.366413503885269E-002;-7.394954445771873E-004;3.390174824744463E-003;
2.413166666666667E+009;1.656766831874847E-001;-4.463900253176689E-002;-4.571497847791761E-004;3.334057517349720E-003;
2.413333333333334E+009;1.650992035865784E-001;-4.566422477364540E-002;-4.954814794473350E-004;3.307734616100788E-003;
2.413500000000000E+009;1.644917130470276E-001;-4.660542309284210E-002;-2.927083405666053E-004;3.287850413471460E-003;
2.413666666666667E+009;1.640985459089279E-001;-4.768692702054977E-002;-2.273291611345485E-004;3.180016297847033E-003;
2.413833333333334E+009;1.634411215782166E-001;-4.859298467636108E-002;-1.066207187250257E-004;3.203457221388817E-003;
2.414000000000000E+009;1.628261059522629E-001;-4.964435100555420E-002;-1.610836625332013E-004;3.342261770740151E-003;
2.414166666666667E+009;1.624398529529572E-001;-5.047507956624031E-002;1.070172074832954E-004;3.199757309630513E-003;
2.414333333333334E+009;1.618766039609909E-001;-5.160413682460785E-002;2.755202876869589E-004;3.167896065860987E-003;
2.414500000000000E+009;1.616509258747101E-001;-5.254078283905983E-002;1.906315737869591E-004;3.056691028177738E-003;
2.414666666666667E+009;1.611446887254715E-001;-5.364524945616722E-002;3.147794341202825E-004;3.178279148414731E-003;
2.414833333333334E+009;1.607650816440582E-001;-5.476577207446098E-002;5.850816960446537E-004;3.066647564992309E-003;
2.415000000000000E+009;1.604048907756805E-001;-5.564697086811066E-002;6.575516890734434E-004;3.098083892837167E-003;
2.415166666666667E+009;1.601484715938568E-001;-5.689078941941261E-002;7.549657602794468E-004;3.000977449119091E-003;
2.415333333333334E+009;1.600330621004105E-001;-5.813014507293701E-002;8.732355781830847E-004;2.945564454421401E-003;
2.415500000000000E+009;1.598530560731888E-001;-5.939882248640060E-002;9.235539473593235E-004;2.789478516206145E-003;
2.415666666666667E+009;1.594675928354263E-001;-6.049111112952232E-002;1.108139636926353E-003;2.944110892713070E-003;
2.415833333333334E+009;1.593521386384964E-001;-6.188762560486794E-002;1.178385457023978E-003;2.636781195178628E-003;
2.416000000000000E+009;1.589268743991852E-001;-6.312406808137894E-002;1.187505316920579E-003;2.718472620472312E-003;
2.416166666666667E+009;1.589466035366058E-001;-6.439410150051117E-002;1.302246237173677E-003;2.647492568939924E-003;
2.416333333333334E+009;1.586613506078720E-001;-6.565447896718979E-002;1.218679710291326E-003;2.528334502130747E-003;
2.416500000000000E+009;1.584320366382599E-001;-6.703174114227295E-002;1.360385678708553E-003;2.435876289382577E-003;
2.416666666666667E+009;1.582079231739044E-001;-6.832011789083481E-002;1.503835897892714E-003;2.444365993142128E-003;
2.416833333333334E+009;1.578990072011948E-001;-6.970908492803574E-002;1.459647552110255E-003;2.467830665409565E-003;
2.417000000000000E+009;1.574698090553284E-001;-7.086754590272903E-002;1.368622528389096E-003;2.205048687756062E-003;
2.417166666666667E+009;1.572748124599457E-001;-7.191162556409836E-002;1.400190754793584E-003;2.357751596719027E-003;
2.417333333333334E+009;1.569421589374542E-001;-7.298192381858826E-002;1.482966239564121E-003;2.351804170757532E-003;
2.417500000000000E+009;1.566022932529450E-001;-7.436139136552811E-002;1.468667760491371E-003;2.072670031338930E-003;
2.417666666666667E+009;1.565676033496857E-001;-7.512629777193070E-002;1.552403904497623E-003;2.311910036951304E-003;
2.417833333333334E+009;1.562113016843796E-001;-7.597526907920837E-002;1.501113176345825E-003;2.122786827385426E-003;
2.418000000000000E+009;1.560115516185761E-001;-7.702822983264923E-002;1.538620446808636E-003;2.172574866563082E-003;
2.418166666666667E+009;1.557490080595017E-001;-7.790501415729523E-002;1.808453002013266E-003;2.282831352204084E-003;
2.418333333333334E+009;1.557954549789429E-001;-7.870493829250336E-002;1.674247905611992E-003;2.310658106580377E-003;
2.418500000000000E+009;1.556199640035629E-001;-7.948195934295654E-002;1.850661006756127E-003;2.251490252092481E-003;
2.418666666666667E+009;1.554467082023621E-001;-8.052479475736618E-002;1.816142350435257E-003;2.273013349622488E-003;
2.418833333333334E+009;1.551207154989243E-001;-8.132708072662354E-002;1.930255093611777E-003;2.302443142980337E-003;
2.419000000000000E+009;1.548046469688416E-001;-8.206380158662796E-002;2.076339675113559E-003;2.311269752681255E-003;
2.419166666666667E+009;1.546271294355393E-001;-8.260776102542877E-002;2.018401632085443E-003;2.354529686272144E-003;
2.419333333333334E+009;1.543543934822083E-001;-8.309099078178406E-002;2.393507631495595E-003;2.242519054561853E-003;
2.419500000000000E+009;1.541203707456589E-001;-8.408167958259583E-002;2.392418449744582E-003;2.369921654462814E-003;
2.419666666666667E+009;1.538864225149155E-001;-8.461499959230423E-002;2.790022175759077E-003;2.158787799999118E-003;
2.419833333333334E+009;1.536018848419190E-001;-8.502964675426483E-002;2.849866868928075E-003;2.098910277709365E-003;
2.420000000000000E+009;1.533755660057068E-001;-8.577008545398712E-002;2.902793698012829E-003;1.967590069398284E-003;
2.420166666666667E+009;1.530237495899200E-001;-8.618462830781937E-002;3.024792997166514E-003;1.661741873249412E-003;
2.420333333333334E+009;1.526960879564285E-001;-8.664177358150482E-002;3.317872760817409E-003;1.589159714058042E-003;
2.420500000000000E+009;1.524944752454758E-001;-8.716893196105957E-002;3.326059551909566E-003;1.396637875586748E-003;
2.420666666666667E+009;1.519998610019684E-001;-8.750806748867035E-002;3.405618714168668E-003;1.110251061618328E-003;
2.420833333333334E+009;1.517280489206314E-001;-8.804748952388763E-002;3.575615817680955E-003;1.083383453078568E-003;
2.421000000000000E+009;1.512675285339356E-001;-8.878652006387711E-002;3.487789770588279E-003;7.967782439664006E-004;
2.421166666666667E+009;1.508858650922775E-001;-8.926593512296677E-002;3.476093290373683E-003;7.129909354262054E-004;
2.421333333333334E+009;1.505124568939209E-001;-8.978613466024399E-002;3.443537279963493E-003;3.405189199838787E-004;
2.421500000000000E+009;1.500827372074127E-001;-9.036087244749069E-002;3.426726674661040E-003;2.882895641960204E-004;
2.421666666666667E+009;1.494053751230240E-001;-9.078592807054520E-002;3.403213573619723E-003;9.524790948489681E-005;
2.421833333333334E+009;1.489224880933762E-001;-9.138347208499908E-002;3.238105913624167E-003;-3.497612487990409E-005;
2.422000000000000E+009;1.481642425060272E-001;-9.205087274312973E-002;3.049889113754034E-003;-1.905792305478826E-004;
2.422166666666667E+009;1.476832628250122E-001;-9.284038841724396E-002;3.097764216363430E-003;-3.578040341380984E-004;
2.422333333333334E+009;1.470050513744354E-001;-9.318315982818604E-002;3.111277474090457E-003;-4.590426397044212E-004;
2.422500000000000E+009;1.463569402694702E-001;-9.383542090654373E-002;2.833593636751175E-003;-5.948000471107662E-004;
2.422666666666667E+009;1.457307636737824E-001;-9.473025798797607E-002;2.812081016600132E-003;-5.415618652477861E-004;
2.422833333333334E+009;1.451619714498520E-001;-9.543983638286591E-002;2.608489478006959E-003;-7.721353322267532E-004;
2.423000000000000E+009;1.443946808576584E-001;-9.626518189907074E-002;2.738599432632327E-003;-7.922695949673653E-004;
2.423166666666667E+009;1.437488496303558E-001;-9.709315001964569E-002;2.623672597110272E-003;-8.724579238332808E-004;
2.423333333333334E+009;1.430399566888809E-001;-9.783525764942169E-002;2.539720619097352E-003;-9.271124727092683E-004;
2.423500000000000E+009;1.423258781433106E-001;-9.885140508413315E-002;2.333677140995860E-003;-9.909879881888628E-004;
2.423666666666667E+009;1.413412988185883E-001;-9.972840547561646E-002;2.302629174664617E-003;-8.963400614447892E-004;
2.423833333333334E+009;1.406548917293549E-001;-1.008202135562897E-001;2.090532565489411E-003;-8.343721274286509E-004;
2.424000000000000E+009;1.398496925830841E-001;-1.015364676713944E-001;2.191474661231041E-003;-8.508448372595012E-004;
2.424166666666667E+009;1.391294300556183E-001;-1.025483310222626E-001;2.029035240411758E-003;-7.905252859927714E-004;
2.424333333333334E+009;1.385425925254822E-001;-1.033828556537628E-001;2.009275136515498E-003;-8.954234654083848E-004;
2.424500000000000E+009;1.376990228891373E-001;-1.044666320085526E-001;2.091206843033433E-003;-7.356605492532253E-004;
2.424666666666667E+009;1.371228545904160E-001;-1.052657216787338E-001;2.100293990224600E-003;-8.282032795250416E-004;
2.424833333333334E+009;1.362592130899429E-001;-1.063988953828812E-001;2.138131065294147E-003;-8.231162792071700E-004;
2.425000000000000E+009;1.357848942279816E-001;-1.074717640876770E-001;2.141363918781281E-003;-9.506103233434260E-004;
2.425166666666667E+009;1.349015533924103E-001;-1.083728969097138E-001;2.057566540315747E-003;-9.186688694171608E-004;
2.425333333333334E+009;1.343170106410980E-001;-1.095004752278328E-001;2.121972618624568E-003;-8.264966309070587E-004;
2.425500000000000E+009;1.338357478380203E-001;-1.105179265141487E-001;2.153760055080056E-003;-9.214163874275982E-004;
2.425666666666667E+009;1.332225054502487E-001;-1.115636602044106E-001;2.124219434335828E-003;-9.902059100568295E-004;
2.425833333333334E+009;1.326803714036942E-001;-1.125269681215286E-001;2.220470225438476E-003;-1.191643415950239E-003;
2.426000000000000E+009;1.321357041597366E-001;-1.137770861387253E-001;2.151842461898923E-003;-1.161284395493567E-003;
2.426166666666667E+009;1.318404227495194E-001;-1.148537322878838E-001;2.093554707244039E-003;-1.177349942736328E-003;
2.426333333333334E+009;1.311827600002289E-001;-1.157528236508369E-001;1.945653464645147E-003;-1.407745527103543E-003;
2.426500000000000E+009;1.308373212814331E-001;-1.167165637016296E-001;2.068320522084832E-003;-1.309379702433944E-003;
2.426666666666667E+009;1.305542588233948E-001;-1.176249757409096E-001;1.851046690717340E-003;-1.363279880024493E-003;
2.426833333333334E+009;1.300690919160843E-001;-1.186043322086334E-001;1.866094651632011E-003;-1.496793120168150E-003;
2.427000000000000E+009;1.296004503965378E-001;-1.195202171802521E-001;1.695504412055016E-003;-1.520608551800251E-003;
2.427166666666667E+009;1.292493343353272E-001;-1.202947944402695E-001;1.581958495080471E-003;-1.426279079169035E-003;
2.427333333333334E+009;1.289430856704712E-001;-1.211311668157578E-001;1.465342938899994E-003;-1.437470549717546E-003;
2.427500000000000E+009;1.287566572427750E-001;-1.219889298081398E-001;1.545463805086911E-003;-1.356436288915575E-003;
2.427666666666667E+009;1.284312009811401E-001;-1.227921918034554E-001;1.453985227271915E-003;-1.437772181816399E-003;
