# Hz S RI R 50
2400000000.0000000000 0.156544134020805386642294365629 0.060799237340688712383229841407 -0.002188075799494982199427939307 0.005070429295301437377929687500 0 0 0 0 
2400166666.6666665077 0.156923577189445495605468750000 0.058934453874826431274414062500 -0.002237910870462656021118164062 0.005235916003584861755371093750 0 0 0 0 
2400333333.3333334923 0.157010018825531005859375000000 0.057040449231863021850585937500 -0.001985018607228993935825966943 0.005268731154501438140869140625 0 0 0 0 
2400500000.0000000000 0.156998544931411687652911268742 0.055109251290559768676757812500 -0.001747084199450910091400146484 0.005124091170728206634521484375 0 0 0 0 
2400666666.6666665077 0.157039538025855990310830634371 0.053136512637138366699218750000 -0.001660486217588186047197651440 0.005232637748122215270996093750 0 0 0 0 
2400833333.3333334923 0.157640963792800903320312500000 0.051026538014411933208425153907 -0.001559445750899612903594970703 0.005212485324591398239135742188 0 0 0 0 
2401000000.0000000000 0.157724529504776000976562500000 0.048865150660276412963867187500 -0.001273125410079956054687500000 0.005235391668975353240966796875 0 0 0 0 
2401166666.6666665077 0.158206716179847689529580634371 0.046887014061212539672851562500 -0.001285152626223861954332661206 0.005385890137404203414916992188 0 0 0 0 
2401333333.3333334923 0.158482253551483209808026231258 0.044923365116119391704518903907 -0.001076949294656514904619526440 0.005428123287856578826904296875 0 0 0 0 
2401500000.0000000000 0.158923089504241887848223768742 0.042844142764806747436523437500 -0.001006840378977357907536172021 0.005425864830613136291503906250 0 0 0 0 
2401666666.6666665077 0.159632772207260104080361884371 0.040924485772848129272460937500 -0.000918372010346502065658569336 0.005355697125196456909179687500 0 0 0 0 
2401833333.3333334923 0.159940317273140009124432481258 0.038860157132148742675781250000 -0.000690845074132084846496582031 0.005454918835312128067016601562 0 0 0 0 
2402000000.0000000000 0.160550162196159390548544365629 0.036849278956651687622070312500 -0.000553507299628108739852905273 0.005681059788912534713745117188 0 0 0 0 
2402166666.6666665077 0.161292746663093594650106865629 0.035114135593175888061523437500 -0.000377531890990212613910120831 0.005360567010939121246337890625 0 0 0 0 
2402333333.3333334923 0.162095457315445001800213731258 0.033218584954738616943359375000 -0.000049726178986020392995288236 0.005529701709747315320486737988 0 0 0 0 
2402500000.0000000000 0.162804037332534790039062500000 0.031730119138956069946289062500 0.000094665832875762134790420532 0.005501503124833106994628906250 0 0 0 0 
2402666666.6666665077 0.163688912987709100921307481258 0.030005253851413730276087576954 0.000170929823070764487415867938 0.005558190867304801940917968750 0 0 0 0 
2402833333.3333334923 0.164527118206024197677450615629 0.028425976634025570261021798046 0.000367549073416739702224731445 0.005527859088033437728881835938 0 0 0 0 
2403000000.0000000000 0.165378913283348111251669365629 0.026911605149507519113560860546 0.000636719167232513427734375000 0.005469562020152807235717773438 0 0 0 0 
2403166666.6666665077 0.166363582015037508865518134371 0.025531705468893051147460937500 0.000887316069565713405609130859 0.005404156167060136795043945312 0 0 0 0 
2403333333.3333334923 0.167264193296432495117187500000 0.024178506806492808950403983204 0.000931129383388906717300415039 0.005515151657164096832275390625 0 0 0 0 
2403500000.0000000000 0.168270826339721707443075615629 0.022987263277173038827916329296 0.001185676432214676900150918115 0.005556740798056125640869140625 0 0 0 0 
2403666666.6666665077 0.169075921177864102462606865629 0.021672792732715610158900076954 0.001386448740959167914149618994 0.005414991639554500579833984375 0 0 0 0 
2403833333.3333334923 0.170127242803573608398437500000 0.020574742928147319448450858204 0.001656758948229253075243305737 0.005438024643808603286743164062 0 0 0 0 
2404000000.0000000000 0.171080574393272399902343750000 0.019590320065617561340332031250 0.001774746924638747952104878003 0.005510955583304166793823242188 0 0 0 0 
2404166666.6666665077 0.171990513801574707031250000000 0.018636029213666919363001639454 0.002018645405769348144531250000 0.005197849590331315994262695312 0 0 0 0 
2404333333.3333334923 0.172845646739005986969317518742 0.017863519489765170705775076954 0.002243711613118648962733603369 0.005048269871622323989868164062 0 0 0 0 
2404500000.0000000000 0.173606842756271390060263115629 0.017025742679834369314173514454 0.002333466894924641089198447119 0.004922308027744293212890625000 0 0 0 0 
2404666666.6666665077 0.174610331654548700530682481258 0.016330979764461520803431326954 0.002539320616051555113551474463 0.005065661389380692568307207324 0 0 0 0 
2404833333.3333334923 0.175289243459701510330361884371 0.015522540546953679865826991602 0.002926346147432922883274697412 0.004753890447318553924560546875 0 0 0 0 
2405000000.0000000000 0.176067590713501004318075615629 0.015152455307543279475201991602 0.002844508970156311988830566406 0.004793050233274698257446289062 0 0 0 0 
2405166666.6666665077 0.176790729165077209472656250000 0.014493500813841819763183593750 0.003068287391215562820434570312 0.004713171161711215972900390625 0 0 0 0 
2405333333.3333334923 0.177546575665473910232705634371 0.013967655599117280787457850977 0.003207684261724352836608886719 0.004579937085509300231933593750 0 0 0 0 
2405500000.0000000000 0.177887171506881713867187500000 0.013534352183341979980468750000 0.003506974549964069886448525537 0.004424767103046178817749023438 0 0 0 0 
2405666666.6666665077 0.178486272692680386642294365629 0.013354432769119739532470703125 0.003495193785056471824645996094 0.004220255184918642044067382812 0 0 0 0 
2405833333.3333334923 0.178785771131515502929687500000 0.013104463927447799337366873829 0.003730304539203643798828125000 0.003913830965757369995117187500 0 0 0 0 
2406000000.0000000000 0.179148986935615511795205634371 0.012523143552243709564208984375 0.003817596472799777984619140625 0.003982778638601303100585937500 0 0 0 0 
2406166666.6666665077 0.179354265332222012618856865629 0.012406720779836179560651210352 0.004014792852103710174560546875 0.003733628196641802787780761719 0 0 0 0 
2406333333.3333334923 0.179841622710227994064169365629 0.012064632028341289865513985546 0.004063985310494899749755859375 0.003669523866847157912013388525 0 0 0 0 
2406500000.0000000000 0.179697409272193908691406250000 0.011784566566348079336146170704 0.004195163957774639129638671875 0.003402380738407372994663857568 0 0 0 0 
2406666666.6666665077 0.179585143923759488204794365629 0.011449455283582210540771484375 0.004202928394079208374023437500 0.003160597058013081984279013525 0 0 0 0 
2406833333.3333334923 0.179738685488700894454794365629 0.011047892272472379857073399023 0.004438572563230991363525390625 0.003106598276644945144653320312 0 0 0 0 
2407000000.0000000000 0.179670020937919588943643134371 0.010708477348089219874371913477 0.004331761505454778671264648438 0.002722029574215412139892578125 0 0 0 0 
2407166666.6666665077 0.179537892341613797286825615629 0.010481239296495909255058087695 0.004497229121625423431396484375 0.002748414175584911866428994287 0 0 0 0 
2407333333.3333334923 0.179229378700256403167401231258 0.009750694967806339263916015625 0.004579848609864711761474609375 0.002272480167448521094081259619 0 0 0 0 
2407500000.0000000000 0.179067283868789700607138115629 0.009344413876533508300781250000 0.004680173937231302261352539062 0.002139556920155882835388183594 0 0 0 0 
2407666666.6666665077 0.178567752242088290115518134371 0.008773251436650753021240234375 0.004733405075967311859130859375 0.001991003286093473000767373193 0 0 0 0 
2407833333.3333334923 0.177970901131629888336505018742 0.008073657751083374023437500000 0.004675951320677995681762695312 0.001746715861372650103328085791 0 0 0 0 
2408000000.0000000000 0.177646577358245905120526231258 0.007357279304414988431448652051 0.004876971710473299026489257812 0.001465371809899806976318359375 0 0 0 0 
2408166666.6666665077 0.177048385143280001541299384371 0.006598272360861301422119140625 0.004775333683937788009643554688 0.001395543338730931065203022534 0 0 0 0 
2408333333.3333334923 0.176641374826431302169638115629 0.005883065052330493927001953125 0.004743893165141344070434570312 0.001083202776499093012568808447 0 0 0 0 
2408500000.0000000000 0.175897851586341913421307481258 0.004903482273221015930175781250 0.004783208016306161880493164062 0.000899853243026882410049438477 0 0 0 0 
2408666666.6666665077 0.175262510776519803146200615629 0.003781019942834972901585244287 0.004690318834036588668823242188 0.000764054595492780208587646484 0 0 0 0 
2408833333.3333334923 0.174525350332260104080361884371 0.002630300121381878852844238281 0.004681199323385953903198242188 0.000459223869256675189167576923 0 0 0 0 
2409000000.0000000000 0.173842504620552090743856865629 0.001561935874633491039276123047 0.004660604987293481826782226562 0.000355260039214044809341430664 0 0 0 0 
2409166666.6666665077 0.173282608389854403396768134371 0.000277507439022883827060145245 0.004674929659813643369192792676 0.000188584177521988803714197980 0 0 0 0 
2409333333.3333334923 0.172804817557334899902343750000 -0.001062896568328141949297260815 0.004594808910042048367972089551 0.000176507717696949812486925668 0 0 0 0 
2409500000.0000000000 0.172100424766540499588174384371 -0.002687075408175588087794638525 0.004572376608848571777343750000 -0.000103517995739821303956447462 0 0 0 0 
2409666666.6666665077 0.171155855059623690506143134371 -0.004254296887665987014770507812 0.004371125251054763793945312500 -0.000237107509747147587224683218 0 0 0 0 
2409833333.3333334923 0.170716494321823092361611884371 -0.005594798363745213422293378613 0.004415180999785661697387695312 -0.000448786769993603175312596454 0 0 0 0 
2410000000.0000000000 0.170225426554679898361044365629 -0.007303820457309485349173261426 0.004326311871409416198730468750 -0.000568808056414127349853515625 0 0 0 0 
2410166666.6666665077 0.169755905866622897049111884371 -0.009017773903906345367431640625 0.004112266935408115386962890625 -0.000600048573687672615051269531 0 0 0 0 
2410333333.3333334923 0.169199064373970003982705634371 -0.010706090368330480402936366602 0.004028538707643747329711914062 -0.000794804247561842203140258789 0 0 0 0 
2410500000.0000000000 0.168839678168296786209268134371 -0.012491419911384580784807774023 0.004052782896906138333792402051 -0.000909805821720510721206665039 0 0 0 0 
2410666666.6666665077 0.168481409549713107010049384371 -0.014552494511008259164830391796 0.004034774843603372573852539062 -0.001007370068691670894622802734 0 0 0 0 
2410833333.3333334923 0.168236225843429593185263115629 -0.016282940283417701721191406250 0.003724386449903250174281454932 -0.001178606180474162101745605469 0 0 0 0 
2411000000.0000000000 0.167942866683006286621093750000 -0.018158875405788421630859375000 0.003842975478619337081909179688 -0.001307804603129625103594135815 0 0 0 0 
2411166666.6666665077 0.167809575796127291580361884371 -0.020186524838209148752232735546 0.003586468053981661796569824219 -0.001465067965909838893293071216 0 0 0 0 
2411333333.3333334923 0.167716100811958312988281250000 -0.022128293290734291076660156250 0.003651227103546261787414550781 -0.001421895343810319900512695312 0 0 0 0 
2411500000.0000000000 0.167746186256408691406250000000 -0.024166731163859370840052420704 0.003275078721344470977783203125 -0.001534065697342156930210732568 0 0 0 0 
2411666666.6666665077 0.167922198772430392166299384371 -0.026074670255184170114537423046 0.003279797034338117079493857275 -0.001635692198760807947871542822 0 0 0 0 
2411833333.3333334923 0.167994201183319091796875000000 -0.027794627472758289682408516796 0.003200659761205316023585654150 -0.001703641610220075087306357275 0 0 0 0 
2412000000.0000000000 0.168116047978401211837606865629 -0.029865318909287449228306954296 0.003041853895410894913914345850 -0.001857992727309464974644326318 0 0 0 0 
2412166666.6666665077 0.168387413024902288238848768742 -0.031697575002908706665039062500 0.002874894998967647986171103369 -0.001733527635224163965937949072 0 0 0 0 
2412333333.3333334923 0.168866664171218899825888115629 -0.033417850732803351665456403907 0.002756164874881505966186523438 -0.001973765436559915976283408057 0 0 0 0 
2412500000.0000000000 0.169003650546073913574218750000 -0.035229325294494628906250000000 0.002707338426262139840366982568 -0.002101937541738152937648154150 0 0 0 0 
2412666666.6666665077 0.169736787676811190506143134371 -0.037359416484832756732981096093 0.002607423346489667892456054688 -0.001958400011062622070312500000 0 0 0 0 
2412833333.3333334923 0.170154035091400201995526231258 -0.038963407278060913085937500000 0.002552387304604053930995322119 -0.002041709143668413162231445312 0 0 0 0 
2413000000.0000000000 0.170647010207176208496093750000 -0.040637504309415817260742187500 0.002344190608710051016566611182 -0.002063633874058723016026162256 0 0 0 0 
2413166666.6666665077 0.171055004000663812835369981258 -0.042476017028093338012695312500 0.002279474167153238816502236475 -0.002126337029039860205409384619 0 0 0 0 
2413333333.3333334923 0.171799421310424804687500000000 -0.043864637613296508789062500000 0.002130464883521198792698525537 -0.002123282989487051963806152344 0 0 0 0 
2413500000.0000000000 0.172275647521019009689169365629 -0.045349150896072387695312500000 0.002106568310409783883335732568 -0.002129548927769064903259277344 0 0 0 0 
2413666666.6666665077 0.172975525259971590896768134371 -0.046896331012248992919921875000 0.001971234800294042067286826025 -0.002113137394189835028407431494 0 0 0 0 
2413833333.3333334923 0.173436775803566006759481865629 -0.048208564519882202148437500000 0.001992044039070605798008584131 -0.002155916299670935110804892432 0 0 0 0 
2414000000.0000000000 0.174011841416359003265057481258 -0.049459397792816162109375000000 0.001912623061798512935638427734 -0.002133870963007212118861533057 0 0 0 0 
2414166666.6666665077 0.174863368272781399825888115629 -0.050475072115659706806223283593 0.001661042566411196968675922925 -0.002236723434180020852329873193 0 0 0 0 
2414333333.3333334923 0.175159558653831509689169365629 -0.051669463515281677246093750000 0.001511134556494653008104633862 -0.002170859137549995942356728662 0 0 0 0 
2414500000.0000000000 0.175884053111076410491619981258 -0.052568718791008002544362653907 0.001592338900081812901737832178 -0.002379725687205791907069540869 0 0 0 0 
2414666666.6666665077 0.176339268684387207031250000000 -0.053458318114280700683593750000 0.001384653151035309054731059497 -0.002284559421241282983067177881 0 0 0 0 
2414833333.3333334923 0.176848232746124295333700615629 -0.054441519081592559814453125000 0.001481923623941838958142924731 -0.002267725765705109076258993994 0 0 0 0 
2415000000.0000000000 0.177324831485748291015625000000 -0.055065777152776718139648437500 0.001308484817855060100555419922 -0.002270226133987307982203818213 0 0 0 0 
2415166666.6666665077 0.177550405263900812347088731258 -0.055762615054845809936523437500 0.001130100456066430048701620947 -0.002127806656062602996826171875 0 0 0 0 
2415333333.3333334923 0.178121343255043002029580634371 -0.056377533823251717304270158593 0.001058626919984817938563681494 -0.002248263452202082113978720557 0 0 0 0 
2415500000.0000000000 0.178302675485610989669638115629 -0.056943554431200027465820312500 0.000940194004215300083160400391 -0.002388719236478209929225302588 0 0 0 0 
2415666666.6666665077 0.178339451551437405685263115629 -0.057250820100307471538503278907 0.000921406317502260208129882812 -0.002254228806123137907740927588 0 0 0 0 
2415833333.3333334923 0.178492024540901211837606865629 -0.057663083076477050781250000000 0.000691228196956217288970947266 -0.002224488183856010003330849756 0 0 0 0 
2416000000.0000000000 0.178376063704490689376669365629 -0.058004822582006447528879533593 0.000752335705328732728958129883 -0.002156370086595416069030761719 0 0 0 0 
2416166666.6666665077 0.178428381681442288497763115629 -0.058383006602525711059570312500 0.000635452743154019117355346680 -0.002172023290768266157862997900 0 0 0 0 
2416333333.3333334923 0.178298458456993103027343750000 -0.058657158166170120239257812500 0.000547316798474639654159545898 -0.002097400370985269980189658057 0 0 0 0 
2416500000.0000000000 0.178010314702987698654013115629 -0.058962002396583557128906250000 0.000403338490286841988563537598 -0.002153758658096193833592080225 0 0 0 0 
2416666666.6666665077 0.177656784653663607498330634371 -0.059159997850656509399414062500 0.000255786726484075188636779785 -0.001980195986106992201564169775 0 0 0 0 
2416833333.3333334923 0.177346348762512207031250000000 -0.059452842921018600463867187500 0.000355304509866982698440551758 -0.002093835966661572890040732275 0 0 0 0 
2417000000.0000000000 0.176680311560630798339843750000 -0.059656202793121337890625000000 0.000164819590281695100382128305 -0.001951936399564146995544433594 0 0 0 0 
2417166666.6666665077 0.176039949059486389160156250000 -0.059916075319051742553710937500 0.000181367504410445690155029297 -0.001978188753128052191493368994 0 0 0 0 
2417333333.3333334923 0.175404205918312100509481865629 -0.060005601495504379272460937500 0.000141761556733399602487841196 -0.001888593775220215103746723706 0 0 0 0 
2417500000.0000000000 0.174571529030799893478231865629 -0.060465771704912192607839216407 -0.000052033719839528203010559082 -0.001887439517304301045061420972 0 0 0 0 
2417666666.6666665077 0.173827126622200012207031250000 -0.060609348118305213237722028907 0.000078456025221385061740875244 -0.001806804561056196906446147388 0 0 0 0 
2417833333.3333334923 0.172799468040466308593750000000 -0.061002500355243682861328125000 -0.000041682469600345939397811890 -0.001815437455661595084546733325 0 0 0 0 
2418000000.0000000000 0.171773880720138605315838731258 -0.061434235423803329467773437500 -0.000147043407196179005220690317 -0.001710604177787899971008300781 0 0 0 0 
2418166666.6666665077 0.170784160494804410079794365629 -0.061775565147399902343750000000 -0.000137164548505097600534716196 -0.001688033808022737936732626807 0 0 0 0 
2418333333.3333334923 0.169870793819427490234375000000 -0.062409225851297378540039062500 -0.000336027820594608783721923828 -0.001675637438893317959429096753 0 0 0 0 
2418500000.0000000000 0.168667197227477999588174384371 -0.062850937247276306152343750000 -0.000084700994193553924560546875 -0.001618236186914145946502685547 0 0 0 0 
2418666666.6666665077 0.167424306273460388183593750000 -0.063413880765438079833984375000 -0.000211548584047704907968798227 -0.001548436586745082898380898584 0 0 0 0 
2418833333.3333334923 0.166163116693496704101562500000 -0.064130298793315887451171875000 -0.000441235490143299102783203125 -0.001523272367194294929504394531 0 0 0 0 
2419000000.0000000000 0.164788186550140408614950615629 -0.064853794872760772705078125000 -0.000447445956524461507797241211 -0.001395454164594412066816020435 0 0 0 0 
2419166666.6666665077 0.163734614849090603927450615629 -0.065656743943691253662109375000 -0.000372749229427427107661646710 -0.001406533410772681019426655347 0 0 0 0 
2419333333.3333334923 0.162385106086731012542401231258 -0.066243954002857208251953125000 -0.000497109955176711082458496094 -0.001327142002992331981658935547 0 0 0 0 
2419500000.0000000000 0.161244213581085205078125000000 -0.067524887621402740478515625000 -0.000461088173324242180019932880 -0.001233122195117176012751913916 0 0 0 0 
2419666666.6666665077 0.160050526261329706390057481258 -0.068595707416534423828125000000 -0.000403951213229447603225708008 -0.001101298956200480894801474463 0 0 0 0 
2419833333.3333334923 0.158727064728736905196981865629 -0.069581806659698486328125000000 -0.000482823961647227406501770020 -0.001094095758162439086316752856 0 0 0 0 
