# Hz S RI R 50
2400000000.0000000000 0.154929071664810208419638115629 0.106528200209140805343466240629 -0.003727057715877891020533896338 -0.001258057309314609007594443213 0 0 0 0 
2400166666.6666665077 0.154733017086982699295205634371 0.104167692363262204269247490629 -0.003624258795753120942356728662 -0.001039881375618278980255126953 0 0 0 0 
2400333333.3333334923 0.154872417449951199630575615629 0.101885378360748304893412807814 -0.003672808175906538963317871094 -0.000818251457531005144119262695 0 0 0 0 
2400500000.0000000000 0.154855534434318486969317518742 0.099134437739849090576171875000 -0.003477543825283647017237997900 -0.000776045082602649927139282227 0 0 0 0 
2400666666.6666665077 0.154979839920997591873330634371 0.096764072775840759277343750000 -0.003453352721408009962794638525 -0.000705081503838300704956054688 0 0 0 0 
2400833333.3333334923 0.154908433556556701660156250000 0.093971595168113708496093750000 -0.003381596878170967102050781250 -0.000760081864427775144577026367 0 0 0 0 
2401000000.0000000000 0.155322968959808405120526231258 0.091133102774620056152343750000 -0.003372985171154140992405556787 -0.000589457165915518999099731445 0 0 0 0 
2401166666.6666665077 0.155246391892433194259481865629 0.088500350713729858398437500000 -0.003439358668401836915257119287 -0.000509514706209301948547363281 0 0 0 0 
2401333333.3333334923 0.155757173895835904220419365629 0.085606105625629425048828125000 -0.003350248094648122787475585938 -0.000510109472088515758514404297 0 0 0 0 
2401500000.0000000000 0.156334072351455688476562500000 0.082784973084926605224609375000 -0.003449886105954647064208984375 -0.000316176185151562094688415527 0 0 0 0 
2401666666.6666665077 0.156742706894874600509481865629 0.079828165471553802490234375000 -0.003469887422397733168361044775 -0.000545446819160133600234985352 0 0 0 0 
2401833333.3333334923 0.157225102186203002929687500000 0.077172815799713134765625000000 -0.003443492809310555891749716650 -0.000304555695038288777500706805 0 0 0 0 
2402000000.0000000000 0.158121854066848810393963731258 0.074400939047336578369140625000 -0.003493049414828420119044638525 -0.000298957398626953417628687726 0 0 0 0 
2402166666.6666665077 0.158724814653396606445312500000 0.072025559842586517333984375000 -0.003651634557172656059265136719 -0.000180667644599452587679186411 0 0 0 0 
2402333333.3333334923 0.159843891859054593185263115629 0.069119200110435485839843750000 -0.003399827284738421006443642725 -0.000050590933824423700571060181 0 0 0 0 
2402500000.0000000000 0.161243289709091186523437500000 0.066712036728858947753906250000 -0.003610160201787949042079306494 -0.000072382252255920320749282837 0 0 0 0 
2402666666.6666665077 0.162342339754104586502236884371 0.064454331994056701660156250000 -0.003723577130585908889770507812 0.000004226702913001645356416702 0 0 0 0 
2402833333.3333334923 0.163606375455856295486611884371 0.061835497617721557617187500000 -0.004478797316551209363455487988 0.000654483097605407238006591797 0 0 0 0 
2403000000.0000000000 0.165187135338783291915731865629 0.059835664927959442138671875000 -0.002967993961647152900695800781 -0.000377697229851037318080347882 0 0 0 0 
2403166666.6666665077 0.166418969631195096114950615629 0.057811465114355087280273437500 -0.002150629879906774000880576025 0.001109109958633780913112021338 0 0 0 0 
2403333333.3333334923 0.168205350637435913085937500000 0.055401790887117392803151716407 -0.003601853968575596809387207031 0.000139091527671553194522857666 0 0 0 0 
2403500000.0000000000 0.169747158885002108474893134371 0.053584061563014977191965471093 -0.002400730736553668975830078125 0.000721331685781478881835937500 0 0 0 0 
2403666666.6666665077 0.171589076519012506683026231258 0.051549274474382400512695312500 -0.003961367998272181424612714551 0.001151538104750216007232666016 0 0 0 0 
2403833333.3333334923 0.173207297921180697342080634371 0.049898363649845123291015625000 -0.002588231116533278985264443506 0.001084157149307430007337260669 0 0 0 0 
2404000000.0000000000 0.174785286188125610351562500000 0.047887485474348068237304687500 -0.002705961698666214942932128906 0.000727370381355285644531250000 0 0 0 0 
2404166666.6666665077 0.176363244652748107910156250000 0.046449791640043258666992187500 -0.003012805711477994918823242188 0.002239682478830217881443642725 0 0 0 0 
2404333333.3333334923 0.178062692284584100921307481258 0.044745739549398422241210937500 -0.004815930034965276718139648438 0.001439291052520274899126362378 0 0 0 0 
2404500000.0000000000 0.179725959897041293045205634371 0.043514430522918701171875000000 -0.003421276342123746871948242188 0.001468705362640321037889790112 0 0 0 0 
2404666666.6666665077 0.181395590305328396896200615629 0.042515859007835388183593750000 -0.003426761366426945166346884619 0.001622351468540728092193603516 0 0 0 0 
2404833333.3333334923 0.182858809828758211990518134371 0.041256014257669448852539062500 -0.003313221503049135208129882812 0.001836032606661319949506450122 0 0 0 0 
2405000000.0000000000 0.184264615178108187576455634371 0.040605850517749793315847028907 -0.003113191341981292204615927588 0.001887186779640614986419677734 0 0 0 0 
2405166666.6666665077 0.185866490006446810623330634371 0.040008932352066040039062500000 -0.003016160102561115784886025537 0.001882511307485402064082480322 0 0 0 0 
2405333333.3333334923 0.187002837657928494552450615629 0.039573520421981811523437500000 -0.002980863675475120978114462744 0.002073898678645492033717490088 0 0 0 0 
2405500000.0000000000 0.188484802842140197753906250000 0.039100036025047302246093750000 -0.002792661543935536904575966943 0.002247227821499108834507607568 0 0 0 0 
2405666666.6666665077 0.189675658941268893142861884371 0.038636952638626098632812500000 -0.002833642065525054931640625000 0.002203647978603839874267578125 0 0 0 0 
2405833333.3333334923 0.190962135791778592208700615629 0.038357321172952651977539062500 -0.002684527309611440138575888525 0.002143312478438020186183310400 0 0 0 0 
2406000000.0000000000 0.191835656762123107910156250000 0.038242183625698089599609375000 -0.002611190080642700195312500000 0.002203483134508132934570312500 0 0 0 0 
2406166666.6666665077 0.192752227187156705001669365629 0.038065589964389801025390625000 -0.002501797862350941138026572119 0.002200417453423141999485634912 0 0 0 0 
2406333333.3333334923 0.193845257163047790527343750000 0.038095004856586463237722028907 -0.002316690050065516991856240381 0.002184323500841856002807617188 0 0 0 0 
2406500000.0000000000 0.194521918892860412597656250000 0.038099344819784157489817033593 -0.002368077170103787942173623193 0.002133156871423124833347939600 0 0 0 0 
2406666666.6666665077 0.195146337151527404785156250000 0.038053583353757858276367187500 -0.002263746224343777136561728369 0.002219407586380838914158486475 0 0 0 0 
2406833333.3333334923 0.195448696613311795333700615629 0.038018159568309776996652971093 -0.002379606245085597038269042969 0.002291301498189568953273154150 0 0 0 0 
2407000000.0000000000 0.195847213268280001541299384371 0.038129314780235290527343750000 -0.002206937642768024964573525537 0.002312543336302042007446289062 0 0 0 0 
2407166666.6666665077 0.196207389235496493240518134371 0.038042269647121429443359375000 -0.002258729189634323120117187500 0.002341152867302298979518271338 0 0 0 0 
2407333333.3333334923 0.196079924702644403655682481258 0.038060501217842102050781250000 -0.002160588745027780966517783057 0.002387288957834244208094931494 0 0 0 0 
2407500000.0000000000 0.195953011512756403167401231258 0.038144923746585852886159528907 -0.002244632923975586891174316406 0.002335386117920279936549521338 0 0 0 0 
2407666666.6666665077 0.196003034710884094238281250000 0.037934340536594390869140625000 -0.002198093803599476814270019531 0.002366351895034313201904296875 0 0 0 0 
2407833333.3333334923 0.195623427629470797439736884371 0.037843309342861182476003278907 -0.002241201465949416160583496094 0.002533021382987498803379677881 0 0 0 0 
2408000000.0000000000 0.195531547069549588302450615629 0.037582691758871078491210937500 -0.002216828055679798126220703125 0.002452744636684656143188476562 0 0 0 0 
2408166666.6666665077 0.194876268506050109863281250000 0.037291020154953002929687500000 -0.002252994338050485090968466650 0.002634407486766577200648642432 0 0 0 0 
2408333333.3333334923 0.194533690810203607757244981258 0.036761168390512473369557966407 -0.001964038703590631918666220557 0.002499621361494063897373818506 0 0 0 0 
2408500000.0000000000 0.193774297833442687988281250000 0.036427129060029976581613908593 -0.002115110401064157919642783057 0.002612446900457143783569335938 0 0 0 0 
2408666666.6666665077 0.193020612001419095138388115629 0.035866387188434600830078125000 -0.002167630707845091819763183594 0.002695365576073526902439736475 0 0 0 0 
2408833333.3333334923 0.192390367388725308517294365629 0.035001538693904876708984375000 -0.002150439890101552009582519531 0.002786617493256926970240927588 0 0 0 0 
2409000000.0000000000 0.191470995545387295821981865629 0.033981084823608398437500000000 -0.002163738012313843207118368994 0.002763312775641680197474814307 0 0 0 0 
2409166666.6666665077 0.190564244985580388824786268742 0.033128038048744201660156250000 -0.002031208947300910949707031250 0.002910383744165300889256142725 0 0 0 0 
2409333333.3333334923 0.189684703946113586425781250000 0.032174505293369293212890625000 -0.002006093971431254906895302881 0.002842648886144160790684365381 0 0 0 0 
2409500000.0000000000 0.188521936535835293868856865629 0.030690863728523250925084298046 -0.001987815834581851959228515625 0.003232156625017524199244833838 0 0 0 0 
2409666666.6666665077 0.187649324536323602874432481258 0.029163202270865440368652343750 -0.002074974356219172911403036963 0.003364314790815114974975585938 0 0 0 0 
2409833333.3333334923 0.186590135097503689864950615629 0.027815531939268108713170235546 -0.002031140495091677145717001807 0.003516244469210505919215536963 0 0 0 0 
2410000000.0000000000 0.185596019029617309570312500000 0.026040585711598399770716483204 -0.001882529002614319107652973706 0.003663251642137765884399414062 0 0 0 0 
2410166666.6666665077 0.184562534093856811523437500000 0.024274507537484169006347656250 -0.001627814723178744099260639722 0.003860144410282372994663857568 0 0 0 0 
2410333333.3333334923 0.183692201972007806975994981258 0.022431932389736179006556326954 -0.001623808522708714008331298828 0.003934564534574747085571289062 0 0 0 0 
2410500000.0000000000 0.182628288865089388748330634371 0.020365161821246150625208670704 -0.001323436503298581080195761572 0.004161088261753320693969726562 0 0 0 0 
2410666666.6666665077 0.181952312588691711425781250000 0.018151134252548221242884451954 -0.001276690396480262062670063550 0.004231920931488276395315839551 0 0 0 0 
2410833333.3333334923 0.181338593363761901855468750000 0.015956746414303779602050781250 -0.001092091784812510013580322266 0.004276402294635772705078125000 0 0 0 0 
2411000000.0000000000 0.180471777915954589843750000000 0.013874754309654239309290701954 -0.000904029177036136388778686523 0.004325783811509609222412109375 0 0 0 0 
2411166666.6666665077 0.179884403944015502929687500000 0.011476237326860429591168788477 -0.000746739446185529232025146484 0.004295628052204847335815429688 0 0 0 0 
2411333333.3333334923 0.179425388574600191970986884371 0.009111309424042701721191406250 -0.000557087536435574293136596680 0.004335724283009768399710370801 0 0 0 0 
2411500000.0000000000 0.179024651646614102462606865629 0.006621744483709335327148437500 -0.000402956269681453704833984375 0.004447203129529953002929687500 0 0 0 0 
2411666666.6666665077 0.178800031542777987381143134371 0.004288490861654281616210937500 -0.000147772341733798411771497183 0.004406506661325693130493164062 0 0 0 0 
2411833333.3333334923 0.178422749042510986328125000000 0.001977480482310057120082236182 -0.000072717397415544837713241577 0.004507863428443670272827148438 0 0 0 0 
2412000000.0000000000 0.178783968091011102874432481258 -0.000681343895848840475082397461 0.000237851811107248094960889273 0.004335813689976930618286132812 0 0 0 0 
2412166666.6666665077 0.178757742047309903243856865629 -0.002888537012040615081787109375 0.000132897504954598789841252460 0.004348815884441137313842773438 0 0 0 0 
2412333333.3333334923 0.178901404142379788497763115629 -0.005406195763498544692993164062 0.000559756532311439514160156250 0.004394724965095520019531250000 0 0 0 0 
2412500000.0000000000 0.179406687617301913162393134371 -0.007568486500531435012817382812 0.000671387242618948221206665039 0.004359794780611991882324218750 0 0 0 0 
2412666666.6666665077 0.179753839969635009765625000000 -0.010265324264764789236048514454 0.000773635751102119684219360352 0.004306201823055744171142578125 0 0 0 0 
2412833333.3333334923 0.180552318692207308670205634371 -0.012577466666698459279993826954 0.000961880956310778856277465820 0.004160024691373109817504882812 0 0 0 0 
2413000000.0000000000 0.181341677904129000564736884371 -0.015010820701718330383300781250 0.001124746631830930926679301685 0.004084572661668062210083007812 0 0 0 0 
2413166666.6666665077 0.181975066661834689041299384371 -0.017107654362916949880579764454 0.001182614825665950991986918872 0.004008680116385222348684980176 0 0 0 0 
2413333333.3333334923 0.183068290352821405608807481258 -0.019449932500720020639439766796 0.001226074760779737992527627100 0.003965078853070735931396484375 0 0 0 0 
2413500000.0000000000 0.183968111872673006912393134371 -0.021591268479824069631556326954 0.001418304047547281005262065356 0.003877577604725956916809082031 0 0 0 0 
2413666666.6666665077 0.185113370418548611739950615629 -0.023852201178669929504394531250 0.001547574414871633052825927734 0.003868621774017810821533203125 0 0 0 0 
2413833333.3333334923 0.186092972755432101150674384371 -0.025675661861896518362025076954 0.001412015408277512030360556494 0.003617617534473537965061806787 0 0 0 0 
2414000000.0000000000 0.187233433127403287032919365629 -0.027583621442317959177037423046 0.001690046046860516071319580078 0.003731789998710155920741415869 0 0 0 0 
2414166666.6666665077 0.188506096601486206054687500000 -0.029271597042679790151575858204 0.001745222718454896970036172021 0.003796468023210763931274414062 0 0 0 0 
2414333333.3333334923 0.189574316143989590743856865629 -0.031411714851856231689453125000 0.001886714133433998064753867041 0.003626489546149969100952148438 0 0 0 0 
2414500000.0000000000 0.190749749541282709319744981258 -0.032750044018030166625976562500 0.001890238141641020991681743091 0.003505686763674021200892783057 0 0 0 0 
2414666666.6666665077 0.191959813237190302093182481258 -0.034170098602771759033203125000 0.002153110457584261894226074219 0.003551909932866692976710654150 0 0 0 0 
2414833333.3333334923 0.193029239773750305175781250000 -0.035561230033636093139648437500 0.002233474515378475189208984375 0.003424495458602904839756631006 0 0 0 0 
2415000000.0000000000 0.194169729948043795486611884371 -0.036869384348392486572265625000 0.002420245669782162146327353369 0.003401739289984107017517089844 0 0 0 0 
2415166666.6666665077 0.195299968123436001876669365629 -0.037866551429033279418945312500 0.002628276124596596197841025244 0.003290534485131502151489257812 0 0 0 0 
2415333333.3333334923 0.196390658617019708831463731258 -0.038819238543510437011718750000 0.002747334539890288872959756006 0.003147257957607508139369345557 0 0 0 0 
2415500000.0000000000 0.197493180632591303069744981258 -0.039431560784578323364257812500 0.002789175836369394822361611475 0.003285653889179230170008993994 0 0 0 0 
2415666666.6666665077 0.198545619845390292068643134371 -0.040367927402257919311523437500 0.002881146734580398039576865088 0.002973940456286073164698935400 0 0 0 0 
2415833333.3333334923 0.199155375361442593673544365629 -0.040946088731288909912109375000 0.003048384329304099082946777344 0.002836627420037984848022460938 0 0 0 0 
2416000000.0000000000 0.199978202581405611892861884371 -0.041441556066274642944335937500 0.003088580211624503135681152344 0.002683314727619289918186806787 0 0 0 0 
2416166666.6666665077 0.200693771243095397949218750000 -0.041924949735403060913085937500 0.003122192807495594024658203125 0.002635283162817358970642089844 0 0 0 0 
2416333333.3333334923 0.201258942484855707366619981258 -0.042270589619874947284738908593 0.003165993606671690940856933594 0.002607984934002161026000976562 0 0 0 0 
2416500000.0000000000 0.201789215207099886795205634371 -0.042586166411638259887695312500 0.003337328089401125907897949219 0.002495385007932782173156738281 0 0 0 0 
2416666666.6666665077 0.202002003788948086837606865629 -0.042815025895833969116210937500 0.003298543859273194833042763818 0.002303764689713716940638876807 0 0 0 0 
2416833333.3333334923 0.202091187238693209549111884371 -0.042807113379240042949636091407 0.003328321967273951010463095557 0.002302180742844938798191689600 0 0 0 0 
2417000000.0000000000 0.202131658792495699783486884371 -0.042964424937963492656667341407 0.003519952064380050139186240088 0.002269505988806486129760742188 0 0 0 0 
2417166666.6666665077 0.201896667480468805511151231258 -0.042910955846309661865234375000 0.003552967216819525198695517432 0.002194752218201756911036826025 0 0 0 0 
2417333333.3333334923 0.201609402894973810393963731258 -0.042665433138608932495117187500 0.003633842803537846045253134619 0.001986714545637369155883789062 0 0 0 0 
2417500000.0000000000 0.201312735676765386383380018742 -0.042714923620223999023437500000 0.003778243670240045027491904150 0.002101167337968945936915732275 0 0 0 0 
2417666666.6666665077 0.200738862156868008712606865629 -0.042487218976020812988281250000 0.003885662648826837973353720557 0.001855505397543310902239155347 0 0 0 0 
2417833333.3333334923 0.200257554650306701660156250000 -0.042297087609767906879465471093 0.004001449793577194213867187500 0.001706023933365941047668457031 0 0 0 0 
2418000000.0000000000 0.199453622102737399002236884371 -0.042135119438171386718750000000 0.004174259025603532791137695312 0.001624443451873957893968891675 0 0 0 0 
2418166666.6666665077 0.198716536164283807952557481258 -0.042013704776763922954518903907 0.004276928491890431317801191113 0.001344701508060097911237407153 0 0 0 0 
2418333333.3333334923 0.197811469435691805740518134371 -0.041914042085409157489817033593 0.004286076407879590988159179688 0.001136301783844829039332724463 0 0 0 0 
2418500000.0000000000 0.196756303310394287109375000000 -0.041986137628555297851562500000 0.004367605317384004592895507812 0.000999865820631384849548339844 0 0 0 0 
2418666666.6666665077 0.195900261402130099197549384371 -0.041967369616031646728515625000 0.004226113203912973403930664062 0.000929519825149327516555786133 0 0 0 0 
2418833333.3333334923 0.194591447710990905761718750000 -0.042025566101074218750000000000 0.004353662021458148956298828125 0.000618562509771436452865600586 0 0 0 0 
2419000000.0000000000 0.193212151527404812911825615629 -0.042291849851608283306081403907 0.004318259190768004331106855176 0.000478821573778986876637059344 0 0 0 0 
2419166666.6666665077 0.192043498158454895019531250000 -0.042664274573326110839843750000 0.004206459969282150268554687500 0.000257185805821791291236877441 0 0 0 0 
2419333333.3333334923 0.190561890602111788650674384371 -0.043138895183801651000976562500 0.004196763969957829389090253613 -0.000036313282180344692688395841 0 0 0 0 
2419500000.0000000000 0.189171046018600491622763115629 -0.043468296527862548828125000000 0.004039213992655277252197265625 -0.000055806773161748417396137850 0 0 0 0 
2419666666.6666665077 0.187653690576553289215411268742 -0.044417761266231536865234375000 0.003962086979299783706665039062 -0.000388477812521159703105372296 0 0 0 0 
2419833333.3333334923 0.185961097478866604904013115629 -0.044915530830621719360351562500 0.003949215635657311353201581738 -0.000368666485883295481831151141 0 0 0 0 
