# Version 1.00
#
freq[Hz];re:Trc1_S11;im:Trc1_S11;re:Trc2_S21;im:Trc2_S21;
2.400000000000000E+009;1.731654405593872E-001;4.938522353768349E-002;4.268566146492958E-003;5.517684388905764E-003;
2.400166666666667E+009;1.739345043897629E-001;4.880241304636002E-002;4.376184195280075E-003;5.245262756943703E-003;
2.400333333333334E+009;1.741720885038376E-001;4.828418046236038E-002;4.625618457794190E-003;5.018589552491903E-003;
2.400500000000000E+009;1.745053082704544E-001;4.752600565552712E-002;4.763245116919279E-003;4.927115049213171E-003;
2.400666666666667E+009;1.749128252267838E-001;4.692296683788300E-002;4.981872159987688E-003;4.561380017548800E-003;
2.400833333333334E+009;1.752250790596008E-001;4.636004939675331E-002;4.950894508510828E-003;4.346707370132208E-003;
2.401000000000000E+009;1.752915680408478E-001;4.567163437604904E-002;5.142725072801113E-003;4.230959806591272E-003;
2.401166666666667E+009;1.753444671630859E-001;4.497086629271507E-002;5.281310994178057E-003;3.797555342316628E-003;
2.401333333333334E+009;1.752660721540451E-001;4.427016898989677E-002;5.442364141345024E-003;3.500016871839762E-003;
2.401500000000000E+009;1.754655092954636E-001;4.365704208612442E-002;5.479160230606794E-003;3.342052688822150E-003;
2.401666666666667E+009;1.752902716398239E-001;4.320955649018288E-002;5.533333867788315E-003;3.151019802317023E-003;
2.401833333333334E+009;1.752358525991440E-001;4.203017801046372E-002;5.672030150890350E-003;2.787182340398431E-003;
2.402000000000000E+009;1.750287860631943E-001;4.134228453040123E-002;5.685383453965187E-003;2.605987945571542E-003;
2.402166666666667E+009;1.749121248722076E-001;4.035237058997154E-002;5.789324641227722E-003;2.448536455631256E-003;
2.402333333333334E+009;1.745938509702683E-001;3.939478471875191E-002;5.784556735306978E-003;2.242254326120019E-003;
2.402500000000000E+009;1.746236383914948E-001;3.837507963180542E-002;5.770266987383366E-003;1.908573904074729E-003;
2.402666666666667E+009;1.741129010915756E-001;3.714334219694138E-002;5.807531066238880E-003;1.640372327528894E-003;
2.402833333333334E+009;1.738948374986649E-001;3.592359647154808E-002;5.807981826364994E-003;1.577879884280264E-003;
2.403000000000000E+009;1.736351251602173E-001;3.471755981445313E-002;5.750934593379498E-003;1.277521718293428E-003;
2.403166666666667E+009;1.730698049068451E-001;3.333473578095436E-002;5.792852025479078E-003;1.028602942824364E-003;
2.403333333333334E+009;1.729324609041214E-001;3.179678693413734E-002;5.846047308295965E-003;7.991921156644821E-004;
2.403500000000000E+009;1.724625825881958E-001;3.030028194189072E-002;5.769830662757158E-003;5.418805521912873E-004;
2.403666666666667E+009;1.722307354211807E-001;2.852695621550083E-002;5.796985700726509E-003;2.476160880178213E-004;
2.403833333333334E+009;1.717840880155563E-001;2.686244808137417E-002;5.649431608617306E-003;1.643376745050773E-004;
2.404000000000000E+009;1.714365184307098E-001;2.523687481880188E-002;5.738664418458939E-003;2.996769035235047E-005;
2.404166666666667E+009;1.709904670715332E-001;2.318753674626350E-002;5.586835090070963E-003;-1.374770217807964E-004;
2.404333333333334E+009;1.706743836402893E-001;2.155151963233948E-002;5.703603848814964E-003;-2.939921978395432E-004;
2.404500000000000E+009;1.703415066003799E-001;1.933573931455612E-002;5.376367364078760E-003;-4.130428715143353E-004;
2.404666666666667E+009;1.700718998908997E-001;1.748956926167011E-002;5.361577495932579E-003;-8.680525934323669E-004;
2.404833333333334E+009;1.699253618717194E-001;1.555562112480402E-002;5.105248652398586E-003;-8.207621285691857E-004;
2.405000000000000E+009;1.698390990495682E-001;1.347230654209852E-002;5.188655573874712E-003;-1.115001388825476E-003;
2.405166666666667E+009;1.696378886699677E-001;1.137675531208515E-002;5.010089837014675E-003;-1.171429408714175E-003;
2.405333333333334E+009;1.696705520153046E-001;9.286504238843918E-003;4.883483517915011E-003;-1.290395040996373E-003;
2.405500000000000E+009;1.697471141815186E-001;7.383459247648716E-003;4.783155396580696E-003;-1.516138436272740E-003;
2.405666666666667E+009;1.699210107326508E-001;5.236887838691473E-003;4.655220545828342E-003;-1.694796141237021E-003;
2.405833333333334E+009;1.700517535209656E-001;3.344176337122917E-003;4.555074963718653E-003;-1.596266054548323E-003;
2.406000000000000E+009;1.703665554523468E-001;1.090153702534735E-003;4.443207290023565E-003;-1.886024605482817E-003;
2.406166666666667E+009;1.706764400005341E-001;-7.428498356603086E-004;4.388243891298771E-003;-1.816160744056106E-003;
2.406333333333334E+009;1.713487058877945E-001;-2.792352810502052E-003;4.231081809848547E-003;-2.018522471189499E-003;
2.406500000000000E+009;1.716792732477188E-001;-4.830694291740656E-003;4.258922301232815E-003;-2.046561567112804E-003;
2.406666666666667E+009;1.720949113368988E-001;-6.765067111700773E-003;4.093322902917862E-003;-2.087771194055677E-003;
2.406833333333334E+009;1.729241758584976E-001;-8.713512681424618E-003;4.134836606681347E-003;-2.206009114161134E-003;
2.407000000000000E+009;1.734445691108704E-001;-1.060748379677534E-002;4.022754728794098E-003;-2.393588889390230E-003;
2.407166666666667E+009;1.742082834243774E-001;-1.237889099866152E-002;3.771589603275061E-003;-2.454987028613687E-003;
2.407333333333334E+009;1.749765127897263E-001;-1.424276921898127E-002;3.793388837948442E-003;-2.502270042896271E-003;
2.407500000000000E+009;1.756727546453476E-001;-1.590418256819248E-002;3.749343566596508E-003;-2.632974181324244E-003;
2.407666666666667E+009;1.764987111091614E-001;-1.756391488015652E-002;3.528728848323226E-003;-2.673698822036386E-003;
2.407833333333334E+009;1.771823167800903E-001;-1.934208162128925E-002;3.507854882627726E-003;-2.711830427870154E-003;
2.408000000000000E+009;1.779966205358505E-001;-2.085345424711704E-002;3.146466799080372E-003;-2.780515002086759E-003;
2.408166666666667E+009;1.788013577461243E-001;-2.228848449885845E-002;3.293375950306654E-003;-2.845600713044405E-003;
2.408333333333334E+009;1.795515120029450E-001;-2.362298779189587E-002;3.117293119430542E-003;-2.841484965756536E-003;
2.408500000000000E+009;1.801079958677292E-001;-2.518560178577900E-002;3.102285787463188E-003;-3.026882186532021E-003;
2.408666666666667E+009;1.806973218917847E-001;-2.628525532782078E-002;3.003725083544850E-003;-3.065347205847502E-003;
2.408833333333334E+009;1.811888366937637E-001;-2.751103788614273E-002;2.755665685981512E-003;-2.949549118056893E-003;
2.409000000000000E+009;1.816724836826325E-001;-2.849785797297955E-002;2.722595352679491E-003;-3.081600880250335E-003;
2.409166666666667E+009;1.821505427360535E-001;-2.930028736591339E-002;2.623032545670867E-003;-3.052163636311889E-003;
2.409333333333334E+009;1.824835240840912E-001;-3.023690730333328E-002;2.500551287084818E-003;-3.173309145495296E-003;
2.409500000000000E+009;1.829202175140381E-001;-3.089985810220242E-002;2.606397029012442E-003;-3.137184772640467E-003;
2.409666666666667E+009;1.829746961593628E-001;-3.160680085420609E-002;2.369330031797290E-003;-3.385243704542518E-003;
2.409833333333334E+009;1.832162737846375E-001;-3.186547011137009E-002;2.527968725189567E-003;-3.172912867739797E-003;
2.410000000000000E+009;1.835705190896988E-001;-3.216468542814255E-002;2.482532057911158E-003;-3.282035933807492E-003;
2.410166666666667E+009;1.835641115903854E-001;-3.264207392930985E-002;2.366508590057492E-003;-3.325455589219928E-003;
2.410333333333334E+009;1.835777312517166E-001;-3.307898342609406E-002;2.406709594652057E-003;-3.475118195638061E-003;
2.410500000000000E+009;1.837062537670136E-001;-3.340078890323639E-002;2.265499904751778E-003;-3.503638319671154E-003;
2.410666666666667E+009;1.836459040641785E-001;-3.379635885357857E-002;2.202103845775127E-003;-3.638118505477905E-003;
2.410833333333334E+009;1.833969503641129E-001;-3.378139808773994E-002;2.251978963613510E-003;-3.721198532730341E-003;
2.411000000000000E+009;1.831535249948502E-001;-3.421141579747200E-002;2.099065342918038E-003;-3.819782985374332E-003;
2.411166666666667E+009;1.828971654176712E-001;-3.462950140237808E-002;2.020856831222773E-003;-3.938038833439350E-003;
2.411333333333334E+009;1.823983937501907E-001;-3.477095067501068E-002;1.900711678899825E-003;-3.986073657870293E-003;
2.411500000000000E+009;1.818455904722214E-001;-3.514201566576958E-002;1.857231603935361E-003;-4.150840453803539E-003;
2.411666666666667E+009;1.813431680202484E-001;-3.547902777791023E-002;1.810250454582274E-003;-4.292874597012997E-003;
2.411833333333334E+009;1.806413233280182E-001;-3.563190251588821E-002;1.612096326425672E-003;-4.361396655440331E-003;
2.412000000000000E+009;1.800006031990051E-001;-3.633158653974533E-002;1.371057587675750E-003;-4.435939248651266E-003;
2.412166666666667E+009;1.789563596248627E-001;-3.672199696302414E-002;1.313394750468433E-003;-4.573172889649868E-003;
2.412333333333334E+009;1.783020049333572E-001;-3.718499839305878E-002;1.056366018019617E-003;-4.662021994590759E-003;
2.412500000000000E+009;1.769138723611832E-001;-3.776712715625763E-002;9.119389578700066E-004;-4.624784924089909E-003;
2.412666666666667E+009;1.761318743228912E-001;-3.852779045701027E-002;7.767689530737698E-004;-4.877776838839054E-003;
2.412833333333334E+009;1.749947369098663E-001;-3.932457789778709E-002;5.327995168045163E-004;-4.789373371750116E-003;
2.413000000000000E+009;1.734203398227692E-001;-4.000847041606903E-002;3.394878003746271E-004;-4.741804208606482E-003;
2.413166666666667E+009;1.723040640354157E-001;-4.085100442171097E-002;3.262053724029101E-005;-4.787808749824762E-003;
2.413333333333334E+009;1.710346639156342E-001;-4.179790988564491E-002;-3.117258893325925E-005;-4.728893283754587E-003;
2.413500000000000E+009;1.697772443294525E-001;-4.300754517316818E-002;-4.445439553819597E-004;-4.739227239042521E-003;
2.413666666666667E+009;1.685280948877335E-001;-4.405213519930840E-002;-4.556960775516927E-004;-4.467386752367020E-003;
2.413833333333334E+009;1.672021746635437E-001;-4.531732574105263E-002;-6.708682049065828E-004;-4.530769772827625E-003;
2.414000000000000E+009;1.657712012529373E-001;-4.663129895925522E-002;-7.629049359820783E-004;-4.624542314559221E-003;
2.414166666666667E+009;1.646901220083237E-001;-4.776214435696602E-002;-1.046171644702554E-003;-4.432981833815575E-003;
2.414333333333334E+009;1.633178591728210E-001;-4.925590381026268E-002;-1.131339929997921E-003;-4.339715465903282E-003;
2.414500000000000E+009;1.624512821435928E-001;-5.073603987693787E-002;-1.359991147182882E-003;-4.191919695585966E-003;
2.414666666666667E+009;1.612451374530792E-001;-5.221445485949516E-002;-1.425463589839637E-003;-4.121612291783094E-003;
2.414833333333334E+009;1.600457131862640E-001;-5.399868637323380E-002;-1.559394062496722E-003;-3.856485011056066E-003;
2.415000000000000E+009;1.590739488601685E-001;-5.562644079327583E-002;-1.752767362631857E-003;-3.884861711412668E-003;
2.415166666666667E+009;1.580835431814194E-001;-5.718207359313965E-002;-1.784830237738788E-003;-3.698244458064437E-003;
2.415333333333334E+009;1.573401540517807E-001;-5.934321135282517E-002;-1.872552093118429E-003;-3.628613194450736E-003;
2.415500000000000E+009;1.565852314233780E-001;-6.124562770128250E-002;-1.946626231074333E-003;-3.464889712631702E-003;
2.415666666666667E+009;1.557567864656448E-001;-6.305504590272903E-002;-1.947932760231197E-003;-3.367765108123422E-003;
2.415833333333334E+009;1.552631556987763E-001;-6.492387503385544E-002;-1.853148336522281E-003;-3.137694206088781E-003;
2.416000000000000E+009;1.544907093048096E-001;-6.706195324659348E-002;-1.988158328458667E-003;-3.058912931010127E-003;
2.416166666666667E+009;1.542451381683350E-001;-6.894147396087647E-002;-2.056042663753033E-003;-3.024511970579624E-003;
2.416333333333334E+009;1.536567062139511E-001;-7.093178480863571E-002;-1.982343848794699E-003;-2.936749951913953E-003;
2.416500000000000E+009;1.532437205314636E-001;-7.295617461204529E-002;-2.156001515686512E-003;-2.816778840497136E-003;
2.416666666666667E+009;1.529114991426468E-001;-7.489134371280670E-002;-2.064018743112683E-003;-2.712790621444583E-003;
2.416833333333334E+009;1.527948677539825E-001;-7.690257579088211E-002;-1.960060093551874E-003;-2.729195868596435E-003;
2.417000000000000E+009;1.523980200290680E-001;-7.892713695764542E-002;-2.113131340593100E-003;-2.760340692475438E-003;
2.417166666666667E+009;1.523282378911972E-001;-8.055750280618668E-002;-2.030390780419111E-003;-2.488578669726849E-003;
2.417333333333334E+009;1.522057503461838E-001;-8.236698061227799E-002;-2.143486170098186E-003;-2.519977279007435E-003;
2.417500000000000E+009;1.521741300821304E-001;-8.427943289279938E-002;-2.099474892020226E-003;-2.491334453225136E-003;
2.417666666666667E+009;1.522324085235596E-001;-8.554524928331375E-002;-2.013306366279721E-003;-2.500887028872967E-003;
2.417833333333334E+009;1.523571014404297E-001;-8.713077753782272E-002;-2.047959482297301E-003;-2.472009044140577E-003;
2.418000000000000E+009;1.523319333791733E-001;-8.874818682670593E-002;-2.246620832011104E-003;-2.490299288183451E-003;
2.418166666666667E+009;1.524400711059570E-001;-8.970613032579422E-002;-2.175959758460522E-003;-2.537549939006567E-003;
2.418333333333334E+009;1.528993844985962E-001;-9.119483083486557E-002;-2.280655549839139E-003;-2.391528803855181E-003;
2.418500000000000E+009;1.528712809085846E-001;-9.228231012821198E-002;-2.365889027714729E-003;-2.447173697873950E-003;
2.418666666666667E+009;1.532305628061295E-001;-9.322772175073624E-002;-2.576810773462057E-003;-2.322950400412083E-003;
2.418833333333334E+009;1.532739847898483E-001;-9.409917145967484E-002;-2.414009068161249E-003;-2.332609146833420E-003;
2.419000000000000E+009;1.533990353345871E-001;-9.493392705917358E-002;-2.563935471698642E-003;-2.285596681758761E-003;
2.419166666666667E+009;1.537718176841736E-001;-9.572200477123261E-002;-2.616190351545811E-003;-2.241840586066246E-003;
2.419333333333334E+009;1.537272185087204E-001;-9.593813121318817E-002;-2.528776181861758E-003;-2.274084603413940E-003;
2.419500000000000E+009;1.539905816316605E-001;-9.649129956960678E-002;-2.703333506360650E-003;-2.074653282761574E-003;
2.419666666666667E+009;1.542982310056686E-001;-9.681558609008789E-002;-2.794643165543675E-003;-2.075352007523179E-003;
2.419833333333334E+009;1.543337553739548E-001;-9.689999371767044E-002;-2.782509429380298E-003;-2.006521448493004E-003;
2.420000000000000E+009;1.545092761516571E-001;-9.717884659767151E-002;-2.819430548697710E-003;-1.939680078066886E-003;
2.420166666666667E+009;1.546199172735214E-001;-9.707514196634293E-002;-2.814263571053743E-003;-1.849112450145185E-003;
2.420333333333334E+009;1.548206359148026E-001;-9.714274853467941E-002;-2.952415030449629E-003;-1.667052041739225E-003;
2.420500000000000E+009;1.546751856803894E-001;-9.676459431648254E-002;-2.911898540332913E-003;-1.827866421081126E-003;
2.420666666666667E+009;1.545933932065964E-001;-9.654702246189117E-002;-2.996899653226137E-003;-1.617733621969819E-003;
2.420833333333334E+009;1.545873731374741E-001;-9.648329019546509E-002;-3.010219428688288E-003;-1.622842159122229E-003;
2.421000000000000E+009;1.543106436729431E-001;-9.615758806467056E-002;-3.052992047742009E-003;-1.670963480137289E-003;
2.421166666666667E+009;1.540745645761490E-001;-9.582135826349258E-002;-3.164527937769890E-003;-1.545658102259040E-003;
2.421333333333334E+009;1.538972854614258E-001;-9.552796185016632E-002;-3.292169887572527E-003;-1.487420522607863E-003;
2.421500000000000E+009;1.534684598445892E-001;-9.530247747898102E-002;-3.512699389830232E-003;-1.402887166477740E-003;
2.421666666666667E+009;1.529046744108200E-001;-9.478639811277390E-002;-3.576574148610234E-003;-1.340082031674683E-003;
2.421833333333334E+009;1.523263156414032E-001;-9.461148083209992E-002;-3.521730424836278E-003;-1.332527026534081E-003;
2.422000000000000E+009;1.516445428133011E-001;-9.432017058134079E-002;-3.670022357255220E-003;-1.112726982682943E-003;
2.422166666666667E+009;1.507307291030884E-001;-9.433481842279434E-002;-3.741909982636571E-003;-1.130281481891871E-003;
2.422333333333334E+009;1.498653739690781E-001;-9.389863163232803E-002;-4.006046801805496E-003;-9.992365958169103E-004;
2.422500000000000E+009;1.487664580345154E-001;-9.371204674243927E-002;-3.942167852073908E-003;-6.893658428452909E-004;
2.422666666666667E+009;1.476086080074310E-001;-9.347241371870041E-002;-4.117227625101805E-003;-7.063693483360112E-004;
2.422833333333334E+009;1.464882642030716E-001;-9.361092001199722E-002;-3.981486894190311E-003;-2.962305734399706E-004;
2.423000000000000E+009;1.450165957212448E-001;-9.330225735902786E-002;-4.094957374036312E-003;-1.822487247409299E-004;
2.423166666666667E+009;1.437418013811112E-001;-9.343080967664719E-002;-4.034064710140228E-003;-1.036453541019000E-004;
2.423333333333334E+009;1.425229161977768E-001;-9.329894185066223E-002;-3.899401053786278E-003;2.725197991821915E-004;
2.423500000000000E+009;1.408950239419937E-001;-9.360310435295105E-002;-4.091059323400259E-003;3.064985212404281E-004;
2.423666666666667E+009;1.391674280166626E-001;-9.374456852674484E-002;-3.855420975014567E-003;3.930923703592271E-004;
2.423833333333334E+009;1.379187852144241E-001;-9.402909129858017E-002;-3.647168632596731E-003;6.229067221283913E-004;
2.424000000000000E+009;1.361711919307709E-001;-9.411074221134186E-002;-3.811368253082037E-003;7.235463126562536E-004;
2.424166666666667E+009;1.347752511501312E-001;-9.452681243419647E-002;-3.691586432978511E-003;9.722998365759850E-004;
2.424333333333334E+009;1.333176046609879E-001;-9.500505775213242E-002;-3.659717272967100E-003;1.073433901183307E-003;
2.424500000000000E+009;1.317705810070038E-001;-9.568291157484055E-002;-3.480800194665790E-003;1.155497157014906E-003;
2.424666666666667E+009;1.304031312465668E-001;-9.614492207765579E-002;-3.504880703985691E-003;1.218144665472210E-003;
2.424833333333334E+009;1.288792043924332E-001;-9.692816436290741E-002;-3.368193982169032E-003;1.337300636805594E-003;
2.425000000000000E+009;1.276212930679321E-001;-9.794999659061432E-002;-3.107563126832247E-003;1.395567785948515E-003;
2.425166666666667E+009;1.261350959539414E-001;-9.880759567022324E-002;-3.048348007723689E-003;1.631973544135690E-003;
2.425333333333334E+009;1.251240372657776E-001;-9.984235465526581E-002;-2.799080684781075E-003;1.466564252041280E-003;
2.425500000000000E+009;1.238759309053421E-001;-1.011143550276756E-001;-2.741813892498612E-003;1.644461182877421E-003;
2.425666666666667E+009;1.224975436925888E-001;-1.022451296448708E-001;-2.744260011240840E-003;1.596350339241326E-003;
2.425833333333334E+009;1.216018572449684E-001;-1.035151481628418E-001;-2.634169999510050E-003;1.609178958460689E-003;
2.426000000000000E+009;1.205534115433693E-001;-1.050215661525726E-001;-2.545134164392948E-003;1.503564883023500E-003;
2.426166666666667E+009;1.199273392558098E-001;-1.064455732703209E-001;-2.465527970343828E-003;1.476636854931712E-003;
2.426333333333334E+009;1.188882738351822E-001;-1.079028248786926E-001;-2.563958521932364E-003;1.505174324847758E-003;
2.426500000000000E+009;1.181381046772003E-001;-1.095328032970429E-001;-2.375468378886581E-003;1.514025032520294E-003;
2.426666666666667E+009;1.175443679094315E-001;-1.109226271510124E-001;-2.289982046931982E-003;1.391350873745978E-003;
2.426833333333334E+009;1.169923171401024E-001;-1.125383526086807E-001;-2.285818569362164E-003;1.335187465883791E-003;
2.427000000000000E+009;1.164651438593864E-001;-1.143676862120628E-001;-2.140352036803961E-003;1.237463788129389E-003;
2.427166666666667E+009;1.160199791193008E-001;-1.158049479126930E-001;-2.250325167551637E-003;1.177883590571582E-003;
2.427333333333334E+009;1.156612858176231E-001;-1.174852624535561E-001;-2.124936785548925E-003;1.221349462866783E-003;
2.427500000000000E+009;1.154669970273972E-001;-1.189986020326614E-001;-2.372095128521323E-003;1.179544720798731E-003;
2.427666666666667E+009;1.151761636137962E-001;-1.206827908754349E-001;-2.350749913603067E-003;1.132486504502595E-003;
