# Version 1.00
#
freq[Hz];re:Trc1_S11;im:Trc1_S11;re:Trc2_S21;im:Trc2_S21;
2.400000000000000E+009;1.554102748632431E-001;1.070320606231690E-001;-9.469831129536033E-004;-4.113829694688320E-003;
2.400166666666667E+009;1.550522893667221E-001;1.044835373759270E-001;-1.020138151943684E-003;-4.101008176803589E-003;
2.400333333333334E+009;1.551568061113358E-001;1.020697131752968E-001;-1.066682976670563E-003;-4.080249462276697E-003;
2.400500000000000E+009;1.551550030708313E-001;9.947527945041657E-002;-1.206841319799423E-003;-4.118180368095636E-003;
2.400666666666667E+009;1.550828963518143E-001;9.693206846714020E-002;-1.434482401236892E-003;-4.006286617368460E-003;
2.400833333333334E+009;1.549409925937653E-001;9.401580691337585E-002;-1.409500022418797E-003;-4.208753816783428E-003;
2.401000000000000E+009;1.552331298589706E-001;9.113565832376480E-002;-1.543634920381010E-003;-4.049845505505800E-003;
2.401166666666667E+009;1.551658362150192E-001;8.843164145946503E-002;-1.733032404445112E-003;-3.917566500604153E-003;
2.401333333333334E+009;1.555767953395844E-001;8.556277304887772E-002;-2.038534265011549E-003;-3.966025542467833E-003;
2.401500000000000E+009;1.559169441461563E-001;8.254705369472504E-002;-2.153888344764710E-003;-4.069471266120672E-003;
2.401666666666667E+009;1.562918424606323E-001;7.976354658603668E-002;-2.339484635740519E-003;-4.014048725366592E-003;
2.401833333333334E+009;1.567077189683914E-001;7.714463025331497E-002;-2.407865598797798E-003;-3.893167711794376E-003;
2.402000000000000E+009;1.575243324041367E-001;7.433488219976425E-002;-2.762227086350322E-003;-3.791731549426913E-003;
2.402166666666667E+009;1.582182943820953E-001;7.163223624229431E-002;-2.961522666737437E-003;-3.703021677210927E-003;
2.402333333333334E+009;1.592060476541519E-001;6.910731643438339E-002;-3.095673862844706E-003;-3.670265898108482E-003;
2.402500000000000E+009;1.605645716190338E-001;6.648136675357819E-002;-3.448428120464087E-003;-3.175055142492056E-003;
2.402666666666667E+009;1.616064012050629E-001;6.417706608772278E-002;-3.536655101925135E-003;-3.120082430541515E-003;
2.402833333333334E+009;1.628886163234711E-001;6.169474124908447E-002;-3.817708930000663E-003;-2.774131018668413E-003;
2.403000000000000E+009;1.643420457839966E-001;5.944034457206726E-002;-3.937047440558672E-003;-2.605824032798410E-003;
2.403166666666667E+009;1.660726219415665E-001;5.711081251502037E-002;-4.029227420687676E-003;-2.658450510352850E-003;
2.403333333333334E+009;1.675799936056137E-001;5.488155782222748E-002;-4.113985691219568E-003;-2.253624843433499E-003;
2.403500000000000E+009;1.690365076065064E-001;5.281118303537369E-002;-4.168094601482153E-003;-1.881799777038395E-003;
2.403666666666667E+009;1.709529757499695E-001;5.106825008988380E-002;-4.057927057147026E-003;-1.535490271635354E-003;
2.403833333333334E+009;1.726120412349701E-001;4.908044636249542E-002;-3.981060814112425E-003;-1.313334912993014E-003;
2.404000000000000E+009;1.740491241216660E-001;4.721838980913162E-002;-3.714633639901876E-003;-1.064902753569186E-003;
2.404166666666667E+009;1.760228127241135E-001;4.580558091402054E-002;-3.610162297263742E-003;-9.717546636238694E-004;
2.404333333333334E+009;1.775448024272919E-001;4.422494396567345E-002;-3.638361115008593E-003;-7.436296436935663E-004;
2.404500000000000E+009;1.791670769453049E-001;4.295822605490685E-002;-3.409434808418155E-003;-7.554510375484824E-004;
2.404666666666667E+009;1.809117197990418E-001;4.181839153170586E-002;-3.499530022963882E-003;-6.397865363396704E-004;
2.404833333333334E+009;1.825350821018219E-001;4.082976281642914E-002;-3.325085854157805E-003;-7.053728913888335E-004;
2.405000000000000E+009;1.839605122804642E-001;4.014873504638672E-002;-3.256340743973851E-003;-5.910256295464933E-004;
2.405166666666667E+009;1.854551583528519E-001;3.927553817629814E-002;-3.335148096084595E-003;-4.994361079297960E-004;
2.405333333333334E+009;1.867872923612595E-001;3.881226480007172E-002;-3.226592671126127E-003;-6.425985484384000E-004;
2.405500000000000E+009;1.883410215377808E-001;3.834066540002823E-002;-3.243878483772278E-003;-4.481788491830230E-004;
2.405666666666667E+009;1.895353049039841E-001;3.800133615732193E-002;-3.219634294509888E-003;-6.171089480631053E-004;
2.405833333333334E+009;1.908175796270371E-001;3.785782679915428E-002;-3.102931426838040E-003;-3.666189440991730E-004;
2.406000000000000E+009;1.918102949857712E-001;3.759485855698586E-002;-3.223326057195664E-003;-3.193063894286752E-004;
2.406166666666667E+009;1.929165720939636E-001;3.751126676797867E-002;-3.109014593064785E-003;-1.133878176915459E-004;
2.406333333333334E+009;1.938095539808273E-001;3.743394836783409E-002;-3.400952555239201E-003;-1.176901569124311E-004;
2.406500000000000E+009;1.944624781608582E-001;3.754829242825508E-002;-3.199153812602162E-003;-1.428049727110192E-004;
2.406666666666667E+009;1.950391680002213E-001;3.767529875040054E-002;-3.238696372136474E-003;1.270740467589349E-004;
2.406833333333334E+009;1.955622732639313E-001;3.765143081545830E-002;-3.187178634107113E-003;2.252653939649463E-004;
2.407000000000000E+009;1.958371996879578E-001;3.789913281798363E-002;-3.033259417861700E-003;3.222563245799393E-004;
2.407166666666667E+009;1.962495893239975E-001;3.767126798629761E-002;-3.012628294527531E-003;1.496210898039863E-004;
2.407333333333334E+009;1.962137371301651E-001;3.801972046494484E-002;-2.977274358272553E-003;2.317410690011457E-004;
2.407500000000000E+009;1.963129937648773E-001;3.803260251879692E-002;-3.009715583175421E-003;3.612767322920263E-004;
2.407666666666667E+009;1.963134109973908E-001;3.799743950366974E-002;-3.077692352235317E-003;4.908588016405702E-004;
2.407833333333334E+009;1.958240270614624E-001;3.791744634509087E-002;-2.912336029112339E-003;4.388542729429901E-004;
2.408000000000000E+009;1.957126855850220E-001;3.777784481644630E-002;-2.756512723863125E-003;3.063784388359636E-004;
2.408166666666667E+009;1.951341778039932E-001;3.748751804232597E-002;-2.935554366558790E-003;2.803803072310984E-004;
2.408333333333334E+009;1.947041153907776E-001;3.706075251102448E-002;-2.628315705806017E-003;3.117039159405977E-004;
2.408500000000000E+009;1.939944624900818E-001;3.671497851610184E-002;-2.654620911926031E-003;3.519939200486988E-004;
2.408666666666667E+009;1.933627873659134E-001;3.617314249277115E-002;-2.769203158095479E-003;2.595135010778904E-004;
2.408833333333334E+009;1.926808804273605E-001;3.542668744921684E-002;-2.709378255531192E-003;2.576335391495377E-004;
2.409000000000000E+009;1.918051391839981E-001;3.454245254397392E-002;-2.907158574089408E-003;2.539724519010633E-004;
2.409166666666667E+009;1.908125430345535E-001;3.359894827008247E-002;-3.105366136878729E-003;1.506855041952804E-004;
2.409333333333334E+009;1.898418664932251E-001;3.267810866236687E-002;-3.079351736232638E-003;1.400267792632803E-004;
2.409500000000000E+009;1.888204067945480E-001;3.123456053435803E-002;-3.171155927702785E-003;2.963963488582522E-004;
2.409666666666667E+009;1.877629756927490E-001;2.986495196819305E-002;-3.186708316206932E-003;5.639434093609452E-004;
2.409833333333334E+009;1.866378486156464E-001;2.842144109308720E-002;-3.293792949989438E-003;6.337765371426940E-004;
2.410000000000000E+009;1.857253313064575E-001;2.677748724818230E-002;-3.294545924291015E-003;6.393832154572010E-004;
2.410166666666667E+009;1.846162229776382E-001;2.495351247489452E-002;-3.208270994946361E-003;8.064129506237805E-004;
2.410333333333334E+009;1.837166547775269E-001;2.330200187861919E-002;-3.521324368193746E-003;8.028858574107289E-004;
2.410500000000000E+009;1.826623231172562E-001;2.118188701570034E-002;-3.519899444654584E-003;9.858708363026381E-004;
2.410666666666667E+009;1.817579567432404E-001;1.894661039113998E-002;-3.358067013323307E-003;1.104538445360959E-003;
2.410833333333334E+009;1.810245662927628E-001;1.680795662105084E-002;-3.385375486686826E-003;1.210859511047602E-003;
2.411000000000000E+009;1.803259104490280E-001;1.443300768733025E-002;-3.313726512715221E-003;1.366246142424643E-003;
2.411166666666667E+009;1.797913610935211E-001;1.247416529804468E-002;-3.245711559429765E-003;1.412219717167318E-003;
2.411333333333334E+009;1.791621744632721E-001;9.940966032445431E-003;-3.332134801894426E-003;1.589687308296561E-003;
2.411500000000000E+009;1.787706017494202E-001;7.567792199552059E-003;-3.213952062651515E-003;1.622942741960287E-003;
2.411666666666667E+009;1.785805821418762E-001;5.190896335989237E-003;-3.139011096209288E-003;1.731389202177525E-003;
2.411833333333334E+009;1.783698052167893E-001;2.614339115098119E-003;-3.178035374730825E-003;1.780783175490797E-003;
2.412000000000000E+009;1.783932000398636E-001;1.198212994495407E-004;-3.183618886396289E-003;1.940704183652997E-003;
2.412166666666667E+009;1.785323470830917E-001;-2.108877990394831E-003;-3.160710446536541E-003;1.877153408713639E-003;
2.412333333333334E+009;1.786956191062927E-001;-4.663617350161076E-003;-3.063484095036984E-003;2.037747064605355E-003;
2.412500000000000E+009;1.792141646146774E-001;-7.055721245706081E-003;-3.246930427849293E-003;1.948024029843509E-003;
2.412666666666667E+009;1.796154528856278E-001;-9.675914421677589E-003;-3.140014596283436E-003;2.152301138266921E-003;
2.412833333333334E+009;1.804157346487045E-001;-1.217953767627478E-002;-3.221323480829597E-003;2.285280963405967E-003;
2.413000000000000E+009;1.810306906700134E-001;-1.451630797237158E-002;-3.398759057745338E-003;2.593983430415392E-003;
2.413166666666667E+009;1.819546371698380E-001;-1.658257469534874E-002;-3.160788444802165E-003;2.803836017847061E-003;
2.413333333333334E+009;1.829661130905151E-001;-1.899638772010803E-002;-3.144668880850077E-003;2.739702118560672E-003;
2.413500000000000E+009;1.839974075555801E-001;-2.122472226619721E-002;-3.099361434578896E-003;3.104197792708874E-003;
2.413666666666667E+009;1.851451992988586E-001;-2.360964938998222E-002;-2.977399621158838E-003;3.223704174160957E-003;
2.413833333333334E+009;1.863175630569458E-001;-2.549398317933083E-002;-2.851965138688684E-003;3.466085297986865E-003;
2.414000000000000E+009;1.873988360166550E-001;-2.755083516240120E-002;-2.644162857905030E-003;3.678219160065055E-003;
2.414166666666667E+009;1.886371225118637E-001;-2.931746840476990E-002;-2.505406271666288E-003;3.630474675446749E-003;
2.414333333333334E+009;1.897387057542801E-001;-3.126205131411552E-002;-2.252365229651332E-003;3.989564720541239E-003;
2.414500000000000E+009;1.909401565790176E-001;-3.283269330859184E-002;-2.197618829086423E-003;4.036279860883951E-003;
2.414666666666667E+009;1.921697258949280E-001;-3.435637056827545E-002;-1.852729590609670E-003;4.001421388238668E-003;
2.414833333333334E+009;1.933237910270691E-001;-3.576278313994408E-002;-1.804160303436220E-003;4.102603998035193E-003;
2.415000000000000E+009;1.944986879825592E-001;-3.695286437869072E-002;-1.684663700871170E-003;4.086973611265421E-003;
2.415166666666667E+009;1.958226412534714E-001;-3.814216330647469E-002;-1.576763228513300E-003;4.182759672403336E-003;
2.415333333333334E+009;1.968785822391510E-001;-3.930247947573662E-002;-1.314797904342413E-003;4.204362165182829E-003;
2.415500000000000E+009;1.980224698781967E-001;-3.980093449354172E-002;-1.236636075191200E-003;4.280452616512775E-003;
2.415666666666667E+009;1.990339457988739E-001;-4.064907133579254E-002;-1.113057835027576E-003;4.281465429812670E-003;
2.415833333333334E+009;1.998573392629623E-001;-4.138329252600670E-002;-1.091760001145303E-003;4.247831180691719E-003;
2.416000000000000E+009;2.007351368665695E-001;-4.190219193696976E-002;-9.924855548888445E-004;4.383044783025980E-003;
2.416166666666667E+009;2.013612836599350E-001;-4.245303571224213E-002;-7.804662454873323E-004;4.427320323884487E-003;
2.416333333333334E+009;2.020527124404907E-001;-4.276987910270691E-002;-7.131082238629460E-004;4.452466499060392E-003;
2.416500000000000E+009;2.025752216577530E-001;-4.297987371683121E-002;-4.360822786111385E-004;4.411411937326193E-003;
2.416666666666667E+009;2.029060572385788E-001;-4.329355433583260E-002;-3.014544199686497E-004;4.497853573411703E-003;
2.416833333333334E+009;2.029180079698563E-001;-4.331469535827637E-002;-1.842069614212960E-004;4.622739739716053E-003;
2.417000000000000E+009;2.029719054698944E-001;-4.342927783727646E-002;1.139760643127374E-004;4.770165774971247E-003;
2.417166666666667E+009;2.027439326047897E-001;-4.326929897069931E-002;1.562206452945247E-004;4.531019367277622E-003;
2.417333333333334E+009;2.025932669639587E-001;-4.314680770039558E-002;2.851049939636141E-004;4.618239589035511E-003;
2.417500000000000E+009;2.022035717964172E-001;-4.313864931464195E-002;6.061629974283278E-004;4.756227135658264E-003;
2.417666666666667E+009;2.017224878072739E-001;-4.288966581225395E-002;6.633301381953061E-004;4.686791449785233E-003;
2.417833333333334E+009;2.012905031442642E-001;-4.279860481619835E-002;9.070252417586744E-004;4.562588408589363E-003;
2.418000000000000E+009;2.006053179502487E-001;-4.256045818328857E-002;1.123936031945050E-003;4.371244460344315E-003;
2.418166666666667E+009;1.998129487037659E-001;-4.249314963817596E-002;1.100118737667799E-003;4.486701451241970E-003;
2.418333333333334E+009;1.988862305879593E-001;-4.222053289413452E-002;1.424377085641027E-003;4.274012986570597E-003;
2.418500000000000E+009;1.978204697370529E-001;-4.231223091483116E-002;1.784374588169158E-003;4.315407481044531E-003;
2.418666666666667E+009;1.969488114118576E-001;-4.220718145370483E-002;1.839585835114121E-003;4.120382480323315E-003;
2.418833333333334E+009;1.955523937940598E-001;-4.235978797078133E-002;1.909212907776237E-003;3.970326855778694E-003;
2.419000000000000E+009;1.942745000123978E-001;-4.261069372296333E-002;1.961295958608389E-003;4.066687077283859E-003;
2.419166666666667E+009;1.929202526807785E-001;-4.282170534133911E-002;2.035136334598064E-003;3.528304630890489E-003;
2.419333333333334E+009;1.914871186017990E-001;-4.340865835547447E-002;2.182073425501585E-003;3.538705408573151E-003;
2.419500000000000E+009;1.899015158414841E-001;-4.370388016104698E-002;2.048823516815901E-003;3.433451754972339E-003;
2.419666666666667E+009;1.884755790233612E-001;-4.464682564139366E-002;1.994659891352058E-003;3.402994014322758E-003;
2.419833333333334E+009;1.868411153554916E-001;-4.517411068081856E-002;2.154744463041425E-003;3.347129095345736E-003;
2.420000000000000E+009;1.852294057607651E-001;-4.610745236277580E-002;2.083220984786749E-003;3.195264609530568E-003;
2.420166666666667E+009;1.835683286190033E-001;-4.701649397611618E-002;2.264375332742930E-003;3.244114574044943E-003;
2.420333333333334E+009;1.818465590476990E-001;-4.811902344226837E-002;2.280514454469085E-003;3.231043927371502E-003;
2.420500000000000E+009;1.801703274250031E-001;-4.952394217252731E-002;2.321729669347405E-003;3.207351081073284E-003;
2.420666666666667E+009;1.786075085401535E-001;-5.056603625416756E-002;2.396377269178629E-003;3.309609368443489E-003;
2.420833333333334E+009;1.769460141658783E-001;-5.218950286507607E-002;2.426865044981241E-003;3.248090157285333E-003;
2.421000000000000E+009;1.752741336822510E-001;-5.374466627836227E-002;2.592502860352397E-003;3.249345114454627E-003;
2.421166666666667E+009;1.739095449447632E-001;-5.547995865345001E-002;2.711571753025055E-003;3.121549030765891E-003;
2.421333333333334E+009;1.722915321588516E-001;-5.703341588377953E-002;2.833850681781769E-003;3.072371007874608E-003;
2.421500000000000E+009;1.709221601486206E-001;-5.874896794557571E-002;2.954198978841305E-003;2.913294127210975E-003;
2.421666666666667E+009;1.698307096958160E-001;-6.064149364829063E-002;3.175872145220637E-003;2.670268295332789E-003;
2.421833333333334E+009;1.685252189636231E-001;-6.259334087371826E-002;3.354738466441631E-003;2.690707566216588E-003;
2.422000000000000E+009;1.674449294805527E-001;-6.440424919128418E-002;3.403102746233344E-003;2.588122384622693E-003;
2.422166666666667E+009;1.665620058774948E-001;-6.663651019334793E-002;3.407473675906658E-003;2.396014053374529E-003;
2.422333333333334E+009;1.657024025917053E-001;-6.859099864959717E-002;3.293253714218736E-003;2.202222123742104E-003;
2.422500000000000E+009;1.647822260856628E-001;-7.046554982662201E-002;3.605541074648500E-003;2.175173722207546E-003;
2.422666666666667E+009;1.640089452266693E-001;-7.261162996292114E-002;3.668248653411865E-003;1.828604727052152E-003;
2.422833333333334E+009;1.636567264795303E-001;-7.469440251588821E-002;3.682170063257217E-003;1.670228550210595E-003;
2.423000000000000E+009;1.632206141948700E-001;-7.668124884366989E-002;3.489797469228506E-003;1.537809730507433E-003;
2.423166666666667E+009;1.628042161464691E-001;-7.852940261363983E-002;3.413802711293101E-003;1.485807821154594E-003;
2.423333333333334E+009;1.626712828874588E-001;-8.066320419311523E-002;3.552050562575460E-003;1.331820734776557E-003;
2.423500000000000E+009;1.626157015562058E-001;-8.251465857028961E-002;3.414290258660913E-003;1.354897976852953E-003;
2.423666666666667E+009;1.625847667455673E-001;-8.432248234748840E-002;3.322226926684380E-003;1.353789353743196E-003;
2.423833333333334E+009;1.626303195953369E-001;-8.622052520513535E-002;3.242079401388764E-003;1.236996147781611E-003;
2.424000000000000E+009;1.627770066261292E-001;-8.794053643941879E-002;3.289203392341733E-003;1.209782785736024E-003;
2.424166666666667E+009;1.628374159336090E-001;-8.952131867408752E-002;3.195491852238774E-003;1.049599610269070E-003;
2.424333333333334E+009;1.630153059959412E-001;-9.116289019584656E-002;3.270245390012860E-003;1.095702173188329E-003;
2.424500000000000E+009;1.634123772382736E-001;-9.281997382640839E-002;3.345851320773363E-003;1.056098844856024E-003;
2.424666666666667E+009;1.637355238199234E-001;-9.435800462961197E-002;3.396589308977127E-003;9.464360773563385E-004;
2.424833333333334E+009;1.643061339855194E-001;-9.559972584247589E-002;3.433949081227183E-003;1.015215879306197E-003;
2.425000000000000E+009;1.646280437707901E-001;-9.674371033906937E-002;3.572467947378755E-003;9.155427687801421E-004;
2.425166666666667E+009;1.649524122476578E-001;-9.786348044872284E-002;3.386124735698104E-003;8.397136698476970E-004;
2.425333333333334E+009;1.653668880462647E-001;-9.875989705324173E-002;3.488008165732026E-003;8.643499459140003E-004;
2.425500000000000E+009;1.657202541828156E-001;-9.979293495416641E-002;3.526571439579129E-003;7.021075580269098E-004;
2.425666666666667E+009;1.661967784166336E-001;-1.003465056419373E-001;3.630581777542830E-003;6.346917944028974E-004;
2.425833333333334E+009;1.665948033332825E-001;-1.014079824090004E-001;3.704514121636748E-003;6.181282806210220E-004;
2.426000000000000E+009;1.669004410505295E-001;-1.016784459352493E-001;3.666864940896630E-003;4.842743219342083E-004;
2.426166666666667E+009;1.673799604177475E-001;-1.021581739187241E-001;3.540044650435448E-003;2.358935889787972E-004;
2.426333333333334E+009;1.675080507993698E-001;-1.027256920933723E-001;3.654536325484514E-003;2.316294412594289E-004;
2.426500000000000E+009;1.678507328033447E-001;-1.029265448451042E-001;3.651811974123120E-003;9.099572343984619E-005;
2.426666666666667E+009;1.680488139390945E-001;-1.032406762242317E-001;3.764736233279109E-003;6.633017619606108E-005;
2.426833333333334E+009;1.683763712644577E-001;-1.034974828362465E-001;3.685443662106991E-003;-5.281841004034504E-005;
2.427000000000000E+009;1.683498769998550E-001;-1.037696525454521E-001;3.774453187361360E-003;-1.172573756775819E-004;
2.427166666666667E+009;1.684874147176743E-001;-1.038538888096809E-001;4.006606061011553E-003;-1.348876830888912E-004;
2.427333333333334E+009;1.681920289993286E-001;-1.040742248296738E-001;3.697186941280961E-003;-2.453638880979270E-004;
2.427500000000000E+009;1.679985821247101E-001;-1.042538136243820E-001;3.664053743705154E-003;-3.849308704957366E-004;
2.427666666666667E+009;1.676094830036163E-001;-1.042915806174278E-001;3.757333382964134E-003;-5.984397721476853E-004;
2.427833333333334E+009;1.671704947948456E-001;-1.043370440602303E-001;3.690598299726844E-003;-5.554578383453190E-004;
