# Hz S RI R 50
2400000000.0000000000 0.168766587972640991210937500000 0.046505164355039596557617187500 -0.001731458934955298900604248047 0.002478366252034903006312704932 0 0 0 0 
2400166666.6666665077 0.169912159442901611328125000000 0.045498773455619812011718750000 -0.001670737285166979052900004810 0.002454673638567328886744833838 0 0 0 0 
2400333333.3333334923 0.170867234468460110763388115629 0.044330209493637091899831403907 -0.001640486065298319079755473560 0.002476503606885672049281454932 0 0 0 0 
2400500000.0000000000 0.171805158257484408279580634371 0.043357864022254936908762346093 -0.001536808209493756077410053784 0.002541024470701814131495810400 0 0 0 0 
2400666666.6666665077 0.172401010990142794510049384371 0.042275212705135352397878278907 -0.001579726114869117953656840747 0.002614830387756228013279580225 0 0 0 0 
2400833333.3333334923 0.173488631844520596603231865629 0.041610304266214370727539062500 -0.001563293393701314926147460938 0.002705257153138517899754189600 0 0 0 0 
2401000000.0000000000 0.174255326390266390701455634371 0.040731102228164672851562500000 -0.001570763764902948899510048975 0.002695377916097640991210937500 0 0 0 0 
2401166666.6666665077 0.175030633807182312011718750000 0.040029358118772506713867187500 -0.001564386999234556934953999097 0.002704088576138019995448447119 0 0 0 0 
2401333333.3333334923 0.175713434815406799316406250000 0.039335928857326507568359375000 -0.001475246506743133068084716797 0.002878150204196571870091103662 0 0 0 0 
2401500000.0000000000 0.176499083638191195388955634371 0.038803506642580032348632812500 -0.001325538265518843910814594800 0.002881250577047466798069619287 0 0 0 0 
2401666666.6666665077 0.176941588521003695388955634371 0.038124829530715942382812500000 -0.001269681961275636932970356519 0.003042491851374506950378417969 0 0 0 0 
2401833333.3333334923 0.177798673510551508147869981258 0.037361204624176032329518903907 -0.001237751683220267078996967847 0.003027010709047317938563681494 0 0 0 0 
2402000000.0000000000 0.178002998232841491699218750000 0.036934193223714828491210937500 -0.001162860658951103904126811450 0.003030408406630157990696572412 0 0 0 0 
2402166666.6666665077 0.178480565547943087478799384371 0.036293666809797286987304687500 -0.001034507993608712933183979565 0.003142423229292035102844238281 0 0 0 0 
2402333333.3333334923 0.178792014718055697342080634371 0.035725798457860946655273437500 -0.000921369181014597415924072266 0.003114973893389105796813964844 0 0 0 0 
2402500000.0000000000 0.179314926266670199295205634371 0.035040490329265587543527971093 -0.000918580102734267711639404297 0.003167771268635987801792763818 0 0 0 0 
2402666666.6666665077 0.179392516613006591796875000000 0.034437686204910278320312500000 -0.000773148785810917615890502930 0.003072113497182726860046386719 0 0 0 0 
2402833333.3333334923 0.179463967680931091308593750000 0.033678814768791198730468750000 -0.000667542510200291872024536133 0.003258338896557689146754599463 0 0 0 0 
2403000000.0000000000 0.179505541920661898513955634371 0.033117320388555526733398437500 -0.000517245673108845949172973633 0.003136436222121119932887411963 0 0 0 0 
2403166666.6666665077 0.179599896073341397384481865629 0.032150734215974807739257812500 -0.000447794009232893586158752441 0.003045132383704185919520712744 0 0 0 0 
2403333333.3333334923 0.179588884115219088455361884371 0.031369239091873168945312500000 -0.000272514211246743798255920410 0.003243932733312249183654785156 0 0 0 0 
2403500000.0000000000 0.179302901029586791992187500000 0.030474347993731498718261718750 -0.000312785035930573886066990985 0.003399323904886842207667685400 0 0 0 0 
2403666666.6666665077 0.179095134139061001876669365629 0.029366718605160709726353829296 -0.000269114243565127307742518292 0.003424785565584897994995117188 0 0 0 0 
2403833333.3333334923 0.178919792175292996505575615629 0.028234109282493591308593750000 -0.000114858019514940706178388052 0.003376576351001859144923544775 0 0 0 0 
2404000000.0000000000 0.178395450115203912933026231258 0.027107501402497291564941406250 -0.000106845589471049593247552190 0.003357846988365054130554199219 0 0 0 0 
2404166666.6666665077 0.177991420030593899825888115629 0.025986902415752410888671875000 -0.000067986249632667750120162964 0.003579904790967702865600585938 0 0 0 0 
2404333333.3333334923 0.177495419979095486739950615629 0.024780280888080600393275076954 0.000063527731981594115495681763 0.003386042779311538176295615088 0 0 0 0 
2404500000.0000000000 0.176866382360458401779013115629 0.023344792425632480276087576954 0.000050934489991050206799099581 0.003486991627141832871678017725 0 0 0 0 
2404666666.6666665077 0.176589637994766207595986884371 0.022142376750707629812220389454 0.000285009504295885617106837140 0.003695637686178088188171386719 0 0 0 0 
2404833333.3333334923 0.175825700163841303069744981258 0.020571740344166759145716483204 0.000351379218045622110366821289 0.003746011760085821151733398438 0 0 0 0 
2405000000.0000000000 0.175494283437728909591513115629 0.018996983766555789602259451954 0.000508277735207229852676391602 0.003893425688147544860839843750 0 0 0 0 
2405166666.6666665077 0.174999758601188687423544365629 0.017511792480945590627650076954 0.000618913851212710142135620117 0.003753673285245894952061318506 0 0 0 0 
2405333333.3333334923 0.174611821770668002029580634371 0.015657441690564159048060233204 0.000821627443656325340270996094 0.003633362939581274986267089844 0 0 0 0 
2405500000.0000000000 0.174131840467453002929687500000 0.014183377847075460606585117773 0.000880614330526441335678100586 0.003785544540733098983764648438 0 0 0 0 
2405666666.6666665077 0.173815831542015103439169365629 0.012535654939711090433140938671 0.001080897054634988091112446362 0.003544429549947381019592285156 0 0 0 0 
2405833333.3333334923 0.173394486308097811599893134371 0.010714537464082239323626133398 0.001271571265533566908595419775 0.003804875072091817855834960938 0 0 0 0 
2406000000.0000000000 0.172981634736061096191406250000 0.008666022680699825286865234375 0.001461664098314940929412841797 0.003683678340166807174682617188 0 0 0 0 
2406166666.6666665077 0.172601744532585088531817518742 0.006941750179976224899291992188 0.001466347603127359910252236475 0.003610804211348295211791992188 0 0 0 0 
2406333333.3333334923 0.172604158520698602874432481258 0.004969016648828983306884765625 0.001751001807861030101776123047 0.003540878184139728979823447119 0 0 0 0 
2406500000.0000000000 0.172470703721046503265057481258 0.002971764653921126885655068506 0.001911476952955126979230571216 0.003524555591866374015808105469 0 0 0 0 
2406666666.6666665077 0.172212406992912292480468750000 0.000978658092208206653594970703 0.002120869467034935951232910156 0.003639990231022239165065146338 0 0 0 0 
2406833333.3333334923 0.172319069504737909515057481258 -0.001108475378714502074598002856 0.002269091550260781808140420068 0.003487518522888422012329101562 0 0 0 0 
2407000000.0000000000 0.172377675771713312347088731258 -0.003192810807377099990844726562 0.002389875939115881919860839844 0.003457923419773579077479697119 0 0 0 0 
2407166666.6666665077 0.172620132565498407561932481258 -0.005242449697107076644897460938 0.002722082659602164788487099756 0.003288238309323788122889853369 0 0 0 0 
2407333333.3333334923 0.172634810209274291992187500000 -0.007391210645437240600585937500 0.002752991626039146943333291162 0.003431009361520410017726279150 0 0 0 0 
2407500000.0000000000 0.172842264175415011306924384371 -0.009294106625020503997802734375 0.002902096603065729141235351562 0.003257140284404159025904990088 0 0 0 0 
2407666666.6666665077 0.173164620995521600921307481258 -0.011396225541830059396763985546 0.003166186157613993124720908057 0.002963253762573004202601767432 0 0 0 0 
2407833333.3333334923 0.173396065831184387207031250000 -0.013620429672300820786445818555 0.003212419105693697929382324219 0.002655277960002421899082802881 0 0 0 0 
2408000000.0000000000 0.173849537968635586837606865629 -0.015691140666604038583775704296 0.003323000622913240952732705225 0.002594469813629984855651855469 0 0 0 0 
2408166666.6666665077 0.174196720123290987869424384371 -0.017526099458336830139160156250 0.003597378032281994819641113281 0.002360546030104159875157021631 0 0 0 0 
2408333333.3333334923 0.174800425767898587325888115629 -0.019526505842804908752441406250 0.003746610600501298904418945312 0.002233551349490880966186523438 0 0 0 0 
2408500000.0000000000 0.175108432769775390625000000000 -0.021441658958792689931849295704 0.003639759961515665054321289062 0.001902424031868577003479003906 0 0 0 0 
2408666666.6666665077 0.175627991557121304611044365629 -0.023220567032694820058802420704 0.003837385680526494979858398438 0.001789049711078404946568154443 0 0 0 0 
2408833333.3333334923 0.175971612334251403808593750000 -0.025016238912940028799036795704 0.003775693010538816885707236182 0.001535298302769660949707031250 0 0 0 0 
2409000000.0000000000 0.176396891474723788162393134371 -0.026499057188630100595494454296 0.003832737216725945906398154150 0.001252698595635592937469482422 0 0 0 0 
2409166666.6666665077 0.176994428038597106933593750000 -0.028283800929784781719167341407 0.003742012428119779066798544775 0.001299104886129498915431357275 0 0 0 0 
2409333333.3333334923 0.177471086382865905761718750000 -0.029762344434857368469238281250 0.003805671585723758177516318213 0.001177220488898456096649169922 0 0 0 0 
2409500000.0000000000 0.177797377109527587890625000000 -0.031097574159502979623814766796 0.003474390832707285881042480469 0.000858703744597733020782470703 0 0 0 0 
2409666666.6666665077 0.178325325250625610351562500000 -0.032189492136240012432057966407 0.003759864484891294999363564600 0.000688958622049540281295776367 0 0 0 0 
2409833333.3333334923 0.178568825125694302657919365629 -0.033392116427421569824218750000 0.003719859290868043899536132812 0.000625191198196262121200561523 0 0 0 0 
2410000000.0000000000 0.179238036274910000900106865629 -0.034243639558553702617604841407 0.003488087560981512069702148438 0.000451877218438312411308288574 0 0 0 0 
2410166666.6666665077 0.179777145385742187500000000000 -0.035090774297714233398437500000 0.003483971348032354874851845850 0.000518598302733153104782104492 0 0 0 0 
2410333333.3333334923 0.180134788155555697342080634371 -0.035999000072479248046875000000 0.003490033093839883804321289062 0.000362987106200307607650756836 0 0 0 0 
2410500000.0000000000 0.180644780397415188888388115629 -0.036552093923091888427734375000 0.003418356180191040039062500000 0.000264016241999342983395177020 0 0 0 0 
2410666666.6666665077 0.180890113115310696700888115629 -0.037458255887031562114675153907 0.003475795965641736984252929688 0.000048558787966612733226230009 0 0 0 0 
2410833333.3333334923 0.181423261761665288727130018742 -0.037958282977342612529714216407 0.003696667961776256994960165869 0.000001475033286624239038092713 0 0 0 0 
2411000000.0000000000 0.181747093796730013748330634371 -0.038490977138280868530273437500 0.003674617502838373184204101562 -0.000109520857222378294594349046 0 0 0 0 
2411166666.6666665077 0.181894257664680508712606865629 -0.038928825408220291137695312500 0.003585382597520947890040732275 -0.000216649423236958709642133170 0 0 0 0 
2411333333.3333334923 0.182129308581352206131143134371 -0.039222039282321929931640625000 0.003426001174375414848327636719 -0.000517212029080837965011596680 0 0 0 0 
2411500000.0000000000 0.182187139987945612151776231258 -0.039984561502933502197265625000 0.003481460502371191978454589844 -0.000457315734820440411567687988 0 0 0 0 
2411666666.6666665077 0.182226479053497286697549384371 -0.040313486009836196899414062500 0.003492507385089993910548544775 -0.000562853529118001461029052734 0 0 0 0 
2411833333.3333334923 0.182161733508110101897869981258 -0.040586821734905242919921875000 0.003523814491927624182460165869 -0.000754376465920358896255493164 0 0 0 0 
2412000000.0000000000 0.182044580578803988357705634371 -0.040901649743318557739257812500 0.003450179705396295027491904150 -0.000924039457459002733230590820 0 0 0 0 
2412166666.6666665077 0.181708425283432006835937500000 -0.041298218071460716938059221093 0.003476288635283709006068564307 -0.001047166180796921036363911206 0 0 0 0 
2412333333.3333334923 0.181555494666099603850994981258 -0.041539236903190612792968750000 0.003338590264320373968837118994 -0.001039189519360661940333701025 0 0 0 0 
2412500000.0000000000 0.180922642350196810623330634371 -0.041943181306123726581613908593 0.003288585226982831954956054688 -0.001086507341824471950531005859 0 0 0 0 
2412666666.6666665077 0.180587500333786010742187500000 -0.042392145842313773418386091407 0.003106025280430912971496582031 -0.001356901600956917025922465747 0 0 0 0 
2412833333.3333334923 0.179697513580322293380575615629 -0.042780715972185141826589216407 0.003166540060192347006556845557 -0.001326883095316589095472026294 0 0 0 0 
2413000000.0000000000 0.178840577602386502364950615629 -0.043108288198709487915039062500 0.002994372276589273972752236475 -0.001506011700257658958435058594 0 0 0 0 
2413166666.6666665077 0.178039938211441012283486884371 -0.043599896132946007465402971093 0.002827797783538699150085449219 -0.001604070304892956993700336987 0 0 0 0 
2413333333.3333334923 0.177078947424888610839843750000 -0.043943129479885101318359375000 0.002915262011811137199401855469 -0.001789065892808139107347797925 0 0 0 0 
2413500000.0000000000 0.176311701536178588867187500000 -0.044501770287752151489257812500 0.002809377154335380034205771338 -0.001922977855429053089739155347 0 0 0 0 
2413666666.6666665077 0.175053775310516412933026231258 -0.045005615800619132305104841407 0.002640151185914874076843261719 -0.001997078536078333854675292969 0 0 0 0 
2413833333.3333334923 0.173864051699638394454794365629 -0.045494034886360168457031250000 0.002656331518664956092834472656 -0.002008832292631268934962607275 0 0 0 0 
2414000000.0000000000 0.172708839178085299392861884371 -0.046263638883829116821289062500 0.002373583614826201958897256006 -0.002146253827959299087524414062 0 0 0 0 
2414166666.6666665077 0.171560451388359097579794365629 -0.046907722949981689453125000000 0.002241877606138586997985839844 -0.002313534030690788789036416162 0 0 0 0 
2414333333.3333334923 0.170310094952583312988281250000 -0.047744609415531158447265625000 0.002152875531464815139770507812 -0.002326769288629293008091591943 0 0 0 0 
2414500000.0000000000 0.169378727674484308440838731258 -0.048567239195108406757395158593 0.002175600500777364210841513525 -0.002351215807721018791198730469 0 0 0 0 
2414666666.6666665077 0.168078064918518094161825615629 -0.049593545496463782573659528907 0.001942224334925412914873432690 -0.002283424837514758110046386719 0 0 0 0 
2414833333.3333334923 0.166635110974311800857705634371 -0.050613567233085632324218750000 0.001802393468096852085710835034 -0.002370692556723951859715127100 0 0 0 0 
2415000000.0000000000 0.165486648678779602050781250000 -0.051665227860212332988698591407 0.001723203342407942035077739185 -0.002498276997357606887817382812 0 0 0 0 
2415166666.6666665077 0.164240658283233587066973768742 -0.052955906838178641582448591407 0.001478129997849463982823037256 -0.002396330470219254927394247900 0 0 0 0 
2415333333.3333334923 0.163111776113510104080361884371 -0.054495152086019522930104841407 0.001485941000282764001133584131 -0.002356391167268157005310058594 0 0 0 0 
2415500000.0000000000 0.161828145384788513183593750000 -0.055800974369049072265625000000 0.001474718446843326091766357422 -0.002145616803318262100219726562 0 0 0 0 
2415666666.6666665077 0.160752579569816589355468750000 -0.057164132595062262798268903907 0.001401616726070642904994345557 -0.002208754420280456976649618994 0 0 0 0 
2415833333.3333334923 0.159676954150199890136718750000 -0.058910824358463287353515625000 0.001239752746187150912043906104 -0.002364492043852806091308593750 0 0 0 0 
2416000000.0000000000 0.158527001738548306564169365629 -0.060599248856306082988698591407 0.001038283458910882906672812354 -0.002177411923184990882873535156 0 0 0 0 
2416166666.6666665077 0.157715395092964200118856865629 -0.062351770699024200439453125000 0.001115069258958101055742573315 -0.002114273840561509132385253906 0 0 0 0 
2416333333.3333334923 0.156677603721618707854901231258 -0.064055010676383972167968750000 0.001071494072675704956054687500 -0.002095385221764444871189736475 0 0 0 0 
2416500000.0000000000 0.155717298388481112381143134371 -0.066036581993103027343750000000 0.001032446045428514914271689307 -0.002228930592536925835850381006 0 0 0 0 
2416666666.6666665077 0.154761835932731600662393134371 -0.067887164652347564697265625000 0.000976467097643762826919555664 -0.002116451039910316900966025244 0 0 0 0 
2416833333.3333334923 0.154054358601570101638955634371 -0.069975055754184722900390625000 0.000921349215786904096603393555 -0.002217786619439721107482910156 0 0 0 0 
2417000000.0000000000 0.153198257088661193847656250000 -0.071956567466259002685546875000 0.000789290352258831262588500977 -0.002224062103778123855590820312 0 0 0 0 
2417166666.6666665077 0.152560845017433194259481865629 -0.073817461729049682617187500000 0.000859460618812590837478637695 -0.002117568626999855041503906250 0 0 0 0 
2417333333.3333334923 0.151954501867294311523437500000 -0.075866274535655975341796875000 0.000983286532573401927947998047 -0.002178161637857555909397744287 0 0 0 0 
2417500000.0000000000 0.151343792676925686935263115629 -0.077935375273227691650390625000 0.000792997831013053655624389648 -0.002150746295228600935695029150 0 0 0 0 
2417666666.6666665077 0.150948271155357388595419365629 -0.079708442091941833496093750000 0.000742736388929188251495361328 -0.002245296491309999985935830225 0 0 0 0 
2417833333.3333334923 0.150534942746162386795205634371 -0.081674098968505859375000000000 0.000957118347287178039550781250 -0.002476225607097148895263671875 0 0 0 0 
2418000000.0000000000 0.150103732943534906585369981258 -0.083589583635330200195312500000 0.000799497065600007772445678711 -0.002379608806222676797154091943 0 0 0 0 
2418166666.6666665077 0.149742469191551208496093750000 -0.085275448858737945556640625000 0.000821358466055244207382202148 -0.002362500876188278198242187500 0 0 0 0 
2418333333.3333334923 0.149861901998519897460937500000 -0.087048009037971496582031250000 0.000756373105105012655258178711 -0.002407032065093516869785927881 0 0 0 0 
2418500000.0000000000 0.149595990777015713790731865629 -0.088637880980968475341796875000 0.000648740213364362716674804688 -0.002430438995361328125000000000 0 0 0 0 
2418666666.6666665077 0.149682685732841491699218750000 -0.090345717966556549072265625000 0.000539859931450337171554565430 -0.002634436590597033934352255713 0 0 0 0 
2418833333.3333334923 0.149404615163803100585937500000 -0.091749839484691619873046875000 0.000477398163639008998870849609 -0.002532927086576818986179970850 0 0 0 0 
2419000000.0000000000 0.149404436349868802169638115629 -0.093204334378242492675781250000 0.000128127998323179808541974478 -0.002707751700654625892639160156 0 0 0 0 
2419166666.6666665077 0.149698734283447293380575615629 -0.094286881387233734130859375000 0.000232382823014631894513806754 -0.002682279562577604813816689600 0 0 0 0 
2419333333.3333334923 0.149531200528144808670205634371 -0.095237493515014648437500000000 -0.000027797053917311128566061326 -0.002633886644616723060607910156 0 0 0 0 
2419500000.0000000000 0.149868756532669095138388115629 -0.096615925431251525878906250000 -0.000009085021702048834413290024 -0.002682474907487630844116210938 0 0 0 0 
2419666666.6666665077 0.150093361735343905349893134371 -0.097441069781780242919921875000 -0.000284631998511031324237269269 -0.002623628592118620872497558594 0 0 0 0 
2419833333.3333334923 0.150210931897163391113281250000 -0.098006501793861389160156250000 -0.000466613331809639876514989032 -0.002591483062133193016052246094 0 0 0 0 
