# Hz S RI R 50
2400000000.0000000000 0.173369690775871304611044365629 0.049647722393274307250976562500 -0.000445159297669306397438049316 0.004822593647986651334280683301 0 0 0 0 
2400166666.6666665077 0.173881083726882906814736884371 0.049325346946716308593750000000 -0.000612904899753630161285400391 0.004574997350573539733886718750 0 0 0 0 
2400333333.3333334923 0.174255460500717190841513115629 0.048454593867063522338867187500 -0.000163189091836102306842803955 0.004540152382105588912963867188 0 0 0 0 
2400500000.0000000000 0.174665331840515108963174384371 0.047785449773073203350026716407 -0.000232548758503980907514849252 0.004561813548207283020019531250 0 0 0 0 
2400666666.6666665077 0.174839973449707003494424384371 0.047008588910102837299387346093 -0.000379448116291314417689722882 0.004396731499582529067993164062 0 0 0 0 
2400833333.3333334923 0.175147414207458496093750000000 0.046549756079912192607839216407 -0.000105933475424535599633893423 0.004361251369118691358084394238 0 0 0 0 
2401000000.0000000000 0.175177961587905911544638115629 0.045828558504581451416015625000 -0.000241759407799690988942822867 0.004423700738698244094848632812 0 0 0 0 
2401166666.6666665077 0.175346076488494900802450615629 0.045185796916484832763671875000 -0.000245568749960511922836303711 0.004306324757635593414306640625 0 0 0 0 
2401333333.3333334923 0.175490468740463312347088731258 0.044340007007122039794921875000 -0.000117820149171166094854631967 0.004274560604244470596313476562 0 0 0 0 
2401500000.0000000000 0.175569191575050409515057481258 0.043813697993755340576171875000 0.000095496543508488684892654419 0.004379254765808582305908203125 0 0 0 0 
2401666666.6666665077 0.175505772233009310623330634371 0.043202638626098632812500000000 0.000138394228997640311717987061 0.004231324885040521621704101562 0 0 0 0 
2401833333.3333334923 0.175141200423240689376669365629 0.042232662439346306537668596093 0.000058572684793034568428993225 0.004311390221118927001953125000 0 0 0 0 
2402000000.0000000000 0.174865081906318692306356865629 0.041575234383344650268554687500 0.000274534133495762890011387958 0.004300346132367849349975585938 0 0 0 0 
2402166666.6666665077 0.174891084432601900955361884371 0.040577538311481482768972028907 0.000234359351452439996317186899 0.004300134256482124328613281250 0 0 0 0 
2402333333.3333334923 0.174655571579933194259481865629 0.039463754743337631225585937500 0.000393421680200845003128051758 0.004236617125570774078369140625 0 0 0 0 
2402500000.0000000000 0.174616366624832208831463731258 0.038309682160615921020507812500 0.000405315600801259279251098633 0.004401462618261575698852539062 0 0 0 0 
2402666666.6666665077 0.174168482422828702071981865629 0.037383381277322769165039062500 0.000445465615484863519668579102 0.004351031500846148404593183301 0 0 0 0 
2402833333.3333334923 0.174004316329956110198651231258 0.036191459745168692851979841407 0.000499739078804850578308105469 0.004419787321239709854125976562 0 0 0 0 
2403000000.0000000000 0.173603087663650512695312500000 0.034672349691390991210937500000 0.000717237300705164670944213867 0.004327014088630676269531250000 0 0 0 0 
2403166666.6666665077 0.173244163393974304199218750000 0.033166006207466132427175153907 0.000958106655161827802658081055 0.004385478328913450241088867188 0 0 0 0 
2403333333.3333334923 0.173005476593971307952557481258 0.031647559255361557006835937500 0.000844232621602714061737060547 0.004512801766395568847656250000 0 0 0 0 
2403500000.0000000000 0.172433629631996210296307481258 0.030214283615350719797154610546 0.001069311052560806057573628003 0.004429530818015336990356445312 0 0 0 0 
2403666666.6666665077 0.172001555562019403655682481258 0.028512718155980110168457031250 0.001073706196621059937718056787 0.004522982053458690643310546875 0 0 0 0 
2403833333.3333334923 0.171768382191657992263955634371 0.026730902493000030517578125000 0.001237056683748960928675986182 0.004228564444929361343383789062 0 0 0 0 
2404000000.0000000000 0.171512082219123812576455634371 0.024988595396280288696289062500 0.001440442400053143934962607275 0.004145061131566762924194335938 0 0 0 0 
2404166666.6666665077 0.171037152409553500076455634371 0.023037066683173179626464843750 0.001578292925842105908634804834 0.004031147342175245285034179688 0 0 0 0 
2404333333.3333334923 0.170699983835220309158486884371 0.021198568865656849252721016796 0.001623283023945987007738422925 0.004216965287923812866210937500 0 0 0 0 
2404500000.0000000000 0.170427426695823697189169365629 0.019310956820845600473424141796 0.001566389808431267955182719653 0.004134561400860548019409179688 0 0 0 0 
2404666666.6666665077 0.170042857527732904632244981258 0.017402566969394680368443673046 0.001871722401119769053218222510 0.003960992675274611386770917676 0 0 0 0 
2404833333.3333334923 0.169900178909301813323651231258 0.015272190794348720205286795704 0.001753611722961067936540913159 0.003900463925674558119532919775 0 0 0 0 
2405000000.0000000000 0.169814586639404296875000000000 0.013197790831327440089215663477 0.001871080836281179948094033350 0.003997126128524541854858398438 0 0 0 0 
2405166666.6666665077 0.169697389006614712814169365629 0.011400397866964340209960937500 0.001857549767009913921356201172 0.003879362484440207915065146338 0 0 0 0 
2405333333.3333334923 0.169647336006164606292401231258 0.009117440320551395416259765625 0.001896410598419606902478862231 0.003849720349535346031188964844 0 0 0 0 
2405500000.0000000000 0.169784098863601712325888115629 0.007278075441718102368826581738 0.002128143562003970146179199219 0.003958288580179215344900800488 0 0 0 0 
2405666666.6666665077 0.169927746057510403732138115629 0.005132105201482772827148437500 0.002049743663519620895385742188 0.003808328183367847962620400537 0 0 0 0 
2405833333.3333334923 0.170078352093696594238281250000 0.003280933015048503875732421875 0.002108512679114938215968466650 0.003720968728885055021998740088 0 0 0 0 
2406000000.0000000000 0.170496582984924288650674384371 0.001137519138865173079847026294 0.002437036018818616867065429688 0.003806731197983026938197470557 0 0 0 0 
2406166666.6666665077 0.170591562986373901367187500000 -0.000731231120880693197250366211 0.002490605460479855971095419775 0.003832990303635596795323037256 0 0 0 0 
2406333333.3333334923 0.171413004398346002776776231258 -0.002913038013502955003025673975 0.002526683965697884993312216650 0.003833597758784890174865722656 0 0 0 0 
2406500000.0000000000 0.171708270907402010818643134371 -0.004828006494790315628051757812 0.002724749734625219865086220850 0.003891044529154897169825888525 0 0 0 0 
2406666666.6666665077 0.172144755721092196365518134371 -0.006676638033241034421438886426 0.002741982927545905113220214844 0.003729875199496746063232421875 0 0 0 0 
2406833333.3333334923 0.172930195927619906326455634371 -0.008651567623019218444824218750 0.002758112037554382844212197412 0.003759229788556694984436035156 0 0 0 0 
2407000000.0000000000 0.173576191067695589920205634371 -0.010586354881525039672851562500 0.003068738849833608107325888525 0.003848745953291655020472861182 0 0 0 0 
2407166666.6666665077 0.174406975507736206054687500000 -0.012329425662755969655970389454 0.003274036804214119911193847656 0.003657090710476040840148925781 0 0 0 0 
2407333333.3333334923 0.175007075071334811111611884371 -0.014223828911781309300432774023 0.003520536003634334044215536963 0.003495658747851849035975790869 0 0 0 0 
2407500000.0000000000 0.175926998257636996170205634371 -0.015802808105945590627650076954 0.003541961312294005913975381006 0.003542021615430713133571005713 0 0 0 0 
2407666666.6666665077 0.176688328385353088378906250000 -0.017455765977501869201660156250 0.003838187316432594819309853662 0.003457162063568830923793173682 0 0 0 0 
2407833333.3333334923 0.177335605025291387359942518742 -0.019148025661706920969029610546 0.003841945435851811928990029443 0.003317777533084154129028320312 0 0 0 0 
2408000000.0000000000 0.178212761878967312911825615629 -0.020765116438269618642786795704 0.004322107415646314620971679688 0.003199691185727715925929404150 0 0 0 0 
2408166666.6666665077 0.178837478160858209808026231258 -0.022063411772251129150390625000 0.004203250166028738021850585938 0.002976738614961504936218261719 0 0 0 0 
2408333333.3333334923 0.179787978529930086990518134371 -0.023507324978709220886230468750 0.004490858409553766250610351562 0.002869078423827887015101767432 0 0 0 0 
2408500000.0000000000 0.180396497249603299239950615629 -0.024962121620774269104003906250 0.004550346639007329940795898438 0.002669705776497722105738974463 0 0 0 0 
2408666666.6666665077 0.180964872241020202636718750000 -0.026182519271969798696497733204 0.004540166351944208145141601562 0.002497931709513068199157714844 0 0 0 0 
2408833333.3333334923 0.181402146816253689864950615629 -0.027351783588528629648228829296 0.004669867921620607376098632812 0.002231797436252235932591103662 0 0 0 0 
2409000000.0000000000 0.181849658489227294921875000000 -0.028310555964708331716517264454 0.004715972580015659332275390625 0.002007724484428762955906533350 0 0 0 0 
2409166666.6666665077 0.182382792234420804122763115629 -0.029182229191064841533620466407 0.004768358543515205383300781250 0.001987641910091042952296591650 0 0 0 0 
2409333333.3333334923 0.182853639125824002364950615629 -0.030086850747466090810755545704 0.004846880212426185607910156250 0.001488836249336600086809467847 0 0 0 0 
2409500000.0000000000 0.182972118258476312835369981258 -0.030939815565943721425989920704 0.004756463691592217359060956738 0.001514100236818193955662392725 0 0 0 0 
2409666666.6666665077 0.183234363794326809982138115629 -0.031374357640743262554128278907 0.004850338213145732879638671875 0.001223621191456913948059082031 0 0 0 0 
2409833333.3333334923 0.183458253741264287750567518742 -0.031868558377027511596679687500 0.004762366879731416702270507812 0.001025813049636780998827290112 0 0 0 0 
2410000000.0000000000 0.183741256594657897949218750000 -0.032218139618635177612304687500 0.004796413239091634750366210938 0.000978894531726837158203125000 0 0 0 0 
2410166666.6666665077 0.183901533484458895584268134371 -0.032458573579788208007812500000 0.004897910635918378829956054688 0.000829432508908212184906005859 0 0 0 0 
2410333333.3333334923 0.183750674128532409667968750000 -0.032974306493997566913645158593 0.004789447877556085586547851562 0.000612006930168718099594116211 0 0 0 0 
2410500000.0000000000 0.183753490447998102386151231258 -0.033322438597679138183593750000 0.004677460063248872756958007812 0.000707642175257205963134765625 0 0 0 0 
2410666666.6666665077 0.183706507086753900725994981258 -0.033820990473031997680664062500 0.004689233843237161636352539062 0.000378586846636608188778477802 0 0 0 0 
2410833333.3333334923 0.183598637580871609786825615629 -0.034108646214008331298828125000 0.004677030723541975021362304688 0.000251338409725576584965306415 0 0 0 0 
2411000000.0000000000 0.183246076107025201995526231258 -0.034165304154157638549804687500 0.004573160782456398010253906250 0.000284350506262853687435704364 0 0 0 0 
2411166666.6666665077 0.182933852076530512054119981258 -0.034428142011165618896484375000 0.004689470399171113967895507812 0.000040009959775488816876003878 0 0 0 0 
2411333333.3333334923 0.182506456971168490310830634371 -0.034827064722776412963867187500 0.004674990661442279815673828125 -0.000038160331314429640769958496 0 0 0 0 
2411500000.0000000000 0.182003483176231412032919365629 -0.035345915704965591430664062500 0.004688114859163761138916015625 -0.000225487397983670207575121469 0 0 0 0 
2411666666.6666665077 0.181418687105178805252236884371 -0.035624410957098007202148437500 0.004510723054409027099609375000 -0.000372384965885430574417114258 0 0 0 0 
2411833333.3333334923 0.180594250559806795974893134371 -0.036062639206647872924804687500 0.004591397475451231002807617188 -0.000388043437851592898368835449 0 0 0 0 
2412000000.0000000000 0.179770871996879605392294365629 -0.036365989595651626586914062500 0.004626377485692501068115234375 -0.000454931549029424786567687988 0 0 0 0 
2412166666.6666665077 0.178840801119804410079794365629 -0.036847770214080810546875000000 0.004475572146475315093994140625 -0.000620872247964143753051757812 0 0 0 0 
2412333333.3333334923 0.178038001060485812088174384371 -0.037411872297525412822682966407 0.004485688637942075729370117188 -0.000764681724831461906433105469 0 0 0 0 
2412500000.0000000000 0.176813513040542602539062500000 -0.038047369569540016864817033593 0.004453241825103759765625000000 -0.000838177278637886047363281250 0 0 0 0 
2412666666.6666665077 0.175808578729629488845986884371 -0.038863368332386016845703125000 0.004373216070234776410574628613 -0.000919228768907487392425537109 0 0 0 0 
2412833333.3333334923 0.174626454710960388183593750000 -0.039580911397933959960937500000 0.004157649818807840347290039062 -0.001011273707263172106501913916 0 0 0 0 
2413000000.0000000000 0.173460096120834406097088731258 -0.040214020758867256855051408593 0.004305808339267969131469726562 -0.000896496931090950965881347656 0 0 0 0 
2413166666.6666665077 0.172243103384971590896768134371 -0.041213355958461761474609375000 0.004248976707458496093750000000 -0.001031229272484778924229287256 0 0 0 0 
2413333333.3333334923 0.170732825994491604904013115629 -0.042097099125385277484934221093 0.004082658793777227401733398438 -0.001167865586467087051988911206 0 0 0 0 
2413500000.0000000000 0.169490143656730707366619981258 -0.043186005204916000366210937500 0.003995207604020833969116210938 -0.001180237624794244983075786060 0 0 0 0 
2413666666.6666665077 0.168263301253318786621093750000 -0.044254366308450698852539062500 0.003986889496445655822753906250 -0.001041274052113295035121298682 0 0 0 0 
2413833333.3333334923 0.166851490736007690429687500000 -0.045367393642663962627370466407 0.004237073007971048355102539062 -0.001153589691966772079467773438 0 0 0 0 
2414000000.0000000000 0.165542080998420687576455634371 -0.046619940549135208129882812500 0.004052320495247840881347656250 -0.001208434230647980949999165112 0 0 0 0 
2414166666.6666665077 0.164418086409568786621093750000 -0.048009701073169708251953125000 0.004158354829996824264526367188 -0.001219253870658576922175742041 0 0 0 0 
2414333333.3333334923 0.163119152188301086425781250000 -0.049375772476196289062500000000 0.004131682682782411575317382812 -0.001292060362175107002258300781 0 0 0 0 
2414500000.0000000000 0.162141829729080200195312500000 -0.050786402076482772827148437500 0.004359512124210596084594726562 -0.001209272071719170050380087744 0 0 0 0 
2414666666.6666665077 0.161018505692481994628906250000 -0.052376139909029006958007812500 0.004381823819130659103393554688 -0.001192327123135328076006245190 0 0 0 0 
2414833333.3333334923 0.159817039966583307464276231258 -0.054050128906965262676198591407 0.004581190645694732666015625000 -0.001510408474132419066188193213 0 0 0 0 
2415000000.0000000000 0.158851400017738286774005018742 -0.055701632052659988403320312500 0.004401509184390307340140058301 -0.001562457415275275924085307544 0 0 0 0 
2415166666.6666665077 0.157931223511695889571981865629 -0.057509440928697592998464216407 0.004728087224066258344168378613 -0.001682245056144892952562641675 0 0 0 0 
2415333333.3333334923 0.157141357660293606857138115629 -0.059299949556589126586914062500 0.004771146923303604125976562500 -0.001932001439854502894757914966 0 0 0 0 
2415500000.0000000000 0.156336620450019808670205634371 -0.061178039759397506713867187500 0.004939834121614694595336914062 -0.001982306828722358183619833838 0 0 0 0 
2415666666.6666665077 0.155589208006858797928018134371 -0.062993519008159637451171875000 0.004865934606641530990600585938 -0.002203747164458035989048623193 0 0 0 0 
2415833333.3333334923 0.154962733387947110275106865629 -0.064967095851898193359375000000 0.005063402000814676284790039062 -0.002339435508474708037135458838 0 0 0 0 
2416000000.0000000000 0.154335260391235407073651231258 -0.066973283886909484863281250000 0.005160924978554248809814453125 -0.002617528196424245834350585938 0 0 0 0 
2416166666.6666665077 0.154034167528152493575888115629 -0.068973951041698455810546875000 0.005201833322644233703613281250 -0.003019569441676139831542968750 0 0 0 0 
2416333333.3333334923 0.153541862964630099197549384371 -0.070835158228874206542968750000 0.004972553346306085586547851562 -0.003328734077513217926025390625 0 0 0 0 
2416500000.0000000000 0.153220653533935602386151231258 -0.073034316301345825195312500000 0.005130809731781482696533203125 -0.003447073278948665098903036963 0 0 0 0 
2416666666.6666665077 0.152757599949836703201455634371 -0.074793197214603424072265625000 0.004978428129106760025024414062 -0.003868528641760348840000771631 0 0 0 0 
2416833333.3333334923 0.152635708451271112640057481258 -0.076775029301643371582031250000 0.004926724359393119812011718750 -0.004102495033293963345999433301 0 0 0 0 
2417000000.0000000000 0.152353018522262600997763115629 -0.078711844980716705322265625000 0.004865723662078380584716796875 -0.004435835406184197339529706738 0 0 0 0 
2417166666.6666665077 0.152264907956123407561932481258 -0.080395467579364776611328125000 0.004577950574457645416259765625 -0.004633059725165367126464843750 0 0 0 0 
2417333333.3333334923 0.152234047651290893554687500000 -0.082135118544101715087890625000 0.004463762044906616210937500000 -0.005048516672104597091674804688 0 0 0 0 
2417500000.0000000000 0.152182132005691500564736884371 -0.084034718573093414306640625000 0.004217886831611394882202148438 -0.005168858915567398071289062500 0 0 0 0 
2417666666.6666665077 0.152278766036033602615518134371 -0.085554711520671844482421875000 0.004078397992998361587524414062 -0.005393627099692822370047284863 0 0 0 0 
2417833333.3333334923 0.152410268783569308181924384371 -0.086960710585117340087890625000 0.004012749530375003814697265625 -0.005742540583014488220214843750 0 0 0 0 
2418000000.0000000000 0.152306005358696011642294365629 -0.088433608412742614746093750000 0.003772387746721506118774414062 -0.005905804224312306317801191113 0 0 0 0 
2418166666.6666665077 0.152540922164916992187500000000 -0.089614763855934143066406250000 0.003346066456288098855259560693 -0.006222944241017103195190429688 0 0 0 0 
2418333333.3333334923 0.152859732508659390548544365629 -0.090960323810577392578125000000 0.003127630567178130149841308594 -0.006422500591725111007690429688 0 0 0 0 
2418500000.0000000000 0.153086319565773010253906250000 -0.092028535902500152587890625000 0.002879074774682521820068359375 -0.006584596354514360427856445312 0 0 0 0 
2418666666.6666665077 0.153334394097328213790731865629 -0.093098208308219909667968750000 0.002586996182799338860752724756 -0.006638887338340281572823808887 0 0 0 0 
2418833333.3333334923 0.153338357806205805022869981258 -0.093961387872695922851562500000 0.002340665552765130996704101562 -0.006935020908713340759277343750 0 0 0 0 
2419000000.0000000000 0.153499975800514193435830634371 -0.094695925712585449218750000000 0.001997306710109115080592490088 -0.006941726896911860379690839551 0 0 0 0 
2419166666.6666665077 0.153934255242347689529580634371 -0.095402762293815612792968750000 0.001695322571322321891784667969 -0.007061636541038751602172851562 0 0 0 0 
2419333333.3333334923 0.153839349746704101562500000000 -0.095674864947795867919921875000 0.001406929804943501949310302734 -0.007047377992421388626098632812 0 0 0 0 
2419500000.0000000000 0.154220253229141207595986884371 -0.096481516957283020019531250000 0.001049228594638407013536762769 -0.007254719734191895398611737988 0 0 0 0 
2419666666.6666665077 0.154435396194458007812500000000 -0.096703730523586273193359375000 0.000802450813353061676025390625 -0.007248282898217439651489257812 0 0 0 0 
2419833333.3333334923 0.154510706663131713867187500000 -0.096844635903835296630859375000 0.000589483708608895540237426758 -0.007346184458583593368530273438 0 0 0 0 
