# Version 1.00
#
freq[Hz];re:Trc1_S11;im:Trc1_S11;re:Trc2_S21;im:Trc2_S21;
2.400000000000000E+009;1.550678312778473E-001;1.064884364604950E-001;-3.794317133724690E-003;-1.136005041189492E-003;
2.400166666666667E+009;1.546760201454163E-001;1.042577698826790E-001;-3.748809918761253E-003;-1.044192351400852E-003;
2.400333333333334E+009;1.549614816904068E-001;1.018453836441040E-001;-3.646016120910645E-003;-1.025965437293053E-003;
2.400500000000000E+009;1.549120396375656E-001;9.931918978691101E-002;-3.468324430286884E-003;-8.621326996944845E-004;
2.400666666666667E+009;1.551024317741394E-001;9.663794189691544E-002;-3.553863381966949E-003;-7.018601172603667E-004;
2.400833333333334E+009;1.551019698381424E-001;9.393025189638138E-002;-3.463458502665162E-003;-7.359184673987329E-004;
2.401000000000000E+009;1.554002165794373E-001;9.108677506446838E-002;-3.578437725082040E-003;-7.074332679621875E-004;
2.401166666666667E+009;1.554586887359619E-001;8.824031800031662E-002;-3.515969961881638E-003;-6.288075819611549E-004;
2.401333333333334E+009;1.558906435966492E-001;8.560620248317719E-002;-3.449897514656186E-003;-4.918058402836323E-004;
2.401500000000000E+009;1.563183963298798E-001;8.267720788717270E-002;-3.424003953114152E-003;-5.127569893375039E-004;
2.401666666666667E+009;1.568222492933273E-001;7.997149229049683E-002;-3.413233673200011E-003;-4.311889642849565E-004;
2.401833333333334E+009;1.575327068567276E-001;7.720623165369034E-002;-3.469230607151985E-003;-2.655467542354018E-004;
2.402000000000000E+009;1.582174748182297E-001;7.430195808410645E-002;-3.528917208313942E-003;-3.532174741849303E-004;
2.402166666666667E+009;1.591348946094513E-001;7.185868918895721E-002;-3.466594032943249E-003;-6.728210428263992E-005;
2.402333333333334E+009;1.600194722414017E-001;6.912156194448471E-002;-3.618438495323062E-003;-1.302027958445251E-004;
2.402500000000000E+009;1.613493114709854E-001;6.673721224069595E-002;-3.599480027332902E-003;8.644109584565740E-006;
2.402666666666667E+009;1.624344289302826E-001;6.437469273805618E-002;-3.735453588888049E-003;-4.148545485804789E-005;
2.402833333333334E+009;1.638118028640747E-001;6.203201040625572E-002;-3.790254006162286E-003;8.857627835823223E-005;
2.403000000000000E+009;1.652004718780518E-001;5.970369279384613E-002;-3.707753028720617E-003;3.603800141718239E-004;
2.403166666666667E+009;1.669699400663376E-001;5.752794444561005E-002;-3.683156566694379E-003;3.449663345236331E-004;
2.403333333333334E+009;1.682035773992539E-001;5.526820197701454E-002;-3.689548233523965E-003;3.572381101548672E-004;
2.403500000000000E+009;1.699351072311401E-001;5.323952063918114E-002;-3.723211586475372E-003;6.484562181867659E-004;
2.403666666666667E+009;1.717612594366074E-001;5.147666484117508E-002;-3.699862165376544E-003;7.406512158922851E-004;
2.403833333333334E+009;1.734894365072250E-001;4.947883635759354E-002;-3.807978704571724E-003;9.456735569983721E-004;
2.404000000000000E+009;1.748619228601456E-001;4.777681455016136E-002;-3.746356815099716E-003;9.876297554001212E-004;
2.404166666666667E+009;1.765923649072647E-001;4.635486751794815E-002;-3.797773504629731E-003;1.235804636962712E-003;
2.404333333333334E+009;1.782862097024918E-001;4.477373883128166E-002;-3.740507410839200E-003;1.313033862970769E-003;
2.404500000000000E+009;1.798252910375595E-001;4.338717088103294E-002;-3.456131555140019E-003;1.529550412669778E-003;
2.404666666666667E+009;1.815586686134338E-001;4.240154102444649E-002;-3.490691306069493E-003;1.685469527728856E-003;
2.404833333333334E+009;1.831722110509872E-001;4.112219810485840E-002;-3.536116797477007E-003;1.745304442010820E-003;
2.405000000000000E+009;1.844462454319000E-001;4.062845185399056E-002;-3.347742371261120E-003;1.899899914860725E-003;
2.405166666666667E+009;1.858387440443039E-001;3.988752514123917E-002;-3.219576319679618E-003;1.902954187244177E-003;
2.405333333333334E+009;1.872016489505768E-001;3.929723799228668E-002;-2.967907581478357E-003;1.985954120755196E-003;
2.405500000000000E+009;1.888920515775681E-001;3.892472386360169E-002;-2.877998398616910E-003;2.114646369591355E-003;
2.405666666666667E+009;1.900834590196610E-001;3.857468441128731E-002;-2.664620755240321E-003;2.191946143284440E-003;
2.405833333333334E+009;1.909913271665573E-001;3.852163627743721E-002;-2.570013981312513E-003;2.068779896944761E-003;
2.406000000000000E+009;1.922859251499176E-001;3.797182813286781E-002;-2.643292769789696E-003;2.307848772034049E-003;
2.406166666666667E+009;1.929383128881455E-001;3.798055276274681E-002;-2.428777283057571E-003;2.186461817473173E-003;
2.406333333333334E+009;1.938932389020920E-001;3.803898394107819E-002;-2.478205133229494E-003;2.169276587665081E-003;
2.406500000000000E+009;1.945740580558777E-001;3.799253329634666E-002;-2.457729540765286E-003;2.165285171940923E-003;
2.406666666666667E+009;1.950874775648117E-001;3.791835159063339E-002;-2.300340449437499E-003;2.256325911730528E-003;
2.406833333333334E+009;1.959628909826279E-001;3.779025003314018E-002;-2.400818048045039E-003;2.358247293159366E-003;
2.407000000000000E+009;1.959472596645355E-001;3.818019479513168E-002;-2.211961895227432E-003;2.288107760250568E-003;
2.407166666666667E+009;1.962627321481705E-001;3.792065009474754E-002;-2.284952206537128E-003;2.146047540009022E-003;
2.407333333333334E+009;1.961680203676224E-001;3.806862607598305E-002;-2.214038278907538E-003;2.408402506262064E-003;
2.407500000000000E+009;1.961240023374558E-001;3.797950595617294E-002;-2.097713528200984E-003;2.331967931240797E-003;
2.407666666666667E+009;1.960477232933044E-001;3.792162612080574E-002;-2.196422079578042E-003;2.430165885016322E-003;
2.407833333333334E+009;1.956141293048859E-001;3.777378052473068E-002;-2.259070519357920E-003;2.558832056820393E-003;
2.408000000000000E+009;1.955373585224152E-001;3.756404295563698E-002;-2.302919281646609E-003;2.521915594115853E-003;
2.408166666666667E+009;1.949780434370041E-001;3.715291619300842E-002;-2.109843306243420E-003;2.553188242018223E-003;
2.408333333333334E+009;1.946596652269363E-001;3.676960989832878E-002;-2.201617229729891E-003;2.558119362220168E-003;
2.408500000000000E+009;1.937235146760941E-001;3.637326136231422E-002;-2.139170421287417E-003;2.649520756676793E-003;
2.408666666666667E+009;1.935554593801498E-001;3.587172925472260E-002;-2.264730632305145E-003;2.694910159334540E-003;
2.408833333333334E+009;1.924203932285309E-001;3.474130481481552E-002;-2.109237713739276E-003;2.812264254316688E-003;
2.409000000000000E+009;1.912023425102234E-001;3.360513225197792E-002;-2.115312032401562E-003;2.860316075384617E-003;
2.409166666666667E+009;1.905196905136108E-001;3.297647088766098E-002;-1.919916132465005E-003;2.940573962405324E-003;
2.409333333333334E+009;1.897077858448029E-001;3.189296275377274E-002;-2.085425890982151E-003;3.136706072837114E-003;
2.409500000000000E+009;1.883893609046936E-001;3.053775615990162E-002;-1.920263282954693E-003;3.123622154816985E-003;
2.409666666666667E+009;1.876266896724701E-001;2.895033545792103E-002;-2.012805314734578E-003;3.301349701359868E-003;
2.409833333333334E+009;1.865838170051575E-001;2.767449617385864E-002;-1.959983026608825E-003;3.505457425490022E-003;
2.410000000000000E+009;1.856991052627564E-001;2.583642117679119E-002;-1.871739048510790E-003;3.746651113033295E-003;
2.410166666666667E+009;1.845694035291672E-001;2.417410537600517E-002;-1.883185701444745E-003;3.983200993388891E-003;
2.410333333333334E+009;1.836945563554764E-001;2.243537642061710E-002;-1.613239408470690E-003;4.104067105799913E-003;
2.410500000000000E+009;1.828545629978180E-001;2.041975967586041E-002;-1.483199535869062E-003;4.092408809810877E-003;
2.410666666666667E+009;1.819077581167221E-001;1.813878305256367E-002;-1.344464253634214E-003;4.211427178233862E-003;
2.410833333333334E+009;1.813188344240189E-001;1.600359752774239E-002;-1.177131780423224E-003;4.358653444796801E-003;
2.411000000000000E+009;1.806292682886124E-001;1.374905556440353E-002;-9.970760438591242E-004;4.423625767230988E-003;
2.411166666666667E+009;1.799812167882919E-001;1.152433082461357E-002;-7.279321434907615E-004;4.358487669378519E-003;
2.411333333333334E+009;1.794202029705048E-001;8.980112150311470E-003;-5.918483366258442E-004;4.498285241425037E-003;
2.411500000000000E+009;1.789938211441040E-001;6.766080856323242E-003;-3.096398722846061E-004;4.430750850588083E-003;
2.411666666666667E+009;1.789816617965698E-001;4.297127947211266E-003;-2.686920342966914E-004;4.384643863886595E-003;
2.411833333333334E+009;1.785046607255936E-001;1.857139286585152E-003;-8.432809408986941E-005;4.448391962796450E-003;
2.412000000000000E+009;1.788614839315414E-001;-7.943889359012246E-004;2.599169674795121E-004;4.515925887972117E-003;
2.412166666666667E+009;1.787950247526169E-001;-3.049460705369711E-003;3.026117919944227E-004;4.416125360876322E-003;
2.412333333333334E+009;1.788653433322907E-001;-5.435858387500048E-003;5.126818432472646E-004;4.389991983771324E-003;
2.412500000000000E+009;1.795156598091126E-001;-7.929492741823196E-003;6.945045897737145E-004;4.365644883364439E-003;
2.412666666666667E+009;1.799755543470383E-001;-1.034960243850946E-002;7.652542553842068E-004;4.324165172874928E-003;
2.412833333333334E+009;1.805749833583832E-001;-1.278366521000862E-002;9.506928618066013E-004;4.162802826613188E-003;
2.413000000000000E+009;1.814204454421997E-001;-1.510215550661087E-002;1.218494260683656E-003;4.013751167804003E-003;
2.413166666666667E+009;1.821816712617874E-001;-1.725590601563454E-002;1.171514624729753E-003;3.962520975619555E-003;
2.413333333333334E+009;1.832637339830399E-001;-1.945344731211662E-002;1.210357295349240E-003;3.909335937350988E-003;
2.413500000000000E+009;1.839062422513962E-001;-2.177450805902481E-002;1.388588920235634E-003;4.025712609291077E-003;
2.413666666666667E+009;1.852965950965881E-001;-2.384033054113388E-002;1.581476186402142E-003;3.868802683427930E-003;
2.413833333333334E+009;1.861067414283752E-001;-2.586422860622406E-002;1.688335323706269E-003;3.858085256069899E-003;
2.414000000000000E+009;1.872198581695557E-001;-2.780786901712418E-002;1.600986579433084E-003;3.957370296120644E-003;
2.414166666666667E+009;1.885126680135727E-001;-2.941552549600601E-002;1.769589143805206E-003;3.784755012020469E-003;
2.414333333333334E+009;1.896590590476990E-001;-3.144651278853416E-002;1.906383666209877E-003;3.604444442316890E-003;
2.414500000000000E+009;1.908710598945618E-001;-3.287389874458313E-002;1.942969160154462E-003;3.618616843596101E-003;
2.414666666666667E+009;1.919485479593277E-001;-3.429294377565384E-002;2.192497719079256E-003;3.660383867099881E-003;
2.414833333333334E+009;1.931949704885483E-001;-3.578712791204453E-002;2.200710121542215E-003;3.480138722807169E-003;
2.415000000000000E+009;1.940400600433350E-001;-3.695247322320938E-002;2.549069700762630E-003;3.453959245234728E-003;
2.415166666666667E+009;1.953811496496201E-001;-3.795368969440460E-002;2.532135695219040E-003;3.293853253126144E-003;
2.415333333333334E+009;1.964938491582871E-001;-3.890015929937363E-002;2.876786049455404E-003;3.169711446389556E-003;
2.415500000000000E+009;1.974127143621445E-001;-3.967197239398956E-002;2.697931602597237E-003;3.187468973919749E-003;
2.415666666666667E+009;1.984660923480988E-001;-4.051712900400162E-002;2.959127537906170E-003;3.037619404494762E-003;
2.415833333333334E+009;1.992587894201279E-001;-4.102894663810730E-002;2.996027003973723E-003;2.933415817096829E-003;
2.416000000000000E+009;1.999927163124085E-001;-4.149875044822693E-002;3.209301969036460E-003;2.764665288850665E-003;
2.416166666666667E+009;2.007024884223938E-001;-4.211013391613960E-002;3.022436518222094E-003;2.779541071504355E-003;
2.416333333333334E+009;2.012390196323395E-001;-4.231265559792519E-002;3.170733572915196E-003;2.566815121099353E-003;
2.416500000000000E+009;2.017082571983337E-001;-4.260726645588875E-002;3.331826068460941E-003;2.587478142231703E-003;
2.416666666666667E+009;2.019757032394409E-001;-4.292801022529602E-002;3.300938289612532E-003;2.512509003281593E-003;
2.416833333333334E+009;2.021030783653259E-001;-4.298402369022369E-002;3.372486913576722E-003;2.471837447956204E-003;
2.417000000000000E+009;2.021439969539642E-001;-4.317609965801239E-002;3.354407614096999E-003;2.212403109297156E-003;
2.417166666666667E+009;2.018855363130570E-001;-4.300886020064354E-002;3.601651405915618E-003;2.261583926156163E-003;
2.417333333333334E+009;2.015925049781799E-001;-4.287363961338997E-002;3.750098170712590E-003;2.134717069566250E-003;
2.417500000000000E+009;2.012662291526794E-001;-4.276980832219124E-002;3.722895169630647E-003;2.136901952326298E-003;
2.417666666666667E+009;2.008058726787567E-001;-4.261348024010658E-002;3.785782959312201E-003;1.945668715052307E-003;
2.417833333333334E+009;2.002251595258713E-001;-4.241091758012772E-002;3.953297622501850E-003;1.774532371200621E-003;
2.418000000000000E+009;1.996580958366394E-001;-4.224495589733124E-002;4.157333169132471E-003;1.617650850676000E-003;
2.418166666666667E+009;1.987379044294357E-001;-4.224843531847000E-002;4.159327596426010E-003;1.446344424039125E-003;
2.418333333333334E+009;1.978201866149902E-001;-4.203519970178604E-002;4.216019995510578E-003;1.352334627881646E-003;
2.418500000000000E+009;1.967766731977463E-001;-4.215098544955254E-002;4.207882098853588E-003;9.652572334744036E-004;
2.418666666666667E+009;1.957576870918274E-001;-4.199061170220375E-002;4.296775907278061E-003;8.294160361401737E-004;
2.418833333333334E+009;1.945796608924866E-001;-4.221457242965698E-002;4.385496024042368E-003;6.604553200304508E-004;
2.419000000000000E+009;1.932602524757385E-001;-4.242206364870071E-002;4.319703206419945E-003;4.009273252449930E-004;
2.419166666666667E+009;1.919958889484406E-001;-4.277164861559868E-002;4.247291944921017E-003;1.682154397713020E-004;
2.419333333333334E+009;1.906721591949463E-001;-4.314532503485680E-002;4.244890064001083E-003;-3.158944309689105E-005;
2.419500000000000E+009;1.892011910676956E-001;-4.369169473648071E-002;4.177158232778311E-003;-1.505117688793689E-004;
2.419666666666667E+009;1.876132935285568E-001;-4.439170286059380E-002;4.028733819723129E-003;-2.126690669683740E-004;
2.419833333333334E+009;1.859422475099564E-001;-4.522644355893135E-002;4.048930481076241E-003;-3.450098738539964E-004;
2.420000000000000E+009;1.844711005687714E-001;-4.607959091663361E-002;3.862199140712619E-003;-3.376807726453990E-004;
2.420166666666667E+009;1.829384863376617E-001;-4.695231094956398E-002;3.736539511010051E-003;-4.127791617065668E-004;
2.420333333333334E+009;1.814402192831039E-001;-4.806689172983170E-002;3.672764869406819E-003;-5.341789801605046E-004;
2.420500000000000E+009;1.795960813760757E-001;-4.953755810856819E-002;3.627138910815120E-003;-7.010270492173731E-004;
2.420666666666667E+009;1.782042086124420E-001;-5.066239088773727E-002;3.569014836102724E-003;-6.525676581077278E-004;
2.420833333333334E+009;1.764820665121079E-001;-5.216567963361740E-002;3.656967077404261E-003;-7.862903294153512E-004;
2.421000000000000E+009;1.751236170530319E-001;-5.363240465521812E-002;3.709759097546339E-003;-7.595176575705409E-004;
2.421166666666667E+009;1.736978739500046E-001;-5.525130778551102E-002;3.563872072845697E-003;-7.703616283833981E-004;
2.421333333333334E+009;1.720459312200546E-001;-5.686179921030998E-002;3.572673536837101E-003;-8.452567271888256E-004;
2.421500000000000E+009;1.709215342998505E-001;-5.881029367446899E-002;3.559961449354887E-003;-1.075134030543268E-003;
2.421666666666667E+009;1.696566939353943E-001;-6.058124452829361E-002;3.623012686148286E-003;-1.103723654523492E-003;
2.421833333333334E+009;1.685375571250916E-001;-6.254470348358154E-002;3.561901161447167E-003;-1.363439951092005E-003;
2.422000000000000E+009;1.673920750617981E-001;-6.422411650419235E-002;3.446118207648397E-003;-1.382427639327943E-003;
2.422166666666667E+009;1.666555404663086E-001;-6.646683812141419E-002;3.501271829009056E-003;-1.569144427776337E-003;
2.422333333333334E+009;1.655348092317581E-001;-6.840504705905914E-002;3.339684335514903E-003;-1.602213247679174E-003;
2.422500000000000E+009;1.650016009807587E-001;-7.032674551010132E-002;3.310379572212696E-003;-1.841080840677023E-003;
2.422666666666667E+009;1.641305088996887E-001;-7.238337397575378E-002;3.262476297095418E-003;-1.879356801509857E-003;
2.422833333333334E+009;1.637642234563828E-001;-7.431336492300034E-002;3.163066925480962E-003;-1.946479314938188E-003;
2.423000000000000E+009;1.631606519222260E-001;-7.637002319097519E-002;3.184474073350430E-003;-2.016747370362282E-003;
2.423166666666667E+009;1.629009991884232E-001;-7.837297767400742E-002;2.985020400956273E-003;-2.170920604839921E-003;
2.423333333333334E+009;1.625992357730866E-001;-8.018015325069428E-002;2.957470715045929E-003;-2.159505151212215E-003;
2.423500000000000E+009;1.624748110771179E-001;-8.180748671293259E-002;2.833622973412275E-003;-2.223755698651075E-003;
2.423666666666667E+009;1.626424044370651E-001;-8.376245945692062E-002;2.698629861697555E-003;-2.305988222360611E-003;
2.423833333333334E+009;1.624589413404465E-001;-8.554943650960922E-002;2.627928974106908E-003;-2.648068824782968E-003;
2.424000000000000E+009;1.626659035682678E-001;-8.713994175195694E-002;2.580327447503805E-003;-2.700974931940436E-003;
2.424166666666667E+009;1.627149134874344E-001;-8.877933770418167E-002;2.350760390982032E-003;-2.496760571375489E-003;
2.424333333333334E+009;1.629163771867752E-001;-9.024097025394440E-002;2.166280988603830E-003;-2.556859748438001E-003;
2.424500000000000E+009;1.632588058710098E-001;-9.181631356477737E-002;2.175080822780728E-003;-2.582831773906946E-003;
2.424666666666667E+009;1.636699736118317E-001;-9.314128756523132E-002;2.067475812509656E-003;-2.713377121835947E-003;
2.424833333333334E+009;1.641869395971298E-001;-9.423499554395676E-002;1.856234739534557E-003;-2.717001363635063E-003;
2.425000000000000E+009;1.644820123910904E-001;-9.553748369216919E-002;1.819920376874507E-003;-2.574155572801828E-003;
2.425166666666667E+009;1.648281663656235E-001;-9.648044407367706E-002;1.801314763724804E-003;-2.702786587178707E-003;
2.425333333333334E+009;1.651585549116135E-001;-9.739659726619721E-002;1.700807712040842E-003;-2.516509499400854E-003;
2.425500000000000E+009;1.656003445386887E-001;-9.835746884346008E-002;1.623207353986800E-003;-2.792777493596077E-003;
2.425666666666667E+009;1.659963130950928E-001;-9.897489100694656E-002;1.494591822847724E-003;-2.786273835226893E-003;
2.425833333333334E+009;1.663844883441925E-001;-9.986948966979981E-002;1.387777156196535E-003;-2.730812877416611E-003;
2.426000000000000E+009;1.667662113904953E-001;-1.002169474959374E-001;1.192825497128069E-003;-2.671590773388743E-003;
2.426166666666667E+009;1.671392917633057E-001;-1.006566956639290E-001;1.425624242983758E-003;-2.647759625688195E-003;
2.426333333333334E+009;1.672538816928864E-001;-1.012636497616768E-001;1.348518184386194E-003;-2.589824609458447E-003;
2.426500000000000E+009;1.676972359418869E-001;-1.014320105314255E-001;1.101759029552341E-003;-2.802300965413451E-003;
2.426666666666667E+009;1.678533405065537E-001;-1.018392890691757E-001;1.016770489513874E-003;-2.859253436326981E-003;
2.426833333333334E+009;1.680254340171814E-001;-1.020525246858597E-001;1.028954633511603E-003;-2.731249900534749E-003;
2.427000000000000E+009;1.680390536785126E-001;-1.024058759212494E-001;1.118247280828655E-003;-2.739841118454933E-003;
2.427166666666667E+009;1.680726557970047E-001;-1.023866906762123E-001;9.413325460627675E-004;-2.861596876755357E-003;
2.427333333333334E+009;1.679982244968414E-001;-1.026655584573746E-001;8.516092784702778E-004;-2.949837362393737E-003;
2.427500000000000E+009;1.675814390182495E-001;-1.028872430324554E-001;7.648337050341070E-004;-2.802723320201039E-003;
2.427666666666667E+009;1.674050539731979E-001;-1.028904393315315E-001;7.668534526601434E-004;-2.778724534437060E-003;
2.427833333333334E+009;1.669663935899735E-001;-1.030617952346802E-001;6.993619026616216E-004;-2.909948118031025E-003;
