# Version 1.00
#
freq[Hz];re:Trc1_S11;im:Trc1_S11;re:Trc2_S21;im:Trc2_S21;
2.400000000000000E+009;1.563642919063568E-001;1.060794442892075E-001;2.357891062274575E-003;4.926158580929041E-003;
2.400166666666667E+009;1.563342362642288E-001;1.037969142198563E-001;2.380680292844772E-003;4.440020769834518E-003;
2.400333333333334E+009;1.567496061325073E-001;1.016686484217644E-001;2.390203066170216E-003;4.267940763384104E-003;
2.400500000000000E+009;1.568717807531357E-001;9.927209466695786E-002;2.347694244235754E-003;4.080978222191334E-003;
2.400666666666667E+009;1.571770906448364E-001;9.691119939088821E-002;2.411092631518841E-003;3.845431609079242E-003;
2.400833333333334E+009;1.573695838451386E-001;9.415268898010254E-002;2.249327953904867E-003;3.511245129629970E-003;
2.401000000000000E+009;1.577374339103699E-001;9.145704656839371E-002;2.021072432398796E-003;3.409647615626454E-003;
2.401166666666667E+009;1.579501479864121E-001;8.892556279897690E-002;1.961819594725967E-003;3.277095733210445E-003;
2.401333333333334E+009;1.587950736284256E-001;8.639977127313614E-002;1.794255804270506E-003;3.243569517508149E-003;
2.401500000000000E+009;1.591273397207260E-001;8.368622511625290E-002;1.805298728868365E-003;3.368557197973132E-003;
2.401666666666667E+009;1.595327407121658E-001;8.088307827711105E-002;1.544511760585010E-003;3.320293733850122E-003;
2.401833333333334E+009;1.601573377847672E-001;7.862029969692230E-002;1.420440617948771E-003;3.304196055978537E-003;
2.402000000000000E+009;1.610460728406906E-001;7.609281688928604E-002;1.294211135245860E-003;3.618073416873813E-003;
2.402166666666667E+009;1.618960499763489E-001;7.363348454236984E-002;1.500450889579952E-003;3.615369787439704E-003;
2.402333333333334E+009;1.628393083810806E-001;7.112638652324677E-002;1.451563904993236E-003;3.734320634976029E-003;
2.402500000000000E+009;1.637211441993713E-001;6.884478032588959E-002;1.573929330334067E-003;3.914277069270611E-003;
2.402666666666667E+009;1.650287359952927E-001;6.675293296575546E-002;1.655625761486590E-003;3.965604119002819E-003;
2.402833333333334E+009;1.661945581436157E-001;6.438092887401581E-002;2.062918385490775E-003;3.991169854998589E-003;
2.403000000000000E+009;1.676223129034042E-001;6.222549453377724E-002;2.066068351268768E-003;4.040748346596956E-003;
2.403166666666667E+009;1.691662371158600E-001;6.012792140245438E-002;2.250337740406394E-003;4.018545616418123E-003;
2.403333333333334E+009;1.705623269081116E-001;5.805540084838867E-002;2.370202681049705E-003;4.106731154024601E-003;
2.403500000000000E+009;1.719802170991898E-001;5.624832957983017E-002;2.712300280109048E-003;3.870934946462512E-003;
2.403666666666667E+009;1.736880987882614E-001;5.436415970325470E-002;2.916730009019375E-003;3.915230277925730E-003;
2.403833333333334E+009;1.750163882970810E-001;5.255104601383209E-002;2.914540003985167E-003;3.777734469622374E-003;
2.404000000000000E+009;1.763781160116196E-001;5.073837190866470E-002;3.064952325075865E-003;3.551037050783634E-003;
2.404166666666667E+009;1.779937744140625E-001;4.932416230440140E-002;3.217804711312056E-003;3.493579337373376E-003;
2.404333333333334E+009;1.793922781944275E-001;4.780442267656326E-002;3.265300067141652E-003;3.376957261934876E-003;
2.404500000000000E+009;1.807094663381577E-001;4.628242552280426E-002;3.354989225044847E-003;3.193723736330867E-003;
2.404666666666667E+009;1.822776943445206E-001;4.535229504108429E-002;3.239408368244767E-003;3.123822156339884E-003;
2.404833333333334E+009;1.836572587490082E-001;4.405414313077927E-002;3.385277464985848E-003;2.961727324873209E-003;
2.405000000000000E+009;1.847244948148727E-001;4.333459585905075E-002;3.411604091525078E-003;2.956656273454428E-003;
2.405166666666667E+009;1.859697699546814E-001;4.252404347062111E-002;3.528464352712035E-003;2.895819488912821E-003;
2.405333333333334E+009;1.870632320642471E-001;4.173447564244270E-002;3.624056233093143E-003;2.850973978638649E-003;
2.405500000000000E+009;1.883492767810822E-001;4.119080677628517E-002;3.744245506823063E-003;2.777047222480178E-003;
2.405666666666667E+009;1.892501711845398E-001;4.070491716265678E-002;3.834142349660397E-003;2.759600291028619E-003;
2.405833333333334E+009;1.903231143951416E-001;4.037957638502121E-002;3.962025046348572E-003;2.663847291842103E-003;
2.406000000000000E+009;1.911409497261047E-001;4.003801941871643E-002;4.059199709445238E-003;2.505503827705979E-003;
2.406166666666667E+009;1.918381005525589E-001;3.948800638318062E-002;3.991946112364531E-003;2.372938208281994E-003;
2.406333333333334E+009;1.927009969949722E-001;3.947786986827850E-002;4.186505451798439E-003;2.118677366524935E-003;
2.406500000000000E+009;1.932509392499924E-001;3.929510340094566E-002;4.284470807760954E-003;2.180773299187422E-003;
2.406666666666667E+009;1.937960386276245E-001;3.912255167961121E-002;4.286299459636211E-003;2.086111577227712E-003;
2.406833333333334E+009;1.942385435104370E-001;3.897520527243614E-002;4.356635734438896E-003;1.907017896883190E-003;
2.407000000000000E+009;1.945675313472748E-001;3.897710889577866E-002;4.364257678389549E-003;1.664881128817797E-003;
2.407166666666667E+009;1.948179304599762E-001;3.847182542085648E-002;4.525443539023399E-003;1.703933929093182E-003;
2.407333333333334E+009;1.947311162948608E-001;3.841185569763184E-002;4.570573568344116E-003;1.593247172422707E-003;
2.407500000000000E+009;1.947649717330933E-001;3.836685791611671E-002;4.440301563590765E-003;1.389878219924867E-003;
2.407666666666667E+009;1.946703791618347E-001;3.806053847074509E-002;4.433045163750649E-003;1.257089199498296E-003;
2.407833333333334E+009;1.942938417196274E-001;3.782412409782410E-002;4.551931284368038E-003;1.091001438908279E-003;
2.408000000000000E+009;1.942794322967529E-001;3.729656338691711E-002;4.496729932725430E-003;9.937055874615908E-004;
2.408166666666667E+009;1.938778162002564E-001;3.687936812639237E-002;4.451025743037462E-003;9.241441148333252E-004;
2.408333333333334E+009;1.935695558786392E-001;3.619341552257538E-002;4.488479811698198E-003;7.802575710229576E-004;
2.408500000000000E+009;1.928372979164124E-001;3.581451624631882E-002;4.518994595855475E-003;4.816338187083602E-004;
2.408666666666667E+009;1.924690306186676E-001;3.517901152372360E-002;4.532760009169579E-003;4.898447659797967E-004;
2.408833333333334E+009;1.918675601482391E-001;3.428652510046959E-002;4.484445322304964E-003;4.769777879118919E-004;
2.409000000000000E+009;1.912530660629273E-001;3.319690749049187E-002;4.481912590563297E-003;4.167426086496562E-004;
2.409166666666667E+009;1.905003488063812E-001;3.212212398648262E-002;4.404205828905106E-003;2.332712028874084E-004;
2.409333333333334E+009;1.897410899400711E-001;3.115002065896988E-002;4.504107870161533E-003;6.803779979236424E-005;
2.409500000000000E+009;1.888715028762817E-001;2.971169538795948E-002;4.537431523203850E-003;2.497361492714845E-005;
2.409666666666667E+009;1.880294531583786E-001;2.836200967431068E-002;4.563405178487301E-003;-2.439543095533736E-006;
2.409833333333334E+009;1.872846037149429E-001;2.680645138025284E-002;4.564595874398947E-003;-2.282191562699154E-004;
2.410000000000000E+009;1.864291578531265E-001;2.532122470438480E-002;4.667533561587334E-003;-2.483877178747207E-004;
2.410166666666667E+009;1.855016201734543E-001;2.368301711976528E-002;4.551652818918228E-003;-4.830200923606753E-004;
2.410333333333334E+009;1.849527359008789E-001;2.193327061831951E-002;4.524999763816595E-003;-5.319460760802031E-004;
2.410500000000000E+009;1.840832531452179E-001;2.019997686147690E-002;4.617319442331791E-003;-7.494818419218063E-004;
2.410666666666667E+009;1.834326088428497E-001;1.806785538792610E-002;4.424097482115030E-003;-7.705159951001406E-004;
2.410833333333334E+009;1.829675734043121E-001;1.598013564944267E-002;4.517739173024893E-003;-8.806415717117488E-004;
2.411000000000000E+009;1.823133975267410E-001;1.397227868437767E-002;4.517674446105957E-003;-1.126952702179551E-003;
2.411166666666667E+009;1.819453239440918E-001;1.186873670667410E-002;4.400798119604588E-003;-1.057390822097659E-003;
2.411333333333334E+009;1.815809160470963E-001;9.760045446455479E-003;4.372865427285433E-003;-1.314355293288827E-003;
2.411500000000000E+009;1.810146421194077E-001;7.572143804281950E-003;4.271305631846190E-003;-1.334859989583492E-003;
2.411666666666667E+009;1.809118241071701E-001;5.633831024169922E-003;4.139583092182875E-003;-1.298194751143456E-003;
2.411833333333334E+009;1.806335896253586E-001;3.304922720417380E-003;4.234310705214739E-003;-1.477901125326753E-003;
2.412000000000000E+009;1.809960156679153E-001;7.848777459003031E-004;4.315252881497145E-003;-1.501663471572101E-003;
2.412166666666667E+009;1.811177879571915E-001;-9.936235146597028E-004;4.212396219372749E-003;-1.684122020378709E-003;
2.412333333333334E+009;1.811113357543945E-001;-3.307319944724441E-003;4.212086088955402E-003;-1.827009487897158E-003;
2.412500000000000E+009;1.816174238920212E-001;-5.337797570973635E-003;4.249029327183962E-003;-1.900188974104822E-003;
2.412666666666667E+009;1.821114867925644E-001;-7.619946263730526E-003;4.227388184517622E-003;-2.020308747887611E-003;
2.412833333333334E+009;1.828581541776657E-001;-9.736866690218449E-003;4.272919613867998E-003;-2.049204893410206E-003;
2.413000000000000E+009;1.834981739521027E-001;-1.192600186914206E-002;4.316330887377262E-003;-2.198277972638607E-003;
2.413166666666667E+009;1.842857301235199E-001;-1.381097175180912E-002;4.302153363823891E-003;-2.453367225825787E-003;
2.413333333333334E+009;1.851946860551834E-001;-1.590528711676598E-002;4.318926949054003E-003;-2.646823646500707E-003;
2.413500000000000E+009;1.858399808406830E-001;-1.803186722099781E-002;4.253985825926065E-003;-2.802110277116299E-003;
2.413666666666667E+009;1.870657503604889E-001;-2.004521898925304E-002;4.232308827340603E-003;-3.054065862670541E-003;
2.413833333333334E+009;1.879415214061737E-001;-2.183271571993828E-002;4.065946210175753E-003;-3.318212227895856E-003;
2.414000000000000E+009;1.888726502656937E-001;-2.368506602942944E-002;3.992166835814714E-003;-3.351127961650491E-003;
2.414166666666667E+009;1.900483518838882E-001;-2.528272382915020E-002;3.977184649556875E-003;-3.666017670184374E-003;
2.414333333333334E+009;1.908284574747086E-001;-2.716590091586113E-002;3.786170389503241E-003;-3.819715231657028E-003;
2.414500000000000E+009;1.921610385179520E-001;-2.864003926515579E-002;3.428104799240828E-003;-4.034955985844135E-003;
2.414666666666667E+009;1.930570304393768E-001;-2.993473410606384E-002;3.441656008362770E-003;-4.106011241674423E-003;
2.414833333333334E+009;1.939697265625000E-001;-3.130121901631355E-002;3.207628848031163E-003;-4.373612347990274E-003;
2.415000000000000E+009;1.948982775211334E-001;-3.263233974575996E-002;2.833545207977295E-003;-4.516608547419310E-003;
2.415166666666667E+009;1.960310786962509E-001;-3.374847024679184E-002;2.652993425726891E-003;-4.494736436754465E-003;
2.415333333333334E+009;1.969735771417618E-001;-3.465713188052177E-002;2.591697266325355E-003;-4.601982422173023E-003;
2.415500000000000E+009;1.978988349437714E-001;-3.542797267436981E-002;2.400050172582269E-003;-4.703570157289505E-003;
2.415666666666667E+009;1.987208724021912E-001;-3.639353066682816E-002;2.186065074056387E-003;-4.687306471168995E-003;
2.415833333333334E+009;1.993031054735184E-001;-3.708463907241821E-002;1.882279640994966E-003;-4.888554569333792E-003;
2.416000000000000E+009;2.000395953655243E-001;-3.769056871533394E-002;1.581646734848619E-003;-4.916875157505274E-003;
2.416166666666667E+009;2.004995793104172E-001;-3.850110620260239E-002;1.468011410906911E-003;-4.834681283682585E-003;
2.416333333333334E+009;2.011129260063171E-001;-3.888551890850067E-002;1.223557279445231E-003;-4.780958872288466E-003;
2.416500000000000E+009;2.014396488666534E-001;-3.934080153703690E-002;1.019425340928137E-003;-4.733370617032051E-003;
2.416666666666667E+009;2.015053778886795E-001;-3.974080830812454E-002;9.646728867664933E-004;-4.616504535079002E-003;
2.416833333333334E+009;2.015488296747208E-001;-4.001048579812050E-002;7.257726392708719E-004;-4.695272073149681E-003;
2.417000000000000E+009;2.016963213682175E-001;-4.022713005542755E-002;7.124736439436674E-004;-4.494088701903820E-003;
2.417166666666667E+009;2.012529969215393E-001;-4.051503911614418E-002;4.335153498686850E-004;-4.588469862937927E-003;
2.417333333333334E+009;2.010727673768997E-001;-4.042654857039452E-002;3.113978891633451E-004;-4.509991966187954E-003;
2.417500000000000E+009;2.008074969053268E-001;-4.057211801409721E-002;1.916821929626167E-004;-4.514243919402361E-003;
2.417666666666667E+009;2.001927942037582E-001;-4.072193801403046E-002;-8.575588253734168E-006;-4.428936168551445E-003;
2.417833333333334E+009;1.998044252395630E-001;-4.065755009651184E-002;6.612369179492816E-005;-4.568531643599272E-003;
2.418000000000000E+009;1.991738826036453E-001;-4.064176231622696E-002;-2.827449061442167E-004;-4.468855913728476E-003;
2.418166666666667E+009;1.984620094299316E-001;-4.077587276697159E-002;-2.357838675379753E-004;-4.540719557553530E-003;
2.418333333333334E+009;1.975696384906769E-001;-4.085287079215050E-002;-5.164874019101262E-004;-4.373755771666765E-003;
2.418500000000000E+009;1.967259943485260E-001;-4.108558967709541E-002;-6.756001384928823E-004;-4.328483249992132E-003;
2.418666666666667E+009;1.959150731563568E-001;-4.128364846110344E-002;-7.314091781154275E-004;-4.258322529494762E-003;
2.418833333333334E+009;1.948485970497131E-001;-4.160259291529656E-002;-8.400934166274965E-004;-4.158894997090101E-003;
2.419000000000000E+009;1.936200410127640E-001;-4.185168072581291E-002;-9.871309157460928E-004;-4.012034740298986E-003;
2.419166666666667E+009;1.925128102302551E-001;-4.235798493027687E-002;-1.160324201919138E-003;-3.838272765278816E-003;
2.419333333333334E+009;1.914023309946060E-001;-4.301771894097328E-002;-1.101041445508599E-003;-3.644678974524140E-003;
2.419500000000000E+009;1.900074034929276E-001;-4.353683814406395E-002;-1.211226801387966E-003;-3.431017277762294E-003;
2.419666666666667E+009;1.887505501508713E-001;-4.437732696533203E-002;-1.239814213477075E-003;-3.290065564215183E-003;
2.419833333333334E+009;1.872808039188385E-001;-4.507923498749733E-002;-1.041967887431383E-003;-3.142688889056444E-003;
2.420000000000000E+009;1.858778595924377E-001;-4.597083479166031E-002;-1.161713036708534E-003;-3.062883391976357E-003;
2.420166666666667E+009;1.845506280660629E-001;-4.710405692458153E-002;-1.074896659702063E-003;-2.966467291116715E-003;
2.420333333333334E+009;1.830491274595261E-001;-4.826538264751434E-002;-1.077738357707858E-003;-2.900625113397837E-003;
2.420500000000000E+009;1.817398816347122E-001;-4.949365556240082E-002;-9.164523216895759E-004;-2.851193305104971E-003;
2.420666666666667E+009;1.801887750625610E-001;-5.051505193114281E-002;-7.788880611769855E-004;-2.910059178248048E-003;
2.420833333333334E+009;1.788577735424042E-001;-5.199074745178223E-002;-7.360170129686594E-004;-2.971844747662544E-003;
2.421000000000000E+009;1.776957511901856E-001;-5.341254547238350E-002;-7.182350964285433E-004;-3.022699151188135E-003;
2.421166666666667E+009;1.763013452291489E-001;-5.509423464536667E-002;-6.041064043529332E-004;-3.106642281636596E-003;
2.421333333333334E+009;1.749569475650787E-001;-5.645241588354111E-002;-4.967128625139594E-004;-3.264174563810229E-003;
2.421500000000000E+009;1.739675700664520E-001;-5.820224061608315E-002;-5.634383414871991E-004;-3.326838370412588E-003;
2.421666666666667E+009;1.727841347455978E-001;-5.993499979376793E-002;-7.097916095517576E-004;-3.630090272054076E-003;
2.421833333333334E+009;1.718349158763886E-001;-6.162502616643906E-002;-6.870817742310464E-004;-3.651676001027226E-003;
2.422000000000000E+009;1.706345975399017E-001;-6.318304687738419E-002;-8.356778998859227E-004;-3.865488106384873E-003;
2.422166666666667E+009;1.700578182935715E-001;-6.550116837024689E-002;-8.949605398811400E-004;-4.000445827841759E-003;
2.422333333333334E+009;1.689879298210144E-001;-6.701613217592239E-002;-1.181462430395186E-003;-4.053839482367039E-003;
2.422500000000000E+009;1.684136092662811E-001;-6.881062686443329E-002;-1.287557883188129E-003;-4.043617285788059E-003;
2.422666666666667E+009;1.677914410829544E-001;-7.044851779937744E-002;-1.361007802188397E-003;-4.280188120901585E-003;
2.422833333333334E+009;1.673187464475632E-001;-7.255310565233231E-002;-1.617670990526676E-003;-4.215925000607967E-003;
2.423000000000000E+009;1.668376177549362E-001;-7.442614436149597E-002;-1.767288194969297E-003;-4.281194414943457E-003;
2.423166666666667E+009;1.663875877857208E-001;-7.621045410633087E-002;-2.019454725086689E-003;-4.179190378636122E-003;
2.423333333333334E+009;1.662129014730454E-001;-7.800141721963882E-002;-2.220555208623409E-003;-4.301507025957108E-003;
2.423500000000000E+009;1.662342548370361E-001;-7.971741259098053E-002;-2.454334637150168E-003;-4.216255154460669E-003;
2.423666666666667E+009;1.660424619913101E-001;-8.149190992116928E-002;-2.578811487182975E-003;-4.096787422895432E-003;
2.423833333333334E+009;1.659504920244217E-001;-8.313581347465515E-002;-2.872073324397206E-003;-4.210967570543289E-003;
2.424000000000000E+009;1.659691929817200E-001;-8.469520509243012E-002;-2.894918667152524E-003;-4.073256626725197E-003;
2.424166666666667E+009;1.658790558576584E-001;-8.618634939193726E-002;-3.155113430693746E-003;-3.943170420825481E-003;
2.424333333333334E+009;1.660811901092529E-001;-8.781003206968308E-002;-3.475229255855084E-003;-3.983415663242340E-003;
2.424500000000000E+009;1.663522422313690E-001;-8.954352885484695E-002;-3.844257211312652E-003;-3.951706923544407E-003;
2.424666666666667E+009;1.663609594106674E-001;-9.079860895872116E-002;-3.779613412916660E-003;-3.876764094457030E-003;
2.424833333333334E+009;1.667697280645371E-001;-9.212139248847961E-002;-4.175459966063500E-003;-3.609893377870321E-003;
2.425000000000000E+009;1.670116484165192E-001;-9.315662831068039E-002;-4.405543208122253E-003;-3.431445453315973E-003;
2.425166666666667E+009;1.670819222927094E-001;-9.432266652584076E-002;-4.521689843386412E-003;-3.240275196731091E-003;
2.425333333333334E+009;1.673822104930878E-001;-9.540914744138718E-002;-4.796604160219431E-003;-3.146589035168290E-003;
2.425500000000000E+009;1.676449179649353E-001;-9.636142849922180E-002;-4.720595665276051E-003;-2.879824955016375E-003;
2.425666666666667E+009;1.678829342126846E-001;-9.701567143201828E-002;-4.918723367154598E-003;-2.596699399873614E-003;
2.425833333333334E+009;1.680868715047836E-001;-9.792453795671463E-002;-5.245077889412642E-003;-2.451983746141195E-003;
2.426000000000000E+009;1.683287024497986E-001;-9.855953603982925E-002;-5.240653175860643E-003;-2.101182704791427E-003;
2.426166666666667E+009;1.685934960842133E-001;-9.908244758844376E-002;-5.365150514990091E-003;-1.954857492819428E-003;
2.426333333333334E+009;1.684924811124802E-001;-9.973952919244766E-002;-5.398855078965426E-003;-1.755249220877886E-003;
2.426500000000000E+009;1.688307821750641E-001;-1.001432016491890E-001;-5.567237269133329E-003;-1.427765586413443E-003;
2.426666666666667E+009;1.688805669546127E-001;-1.005816459655762E-001;-5.626221653074026E-003;-1.352700171992183E-003;
2.426833333333334E+009;1.691350042819977E-001;-1.010514646768570E-001;-5.598846822977066E-003;-1.069690566509962E-003;
2.427000000000000E+009;1.690488308668137E-001;-1.014490425586700E-001;-5.510363727807999E-003;-5.887554143555462E-004;
2.427166666666667E+009;1.690141558647156E-001;-1.016819700598717E-001;-5.504484288394451E-003;-3.902629541698843E-004;
2.427333333333334E+009;1.688354164361954E-001;-1.021529883146286E-001;-5.434979218989611E-003;-1.553350739413872E-004;
2.427500000000000E+009;1.686544716358185E-001;-1.024709939956665E-001;-5.427218973636627E-003;7.269849447766319E-005;
2.427666666666667E+009;1.682785898447037E-001;-1.027870476245880E-001;-5.297879222780466E-003;1.955773332156241E-004;
2.427833333333334E+009;1.680698096752167E-001;-1.030213534832001E-001;-5.360062234103680E-003;4.359089653007686E-004;
