# Hz S RI R 
2400000000.0000000000 0.173154026269912691970986884371 0.049355167895555503154714216407 0.001489111804403365092036581885 0.003220253158360720114467001807 0 0 0 0 
2400166666.6666665077 0.173799678683280889313067518742 0.048834871500730521465261091407 0.001525763771496712944628071362 0.003106791526079177856445312500 0 0 0 0 
2400333333.3333334923 0.174161896109580993652343750000 0.048000533133745186542551408593 0.001661606249399482987047504956 0.003144043497741221947910927881 0 0 0 0 
2400500000.0000000000 0.174755871295929010589276231258 0.047511786222457892681081403907 0.001750489464029669978498149341 0.003280950011685491041896201025 0 0 0 0 
2400666666.6666665077 0.175255909562110900878906250000 0.046897754073143012309987653907 0.001895060297101736068725585938 0.003170894924551248984095908057 0 0 0 0 
2400833333.3333334923 0.175296619534492492675781250000 0.046282690018415451049804687500 0.002103837672621012167689658057 0.002928846981376409964320517432 0 0 0 0 
2401000000.0000000000 0.175571724772453308105468750000 0.045819558203220367431640625000 0.002047979971393942832946777344 0.003072806401178241209742880713 0 0 0 0 
2401166666.6666665077 0.175812005996704101562500000000 0.044995319098234176635742187500 0.002235151361674069924595498193 0.002987917046993970870971679688 0 0 0 0 
2401333333.3333334923 0.175848901271820096114950615629 0.044253170490264892578125000000 0.002298980951309204101562500000 0.002894640667364000840428017725 0 0 0 0 
2401500000.0000000000 0.176054105162620488922442518742 0.043751727789640426635742187500 0.002286608796566725210902548682 0.003023295663297175927403115381 0 0 0 0 
2401666666.6666665077 0.176103860139846801757812500000 0.043089423328638076782226562500 0.002384513150900601907017373193 0.002904538996517657799961709131 0 0 0 0 
2401833333.3333334923 0.175970569252967806717080634371 0.042307030409574508666992187500 0.002624298911541699929478310693 0.002955341245979071097133017432 0 0 0 0 
2402000000.0000000000 0.175777986645698602874432481258 0.041533261537551879882812500000 0.002639081794768571853637695312 0.002687972737476230101344443213 0 0 0 0 
2402166666.6666665077 0.175830200314521789550781250000 0.040601942688226699829101562500 0.002804646501317619843723916162 0.002707938198000193075892783057 0 0 0 0 
2402333333.3333334923 0.175472065806388910491619981258 0.039783705025911331176757812500 0.002842457033693790002110146631 0.002682322403416037993190146338 0 0 0 0 
2402500000.0000000000 0.175547033548355102539062500000 0.038783363997936248779296875000 0.003069791011512279944178915869 0.002643448533490300178527832031 0 0 0 0 
2402666666.6666665077 0.175127491354942294021768134371 0.037621706724166870117187500000 0.003216715995222330093383789062 0.002538792556151748137233115088 0 0 0 0 
2402833333.3333334923 0.174802705645561190506143134371 0.036467321217060089111328125000 0.003433341160416603088378906250 0.002203310607001184983494423975 0 0 0 0 
2403000000.0000000000 0.174322783946990994552450615629 0.035390768200159072875976562500 0.003550891065970063209533691406 0.002126025268808006806614541162 0 0 0 0 
2403166666.6666665077 0.174089655280113192459268134371 0.034065905958414077758789062500 0.003539376426488161087036132812 0.002088651526719332175013876807 0 0 0 0 
2403333333.3333334923 0.173710480332374600509481865629 0.032690435647964477539062500000 0.003714662045240401787998818506 0.001914457418024539947509765625 0 0 0 0 
2403500000.0000000000 0.173288643360137911697549384371 0.031359460204839713359792341407 0.003707301337271928787231445312 0.001777307596057652993443154443 0 0 0 0 
2403666666.6666665077 0.172938972711563110351562500000 0.029668442904949191701868826954 0.003903912147507071928737021338 0.001503679086454213099238730322 0 0 0 0 
2403833333.3333334923 0.172812372446060208419638115629 0.028042552992701530456542968750 0.004015180747956038388724042676 0.001469056354835629896876669775 0 0 0 0 
2404000000.0000000000 0.172319576144218389313067518742 0.026261093094944950449010079296 0.003963870927691459655761718750 0.001234611379913985946057963794 0 0 0 0 
2404166666.6666665077 0.171837300062179593185263115629 0.024391373619437221181849295704 0.003999879118055105209350585938 0.001074653235264122919795370947 0 0 0 0 
2404333333.3333334923 0.171340510249137906173544365629 0.022766837850213050842285156250 0.004075265023857355117797851562 0.000811557692941278219223022461 0 0 0 0 
2404500000.0000000000 0.170995786786079406738281250000 0.020699419081211090087890625000 0.003958996850997210416311933301 0.000533444981556385755538940430 0 0 0 0 
2404666666.6666665077 0.170758873224258395095986884371 0.018901683390140529977818673046 0.004050026647746562957763671875 0.000528528995346277952194213867 0 0 0 0 
2404833333.3333334923 0.170493006706237792968750000000 0.016909301280975338327428048046 0.004123038612306118011474609375 0.000310194009216502308845520020 0 0 0 0 
2405000000.0000000000 0.170277282595634488204794365629 0.014970851130783559626569179102 0.003748228540644050078151083838 0.000197497472981922301367083139 0 0 0 0 
2405166666.6666665077 0.170159429311752291580361884371 0.013067701831460000819196132227 0.003883431665599346160888671875 0.000041558687371434637088368075 0 0 0 0 
2405333333.3333334923 0.170259118080139187911825615629 0.010758406482636930293073085352 0.003985234070569276809692382812 -0.000346403394360095316737574445 0 0 0 0 
2405500000.0000000000 0.170252427458763094803018134371 0.008888201788067817687988281250 0.003561054822057486014125204932 -0.000431296008173376321792602539 0 0 0 0 
2405666666.6666665077 0.170248836278915405273437500000 0.006889148149639368057250976562 0.003702966496348381042480468750 -0.000710062799043953418731689453 0 0 0 0 
2405833333.3333334923 0.170287936925888089279013115629 0.004942200146615505218505859375 0.003433316480368376211879111182 -0.000622838968411087989807128906 0 0 0 0 
2406000000.0000000000 0.170627057552337701995526231258 0.002603640779852867126464843750 0.003322560805827378793003701318 -0.000805272604338824748992919922 0 0 0 0 
2406166666.6666665077 0.170810595154762295821981865629 0.000907004287000745534896850586 0.003361986717209219932556152344 -0.000891675299499183893203735352 0 0 0 0 
2406333333.3333334923 0.171412914991378811935263115629 -0.001284521655179559967638325269 0.003135154489427804946899414062 -0.000986881903372704982757568359 0 0 0 0 
2406500000.0000000000 0.171705543994903592208700615629 -0.003280328819528222084045410156 0.003179047955200076103210449219 -0.001012981054373085932490683447 0 0 0 0 
2406666666.6666665077 0.172186851501464788238848768742 -0.005355509929358959197998046875 0.002990172244608401818516396631 -0.001213582465425133921979594653 0 0 0 0 
2406833333.3333334923 0.172807216644287109375000000000 -0.007369883358478546142578125000 0.002958216238766909079310751807 -0.001153980265371501012089394678 0 0 0 0 
2407000000.0000000000 0.173407629132270812988281250000 -0.009133358485996723175048828125 0.003067773533985019163844443213 -0.001249190419912338039995503003 0 0 0 0 
2407166666.6666665077 0.174286887049674987792968750000 -0.011126684024930000305175781250 0.002851053141057490868809365381 -0.001278501120395957989933632959 0 0 0 0 
2407333333.3333334923 0.174775242805481012542401231258 -0.013080987147986890620221522852 0.002865605056285858154296875000 -0.001221888232976197979570698315 0 0 0 0 
2407500000.0000000000 0.175582930445671109298544365629 -0.014794619753956799942939959180 0.002865272341296077208278036963 -0.001438995706848799965502094800 0 0 0 0 
2407666666.6666665077 0.176376506686210604568643134371 -0.016487274318933490407923514454 0.002541638677939773039576865088 -0.001351223443634808063507080078 0 0 0 0 
2407833333.3333334923 0.176944255828857394119424384371 -0.018401306122541431081751639454 0.002628382761031388802769326318 -0.001481287064962089061737060547 0 0 0 0 
2408000000.0000000000 0.177751779556274386306924384371 -0.020143013447523120534876639454 0.002660650294274092154261923682 -0.001630300655961036898969340747 0 0 0 0 
2408166666.6666665077 0.178568825125694302657919365629 -0.021486300975084308279017264454 0.002486305311322211785557412256 -0.001684275222942233085632324219 0 0 0 0 
2408333333.3333334923 0.179507970809936495681924384371 -0.023056618869304660451868826954 0.002400629222393035888671875000 -0.001746293972246349074720073169 0 0 0 0 
2408500000.0000000000 0.179993301630020113845986884371 -0.024567997083067890512486641796 0.002222693758085370063781738281 -0.001782516366802155971527099609 0 0 0 0 
2408666666.6666665077 0.180769920349121093750000000000 -0.026016190648078918457031250000 0.002201461931690574126002646338 -0.001868411316536366939544677734 0 0 0 0 
2408833333.3333334923 0.181101515889167813400106865629 -0.027124444022774699819544608204 0.001931488164700567939160991138 -0.001920570968650280995609902490 0 0 0 0 
2409000000.0000000000 0.181676328182220486739950615629 -0.028144573792815208435058593750 0.001843684352934360937831259619 -0.001982807880267500877380371094 0 0 0 0 
2409166666.6666665077 0.182230889797210693359375000000 -0.029271706938743591308593750000 0.001938240835443139076232910156 -0.001857486902736126942875527490 0 0 0 0 
2409333333.3333334923 0.182732626795768710037393134371 -0.030252519994974139821986014454 0.001731046591885387897491455078 -0.001772205810993910052655864185 0 0 0 0 
2409500000.0000000000 0.183005347847938509842080634371 -0.031196156516671180725097656250 0.001627036370337008996250771631 -0.001840853947214782021166157300 0 0 0 0 
2409666666.6666665077 0.183379545807838412185830634371 -0.031604897230863571166992187500 0.001707894494757056019426655347 -0.001731929718516767024993896484 0 0 0 0 
2409833333.3333334923 0.183555394411087008377236884371 -0.032062955200672149658203125000 0.001608720514923333904863667065 -0.001885204343125223896623920972 0 0 0 0 
2410000000.0000000000 0.183857843279838589767294365629 -0.032670080661773681640625000000 0.001524248276837169907213520581 -0.001724210218526422977447509766 0 0 0 0 
2410166666.6666665077 0.184202760457992609222088731258 -0.033000811934471130371093750000 0.001465742941945791027666401440 -0.001824529375880957083461142432 0 0 0 0 
2410333333.3333334923 0.184251308441162109375000000000 -0.033428966999053962017018903907 0.001483720145188271999359130859 -0.001622989890165627002716064453 0 0 0 0 
2410500000.0000000000 0.184218853712081909179687500000 -0.033704858273267752910573591407 0.001491960138082504055620503003 -0.001482815016061068014857626807 0 0 0 0 
2410666666.6666665077 0.184068784117698697189169365629 -0.034163821488618850708007812500 0.001435547019354999065399169922 -0.001606560079380870082257914966 0 0 0 0 
2410833333.3333334923 0.184134587645530700683593750000 -0.034447100013494491577148437500 0.001511459355242549939396523584 -0.001859338372014462947845458984 0 0 0 0 
2411000000.0000000000 0.184110581874847412109375000000 -0.034814476966857910156250000000 0.001693598926067352078081440503 -0.001584407174959779002546000903 0 0 0 0 
2411166666.6666665077 0.183729052543640108963174384371 -0.035153437405824661254882812500 0.001587991835549473979352641528 -0.001729948911815881945966411060 0 0 0 0 
2411333333.3333334923 0.183192208409309387207031250000 -0.035360075533390052104909528907 0.001546163694001734039903950269 -0.001720717293210328058955527197 0 0 0 0 
2411500000.0000000000 0.182822823524475097656250000000 -0.035726193338632576679270158593 0.001604686258360743956324911963 -0.001710313372313976071001362378 0 0 0 0 
2411666666.6666665077 0.182325035333633395095986884371 -0.036092046648263931274414062500 0.001781215541996062018750834888 -0.001815886469557880921604775537 0 0 0 0 
2411833333.3333334923 0.181692302227020291427450615629 -0.036187045276165008544921875000 0.001755388686433434920070029150 -0.001949840108864008946659707178 0 0 0 0 
2412000000.0000000000 0.181083679199218805511151231258 -0.036808151751756668090820312500 0.001716557075269520065904926831 -0.001959325047209858894348144531 0 0 0 0 
2412166666.6666665077 0.180001035332679804046307481258 -0.037136405706405639648437500000 0.001811031368561089038848876953 -0.002066229004412889914271689307 0 0 0 0 
2412333333.3333334923 0.179230704903602600097656250000 -0.037600412964820861816406250000 0.001761135994456707997563027490 -0.002002140972763299942016601562 0 0 0 0 
2412500000.0000000000 0.178146198391914395431356865629 -0.038085725158452987670898437500 0.001745942048728466033935546875 -0.002274836879223585128784179688 0 0 0 0 
2412666666.6666665077 0.177238181233406094650106865629 -0.038884434849023818969726562500 0.001763209234923124096514057690 -0.002319450955837965011596679688 0 0 0 0 
2412833333.3333334923 0.176144108176231412032919365629 -0.039618786424398422241210937500 0.001568371546454728083369589697 -0.002648281399160623984095908057 0 0 0 0 
2413000000.0000000000 0.174881562590599087814169365629 -0.040182594209909439086914062500 0.001640059053897858099696493994 -0.002695251256227492852451943506 0 0 0 0 
2413166666.6666665077 0.173489063978195190429687500000 -0.041012920439243316650390625000 0.001550374436192214922664023291 -0.002741079544648528099060058594 0 0 0 0 
2413333333.3333334923 0.172204941511154202560263115629 -0.041904613375663757324218750000 0.001423204317688941955566406250 -0.002786125289276241822483681787 0 0 0 0 
2413500000.0000000000 0.170909211039543207366619981258 -0.042832747101783752441406250000 0.001276806462556123950360942310 -0.002911484800279140906092978369 0 0 0 0 
2413666666.6666665077 0.169652938842773409744424384371 -0.043926544487476348876953125000 0.001189799862913786931278847803 -0.003025159938260912895202636719 0 0 0 0 
2413833333.3333334923 0.168413564562797601897869981258 -0.045068949460983283306081403907 0.001135873026214540004730224609 -0.003130172612145543098449707031 0 0 0 0 
2414000000.0000000000 0.166980922222137506683026231258 -0.046251792460680007934570312500 0.000953986600507050752639770508 -0.003175151301547884941101074219 0 0 0 0 
2414166666.6666665077 0.165857598185539301116619981258 -0.047466494143009192729909528907 0.000742483942303806543350219727 -0.003011305583640933036804199219 0 0 0 0 
2414333333.3333334923 0.164568036794662503341513115629 -0.048921734094619750976562500000 0.000540125940460711717605590820 -0.003127447795122861862182617188 0 0 0 0 
2414500000.0000000000 0.163656845688819913009481865629 -0.050271559506654739379882812500 0.000476894085295498425334376202 -0.003186742775142192840576171875 0 0 0 0 
2414666666.6666665077 0.162045970559120205978231865629 -0.051709819585084922100026716407 0.000440798234194517081410008563 -0.003305698977783321900608681787 0 0 0 0 
2414833333.3333334923 0.161065056920051602462606865629 -0.053304243832826607440988908593 0.000319634535117074901431483136 -0.003207362024113535881042480469 0 0 0 0 
2415000000.0000000000 0.159875780344009399414062500000 -0.055008277297019958496093750000 0.000101672063465230194017133170 -0.003344059688970447020289755713 0 0 0 0 
2415166666.6666665077 0.158700630068778991699218750000 -0.056700460612773902202565778907 -0.000054807045671623200178146362 -0.003261964768171309991123818506 0 0 0 0 
2415333333.3333334923 0.158202603459358187576455634371 -0.058464970439672470092773437500 -0.000103786267573013901710510254 -0.003358310321345924897434853662 0 0 0 0 
2415500000.0000000000 0.157239973545074490646200615629 -0.060180317610502243041992187500 -0.000102952777524478706434526987 -0.003150789299979805946350097656 0 0 0 0 
2415666666.6666665077 0.156266286969184903243856865629 -0.062097590416669852519948591407 -0.000508897472172975540161132812 -0.003256352385506033897399902344 0 0 0 0 
2415833333.3333334923 0.155705049633979797363281250000 -0.064262367784976959228515625000 -0.000591693620663136243820190430 -0.003178261918947101073024130713 0 0 0 0 
2416000000.0000000000 0.154924452304840087890625000000 -0.066106423735618591308593750000 -0.000716101843863725662231445312 -0.003317284397780894799473427881 0 0 0 0 
2416166666.6666665077 0.154599949717521695236044365629 -0.068081125617027282714843750000 -0.000961264129728078842163085938 -0.003050604835152626037597656250 0 0 0 0 
2416333333.3333334923 0.153857186436653109451455634371 -0.070003882050514221191406250000 -0.000870651681907474994659423828 -0.003180570201948285102844238281 0 0 0 0 
2416500000.0000000000 0.153439164161682101150674384371 -0.072173312306404113769531250000 -0.001181875006295741038081503760 -0.003064080374315381050109863281 0 0 0 0 
2416666666.6666665077 0.153069064021110506912393134371 -0.074084915220737457275390625000 -0.001383050344884396033046103369 -0.003052101936191319985630654443 0 0 0 0 
2416833333.3333334923 0.152842238545417813400106865629 -0.076191246509552001953125000000 -0.001356677385047077915788960034 -0.002993569709360599951503134619 0 0 0 0 
2417000000.0000000000 0.152426958084106500823651231258 -0.078118011355400085449218750000 -0.001461615087464452006696391528 -0.002858893247321248054504394531 0 0 0 0 
2417166666.6666665077 0.152249634265899713714276231258 -0.079979419708251953125000000000 -0.001666754949837923049926757812 -0.002670788671821355819702148438 0 0 0 0 
2417333333.3333334923 0.152232334017753601074218750000 -0.081630915403366088867187500000 -0.001769552822224796035169291919 -0.002616425044834613800048828125 0 0 0 0 
2417500000.0000000000 0.152025133371353204925213731258 -0.083571024239063262939453125000 -0.001892658532597125010249472510 -0.002603756962344049973728798975 0 0 0 0 
2417666666.6666665077 0.152193963527679387848223768742 -0.085093647241592407226562500000 -0.001893713837489485957502055591 -0.002369471359997988180873251807 0 0 0 0 
2417833333.3333334923 0.152150630950927706619424384371 -0.086653143167495727539062500000 -0.001918188645504415035247802734 -0.002093613613396883010864257812 0 0 0 0 
2418000000.0000000000 0.152157530188560513595419365629 -0.088353581726551055908203125000 -0.002000777749344706969020224463 -0.002207502722740172906162881006 0 0 0 0 
2418166666.6666665077 0.152306661009788513183593750000 -0.089598707854747772216796875000 -0.001992041012272239165065146338 -0.001974113518372178077697753906 0 0 0 0 
2418333333.3333334923 0.152594715356826809982138115629 -0.090860798954963684082031250000 -0.002135128248482943014857626807 -0.001888663507997990088221884619 0 0 0 0 
2418500000.0000000000 0.152757048606872586349325615629 -0.092100881040096282958984375000 -0.002183481818065046830418252100 -0.001687009702436625957489013672 0 0 0 0 
2418666666.6666665077 0.153160497546196011642294365629 -0.093286409974098205566406250000 -0.002271048258990048928501748193 -0.001543059013783931949018168872 0 0 0 0 
2418833333.3333334923 0.153144568204879788497763115629 -0.094299621880054473876953125000 -0.002224338706582785086390829932 -0.001518608420155942006352089990 0 0 0 0 
2419000000.0000000000 0.153211921453476007659588731258 -0.095005914568901062011718750000 -0.002083926694467664198634482275 -0.001315693138167262077331542969 0 0 0 0 
2419166666.6666665077 0.153547048568725613693075615629 -0.095732115209102630615234375000 -0.002115011680871247811558388818 -0.001259979908354579968693398584 0 0 0 0 
2419333333.3333334923 0.153657495975494412521200615629 -0.096194468438625335693359375000 -0.002083549043163657188415527344 -0.001080268295481801033020019531 0 0 0 0 
2419500000.0000000000 0.153992369771003695388955634371 -0.097014956176280975341796875000 -0.002058521611616015000584267725 -0.001155079458840190930607461084 0 0 0 0 
2419666666.6666665077 0.154225781559944208343182481258 -0.097329325973987579345703125000 -0.002137577161192893981933593750 -0.000939376826863735914230346680 0 0 0 0 
2419833333.3333334923 0.154304444789886502364950615629 -0.097439661622047424316406250000 -0.001932196668349206013920449365 -0.000886872643604874610900878906 0 0 0 0 
