# Hz S RI R 
2400000000.0000000000 0.163966163992881802657919365629 0.051841944456100456928293596093 -0.001231931033544241948368691553 0.002949153305962682204005576025 0 0 0 0 
2400166666.6666665077 0.163794130086898803710937500000 0.050217863172292709350585937500 -0.001102704321965575001360249097 0.002973164431750773949864052881 0 0 0 0 
2400333333.3333334923 0.163606032729148892501669365629 0.048305813223123550415039062500 -0.000981092103756964206695556641 0.003219691570848226980922079932 0 0 0 0 
2400500000.0000000000 0.163830026984214810470419365629 0.046532101929187781597097028907 -0.001019605086185038089752197266 0.003213546471670269966125488281 0 0 0 0 
2400666666.6666665077 0.163675606250762911697549384371 0.044657472521066672588307966407 -0.000807456905022263526916503906 0.003418529871851205825805664062 0 0 0 0 
2400833333.3333334923 0.163677558302879305740518134371 0.042950086295604712749440778907 -0.000671518035233020782470703125 0.003477953840047121047973632812 0 0 0 0 
2401000000.0000000000 0.163706704974174499511718750000 0.040886625647544860839843750000 -0.000415155751397833173901158466 0.003651854582130908966064453125 0 0 0 0 
2401166666.6666665077 0.163790076971054104904013115629 0.038864571601152420043945312500 -0.000317066500429063981205540790 0.003812522161751985983607626807 0 0 0 0 
2401333333.3333334923 0.163701042532920809646768134371 0.036847285926342010498046875000 -0.000248035881668329184681492938 0.003966512158513069152832031250 0 0 0 0 
2401500000.0000000000 0.164005920290946988204794365629 0.034795913845300667499582658593 0.000012785811122739689256054725 0.003931604791432619094848632812 0 0 0 0 
2401666666.6666665077 0.164156615734100286285723768742 0.032973624765872962261159528907 0.000211328675504773909419459210 0.004049967043101787567138671875 0 0 0 0 
2401833333.3333334923 0.164577156305313110351562500000 0.031113356351852420461634451954 0.000478892092360183596611022949 0.003801451763138175010681152344 0 0 0 0 
2402000000.0000000000 0.164627566933631896972656250000 0.029257377609610561025599295704 0.000536188948899507522583007812 0.004252346232533454895019531250 0 0 0 0 
2402166666.6666665077 0.165019214153289794921875000000 0.027095967903733250009556954296 0.000867101014591753482818603516 0.004066310822963714599609375000 0 0 0 0 
2402333333.3333334923 0.165164098143577603439169365629 0.025354519486427310598353201954 0.001031883177347481033922504956 0.003958194050937891006469726562 0 0 0 0 
2402500000.0000000000 0.166002631187438992599325615629 0.023521760478615760803222656250 0.001439516083337367014644003760 0.004100759513676167401785566113 0 0 0 0 
2402666666.6666665077 0.166283130645752008636151231258 0.021905336529016501689870466407 0.001558318734169005913975381006 0.003993351012468338012695312500 0 0 0 0 
2402833333.3333334923 0.166832551360130310058593750000 0.020001871511340141296386718750 0.001757222227752208926557231372 0.003905736841261386871337890625 0 0 0 0 
2403000000.0000000000 0.167402729392051696777343750000 0.018484564498066898691197579296 0.002015371574088931083679199219 0.003677192842587829069850302588 0 0 0 0 
2403166666.6666665077 0.168005734682083102127236884371 0.016798865050077438354492187500 0.002228375757113099098205566406 0.003785320324823259873631142725 0 0 0 0 
2403333333.3333334923 0.168718993663787786285723768742 0.015444702468812469137171561329 0.002371575450524688200709677588 0.003523530671373010115382529150 0 0 0 0 
2403500000.0000000000 0.169087246060371398925781250000 0.013946665450930600602119646680 0.002492003375664352936985634912 0.003446250921115279197692871094 0 0 0 0 
2403666666.6666665077 0.169881105422973605056924384371 0.012371525168418880807896798046 0.002806285629048943953273154150 0.003266174113377929167506552588 0 0 0 0 
2403833333.3333334923 0.170765370130538912674111884371 0.011263718828558920079241367773 0.002885249676182866096496582031 0.003182609332725406126735068213 0 0 0 0 
2404000000.0000000000 0.171456828713417108733807481258 0.009981981478631496429443359375 0.003021583426743745803833007812 0.002898499136790633201599121094 0 0 0 0 
2404166666.6666665077 0.172228589653968811035156250000 0.008680719882249832153320312500 0.003103748895227909088134765625 0.002673534210771321816685341943 0 0 0 0 
2404333333.3333334923 0.172770008444786099532919365629 0.007751586847007274627685546875 0.003183420281857252120971679688 0.002430250402539968924281454932 0 0 0 0 
2404500000.0000000000 0.173468127846717806717080634371 0.006633269600570201873779296875 0.003363855415955185890197753906 0.002163779456168413162231445312 0 0 0 0 
2404666666.6666665077 0.174153953790664700607138115629 0.005651188082993031415457441113 0.003526226151734590964076376807 0.002007216447964311079737997900 0 0 0 0 
2404833333.3333334923 0.174928352236747686188067518742 0.004851881414651870727539062500 0.003458578372374176979064941406 0.001785944099538028023363422925 0 0 0 0 
2405000000.0000000000 0.175533533096313504318075615629 0.004096191376447677612304687500 0.003647397039458156065699911963 0.001665402553044259981868124854 0 0 0 0 
2405166666.6666665077 0.176115781068801907638388115629 0.003244596766307950019836425781 0.003518040990456939177272177588 0.001360046328045428016065288013 0 0 0 0 
2405333333.3333334923 0.177029818296432495117187500000 0.002492996165528893904445029150 0.003340659663081169128417968750 0.001320634153671563105342245947 0 0 0 0 
2405500000.0000000000 0.177445858716964693924111884371 0.001930639613419770977617573315 0.003406423609703778786900185693 0.000997167313471436500549316406 0 0 0 0 
2405666666.6666665077 0.178039625287055996993856865629 0.001617582631297409968135214697 0.003328911494463682174682617188 0.000965398561675101518630981445 0 0 0 0 
2405833333.3333334923 0.178335145115852411468182481258 0.001129604643210768916486430591 0.003430521348491311073303222656 0.000836706836707890033721923828 0 0 0 0 
2406000000.0000000000 0.178870245814323397537393134371 0.000504829280544072389602661133 0.003274308517575263977050781250 0.000462771538877859711647033691 0 0 0 0 
2406166666.6666665077 0.179111078381538391113281250000 0.000352235219907015616267603741 0.003209179267287253899815224756 0.000422535464167594909667968750 0 0 0 0 
2406333333.3333334923 0.179594948887825012207031250000 -0.000113310670712962800830286847 0.003195969155058265166041708838 0.000359743018634617274433690204 0 0 0 0 
2406500000.0000000000 0.179692015051841708084268134371 -0.000475227105198427980572301044 0.003018639283254743056056357275 0.000275508122285827994346618652 0 0 0 0 
2406666666.6666665077 0.179864540696144104003906250000 -0.000827363575808703899383544922 0.002873214893043040795567177881 0.000306352536426857113838195801 0 0 0 0 
2406833333.3333334923 0.179952144622802706619424384371 -0.001176468329504132053972553784 0.003046397119760512871983193506 0.000123837584396824186474400653 0 0 0 0 
2407000000.0000000000 0.179959356784820612151776231258 -0.001625541481189429976819682544 0.002781901508569716973545693506 0.000175837703864090090424138202 0 0 0 0 
2407166666.6666665077 0.179993033409118707854901231258 -0.001830630935728549957275390625 0.002847086405381559891941689600 0.000079456083767581731081008911 0 0 0 0 
2407333333.3333334923 0.179838985204696710784588731258 -0.002315931720659137205836630713 0.002687574597075581984279013525 0.000040054888813756413083484037 0 0 0 0 
2407500000.0000000000 0.179772481322288513183593750000 -0.002648578491061925888061523438 0.002742018084973096847534179688 -0.000078663892054464668035507202 0 0 0 0 
2407666666.6666665077 0.179504662752151489257812500000 -0.003046992002055048942565917969 0.002712914720177650885341025244 -0.000125518185086548301294603891 0 0 0 0 
2407833333.3333334923 0.179009616374969510177450615629 -0.003751623444259167151210165869 0.002681231824681162834167480469 -0.000186763296369463205337524414 0 0 0 0 
2408000000.0000000000 0.178703069686889703948651231258 -0.004240440204739570617675781250 0.002649311209097505049464560400 -0.000220513160456903305932721548 0 0 0 0 
2408166666.6666665077 0.178248241543769808670205634371 -0.004716777242720127105712890625 0.002522547729313373999354697119 -0.000301891675917431712150573730 0 0 0 0 
2408333333.3333334923 0.178065732121467590332031250000 -0.005334795918315649032592773438 0.002527501434087752862217568506 -0.000181412600795738399028778076 0 0 0 0 
2408500000.0000000000 0.177329868078231811523437500000 -0.006078722421079874038696289062 0.002542650792747735977172851562 -0.000461201620055362582206726074 0 0 0 0 
2408666666.6666665077 0.176849409937858609298544365629 -0.006932767108082771301269531250 0.002372141461819409890415810693 -0.000323522574035450816154479980 0 0 0 0 
2408833333.3333334923 0.176049903035163907150106865629 -0.007752787787467241287231445312 0.002508795354515314102172851562 -0.000492608989588916301727294922 0 0 0 0 
2409000000.0000000000 0.175553545355796786209268134371 -0.008612187579274177551269531250 0.002319300314411520957946777344 -0.000545208516996353864669799805 0 0 0 0 
2409166666.6666665077 0.174921840429306002517861884371 -0.009719734080135822296142578125 0.002294138539582490921020507812 -0.000518953136634081602096557617 0 0 0 0 
2409333333.3333334923 0.174299553036689813811932481258 -0.010659457184374330693255039648 0.002212780760601162910461425781 -0.000609865062870085239410400391 0 0 0 0 
2409500000.0000000000 0.173589855432510403732138115629 -0.012018708512187000619908516796 0.002191611565649508996250771631 -0.000561761029530316591262817383 0 0 0 0 
2409666666.6666665077 0.172759070992469787597656250000 -0.013127243146300319326380545704 0.002163835102692246003391884912 -0.000572484452277421951293945312 0 0 0 0 
2409833333.3333334923 0.172044962644576998611611884371 -0.014371734112501139205009259570 0.002198626985773444175720214844 -0.000551555480342358350753784180 0 0 0 0 
2410000000.0000000000 0.171466067433357211013955634371 -0.015910034999251369131068045704 0.002030554227530955834629677881 -0.000667245825752615928649902344 0 0 0 0 
2410166666.6666665077 0.170796945691108703613281250000 -0.017367562279105189931849295704 0.002117477124556899070739746094 -0.000498140580020844936370849609 0 0 0 0 
2410333333.3333334923 0.170147657394409207443075615629 -0.018852673470973968505859375000 0.001979215769097208976745605469 -0.000680699013173580169677734375 0 0 0 0 
2410500000.0000000000 0.169524729251861600021200615629 -0.020345004275441169738769531250 0.001931090722791851000544882666 -0.000519861932843923568725585938 0 0 0 0 
2410666666.6666665077 0.168967857956886291503906250000 -0.022109843790531158447265625000 0.002121244790032505989074707031 -0.000613843032624572515487670898 0 0 0 0 
2410833333.3333334923 0.168559759855270413497763115629 -0.023742336779832839965820312500 0.002154898829758166833164834131 -0.000512431084644049406051635742 0 0 0 0 
2411000000.0000000000 0.168077468872070312500000000000 -0.025348691269755359994908516796 0.002142387907952069802525185693 -0.000708982581272721290588378906 0 0 0 0 
2411166666.6666665077 0.167503818869590787032919365629 -0.027252335101366039621373360546 0.002168677281588315963745117188 -0.000758324691560119390487670898 0 0 0 0 
2411333333.3333334923 0.167010128498077392578125000000 -0.028923952952027320861816406250 0.002080504084005951881408691406 -0.000594713899772614240646362305 0 0 0 0 
2411500000.0000000000 0.166839048266410799881143134371 -0.031216412782669070852259451954 0.002140769734978675842285156250 -0.000688257336150854825973510742 0 0 0 0 
2411666666.6666665077 0.166803687810897799392861884371 -0.032767128199338912963867187500 0.002372931689023971991298056494 -0.000742410542443394660949707031 0 0 0 0 
2411833333.3333334923 0.166565835475921603103799384371 -0.034654401242733001708984375000 0.002416648669168353080749511719 -0.000953507435042411088943481445 0 0 0 0 
2412000000.0000000000 0.166629910469055203536825615629 -0.036721840500831597065012346093 0.002514943247660994963404990088 -0.000877587590366601943969726562 0 0 0 0 
2412166666.6666665077 0.166361168026924105545205634371 -0.038425203412771231914479841407 0.002477031899616121812107705225 -0.000961029552854597568511962891 0 0 0 0 
2412333333.3333334923 0.166567489504814203460369981258 -0.040355242788791663433034528907 0.002459787763655186133143759619 -0.001266611623577774004695273291 0 0 0 0 
2412500000.0000000000 0.166587993502616910079794365629 -0.042307086288928992534597028907 0.002389686414971948103663779150 -0.001367283170111476941349648584 0 0 0 0 
2412666666.6666665077 0.166568383574485806564169365629 -0.044226806610822677612304687500 0.002385571831837296919581747900 -0.001403823727741837935206747900 0 0 0 0 
2412833333.3333334923 0.166944861412048312088174384371 -0.046134430915117256855051408593 0.002526829950511455969569540869 -0.001633442123420536951777792822 0 0 0 0 
2413000000.0000000000 0.166998386383056612869424384371 -0.047787752002477652812917341407 0.002447912003844975991490029443 -0.001714382786303759054896689307 0 0 0 0 
2413166666.6666665077 0.167192697525024386306924384371 -0.049481853842735290527343750000 0.002192627871409059004542685400 -0.001770910224877298095105815356 0 0 0 0 
2413333333.3333334923 0.167558133602142306228799384371 -0.051299583166837692260742187500 0.002233651466667652130126953125 -0.001937010325491427941563271631 0 0 0 0 
2413500000.0000000000 0.167996659874916104415731865629 -0.053056586533784873271901716407 0.002129750326275825934169150244 -0.002138468204066156907322548975 0 0 0 0 
2413666666.6666665077 0.168424561619758605957031250000 -0.054650925099849700927734375000 0.002031742129474877877476357568 -0.002207731595262885093688964844 0 0 0 0 
2413833333.3333334923 0.168635070323944091796875000000 -0.056048814207315451885182966407 0.001968079712241888046264648438 -0.002388131804764271216151572119 0 0 0 0 
2414000000.0000000000 0.169088944792747497558593750000 -0.057639505714178092266042341407 0.001883561024442315101623535156 -0.002428683219477533860447548975 0 0 0 0 
2414166666.6666665077 0.169503971934318486969317518742 -0.058892659842967987060546875000 0.001685000024735928015467978369 -0.002637967001646757125854492188 0 0 0 0 
2414333333.3333334923 0.170058026909828213790731865629 -0.060093514621257781982421875000 0.001580065931193530993220663916 -0.002468900755047798156738281250 0 0 0 0 
2414500000.0000000000 0.170615226030349703689736884371 -0.061354141682386398315429687500 0.001424272195436059994938515771 -0.002638149308040738105773925781 0 0 0 0 
2414666666.6666665077 0.170924469828605707366619981258 -0.062531895935535430908203125000 0.001453991862945259051081992041 -0.002671238966286181969883584131 0 0 0 0 
2414833333.3333334923 0.171313777565956087967080634371 -0.063606336712837219238281250000 0.001074191532097757079480815356 -0.002664852887392044067382812500 0 0 0 0 
2415000000.0000000000 0.171713292598724392989950615629 -0.064477980136871337890625000000 0.001042651128955184979679726709 -0.002982959384098649024963378906 0 0 0 0 
2415166666.6666665077 0.172134473919868496993856865629 -0.065383598208427429199218750000 0.000747991434764117002487182617 -0.002654346404597163200378417969 0 0 0 0 
2415333333.3333334923 0.172610223293304387848223768742 -0.066267326474189758300781250000 0.000680283585097640752792358398 -0.002829498844221233887913369287 0 0 0 0 
2415500000.0000000000 0.172850757837295504470986884371 -0.066826477646827697753906250000 0.000492841587401926517486572266 -0.002726873382925986809971474756 0 0 0 0 
2415666666.6666665077 0.173076108098030090332031250000 -0.067405343055725097656250000000 0.000398627540562301874160766602 -0.002813100814819335937500000000 0 0 0 0 
2415833333.3333334923 0.173327907919883700271768134371 -0.068138755857944488525390625000 0.000116567905934061895735324998 -0.002822931390255690054652548682 0 0 0 0 
2416000000.0000000000 0.173267200589179992675781250000 -0.068501837551593780517578125000 0.000010552927960816310212917822 -0.002681392477825284004211425781 0 0 0 0 
2416166666.6666665077 0.173647433519363403320312500000 -0.069009743630886077880859375000 -0.000039665508666075772862841947 -0.002612115815281867980957031250 0 0 0 0 
2416333333.3333334923 0.173526436090469388107138115629 -0.069381944835186004638671875000 -0.000184297183295711902066907339 -0.002651145914569497108459472656 0 0 0 0 
2416500000.0000000000 0.173416733741760309417401231258 -0.069732956588268280029296875000 -0.000339211197569966316223144531 -0.002402513520792127089259482275 0 0 0 0 
2416666666.6666665077 0.173284292221069308181924384371 -0.070048868656158447265625000000 -0.000314671109663322622149866925 -0.002293306635692716078517294775 0 0 0 0 
2416833333.3333334923 0.173148497939109802246093750000 -0.070481099188327789306640625000 -0.000442291609942913109630030499 -0.002162791090086102919337607275 0 0 0 0 
2417000000.0000000000 0.172566115856170709808026231258 -0.070606596767902374267578125000 -0.000544887909200042486190795898 -0.002178135560825467109680175781 0 0 0 0 
2417166666.6666665077 0.172260552644729586502236884371 -0.070844449102878570556640625000 -0.000651114329230040311813354492 -0.002000319072976707978489541162 0 0 0 0 
2417333333.3333334923 0.171753093600273104568643134371 -0.071021966636180877685546875000 -0.000790561549365520477294921875 -0.001829180167987942912458110278 0 0 0 0 
2417500000.0000000000 0.171190887689590509612713731258 -0.071373067796230316162109375000 -0.000830464821774512529373168945 -0.001834044000133872032165527344 0 0 0 0 
2417666666.6666665077 0.170643404126167297363281250000 -0.071433909237384796142578125000 -0.000636515964288264513015747070 -0.001688167219981550953508686597 0 0 0 0 
2417833333.3333334923 0.169813349843025207519531250000 -0.071587480604648590087890625000 -0.000642222294118255376815795898 -0.001583122881129384040832519531 0 0 0 0 
2418000000.0000000000 0.168839588761329706390057481258 -0.072089694440364837646484375000 -0.000791792990639805793762207031 -0.001475640689022839069366455078 0 0 0 0 
2418166666.6666665077 0.168084084987640408614950615629 -0.072142250835895538330078125000 -0.000742346805054694414138793945 -0.001365222269669174931169819409 0 0 0 0 
2418333333.3333334923 0.167368754744529696365518134371 -0.072616025805473327636718750000 -0.000791068130638450384140014648 -0.001271449960768223025678325122 0 0 0 0 
2418500000.0000000000 0.166269168257713290115518134371 -0.072781838476657867431640625000 -0.000561884080525487661361694336 -0.001313870307058095932006835938 0 0 0 0 
2418666666.6666665077 0.165170148015022305587606865629 -0.073330871760845184326171875000 -0.000740604475140571594238281250 -0.001102358219213783957837748950 0 0 0 0 
2418833333.3333334923 0.164018034934997586349325615629 -0.073833867907524108886718750000 -0.000663743820041418075561523438 -0.001161746098659933047053671729 0 0 0 0 
2419000000.0000000000 0.162738353013992309570312500000 -0.074292577803134918212890625000 -0.000478317611850798075825291766 -0.001032846281304955916163779150 0 0 0 0 
2419166666.6666665077 0.161577984690666198730468750000 -0.074940651655197143554687500000 -0.000390001863706857020228785382 -0.001044079195708035989048623193 0 0 0 0 
2419333333.3333334923 0.160139381885528592208700615629 -0.075340539216995239257812500000 -0.000537323532626032829284667969 -0.000890669005457311868667602539 0 0 0 0 
2419500000.0000000000 0.159145727753639193435830634371 -0.076202817261219024658203125000 -0.000429367180913686806529444562 -0.000906487461179494857788085938 0 0 0 0 
2419666666.6666665077 0.157889902591705294510049384371 -0.077063359320163726806640625000 -0.000223679337068460908815106802 -0.000894453376531600952148437500 0 0 0 0 
2419833333.3333334923 0.156678795814514187911825615629 -0.077730767428874969482421875000 -0.000199886562768369913101196289 -0.000794318504631519317626953125 0 0 0 0 
