# Version 1.00
#
freq[Hz];re:Trc1_S11;im:Trc1_S11;re:Trc2_S21;im:Trc2_S21;
2.400000000000000E+009;1.711367517709732E-001;3.988675773143768E-002;-1.167742535471916E-003;1.913761487230659E-003;
2.400166666666667E+009;1.717115193605423E-001;3.937816619873047E-002;-9.467536001466215E-004;1.548715634271503E-003;
2.400333333333334E+009;1.721127629280090E-001;3.869970887899399E-002;-9.444232564419508E-004;1.504768850281835E-003;
2.400500000000000E+009;1.727675646543503E-001;3.788601607084274E-002;-8.964157314039767E-004;1.426437404006720E-003;
2.400666666666667E+009;1.729037910699844E-001;3.745474293828011E-002;-1.037228619679809E-003;1.373804872855544E-003;
2.400833333333334E+009;1.732095479965210E-001;3.699735179543495E-002;-1.042187097482383E-003;1.234465744346380E-003;
2.401000000000000E+009;1.734112203121185E-001;3.632286190986633E-002;-1.127647701650858E-003;1.167699811048806E-003;
2.401166666666667E+009;1.734873503446579E-001;3.565133363008499E-002;-1.177937374450266E-003;1.022184616886079E-003;
2.401333333333334E+009;1.733102351427078E-001;3.496884182095528E-002;-1.117071602493525E-003;1.204293919727206E-003;
2.401500000000000E+009;1.733624041080475E-001;3.438159078359604E-002;-1.391447032801807E-003;1.056168926879764E-003;
2.401666666666667E+009;1.732950210571289E-001;3.381887450814247E-002;-1.526959356851876E-003;1.154097961261869E-003;
2.401833333333334E+009;1.731778830289841E-001;3.291666880249977E-002;-1.683428301475942E-003;1.124002854339778E-003;
2.402000000000000E+009;1.729809641838074E-001;3.244320303201675E-002;-1.722802524454892E-003;1.324736163951457E-003;
2.402166666666667E+009;1.728183627128601E-001;3.151075169444084E-002;-1.838327734731138E-003;1.395664410665631E-003;
2.402333333333334E+009;1.724124550819397E-001;3.079533204436302E-002;-2.063205465674400E-003;1.510058296844363E-003;
2.402500000000000E+009;1.723379790782929E-001;2.987281605601311E-002;-2.176067326217890E-003;1.819916767999530E-003;
2.402666666666667E+009;1.719005107879639E-001;2.898644283413887E-002;-2.304954454302788E-003;2.081935992464423E-003;
2.402833333333334E+009;1.716397553682327E-001;2.808970212936401E-002;-2.052182098850608E-003;2.125290222465992E-003;
2.403000000000000E+009;1.714550256729126E-001;2.703337930142880E-002;-2.154557267203927E-003;2.314155455678701E-003;
2.403166666666667E+009;1.710528135299683E-001;2.588679455220699E-002;-2.125563332810998E-003;2.493040403351188E-003;
2.403333333333334E+009;1.707178205251694E-001;2.481097914278507E-002;-2.039473503828049E-003;2.795136533677578E-003;
2.403500000000000E+009;1.705036163330078E-001;2.346626110374928E-002;-2.000591484829783E-003;2.933122916147113E-003;
2.403666666666667E+009;1.700705438852310E-001;2.203982695937157E-002;-1.844130572862923E-003;3.286348422989249E-003;
2.403833333333334E+009;1.699426472187042E-001;2.081301622092724E-002;-1.801399048417807E-003;3.348602680489421E-003;
2.404000000000000E+009;1.693727523088455E-001;1.918031834065914E-002;-1.597499358467758E-003;3.572824876755476E-003;
2.404166666666667E+009;1.691630482673645E-001;1.755635626614094E-002;-1.391671132296324E-003;3.818260738626123E-003;
2.404333333333334E+009;1.687077432870865E-001;1.620626077055931E-002;-1.225103158503771E-003;3.899748669937253E-003;
2.404500000000000E+009;1.685165762901306E-001;1.465630810707808E-002;-1.016175257973373E-003;3.959989640861750E-003;
2.404666666666667E+009;1.682597696781158E-001;1.296077389270067E-002;-7.056035683490336E-004;4.172986838966608E-003;
2.404833333333334E+009;1.681510657072067E-001;1.125621423125267E-002;-5.338643095456064E-004;4.255381412804127E-003;
2.405000000000000E+009;1.680576056241989E-001;9.575470350682735E-003;-2.405193081358448E-004;4.438658710569143E-003;
2.405166666666667E+009;1.680288016796112E-001;7.760151289403439E-003;3.203148662578315E-005;4.300179425626993E-003;
2.405333333333334E+009;1.681472063064575E-001;5.795517470687628E-003;3.177690668962896E-004;4.431047011166811E-003;
2.405500000000000E+009;1.678577214479446E-001;3.990435041487217E-003;4.672868526540697E-004;4.358380101621151E-003;
2.405666666666667E+009;1.679015159606934E-001;2.278415253385902E-003;7.071612053550780E-004;4.364051390439272E-003;
2.405833333333334E+009;1.677938103675842E-001;4.802276380360127E-004;1.046263729222119E-003;4.401136655360460E-003;
2.406000000000000E+009;1.678494364023209E-001;-1.641769893467426E-003;1.501937163993716E-003;4.344705026596785E-003;
2.406166666666667E+009;1.677538007497788E-001;-3.241522470489144E-003;1.723019406199455E-003;4.109904635697603E-003;
2.406333333333334E+009;1.679290980100632E-001;-5.076035857200623E-003;1.915113418363035E-003;3.953795880079269E-003;
2.406500000000000E+009;1.679327338933945E-001;-6.938752252608538E-003;2.220241120085120E-003;4.027289804071188E-003;
2.406666666666667E+009;1.677704453468323E-001;-8.769484236836433E-003;2.305878093466163E-003;3.803828964009881E-003;
2.406833333333334E+009;1.679296493530273E-001;-1.055964268743992E-002;2.560453722253442E-003;3.628910752013326E-003;
2.407000000000000E+009;1.680475324392319E-001;-1.214929297566414E-002;2.766954246908426E-003;3.329002764075995E-003;
2.407166666666667E+009;1.681977510452271E-001;-1.344956830143929E-002;2.949034329503775E-003;3.157009836286306E-003;
2.407333333333334E+009;1.680143922567368E-001;-1.517690066248179E-002;2.927611814811826E-003;2.848854055628181E-003;
2.407500000000000E+009;1.681675910949707E-001;-1.646517403423786E-002;2.965810010209680E-003;2.552633406594396E-003;
2.407666666666667E+009;1.682381629943848E-001;-1.776178181171417E-002;2.980889519676566E-003;2.443207893520594E-003;
2.407833333333334E+009;1.681417971849442E-001;-1.903976500034332E-002;3.047953825443983E-003;2.206894801929593E-003;
2.408000000000000E+009;1.683630049228668E-001;-2.020600251853466E-002;2.998267067596316E-003;2.044511726126075E-003;
2.408166666666667E+009;1.685821563005447E-001;-2.105654776096344E-002;2.914925338700414E-003;1.817895215936005E-003;
2.408333333333334E+009;1.689129918813705E-001;-2.209113352000713E-002;2.978794276714325E-003;1.981582259759307E-003;
2.408500000000000E+009;1.691154241561890E-001;-2.295701578259468E-002;2.938510384410620E-003;1.706232782453299E-003;
2.408666666666667E+009;1.694063097238541E-001;-2.383761480450630E-002;3.039997536689043E-003;1.628160942345858E-003;
2.408833333333334E+009;1.696045696735382E-001;-2.460623160004616E-002;3.082554321736097E-003;1.602601609192789E-003;
2.409000000000000E+009;1.699951738119125E-001;-2.539958618581295E-002;3.185800975188613E-003;1.558246789500117E-003;
2.409166666666667E+009;1.704089790582657E-001;-2.599039115011692E-002;3.157790750265122E-003;1.288818893954158E-003;
2.409333333333334E+009;1.707673668861389E-001;-2.682513743638992E-002;3.219619859009981E-003;1.292199129238725E-003;
2.409500000000000E+009;1.709477007389069E-001;-2.762579917907715E-002;3.260263940319419E-003;1.154696219600737E-003;
2.409666666666667E+009;1.711523681879044E-001;-2.823885157704353E-002;3.399180714040995E-003;9.946330683305860E-004;
2.409833333333334E+009;1.713480204343796E-001;-2.876084297895432E-002;3.356927540153265E-003;8.587034535594285E-004;
2.410000000000000E+009;1.716303825378418E-001;-2.953829057514668E-002;3.328748280182481E-003;5.910365143790841E-004;
2.410166666666667E+009;1.718412041664124E-001;-3.039187379181385E-002;3.335737157613039E-003;2.983489539474249E-004;
2.410333333333334E+009;1.720081716775894E-001;-3.088859096169472E-002;3.265636973083019E-003;1.759665319696069E-004;
2.410500000000000E+009;1.719667613506317E-001;-3.144336864352226E-002;3.266977146267891E-003;-3.645069591584615E-005;
2.410666666666667E+009;1.718589812517166E-001;-3.212290629744530E-002;3.029693383723497E-003;-2.176415146095678E-004;
2.410833333333334E+009;1.716341376304627E-001;-3.270711377263069E-002;2.900420222431421E-003;-4.091845185030252E-004;
2.411000000000000E+009;1.714825034141541E-001;-3.339759260416031E-002;2.768856240436435E-003;-5.078719696030021E-004;
2.411166666666667E+009;1.712781488895416E-001;-3.419650346040726E-002;2.611211268231273E-003;-3.939517482649535E-004;
2.411333333333334E+009;1.709644794464111E-001;-3.481962159276009E-002;2.468627877533436E-003;-3.458055143710226E-004;
2.411500000000000E+009;1.705789566040039E-001;-3.539876639842987E-002;2.376333577558398E-003;-4.525581898633391E-004;
2.411666666666667E+009;1.705332547426224E-001;-3.607304766774178E-002;2.316385973244906E-003;-5.399785004556179E-004;
2.411833333333334E+009;1.699642390012741E-001;-3.672825172543526E-002;2.225248841568828E-003;-4.584017733577639E-004;
2.412000000000000E+009;1.696414053440094E-001;-3.744897618889809E-002;2.149380510672927E-003;-4.504880052991211E-004;
2.412166666666667E+009;1.689926534891129E-001;-3.822398185729981E-002;2.107619773596525E-003;-4.543967079371214E-004;
2.412333333333334E+009;1.687107235193253E-001;-3.902071714401245E-002;2.091877628117800E-003;-4.391344846226275E-004;
2.412500000000000E+009;1.680002212524414E-001;-3.984560817480087E-002;2.088688546791673E-003;-2.978770935442299E-004;
2.412666666666667E+009;1.675412356853485E-001;-4.075387492775917E-002;2.085368847474456E-003;-3.792072238866240E-004;
2.412833333333334E+009;1.668125987052918E-001;-4.174462333321571E-002;2.047983696684241E-003;-4.729747597593814E-004;
2.413000000000000E+009;1.660908460617065E-001;-4.252714291214943E-002;2.061143750324845E-003;-3.756921214517206E-004;
2.413166666666667E+009;1.653551608324051E-001;-4.349702224135399E-002;2.146361628547311E-003;-4.492477455642074E-004;
2.413333333333334E+009;1.646463572978973E-001;-4.447211697697640E-002;2.100941492244601E-003;-5.601762677542865E-004;
2.413500000000000E+009;1.641409397125244E-001;-4.564845934510231E-002;1.798057463020086E-003;-5.431240424513817E-004;
2.413666666666667E+009;1.633218079805374E-001;-4.675322771072388E-002;1.838290714658797E-003;-4.476853937376291E-004;
2.413833333333334E+009;1.626982539892197E-001;-4.781049489974976E-002;1.955631421878934E-003;-6.573456921614707E-004;
2.414000000000000E+009;1.617842614650726E-001;-4.893793165683746E-002;1.909467042423785E-003;-5.984765593893826E-004;
2.414166666666667E+009;1.614383161067963E-001;-4.993304982781410E-002;1.859569456428289E-003;-4.614751378539950E-004;
2.414333333333334E+009;1.607259660959244E-001;-5.118084326386452E-002;1.803132705390453E-003;-6.197832990437746E-004;
2.414500000000000E+009;1.605786085128784E-001;-5.226651579141617E-002;1.921969698742032E-003;-5.429271841421723E-004;
2.414666666666667E+009;1.598351597785950E-001;-5.354472622275353E-002;1.951287384144962E-003;-5.338102346286178E-004;
2.414833333333334E+009;1.593633890151978E-001;-5.467224866151810E-002;1.954837003722787E-003;-4.927207482978702E-004;
2.415000000000000E+009;1.590324342250824E-001;-5.590103194117546E-002;2.067716093733907E-003;-5.479625542648137E-004;
2.415166666666667E+009;1.586288660764694E-001;-5.734084174036980E-002;2.163273515179753E-003;-5.115795065648854E-004;
2.415333333333334E+009;1.585258990526199E-001;-5.870484188199043E-002;1.989053795114160E-003;-6.133232964202762E-004;
2.415500000000000E+009;1.582251340150833E-001;-6.009854376316071E-002;2.154095331206918E-003;-8.317966130562127E-004;
2.415666666666667E+009;1.579071581363678E-001;-6.137993186712265E-002;2.016374142840505E-003;-7.557049393653870E-004;
2.415833333333334E+009;1.577928662300110E-001;-6.289242953062058E-002;2.163944533094764E-003;-9.191780700348318E-004;
2.416000000000000E+009;1.574698984622955E-001;-6.438993662595749E-002;2.231454243883491E-003;-8.651750395074487E-004;
2.416166666666667E+009;1.574209630489349E-001;-6.587418168783188E-002;2.218285109847784E-003;-9.096193825826049E-004;
2.416333333333334E+009;1.572145223617554E-001;-6.724520772695541E-002;2.180941170081496E-003;-1.018339768052101E-003;
2.416500000000000E+009;1.570708453655243E-001;-6.886690855026245E-002;2.140535973012447E-003;-1.057188026607037E-003;
2.416666666666667E+009;1.566994190216065E-001;-6.995225697755814E-002;2.136308467015624E-003;-1.303391531109810E-003;
2.416833333333334E+009;1.566441506147385E-001;-7.151463627815247E-002;2.201983239501715E-003;-1.299104420468211E-003;
2.417000000000000E+009;1.562555283308029E-001;-7.284262031316757E-002;2.342638093978167E-003;-1.379191176965833E-003;
2.417166666666667E+009;1.561581790447235E-001;-7.392328977584839E-002;2.151221735402942E-003;-1.446870970539749E-003;
2.417333333333334E+009;1.560094505548477E-001;-7.512628287076950E-002;2.078810008242726E-003;-1.527038752101362E-003;
2.417500000000000E+009;1.557904183864594E-001;-7.638119161128998E-002;2.114565111696720E-003;-1.677389489486814E-003;
2.417666666666667E+009;1.557080745697022E-001;-7.720170170068741E-002;2.039081649854779E-003;-1.815376221202314E-003;
2.417833333333334E+009;1.557156890630722E-001;-7.817494124174118E-002;2.020576968789101E-003;-1.667567063122988E-003;
2.418000000000000E+009;1.554872095584869E-001;-7.919724285602570E-002;1.960952067747712E-003;-1.763942535035312E-003;
2.418166666666667E+009;1.553836613893509E-001;-8.004119992256165E-002;2.010175725445151E-003;-1.907908474095166E-003;
2.418333333333334E+009;1.555622518062592E-001;-8.076479285955429E-002;1.818435033783317E-003;-2.001289511099458E-003;
2.418500000000000E+009;1.553834676742554E-001;-8.160161226987839E-002;1.834801631048322E-003;-1.992686185985804E-003;
2.418666666666667E+009;1.554486900568008E-001;-8.238529413938522E-002;1.984542235732079E-003;-2.100317738950253E-003;
2.418833333333334E+009;1.552714407444000E-001;-8.295685797929764E-002;1.792017603293061E-003;-2.102255122736096E-003;
2.419000000000000E+009;1.551416963338852E-001;-8.369127660989761E-002;1.932215760461986E-003;-2.113285940140486E-003;
2.419166666666667E+009;1.549339294433594E-001;-8.423478901386261E-002;1.883208635263145E-003;-2.202648203819990E-003;
2.419333333333334E+009;1.548590511083603E-001;-8.469116687774658E-002;1.723926281556487E-003;-2.366896485909820E-003;
2.419500000000000E+009;1.545985937118530E-001;-8.528881520032883E-002;1.641277340240777E-003;-2.362455241382122E-003;
2.419666666666667E+009;1.545716524124146E-001;-8.566780388355255E-002;1.695454353466630E-003;-2.518899738788605E-003;
2.419833333333334E+009;1.542475819587708E-001;-8.608326315879822E-002;1.741572748869658E-003;-2.630611648783088E-003;
2.420000000000000E+009;1.542401015758514E-001;-8.640865236520767E-002;1.639706548303366E-003;-2.681656973436475E-003;
2.420166666666667E+009;1.538666486740112E-001;-8.681832253932953E-002;1.448352937586606E-003;-2.745782025158405E-003;
2.420333333333334E+009;1.536987870931625E-001;-8.723384886980057E-002;1.300501637160778E-003;-2.906598849222064E-003;
2.420500000000000E+009;1.533765792846680E-001;-8.739761263132095E-002;1.287574064917862E-003;-3.068396355956793E-003;
2.420666666666667E+009;1.531238555908203E-001;-8.762542158365250E-002;1.271601882763207E-003;-2.951684873551130E-003;
2.420833333333334E+009;1.528662443161011E-001;-8.798163384199143E-002;1.045556506142020E-003;-3.106811782345176E-003;
2.421000000000000E+009;1.524055004119873E-001;-8.843127638101578E-002;9.224375826306641E-004;-3.314789617434144E-003;
2.421166666666667E+009;1.520311832427979E-001;-8.891976624727249E-002;9.465875918976963E-004;-3.315331647172570E-003;
2.421333333333334E+009;1.516032367944717E-001;-8.938445150852203E-002;7.245929446071386E-004;-3.418531036004424E-003;
2.421500000000000E+009;1.510109603404999E-001;-8.974160254001617E-002;7.316012051887810E-004;-3.475758945569396E-003;
2.421666666666667E+009;1.503142118453980E-001;-9.023055434226990E-002;6.251668091863394E-004;-3.651560284197331E-003;
2.421833333333334E+009;1.497769206762314E-001;-9.076241403818131E-002;6.130069377832115E-004;-3.476757090538740E-003;
2.422000000000000E+009;1.489187180995941E-001;-9.133020788431168E-002;3.322757838759571E-004;-3.708950476720929E-003;
2.422166666666667E+009;1.483221650123596E-001;-9.211296588182449E-002;2.387269487371668E-004;-3.692938713356853E-003;
2.422333333333334E+009;1.475483179092407E-001;-9.249041229486466E-002;4.619003448169678E-005;-3.883457276970148E-003;
2.422500000000000E+009;1.467401832342148E-001;-9.316673129796982E-002;-1.331556995864958E-004;-3.784902859479189E-003;
2.422666666666667E+009;1.459170728921890E-001;-9.384806454181671E-002;-2.074764342978597E-004;-3.957674372941256E-003;
2.422833333333334E+009;1.451196372509003E-001;-9.453894197940826E-002;-5.139614804647863E-004;-3.907817881554365E-003;
2.423000000000000E+009;1.443119049072266E-001;-9.529839456081390E-002;-7.300620782189071E-004;-4.081316757947207E-003;
2.423166666666667E+009;1.435454636812210E-001;-9.623228013515472E-002;-9.112631669268012E-004;-3.981512039899826E-003;
2.423333333333334E+009;1.427893787622452E-001;-9.694840759038925E-002;-1.178349484689534E-003;-3.918261267244816E-003;
2.423500000000000E+009;1.417754441499710E-001;-9.801398962736130E-002;-1.272268011234701E-003;-3.986182622611523E-003;
2.423666666666667E+009;1.406345069408417E-001;-9.895318746566773E-002;-1.584283658303320E-003;-3.881721990182996E-003;
2.423833333333334E+009;1.398226618766785E-001;-9.998094290494919E-002;-1.841366058215499E-003;-3.831995651125908E-003;
2.424000000000000E+009;1.388944387435913E-001;-1.009066775441170E-001;-2.137074479833245E-003;-3.943194169551134E-003;
2.424166666666667E+009;1.380732804536820E-001;-1.018125936388969E-001;-2.242979360744357E-003;-3.658961039036512E-003;
2.424333333333334E+009;1.373692899942398E-001;-1.028910726308823E-001;-2.494424115866423E-003;-3.619322087615728E-003;
2.424500000000000E+009;1.364555805921555E-001;-1.039746850728989E-001;-2.801946830004454E-003;-3.387793898582459E-003;
2.424666666666667E+009;1.357095539569855E-001;-1.049758046865463E-001;-3.101547481492162E-003;-3.131357254460454E-003;
2.424833333333334E+009;1.349191814661026E-001;-1.060284152626991E-001;-3.190289018675685E-003;-3.001190954819322E-003;
2.425000000000000E+009;1.342095434665680E-001;-1.073046326637268E-001;-3.416800405830145E-003;-2.681865822523832E-003;
2.425166666666667E+009;1.333592534065247E-001;-1.083194315433502E-001;-3.578709904104471E-003;-2.448320854455233E-003;
2.425333333333334E+009;1.328272670507431E-001;-1.096325367689133E-001;-3.586400533095002E-003;-2.160998061299324E-003;
2.425500000000000E+009;1.323756426572800E-001;-1.107282713055611E-001;-3.629973623901606E-003;-1.947778277099133E-003;
2.425666666666667E+009;1.316406577825546E-001;-1.121333688497543E-001;-3.613223787397146E-003;-1.662275521084666E-003;
2.425833333333334E+009;1.311453133821487E-001;-1.132747307419777E-001;-3.842860227450728E-003;-1.242239144630730E-003;
2.426000000000000E+009;1.306810379028320E-001;-1.146979257464409E-001;-3.731316654011607E-003;-1.029982347972691E-003;
2.426166666666667E+009;1.304028630256653E-001;-1.157415062189102E-001;-3.776166820898652E-003;-7.939615170471370E-004;
2.426333333333334E+009;1.298273056745529E-001;-1.168908178806305E-001;-3.570306813344359E-003;-4.791700048372150E-004;
2.426500000000000E+009;1.294330954551697E-001;-1.179402172565460E-001;-3.316991729661822E-003;-1.270518259843811E-004;
2.426666666666667E+009;1.292937397956848E-001;-1.188759058713913E-001;-3.254557494074106E-003;-4.070877548656426E-005;
2.426833333333334E+009;1.287709027528763E-001;-1.200362965464592E-001;-2.920004073530436E-003;3.077157016377896E-004;
2.427000000000000E+009;1.284729540348053E-001;-1.211360841989517E-001;-2.873527351766825E-003;3.834440722130239E-004;
2.427166666666667E+009;1.282986402511597E-001;-1.219914183020592E-001;-2.739082090556622E-003;4.783831536769867E-004;
2.427333333333334E+009;1.280357241630554E-001;-1.229068860411644E-001;-2.625541528686881E-003;4.045199602842331E-004;
2.427500000000000E+009;1.279366016387940E-001;-1.237614378333092E-001;-2.549276221543551E-003;5.715636652894318E-004;
2.427666666666667E+009;1.276948750019074E-001;-1.246473491191864E-001;-2.163939643651247E-003;6.509331869892776E-004;
