# Hz S RI R 
2400000000.0000000000 0.171165078878402709960937500000 0.039964981377124793315847028907 -0.000772856175899505615234375000 0.002304642694070934815647744287 0 0 0 0 
2400166666.6666665077 0.171838432550430297851562500000 0.039771735668182373046875000000 -0.000890398689080029726028442383 0.002261689398437737984898232568 0 0 0 0 
2400333333.3333334923 0.172178283333778409103231865629 0.038909144699573516845703125000 -0.000543818110600113868713378906 0.002048682421445846991298056494 0 0 0 0 
2400500000.0000000000 0.172668948769569396972656250000 0.038306418806314468383789062500 -0.000591784541029483079910278320 0.002121139783412218093872070312 0 0 0 0 
2400666666.6666665077 0.172968611121177701095419365629 0.037764564156532287597656250000 -0.000433348788646981120109558105 0.001888526021502912044525146484 0 0 0 0 
2400833333.3333334923 0.173306092619895907303018134371 0.037096686661243438720703125000 -0.000416389957536011880070286884 0.001952155376784503893611288916 0 0 0 0 
2401000000.0000000000 0.173320010304450988769531250000 0.036381244659423828125000000000 -0.000500978436321020126342773438 0.001889910199679434082628559644 0 0 0 0 
2401166666.6666665077 0.173510670661926297286825615629 0.035919874906539916992187500000 -0.000545130693353712558746337891 0.001829210086725652001024555737 0 0 0 0 
2401333333.3333334923 0.173551425337791387359942518742 0.035314720124006271362304687500 -0.000509818084537982940673828125 0.001892196130938827991485595703 0 0 0 0 
2401500000.0000000000 0.173696294426918002029580634371 0.034628573805093772197682966407 -0.000613154494203627109527587891 0.001798355951905250982997275244 0 0 0 0 
2401666666.6666665077 0.173539862036704989334268134371 0.034083772450685501098632812500 -0.000741963332984596490859985352 0.001778461039066314914106059497 0 0 0 0 
2401833333.3333334923 0.173546031117439297775106865629 0.033063951879739761352539062500 -0.000575990707147866487503051758 0.001869257306680083058000874097 0 0 0 0 
2402000000.0000000000 0.173224896192550686935263115629 0.032596081495285027240793596093 -0.000674513052217662334442138672 0.001895466353744267983677529443 0 0 0 0 
2402166666.6666665077 0.173052027821540804763955634371 0.031593117862939841533620466407 -0.000808149168733507394790649414 0.001804840285331011035321879810 0 0 0 0 
2402333333.3333334923 0.172603636980056790450888115629 0.030585847795009609567662423046 -0.000724462501239031553268432617 0.001925146672874689102172851562 0 0 0 0 
2402500000.0000000000 0.172504082322120694259481865629 0.030034365132451060903528983204 -0.000720456067938357591629028320 0.001946150674484669945360493237 0 0 0 0 
2402666666.6666665077 0.172008305788040188888388115629 0.029010254889726638793945312500 -0.000720334530342370271682739258 0.002036227378994226889369345557 0 0 0 0 
2402833333.3333334923 0.171897813677787808517294365629 0.028103483840823170053502266796 -0.000523569993674755096435546875 0.002249814569950104193446493994 0 0 0 0 
2403000000.0000000000 0.171575486660003689864950615629 0.026901753619313240051269531250 -0.000398368341848254203796386719 0.002302424749359488920924521338 0 0 0 0 
2403166666.6666665077 0.171089962124824496170205634371 0.025909721851348880422571951954 -0.000627240457106381654739379883 0.002286547794938087897059775244 0 0 0 0 
2403333333.3333334923 0.170768737792968805511151231258 0.024724552407860759389857108204 -0.000283723697066307122081202374 0.002197417663410305976867675781 0 0 0 0 
2403500000.0000000000 0.170388281345367403885049384371 0.023335218429565429687500000000 -0.000206095093744806999534052716 0.002323448425158857865574502100 0 0 0 0 
2403666666.6666665077 0.170188769698143005371093750000 0.022046295925974849355677420704 -0.000271875556791201179653721942 0.002301576547324657006504677881 0 0 0 0 
2403833333.3333334923 0.169821366667747497558593750000 0.020468521863222118722935860546 -0.000056794811825966462492942810 0.002119554206728934808018349756 0 0 0 0 
2404000000.0000000000 0.169386595487594604492187500000 0.019135136157274249685267264454 -0.000145683137816377011224469595 0.002108438638970255851745605469 0 0 0 0 
2404166666.6666665077 0.169034197926521301269531250000 0.017521940171718600881556326954 -0.000003730611297214637002672396 0.002077190205454825921299599756 0 0 0 0 
2404333333.3333334923 0.168748721480369595626669365629 0.016215186566114429128626639454 0.000110251217847689999781470027 0.002190440427511930899379111182 0 0 0 0 
2404500000.0000000000 0.168346777558326693435830634371 0.014344056136906150472620780079 -0.000040533082938054583292415006 0.002250779885798693136927939307 0 0 0 0 
2404666666.6666665077 0.168299317359924288650674384371 0.012743152678012849635114100977 -0.000085000465332996100187301636 0.002087040571495891051051474463 0 0 0 0 
2404833333.3333334923 0.167974308133125305175781250000 0.011196459643542770040491873829 0.000057245790230808779597282410 0.001968938857316970825195312500 0 0 0 0 
2405000000.0000000000 0.168001696467399597167968750000 0.009480907581746578216552734375 0.000004682300641434267163276672 0.002108474262058734893798828125 0 0 0 0 
2405166666.6666665077 0.167818412184715298751669365629 0.007649926934391260147094726562 -0.000139580253744497895240783691 0.002273231046274303956272744287 0 0 0 0 
2405333333.3333334923 0.167848289012908907791299384371 0.005751013290137053403372480176 -0.000072878843639045953750610352 0.002149436157196760177612304688 0 0 0 0 
2405500000.0000000000 0.167736038565635708907919365629 0.003934956155717372894287109375 -0.000233696104260161491945543832 0.002187081379815936088562011719 0 0 0 0 
2405666666.6666665077 0.167788416147232111175213731258 0.002150574931874870820286416162 -0.000223188399104401496335706168 0.002329077105969191031215048682 0 0 0 0 
2405833333.3333334923 0.167649596929550198654013115629 0.000310526374960318207740783691 -0.000269140233285725116729736328 0.002281198045238852934596396338 0 0 0 0 
2406000000.0000000000 0.167827367782592801193075615629 -0.001687656389549375014064169775 -0.000338345736963674426078796387 0.002426232909783720970153808594 0 0 0 0 
2406166666.6666665077 0.167798921465873690506143134371 -0.003336089896038175062892294775 -0.000279881933238357305526733398 0.002580425702035427093505859375 0 0 0 0 
2406333333.3333334923 0.167911380529403686523437500000 -0.005240485537797212600708007812 -0.000215171850868500796243390494 0.002765414537861942811253213037 0 0 0 0 
2406500000.0000000000 0.167797431349754305740518134371 -0.006989309564232826232910156250 -0.000237416417803615304544725961 0.002866227878257631821873330225 0 0 0 0 
2406666666.6666665077 0.167661204934120205978231865629 -0.008613278158009052276611328125 0.000028937189199496060609817505 0.002958351979032158851623535156 0 0 0 0 
2406833333.3333334923 0.167853653430938692947549384371 -0.010487304069101810455322265625 0.000066156739194411784410476685 0.003102792659774423079249716650 0 0 0 0 
2407000000.0000000000 0.167955607175826998611611884371 -0.012145292945206170517891131055 0.000151270840433426201343536377 0.003278500633314251899719238281 0 0 0 0 
2407166666.6666665077 0.168121173977851895431356865629 -0.013603197410702710587471209180 0.000313558703055605292320251465 0.003470407333225011825561523438 0 0 0 0 
2407333333.3333334923 0.167983949184417696853799384371 -0.015190295875072479248046875000 0.000770653423387557268142700195 0.003658818779513239860534667969 0 0 0 0 
2407500000.0000000000 0.168092504143714904785156250000 -0.016493843868374831462819685157 0.000824462098535150289535522461 0.003663340583443642096278525244 0 0 0 0 
2407666666.6666665077 0.168308258056640597244424384371 -0.017718011513352390634556954296 0.000982668250799179077148437500 0.003633271902799605889561318506 0 0 0 0 
2407833333.3333334923 0.168236091732978793045205634371 -0.019112277776002880441685860546 0.001405003131367265961290669019 0.003684892086312174797058105469 0 0 0 0 
2408000000.0000000000 0.168296262621879605392294365629 -0.020222127437591549264928048046 0.001500247512012720108032226562 0.003694764571264386177062988281 0 0 0 0 
2408166666.6666665077 0.168580815196037292480468750000 -0.020992591977119449270228201954 0.001803698949515819983241415869 0.003587384708225727081298828125 0 0 0 0 
2408333333.3333334923 0.169081211090087890625000000000 -0.022037154063582420349121093750 0.002177209593355656103846884619 0.003397058928385376930236816406 0 0 0 0 
2408500000.0000000000 0.169154599308967590332031250000 -0.023080116137862208974818045704 0.002258461900055408911464072119 0.003646672936156392097473144531 0 0 0 0 
2408666666.6666665077 0.169439330697059603592080634371 -0.023907644674181941640833670704 0.002593534067273139953613281250 0.003382345894351602034327841650 0 0 0 0 
2408833333.3333334923 0.169575959444045992752236884371 -0.024578571319580081594446951954 0.002653049072250723838806152344 0.003291621571406722068786621094 0 0 0 0 
2409000000.0000000000 0.170037284493446405608807481258 -0.025329945608973499643346016796 0.002832567086443305015563964844 0.003127529285848141150233603369 0 0 0 0 
2409166666.6666665077 0.170487046241760309417401231258 -0.026070004329085350036621093750 0.003262826008722186088562011719 0.002930743619799613952636718750 0 0 0 0 
2409333333.3333334923 0.170902594923973111251669365629 -0.026810269802808761596679687500 0.003428193973377346992492675781 0.002693805145099759101867675781 0 0 0 0 
2409500000.0000000000 0.171126767992973299881143134371 -0.027625178918242461467702497657 0.003519087331369518800022744287 0.002668645698577166037318564307 0 0 0 0 
2409666666.6666665077 0.171274140477180508712606865629 -0.028299251571297649038294608204 0.003553094575181602998020791162 0.002351162489503622055053710938 0 0 0 0 
2409833333.3333334923 0.171581998467445401290731865629 -0.028888007625937458383580391796 0.003795680822804570198059082031 0.002283773152157663865330361475 0 0 0 0 
2410000000.0000000000 0.171762362122535705566406250000 -0.029524225741624828683873360546 0.003815953154116868972778320312 0.002018183236941695213317871094 0 0 0 0 
2410166666.6666665077 0.171918079257011413574218750000 -0.030348021537065509450892264454 0.003915073350071907043457031250 0.001763114007189870097516704028 0 0 0 0 
2410333333.3333334923 0.171983212232589693924111884371 -0.030944639816880229604700858204 0.003887452650815248923060751807 0.001591934938915074088452983325 0 0 0 0 
2410500000.0000000000 0.172026231884956387618856865629 -0.031672030687332153320312500000 0.003981199581176043424124433301 0.001392143196426331996917724609 0 0 0 0 
2410666666.6666665077 0.171745702624321011642294365629 -0.032365877181291580200195312500 0.003958465065807104110717773438 0.001101218513213098049163818359 0 0 0 0 
2410833333.3333334923 0.171645015478134210784588731258 -0.032957434654235839843750000000 0.004126184154301881790161132812 0.000981386867351830005645751953 0 0 0 0 
2411000000.0000000000 0.171644851565360995193643134371 -0.033692836761474609375000000000 0.004144861828535795211791992188 0.000682380399666726589202880859 0 0 0 0 
2411166666.6666665077 0.171136856079101590255575615629 -0.034181687980890267108957658593 0.004107206128537654876708984375 0.000415602640714496374130249023 0 0 0 0 
2411333333.3333334923 0.170937344431877108474893134371 -0.034915380179882049560546875000 0.004060694947838783264160156250 0.000125619175378233194351196289 0 0 0 0 
2411500000.0000000000 0.170622631907463101486044365629 -0.035586796700954437255859375000 0.003921583760529757413382245801 -0.000018300312149222008883953094 0 0 0 0 
2411666666.6666665077 0.170382797718048095703125000000 -0.036224983632564551616628278907 0.003933689557015895843505859375 -0.000135065289214253398493090219 0 0 0 0 
2411833333.3333334923 0.169792965054511996170205634371 -0.036783087998628623271901716407 0.003842374542728066010716103662 -0.000402472855057567412227076398 0 0 0 0 
2412000000.0000000000 0.169383451342582702636718750000 -0.037610232830047607421875000000 0.003609683830291032791137695312 -0.000599563529249280691146850586 0 0 0 0 
2412166666.6666665077 0.169052571058273287674111884371 -0.038324099034070968627929687500 0.003559435484930872917175292969 -0.000443971250206232125132960187 0 0 0 0 
2412333333.3333334923 0.168584287166595486739950615629 -0.038975637406110756610910783593 0.003374699270352721214294433594 -0.000574347679503262042999267578 0 0 0 0 
2412500000.0000000000 0.167858615517616299728231865629 -0.039789248257875442504882812500 0.003299086121842265129089355469 -0.000803040049504488706588745117 0 0 0 0 
2412666666.6666665077 0.167481645941734286209268134371 -0.040875285863876342773437500000 0.003271737135946751074550009619 -0.000694644695613533258438110352 0 0 0 0 
2412833333.3333334923 0.166671425104141207595986884371 -0.041625153273344039916992187500 0.003197260899469255967381142725 -0.000777404638938605785369873047 0 0 0 0 
2413000000.0000000000 0.166012495756149291992187500000 -0.042579993605613708496093750000 0.003116528736427425904514931787 -0.000835802638903260231018066406 0 0 0 0 
2413166666.6666665077 0.165365174412727411468182481258 -0.043583706021308898925781250000 0.003116704756394029097316122900 -0.000854678917676210403442382812 0 0 0 0 
2413333333.3333334923 0.164481490850448608398437500000 -0.044693011790513992309570312500 0.002828399650752543969395302881 -0.000922178500331938266754150391 0 0 0 0 
2413500000.0000000000 0.163919404149055508712606865629 -0.045670390129089362407643903907 0.003009596606716514067408896338 -0.000891124655026942491531372070 0 0 0 0 
2413666666.6666665077 0.163297280669212313553018134371 -0.046662565320730209350585937500 0.002911017742007970809936523438 -0.000964502105489373207092285156 0 0 0 0 
2413833333.3333334923 0.162523210048675509353799384371 -0.047692853957414627075195312500 0.002948738634586333794834756006 -0.001040745177306235053418803638 0 0 0 0 
2414000000.0000000000 0.161801949143409701248330634371 -0.048859082162380218505859375000 0.002870600437745451927185058594 -0.001156536978669465021846152197 0 0 0 0 
2414166666.6666665077 0.161099568009376498123330634371 -0.049762059003114700317382812500 0.002993406495079398155212402344 -0.001167699228972197012660361182 0 0 0 0 
2414333333.3333334923 0.160516723990440396407919365629 -0.050955705344676971435546875000 0.002788696438074111938476562500 -0.001249383320100605921504355322 0 0 0 0 
2414500000.0000000000 0.160147726535797091385049384371 -0.052072558552026748657226562500 0.002690790221095085144042968750 -0.001174350385554135062574077075 0 0 0 0 
2414666666.6666665077 0.159730494022369412521200615629 -0.053274575620889656757395158593 0.002625966211780906157252646338 -0.001474097603932023048400878906 0 0 0 0 
2414833333.3333334923 0.159232884645462008377236884371 -0.054596740752458572387695312500 0.002869375050067902045008993994 -0.001487720292061567089678120190 0 0 0 0 
2415000000.0000000000 0.158770695328712491134481865629 -0.055594850331544883037526716407 0.002697602147236465974095009912 -0.001642924384213984012603759766 0 0 0 0 
2415166666.6666665077 0.158491224050521906097088731258 -0.057033710181713097309152971093 0.002677404088899492783787392725 -0.001706494018435477993608784253 0 0 0 0 
2415333333.3333334923 0.158323630690574701507244981258 -0.058480888605117797851562500000 0.002582091838121414184570312500 -0.001922245719470083930371928638 0 0 0 0 
2415500000.0000000000 0.158159062266349792480468750000 -0.059794623404741287231445312500 0.002553837839514017105102539062 -0.001828725333325565078138041919 0 0 0 0 
2415666666.6666665077 0.157847538590431213378906250000 -0.061084471642971038818359375000 0.002504872158169745965244912256 -0.001991084078326820893528603662 0 0 0 0 
2415833333.3333334923 0.157830089330673190017861884371 -0.062606453895568847656250000000 0.002347931731492280960083007812 -0.002066069981083273887634277344 0 0 0 0 
2416000000.0000000000 0.157537117600441006759481865629 -0.064040869474411010742187500000 0.002258617430925368829014443506 -0.002116793766617774963378906250 0 0 0 0 
2416166666.6666665077 0.157545089721679687500000000000 -0.065453141927719116210937500000 0.002281542168930172920227050781 -0.002159802708774805068969726562 0 0 0 0 
2416333333.3333334923 0.157289966940879794021768134371 -0.066900148987770080566406250000 0.002081005601212381882908486475 -0.002168704988434911207911826025 0 0 0 0 
2416500000.0000000000 0.157036036252975491622763115629 -0.068496495485305786132812500000 0.001815492752939463095424033057 -0.002303498797118663787841796875 0 0 0 0 
2416666666.6666665077 0.156906470656394986251669365629 -0.069723151624202728271484375000 0.001823010155931114933611225659 -0.002282636472955346107482910156 0 0 0 0 
2416833333.3333334923 0.156825259327888488769531250000 -0.071369230747222900390625000000 0.001682923873886466026306152344 -0.002248731441795825958251953125 0 0 0 0 
2417000000.0000000000 0.156388700008392306228799384371 -0.072568148374557495117187500000 0.001676113577559589905979775537 -0.002215818734839559035060263525 0 0 0 0 
2417166666.6666665077 0.156314238905906705001669365629 -0.073793351650238037109375000000 0.001601667841896414973615336841 -0.002383955055847764015197753906 0 0 0 0 
2417333333.3333334923 0.156111970543861389160156250000 -0.074961900711059570312500000000 0.001448626280762254974962544019 -0.002155381254851818084716796875 0 0 0 0 
2417500000.0000000000 0.156015440821647588531817518742 -0.076235771179199218750000000000 0.001380355213768780014635395581 -0.002267275936901568932774209131 0 0 0 0 
2417666666.6666665077 0.155945450067520113845986884371 -0.077159158885478973388671875000 0.001365545089356601021410297925 -0.002176821697503327889683388818 0 0 0 0 
2417833333.3333334923 0.155712887644767788986044365629 -0.078070595860481262207031250000 0.001294249319471419074414897388 -0.002121724421158432960510253906 0 0 0 0 
2418000000.0000000000 0.155623435974121093750000000000 -0.079166367650032043457031250000 0.001213754294440150044084858472 -0.002211999148130416870117187500 0 0 0 0 
2418166666.6666665077 0.155447065830230712890625000000 -0.079952411353588104248046875000 0.001306395977735518975498818506 -0.002194637199863791899440146338 0 0 0 0 
2418333333.3333334923 0.155706703662872286697549384371 -0.080809660255908966064453125000 0.001322953961789608001708984375 -0.002180024050176144079921103369 0 0 0 0 
2418500000.0000000000 0.155502647161483792404013115629 -0.081515543162822723388671875000 0.001316528883762658076045370947 -0.002123048761859536170959472656 0 0 0 0 
2418666666.6666665077 0.155520066618919400314169365629 -0.082173831760883331298828125000 0.001264687278307973904850625146 -0.002203572541475296020507812500 0 0 0 0 
2418833333.3333334923 0.155370458960533086578692518742 -0.083018146455287933349609375000 0.001175008481368422941920615088 -0.002270135795697569847106933594 0 0 0 0 
2419000000.0000000000 0.155146166682243402679119981258 -0.083682090044021606445312500000 0.001170597039163113074061728369 -0.002199061214923859076258993994 0 0 0 0 
2419166666.6666665077 0.154968380928039606292401231258 -0.084198489785194396972656250000 0.001181442290544510104535746997 -0.002421390730887651009800576318 0 0 0 0 
2419333333.3333334923 0.154780939221382113357705634371 -0.084443770349025726318359375000 0.001054797437973320917842245947 -0.002318651881068944931030273438 0 0 0 0 
2419500000.0000000000 0.154576301574707003494424384371 -0.085388086736202239990234375000 0.001146665425039828040479350513 -0.002381158526986836953404091943 0 0 0 0 
2419666666.6666665077 0.154602617025375393966513115629 -0.085773572325706481933593750000 0.001145803835242986895917582935 -0.002411403460428119139430380713 0 0 0 0 
2419833333.3333334923 0.154412671923637390136718750000 -0.086113058030605316162109375000 0.001103981165215373039245605469 -0.002519348403438926176783896338 0 0 0 0 
