# Version 1.00
#
freq[Hz];re:Trc1_S11;im:Trc1_S11;re:Trc2_S21;im:Trc2_S21;
2.400000000000000E+009;1.679121851921082E-001;4.098907858133316E-002;-2.830550074577332E-003;-9.556011063978076E-004;
2.400166666666667E+009;1.687038093805313E-001;4.031066969037056E-002;-2.906808629631996E-003;-8.264730568043888E-004;
2.400333333333334E+009;1.690953075885773E-001;3.922442346811295E-002;-2.994070528075099E-003;-8.827960700727999E-004;
2.400500000000000E+009;1.696013808250427E-001;3.838004171848297E-002;-3.019830211997032E-003;-6.683064857497811E-004;
2.400666666666667E+009;1.699011474847794E-001;3.750799223780632E-002;-2.959195524454117E-003;-7.069258717820048E-004;
2.400833333333334E+009;1.702468395233154E-001;3.648218140006065E-002;-3.101305104792118E-003;-6.389737245626748E-004;
2.401000000000000E+009;1.704049706459045E-001;3.581964969635010E-002;-3.007401479408145E-003;-4.728924250230193E-004;
2.401166666666667E+009;1.707656830549240E-001;3.490783274173737E-002;-3.037690417841077E-003;-4.779946175403893E-004;
2.401333333333334E+009;1.707221567630768E-001;3.385673835873604E-002;-3.187406575307250E-003;-2.892977208830416E-004;
2.401500000000000E+009;1.710448563098908E-001;3.302732855081558E-002;-3.088947385549545E-003;-2.191422390751541E-004;
2.401666666666667E+009;1.712108850479126E-001;3.230107575654984E-002;-3.121105255559087E-003;-7.124388503143564E-005;
2.401833333333334E+009;1.713847368955612E-001;3.136207535862923E-002;-3.067631740123034E-003;5.338469054549933E-005;
2.402000000000000E+009;1.711135655641556E-001;3.049940988421440E-002;-3.179199295118451E-003;1.207793975481764E-004;
2.402166666666667E+009;1.712256520986557E-001;2.942077256739140E-002;-3.078228561207652E-003;1.421661436324939E-004;
2.402333333333334E+009;1.712251603603363E-001;2.855151332914829E-002;-2.907749265432358E-003;2.289093099534512E-004;
2.402500000000000E+009;1.713655889034271E-001;2.769717946648598E-002;-3.121754853054881E-003;3.390921920072287E-004;
2.402666666666667E+009;1.713333576917648E-001;2.652317844331265E-002;-3.073183819651604E-003;3.917138674296439E-004;
2.402833333333334E+009;1.713553369045258E-001;2.578471414744854E-002;-3.066131146624684E-003;4.921320942230523E-004;
2.403000000000000E+009;1.711294203996658E-001;2.453644014894962E-002;-3.021602286025882E-003;4.350037197582424E-004;
2.403166666666667E+009;1.711951494216919E-001;2.351192198693752E-002;-3.139026463031769E-003;4.490278370212764E-004;
2.403333333333334E+009;1.711614131927490E-001;2.241776883602142E-002;-3.124709473922849E-003;6.415320676751435E-004;
2.403500000000000E+009;1.709590852260590E-001;2.124948240816593E-002;-3.046907950192690E-003;7.425242802128196E-004;
2.403666666666667E+009;1.709038764238358E-001;1.977123692631722E-002;-3.307160921394825E-003;1.016370952129364E-003;
2.403833333333334E+009;1.708192527294159E-001;1.872376911342144E-002;-3.095078747719526E-003;9.481317829340696E-004;
2.404000000000000E+009;1.706978827714920E-001;1.737794280052185E-002;-3.221856430172920E-003;1.193274511024356E-003;
2.404166666666667E+009;1.705560237169266E-001;1.608364656567574E-002;-3.223597304895520E-003;1.205447013489902E-003;
2.404333333333334E+009;1.702582836151123E-001;1.487395260483027E-002;-2.938553225249052E-003;1.431665616109967E-003;
2.404500000000000E+009;1.702554970979691E-001;1.351906545460224E-002;-2.883113222196698E-003;1.549444976262748E-003;
2.404666666666667E+009;1.703493297100067E-001;1.205823384225369E-002;-2.795042702928186E-003;1.676129875704646E-003;
2.404833333333334E+009;1.701478809118271E-001;1.064820773899555E-002;-2.538001630455256E-003;1.777799800038338E-003;
2.405000000000000E+009;1.702073663473129E-001;9.143885225057602E-003;-2.557205967605114E-003;1.778338919393718E-003;
2.405166666666667E+009;1.701791882514954E-001;7.630523759871721E-003;-2.292749937623739E-003;1.805264269933105E-003;
2.405333333333334E+009;1.702007502317429E-001;6.043985020369291E-003;-2.407106570899487E-003;1.863531302660704E-003;
2.405500000000000E+009;1.702739894390106E-001;4.665010143071413E-003;-2.212840132415295E-003;1.813186914660037E-003;
2.405666666666667E+009;1.701540648937225E-001;2.977648051455617E-003;-2.117631258442998E-003;1.714936690405011E-003;
2.405833333333334E+009;1.699125617742539E-001;1.538483891636133E-003;-2.069895621389151E-003;1.765190623700619E-003;
2.406000000000000E+009;1.699631363153458E-001;-1.129908341681585E-004;-1.976732397451997E-003;1.841011457145214E-003;
2.406166666666667E+009;1.698428243398666E-001;-1.613060478121042E-003;-2.020395128056407E-003;1.833832473494113E-003;
2.406333333333334E+009;1.699569076299667E-001;-3.287261119112372E-003;-1.968342578038573E-003;1.778374891728163E-003;
2.406500000000000E+009;1.696462631225586E-001;-4.863034002482891E-003;-1.929368823766708E-003;1.810364075936377E-003;
2.406666666666667E+009;1.694825589656830E-001;-6.376273930072784E-003;-1.803712220862508E-003;1.641329843550921E-003;
2.406833333333334E+009;1.694545894861221E-001;-7.927399128675461E-003;-1.852585235610604E-003;1.678435248322785E-003;
2.407000000000000E+009;1.693594604730606E-001;-9.412773884832859E-003;-1.784360618330538E-003;1.642315415665507E-003;
2.407166666666667E+009;1.693000942468643E-001;-1.070869155228138E-002;-1.783501706086099E-003;1.681538764387369E-003;
2.407333333333334E+009;1.689410358667374E-001;-1.229934114962816E-002;-2.044547116383910E-003;1.652627484872937E-003;
2.407500000000000E+009;1.688286960124970E-001;-1.348085142672062E-002;-1.955109182745218E-003;1.690182019956410E-003;
2.407666666666667E+009;1.686327159404755E-001;-1.461634505540133E-002;-1.971353543922305E-003;1.798417535610497E-003;
2.407833333333334E+009;1.682820767164230E-001;-1.583204977214336E-002;-2.156085101887584E-003;1.691060839220882E-003;
2.408000000000000E+009;1.683064699172974E-001;-1.706379279494286E-002;-2.002986846491695E-003;1.954864477738738E-003;
2.408166666666667E+009;1.682339906692505E-001;-1.784192956984043E-002;-2.171677770093083E-003;1.899183145724237E-003;
2.408333333333334E+009;1.683329492807388E-001;-1.882260292768478E-002;-2.059996128082275E-003;1.849579042755067E-003;
2.408500000000000E+009;1.682997047901154E-001;-1.979940198361874E-002;-2.112526213750243E-003;1.968876458704472E-003;
2.408666666666667E+009;1.682013720273972E-001;-2.075103856623173E-002;-2.151524415239692E-003;2.189798280596733E-003;
2.408833333333334E+009;1.683127433061600E-001;-2.163472399115562E-002;-2.066122600808740E-003;2.202024450525641E-003;
2.409000000000000E+009;1.685216426849365E-001;-2.235160768032074E-002;-2.124120481312275E-003;2.321091480553150E-003;
2.409166666666667E+009;1.686307638883591E-001;-2.322633005678654E-002;-2.043366199359298E-003;2.619464183226228E-003;
2.409333333333334E+009;1.687805503606796E-001;-2.413234673440456E-002;-2.141417702659965E-003;2.632668707519770E-003;
2.409500000000000E+009;1.688483357429504E-001;-2.526179514825344E-002;-2.082593971863389E-003;2.808526391163468E-003;
2.409666666666667E+009;1.690679341554642E-001;-2.614483982324600E-002;-2.005466725677252E-003;2.757920650765300E-003;
2.409833333333334E+009;1.690387576818466E-001;-2.682919055223465E-002;-1.781363622285426E-003;2.982613397762179E-003;
2.410000000000000E+009;1.692454069852829E-001;-2.775025926530361E-002;-1.764425891451538E-003;3.241881495341659E-003;
2.410166666666667E+009;1.691502779722214E-001;-2.879037521779537E-002;-1.765373861417174E-003;3.178045852109790E-003;
2.410333333333334E+009;1.693158000707626E-001;-2.958204969763756E-002;-1.611130661331117E-003;3.347851568832994E-003;
2.410500000000000E+009;1.693040877580643E-001;-3.050388395786285E-002;-1.572425360791385E-003;3.401392139494419E-003;
2.410666666666667E+009;1.689898073673248E-001;-3.159822151064873E-002;-1.276380033232272E-003;3.539213910698891E-003;
2.410833333333334E+009;1.691081523895264E-001;-3.228738158941269E-002;-1.079009962268174E-003;3.647924168035388E-003;
2.411000000000000E+009;1.688526570796967E-001;-3.316832706332207E-002;-1.052303006872535E-003;3.718251129612327E-003;
2.411166666666667E+009;1.687389910221100E-001;-3.420424833893776E-002;-7.779889856465161E-004;3.651309525594115E-003;
2.411333333333334E+009;1.686043441295624E-001;-3.506933525204659E-002;-6.457474664784968E-004;3.656031331047416E-003;
2.411500000000000E+009;1.683629304170609E-001;-3.604935109615326E-002;-3.437934792600572E-004;3.617514623329043E-003;
2.411666666666667E+009;1.682361513376236E-001;-3.694319725036621E-002;-3.415732062421739E-004;3.707158379256725E-003;
2.411833333333334E+009;1.679901778697968E-001;-3.765560314059258E-002;-2.935172815341502E-004;3.660447895526886E-003;
2.412000000000000E+009;1.674811840057373E-001;-3.866275027394295E-002;-1.929178688442335E-004;3.509160829707980E-003;
2.412166666666667E+009;1.672018468379974E-001;-3.976267948746681E-002;-7.046663085930049E-005;3.523100400343537E-003;
2.412333333333334E+009;1.672207266092300E-001;-4.056436195969582E-002;-2.170826628571376E-004;3.613315522670746E-003;
2.412500000000000E+009;1.665621548891068E-001;-4.152427241206169E-002;8.679991879034787E-005;3.676091553643346E-003;
2.412666666666667E+009;1.662781089544296E-001;-4.258042201399803E-002;1.457418256904930E-004;3.548976033926010E-003;
2.412833333333334E+009;1.660173833370209E-001;-4.354731366038322E-002;2.500723639968783E-004;3.660335438326001E-003;
2.413000000000000E+009;1.656378209590912E-001;-4.452646151185036E-002;2.493674983270466E-004;3.671174636110663E-003;
2.413166666666667E+009;1.649848371744156E-001;-4.545986279845238E-002;2.607862988952547E-004;3.581171622499824E-003;
2.413333333333334E+009;1.644849628210068E-001;-4.645458981394768E-002;4.831749247387052E-004;3.635881934314966E-003;
2.413500000000000E+009;1.641005575656891E-001;-4.759190976619721E-002;5.546885658986867E-004;3.731732023879886E-003;
2.413666666666667E+009;1.637220233678818E-001;-4.848423227667809E-002;8.287457749247551E-004;3.823763923719525E-003;
2.413833333333334E+009;1.632074415683746E-001;-4.954860359430313E-002;7.903390214778483E-004;3.724507754668593E-003;
2.414000000000000E+009;1.626885980367661E-001;-5.046528577804565E-002;8.453186601400375E-004;3.563441801816225E-003;
2.414166666666667E+009;1.624211817979813E-001;-5.153352022171021E-002;1.176345627754927E-003;3.716479055583477E-003;
2.414333333333334E+009;1.619796305894852E-001;-5.257777869701386E-002;1.240449259057641E-003;3.818822791799903E-003;
2.414500000000000E+009;1.618307679891586E-001;-5.333780869841576E-002;1.324194017797709E-003;3.584628691896796E-003;
2.414666666666667E+009;1.614417582750320E-001;-5.436244234442711E-002;1.539005781523883E-003;3.630829043686390E-003;
2.414833333333334E+009;1.610471457242966E-001;-5.543393269181252E-002;1.704003429040313E-003;3.753490513190627E-003;
2.415000000000000E+009;1.607620865106583E-001;-5.640404298901558E-002;1.858559087850153E-003;3.585768165066838E-003;
2.415166666666667E+009;1.606478989124298E-001;-5.745550990104675E-002;2.012525917962194E-003;3.368553705513477E-003;
2.415333333333334E+009;1.606855392456055E-001;-5.874039605259895E-002;2.055825898423791E-003;3.389814402908087E-003;
2.415500000000000E+009;1.603873819112778E-001;-5.974885076284409E-002;2.255359431728721E-003;3.250342560932040E-003;
2.415666666666667E+009;1.602289229631424E-001;-6.081238016486168E-002;2.369897207245231E-003;3.147496841847897E-003;
2.415833333333334E+009;1.601325869560242E-001;-6.205541267991066E-002;2.394578186795116E-003;3.023930359631777E-003;
2.416000000000000E+009;1.598073691129684E-001;-6.332395970821381E-002;2.465320285409689E-003;2.837959444150329E-003;
2.416166666666667E+009;1.598125994205475E-001;-6.451903283596039E-002;2.438758732751012E-003;2.622532891109586E-003;
2.416333333333334E+009;1.595246195793152E-001;-6.571269780397415E-002;2.491000108420849E-003;2.589660929515958E-003;
2.416500000000000E+009;1.592605412006378E-001;-6.696462631225586E-002;2.541630296036601E-003;2.449818421155214E-003;
2.416666666666667E+009;1.589481681585312E-001;-6.808449327945709E-002;2.506752964109182E-003;2.401314675807953E-003;
2.416833333333334E+009;1.587582379579544E-001;-6.936246901750565E-002;2.526479074731469E-003;2.531766891479492E-003;
2.417000000000000E+009;1.582695096731186E-001;-7.044764608144760E-002;2.516885986551642E-003;2.416767878457904E-003;
2.417166666666667E+009;1.578395664691925E-001;-7.145845144987106E-002;2.523046219721437E-003;2.278367290273309E-003;
2.417333333333334E+009;1.575889289379120E-001;-7.256878167390823E-002;2.525632269680500E-003;2.409774344414473E-003;
2.417500000000000E+009;1.573720425367355E-001;-7.365265488624573E-002;2.672380302101374E-003;2.324992790818214E-003;
2.417666666666667E+009;1.570646613836289E-001;-7.432559877634049E-002;2.718481933698058E-003;2.186192432418466E-003;
2.417833333333334E+009;1.567211896181107E-001;-7.519845664501190E-002;2.886615227907896E-003;2.377431839704514E-003;
2.418000000000000E+009;1.563303172588348E-001;-7.619301229715347E-002;2.927941503003240E-003;2.315704477950931E-003;
2.418166666666667E+009;1.560995727777481E-001;-7.673905044794083E-002;3.011742606759071E-003;2.148633357137442E-003;
2.418333333333334E+009;1.560336053371429E-001;-7.776024937629700E-002;3.341340227052569E-003;2.057369332760572E-003;
2.418500000000000E+009;1.556482166051865E-001;-7.851359993219376E-002;3.412925405427814E-003;2.040585735812783E-003;
2.418666666666667E+009;1.554932892322540E-001;-7.934229075908661E-002;3.493649885058403E-003;1.958924112841487E-003;
2.418833333333334E+009;1.550556719303131E-001;-8.008682727813721E-002;3.498059697449207E-003;1.851699315011501E-003;
2.419000000000000E+009;1.545283645391464E-001;-8.072035014629364E-002;3.601566888391972E-003;1.648318837396801E-003;
2.419166666666667E+009;1.542447358369827E-001;-8.134835958480835E-002;3.594866953790188E-003;1.540840370580554E-003;
2.419333333333334E+009;1.537778079509735E-001;-8.183040469884872E-002;3.730001859366894E-003;1.459098071791232E-003;
2.419500000000000E+009;1.535675823688507E-001;-8.279975503683090E-002;3.869974985718727E-003;1.145384623669088E-003;
2.419666666666667E+009;1.533470749855042E-001;-8.341255784034729E-002;3.905139863491058E-003;1.165658351965249E-003;
2.419833333333334E+009;1.529048234224320E-001;-8.377540111541748E-002;3.855519695207477E-003;8.988915942609310E-004;
2.420000000000000E+009;1.525466889142990E-001;-8.447571843862534E-002;3.909834660589695E-003;7.102989475242794E-004;
2.420166666666667E+009;1.520709693431854E-001;-8.496981114149094E-002;3.842438803985715E-003;6.515871500596404E-004;
2.420333333333334E+009;1.517788916826248E-001;-8.558906614780426E-002;4.036525264382362E-003;3.151116543449462E-004;
2.420500000000000E+009;1.514514684677124E-001;-8.604622632265091E-002;3.975760191679001E-003;2.526239841245115E-004;
2.420666666666667E+009;1.510302871465683E-001;-8.656512945890427E-002;4.021549131721258E-003;1.094299004762434E-004;
2.420833333333334E+009;1.506371647119522E-001;-8.722022920846939E-002;3.986333962529898E-003;-1.437406535842456E-005;
2.421000000000000E+009;1.502367407083511E-001;-8.798068016767502E-002;3.802780527621508E-003;-2.047323796432465E-004;
2.421166666666667E+009;1.498320698738098E-001;-8.854459971189499E-002;3.813181770965457E-003;-3.808416950050741E-004;
2.421333333333334E+009;1.493429690599442E-001;-8.934798091650009E-002;3.703224705532193E-003;-4.813637351617217E-004;
2.421500000000000E+009;1.486924439668655E-001;-9.001792222261429E-002;3.544185310602188E-003;-6.134763825684786E-004;
2.421666666666667E+009;1.482856869697571E-001;-9.058996289968491E-002;3.512222552672029E-003;-6.874260725453496E-004;
2.421833333333334E+009;1.477144509553909E-001;-9.138380736112595E-002;3.312208224087954E-003;-7.529154536314309E-004;
2.422000000000000E+009;1.469780951738358E-001;-9.203446656465530E-002;3.230551723390818E-003;-8.642598986625671E-004;
2.422166666666667E+009;1.464808732271195E-001;-9.281884133815765E-002;3.204958280548453E-003;-1.029077917337418E-003;
2.422333333333334E+009;1.461314857006073E-001;-9.357543289661408E-002;3.143978072330356E-003;-9.097878355532885E-004;
2.422500000000000E+009;1.453939527273178E-001;-9.441833198070526E-002;3.134393133223057E-003;-1.207525841891766E-003;
2.422666666666667E+009;1.446515172719955E-001;-9.516536444425583E-002;2.943417988717556E-003;-1.205556211061776E-003;
2.422833333333334E+009;1.440970301628113E-001;-9.602161496877670E-002;3.014632966369391E-003;-1.056163688190281E-003;
2.423000000000000E+009;1.433314532041550E-001;-9.692550450563431E-002;2.855855040252209E-003;-1.235746894963086E-003;
2.423166666666667E+009;1.428776234388351E-001;-9.781089425086975E-002;2.829619450494647E-003;-1.030560815706849E-003;
2.423333333333334E+009;1.421250998973846E-001;-9.867533296346664E-002;2.848681993782520E-003;-1.158427447080612E-003;
2.423500000000000E+009;1.415656059980393E-001;-9.952391684055328E-002;2.805184107273817E-003;-1.272707362659276E-003;
2.423666666666667E+009;1.406681090593338E-001;-1.005165427923203E-001;2.725285012274981E-003;-1.384451286867261E-003;
2.423833333333334E+009;1.401855200529099E-001;-1.014301702380180E-001;2.748200669884682E-003;-1.231493894010782E-003;
2.424000000000000E+009;1.393268853425980E-001;-1.022403910756111E-001;2.814370440319181E-003;-1.380337751470506E-003;
2.424166666666667E+009;1.386529505252838E-001;-1.033099591732025E-001;2.670356072485447E-003;-1.305121113546193E-003;
2.424333333333334E+009;1.381101608276367E-001;-1.041898727416992E-001;2.734664361923933E-003;-1.378380227833986E-003;
2.424500000000000E+009;1.376276761293411E-001;-1.051997765898705E-001;2.588519128039479E-003;-1.501943217590451E-003;
2.424666666666667E+009;1.370881050825119E-001;-1.060056462883949E-001;2.592078875750303E-003;-1.446189125999808E-003;
2.424833333333334E+009;1.363366395235062E-001;-1.068782061338425E-001;2.560857683420181E-003;-1.415877719409764E-003;
2.425000000000000E+009;1.359131336212158E-001;-1.080698817968369E-001;2.694565337151289E-003;-1.758628874085844E-003;
2.425166666666667E+009;1.352063417434692E-001;-1.089940369129181E-001;2.612218726426363E-003;-1.623432850465179E-003;
2.425333333333334E+009;1.347786784172058E-001;-1.099983379244804E-001;2.545721596106887E-003;-1.767090638168156E-003;
2.425500000000000E+009;1.344387382268906E-001;-1.108604818582535E-001;2.623419510200620E-003;-1.798916608095169E-003;
2.425666666666667E+009;1.337705850601196E-001;-1.119992136955261E-001;2.365545136854053E-003;-1.715544494800270E-003;
2.425833333333334E+009;1.332877874374390E-001;-1.129280999302864E-001;2.484291791915894E-003;-1.930050086230040E-003;
2.426000000000000E+009;1.328862011432648E-001;-1.139389351010323E-001;2.214075997471809E-003;-2.028960501775146E-003;
2.426166666666667E+009;1.327170729637146E-001;-1.149850934743881E-001;2.309579635038972E-003;-2.119119279086590E-003;
2.426333333333334E+009;1.321163624525070E-001;-1.157839894294739E-001;2.166201360523701E-003;-1.952738733962178E-003;
2.426500000000000E+009;1.318920552730560E-001;-1.167213469743729E-001;2.172152511775494E-003;-2.122580772265792E-003;
2.426666666666667E+009;1.315927505493164E-001;-1.175766959786415E-001;2.084068255499005E-003;-2.106049330905080E-003;
2.426833333333334E+009;1.310792416334152E-001;-1.184298321604729E-001;1.927639008499682E-003;-2.161372220143676E-003;
2.427000000000000E+009;1.306976228952408E-001;-1.193131878972054E-001;2.109620720148087E-003;-2.216000575572252E-003;
2.427166666666667E+009;1.303421407938004E-001;-1.199891418218613E-001;1.985450042411685E-003;-2.246363088488579E-003;
2.427333333333334E+009;1.299609839916229E-001;-1.209014952182770E-001;1.837040414102376E-003;-2.228833269327879E-003;
2.427500000000000E+009;1.297309100627899E-001;-1.215537190437317E-001;1.643984112888575E-003;-2.420155331492424E-003;
2.427666666666667E+009;1.293439567089081E-001;-1.224079579114914E-001;1.912680803798139E-003;-2.310945419594646E-003;
2.427833333333334E+009;1.291333436965942E-001;-1.229092553257942E-001;1.812423113733530E-003;-2.367459470406175E-003;
