# Version 1.00
#
freq[Hz];re:Trc1_S11;im:Trc1_S11;re:Trc2_S21;im:Trc2_S21;
2.400000000000000E+009;1.567327529191971E-001;1.053782105445862E-001;3.062442876398563E-003;-9.107186342589557E-004;
2.400166666666667E+009;1.566914170980454E-001;1.031800433993340E-001;3.034993773326278E-003;-1.122166402637959E-003;
2.400333333333334E+009;1.571887582540512E-001;1.011191755533218E-001;3.117819083854556E-003;-1.573336194269359E-003;
2.400500000000000E+009;1.572074592113495E-001;9.846130013465881E-002;3.113425802439451E-003;-1.695797662250698E-003;
2.400666666666667E+009;1.577398031949997E-001;9.602461010217667E-002;3.117893589660525E-003;-2.135401358827949E-003;
2.400833333333334E+009;1.578418761491776E-001;9.349413216114044E-002;2.967774635180831E-003;-2.409077947959304E-003;
2.401000000000000E+009;1.583352833986282E-001;9.075403958559036E-002;2.675647614523768E-003;-2.689078915864229E-003;
2.401166666666667E+009;1.584327965974808E-001;8.822654932737351E-002;2.799457404762507E-003;-2.964452141895890E-003;
2.401333333333334E+009;1.589297950267792E-001;8.571609854698181E-002;2.313476987183094E-003;-3.121761139482260E-003;
2.401500000000000E+009;1.594635546207428E-001;8.289574086666107E-002;2.083948347717524E-003;-3.441655775532126E-003;
2.401666666666667E+009;1.599002629518509E-001;8.028345555067062E-002;1.622477429918945E-003;-3.546967869624496E-003;
2.401833333333334E+009;1.603827774524689E-001;7.761121541261673E-002;1.341681578196585E-003;-3.575366456061602E-003;
2.402000000000000E+009;1.611818522214890E-001;7.522381842136383E-002;1.003540586680174E-003;-3.637905931100249E-003;
2.402166666666667E+009;1.620864123106003E-001;7.283711433410645E-002;8.058343664743006E-004;-3.788108937442303E-003;
2.402333333333334E+009;1.628936827182770E-001;7.043331861495972E-002;4.092745366506279E-004;-3.745296271517873E-003;
2.402500000000000E+009;1.640522927045822E-001;6.785944849252701E-002;2.673880080692470E-004;-3.552531823515892E-003;
2.402666666666667E+009;1.649891585111618E-001;6.567307561635971E-002;-9.068334475159645E-005;-3.550081280991435E-003;
2.402833333333334E+009;1.660328507423401E-001;6.333804130554199E-002;-3.392604412510991E-004;-3.327499376609922E-003;
2.403000000000000E+009;1.673964858055115E-001;6.133918091654778E-002;-5.614102119579911E-004;-3.089579287916422E-003;
2.403166666666667E+009;1.686835438013077E-001;5.958362296223640E-002;-7.471971184713766E-005;-4.167037084698677E-003;
2.403333333333334E+009;1.705293655395508E-001;5.728659778833389E-002;-1.578294089995325E-003;-3.518254263326526E-003;
2.403500000000000E+009;1.713678836822510E-001;5.512747168540955E-002;1.384859788231552E-004;-2.526432042941451E-003;
2.403666666666667E+009;1.730661094188690E-001;5.339867249131203E-002;-4.323532048147172E-004;-3.867016639560461E-003;
2.403833333333334E+009;1.744833737611771E-001;5.104362219572067E-002;-1.119610271416605E-003;-1.656914246268570E-003;
2.404000000000000E+009;1.761956810951233E-001;5.043546855449677E-002;-2.078108256682754E-003;-4.025646485388279E-003;
2.404166666666667E+009;1.775229573249817E-001;4.850122332572937E-002;-1.377025619149208E-003;-2.981844125315547E-003;
2.404333333333334E+009;1.784544289112091E-001;4.704122245311737E-002;-1.210331800393760E-003;-2.485562115907669E-003;
2.404500000000000E+009;1.799734979867935E-001;4.513526335358620E-002;-9.464494069106877E-004;-1.213556271977723E-003;
2.404666666666667E+009;1.821168363094330E-001;4.452671483159065E-002;-2.876835176721215E-003;-1.655708416365087E-003;
2.404833333333334E+009;1.828817725181580E-001;4.355394467711449E-002;-1.979968510568142E-003;-2.299844287335873E-003;
2.405000000000000E+009;1.837583184242249E-001;4.279009997844696E-002;-1.994661288335919E-003;-2.051410498097539E-003;
2.405166666666667E+009;1.854978501796722E-001;4.176642000675201E-002;-2.135159214958549E-003;-2.044778084382415E-003;
2.405333333333334E+009;1.861894279718399E-001;4.167059436440468E-002;-2.190320752561092E-003;-1.824341481551528E-003;
2.405500000000000E+009;1.874587982892990E-001;4.086554050445557E-002;-2.223768504336476E-003;-1.796668861061335E-003;
2.405666666666667E+009;1.884472817182541E-001;4.025407508015633E-002;-2.294025383889675E-003;-1.595007604919374E-003;
2.405833333333334E+009;1.895791292190552E-001;3.989417105913162E-002;-2.466822741553187E-003;-1.448227325454354E-003;
2.406000000000000E+009;1.902832984924316E-001;3.962460160255432E-002;-2.441341523081064E-003;-1.155205070972443E-003;
2.406166666666667E+009;1.912402361631393E-001;3.933562338352203E-002;-2.274293219670653E-003;-1.153622171841562E-003;
2.406333333333334E+009;1.918650716543198E-001;3.920416161417961E-002;-2.362048020586371E-003;-8.722366183064878E-004;
2.406500000000000E+009;1.924845725297928E-001;3.892424330115318E-002;-2.538825152441859E-003;-7.063235389068723E-004;
2.406666666666667E+009;1.930054873228073E-001;3.878374025225639E-002;-2.582785440608859E-003;-5.873817135579884E-004;
2.406833333333334E+009;1.933651417493820E-001;3.860137239098549E-002;-2.515052445232868E-003;-2.770633436739445E-004;
2.407000000000000E+009;1.936807781457901E-001;3.865987062454224E-002;-2.353049581870437E-003;-1.475602184655145E-004;
2.407166666666667E+009;1.940292567014694E-001;3.837533295154572E-002;-2.379022073000670E-003;-1.446032638341421E-005;
2.407333333333334E+009;1.938382685184479E-001;3.826088830828667E-002;-2.232349244877696E-003;1.077764172805473E-004;
2.407500000000000E+009;1.939660459756851E-001;3.818807005882263E-002;-2.040286315605044E-003;2.579231513664126E-004;
2.407666666666667E+009;1.939196139574051E-001;3.791808336973190E-002;-2.069921232759953E-003;2.505263255443424E-004;
2.407833333333334E+009;1.934959143400192E-001;3.759679570794106E-002;-2.090462017804384E-003;6.365364533849061E-004;
2.408000000000000E+009;1.933907419443131E-001;3.729894757270813E-002;-2.082997467368841E-003;6.159581243991852E-004;
2.408166666666667E+009;1.929474323987961E-001;3.684406355023384E-002;-1.886373269371688E-003;8.154526003636420E-004;
2.408333333333334E+009;1.926601827144623E-001;3.614310547709465E-002;-1.670857425779104E-003;8.083435241132975E-004;
2.408500000000000E+009;1.920486837625504E-001;3.573486953973770E-002;-1.515023061074317E-003;9.277703356929123E-004;
2.408666666666667E+009;1.915158331394196E-001;3.508893400430679E-002;-1.449831761419773E-003;9.416641551069915E-004;
2.408833333333334E+009;1.910716742277145E-001;3.427027538418770E-002;-1.314058317802846E-003;1.006258302368224E-003;
2.409000000000000E+009;1.902030706405640E-001;3.329455107450485E-002;-1.251094625331461E-003;1.169307157397270E-003;
2.409166666666667E+009;1.895354688167572E-001;3.233872726559639E-002;-9.257785277441144E-004;1.065561547875404E-003;
2.409333333333334E+009;1.888975501060486E-001;3.122120723128319E-002;-6.965049542486668E-004;1.119391643442214E-003;
2.409500000000000E+009;1.880937516689301E-001;2.995082922279835E-002;-6.467382772825658E-004;1.091352314688265E-003;
2.409666666666667E+009;1.872217804193497E-001;2.856379747390747E-002;-4.818094894289970E-004;1.183293992653489E-003;
2.409833333333334E+009;1.864832192659378E-001;2.718392945826054E-002;-3.336457011755556E-004;9.309783345088363E-004;
2.410000000000000E+009;1.856979876756668E-001;2.564277872443199E-002;-1.573358167661354E-004;8.707517408765853E-004;
2.410166666666667E+009;1.848611682653427E-001;2.401200681924820E-002;-1.148891533375718E-005;8.103597792796791E-004;
2.410333333333334E+009;1.842058449983597E-001;2.235801331698895E-002;1.839153410401195E-004;5.571758374571800E-004;
2.410500000000000E+009;1.834136992692947E-001;2.045027166604996E-002;1.697548432275653E-004;5.028158193454146E-004;
2.410666666666667E+009;1.827005147933960E-001;1.842520199716091E-002;1.442909560864791E-004;5.774670280516148E-004;
2.410833333333334E+009;1.823832392692566E-001;1.630485802888870E-002;2.447709266562015E-004;3.243919345550239E-004;
2.411000000000000E+009;1.817848384380341E-001;1.447847951203585E-002;5.896570291952230E-005;1.962903916137293E-004;
2.411166666666667E+009;1.811501532793045E-001;1.255532260984182E-002;2.828760771080852E-004;-1.011034109978937E-004;
2.411333333333334E+009;1.810471266508102E-001;1.016117166727781E-002;1.221552956849337E-004;8.966329914983362E-005;
2.411500000000000E+009;1.807094067335129E-001;7.946174591779709E-003;-8.854155748849735E-005;-1.508784334873781E-004;
2.411666666666667E+009;1.805667430162430E-001;6.066359579563141E-003;3.489030495984480E-005;1.590700958331581E-005;
2.411833333333334E+009;1.802580356597900E-001;3.832528367638588E-003;1.936275566549739E-006;-1.349372905679047E-004;
2.412000000000000E+009;1.804955899715424E-001;1.464864355511963E-003;-1.234385999850929E-004;-1.184544598800130E-004;
2.412166666666667E+009;1.807477772235870E-001;-6.136468728072941E-004;-9.136561857303605E-005;-2.857089275494218E-004;
2.412333333333334E+009;1.808888912200928E-001;-2.804622752591968E-003;2.427274012006819E-005;-2.536208194214851E-004;
2.412500000000000E+009;1.813249289989471E-001;-4.950844682753086E-003;-2.990859502460808E-004;-2.910936600528657E-004;
2.412666666666667E+009;1.819112300872803E-001;-7.187922950834036E-003;-2.578095300123096E-004;-3.447545168455690E-004;
2.412833333333334E+009;1.823438704013825E-001;-9.373354725539684E-003;-1.688822812866420E-004;-7.524407556047663E-005;
2.413000000000000E+009;1.833672821521759E-001;-1.146427728235722E-002;-1.399964385200292E-004;-2.779712085612118E-004;
2.413166666666667E+009;1.839214414358139E-001;-1.343258656561375E-002;-2.962418657261878E-004;-3.134459548164159E-004;
2.413333333333334E+009;1.849555671215057E-001;-1.551860384643078E-002;-1.740915176924318E-004;-4.160939133726060E-004;
2.413500000000000E+009;1.856954246759415E-001;-1.758108288049698E-002;-1.883104705484584E-004;-4.316126287449151E-004;
2.413666666666667E+009;1.867874264717102E-001;-1.954245008528233E-002;-1.031715801218525E-004;-5.411313031800091E-004;
2.413833333333334E+009;1.876643151044846E-001;-2.142720483243465E-002;-1.911367726279423E-004;-5.681937909685075E-004;
2.414000000000000E+009;1.886997371912003E-001;-2.323666028678417E-002;-2.476504305377603E-004;-6.928009679540992E-004;
2.414166666666667E+009;1.899391859769821E-001;-2.478456869721413E-002;-1.633953070268035E-004;-7.624250720255077E-004;
2.414333333333334E+009;1.907176971435547E-001;-2.673364430665970E-002;-2.465824945829809E-004;-7.942423690110445E-004;
2.414500000000000E+009;1.917675137519836E-001;-2.807079441845417E-002;-4.437047755345702E-004;-7.845798972994089E-004;
2.414666666666667E+009;1.927524656057358E-001;-2.946588024497032E-002;-4.612423072103411E-004;-9.899237193167210E-004;
2.414833333333334E+009;1.938073933124542E-001;-3.070408292114735E-002;-6.579970358870924E-004;-9.932602988556027E-004;
2.415000000000000E+009;1.947667598724365E-001;-3.215084597468376E-002;-8.214395493268967E-004;-9.170740959234536E-004;
2.415166666666667E+009;1.957912743091583E-001;-3.316289931535721E-002;-1.005377271212637E-003;-1.166279194876552E-003;
2.415333333333334E+009;1.967461854219437E-001;-3.402229025959969E-002;-1.119984197430313E-003;-1.124946866184473E-003;
2.415500000000000E+009;1.976311504840851E-001;-3.493079170584679E-002;-1.205148990266025E-003;-8.609660435467959E-004;
2.415666666666667E+009;1.985045671463013E-001;-3.583033010363579E-002;-1.463277381844819E-003;-8.656878490000963E-004;
2.415833333333334E+009;1.992605030536652E-001;-3.648741170763969E-002;-1.631446764804423E-003;-7.837459561415017E-004;
2.416000000000000E+009;1.997968405485153E-001;-3.716716542840004E-002;-1.631501014344394E-003;-5.649788072332740E-004;
2.416166666666667E+009;2.003712207078934E-001;-3.780818730592728E-002;-1.837699091993272E-003;-6.895445985719562E-004;
2.416333333333334E+009;2.009878158569336E-001;-3.824752196669579E-002;-1.870975946076214E-003;-2.765316166915000E-004;
2.416500000000000E+009;2.012367695569992E-001;-3.867463022470474E-002;-1.968965167179704E-003;-1.695054670562968E-004;
2.416666666666667E+009;2.014608830213547E-001;-3.912574797868729E-002;-2.074456773698330E-003;6.597990432055667E-005;
2.416833333333334E+009;2.014786601066589E-001;-3.939865529537201E-002;-2.092154463753104E-003;2.048487949650735E-004;
2.417000000000000E+009;2.017275691032410E-001;-3.962877020239830E-002;-2.122511388733983E-003;3.611125866882503E-004;
2.417166666666667E+009;2.012988030910492E-001;-3.977724909782410E-002;-2.029123716056347E-003;5.684893112629652E-004;
2.417333333333334E+009;2.011802047491074E-001;-3.973486274480820E-002;-1.793275121599436E-003;8.744296501390636E-004;
2.417500000000000E+009;2.008277028799057E-001;-4.000102356076241E-002;-1.845814520493150E-003;9.825350716710091E-004;
2.417666666666667E+009;2.003384679555893E-001;-4.005998373031616E-002;-1.653563696891069E-003;8.480144897475839E-004;
2.417833333333334E+009;1.999105066061020E-001;-4.001880809664726E-002;-1.615215674974024E-003;1.178096747025847E-003;
2.418000000000000E+009;1.994065195322037E-001;-4.002693295478821E-002;-1.555057941004634E-003;1.108724973164499E-003;
2.418166666666667E+009;1.986173540353775E-001;-4.023828729987145E-002;-1.538570155389607E-003;1.140224165283144E-003;
2.418333333333334E+009;1.978706717491150E-001;-4.024706035852432E-002;-1.430248492397368E-003;1.376050291582942E-003;
2.418500000000000E+009;1.970000714063644E-001;-4.047033563256264E-002;-1.283221063204110E-003;1.285470789298415E-003;
2.418666666666667E+009;1.961128264665604E-001;-4.062622413039208E-002;-1.258036587387323E-003;1.327630714513362E-003;
2.418833333333334E+009;1.949763000011444E-001;-4.095428436994553E-002;-1.356425113044679E-003;1.392162404954433E-003;
2.419000000000000E+009;1.939933001995087E-001;-4.139274731278420E-002;-1.237706397660077E-003;1.406479976139963E-003;
2.419166666666667E+009;1.928443014621735E-001;-4.186582565307617E-002;-1.175330136902630E-003;1.443467452190816E-003;
2.419333333333334E+009;1.915931254625320E-001;-4.240344837307930E-002;-1.105178147554398E-003;1.671321108005941E-003;
2.419500000000000E+009;1.902919858694077E-001;-4.306711629033089E-002;-1.027523772791028E-003;1.825231942348182E-003;
2.419666666666667E+009;1.889489144086838E-001;-4.397510737180710E-002;-1.060656621120870E-003;1.909969490952790E-003;
2.419833333333334E+009;1.876669526100159E-001;-4.465675726532936E-002;-8.014714694581926E-004;1.980767119675875E-003;
2.420000000000000E+009;1.862461715936661E-001;-4.575666412711144E-002;-7.550411974079907E-004;2.148749073967338E-003;
2.420166666666667E+009;1.849537342786789E-001;-4.670573025941849E-002;-6.734986091032624E-004;2.193719148635864E-003;
2.420333333333334E+009;1.835541725158691E-001;-4.791720584034920E-002;-4.285339091438800E-004;2.240640111267567E-003;
2.420500000000000E+009;1.821396499872208E-001;-4.926748573780060E-002;-2.772443403955549E-004;2.362851751968265E-003;
2.420666666666667E+009;1.807001680135727E-001;-5.027845129370689E-002;-1.483007363276556E-004;2.396544441580772E-003;
2.420833333333334E+009;1.793239116668701E-001;-5.180877074599266E-002;1.533753966214135E-004;2.476010937243700E-003;
2.421000000000000E+009;1.780343800783157E-001;-5.320821702480316E-002;4.359390295576304E-004;2.385343192145228E-003;
2.421166666666667E+009;1.768826246261597E-001;-5.480232089757919E-002;6.280040252022445E-004;2.485980512574315E-003;
2.421333333333334E+009;1.753336340188980E-001;-5.619454756379128E-002;8.808877901174128E-004;2.312677679583430E-003;
2.421500000000000E+009;1.741225868463516E-001;-5.818689614534378E-002;1.070484984666109E-003;2.122498583048582E-003;
2.421666666666667E+009;1.730766594409943E-001;-5.979815870523453E-002;1.253140391781926E-003;2.155404770746827E-003;
2.421833333333334E+009;1.720346957445145E-001;-6.165355816483498E-002;1.392305013723671E-003;1.948131946846843E-003;
2.422000000000000E+009;1.711698919534683E-001;-6.324108690023422E-002;1.573698711581528E-003;1.671070582233369E-003;
2.422166666666667E+009;1.703010946512222E-001;-6.527741253376007E-002;1.707823132164776E-003;1.405071932822466E-003;
2.422333333333334E+009;1.693084686994553E-001;-6.710720062255859E-002;1.822455087676644E-003;1.111237332224846E-003;
2.422500000000000E+009;1.685447096824646E-001;-6.885894387960434E-002;1.716157188639045E-003;9.923583129420877E-004;
2.422666666666667E+009;1.679622530937195E-001;-7.059699296951294E-002;1.733593409880996E-003;7.309140055440366E-004;
2.422833333333334E+009;1.674440205097199E-001;-7.262235134840012E-002;1.705411938019097E-003;7.547531276941299E-004;
2.423000000000000E+009;1.670996397733688E-001;-7.442644983530045E-002;1.695936080068350E-003;3.623487718869001E-004;
2.423166666666667E+009;1.665791720151901E-001;-7.628455013036728E-002;1.671251375228167E-003;3.342970449011773E-004;
2.423333333333334E+009;1.663584113121033E-001;-7.803376764059067E-002;1.600673072971404E-003;5.685061842086725E-005;
2.423500000000000E+009;1.662744879722595E-001;-7.974435389041901E-002;1.456491067074239E-003;-1.194150318042375E-004;
2.423666666666667E+009;1.662393957376480E-001;-8.143823593854904E-002;1.337281661108136E-003;-2.032898482866585E-004;
2.423833333333334E+009;1.659847199916840E-001;-8.295919001102448E-002;1.325148157775402E-003;-4.007318348158151E-004;
2.424000000000000E+009;1.660003364086151E-001;-8.489202708005905E-002;1.348518766462803E-003;-4.599083331413567E-004;
2.424166666666667E+009;1.659785211086273E-001;-8.630926907062531E-002;9.615854360163212E-004;-5.306255770847201E-004;
2.424333333333334E+009;1.661927103996277E-001;-8.774144947528839E-002;1.112037338316441E-003;-5.732154822908342E-004;
2.424500000000000E+009;1.663327515125275E-001;-8.939111977815628E-002;9.226030670106411E-004;-7.788700750097632E-004;
2.424666666666667E+009;1.663509756326675E-001;-9.052935242652893E-002;7.244356092996895E-004;-7.337182178162038E-004;
2.424833333333334E+009;1.669384539127350E-001;-9.185847640037537E-002;5.998151027597487E-004;-8.240179740823805E-004;
2.425000000000000E+009;1.670506596565247E-001;-9.300559759140015E-002;3.997356106992811E-004;-1.016123220324516E-003;
2.425166666666667E+009;1.672539412975311E-001;-9.409830719232559E-002;2.057383244391531E-004;-1.005186815746129E-003;
2.425333333333334E+009;1.674978137016296E-001;-9.506992995738983E-002;8.071624324657023E-005;-9.261168888770044E-004;
2.425500000000000E+009;1.677789986133575E-001;-9.611120820045471E-002;-1.276508992305026E-004;-8.773255394771695E-004;
2.425666666666667E+009;1.680634021759033E-001;-9.683327376842499E-002;-3.982061462011188E-004;-1.082025701180100E-003;
2.425833333333334E+009;1.682556718587875E-001;-9.776619076728821E-002;-5.567017360590398E-004;-8.234703564085066E-004;
2.426000000000000E+009;1.684816926717758E-001;-9.833519160747528E-002;-5.476129590533674E-004;-7.274292875081301E-004;
2.426166666666667E+009;1.687679886817932E-001;-9.893239289522171E-002;-6.934651173651218E-004;-5.607131752185524E-004;
2.426333333333334E+009;1.687404662370682E-001;-9.963149577379227E-002;-8.051868062466383E-004;-3.756935475394130E-004;
2.426500000000000E+009;1.690184473991394E-001;-9.998836368322372E-002;-9.302068501710892E-004;-2.053112839348614E-004;
2.426666666666667E+009;1.692631244659424E-001;-1.003980487585068E-001;-1.014483277685940E-003;-1.683945010881871E-004;
2.426833333333334E+009;1.694532632827759E-001;-1.009457334876061E-001;-1.035119756124914E-003;7.866310625104234E-007;
2.427000000000000E+009;1.692774295806885E-001;-1.013280227780342E-001;-1.055250409990549E-003;2.568598756624851E-005;
2.427166666666667E+009;1.693363338708878E-001;-1.015045046806335E-001;-1.017270842567086E-003;1.999884843826294E-004;
2.427333333333334E+009;1.692239046096802E-001;-1.019918397068977E-001;-1.006600330583751E-003;1.680495770415291E-004;
2.427500000000000E+009;1.689407676458359E-001;-1.023804545402527E-001;-1.019556308165193E-003;3.459050203673542E-004;
2.427666666666667E+009;1.686766296625137E-001;-1.026239842176437E-001;-9.686939883977175E-004;4.530612204689533E-004;
