# Hz S RI R 
2400000000.0000000000 0.158274993300437899490518134371 0.063129030168056488037109375000 -0.003990252967923879623413085938 0.000126405095215886804178515024 0 0 0 0 
2400166666.6666665077 0.157991185784339904785156250000 0.061653565615415573120117187500 -0.004055029712617397308349609375 0.000342168117640540003776550293 0 0 0 0 
2400333333.3333334923 0.157873094081878689864950615629 0.059544272720813751220703125000 -0.003964314237236976623535156250 0.000433269568020477890968322754 0 0 0 0 
2400500000.0000000000 0.158012732863426208496093750000 0.057728555053472518920898437500 -0.003831262933090329170227050781 0.000499222951475530862808227539 0 0 0 0 
2400666666.6666665077 0.157731726765632601638955634371 0.055766258388757712627370466407 -0.003884278237819672064540243994 0.000586330308578908443450927734 0 0 0 0 
2400833333.3333334923 0.157807677984237698654013115629 0.053967647254467010498046875000 -0.003817499615252017974853515625 0.000759647169616073369979858398 0 0 0 0 
2401000000.0000000000 0.157907575368881197830361884371 0.051926061511039726947824846093 -0.003748683957383037047145224463 0.000878865423146635293960571289 0 0 0 0 
2401166666.6666665077 0.158056333661079406738281250000 0.049829769879579537128488908593 -0.003767273621633648872375488281 0.000737467315047979354858398438 0 0 0 0 
2401333333.3333334923 0.158099979162216186523437500000 0.047702666372060782695729841407 -0.003694186452776194052455283057 0.000863671361003071069717407227 0 0 0 0 
2401500000.0000000000 0.158541947603225708007812500000 0.045598354190587997436523437500 -0.003653617808595300154445029150 0.001123443478718400001525878906 0 0 0 0 
2401666666.6666665077 0.158777132630348205566406250000 0.043678920716047286987304687500 -0.003798668971285223960876464844 0.001312771579250693104387592847 0 0 0 0 
2401833333.3333334923 0.159195110201835604568643134371 0.041433464735746376728098283593 -0.003695631632581353187561035156 0.001395953469909728007075644385 0 0 0 0 
2402000000.0000000000 0.159549251198768587967080634371 0.039498597383499152446706403907 -0.003700005123391747908351279150 0.001382324146106838963152241284 0 0 0 0 
2402166666.6666665077 0.159900993108749389648437500000 0.037435811012983322143554687500 -0.003691230202093720002415322412 0.001528943539597094058990478516 0 0 0 0 
2402333333.3333334923 0.160340487957000704666299384371 0.035525973886251449584960937500 -0.003521846840158104896545410156 0.001872097724117339091060019385 0 0 0 0 
2402500000.0000000000 0.161221802234649713714276231258 0.033716510981321341777761091407 -0.003626471618190408186671591650 0.001762635190971195914624858325 0 0 0 0 
2402666666.6666665077 0.161854520440101595779580634371 0.031839180737733840942382812500 -0.003702035872265696959254599463 0.002065279753878713087794638525 0 0 0 0 
2402833333.3333334923 0.162479817867279108245526231258 0.030135037377476688730260079296 -0.003668418619781732992884970557 0.002137594623491168022155761719 0 0 0 0 
2403000000.0000000000 0.163324460387229891678018134371 0.028418134897947311401367187500 -0.003521166043356060981750488281 0.002379185520112514929530478369 0 0 0 0 
2403166666.6666665077 0.164351224899291992187500000000 0.026873389258980751037597656250 -0.003192778443917632102966308594 0.002440448617562652067897177588 0 0 0 0 
2403333333.3333334923 0.165210217237472506424111884371 0.025306660681962970388392264454 -0.003398057073354721069335937500 0.002661903155967593193054199219 0 0 0 0 
2403500000.0000000000 0.165962010622024508377236884371 0.023763936012983318674107735546 -0.003263991326093674139735556494 0.002680303761735558943507529150 0 0 0 0 
2403666666.6666665077 0.166975855827331487457598768742 0.022166883572936061513880545704 -0.003243245184421538872959756006 0.002866915194317698912379599463 0 0 0 0 
2403833333.3333334923 0.168064504861831692794638115629 0.020945236086845401418665701954 -0.003044759621843696074244833838 0.002939837751910090012791298975 0 0 0 0 
2404000000.0000000000 0.168945297598838806152343750000 0.019714359194040298461914062500 -0.002932617673650383949279785156 0.003123411675915122032165527344 0 0 0 0 
2404166666.6666665077 0.170024693012237604339276231258 0.018470568582415580749511718750 -0.002793084364384413199183798682 0.003352208528667687936070107568 0 0 0 0 
2404333333.3333334923 0.170931443572044400314169365629 0.017477931454777721059778983204 -0.002854685531929134888889931787 0.003443480702117085890529013525 0 0 0 0 
2404500000.0000000000 0.171849429607391412933026231258 0.016325764358043670654296875000 -0.002588411560282111167907714844 0.003514657262712717056274414062 0 0 0 0 
2404666666.6666665077 0.172847568988800104339276231258 0.015538043342530730855921561329 -0.002481801202520728111267089844 0.003993313293904066085815429688 0 0 0 0 
2404833333.3333334923 0.173920780420303289215411268742 0.014660337939858440053919608204 -0.002364102983847260908839560400 0.003884046338498591943028115381 0 0 0 0 
2405000000.0000000000 0.174792155623436001876669365629 0.013866613619029520207415195898 -0.001946599339134990952135395581 0.003865967271849513053894042969 0 0 0 0 
2405166666.6666665077 0.175601378083229092696981865629 0.013155029155313970393170741602 -0.002080359496176242828369140625 0.004018031992018222808837890625 0 0 0 0 
2405333333.3333334923 0.176654100418090792556924384371 0.012519531883299350738525390625 -0.001896479981951415972468710791 0.004135845694690942764282226562 0 0 0 0 
2405500000.0000000000 0.177271053194999694824218750000 0.012119241058826450002650076954 -0.001621779170818627097486186450 0.004148941487073898315429687500 0 0 0 0 
2405666666.6666665077 0.177948042750358609298544365629 0.011476133950054650742500506055 -0.001308927778154612021205283057 0.004286238923668861389160156250 0 0 0 0 
2405833333.3333334923 0.178445905447006197830361884371 0.011100780218839650589912615430 -0.001125327078625560023664164966 0.004182865843176841735839843750 0 0 0 0 
2406000000.0000000000 0.179205492138862609863281250000 0.010571182705461980647076991602 -0.000979545409791171550750732422 0.004228217061609029769897460938 0 0 0 0 
2406166666.6666665077 0.179531365633010892013388115629 0.010369190946221349888811680273 -0.000819195469375699758529663086 0.004477479029446840286254882812 0 0 0 0 
2406333333.3333334923 0.180232033133506802657919365629 0.010004550218582149850865548046 -0.000448175327619537711143493652 0.004381757229566574096679687500 0 0 0 0 
2406500000.0000000000 0.180411368608474703689736884371 0.009673329070210456848144531250 -0.000234020975767634809017181396 0.004407509230077266693115234375 0 0 0 0 
2406666666.6666665077 0.180584013462066705901776231258 0.009368633851408958435058593750 -0.000208309313165955299704951154 0.004347076173871755599975585938 0 0 0 0 
2406833333.3333334923 0.180860221385955810546875000000 0.009074029512703418731689453125 0.000087984357378445565700531006 0.004365811590105295181274414062 0 0 0 0 
2407000000.0000000000 0.181073293089866610428018134371 0.008818300440907478332519531250 0.000217022650758735808447161264 0.004346990492194890975952148438 0 0 0 0 
2407166666.6666665077 0.181262478232383700271768134371 0.008331622928380966186523437500 0.000379842793336138075024205341 0.004243168048560619354248046875 0 0 0 0 
2407333333.3333334923 0.181003943085670498946981865629 0.007934218272566795349121093750 0.000738162896595895290374755859 0.004228366538882256421560956738 0 0 0 0 
2407500000.0000000000 0.180919393897056607345419365629 0.007662975694984197616577148438 0.000936576921958476305007934570 0.004207758232951164245605468750 0 0 0 0 
2407666666.6666665077 0.180608764290809603592080634371 0.007283696439117193222045898438 0.000929092173464596271514892578 0.004062406718730927381033612988 0 0 0 0 
2407833333.3333334923 0.180295154452323913574218750000 0.006638260092586278915405273438 0.001268184394575655894038535010 0.003909302875399590405935956738 0 0 0 0 
2408000000.0000000000 0.179978847503662109375000000000 0.005997586529701948165893554688 0.001397294923663138909580849756 0.003947503399103879928588867188 0 0 0 0 
2408166666.6666665077 0.179524645209312411209268134371 0.005446971859782934188842773438 0.001530932029709219932556152344 0.003724920097738503976109170068 0 0 0 0 
2408333333.3333334923 0.179317101836204501053018134371 0.004884862340986728668212890625 0.001751270727254450104357075269 0.003786101005971432165858603369 0 0 0 0 
2408500000.0000000000 0.178661823272705105880575615629 0.004062864463776350021362304688 0.001872896682471036911010742188 0.003481123829260468916652060400 0 0 0 0 
2408666666.6666665077 0.178096294403076199630575615629 0.003248095512390137152430868994 0.001926274620927870056749653394 0.003427420975640416145324707031 0 0 0 0 
2408833333.3333334923 0.177284806966781588455361884371 0.002217919332906603813171386719 0.002105708932504057884216308594 0.003214087337255477905273437500 0 0 0 0 
2409000000.0000000000 0.176608234643936212737713731258 0.001231484347954391999485634912 0.002109107328578830199000693213 0.003205368295311927795410156250 0 0 0 0 
2409166666.6666665077 0.176038384437561007400674384371 0.000213852646993473199292859488 0.002240463392809032960178994287 0.003099292516708374023437500000 0 0 0 0 
2409333333.3333334923 0.175226435065269497970419365629 -0.000957233598455786705017089844 0.002251548459753394126892089844 0.002886367263272405104396201025 0 0 0 0 
2409500000.0000000000 0.174506723880767794510049384371 -0.002222387585788964791538857568 0.002457893220707774162292480469 0.002799587789922953085658408057 0 0 0 0 
2409666666.6666665077 0.173759400844574002364950615629 -0.003547354135662316842320107568 0.002529213204979896979091025244 0.002561084926128387884852743994 0 0 0 0 
2409833333.3333334923 0.173027113080024691482705634371 -0.004872824065387248992919921875 0.002549567492678761915919638525 0.002541602589190005822422646631 0 0 0 0 
2410000000.0000000000 0.172508582472801208496093750000 -0.006434212438762187957763671875 0.002521952614188193841221474756 0.002313369885087012810948037256 0 0 0 0 
2410166666.6666665077 0.171732649207115201095419365629 -0.007801423780620098114013671875 0.002621813444420694871189736475 0.002261127578094602064845419775 0 0 0 0 
2410333333.3333334923 0.171044796705245999435263115629 -0.009586313739418983459472656250 0.002818907843902707099914550781 0.002042881445959209962132119287 0 0 0 0 
2410500000.0000000000 0.170620322227477999588174384371 -0.011074926704168319702148437500 0.002657779492437839941737509619 0.001961793750524520874023437500 0 0 0 0 
2410666666.6666665077 0.169962108135223388671875000000 -0.012909540906548500061035156250 0.002637865487486124038696289062 0.001733978511765599033953022534 0 0 0 0 
2410833333.3333334923 0.169567316770553588867187500000 -0.014648865908384319650670235546 0.002818724140524864196777343750 0.001739229075610638098475790869 0 0 0 0 
2411000000.0000000000 0.169031918048858587066973768742 -0.016578465700149539602259451954 0.002720941090956329865696572412 0.001688904128968716101405478369 0 0 0 0 
2411166666.6666665077 0.168645560741424588302450615629 -0.018251085653901100158691406250 0.002768179867416619820835732568 0.001453621429391205093981098706 0 0 0 0 
2411333333.3333334923 0.168408930301666287521200615629 -0.020152606070041659963587576954 0.002895534737035632133483886719 0.001486319815739989063860249097 0 0 0 0 
2411500000.0000000000 0.168098926544189508636151231258 -0.022068209946155551565150076954 0.002816386986523867087123251807 0.001224000705406069972394633716 0 0 0 0 
2411666666.6666665077 0.167967095971107510665731865629 -0.024051340296864509582519531250 0.002871942939236760139465332031 0.001032800762914120934130024487 0 0 0 0 
2411833333.3333334923 0.167887538671493502517861884371 -0.025886328890919688833216483204 0.002798611996695398850681923975 0.000987871782854199409484863281 0 0 0 0 
2412000000.0000000000 0.167760536074638394454794365629 -0.028068484738469120370885079296 0.002887134673073887825012207031 0.000766415672842413187026977539 0 0 0 0 
2412166666.6666665077 0.168000534176826504806356865629 -0.029940545558929439889928048046 0.002867976669222116904017783057 0.000779336842242628335952758789 0 0 0 0 
2412333333.3333334923 0.168238148093223599532919365629 -0.031948734074831008911132812500 0.002917517209425569014308310400 0.000624319887720048427581787109 0 0 0 0 
2412500000.0000000000 0.168259143829345703125000000000 -0.033748641610145568847656250000 0.002884323475882411003112792969 0.000618488236796110868453979492 0 0 0 0 
2412666666.6666665077 0.168477743864059503753338731258 -0.035794951021671302104909528907 0.002796234097331761880161904443 0.000282387714833021218150538312 0 0 0 0 
2412833333.3333334923 0.168854519724845886230468750000 -0.037522237747907638549804687500 0.002914382610470056967494345557 0.000271339289611205512851160870 0 0 0 0 
2413000000.0000000000 0.169278889894485501388388115629 -0.039261117577552802349050153907 0.002732888096943498091456747900 0.000059641632105922333221843107 0 0 0 0 
2413166666.6666665077 0.169549867510795593261718750000 -0.040963482111692428588867187500 0.002598636085167527198791503906 0.000107992316770832999192099300 0 0 0 0 
2413333333.3333334923 0.170070841908454895019531250000 -0.042871266603469848632812500000 0.002573266392573713822605752100 -0.000115255934360902797110141893 0 0 0 0 
2413500000.0000000000 0.170476868748664911468182481258 -0.044478770345449447631835937500 0.002530995290726422829868935693 -0.000186138175195082995012560434 0 0 0 0 
2413666666.6666665077 0.171135157346725491622763115629 -0.046180766075849533081054687500 0.002372485818341373963596963037 -0.000248706084676086902618408203 0 0 0 0 
2413833333.3333334923 0.171500444412231500823651231258 -0.047561120241880416870117187500 0.002365494845435022874119423975 -0.000486015051137655973434448242 0 0 0 0 
2414000000.0000000000 0.171992972493171691894531250000 -0.049083318561315543437917341407 0.002226820215582848028895712744 -0.000475401029689237475395202637 0 0 0 0 
2414166666.6666665077 0.172711089253425598144531250000 -0.050255961716175079345703125000 0.002191048581153153939488076318 -0.000422464043367654085159301758 0 0 0 0 
2414333333.3333334923 0.173148915171623202224893134371 -0.051719415932893753051757812500 0.002174068940803409056422568213 -0.000496747554279863834381103516 0 0 0 0 
2414500000.0000000000 0.173914954066276605804119981258 -0.052830066531896591186523437500 0.002064076019451022148132324219 -0.000682059209793806076049804688 0 0 0 0 
2414666666.6666665077 0.174292311072349603850994981258 -0.053844597190618521953542341407 0.002056731609627604918238974463 -0.000715085479896515607833862305 0 0 0 0 
2414833333.3333334923 0.174754813313484191894531250000 -0.054841831326484680175781250000 0.002032049931585789160487509619 -0.000805989664513617753982543945 0 0 0 0 
2415000000.0000000000 0.175183460116386413574218750000 -0.055843915790319442749023437500 0.001809608424082397980930947412 -0.000778120593167841434478759766 0 0 0 0 
2415166666.6666665077 0.175775840878486605545205634371 -0.056573454290628433227539062500 0.001805180800147355036494589697 -0.000762031821068376302719116211 0 0 0 0 
2415333333.3333334923 0.176171764731407193282919365629 -0.057390511035919189453125000000 0.001573105342686176083208393628 -0.000860089785419404506683349609 0 0 0 0 
2415500000.0000000000 0.176614791154861505706463731258 -0.057996451854705810546875000000 0.001652197679504751942278217847 -0.000629651767667382955551147461 0 0 0 0 
2415666666.6666665077 0.176810085773467989822549384371 -0.058495461940765380859375000000 0.001649209763854742050170898438 -0.000834845413919538259506225586 0 0 0 0 
2415833333.3333334923 0.177138417959213312347088731258 -0.059063628315925598144531250000 0.001614905893802643039106059497 -0.000826117815449833869934082031 0 0 0 0 
2416000000.0000000000 0.177263051271438598632812500000 -0.059449248015880591655690778907 0.001392350066453218893763876807 -0.000930396898183971643447875977 0 0 0 0 
2416166666.6666665077 0.177493333816528292556924384371 -0.059873916208744049072265625000 0.001439487561583518981933593750 -0.000961650803219527006149291992 0 0 0 0 
2416333333.3333334923 0.177512377500534113128338731258 -0.060254633426666259765625000000 0.001489390502683817906620644678 -0.000940273224841803312301635742 0 0 0 0 
2416500000.0000000000 0.177536711096763610839843750000 -0.060593042522668838500976562500 0.001449558185413480021833110278 -0.000812941696494817733764648438 0 0 0 0 
2416666666.6666665077 0.177360102534294100662393134371 -0.060889832675457000732421875000 0.001340913469903171062469482422 -0.001027240534313023090362548828 0 0 0 0 
2416833333.3333334923 0.177167639136314392089843750000 -0.061280466616153717041015625000 0.001299149706028402068494487231 -0.000944088620599359273910522461 0 0 0 0 
2417000000.0000000000 0.176724612712860107421875000000 -0.061452485620975487445871721093 0.001227161614224314906476664966 -0.000913681928068399429321289062 0 0 0 0 
2417166666.6666665077 0.176395982503890991210937500000 -0.061512880027294158935546875000 0.001212892588227987072588276440 -0.000754151551518589258193969727 0 0 0 0 
2417333333.3333334923 0.175897598266601590255575615629 -0.061720926314592361450195312500 0.001200726837851106903673481519 -0.000931496673729270696640014648 0 0 0 0 
2417500000.0000000000 0.175224065780639703948651231258 -0.062154363840818412090261091407 0.001118159154430031993268657153 -0.000943454739172011613845825195 0 0 0 0 
2417666666.6666665077 0.174569591879844693282919365629 -0.062229402363300316547434221093 0.000961373210884630680084228516 -0.001024359255097807104226137476 0 0 0 0 
2417833333.3333334923 0.173789411783218411544638115629 -0.062441296875476837158203125000 0.000892430660314857959747314453 -0.000928649562411010265350341797 0 0 0 0 
2418000000.0000000000 0.172946453094482394119424384371 -0.062874987721443176269531250000 0.001021311385557055907008505713 -0.000920636579394340515136718750 0 0 0 0 
2418166666.6666665077 0.172143906354904202560263115629 -0.063035100698471069335937500000 0.001019532443024218082427978516 -0.000917867466341704130172729492 0 0 0 0 
2418333333.3333334923 0.171311303973197909256143134371 -0.063552737236022949218750000000 0.000852372380904853343963623047 -0.001083848299458622932434082031 0 0 0 0 
2418500000.0000000000 0.170178472995758112151776231258 -0.063675701618194580078125000000 0.000986219733022153377532958984 -0.000926598673686385154724121094 0 0 0 0 
2418666666.6666665077 0.169237077236175509353799384371 -0.064305841922760009765625000000 0.000824510585516691207885742188 -0.001038781250827014012577675928 0 0 0 0 
2418833333.3333334923 0.167887210845947293380575615629 -0.064927697181701660156250000000 0.000542441499419510364532470703 -0.001034913468174635930302285303 0 0 0 0 
2419000000.0000000000 0.166809991002082796951455634371 -0.065345183014869689941406250000 0.000742034055292606353759765625 -0.000945389096159487962722778320 0 0 0 0 
2419166666.6666665077 0.165593758225441006759481865629 -0.066108755767345428466796875000 0.000544933136552572250366210938 -0.001003799843601883108254457788 0 0 0 0 
2419333333.3333334923 0.164250254631042508224325615629 -0.066505298018455505371093750000 0.000635153322946280241012573242 -0.001044160220772027969360351562 0 0 0 0 
2419500000.0000000000 0.163234293460846002776776231258 -0.067588843405246734619140625000 0.000691424182150512933731079102 -0.001022586016915739016291952979 0 0 0 0 
2419666666.6666665077 0.162146672606468200683593750000 -0.068424738943576812744140625000 0.000577549275476485490798950195 -0.000973228598013520240783691406 0 0 0 0 
2419833333.3333334923 0.160890936851501492599325615629 -0.069290190935134887695312500000 0.000551884586457163095474243164 -0.001109640230424701950670551831 0 0 0 0 
