# Hz S RI R 50
2400000000.0000000000 0.155960813164710998535156250000 0.111042015254497500320596259371 0.001360525609925389073015522534 0.004814861342310906323904706738 0 0 0 0 
2400166666.6666665077 0.155533656477928189376669365629 0.108674041926860795448384067186 0.001211407477967441082000732422 0.004694683942943811416625976562 0 0 0 0 
2400333333.3333334923 0.155115261673927307128906250000 0.106523998081684098671040317186 0.001434159232303499958635639722 0.004612215794622898101806640625 0 0 0 0 
2400500000.0000000000 0.154805824160575894454794365629 0.103891059756279005577006557814 0.001549834152683615901349711841 0.004349994473159313201904296875 0 0 0 0 
2400666666.6666665077 0.154481127858161898513955634371 0.101367712020873995681924384371 0.001650540740229188962223672021 0.004323201254010201367850019238 0 0 0 0 
2400833333.3333334923 0.154252678155899103362713731258 0.098428837954998016357421875000 0.001455495366826653914210654150 0.004204589407891035079956054688 0 0 0 0 
2401000000.0000000000 0.154313012957572909256143134371 0.095492690801620483398437500000 0.001607425627298652908922504956 0.004266134928911924362182617188 0 0 0 0 
2401166666.6666665077 0.154096797108650207519531250000 0.092665076255798339843750000000 0.001693328958936036066768027197 0.004305362701416015625000000000 0 0 0 0 
2401333333.3333334923 0.154168993234634399414062500000 0.089638508856296539306640625000 0.001616132911294698932050395435 0.004354456439614295959472656250 0 0 0 0 
2401500000.0000000000 0.154285237193107604980468750000 0.086727060377597808837890625000 0.001769926166161895015119243091 0.004227309022098779678344726562 0 0 0 0 
2401666666.6666665077 0.154455319046974209884481865629 0.083682008087635040283203125000 0.001904343371279537894605327075 0.004146944731473922729492187500 0 0 0 0 
2401833333.3333334923 0.154949665069580105880575615629 0.080920837819576263427734375000 0.002038538921624422073364257812 0.004165813792496919631958007812 0 0 0 0 
2402000000.0000000000 0.155454754829406710525674384371 0.077884450554847717285156250000 0.002037491882219911055323935400 0.004129949025809764862060546875 0 0 0 0 
2402166666.6666665077 0.156034708023071289062500000000 0.075006127357482910156250000000 0.002065319567918777899501181494 0.004030237905681133270263671875 0 0 0 0 
2402333333.3333334923 0.156909301877021789550781250000 0.072098605334758758544921875000 0.002390334149822593168971396338 0.004095859359949827194213867188 0 0 0 0 
2402500000.0000000000 0.158034011721610995193643134371 0.069243483245372772216796875000 0.002288002520799636840820312500 0.003928503487259150418753339551 0 0 0 0 
2402666666.6666665077 0.158951148390769986251669365629 0.066721230745315551757812500000 0.002553700702264904975891113281 0.003867503721266984939575195312 0 0 0 0 
2402833333.3333334923 0.160217985510826110839843750000 0.063937067985534667968750000000 0.002628010232001543045043945312 0.003840694902464746995213173975 0 0 0 0 
2403000000.0000000000 0.161700963973998995681924384371 0.061496239155530929565429687500 0.002656292868778109984156943213 0.003811991773545742034912109375 0 0 0 0 
2403166666.6666665077 0.163366973400115994552450615629 0.058899067342281341552734375000 0.002816953696310520172119140625 0.003772589378058909936192177881 0 0 0 0 
2403333333.3333334923 0.164769917726516695877236884371 0.056479673832654953002929687500 0.002941657090559601783752441406 0.003634659806266427040100097656 0 0 0 0 
2403500000.0000000000 0.166592419147491510589276231258 0.054042562842369079589843750000 0.003130404278635979132411337744 0.003496407298371195793151855469 0 0 0 0 
2403666666.6666665077 0.168331667780876187423544365629 0.051994282752275466918945312500 0.003158203093335032896754599463 0.003531830385327339172363281250 0 0 0 0 
2403833333.3333334923 0.170127525925636291503906250000 0.049764372408390052104909528907 0.003336729714646935896632529150 0.003422908484935760931727743994 0 0 0 0 
2404000000.0000000000 0.171767503023147610763388115629 0.047900397330522537231445312500 0.003373057814314960999729775537 0.003330045845359563827514648438 0 0 0 0 
2404166666.6666665077 0.173745140433311490157919365629 0.045938689261674880981445312500 0.003630073741078377203700400244 0.003187062684446572823765420068 0 0 0 0 
2404333333.3333334923 0.175417870283126803299111884371 0.044335380196571350097656250000 0.003671612124890089035034179688 0.003077322850003838972804404150 0 0 0 0 
2404500000.0000000000 0.177178382873535211761151231258 0.042669087648391716693918596093 0.003723005531355739073512411963 0.002980767516419291929957724463 0 0 0 0 
2404666666.6666665077 0.179084181785583496093750000000 0.041517995297908782958984375000 0.003769196569919586181640625000 0.002825660631060599847080849756 0 0 0 0 
2404833333.3333334923 0.180811211466789301116619981258 0.040229696780443191528320312500 0.003829307155683637099025107275 0.002523774746805429892299033057 0 0 0 0 
2405000000.0000000000 0.182422563433647211272869981258 0.039349995553493499755859375000 0.004087376873940229415893554688 0.002462841104716062979457236182 0 0 0 0 
2405166666.6666665077 0.184223115444183405120526231258 0.038681134581565856933593750000 0.003852926660329103903529501807 0.002486738841980696158168173682 0 0 0 0 
2405333333.3333334923 0.185761883854866000076455634371 0.038117170333862311626393903907 0.003943851683288812637329101562 0.002270205644890666007995605469 0 0 0 0 
2405500000.0000000000 0.187580347061157198806924384371 0.037500493228435523296315778907 0.004204671364277601242065429688 0.002275058068335055871250771631 0 0 0 0 
2405666666.6666665077 0.189040124416351290603799384371 0.037092488259077072143554687500 0.004183064214885234832763671875 0.002002873225137590928318642725 0 0 0 0 
2405833333.3333334923 0.190585657954216003417968750000 0.036998998373746871948242187500 0.004132790956646203994750976562 0.002093652728945016860961914062 0 0 0 0 
2406000000.0000000000 0.191835254430770901779013115629 0.036794867366552352905273437500 0.004133204929530620574951171875 0.001966999145224690003636025537 0 0 0 0 
2406166666.6666665077 0.193159416317939813811932481258 0.036681182682514190673828125000 0.004272121936082839965820312500 0.001955694984644650979282998193 0 0 0 0 
2406333333.3333334923 0.194217890501022311111611884371 0.036901291459798812866210937500 0.004284972790628671646118164062 0.001770250615663826899287558447 0 0 0 0 
2406500000.0000000000 0.195328161120414706131143134371 0.036904916167259223247487653907 0.004373229108750820159912109375 0.001745129004120826938031840747 0 0 0 0 
2406666666.6666665077 0.196141123771667508224325615629 0.037139836698770523071289062500 0.004520658403635025024414062500 0.001638501184061170058009482275 0 0 0 0 
2406833333.3333334923 0.196868702769279507736044365629 0.037315621972084052349050153907 0.004550618119537830352783203125 0.001573097542859613895416259766 0 0 0 0 
2407000000.0000000000 0.197362795472145108321981865629 0.037774343043565750122070312500 0.004600827582180500030517578125 0.001366025535389780998229980469 0 0 0 0 
2407166666.6666665077 0.197945520281791687011718750000 0.037878714501857757568359375000 0.004869398195296525955200195312 0.001354787498712540106532431494 0 0 0 0 
2407333333.3333334923 0.198012456297874506194744981258 0.038209378719329827045481096093 0.005010879598557949066162109375 0.001410447759553790092468261719 0 0 0 0 
2407500000.0000000000 0.198138073086738586425781250000 0.038665499538183212280273437500 0.004880494903773069381713867188 0.001037485431879759051679301685 0 0 0 0 
2407666666.6666665077 0.198300257325172396560830634371 0.038838803768157958984375000000 0.005086041521281003952026367188 0.000963325495831668376922607422 0 0 0 0 
2407833333.3333334923 0.197886228561401394943075615629 0.039018217474222183227539062500 0.005054273176938295364379882812 0.000756709545385092496871948242 0 0 0 0 
2408000000.0000000000 0.197929456830024691482705634371 0.039205748587846762920339216407 0.005202724598348140716552734375 0.000561374414246529340744018555 0 0 0 0 
2408166666.6666665077 0.197453066706657409667968750000 0.039366770535707466815988908593 0.005290687084197998046875000000 0.000461052492028102278709411621 0 0 0 0 
2408333333.3333334923 0.197065472602844210525674384371 0.039059884846210479736328125000 0.005184074398130179318899823926 0.000439367868239059990078526630 0 0 0 0 
2408500000.0000000000 0.196320384740829495529013115629 0.039243336766958236694335937500 0.005343511234968900680541992188 0.000303929613437503576278686523 0 0 0 0 
2408666666.6666665077 0.195553928613662691970986884371 0.038898561149835586547851562500 0.005500774830579757690429687500 0.000120322998554911505110324998 0 0 0 0 
2408833333.3333334923 0.194993615150451687911825615629 0.038677137345075607299804687500 0.005524774082005023956298828125 -0.000312417920213192701339721680 0 0 0 0 
2409000000.0000000000 0.193888694047927911956463731258 0.038068044930696487426757812500 0.005703316070139408111572265625 -0.000387538922950625419616699219 0 0 0 0 
2409166666.6666665077 0.192969024181365994552450615629 0.037536360323429107666015625000 0.005699710454791784286499023438 -0.000712133361957967281341552734 0 0 0 0 
2409333333.3333334923 0.191901996731758089920205634371 0.036769170314073562622070312500 0.005797731224447488784790039062 -0.000917325378395617008209228516 0 0 0 0 
2409500000.0000000000 0.190736725926399203201455634371 0.035807408392429351806640625000 0.005616143811494112014770507812 -0.001131642493419348976732563550 0 0 0 0 
2409666666.6666665077 0.189557984471321105957031250000 0.034720405936241149902343750000 0.005764476489275693893432617188 -0.001409694785252213911769247900 0 0 0 0 
2409833333.3333334923 0.188248440623283386230468750000 0.033520389348268508911132812500 0.005869016516953706741333007812 -0.001725433510728179974796914209 0 0 0 0 
2410000000.0000000000 0.187013089656829806228799384371 0.032195951789617538452148437500 0.005583657883107662200927734375 -0.002029761439189314842224121094 0 0 0 0 
2410166666.6666665077 0.185871154069900512695312500000 0.030541263520717620849609375000 0.005624684970825910568237304688 -0.002118676900863647894618368994 0 0 0 0 
2410333333.3333334923 0.184542149305343600174111884371 0.028907794505357738840123360546 0.005567707121372222900390625000 -0.002365947701036930084228515625 0 0 0 0 
2410500000.0000000000 0.183565855026245089431924384371 0.027069315314292911184290701954 0.005370331928133965405935956738 -0.002559843938797711892368935693 0 0 0 0 
2410666666.6666665077 0.182401239871978787521200615629 0.025003090500831600534459298046 0.005134186241775751113891601562 -0.002742057666182518005371093750 0 0 0 0 
2410833333.3333334923 0.181603282690048190017861884371 0.022982196882367130624791329296 0.004990058019757270812988281250 -0.002953582908958197073695517432 0 0 0 0 
2411000000.0000000000 0.180493742227554293533486884371 0.020780555903911590576171875000 0.004908340983092784881591796875 -0.003197827609255909919738769531 0 0 0 0 
2411166666.6666665077 0.179743781685829190353231865629 0.018435979261994358407994454296 0.004542772658169270429129316113 -0.003326135454699397087097167969 0 0 0 0 
2411333333.3333334923 0.178916618227958706954794365629 0.015899054706096649169921875000 0.004398830235004425048828125000 -0.003284390550106763839721679688 0 0 0 0 
2411500000.0000000000 0.178383380174636813064736884371 0.013513015583157539367675781250 0.004413568414747714996337890625 -0.003635644679889082908630371094 0 0 0 0 
2411666666.6666665077 0.177972570061683710296307481258 0.011156843043863769876500313671 0.004272919613867998123168945312 -0.003613959765061736106872558594 0 0 0 0 
2411833333.3333334923 0.177629128098487909515057481258 0.008679307065904140472412109375 0.004119386430829763412475585938 -0.003846394596621394157409667969 0 0 0 0 
2412000000.0000000000 0.177415862679481506347656250000 0.005828435067087411880493164062 0.003887658705934882164001464844 -0.003896058304235339164733886719 0 0 0 0 
2412166666.6666665077 0.177241757512092590332031250000 0.003436463419348001913783408057 0.003845813684165478186366415869 -0.003929695114493370056152343750 0 0 0 0 
2412333333.3333334923 0.177317649126052911956463731258 0.000773742038290947675704956055 0.003799687372520565986633300781 -0.004032404627650976181030273438 0 0 0 0 
2412500000.0000000000 0.177672088146209689041299384371 -0.001839696662500500895856547778 0.003538226708769797845127724756 -0.004111398011445999145507812500 0 0 0 0 
2412666666.6666665077 0.178019762039184598068075615629 -0.004622103180736303329467773438 0.003616942325606942176818847656 -0.004203675314784049987792968750 0 0 0 0 
2412833333.3333334923 0.178635656833648709396200615629 -0.007193842902779579162597656250 0.003357638604938983917236328125 -0.004313571844249963760375976562 0 0 0 0 
2413000000.0000000000 0.179231539368629511077557481258 -0.009827767498791217803955078125 0.003270298009738326072692871094 -0.004557507578283548355102539062 0 0 0 0 
2413166666.6666665077 0.180031418800354003906250000000 -0.012164077721536159515380859375 0.003071508137509226799011230469 -0.004597061779350042343139648438 0 0 0 0 
2413333333.3333334923 0.180866062641143798828125000000 -0.014862206764519219834297381055 0.002964544110000133948085165869 -0.004567035008221864700317382812 0 0 0 0 
2413500000.0000000000 0.181995347142219487945880018742 -0.017468575388193130493164062500 0.002882278990000485940220498193 -0.004671092610806226730346679688 0 0 0 0 
2413666666.6666665077 0.183203890919685391525106865629 -0.019927479326725009572962576954 0.002711987588554621176478720557 -0.004731739405542612075805664062 0 0 0 0 
2413833333.3333334923 0.184416949748992892166299384371 -0.022058043628931049001673514454 0.002693861955776811079737997900 -0.005039603915065526962280273438 0 0 0 0 
2414000000.0000000000 0.185381516814231900314169365629 -0.024241313338279720651646798046 0.002496761037036776976344443213 -0.004975200165063142776489257812 0 0 0 0 
2414166666.6666665077 0.186990395188331604003906250000 -0.026271097362041469919224923046 0.002261754125356674194335937500 -0.005022842437028884887695312500 0 0 0 0 
2414333333.3333334923 0.187994197010994013030682481258 -0.028669124469161030160924141796 0.002186086494475603103637695312 -0.005177599377930164337158203125 0 0 0 0 
2414500000.0000000000 0.189528480172157287597656250000 -0.030321434140205379831334298046 0.002015847014263271851780556787 -0.005202987696975469589233398438 0 0 0 0 
2414666666.6666665077 0.190781697630882290939169365629 -0.031987529247999191284179687500 0.001749745220877229950548481519 -0.005545791704207658767700195312 0 0 0 0 
2414833333.3333334923 0.192201912403106689453125000000 -0.033691406250000000000000000000 0.001545080565847457105752016382 -0.005557588301599025726318359375 0 0 0 0 
2415000000.0000000000 0.193493679165840204436932481258 -0.035058423876762390136718750000 0.001297003938816488005994487231 -0.005714037455618382367605878613 0 0 0 0 
2415166666.6666665077 0.194986194372177096267861884371 -0.036433424800634377216379533593 0.001074856729246675968170166016 -0.005642199888825417432303144238 0 0 0 0 
2415333333.3333334923 0.196335718035697909256143134371 -0.037593729794025421142578125000 0.000946511980146169662475585938 -0.005668600555509328842163085938 0 0 0 0 
2415500000.0000000000 0.197801202535629300216513115629 -0.038437094539403922344167341407 0.000485442025819793289333897723 -0.005588128697127103805541992188 0 0 0 0 
2415666666.6666665077 0.199071288108825711349325615629 -0.039362020790576941753347028907 0.000384000450139865279197692871 -0.005653340369462966918945312500 0 0 0 0 
2415833333.3333334923 0.200179204344749506194744981258 -0.040112424641847610473632812500 0.000156992842676117989137926645 -0.005583616904914379119873046875 0 0 0 0 
2416000000.0000000000 0.201354518532752990722656250000 -0.040875744074583046649973283593 -0.000090031586296390742063522339 -0.005530569702386856079101562500 0 0 0 0 
2416166666.6666665077 0.202360570430755587478799384371 -0.041462630033493041992187500000 -0.000222205417230725288391113281 -0.005645490251481533050537109375 0 0 0 0 
2416333333.3333334923 0.203310981392860412597656250000 -0.041741259396076202392578125000 -0.000345310167176648974418640137 -0.005564731080085039138793945312 0 0 0 0 
2416500000.0000000000 0.204022511839866610428018134371 -0.042094487696886062622070312500 -0.000660340941976755857467651367 -0.005673921667039394378662109375 0 0 0 0 
2416666666.6666665077 0.204695761203765896896200615629 -0.042354669421911239624023437500 -0.000829193566460162401199340820 -0.005543639417737722396850585938 0 0 0 0 
2416833333.3333334923 0.205051973462104797363281250000 -0.042380604892969131469726562500 -0.000954921299125999212265014648 -0.005538028664886950579171465137 0 0 0 0 
2417000000.0000000000 0.205440759658813504318075615629 -0.042493123561143882060964216407 -0.001348382444120943979976035010 -0.005278944969177246093750000000 0 0 0 0 
2417166666.6666665077 0.205452993512153597732705634371 -0.042312607169151313091237653907 -0.001423483947291970036150288159 -0.005399071611464023590087890625 0 0 0 0 
2417333333.3333334923 0.205415636301040704925213731258 -0.042030140757560729980468750000 -0.001585850492119788906694721753 -0.005268103443086147308349609375 0 0 0 0 
2417500000.0000000000 0.205507114529609707931356865629 -0.041910205036401748657226562500 -0.001851353328675032095668173682 -0.005121296737343072891235351562 0 0 0 0 
2417666666.6666665077 0.205085679888725308517294365629 -0.041550032794475562358815778907 -0.002006097231060266928431845557 -0.005121342372149229049682617188 0 0 0 0 
2417833333.3333334923 0.204917162656784113128338731258 -0.041280634701251976703684221093 -0.002154890680685638947727822412 -0.005066716577857732772827148438 0 0 0 0 
2418000000.0000000000 0.204418465495109613616619981258 -0.040801316499710083007812500000 -0.002307645976543426947352743994 -0.004870413336902856826782226562 0 0 0 0 
2418166666.6666665077 0.203764364123344393631143134371 -0.040560517460107803344726562500 -0.002518368186429142951965332031 -0.004830149933695793151855468750 0 0 0 0 
2418333333.3333334923 0.202997937798500088790731865629 -0.040239457041025161743164062500 -0.002745321486145257949829101562 -0.004529134370386601361746503613 0 0 0 0 
2418500000.0000000000 0.202004209160804804046307481258 -0.040062472224235541606862653907 -0.002458849223330616950988769531 -0.004402699880301952362060546875 0 0 0 0 
2418666666.6666665077 0.201209053397178705413494981258 -0.039604272693395621562917341407 -0.002962855622172356085536337744 -0.004231476690620183944702148438 0 0 0 0 
2418833333.3333334923 0.200044929981231689453125000000 -0.039668552577495581890065778907 -0.003045320278033614158630371094 -0.004165670368820428848266601562 0 0 0 0 
2419000000.0000000000 0.198746666312217712402343750000 -0.039675310254096991802175153907 -0.003157108556479216055629111182 -0.004093868192285299301147460938 0 0 0 0 
2419166666.6666665077 0.197501555085182189941406250000 -0.039780270308256149291992187500 -0.003220985876396297974827431787 -0.003942682873457670211791992188 0 0 0 0 
2419333333.3333334923 0.195992872118949890136718750000 -0.040022175759077072143554687500 -0.003237876109778881072998046875 -0.003779946360737084908726357568 0 0 0 0 
2419500000.0000000000 0.194541782140731811523437500000 -0.040279898792505257343332658593 -0.003245716914534568786621093750 -0.003536592004820704893824911963 0 0 0 0 
2419666666.6666665077 0.192902088165283203125000000000 -0.040919873863458633422851562500 -0.003237866330891848044154501807 -0.003609321312978864149806357275 0 0 0 0 
2419833333.3333334923 0.191268384456634493728799384371 -0.041220933198928833007812500000 -0.003281217999756336212158203125 -0.003469488350674510002136230469 0 0 0 0 
2420000000.0000000000 0.189630314707755986969317518742 -0.042137112468481056903879533593 -0.003334310604259372191188193213 -0.003485126420855522155761718750 0 0 0 0 
