# Hz S RI R 50
2400000000.0000000000 0.173312291502952603439169365629 0.048600554466247558593750000000 0.007491536438465118408203125000 0.005235449876636266708374023438 0 0 0 0 
2400166666.6666665077 0.173771351575851412674111884371 0.047968398779630661010742187500 0.007902161218225955963134765625 0.005100353155285120010375976562 0 0 0 0 
2400333333.3333334923 0.174431711435317993164062500000 0.047214187681674957275390625000 0.008182735182344913482666015625 0.005013859365135431289672851562 0 0 0 0 
2400500000.0000000000 0.174648836255073602874432481258 0.046579971909523010253906250000 0.008328078314661979675292968750 0.004623806104063987731933593750 0 0 0 0 
2400666666.6666665077 0.175114914774894686599893134371 0.045691732317209236835520158593 0.008516352623701095581054687500 0.004654841497540473937988281250 0 0 0 0 
2400833333.3333334923 0.175371125340461703201455634371 0.045296154916286468505859375000 0.008828686550259590148925781250 0.004533912986516953382010175488 0 0 0 0 
2401000000.0000000000 0.175540968775749206542968750000 0.044678982347249991680104841407 0.009173589758574962615966796875 0.004252577666193246841430664062 0 0 0 0 
2401166666.6666665077 0.175704628229141207595986884371 0.043919149786233901977539062500 0.009390819817781448364257812500 0.003937948029488325119018554688 0 0 0 0 
2401333333.3333334923 0.175850942730903597732705634371 0.043297957628965377807617187500 0.009692692197859287261962890625 0.003752234857529402212855673682 0 0 0 0 
2401500000.0000000000 0.175905793905258206466513115629 0.042599309235811226581613908593 0.009933170862495899200439453125 0.003218800062313675880432128906 0 0 0 0 
2401666666.6666665077 0.175849154591560391525106865629 0.041849851608276367187500000000 0.010268059559166429692278477148 0.002780175302177668051478720557 0 0 0 0 
2401833333.3333334923 0.175901293754577608963174384371 0.041273970156908042217214216407 0.010468717664480209350585937500 0.002637281548231840133666992188 0 0 0 0 
2402000000.0000000000 0.175672814249992398361044365629 0.040390957146883010864257812500 0.010608043521642690140693865430 0.002300255233421922163722372900 0 0 0 0 
2402166666.6666665077 0.175548166036605807205361884371 0.039639387279748916625976562500 0.010852908715605739248255545704 0.001772421412169933102251362378 0 0 0 0 
2402333333.3333334923 0.175394460558891296386718750000 0.038748804479837417602539062500 0.011079278774559499567975429102 0.001302092103287578062770224463 0 0 0 0 
2402500000.0000000000 0.175224825739860506912393134371 0.037705551832914352416992187500 0.011031446978449819737444492773 0.000668267253786325454711914062 0 0 0 0 
2402666666.6666665077 0.175067126750945989410723768742 0.036522194743156433105468750000 0.011274192482233049220075038477 0.000173869208083488101333063947 0 0 0 0 
2402833333.3333334923 0.174644649028778103927450615629 0.035615619271993637084960937500 0.011254404671490190678606602148 -0.000116782823170069605112075806 0 0 0 0 
2403000000.0000000000 0.174299061298370389083700615629 0.034493956714868552471120466407 0.011224879883229730778704258398 -0.000595160061493515968322753906 0 0 0 0 
2403166666.6666665077 0.174184545874595586578692518742 0.033028807491064071655273437500 0.011096649803221229207972342579 -0.001007767976261674924137734521 0 0 0 0 
2403333333.3333334923 0.173692122101783807952557481258 0.031640619039535522460937500000 0.011143445037305360276191912305 -0.001605940749868751005885458838 0 0 0 0 
2403500000.0000000000 0.173378244042396600921307481258 0.030123528093099590646763985546 0.011172736063599589956263358204 -0.001997789833694695992710732568 0 0 0 0 
2403666666.6666665077 0.173065587878227206131143134371 0.028524968773126598703404610546 0.011063436046242710458775704296 -0.002596979029476643042323447119 0 0 0 0 
2403833333.3333334923 0.172846779227256802657919365629 0.026981787756085399282435233204 0.010779976844787599390973475977 -0.002886389615014195008518838037 0 0 0 0 
2404000000.0000000000 0.172309085726738003829794365629 0.025371780619025230407714843750 0.010754600167274480301826677930 -0.003366456599906086921691894531 0 0 0 0 
2404166666.6666665077 0.171972721815109308440838731258 0.023478999733924869192103201954 0.010426104068756100046178048046 -0.003824277548119426207301474463 0 0 0 0 
2404333333.3333334923 0.171552732586860712249432481258 0.021566428244113918649693673046 0.010232668370008470362653163477 -0.004181019961833953857421875000 0 0 0 0 
2404500000.0000000000 0.171234607696533203125000000000 0.019655229523777961730957031250 0.009973875246942043304443359375 -0.004520736634731292724609375000 0 0 0 0 
2404666666.6666665077 0.170935332775115994552450615629 0.017923457548022270202636718750 0.009735669009387493133544921875 -0.004852836951613426208496093750 0 0 0 0 
2404833333.3333334923 0.170750111341476412674111884371 0.016025325283408168447474295704 0.009575260803103446960449218750 -0.005450812634080648422241210938 0 0 0 0 
2405000000.0000000000 0.170647740364074707031250000000 0.013920887373387810098668282421 0.009077799506485462188720703125 -0.005627732258290052413940429688 0 0 0 0 
2405166666.6666665077 0.170376598834991510589276231258 0.011722812429070469247838204296 0.008882736787199974060058593750 -0.006101126316934823989868164062 0 0 0 0 
2405333333.3333334923 0.170443922281265286544638115629 0.009846677072346210479736328125 0.008575950749218463897705078125 -0.006072866264730691909790039062 0 0 0 0 
2405500000.0000000000 0.170545279979705810546875000000 0.007863054051995277404785156250 0.008257473818957805633544921875 -0.006613607052713632583618164062 0 0 0 0 
2405666666.6666665077 0.170426040887832613845986884371 0.005846907850354909896850585938 0.007990063168108463287353515625 -0.006637529470026493072509765625 0 0 0 0 
2405833333.3333334923 0.170642420649528503417968750000 0.003790873335674405097961425781 0.007660300470888614654541015625 -0.006954917218536139401907636426 0 0 0 0 
2406000000.0000000000 0.170911714434623690506143134371 0.001656297710724174976348876953 0.007203672546893358230590820312 -0.007111614570021629333496093750 0 0 0 0 
2406166666.6666665077 0.171134293079376192947549384371 -0.000172543353983201086521148682 0.006978648249059916409964277051 -0.007270782720297574996948242188 0 0 0 0 
2406333333.3333334923 0.171534374356269808670205634371 -0.002251026453450322151184082031 0.006534871179610490798950195312 -0.007515300530940294265747070312 0 0 0 0 
2406500000.0000000000 0.171947941184043912032919365629 -0.004270589444786310195922851562 0.006345700938254594802856445312 -0.007454447913914918899536132812 0 0 0 0 
2406666666.6666665077 0.172286406159400912185830634371 -0.006256992463022471341604902051 0.006155615672469139099121093750 -0.007691998034715653333182050488 0 0 0 0 
2406833333.3333334923 0.173066705465316800216513115629 -0.008342470042407512664794921875 0.005813079420477151870727539062 -0.007846330292522907257080078125 0 0 0 0 
2407000000.0000000000 0.173552751541137695312500000000 -0.009950928390026092529296875000 0.005125157535076141357421875000 -0.008224802091717720031738281250 0 0 0 0 
2407166666.6666665077 0.174234509468078613281250000000 -0.012089932337403299159039882227 0.005308538209646940231323242188 -0.008289412595331668853759765625 0 0 0 0 
2407333333.3333334923 0.174932345747947692871093750000 -0.013875699602067470550537109375 0.004818109329789876937866210938 -0.008180114440619945526123046875 0 0 0 0 
2407500000.0000000000 0.175769701600074795821981865629 -0.015702463686466220510462576954 0.004522744566202163696289062500 -0.008129462599754333496093750000 0 0 0 0 
2407666666.6666665077 0.176795855164527893066406250000 -0.016929646953940391540527343750 0.003728249575942755179164267432 -0.008057031780481338500976562500 0 0 0 0 
2407833333.3333334923 0.176715344190597506424111884371 -0.019554596394300460815429687500 0.004570894874632359418387128613 -0.008595721796154975891113281250 0 0 0 0 
2408000000.0000000000 0.177613720297813387771768134371 -0.020924694836139678955078125000 0.003950100857764483365530683301 -0.008597754873335361480712890625 0 0 0 0 
2408166666.6666665077 0.178211033344268798828125000000 -0.022367501631379130971888358204 0.003603071905672550201416015625 -0.008963242173194885253906250000 0 0 0 0 
2408333333.3333334923 0.179542645812034606933593750000 -0.024432670325040820730189139454 0.003887278260663152174708701025 -0.008290252648293972015380859375 0 0 0 0 
2408500000.0000000000 0.179282203316688509842080634371 -0.025226192548871040344238281250 0.002934858202934265136718750000 -0.009558570571243762969970703125 0 0 0 0 
2408666666.6666665077 0.180574551224708612640057481258 -0.026727657765150070190429687500 0.002575329272076487974879599463 -0.008662182837724685668945312500 0 0 0 0 
2408833333.3333334923 0.181024968624114990234375000000 -0.027493648231029510498046875000 0.001704197726212441921234130859 -0.008932354860007762908935546875 0 0 0 0 
2409000000.0000000000 0.181421503424644497970419365629 -0.028812881559133529663085937500 0.001787259476259350993512797778 -0.009039090946316719055175781250 0 0 0 0 
2409166666.6666665077 0.181554794311523409744424384371 -0.029818125069141391408900076954 0.001643108436837791962864541162 -0.009428584016859531402587890625 0 0 0 0 
2409333333.3333334923 0.182229459285736111739950615629 -0.031020874157547950744628906250 0.001462500309571624019025493091 -0.008993485942482948303222656250 0 0 0 0 
2409500000.0000000000 0.182381540536880493164062500000 -0.031721096485853202129323591407 0.001159157953225075981737446362 -0.009191441349685192108154296875 0 0 0 0 
2409666666.6666665077 0.182834550738334711272869981258 -0.032445363700389862060546875000 0.000816326122730970382690429688 -0.008822508156299591064453125000 0 0 0 0 
2409833333.3333334923 0.182896569371223505218182481258 -0.032910384237766272808034528907 0.000702423509210348129272460938 -0.008923240937292575836181640625 0 0 0 0 
2410000000.0000000000 0.183491334319114712814169365629 -0.033369913697242736816406250000 0.000020280032913433391263688735 -0.008701437152922153472900390625 0 0 0 0 
2410166666.6666665077 0.183472469449043301681356865629 -0.033746145665645599365234375000 -0.000151243511936627301290789194 -0.008669261820614337921142578125 0 0 0 0 
2410333333.3333334923 0.183542326092720003982705634371 -0.034064512699842453002929687500 -0.000436492322478443384170532227 -0.008720263838768005371093750000 0 0 0 0 
2410500000.0000000000 0.183651909232139587402343750000 -0.034513458609580986713449846093 -0.000782105256803333759307861328 -0.008592315949499607086181640625 0 0 0 0 
2410666666.6666665077 0.183560922741890009124432481258 -0.035150729119777679443359375000 -0.001059510512277483940124511719 -0.008501628413796424865722656250 0 0 0 0 
2410833333.3333334923 0.183636590838432312011718750000 -0.035233665257692337036132812500 -0.001297309179790318012237548828 -0.008392380550503730773925781250 0 0 0 0 
2411000000.0000000000 0.183424770832061795333700615629 -0.035613600164651870727539062500 -0.001524269348010421016095805591 -0.008193143643438816070556640625 0 0 0 0 
2411166666.6666665077 0.182921633124351501464843750000 -0.035972610116004936908762346093 -0.001922218711115420081494975513 -0.008325311355292797088623046875 0 0 0 0 
2411333333.3333334923 0.182580590248107910156250000000 -0.036000158637762069702148437500 -0.002177210990339518027064658057 -0.008202935568988323211669921875 0 0 0 0 
2411500000.0000000000 0.182178437709808405120526231258 -0.036520548164844512939453125000 -0.002489909762516618208644247900 -0.007927895523607730865478515625 0 0 0 0 
2411666666.6666665077 0.181702226400375393966513115629 -0.036973752081394202495534528907 -0.002667304826900362968444824219 -0.007815585471689701080322265625 0 0 0 0 
2411833333.3333334923 0.181045636534690912444744981258 -0.037071507424116141582448591407 -0.002944979118183255195617675781 -0.007772840559482575330252362988 0 0 0 0 
2412000000.0000000000 0.180257767438888605315838731258 -0.037728857249021530151367187500 -0.003205430461093782944920205225 -0.007413184735924006375784589551 0 0 0 0 
2412166666.6666665077 0.179382890462875393966513115629 -0.038109522312879562377929687500 -0.003490596311166882948634482275 -0.007249645423144102096557617188 0 0 0 0 
2412333333.3333334923 0.178721159696579007247763115629 -0.038454402238130569458007812500 -0.003604080760851501984837197412 -0.007066685706377029418945312500 0 0 0 0 
2412500000.0000000000 0.177400857210159301757812500000 -0.039106935262680046772043596093 -0.003833226859569549994227743994 -0.006830191239714623364920331738 0 0 0 0 
2412666666.6666665077 0.176622703671455411056356865629 -0.039876960217952728271484375000 -0.003947983030229806900024414062 -0.006734141148626804351806640625 0 0 0 0 
2412833333.3333334923 0.175388783216476412674111884371 -0.040431115776300430297851562500 -0.004136580508202314376831054688 -0.006351204589009284973144531250 0 0 0 0 
2413000000.0000000000 0.174342155456542996505575615629 -0.041308749467134482646901716407 -0.004425559192895889282226562500 -0.006131387315690517425537109375 0 0 0 0 
2413166666.6666665077 0.172933489084243802169638115629 -0.041972097009420401836354841407 -0.004690970294177532196044921875 -0.005837490782141686353201581738 0 0 0 0 
2413333333.3333334923 0.171559467911720303634481865629 -0.043015509843826287006418596093 -0.004593434743583202362060546875 -0.005602398887276650342459394238 0 0 0 0 
2413500000.0000000000 0.170424312353134210784588731258 -0.043837722390890121459960937500 -0.004780230112373828887939453125 -0.005365923047065734863281250000 0 0 0 0 
2413666666.6666665077 0.169044151902198791503906250000 -0.044788733124732971191406250000 -0.004719540942460299405569745801 -0.005061581730842590332031250000 0 0 0 0 
2413833333.3333334923 0.167731687426567105392294365629 -0.046030573546886437152902971093 -0.004647674970328807830810546875 -0.004860944580286741256713867188 0 0 0 0 
2414000000.0000000000 0.166395843029022189041299384371 -0.047227755188941962505300153907 -0.004859618376940488815307617188 -0.004690404515713453292846679688 0 0 0 0 
2414166666.6666665077 0.165331363677978487869424384371 -0.048402011394500732421875000000 -0.004933601245284081372732831738 -0.004403565078973770141601562500 0 0 0 0 
2414333333.3333334923 0.164092093706131009200888115629 -0.049769155681133270263671875000 -0.004843194037675858411307050488 -0.004309647716581820574288652637 0 0 0 0 
2414500000.0000000000 0.162964835762977600097656250000 -0.051095888018608093261718750000 -0.004749170038849115371704101562 -0.004086672328412532806396484375 0 0 0 0 
2414666666.6666665077 0.161744803190231295486611884371 -0.052527613937854766845703125000 -0.004765202756971120834350585938 -0.003902479773387312889099121094 0 0 0 0 
2414833333.3333334923 0.160613745450973510742187500000 -0.054269917309284210205078125000 -0.004786337725818157196044921875 -0.003715971251949667930603027344 0 0 0 0 
2415000000.0000000000 0.159589022397994995117187500000 -0.055881723761558532714843750000 -0.004935574717819690704345703125 -0.003739892039448022842407226562 0 0 0 0 
2415166666.6666665077 0.158529207110404996017294365629 -0.057580668479204177856445312500 -0.004799699410796166333670331738 -0.003599088406190276145935058594 0 0 0 0 
2415333333.3333334923 0.157806634902954101562500000000 -0.059374172240495681762695312500 -0.004882554523646832379812909863 -0.003360425354912877082824707031 0 0 0 0 
2415500000.0000000000 0.156965553760528592208700615629 -0.061244860291481018066406250000 -0.004668273031711578369140625000 -0.003360690316185355186462402344 0 0 0 0 
2415666666.6666665077 0.156091257929801913162393134371 -0.062979325652122497558593750000 -0.004930467344820499420166015625 -0.003128584241494535966160439600 0 0 0 0 
2415833333.3333334923 0.155579611659049987792968750000 -0.064902812242507934570312500000 -0.004877883940935134887695312500 -0.003101248526945710182189941406 0 0 0 0 
2416000000.0000000000 0.154739484190940912444744981258 -0.066872790455818176269531250000 -0.004734184592962265014648437500 -0.003009833628311752839329384912 0 0 0 0 
2416166666.6666665077 0.154356077313423212249432481258 -0.068886339664459228515625000000 -0.004843883682042360305786132812 -0.002922753104940056800842285156 0 0 0 0 
2416333333.3333334923 0.153710618615150507171307481258 -0.070687979459762573242187500000 -0.004886386916041374206542968750 -0.002706318628042935891392373193 0 0 0 0 
2416500000.0000000000 0.153189435601234408279580634371 -0.072835080325603485107421875000 -0.004930935334414243698120117188 -0.002702210331335663795471191406 0 0 0 0 
2416666666.6666665077 0.152930706739425686935263115629 -0.074668928980827331542968750000 -0.005011194851249456405639648438 -0.002459149109199643135070800781 0 0 0 0 
2416833333.3333334923 0.152577906847000094314736884371 -0.076756298542022705078125000000 -0.004943279083818197250366210938 -0.002327818656340240998509072412 0 0 0 0 
2417000000.0000000000 0.152156636118888910491619981258 -0.078690432012081146240234375000 -0.004967129789292812347412109375 -0.002396273659542202949523925781 0 0 0 0 
2417166666.6666665077 0.152009949088096590896768134371 -0.080461248755455017089843750000 -0.004994817543774843215942382812 -0.002216454129666090011596679688 0 0 0 0 
2417333333.3333334923 0.151865482330322293380575615629 -0.082153066992759704589843750000 -0.005009834654629231366629316113 -0.002032475080341101126429892432 0 0 0 0 
2417500000.0000000000 0.151769399642944308181924384371 -0.083988398313522338867187500000 -0.005088062025606632232666015625 -0.002059213817119597954991006006 0 0 0 0 
2417666666.6666665077 0.151799380779266412933026231258 -0.085583575069904327392578125000 -0.005147688556462526321411132812 -0.001873236149549484036089253003 0 0 0 0 
2417833333.3333334923 0.151796847581863403320312500000 -0.087098732590675354003906250000 -0.005171121098101139068603515625 -0.001784046413376926942112588037 0 0 0 0 
2418000000.0000000000 0.151720538735389709472656250000 -0.088805183768272399902343750000 -0.005332775879651308059692382812 -0.001694000442512332959416054834 0 0 0 0 
2418166666.6666665077 0.151752427220344487945880018742 -0.089893482625484466552734375000 -0.005398585461080074310302734375 -0.001550866174511611895320273291 0 0 0 0 
2418333333.3333334923 0.152232676744461087325888115629 -0.091233588755130767822265625000 -0.005511343944817780581002519824 -0.001408595475368201949475932544 0 0 0 0 
2418500000.0000000000 0.152241855859756497482138115629 -0.092500708997249603271484375000 -0.005427337251603603363037109375 -0.001382947084493935108184814453 0 0 0 0 
2418666666.6666665077 0.152525201439857510665731865629 -0.093457385897636413574218750000 -0.005525311455130577087402343750 -0.000977672985754907131195068359 0 0 0 0 
2418833333.3333334923 0.152528345584869412521200615629 -0.094369992613792419433593750000 -0.005580377299338579177856445312 -0.000874861842021346092224121094 0 0 0 0 
2419000000.0000000000 0.152658715844154413421307481258 -0.095246635377407073974609375000 -0.005595782771706581115722656250 -0.000699278549291193485260009766 0 0 0 0 
2419166666.6666665077 0.152860715985298212249432481258 -0.095825724303722381591796875000 -0.005553930066525936126708984375 -0.000478592119179665988117772235 0 0 0 0 
2419333333.3333334923 0.152962565422058105468750000000 -0.096321262419223785400390625000 -0.005703147500753402709960937500 -0.000030594543204642832279205322 0 0 0 0 
2419500000.0000000000 0.153228983283042907714843750000 -0.096989214420318603515625000000 -0.005515346303582192334646894238 -0.000085502884758170694112777710 0 0 0 0 
2419666666.6666665077 0.153454288840293912032919365629 -0.097377806901931762695312500000 -0.005481966305524110794067382812 0.000187729616300202906131744385 0 0 0 0 
2419833333.3333334923 0.153559237718582208831463731258 -0.097440689802169799804687500000 -0.005384922958910465240478515625 0.000550305237993597984313964844 0 0 0 0 
