# Version 1.00
#
freq[Hz];re:Trc1_S11;im:Trc1_S11;re:Trc2_S21;im:Trc2_S21;
2.400000000000000E+009;1.679673492908478E-001;4.689878225326538E-002;-4.528677964117378E-004;2.270483179017901E-003;
2.400166666666667E+009;1.688021123409271E-001;4.613300412893295E-002;-4.870007687713951E-004;2.217812463641167E-003;
2.400333333333334E+009;1.696066707372665E-001;4.469561949372292E-002;-3.713915357366204E-004;2.173916902393103E-003;
2.400500000000000E+009;1.706070750951767E-001;4.365135356783867E-002;-4.635164805222303E-004;2.181123709306121E-003;
2.400666666666667E+009;1.715322136878967E-001;4.258254915475845E-002;-4.004785441793501E-004;2.122624777257443E-003;
2.400833333333334E+009;1.722680926322937E-001;4.186119511723518E-002;-3.506028442643583E-004;2.067259978502989E-003;
2.401000000000000E+009;1.730883866548538E-001;4.081952571868897E-002;-3.384230949450284E-004;1.948722987435758E-003;
2.401166666666667E+009;1.737120896577835E-001;4.028864577412605E-002;-4.256632528267801E-004;1.794080133549869E-003;
2.401333333333334E+009;1.745437085628510E-001;3.951207548379898E-002;-5.124144372530282E-004;1.967120682820678E-003;
2.401500000000000E+009;1.753367781639099E-001;3.859760239720345E-002;-5.161272711120546E-004;1.784613006748259E-003;
2.401666666666667E+009;1.759746074676514E-001;3.812028467655182E-002;-5.413083708845079E-004;2.114414237439632E-003;
2.401833333333334E+009;1.764078885316849E-001;3.741640225052834E-002;-5.044686840847135E-004;1.970500219613314E-003;
2.402000000000000E+009;1.769338101148605E-001;3.670756146311760E-002;-6.459783762693405E-004;2.045775763690472E-003;
2.402166666666667E+009;1.775181740522385E-001;3.592374548316002E-002;-4.380191676318646E-004;2.012482378631830E-003;
2.402333333333334E+009;1.777453124523163E-001;3.534896299242973E-002;-3.703578258864582E-004;2.063514897599816E-003;
2.402500000000000E+009;1.784626692533493E-001;3.473160043358803E-002;-4.087757843080908E-004;2.014029072597623E-003;
2.402666666666667E+009;1.785346567630768E-001;3.390871733427048E-002;-2.541283320169896E-004;1.908290083520114E-003;
2.402833333333334E+009;1.787347644567490E-001;3.334297612309456E-002;-3.054220287594944E-004;1.939550857059658E-003;
2.403000000000000E+009;1.791025698184967E-001;3.254523873329163E-002;-1.574834896018729E-004;2.110987901687622E-003;
2.403166666666667E+009;1.791384071111679E-001;3.162573650479317E-002;-4.223624418955296E-004;2.028357237577438E-003;
2.403333333333334E+009;1.790874600410461E-001;3.087577037513256E-002;-1.117877254728228E-004;2.061713254079223E-003;
2.403500000000000E+009;1.789203733205795E-001;2.988509461283684E-002;-1.689251221250743E-004;1.951380749233067E-003;
2.403666666666667E+009;1.789107918739319E-001;2.899584919214249E-002;-1.451186981284991E-004;1.882338314317167E-003;
2.403833333333334E+009;1.788555383682251E-001;2.780771441757679E-002;-4.213520514895208E-005;1.900455798022449E-003;
2.404000000000000E+009;1.783184260129929E-001;2.678837813436985E-002;-1.125066264648922E-004;1.894414192065597E-003;
2.404166666666667E+009;1.780257225036621E-001;2.548488415777683E-002;-1.894776942208409E-004;2.003951463848352E-003;
2.404333333333334E+009;1.776212751865387E-001;2.444123849272728E-002;-1.070626967702992E-004;1.942641451023519E-003;
2.404500000000000E+009;1.772166043519974E-001;2.303398586809635E-002;-2.065486041828990E-004;1.849307096563280E-003;
2.404666666666667E+009;1.767819821834564E-001;2.177594415843487E-002;-1.996518112719059E-004;2.027058508247137E-003;
2.404833333333334E+009;1.765429079532623E-001;2.038999460637569E-002;-2.469018509145826E-004;1.922272844240069E-003;
2.405000000000000E+009;1.760086268186569E-001;1.895015314221382E-002;-2.857050276361406E-004;1.922133960761130E-003;
2.405166666666667E+009;1.756940931081772E-001;1.740636490285397E-002;-2.297914907103404E-004;2.069152425974608E-003;
2.405333333333334E+009;1.753231137990952E-001;1.568203978240490E-002;-9.172693535219878E-005;2.020163461565971E-003;
2.405500000000000E+009;1.750161647796631E-001;1.410800777375698E-002;-3.109942772425711E-004;2.214453648775816E-003;
2.405666666666667E+009;1.746008992195129E-001;1.252393517643213E-002;-6.749066960765049E-005;2.163828583434224E-003;
2.405833333333334E+009;1.741067469120026E-001;1.075298711657524E-002;-4.294749669497833E-005;2.187307691201568E-003;
2.406000000000000E+009;1.740182936191559E-001;8.815089240670204E-003;-1.260317803826183E-004;2.376645570620894E-003;
2.406166666666667E+009;1.737004965543747E-001;7.148997858166695E-003;1.396754942106782E-005;2.303175628185272E-003;
2.406333333333334E+009;1.736668646335602E-001;5.234944168478251E-003;7.452144927810878E-005;2.345433924347162E-003;
2.406500000000000E+009;1.735734492540360E-001;3.334917128086090E-003;7.398411980830133E-005;2.637024736031890E-003;
2.406666666666667E+009;1.731893867254257E-001;1.425181748345494E-003;1.271525543415919E-004;2.548310672864318E-003;
2.406833333333334E+009;1.733347624540329E-001;-5.888320738449693E-004;4.224713193252683E-004;2.517711836844683E-003;
2.407000000000000E+009;1.733797639608383E-001;-2.653615083545446E-003;5.611868691630662E-004;2.687094965949655E-003;
2.407166666666667E+009;1.735767871141434E-001;-4.488141741603613E-003;6.129372050054371E-004;2.643201267346740E-003;
2.407333333333334E+009;1.736083924770355E-001;-6.697883829474449E-003;5.935681401751936E-004;2.816308056935668E-003;
2.407500000000000E+009;1.737700253725052E-001;-8.628963492810726E-003;7.985607953742147E-004;2.717959927394986E-003;
2.407666666666667E+009;1.741092056035996E-001;-1.070115994662046E-002;9.407606557942927E-004;2.645891625434160E-003;
2.407833333333334E+009;1.742698699235916E-001;-1.283075474202633E-002;1.100197667255998E-003;2.630077069625258E-003;
2.408000000000000E+009;1.744556427001953E-001;-1.507007982581854E-002;1.274377456866205E-003;2.494847867637873E-003;
2.408166666666667E+009;1.748680174350739E-001;-1.686380617320538E-002;1.410072785802186E-003;2.499475609511137E-003;
2.408333333333334E+009;1.754803359508514E-001;-1.885554380714893E-002;1.542747486382723E-003;2.388643333688378E-003;
2.408500000000000E+009;1.757825613021851E-001;-2.088938094675541E-002;1.578719122335315E-003;2.425936516374350E-003;
2.408666666666667E+009;1.760516017675400E-001;-2.259317599236965E-002;1.528823282569647E-003;2.240240573883057E-003;
2.408833333333334E+009;1.762529909610748E-001;-2.438870817422867E-002;1.625021919608116E-003;2.111034234985709E-003;
2.409000000000000E+009;1.766796708106995E-001;-2.605450898408890E-002;1.603001379407942E-003;1.985545735806227E-003;
2.409166666666667E+009;1.769922971725464E-001;-2.753384411334992E-002;1.684796065092087E-003;2.053877571597695E-003;
2.409333333333334E+009;1.775196194648743E-001;-2.920299768447876E-002;1.777392579242587E-003;2.000200795009732E-003;
2.409500000000000E+009;1.777717769145966E-001;-3.071328997612000E-002;1.719153951853514E-003;1.921671675518155E-003;
2.409666666666667E+009;1.780257672071457E-001;-3.173278644680977E-002;1.757549121975899E-003;1.907608937472105E-003;
2.409833333333334E+009;1.783596426248550E-001;-3.260187804698944E-002;1.872081309556961E-003;1.945215044543147E-003;
2.410000000000000E+009;1.788975596427918E-001;-3.383287414908409E-002;1.758308266289532E-003;2.014379948377609E-003;
2.410166666666667E+009;1.793375909328461E-001;-3.480361402034760E-002;1.975693274289370E-003;1.742900698445737E-003;
2.410333333333334E+009;1.796662807464600E-001;-3.559868037700653E-002;2.055493183434010E-003;1.846568309701979E-003;
2.410500000000000E+009;1.800744831562042E-001;-3.634599968791008E-002;2.003561705350876E-003;1.824384788051248E-003;
2.410666666666667E+009;1.802303940057755E-001;-3.720090165734291E-002;1.960742752999067E-003;1.746903872117400E-003;
2.410833333333334E+009;1.809383332729340E-001;-3.770606964826584E-002;2.124503487721086E-003;1.789288944564760E-003;
2.411000000000000E+009;1.809604316949844E-001;-3.843890875577927E-002;2.299096668139100E-003;1.774374162778258E-003;
2.411166666666667E+009;1.810924410820007E-001;-3.912115469574928E-002;2.259657485410571E-003;1.630601705983281E-003;
2.411333333333334E+009;1.812686920166016E-001;-3.935853391885757E-002;2.307184273377061E-003;1.766231958754361E-003;
2.411500000000000E+009;1.812608838081360E-001;-4.010945931077004E-002;2.359756268560886E-003;1.628495869226754E-003;
2.411666666666667E+009;1.814425438642502E-001;-4.053066298365593E-002;2.563138958066702E-003;1.503680483438075E-003;
2.411833333333334E+009;1.811946332454681E-001;-4.092117026448250E-002;2.379031851887703E-003;1.469362061470747E-003;
2.412000000000000E+009;1.811765581369400E-001;-4.142617434263229E-002;2.612179145216942E-003;1.506574335508049E-003;
2.412166666666667E+009;1.808835268020630E-001;-4.197893291711807E-002;2.737891161814332E-003;1.359750167466700E-003;
2.412333333333334E+009;1.805628389120102E-001;-4.223522171378136E-002;2.707859501242638E-003;1.456776168197393E-003;
2.412500000000000E+009;1.798768937587738E-001;-4.256511107087135E-002;2.798352390527725E-003;1.317417598329485E-003;
2.412666666666667E+009;1.797005981206894E-001;-4.312779381871223E-002;2.789654769003391E-003;1.251132227480412E-003;
2.412833333333334E+009;1.791210174560547E-001;-4.339814186096191E-002;2.797696972265840E-003;1.293751876801252E-003;
2.413000000000000E+009;1.781108528375626E-001;-4.374732077121735E-002;2.876550657674670E-003;1.101815025322139E-003;
2.413166666666667E+009;1.773738265037537E-001;-4.423419386148453E-002;2.879669191315770E-003;1.063637319020927E-003;
2.413333333333334E+009;1.763874441385269E-001;-4.474009573459625E-002;2.981147496029735E-003;9.072851971723139E-004;
2.413500000000000E+009;1.756173521280289E-001;-4.522580653429031E-002;2.886277157813311E-003;8.952433709055185E-004;
2.413666666666667E+009;1.746187806129456E-001;-4.600616171956062E-002;2.965971827507019E-003;8.526772144250572E-004;
2.413833333333334E+009;1.735336482524872E-001;-4.648264124989510E-002;3.000956960022450E-003;7.129347068257630E-004;
2.414000000000000E+009;1.724569350481033E-001;-4.707627370953560E-002;3.090231213718653E-003;6.604281952604652E-004;
2.414166666666667E+009;1.712581217288971E-001;-4.766501113772392E-002;3.166176145896316E-003;6.977084558457136E-004;
2.414333333333334E+009;1.701258867979050E-001;-4.868164286017418E-002;3.224723739549518E-003;5.315288435667753E-004;
2.414500000000000E+009;1.692679673433304E-001;-4.941337928175926E-002;3.148770891129971E-003;5.253413692116737E-004;
2.414666666666667E+009;1.678895950317383E-001;-5.029905959963799E-002;3.335240529850125E-003;4.884793888777494E-004;
2.414833333333334E+009;1.667087525129318E-001;-5.148766934871674E-002;3.379638073965907E-003;5.224696942605078E-004;
2.415000000000000E+009;1.654504090547562E-001;-5.243070796132088E-002;3.340803785249591E-003;3.960080794058740E-004;
2.415166666666667E+009;1.643633544445038E-001;-5.358262360095978E-002;3.519910853356123E-003;2.979438577312976E-004;
2.415333333333334E+009;1.632264703512192E-001;-5.494789034128189E-002;3.666439326480031E-003;3.286908031441271E-004;
2.415500000000000E+009;1.622246652841568E-001;-5.628388002514839E-002;3.797948826104403E-003;2.549122145865113E-004;
2.415666666666667E+009;1.610267311334610E-001;-5.770526453852654E-002;3.710313467308879E-003;1.974662736756727E-004;
2.415833333333334E+009;1.601061373949051E-001;-5.937609449028969E-002;3.972802311182022E-003;-1.172268603113480E-004;
2.416000000000000E+009;1.589062809944153E-001;-6.092883273959160E-002;4.157694056630135E-003;-2.270543482154608E-004;
2.416166666666667E+009;1.581196933984757E-001;-6.266984343528748E-002;4.379745107144117E-003;-3.658896312117577E-004;
2.416333333333334E+009;1.571335345506668E-001;-6.426297873258591E-002;4.342973232269287E-003;-4.266344767529517E-004;
2.416500000000000E+009;1.561752408742905E-001;-6.610278040170670E-002;4.504560492932797E-003;-8.486240403726697E-004;
2.416666666666667E+009;1.550824940204620E-001;-6.788944453001022E-002;4.486985504627228E-003;-8.946149027906358E-004;
2.416833333333334E+009;1.543537378311157E-001;-6.985126435756683E-002;4.479998257011175E-003;-1.162245287559927E-003;
2.417000000000000E+009;1.535128802061081E-001;-7.181575149297714E-002;4.359809681773186E-003;-1.491559669375420E-003;
2.417166666666667E+009;1.528909206390381E-001;-7.352656126022339E-002;4.476395435631275E-003;-1.427742070518434E-003;
2.417333333333334E+009;1.522294729948044E-001;-7.539657503366470E-002;4.594094585627317E-003;-1.944921328686178E-003;
2.417500000000000E+009;1.515662521123886E-001;-7.737537473440170E-002;4.472022410482168E-003;-2.228916157037020E-003;
2.417666666666667E+009;1.510746330022812E-001;-7.908418774604797E-002;4.540785681456327E-003;-2.460054121911526E-003;
2.417833333333334E+009;1.506496369838715E-001;-8.089545369148254E-002;4.535801243036985E-003;-2.673953305929899E-003;
2.418000000000000E+009;1.502781063318253E-001;-8.284818381071091E-002;4.434319678694010E-003;-3.144992515444756E-003;
2.418166666666667E+009;1.498025357723236E-001;-8.431006222963333E-002;4.384613130241633E-003;-3.175957826897502E-003;
2.418333333333334E+009;1.499979197978973E-001;-8.606509119272232E-002;3.962873481214047E-003;-3.784852800890803E-003;
2.418500000000000E+009;1.495781689882278E-001;-8.759365230798721E-002;3.955500666052103E-003;-3.654022701084614E-003;
2.418666666666667E+009;1.495842933654785E-001;-8.916108310222626E-002;3.881012555211783E-003;-4.169434774667025E-003;
2.418833333333334E+009;1.493885964155197E-001;-9.062124043703079E-002;3.446135669946671E-003;-4.372415132820606E-003;
2.419000000000000E+009;1.492297947406769E-001;-9.188026934862137E-002;3.238390199840069E-003;-4.574824124574661E-003;
2.419166666666667E+009;1.494856923818588E-001;-9.314893186092377E-002;2.985346829518676E-003;-4.715439863502979E-003;
2.419333333333334E+009;1.493849903345108E-001;-9.407022595405579E-002;2.741960575804114E-003;-4.798494745045900E-003;
2.419500000000000E+009;1.496192365884781E-001;-9.529255330562592E-002;2.536981599405408E-003;-4.949243739247322E-003;
2.419666666666667E+009;1.499138921499252E-001;-9.630657732486725E-002;2.087677828967571E-003;-5.156033672392368E-003;
2.419833333333334E+009;1.498927921056747E-001;-9.686470031738281E-002;1.808807253837585E-003;-5.209228489547968E-003;
2.420000000000000E+009;1.503253728151321E-001;-9.747982770204544E-002;1.596099347807467E-003;-5.382354836910963E-003;
2.420166666666667E+009;1.504945158958435E-001;-9.818916022777557E-002;1.297946670092642E-003;-5.294356029480696E-003;
2.420333333333334E+009;1.508292704820633E-001;-9.890553355216980E-002;1.042450196109712E-003;-5.265936721116304E-003;
2.420500000000000E+009;1.510938853025436E-001;-9.893648326396942E-002;7.661267882212997E-004;-5.334306042641401E-003;
2.420666666666667E+009;1.513454318046570E-001;-9.920818358659744E-002;4.751859232783318E-004;-5.272400565445423E-003;
2.420833333333334E+009;1.517258882522583E-001;-9.944020956754684E-002;3.173358854837716E-004;-5.434859544038773E-003;
2.421000000000000E+009;1.518004834651947E-001;-9.963200986385346E-002;-1.778154255589470E-004;-5.373440217226744E-003;
2.421166666666667E+009;1.520659178495407E-001;-9.964676201343536E-002;-3.639446513261646E-004;-5.098677705973387E-003;
2.421333333333334E+009;1.522323787212372E-001;-9.969299286603928E-002;-6.810211925767362E-004;-5.309336818754673E-003;
2.421500000000000E+009;1.524177342653275E-001;-9.960700571537018E-002;-7.671546773053706E-004;-5.204287823289633E-003;
2.421666666666667E+009;1.522412151098251E-001;-9.953568875789642E-002;-1.179628772661090E-003;-5.029326770454645E-003;
2.421833333333334E+009;1.524292826652527E-001;-9.929867833852768E-002;-1.215780619531870E-003;-5.013681482523680E-003;
2.422000000000000E+009;1.521985083818436E-001;-9.922122955322266E-002;-1.524175982922316E-003;-4.943914711475372E-003;
2.422166666666667E+009;1.519431173801422E-001;-9.917820245027542E-002;-1.729809562675655E-003;-4.752059932798147E-003;
2.422333333333334E+009;1.518015116453171E-001;-9.875232726335526E-002;-1.942022936418653E-003;-4.730040673166513E-003;
2.422500000000000E+009;1.512635201215744E-001;-9.843275696039200E-002;-2.193523803725839E-003;-4.561142064630985E-003;
2.422666666666667E+009;1.507033109664917E-001;-9.828905016183853E-002;-2.449997235089541E-003;-4.326832015067339E-003;
2.422833333333334E+009;1.499451994895935E-001;-9.808725118637085E-002;-2.598895691335201E-003;-4.233968909829855E-003;
2.423000000000000E+009;1.493457704782486E-001;-9.770051389932632E-002;-2.739282557740808E-003;-3.965272568166256E-003;
2.423166666666667E+009;1.483998596668243E-001;-9.732034057378769E-002;-2.967166015878320E-003;-3.845451865345240E-003;
2.423333333333334E+009;1.474026441574097E-001;-9.693643450737000E-002;-2.988856751471758E-003;-3.486059606075287E-003;
2.423500000000000E+009;1.463947445154190E-001;-9.668269008398056E-002;-3.117007436230779E-003;-3.380753099918366E-003;
2.423666666666667E+009;1.451908200979233E-001;-9.653670340776444E-002;-3.273182548582554E-003;-3.187426365911961E-003;
2.423833333333334E+009;1.441376805305481E-001;-9.621774405241013E-002;-3.243212122470141E-003;-2.964175771921873E-003;
2.424000000000000E+009;1.427489966154099E-001;-9.576582163572311E-002;-3.445917507633567E-003;-2.754911081865430E-003;
2.424166666666667E+009;1.414673328399658E-001;-9.567015618085861E-002;-3.383443690836430E-003;-2.656490541994572E-003;
2.424333333333334E+009;1.402436494827271E-001;-9.548535943031311E-002;-3.360613249242306E-003;-2.487438265234232E-003;
2.424500000000000E+009;1.387539207935333E-001;-9.558794647455216E-002;-3.496519755572081E-003;-2.300804713740945E-003;
2.424666666666667E+009;1.375351101160049E-001;-9.557257592678070E-002;-3.366995835676789E-003;-2.124171005561948E-003;
2.424833333333334E+009;1.360159516334534E-001;-9.572175145149231E-002;-3.303793957456946E-003;-2.015165286138654E-003;
2.425000000000000E+009;1.346343308687210E-001;-9.603036195039749E-002;-3.539946861565113E-003;-1.866199658252299E-003;
2.425166666666667E+009;1.329789310693741E-001;-9.638100862503052E-002;-3.581487340852618E-003;-1.734003424644470E-003;
2.425333333333334E+009;1.315703392028809E-001;-9.687501192092896E-002;-3.471439238637686E-003;-1.621837727725506E-003;
2.425500000000000E+009;1.302414089441299E-001;-9.762697666883469E-002;-3.480558283627033E-003;-1.299646566621959E-003;
2.425666666666667E+009;1.287399381399155E-001;-9.819801896810532E-002;-3.511350369080901E-003;-1.274388399906457E-003;
2.425833333333334E+009;1.273518949747086E-001;-9.910733252763748E-002;-3.640438197180629E-003;-1.062989002093673E-003;
2.426000000000000E+009;1.259614527225494E-001;-1.000641062855721E-001;-3.608651226386428E-003;-9.364431025460362E-004;
2.426166666666667E+009;1.247153282165527E-001;-1.012241393327713E-001;-3.397945081815124E-003;-6.511121173389256E-004;
2.426333333333334E+009;1.233964636921883E-001;-1.022569164633751E-001;-3.468725131824613E-003;-5.345382960513234E-004;
2.426500000000000E+009;1.222086250782013E-001;-1.034964919090271E-001;-3.382097464054823E-003;-3.665908006951213E-004;
2.426666666666667E+009;1.210331991314888E-001;-1.048393249511719E-001;-3.567594802007079E-003;-2.743259246926755E-004;
2.426833333333334E+009;1.198182255029678E-001;-1.062564775347710E-001;-3.204447682946920E-003;-9.532502008369193E-005;
2.427000000000000E+009;1.187033802270889E-001;-1.078755483031273E-001;-3.271288936957717E-003;8.669944509165362E-005;
2.427166666666667E+009;1.176189407706261E-001;-1.092711389064789E-001;-3.115766216069460E-003;2.787355333566666E-004;
2.427333333333334E+009;1.167798861861229E-001;-1.110118106007576E-001;-3.079169662669301E-003;3.611277497839183E-004;
2.427500000000000E+009;1.160347238183022E-001;-1.126107499003410E-001;-2.961521269753575E-003;3.677272470667958E-004;
2.427666666666667E+009;1.151952221989632E-001;-1.144317612051964E-001;-2.579029882326722E-003;5.984082818031311E-004;
