# Hz S RI R 50
2400000000.0000000000 0.155559644103050204178018134371 0.106476955115795093864683451557 0.002094737254083157019374228369 -0.001955180428922175927403115381 0 0 0 0 
2400166666.6666665077 0.155100554227829007247763115629 0.104092866182327298263388115629 0.002275409875437616868260048975 -0.001916165463626384951947856372 0 0 0 0 
2400333333.3333334923 0.155322611331939697265625000000 0.101839989423751803299111884371 0.002108027692884207205531454932 -0.001852357177995145104051899487 0 0 0 0 
2400500000.0000000000 0.155193030834197998046875000000 0.099086940288543701171875000000 0.002271265024319291114807128906 -0.001792627037502825043321919019 0 0 0 0 
2400666666.6666665077 0.155170977115631103515625000000 0.096473209559917449951171875000 0.002143593970686196847202920068 -0.001949483412317932085749960791 0 0 0 0 
2400833333.3333334923 0.155366867780685397049111884371 0.093842633068561553955078125000 0.002097110496833920912501669775 -0.001795229967683553912519145435 0 0 0 0 
2401000000.0000000000 0.155605539679527310470419365629 0.090903282165527343750000000000 0.002199290320277214050292968750 -0.001906681223772465965868305737 0 0 0 0 
2401166666.6666665077 0.155594691634178189376669365629 0.088108301162719726562500000000 0.002141643315553665161132812500 -0.001814220799133182005641318213 0 0 0 0 
2401333333.3333334923 0.155979171395301791092080634371 0.085425637662410736083984375000 0.002226628363132476806640625000 -0.001869299914687871932983398438 0 0 0 0 
2401500000.0000000000 0.156488329172134399414062500000 0.082428760826587677001953125000 0.002172504086047410964965820312 -0.001888231025077403025386191260 0 0 0 0 
2401666666.6666665077 0.156833261251449612716513115629 0.079724960029125213623046875000 0.002108114771544932885410927881 -0.001994584454223514036891318213 0 0 0 0 
2401833333.3333334923 0.157388538122177096267861884371 0.077122211456298828125000000000 0.002036557532846928076503134619 -0.002068296074867248968837118994 0 0 0 0 
2402000000.0000000000 0.158176556229591397384481865629 0.074198268353939056396484375000 0.002094143070280551910400390625 -0.002279394306242465972900390625 0 0 0 0 
2402166666.6666665077 0.158923804759979303558026231258 0.071711257100105285644531250000 0.001960041234269738197326660156 -0.002385111525654792785644531250 0 0 0 0 
2402333333.3333334923 0.160051628947257995605468750000 0.069040350615978240966796875000 0.002047085203230381011962890625 -0.002525028306990861892700195312 0 0 0 0 
2402500000.0000000000 0.160990074276924105545205634371 0.066603437066078186035156250000 0.001769938156940042972564697266 -0.002458333736285566849949502100 0 0 0 0 
2402666666.6666665077 0.162431463599204989334268134371 0.064271941781044006347656250000 0.001819970202632247967960976709 -0.002505097771063446998596191406 0 0 0 0 
2402833333.3333334923 0.163794904947280911544638115629 0.061855435371398932720143903907 0.001629014732316135926487588037 -0.002725672908127307891845703125 0 0 0 0 
2403000000.0000000000 0.165282547473907498458700615629 0.059467419981956481933593750000 0.001502087223343550942064594800 -0.002730405889451504187342978369 0 0 0 0 
2403166666.6666665077 0.166757836937904413421307481258 0.057506877928972237323801408593 0.001304172212257981083513569409 -0.002631388837471603913548134912 0 0 0 0 
2403333333.3333334923 0.168356224894523592849893134371 0.055051650851964950561523437500 0.001269266707822680907008505713 -0.002753776265308260917663574219 0 0 0 0 
2403500000.0000000000 0.169957339763641412933026231258 0.053153295069932937622070312500 0.000950258050579577684402465820 -0.002489964943379164175746298682 0 0 0 0 
2403666666.6666665077 0.171694293618202209472656250000 0.051163610070943832397460937500 0.001030042767524719021440815503 -0.002431480446830391883850097656 0 0 0 0 
2403833333.3333334923 0.173414185643196105957031250000 0.049457665532827377319335937500 0.000985335209406912326812744141 -0.002378228586167097091674804688 0 0 0 0 
2404000000.0000000000 0.174761429429054288009481865629 0.047737877815961837768554687500 0.000915985670872032642364501953 -0.002317299833521246910095214844 0 0 0 0 
2404166666.6666665077 0.176643565297126797775106865629 0.046165555715560913085937500000 0.000861536769662052392959594727 -0.002342689083889127211329794775 0 0 0 0 
2404333333.3333334923 0.178187102079391507247763115629 0.044708367437124252319335937500 0.001089861732907593033434223706 -0.002166867256164551214930868994 0 0 0 0 
2404500000.0000000000 0.179851636290550204178018134371 0.043189939111471183086354841407 0.001180728781037033037898398291 -0.002158462069928646087646484375 0 0 0 0 
2404666666.6666665077 0.181375384330749511718750000000 0.042124487459659583354909528907 0.000979681499302387237548828125 -0.002332610310986638069152832031 0 0 0 0 
2404833333.3333334923 0.183084055781364413162393134371 0.041177473962306983257253278907 0.001125070615671575069427490234 -0.002215826185420155958888388525 0 0 0 0 
2405000000.0000000000 0.184327676892280606368856865629 0.040401820093393332744557966407 0.001227182452566921927808452075 -0.002449267776682972908020019531 0 0 0 0 
2405166666.6666665077 0.185833692550659207443075615629 0.039710551500320441509206403907 0.001253511756658554077148437500 -0.002588453469797968864440917969 0 0 0 0 
2405333333.3333334923 0.187179610133171109298544365629 0.039289224892854690551757812500 0.001266297185793519020080566406 -0.002765723969787358803990029443 0 0 0 0 
2405500000.0000000000 0.188534781336784390548544365629 0.038688991218805313110351562500 0.001152483397163450934766459888 -0.002713159425184131102321005713 0 0 0 0 
2405666666.6666665077 0.189743384718894986251669365629 0.038422923535108573223073591407 0.001120702130720018906834267725 -0.002899104263633490042445517432 0 0 0 0 
2405833333.3333334923 0.190901160240173312088174384371 0.038077373057603842998464216407 0.001149533200077712969539023291 -0.002944911131635307832005166162 0 0 0 0 
2406000000.0000000000 0.192049086093902587890625000000 0.037896413356065750122070312500 0.001046783989295362992527627100 -0.003070803591981530189514160156 0 0 0 0 
2406166666.6666665077 0.192828059196472195724325615629 0.037680566310882568359375000000 0.000844777154270559549331665039 -0.003006977261975408034083701025 0 0 0 0 
2406333333.3333334923 0.193837314844131497482138115629 0.037740770727396011352539062500 0.000791677623055875301361083984 -0.002823515329509973959681845557 0 0 0 0 
2406500000.0000000000 0.194508001208305386642294365629 0.037765529006719589233398437500 0.000722767785191535949707031250 -0.002989336149767041206359863281 0 0 0 0 
2406666666.6666665077 0.195059880614280700683593750000 0.037691026926040649414062500000 0.000682657817378640174865722656 -0.003062449861317873001098632812 0 0 0 0 
2406833333.3333334923 0.195469245314598111251669365629 0.037683915346860892559011091407 0.000611138995736837387084960938 -0.003027218161150813102722167969 0 0 0 0 
2407000000.0000000000 0.195819750428199795821981865629 0.037814639508724212646484375000 0.000606581743340939283370971680 -0.003021926851943134827854775537 0 0 0 0 
2407166666.6666665077 0.196266517043113708496093750000 0.037574604153633117675781250000 0.000372825859813019579083043231 -0.002864244394004344940185546875 0 0 0 0 
2407333333.3333334923 0.196003228425979586502236884371 0.037666309624910361553151716407 0.000408739986596629023551940918 -0.002912816358730196952819824219 0 0 0 0 
2407500000.0000000000 0.196019053459167508224325615629 0.037788551300764076923410783593 0.000392126006772741675376892090 -0.003032233100384473800659179688 0 0 0 0 
2407666666.6666665077 0.195997208356857299804687500000 0.037625871598720550537109375000 0.000487090583192184621661585675 -0.002941325306892395019531250000 0 0 0 0 
2407833333.3333334923 0.195521727204322787185830634371 0.037430942058563232421875000000 0.000425623700721189379692077637 -0.003033360932022333145141601562 0 0 0 0 
2408000000.0000000000 0.195396855473518399337606865629 0.037367325276136398315429687500 0.000412515277275815606117248535 -0.003157881787046790122985839844 0 0 0 0 
2408166666.6666665077 0.194726958870887811858807481258 0.036882277578115463256835937500 0.000555907841771841049194335938 -0.003303147153928875923156738281 0 0 0 0 
2408333333.3333334923 0.194415017962455805022869981258 0.036425363272428512573242187500 0.000373871531337499618530273438 -0.003473764052614570097682333838 0 0 0 0 
2408500000.0000000000 0.193768367171287508865518134371 0.036040570586919791484792341407 0.000490075733978301286697387695 -0.003559984033927321000340127100 0 0 0 0 
2408666666.6666665077 0.193009138107299804687500000000 0.035452835261821746826171875000 0.000452884763944894075393676758 -0.003592875553295015855076455225 0 0 0 0 
2408833333.3333334923 0.192380204796791104415731865629 0.034750372171401977539062500000 0.000387207197491079623073023663 -0.003843151032924652099609375000 0 0 0 0 
2409000000.0000000000 0.191345632076263399978799384371 0.033683430403470993041992187500 0.000328652997268363779217320575 -0.003964286763221026334280683301 0 0 0 0 
2409166666.6666665077 0.190385431051254300216513115629 0.032828643918037421489675153907 0.000017056889191735539248193435 -0.004188216291368007659912109375 0 0 0 0 
2409333333.3333334923 0.189512386918067904373330634371 0.031704105436801910400390625000 -0.000100732220744248506709775381 -0.004198640119284391403198242188 0 0 0 0 
2409500000.0000000000 0.188367292284965487381143134371 0.030462905764579769479771798046 -0.000246739131398499011993408203 -0.004339356441050767898559570312 0 0 0 0 
2409666666.6666665077 0.187436759471893310546875000000 0.028891433030366901052454764454 -0.000318690843414515311091822491 -0.004395245108753442764282226562 0 0 0 0 
2409833333.3333334923 0.186322361230850191970986884371 0.027347182855010029184361641796 -0.000632102193776518106460571289 -0.004646940622478724393362714551 0 0 0 0 
2410000000.0000000000 0.185493677854537991622763115629 0.025858178734779361379603201954 -0.000870378513354808092117309570 -0.004615483805537223815917968750 0 0 0 0 
2410166666.6666665077 0.184360578656196594238281250000 0.023997537791728969919224923046 -0.000940469617489725351333618164 -0.004560278262943029403686523438 0 0 0 0 
2410333333.3333334923 0.183566153049468994140625000000 0.022167690098285678518275076954 -0.001172760501503943963291787256 -0.004466251470148563385009765625 0 0 0 0 
2410500000.0000000000 0.182556048035621587555255018742 0.020268453285098079336146170704 -0.001520664663985372023341513525 -0.004650096874684095382690429688 0 0 0 0 
2410666666.6666665077 0.181738108396530206878338731258 0.017911197617650028574010079296 -0.001583044650033115906956338037 -0.004697488155215978622436523438 0 0 0 0 
2410833333.3333334923 0.181063741445541409591513115629 0.015838380903005599975585937500 -0.001920767594128846905351948315 -0.004556346684694290161132812500 0 0 0 0 
2411000000.0000000000 0.180346801877021789550781250000 0.013619353994727139908760271680 -0.002098253928124905066249228369 -0.004465571604669094085693359375 0 0 0 0 
2411166666.6666665077 0.179659754037857111175213731258 0.011334164999425409489641758398 -0.002258813008666038946864462744 -0.004483011085540056228637695312 0 0 0 0 
2411333333.3333334923 0.179096817970275906661825615629 0.008805274963378906250000000000 -0.002580764237791299819946289062 -0.004410310648381710052490234375 0 0 0 0 
2411500000.0000000000 0.178782314062118502517861884371 0.006560405716300010681152343750 -0.002667558845132588906529091943 -0.004321328829973936080932617188 0 0 0 0 
2411666666.6666665077 0.178653225302696200271768134371 0.004174015950411558151245117188 -0.002865021815523505210876464844 -0.004245662130415439605712890625 0 0 0 0 
2411833333.3333334923 0.178260922431945800781250000000 0.001874114735983311913133930737 -0.002956965006887913183925009619 -0.004041731823235750198364257812 0 0 0 0 
2412000000.0000000000 0.178521141409873990157919365629 -0.000775775057263672351837158203 -0.003255936317145823998692177881 -0.004020421300083398818969726562 0 0 0 0 
2412166666.6666665077 0.178440362215042086502236884371 -0.002939114114269613785984658350 -0.003453830722719430923461914062 -0.004003532696515321731567382812 0 0 0 0 
2412333333.3333334923 0.178511813282966613769531250000 -0.005425246898084878921508789062 -0.003622138407081366019008017432 -0.003952884115278720855712890625 0 0 0 0 
2412500000.0000000000 0.179000169038772610763388115629 -0.007957336492836475372314453125 -0.003688137046992779211757040869 -0.003823276376351714134216308594 0 0 0 0 
2412666666.6666665077 0.179709360003471402267294365629 -0.010226530022919179743756679102 -0.004174714442342519760131835938 -0.003628026461228727860691689600 0 0 0 0 
2412833333.3333334923 0.180246055126190213302450615629 -0.012671715579926969355573085352 -0.004366676323115825653076171875 -0.003485175780951977209803915869 0 0 0 0 
2413000000.0000000000 0.180950239300727788727130018742 -0.015114878304302690678606602148 -0.004478046204894781112670898438 -0.003336511785164475007298134912 0 0 0 0 
2413166666.6666665077 0.181890934705734308440838731258 -0.017166687175631519662877266796 -0.004752099979668855667114257812 -0.003218075959011911912205361475 0 0 0 0 
2413333333.3333334923 0.182713076472282409667968750000 -0.019298709928989410400390625000 -0.004890521056950092315673828125 -0.003015240188688040213343954932 0 0 0 0 
2413500000.0000000000 0.183518886566162109375000000000 -0.021579604595899578439732735546 -0.005238804500550031661987304688 -0.002678805030882358984706259619 0 0 0 0 
2413666666.6666665077 0.184725880622863797286825615629 -0.023893304169178009033203125000 -0.005281347781419754028320312500 -0.002191080013290048079249716650 0 0 0 0 
2413833333.3333334923 0.185822680592536898513955634371 -0.025708820670843120920201485546 -0.005578324664384126663208007812 -0.002007194794714450836181640625 0 0 0 0 
2414000000.0000000000 0.186795115470886202713174384371 -0.027591649442911151540736014454 -0.005547212902456521987915039062 -0.001572506967931986071942973560 0 0 0 0 
2414166666.6666665077 0.188043326139450100997763115629 -0.029392505064606670034388358204 -0.005527034401893615722656250000 -0.001182237756438552899601601709 0 0 0 0 
2414333333.3333334923 0.189176276326179504394531250000 -0.031190760433673858642578125000 -0.005603507161140441894531250000 -0.001012846129015088081359863281 0 0 0 0 
2414500000.0000000000 0.190419271588325500488281250000 -0.032673787325620651245117187500 -0.005602285731583833694458007812 -0.000737742113415151834487915039 0 0 0 0 
2414666666.6666665077 0.191523060202598599532919365629 -0.034009832888841629028320312500 -0.005514534190297126770019531250 -0.000404410006012767607539576398 0 0 0 0 
2414833333.3333334923 0.192550763487815912444744981258 -0.035429410636425018310546875000 -0.005484771449118852615356445312 0.000079312230809591710567474365 0 0 0 0 
2415000000.0000000000 0.193707361817359896560830634371 -0.036528240889310836791992187500 -0.005280986428260803222656250000 0.000211667720577679601594647818 0 0 0 0 
2415166666.6666665077 0.194957733154296902755575615629 -0.037668325006961822509765625000 -0.005310375243425369262695312500 0.000496524735353887081146240234 0 0 0 0 
2415333333.3333334923 0.196124374866485595703125000000 -0.038538780063390731811523437500 -0.004935305099934340390677167676 0.000736301939468830823898315430 0 0 0 0 
2415500000.0000000000 0.197154000401496887207031250000 -0.039177350699901580810546875000 -0.005073653534054756164550781250 0.000877426413353532552719116211 0 0 0 0 
2415666666.6666665077 0.198213011026382501800213731258 -0.040131349116563796997070312500 -0.004936037119477987289428710938 0.001121855457313359000562358325 0 0 0 0 
2415833333.3333334923 0.198974341154098510742187500000 -0.040619708597660071636159528907 -0.004690880887210369110107421875 0.001540318364277482032775878906 0 0 0 0 
2416000000.0000000000 0.199818775057792691329794365629 -0.041165109723806381225585937500 -0.004513079300522804260253906250 0.001481434796005487008335732568 0 0 0 0 
2416166666.6666665077 0.200421974062919588943643134371 -0.041769936680793762207031250000 -0.004311489406973124417776777051 0.001877682399936019940617226709 0 0 0 0 
2416333333.3333334923 0.201027184724807711502236884371 -0.042060010135173797607421875000 -0.004405153915286064147949218750 0.001933188177645207101937319116 0 0 0 0 
2416500000.0000000000 0.201365917921066311935263115629 -0.042094215750694281841237653907 -0.003999077249318361282348632812 0.002062011044472455978393554688 0 0 0 0 
2416666666.6666665077 0.201722458004951504806356865629 -0.042506869882345199584960937500 -0.003657968482002615928649902344 0.002232878934592009024379111182 0 0 0 0 
2416833333.3333334923 0.201905548572540310958700615629 -0.042539052665233612060546875000 -0.003536404110491275787353515625 0.002293814439326525168177939307 0 0 0 0 
2417000000.0000000000 0.201983451843261690994424384371 -0.042709603905677802349050153907 -0.003333663567900658087489462744 0.002306818263605237007141113281 0 0 0 0 
2417166666.6666665077 0.201698333024978609939736884371 -0.042527519166469567035715471093 -0.003077267203480004830601357568 0.002286777598783373832702636719 0 0 0 0 
2417333333.3333334923 0.201528996229171808440838731258 -0.042407825589179992675781250000 -0.002893063472583889961242675781 0.002478057052940129800083779443 0 0 0 0 
2417500000.0000000000 0.201172620058059692382812500000 -0.042363349348306662822682966407 -0.002674121176823974089381552588 0.002398566110059618949890136719 0 0 0 0 
2417666666.6666665077 0.200590074062347412109375000000 -0.042210910469293587421457658593 -0.002454233355820178985595703125 0.002254475140944122834446572412 0 0 0 0 
2417833333.3333334923 0.200197353959083612640057481258 -0.042026791721582412719726562500 -0.002268418669700622992274618994 0.002052346942946314811706542969 0 0 0 0 
2418000000.0000000000 0.199538335204124506194744981258 -0.041714522987604141235351562500 -0.002109631663188337846043252100 0.002075514523312449888942099463 0 0 0 0 
2418166666.6666665077 0.198687717318534906585369981258 -0.041765976697206497192382812500 -0.002054419601336121992823935400 0.001993751619011164145228720557 0 0 0 0 
2418333333.3333334923 0.197818398475647000411825615629 -0.041702687740325927734375000000 -0.001977887004613875909092568506 0.001896932488307357051252055591 0 0 0 0 
2418500000.0000000000 0.196825280785560607910156250000 -0.041619479656219482421875000000 -0.001845764578320086002349853516 0.001845933380536735057830810547 0 0 0 0 
2418666666.6666665077 0.195800259709358187576455634371 -0.041513569653034210205078125000 -0.001746727153658867099164653247 0.001636752509512007019640278394 0 0 0 0 
2418833333.3333334923 0.194642022252082796951455634371 -0.041886176913976669311523437500 -0.001818370656110346100450825269 0.001638028188608587005017924731 0 0 0 0 
2419000000.0000000000 0.193279907107353210449218750000 -0.041935835033655166625976562500 -0.001871465588919817967655800928 0.001485299784690141894696879810 0 0 0 0 
2419166666.6666665077 0.192110672593116788009481865629 -0.042348682880401611328125000000 -0.001757875550538301901576376807 0.001429810421541332981706928784 0 0 0 0 
2419333333.3333334923 0.190715491771697998046875000000 -0.042911130934953689575195312500 -0.001861679134890436909319233472 0.001235786010511219935176230322 0 0 0 0 
2419500000.0000000000 0.189311712980270413497763115629 -0.043186705559492111206054687500 -0.001929472200572490908979106372 0.001216166187077760913251567310 0 0 0 0 
2419666666.6666665077 0.187685549259185791015625000000 -0.044057212769985198974609375000 -0.002020365791395307020900107275 0.001161553198471664948704384912 0 0 0 0 
2419833333.3333334923 0.186110556125640896896200615629 -0.044824242591857910156250000000 -0.001995140686631203131434775244 0.001079991459846497015712118994 0 0 0 0 
