# Version 1.00
#
freq[Hz];re:Trc1_S11;im:Trc1_S11;re:Trc2_S21;im:Trc2_S21;
2.400000000000000E+009;1.553444862365723E-001;1.070706695318222E-001;2.970299450680614E-003;-5.458428524434567E-003;
2.400166666666667E+009;1.552008986473084E-001;1.046182438731194E-001;2.897926839068532E-003;-5.646637175232172E-003;
2.400333333333334E+009;1.553400605916977E-001;1.023049578070641E-001;2.848888281732798E-003;-5.836238153278828E-003;
2.400500000000000E+009;1.552297770977020E-001;9.956168383359909E-002;2.579609863460064E-003;-5.895656533539295E-003;
2.400666666666667E+009;1.553795188665390E-001;9.689144045114517E-002;2.385635627433658E-003;-6.052816752344370E-003;
2.400833333333334E+009;1.552899330854416E-001;9.398910403251648E-002;2.306269248947501E-003;-6.271781399846077E-003;
2.401000000000000E+009;1.556737422943115E-001;9.112234413623810E-002;1.954701729118824E-003;-6.397327873855829E-003;
2.401166666666667E+009;1.554877609014511E-001;8.845853060483933E-002;1.922565861605108E-003;-6.361961830407381E-003;
2.401333333333334E+009;1.559281200170517E-001;8.558052778244019E-002;1.728426315821707E-003;-6.406833417713642E-003;
2.401500000000000E+009;1.563865989446640E-001;8.273343741893768E-002;1.463630702346563E-003;-6.657956168055534E-003;
2.401666666666667E+009;1.569117903709412E-001;7.993119955062866E-002;1.221292070113123E-003;-6.721737328916788E-003;
2.401833333333334E+009;1.572529524564743E-001;7.703949511051178E-002;1.048623700626195E-003;-6.921564694494009E-003;
2.402000000000000E+009;1.582541465759277E-001;7.441211491823196E-002;8.388013229705393E-004;-6.894709542393684E-003;
2.402166666666667E+009;1.590389460325241E-001;7.173591852188110E-002;5.281427875161171E-004;-6.898543331772089E-003;
2.402333333333334E+009;1.598170399665833E-001;6.902667880058289E-002;1.424559304723516E-004;-7.045634556561709E-003;
2.402500000000000E+009;1.612007319927216E-001;6.652121245861054E-002;-7.901970820967108E-005;-7.056277710944414E-003;
2.402666666666667E+009;1.623679399490356E-001;6.426797807216644E-002;-3.867522755172104E-004;-7.090177386999130E-003;
2.402833333333334E+009;1.635477393865585E-001;6.181621924042702E-002;-5.897373775951564E-004;-7.086022756993771E-003;
2.403000000000000E+009;1.651980578899384E-001;5.948984995484352E-002;-7.873625145293772E-004;-7.156571839004755E-003;
2.403166666666667E+009;1.668683588504791E-001;5.720237642526627E-002;-1.362720970064402E-003;-7.065469864755869E-003;
2.403333333333334E+009;1.681731343269348E-001;5.501702055335045E-002;-1.486950088292360E-003;-6.987434346228838E-003;
2.403500000000000E+009;1.700743287801743E-001;5.291405692696571E-002;-1.749993767589331E-003;-6.884974427521229E-003;
2.403666666666667E+009;1.716084331274033E-001;5.113834515213966E-002;-1.934685162268579E-003;-6.708266679197550E-003;
2.403833333333334E+009;1.735568344593048E-001;4.923428595066071E-002;-2.344660693779588E-003;-6.712164264172316E-003;
2.404000000000000E+009;1.748270839452744E-001;4.736753180623055E-002;-2.694840310141444E-003;-6.714348215609789E-003;
2.404166666666667E+009;1.767554283142090E-001;4.590737447142601E-002;-2.744275843724608E-003;-6.412323564291000E-003;
2.404333333333334E+009;1.782811731100082E-001;4.434741288423538E-002;-2.986120292916894E-003;-6.270930171012878E-003;
2.404500000000000E+009;1.798674017190933E-001;4.296388477087021E-002;-3.084508003666997E-003;-6.192353554069996E-003;
2.404666666666667E+009;1.816220879554749E-001;4.179395735263825E-002;-3.454659134149551E-003;-6.149770226329565E-003;
2.404833333333334E+009;1.832376122474670E-001;4.065140336751938E-002;-3.731854027137160E-003;-6.066214758902788E-003;
2.405000000000000E+009;1.844104975461960E-001;4.015927016735077E-002;-3.786093322560191E-003;-6.015235092490912E-003;
2.405166666666667E+009;1.860956102609634E-001;3.938775509595871E-002;-4.239667672663927E-003;-5.727321840822697E-003;
2.405333333333334E+009;1.872818320989609E-001;3.890500217676163E-002;-4.467898979783058E-003;-5.485756322741509E-003;
2.405500000000000E+009;1.887704581022263E-001;3.840148448944092E-002;-4.581800196319819E-003;-5.389814265072346E-003;
2.405666666666667E+009;1.898647695779800E-001;3.811000660061836E-002;-4.826698452234268E-003;-5.139569286257029E-003;
2.405833333333334E+009;1.912504434585571E-001;3.771385923027992E-002;-5.196411628276110E-003;-4.884564317762852E-003;
2.406000000000000E+009;1.922839581966400E-001;3.764873743057251E-002;-5.358307622373104E-003;-4.500705283135176E-003;
2.406166666666667E+009;1.931120753288269E-001;3.743502125144005E-002;-5.405575502663851E-003;-4.526374395936728E-003;
2.406333333333334E+009;1.940024346113205E-001;3.750198334455490E-002;-5.579105578362942E-003;-4.070574883371592E-003;
2.406500000000000E+009;1.948013305664063E-001;3.738549724221230E-002;-5.552199669182301E-003;-3.737493418157101E-003;
2.406666666666667E+009;1.952813863754273E-001;3.752662986516953E-002;-5.759677384048700E-003;-3.411889541894198E-003;
2.406833333333334E+009;1.958599090576172E-001;3.759134188294411E-002;-5.869890563189983E-003;-3.246767679229379E-003;
2.407000000000000E+009;1.962262988090515E-001;3.789754584431648E-002;-5.898891016840935E-003;-2.959842793643475E-003;
2.407166666666667E+009;1.964329630136490E-001;3.755278512835503E-002;-5.818506237119436E-003;-2.716049086302519E-003;
2.407333333333334E+009;1.964941322803497E-001;3.769386559724808E-002;-5.980281159281731E-003;-2.342544263228774E-003;
2.407500000000000E+009;1.964036077260971E-001;3.785115107893944E-002;-6.018639076501131E-003;-2.211065730080009E-003;
2.407666666666667E+009;1.962979882955551E-001;3.772917389869690E-002;-5.881099030375481E-003;-1.989570679143071E-003;
2.407833333333334E+009;1.958566009998322E-001;3.772553056478500E-002;-5.839649122208357E-003;-1.675787381827831E-003;
2.408000000000000E+009;1.956263929605484E-001;3.724412247538567E-002;-5.898137576878071E-003;-1.556597882881761E-003;
2.408166666666667E+009;1.952246725559235E-001;3.707945346832275E-002;-5.830154288560152E-003;-1.249250140972436E-003;
2.408333333333334E+009;1.947124749422073E-001;3.651856631040573E-002;-5.699976813048124E-003;-9.951848769560456E-004;
2.408500000000000E+009;1.939547061920166E-001;3.625310584902763E-002;-5.829391535371542E-003;-7.365806959569454E-004;
2.408666666666667E+009;1.932725012302399E-001;3.561988100409508E-002;-5.594790913164616E-003;-5.632311804220080E-004;
2.408833333333334E+009;1.925196647644043E-001;3.484886512160301E-002;-5.573924165219069E-003;-4.964578547514975E-004;
2.409000000000000E+009;1.916978508234024E-001;3.391828760504723E-002;-5.496588535606861E-003;-4.093903989996761E-004;
2.409166666666667E+009;1.906502544879913E-001;3.304912522435188E-002;-5.194451194256544E-003;-1.503041130490601E-004;
2.409333333333334E+009;1.896119415760040E-001;3.205656632781029E-002;-4.987835884094238E-003;-4.307907875045203E-005;
2.409500000000000E+009;1.885302215814591E-001;3.076420538127422E-002;-5.185340531170368E-003;2.448416198603809E-004;
2.409666666666667E+009;1.876361370086670E-001;2.913931384682655E-002;-5.034575704485178E-003;1.583767298143357E-004;
2.409833333333334E+009;1.865946948528290E-001;2.771178819239140E-002;-4.816795233637095E-003;2.349844580749050E-004;
2.410000000000000E+009;1.856306046247482E-001;2.608215808868408E-002;-4.638279788196087E-003;2.378447243245319E-004;
2.410166666666667E+009;1.846802979707718E-001;2.449065446853638E-002;-4.803955089300871E-003;2.729897969402373E-004;
2.410333333333334E+009;1.836194396018982E-001;2.254493907094002E-002;-4.596207756549120E-003;5.396413034759462E-004;
2.410500000000000E+009;1.827061325311661E-001;2.067802846431732E-002;-4.552961792796850E-003;4.992159083485603E-004;
2.410666666666667E+009;1.816913485527039E-001;1.837829500436783E-002;-4.613534547388554E-003;4.136913921684027E-004;
2.410833333333334E+009;1.811024844646454E-001;1.607512310147286E-002;-4.558069165796042E-003;4.668820183724165E-004;
2.411000000000000E+009;1.804464608430862E-001;1.393266115337610E-002;-4.363258369266987E-003;5.905382568016648E-004;
2.411166666666667E+009;1.797460317611694E-001;1.168888155370951E-002;-4.307138267904520E-003;6.800556438975036E-004;
2.411333333333334E+009;1.792739778757095E-001;9.090379811823368E-003;-4.394709132611752E-003;6.737856310792267E-004;
2.411500000000000E+009;1.786598861217499E-001;6.827263161540031E-003;-4.222799092531204E-003;6.424348102882505E-004;
2.411666666666667E+009;1.786160320043564E-001;4.444427788257599E-003;-4.331941716372967E-003;5.463261622935534E-004;
2.411833333333334E+009;1.783951818943024E-001;2.003326313570142E-003;-4.277124069631100E-003;7.788888178765774E-004;
2.412000000000000E+009;1.784705370664597E-001;-4.152716137468815E-004;-4.229661077260971E-003;7.686727913096547E-004;
2.412166666666667E+009;1.784389466047287E-001;-2.947370288893580E-003;-4.275366663932800E-003;7.642752025276423E-004;
2.412333333333334E+009;1.786305308341980E-001;-5.317264236509800E-003;-4.309798590838909E-003;6.426902837119997E-004;
2.412500000000000E+009;1.790178418159485E-001;-7.767297327518463E-003;-4.315839149057865E-003;6.836849497631192E-004;
2.412666666666667E+009;1.796007752418518E-001;-1.026238873600960E-002;-4.398959688842297E-003;7.912194705568254E-004;
2.412833333333334E+009;1.803806275129318E-001;-1.274735666811466E-002;-4.282907117158175E-003;9.229144197888672E-004;
2.413000000000000E+009;1.809496134519577E-001;-1.493834331631661E-002;-4.544442985206842E-003;1.012454042211175E-003;
2.413166666666667E+009;1.816964447498322E-001;-1.714840531349182E-002;-4.599763546139002E-003;8.789394050836563E-004;
2.413333333333334E+009;1.827475130558014E-001;-1.939776726067066E-002;-4.511043895035982E-003;1.091512618586421E-003;
2.413500000000000E+009;1.835705190896988E-001;-2.171851694583893E-002;-4.674733150750399E-003;1.277337200008333E-003;
2.413666666666667E+009;1.848392784595490E-001;-2.390025928616524E-002;-4.705898929387331E-003;1.316812005825341E-003;
2.413833333333334E+009;1.857633590698242E-001;-2.577686309814453E-002;-4.841029178351164E-003;1.475458731874824E-003;
2.414000000000000E+009;1.869967281818390E-001;-2.774913609027863E-002;-4.638323560357094E-003;1.887690625153482E-003;
2.414166666666667E+009;1.881650984287262E-001;-2.945884503424168E-002;-4.541267640888691E-003;2.010238589718938E-003;
2.414333333333334E+009;1.893052458763123E-001;-3.157299011945725E-002;-4.617998842149973E-003;2.220504218712449E-003;
2.414500000000000E+009;1.904690861701965E-001;-3.281033784151077E-002;-4.725263919681311E-003;2.461246214807034E-003;
2.414666666666667E+009;1.916614770889282E-001;-3.424314782023430E-002;-4.359107930213213E-003;2.455203793942928E-003;
2.414833333333334E+009;1.926987320184708E-001;-3.561614453792572E-002;-4.361299332231283E-003;2.827742137014866E-003;
2.415000000000000E+009;1.938779056072235E-001;-3.691548109054565E-002;-4.207646008580923E-003;2.810298930853605E-003;
2.415166666666667E+009;1.950038820505142E-001;-3.802876919507980E-002;-4.154723603278399E-003;2.799101406708360E-003;
2.415333333333334E+009;1.961579918861389E-001;-3.891175240278244E-002;-4.069376736879349E-003;3.072163788601756E-003;
2.415500000000000E+009;1.972555220127106E-001;-3.965327516198158E-002;-3.943158779293299E-003;3.117395332083106E-003;
2.415666666666667E+009;1.983784139156342E-001;-4.040455818176270E-002;-3.960133995860815E-003;3.376957960426807E-003;
2.415833333333334E+009;1.990731507539749E-001;-4.095949232578278E-002;-4.055287223309279E-003;3.526683663949370E-003;
2.416000000000000E+009;1.998810619115830E-001;-4.145773500204086E-002;-3.992650192230940E-003;3.475522389635444E-003;
2.416166666666667E+009;2.006571888923645E-001;-4.195179417729378E-002;-3.930883482098579E-003;3.802188206464052E-003;
2.416333333333334E+009;2.011728286743164E-001;-4.221578687429428E-002;-3.893361892551184E-003;3.858957672491670E-003;
2.416500000000000E+009;2.017459422349930E-001;-4.242617264389992E-002;-3.780966857448220E-003;4.042447078973055E-003;
2.416666666666667E+009;2.020445764064789E-001;-4.268019273877144E-002;-3.617739770561457E-003;4.408252425491810E-003;
2.416833333333334E+009;2.021197080612183E-001;-4.277101159095764E-002;-3.318161936476827E-003;4.449433181434870E-003;
2.417000000000000E+009;2.023831754922867E-001;-4.289007186889648E-002;-3.244560677558184E-003;4.601857624948025E-003;
2.417166666666667E+009;2.019634544849396E-001;-4.281770065426827E-002;-3.102601040154696E-003;4.752803593873978E-003;
2.417333333333334E+009;2.017557919025421E-001;-4.261246323585510E-002;-2.969793276861310E-003;4.837923217564821E-003;
2.417500000000000E+009;2.014398872852325E-001;-4.268437996506691E-002;-2.727149752900004E-003;5.019306205213070E-003;
2.417666666666667E+009;2.009043395519257E-001;-4.231482744216919E-002;-2.461241325363517E-003;5.301377736032009E-003;
2.417833333333334E+009;2.004328817129135E-001;-4.222037643194199E-002;-2.376283751800656E-003;5.232792347669601E-003;
2.418000000000000E+009;1.998240500688553E-001;-4.193406924605370E-002;-2.136337338015437E-003;5.230070557445288E-003;
2.418166666666667E+009;1.990499943494797E-001;-4.187725111842156E-002;-1.832836889661849E-003;5.335443187505007E-003;
2.418333333333334E+009;1.981382668018341E-001;-4.166585952043533E-002;-1.692758640274406E-003;5.394447129219770E-003;
2.418500000000000E+009;1.970745623111725E-001;-4.186572134494782E-002;-1.572434208355844E-003;5.445119924843311E-003;
2.418666666666667E+009;1.961067318916321E-001;-4.172826558351517E-002;-1.424638321623206E-003;5.496830213814974E-003;
2.418833333333334E+009;1.949120908975601E-001;-4.191150516271591E-002;-1.255889656022191E-003;5.450287833809853E-003;
2.419000000000000E+009;1.936375647783279E-001;-4.209541529417038E-002;-1.072849379852414E-003;5.501113366335630E-003;
2.419166666666667E+009;1.921470612287521E-001;-4.254353046417236E-002;-9.091252577491105E-004;5.525046959519386E-003;
2.419333333333334E+009;1.908908933401108E-001;-4.283562675118446E-002;-6.429701461456716E-004;5.595209542661905E-003;
2.419500000000000E+009;1.896090954542160E-001;-4.341654479503632E-002;-4.199498507659882E-004;5.358473397791386E-003;
2.419666666666667E+009;1.879139095544815E-001;-4.410709440708160E-002;-2.520098641980439E-004;5.518258083611727E-003;
2.419833333333334E+009;1.863872855901718E-001;-4.474400356411934E-002;-4.910432107863016E-005;5.451124161481857E-003;
2.420000000000000E+009;1.847694814205170E-001;-4.569653421640396E-002;9.153295104624704E-005;5.490315612405539E-003;
2.420166666666667E+009;1.831551939249039E-001;-4.672386124730110E-002;3.644711978267878E-004;5.308595485985279E-003;
2.420333333333334E+009;1.814808696508408E-001;-4.783736541867256E-002;3.819070698227733E-004;5.433970130980015E-003;
2.420500000000000E+009;1.798861175775528E-001;-4.896445199847221E-002;4.883939982391894E-004;5.475641693919897E-003;
2.420666666666667E+009;1.782846003770828E-001;-5.028754845261574E-002;7.583354017697275E-004;5.266424268484116E-003;
2.420833333333334E+009;1.766874641180039E-001;-5.179969966411591E-002;8.402000530622900E-004;5.289524793624878E-003;
2.421000000000000E+009;1.751072257757187E-001;-5.327963456511498E-002;9.606137173250318E-004;5.144493188709021E-003;
2.421166666666667E+009;1.738609522581101E-001;-5.509372428059578E-002;1.222161576151848E-003;5.154773592948914E-003;
2.421333333333334E+009;1.721880286931992E-001;-5.656152963638306E-002;1.327701145783067E-003;4.915427416563034E-003;
2.421500000000000E+009;1.709110438823700E-001;-5.850429460406303E-002;1.554395887069404E-003;4.830435384064913E-003;
2.421666666666667E+009;1.696926057338715E-001;-6.041236966848373E-002;1.521738129667938E-003;4.870212171226740E-003;
2.421833333333334E+009;1.687212437391281E-001;-6.217439845204353E-002;1.588532119058073E-003;4.788550548255444E-003;
2.422000000000000E+009;1.674807071685791E-001;-6.403998285531998E-002;1.694573205895722E-003;4.824613686650991E-003;
2.422166666666667E+009;1.666079759597778E-001;-6.606217473745346E-002;1.929232385009527E-003;4.675985779613257E-003;
2.422333333333334E+009;1.658726185560226E-001;-6.826104968786240E-002;2.113331342115998E-003;4.578068852424622E-003;
2.422500000000000E+009;1.650733649730682E-001;-7.001636177301407E-002;2.240239875391126E-003;4.352014511823654E-003;
2.422666666666667E+009;1.643514633178711E-001;-7.211259007453919E-002;2.307749586179853E-003;4.300636239349842E-003;
2.422833333333334E+009;1.640395820140839E-001;-7.428880780935288E-002;2.409542212262750E-003;4.336969461292028E-003;
2.423000000000000E+009;1.634735465049744E-001;-7.622986286878586E-002;2.523326082155109E-003;4.087679088115692E-003;
2.423166666666667E+009;1.630826592445374E-001;-7.827183604240418E-002;2.598408143967390E-003;4.061926621943712E-003;
2.423333333333334E+009;1.628014296293259E-001;-8.003945648670197E-002;2.686494262889028E-003;3.941849339753389E-003;
2.423500000000000E+009;1.629279851913452E-001;-8.184345811605454E-002;2.794140717014670E-003;4.034232348203659E-003;
2.423666666666667E+009;1.628579497337341E-001;-8.382984995841980E-002;2.841850742697716E-003;3.819447709247470E-003;
2.423833333333334E+009;1.627513319253922E-001;-8.555374294519424E-002;2.895668847486377E-003;3.723704023286700E-003;
2.424000000000000E+009;1.629607975482941E-001;-8.732596039772034E-002;2.992626512423158E-003;3.616433823481202E-003;
2.424166666666667E+009;1.629098206758499E-001;-8.878962695598602E-002;3.174618585035205E-003;3.661628579720855E-003;
2.424333333333334E+009;1.632625013589859E-001;-9.036637842655182E-002;3.302339930087328E-003;3.409316530451179E-003;
2.424500000000000E+009;1.636609286069870E-001;-9.213188290596008E-002;3.124345326796174E-003;3.412423655390739E-003;
2.424666666666667E+009;1.638533174991608E-001;-9.351081401109695E-002;3.355915658175945E-003;3.223019652068615E-003;
2.424833333333334E+009;1.644725650548935E-001;-9.461870044469833E-002;3.433897858485580E-003;3.055859124287963E-003;
2.425000000000000E+009;1.647748649120331E-001;-9.589079022407532E-002;3.529856214299798E-003;3.002775134518743E-003;
2.425166666666667E+009;1.651381999254227E-001;-9.696776419878006E-002;3.697260515764356E-003;2.775394590571523E-003;
2.425333333333334E+009;1.654438823461533E-001;-9.790617972612381E-002;3.633597167208791E-003;2.636849647387862E-003;
2.425500000000000E+009;1.658686697483063E-001;-9.879392385482788E-002;3.774170763790608E-003;2.536801388487220E-003;
2.425666666666667E+009;1.662237048149109E-001;-9.950507432222366E-002;3.808239474892616E-003;2.423886908218265E-003;
2.425833333333334E+009;1.666542589664459E-001;-1.004977971315384E-001;3.880676114931703E-003;2.171904779970646E-003;
2.426000000000000E+009;1.669682115316391E-001;-1.008000820875168E-001;3.727135946974158E-003;1.938032801263034E-003;
2.426166666666667E+009;1.674345284700394E-001;-1.012495979666710E-001;3.776397090405226E-003;1.969952601939440E-003;
2.426333333333334E+009;1.674478501081467E-001;-1.018213182687759E-001;3.676244523376226E-003;1.929729478433728E-003;
2.426500000000000E+009;1.678660362958908E-001;-1.020716577768326E-001;3.607235616073012E-003;1.766892732121050E-003;
2.426666666666667E+009;1.679942607879639E-001;-1.022990420460701E-001;3.614520654082298E-003;1.784177497029305E-003;
2.426833333333334E+009;1.683327406644821E-001;-1.025692671537399E-001;3.721626708284020E-003;1.582394703291357E-003;
2.427000000000000E+009;1.682355403900147E-001;-1.028894111514092E-001;3.820425365120173E-003;1.494215335696936E-003;
2.427166666666667E+009;1.683011204004288E-001;-1.028889566659927E-001;3.765093628317118E-003;1.436469960026443E-003;
2.427333333333334E+009;1.682089865207672E-001;-1.032133549451828E-001;3.866669256240130E-003;1.270154491066933E-003;
2.427500000000000E+009;1.678563207387924E-001;-1.033583655953407E-001;3.879033727571368E-003;1.330919098109007E-003;
2.427666666666667E+009;1.675600856542587E-001;-1.033886224031448E-001;3.757806960493326E-003;1.164273242466152E-003;
2.427833333333334E+009;1.671186685562134E-001;-1.034474968910217E-001;3.784601110965014E-003;9.699618676677346E-004;
