# Version 1.00
#
freq[Hz];re:Trc1_S11;im:Trc1_S11;re:Trc2_S21;im:Trc2_S21;
2.400000000000000E+009;1.550103276968002E-001;1.066706180572510E-001;3.112825565040112E-003;-5.485640838742256E-003;
2.400166666666667E+009;1.548410207033157E-001;1.043362542986870E-001;2.988251624628902E-003;-5.617489106953144E-003;
2.400333333333334E+009;1.547785848379135E-001;1.019467189908028E-001;3.045192454010248E-003;-5.651584826409817E-003;
2.400500000000000E+009;1.547383517026901E-001;9.927953034639359E-002;2.660016994923353E-003;-5.700510926544666E-003;
2.400666666666667E+009;1.549518555402756E-001;9.677971154451370E-002;2.527612959966064E-003;-6.039704196155071E-003;
2.400833333333334E+009;1.549836844205856E-001;9.393957257270813E-002;2.349260961636901E-003;-6.028566043823957E-003;
2.401000000000000E+009;1.551653891801834E-001;9.095173329114914E-002;2.172514563426375E-003;-6.302203517407179E-003;
2.401166666666667E+009;1.552198380231857E-001;8.825358748435974E-002;1.844660961069167E-003;-6.103686057031155E-003;
2.401333333333334E+009;1.555415391921997E-001;8.554307371377945E-002;1.697301282547414E-003;-6.351010873913765E-003;
2.401500000000000E+009;1.560571193695068E-001;8.254589885473251E-002;1.623483840376139E-003;-6.492687389254570E-003;
2.401666666666667E+009;1.565013378858566E-001;7.971403002738953E-002;1.242527738213539E-003;-6.577687803655863E-003;
2.401833333333334E+009;1.568389683961868E-001;7.715022563934326E-002;1.195836230181158E-003;-6.565873045474291E-003;
2.402000000000000E+009;1.578788906335831E-001;7.438788563013077E-002;1.032166997902095E-003;-6.733106914907694E-003;
2.402166666666667E+009;1.585294157266617E-001;7.169469445943832E-002;6.052128737792373E-004;-6.898154038935900E-003;
2.402333333333334E+009;1.595518887042999E-001;6.885879486799240E-002;5.720755434595048E-004;-6.942368112504482E-003;
2.402500000000000E+009;1.608071923255920E-001;6.660952419042587E-002;1.255890820175409E-004;-6.921302992850542E-003;
2.402666666666667E+009;1.618807762861252E-001;6.419902294874191E-002;-2.305760572198778E-004;-7.015513256192207E-003;
2.402833333333334E+009;1.632254421710968E-001;6.175819039344788E-002;-4.605889553204179E-004;-7.117477711290121E-003;
2.403000000000000E+009;1.647132039070129E-001;5.928292125463486E-002;-7.258703117258847E-004;-6.927028298377991E-003;
2.403166666666667E+009;1.664102673530579E-001;5.723338201642036E-002;-1.080202171579003E-003;-7.100652437657118E-003;
2.403333333333334E+009;1.680121421813965E-001;5.513105168938637E-002;-1.443271525204182E-003;-6.917647551745176E-003;
2.403500000000000E+009;1.694991886615753E-001;5.315055698156357E-002;-1.652434119023383E-003;-6.829449906945229E-003;
2.403666666666667E+009;1.712503582239151E-001;5.112327262759209E-002;-2.006390132009983E-003;-6.807682104408741E-003;
2.403833333333334E+009;1.730099469423294E-001;4.923420771956444E-002;-2.240797271952033E-003;-6.824271287769079E-003;
2.404000000000000E+009;1.743804812431335E-001;4.756640642881393E-002;-2.543023787438870E-003;-6.597050465643406E-003;
2.404166666666667E+009;1.762142479419708E-001;4.598692432045937E-002;-2.623802982270718E-003;-6.441870238631964E-003;
2.404333333333334E+009;1.779278069734573E-001;4.457521438598633E-002;-2.932612784206867E-003;-6.403751205652952E-003;
2.404500000000000E+009;1.793940663337708E-001;4.317383840680122E-002;-3.180086612701416E-003;-6.202522665262222E-003;
2.404666666666667E+009;1.810555905103684E-001;4.208056628704071E-002;-3.368788165971637E-003;-6.241837982088327E-003;
2.404833333333334E+009;1.827275007963181E-001;4.106726124882698E-002;-3.578138770535588E-003;-6.034957244992256E-003;
2.405000000000000E+009;1.840617805719376E-001;4.045227915048599E-002;-3.868977772071958E-003;-5.666238721460104E-003;
2.405166666666667E+009;1.855501979589462E-001;3.970010951161385E-002;-4.346766509115696E-003;-5.744518246501684E-003;
2.405333333333334E+009;1.869084686040878E-001;3.919256106019020E-002;-4.475313704460859E-003;-5.517669487744570E-003;
2.405500000000000E+009;1.882866472005844E-001;3.874721750617027E-002;-4.639885853976011E-003;-5.428463686257601E-003;
2.405666666666667E+009;1.894648373126984E-001;3.837576881051064E-002;-4.832500126212835E-003;-5.314183421432972E-003;
2.405833333333334E+009;1.908007115125656E-001;3.822027519345284E-002;-4.898428916931152E-003;-4.936556331813335E-003;
2.406000000000000E+009;1.917304098606110E-001;3.793977200984955E-002;-5.342534743249416E-003;-4.656896926462650E-003;
2.406166666666667E+009;1.926878839731216E-001;3.781198337674141E-002;-5.355951841920614E-003;-4.368595313280821E-003;
2.406333333333334E+009;1.936144679784775E-001;3.776822984218597E-002;-5.652412772178650E-003;-4.150207620114088E-003;
2.406500000000000E+009;1.943810135126114E-001;3.785867989063263E-002;-5.674507934600115E-003;-3.732557641342282E-003;
2.406666666666667E+009;1.950242668390274E-001;3.786107897758484E-002;-5.703832488507032E-003;-3.448178293183446E-003;
2.406833333333334E+009;1.955772638320923E-001;3.795640170574188E-002;-5.891521926969290E-003;-3.172407625243068E-003;
2.407000000000000E+009;1.958538293838501E-001;3.821261972188950E-002;-6.056739017367363E-003;-2.967583015561104E-003;
2.407166666666667E+009;1.961147636175156E-001;3.793502226471901E-002;-5.919363349676132E-003;-2.796089043840766E-003;
2.407333333333334E+009;1.961379647254944E-001;3.817710280418396E-002;-5.828936118632555E-003;-2.277247374877334E-003;
2.407500000000000E+009;1.959364116191864E-001;3.826989606022835E-002;-5.908814724534750E-003;-2.309805713593960E-003;
2.407666666666667E+009;1.961174011230469E-001;3.818808123469353E-002;-5.954027175903320E-003;-1.893007429316640E-003;
2.407833333333334E+009;1.956295073032379E-001;3.802366554737091E-002;-5.880191456526518E-003;-1.870661973953247E-003;
2.408000000000000E+009;1.955042183399200E-001;3.788745403289795E-002;-5.845947191119194E-003;-1.459424616768956E-003;
2.408166666666667E+009;1.948690116405487E-001;3.751269355416298E-002;-5.735096521675587E-003;-1.279862131923437E-003;
2.408333333333334E+009;1.944351643323898E-001;3.706629946827889E-002;-5.677788518369198E-003;-1.085703843273222E-003;
2.408500000000000E+009;1.938166767358780E-001;3.669379651546478E-002;-5.654562264680862E-003;-9.199581108987331E-004;
2.408666666666667E+009;1.931311488151550E-001;3.616354614496231E-002;-5.540851503610611E-003;-6.413583760149777E-004;
2.408833333333334E+009;1.925221085548401E-001;3.544140607118607E-002;-5.499135702848434E-003;-5.660837632603943E-004;
2.409000000000000E+009;1.914886832237244E-001;3.455885127186775E-002;-5.367619916796684E-003;-3.567200910765678E-004;
2.409166666666667E+009;1.905475854873657E-001;3.341868147253990E-002;-5.268185399472714E-003;-2.413843758404255E-004;
2.409333333333334E+009;1.897476315498352E-001;3.243873268365860E-002;-5.184656009078026E-003;-1.603732671355829E-004;
2.409500000000000E+009;1.885632574558258E-001;3.117422945797443E-002;-5.010974593460560E-003;-4.327181886765175E-005;
2.409666666666667E+009;1.875204890966415E-001;2.967740409076214E-002;-4.998039919883013E-003;4.020340566057712E-005;
2.409833333333334E+009;1.865206509828568E-001;2.832766808569431E-002;-4.792463965713978E-003;1.468877599108964E-004;
2.410000000000000E+009;1.856126487255096E-001;2.655003406107426E-002;-4.668406676501036E-003;7.488756091333926E-005;
2.410166666666667E+009;1.844970434904099E-001;2.473533712327480E-002;-4.613148979842663E-003;7.690546772209927E-005;
2.410333333333334E+009;1.835225522518158E-001;2.307424694299698E-002;-4.573593381792307E-003;2.380945079494268E-004;
2.410500000000000E+009;1.826662421226502E-001;2.107732743024826E-002;-4.457694012671709E-003;3.456290287431330E-004;
2.410666666666667E+009;1.817839145660400E-001;1.867403648793697E-002;-4.427540581673384E-003;4.181242838967592E-004;
2.410833333333334E+009;1.811163872480393E-001;1.671321503818035E-002;-4.531041719019413E-003;2.861483662854880E-004;
2.411000000000000E+009;1.804073005914688E-001;1.435889489948750E-002;-4.233101382851601E-003;5.164337926544249E-004;
2.411166666666667E+009;1.798441708087921E-001;1.229731459170580E-002;-4.383999388664961E-003;4.454150039236993E-004;
2.411333333333334E+009;1.792404502630234E-001;9.573755785822868E-003;-4.341380670666695E-003;4.496854089666158E-004;
2.411500000000000E+009;1.789360195398331E-001;7.301989011466503E-003;-4.246234893798828E-003;5.898252711631358E-004;
2.411666666666667E+009;1.786945164203644E-001;4.992526955902576E-003;-4.201985895633698E-003;7.194434874691069E-004;
2.411833333333334E+009;1.784306913614273E-001;2.581773325800896E-003;-4.222404211759567E-003;6.280751549638808E-004;
2.412000000000000E+009;1.785403192043304E-001;2.732345274125692E-005;-4.189362283796072E-003;8.095372468233109E-004;
2.412166666666667E+009;1.786766052246094E-001;-2.176955342292786E-003;-4.283954855054617E-003;8.095306111499667E-004;
2.412333333333334E+009;1.789762973785400E-001;-4.843818489462137E-003;-4.248613025993109E-003;7.968997233547270E-004;
2.412500000000000E+009;1.793468296527863E-001;-7.195963058620691E-003;-4.082852043211460E-003;7.029611151665449E-004;
2.412666666666667E+009;1.798940151929855E-001;-9.764621034264565E-003;-4.270537290722132E-003;8.751181885600090E-004;
2.412833333333334E+009;1.806418895721436E-001;-1.221207808703184E-002;-4.340560175478458E-003;9.022050653584302E-004;
2.413000000000000E+009;1.813718527555466E-001;-1.437618583440781E-002;-4.284319933503866E-003;1.060162554495037E-003;
2.413166666666667E+009;1.821956932544708E-001;-1.670715026557446E-002;-4.343010485172272E-003;1.099758432246745E-003;
2.413333333333334E+009;1.829617023468018E-001;-1.909062080085278E-002;-4.564434755593538E-003;1.217387733049691E-003;
2.413500000000000E+009;1.838850080966950E-001;-2.132154069840908E-002;-4.581273067742586E-003;1.264991937205195E-003;
2.413666666666667E+009;1.850603222846985E-001;-2.339351177215576E-002;-4.620425403118134E-003;1.509969239123166E-003;
2.413833333333334E+009;1.863090991973877E-001;-2.533246763050556E-002;-4.497648216784000E-003;1.611402141861618E-003;
2.414000000000000E+009;1.874105930328369E-001;-2.751785889267921E-002;-4.561117384582758E-003;1.814897987060249E-003;
2.414166666666667E+009;1.885566115379334E-001;-2.898448333144188E-002;-4.612486343830824E-003;1.915047294460237E-003;
2.414333333333334E+009;1.896198689937592E-001;-3.094556741416454E-002;-4.502558149397373E-003;2.075380645692349E-003;
2.414500000000000E+009;1.908945590257645E-001;-3.250258415937424E-002;-4.425213672220707E-003;2.325247507542372E-003;
2.414666666666667E+009;1.921012997627258E-001;-3.402000665664673E-002;-4.441973287612200E-003;2.465497236698866E-003;
2.414833333333334E+009;1.932446956634522E-001;-3.523018583655357E-002;-4.242494236677885E-003;2.680283272638917E-003;
2.415000000000000E+009;1.942355036735535E-001;-3.660110011696816E-002;-4.182959441095591E-003;2.766879042610526E-003;
2.415166666666667E+009;1.954319179058075E-001;-3.764634206891060E-002;-4.057040438055992E-003;2.730736043304205E-003;
2.415333333333334E+009;1.966025829315186E-001;-3.848444670438767E-002;-4.046716727316380E-003;3.030500840395689E-003;
2.415500000000000E+009;1.977432519197464E-001;-3.931335359811783E-002;-4.183945246040821E-003;3.152652643620968E-003;
2.415666666666667E+009;1.987521499395371E-001;-4.007363691926003E-002;-3.980534151196480E-003;3.213794203475118E-003;
2.415833333333334E+009;1.994867920875549E-001;-4.060177505016327E-002;-3.977766726166010E-003;3.237337572500110E-003;
2.416000000000000E+009;2.003484070301056E-001;-4.127499833703041E-002;-3.754080506041646E-003;3.562352852895856E-003;
2.416166666666667E+009;2.011187672615051E-001;-4.177322983741760E-002;-3.940046764910221E-003;3.642581636086106E-003;
2.416333333333334E+009;2.016604989767075E-001;-4.197049140930176E-002;-3.852068446576595E-003;3.898767288774252E-003;
2.416500000000000E+009;2.021270543336868E-001;-4.219101369380951E-002;-3.764250082895160E-003;3.937840927392244E-003;
2.416666666666667E+009;2.024592608213425E-001;-4.254981875419617E-002;-3.591919085010886E-003;4.310159478336573E-003;
2.416833333333334E+009;2.025886923074722E-001;-4.248650744557381E-002;-3.578092437237501E-003;4.338028375059366E-003;
2.417000000000000E+009;2.027182430028915E-001;-4.270335659384728E-002;-3.348528407514095E-003;4.645297303795815E-003;
2.417166666666667E+009;2.024902403354645E-001;-4.266211390495300E-002;-3.168662311509252E-003;4.770495928823948E-003;
2.417333333333334E+009;2.023237794637680E-001;-4.236362501978874E-002;-2.990686334669590E-003;4.929617978632450E-003;
2.417500000000000E+009;2.019541561603546E-001;-4.241517186164856E-002;-2.742879325523973E-003;4.887423478066921E-003;
2.417666666666667E+009;2.013763338327408E-001;-4.221784695982933E-002;-2.669424284249544E-003;5.092720966786146E-003;
2.417833333333334E+009;2.009265571832657E-001;-4.202560335397720E-002;-2.317056292667985E-003;5.355683621019125E-003;
2.418000000000000E+009;2.003329247236252E-001;-4.179156199097633E-002;-2.397423842921853E-003;5.427431315183640E-003;
2.418166666666667E+009;1.994978934526444E-001;-4.173760116100311E-002;-1.951692509464920E-003;5.305575206875801E-003;
2.418333333333334E+009;1.985878348350525E-001;-4.156746342778206E-002;-1.794008188880980E-003;5.389185156673193E-003;
2.418500000000000E+009;1.976895630359650E-001;-4.171781986951828E-002;-1.710084383375943E-003;5.382852163165808E-003;
2.418666666666667E+009;1.967658698558807E-001;-4.160809516906738E-002;-1.595385489054024E-003;5.632357671856880E-003;
2.418833333333334E+009;1.953082978725433E-001;-4.179884120821953E-002;-1.292751519940794E-003;5.537485703825951E-003;
2.419000000000000E+009;1.941253691911697E-001;-4.211892560124397E-002;-1.083067036233842E-003;5.565348546952009E-003;
2.419166666666667E+009;1.928996443748474E-001;-4.228008165955544E-002;-7.662067655473948E-004;5.548776127398014E-003;
2.419333333333334E+009;1.915268599987030E-001;-4.286795482039452E-002;-6.877335254102945E-004;5.521655548363924E-003;
2.419500000000000E+009;1.899488717317581E-001;-4.329915344715118E-002;-6.278163637034595E-004;5.491374060511589E-003;
2.419666666666667E+009;1.883161664009094E-001;-4.413183405995369E-002;-3.119907050859183E-004;5.543826613575220E-003;
2.419833333333334E+009;1.867409795522690E-001;-4.476211965084076E-002;-1.086736301658675E-004;5.427049472928047E-003;
2.420000000000000E+009;1.852533817291260E-001;-4.579474031925201E-002;9.370788757223636E-005;5.522129591554403E-003;
2.420166666666667E+009;1.837394833564758E-001;-4.668754711747170E-002;2.563824527896941E-004;5.503111053258181E-003;
2.420333333333334E+009;1.820745617151260E-001;-4.785448685288429E-002;4.050082643516362E-004;5.449235439300537E-003;
2.420500000000000E+009;1.804449707269669E-001;-4.919303208589554E-002;5.382425733841956E-004;5.213546101003885E-003;
2.420666666666667E+009;1.788655519485474E-001;-5.047962814569473E-002;6.181880016811192E-004;5.327017046511173E-003;
2.420833333333334E+009;1.771757900714874E-001;-5.186191573739052E-002;7.922667427919805E-004;5.118028726428747E-003;
2.421000000000000E+009;1.756648570299149E-001;-5.350305512547493E-002;9.978697635233402E-004;5.239665042608976E-003;
2.421166666666667E+009;1.743946373462677E-001;-5.519023537635803E-002;1.135098747909069E-003;5.037331487983465E-003;
2.421333333333334E+009;1.728169620037079E-001;-5.679138377308846E-002;1.266557490453124E-003;4.859889857470989E-003;
2.421500000000000E+009;1.714541018009186E-001;-5.859671533107758E-002;1.326655969023705E-003;4.896040540188551E-003;
2.421666666666667E+009;1.703811883926392E-001;-6.055759638547897E-002;1.584228826686740E-003;4.850005730986595E-003;
2.421833333333334E+009;1.692337542772293E-001;-6.239620223641396E-002;1.635986147448421E-003;4.750022199004889E-003;
2.422000000000000E+009;1.680167764425278E-001;-6.430010497570038E-002;1.767411245964468E-003;4.828114528208971E-003;
2.422166666666667E+009;1.672226190567017E-001;-6.630625575780869E-002;1.907564583234489E-003;4.573469050228596E-003;
2.422333333333334E+009;1.662768870592117E-001;-6.856423616409302E-002;2.048698021098971E-003;4.539473447948694E-003;
2.422500000000000E+009;1.655902713537216E-001;-7.035709917545319E-002;2.099305158481002E-003;4.365593194961548E-003;
2.422666666666667E+009;1.647640019655228E-001;-7.241848856210709E-002;2.423720201477408E-003;4.303001798689365E-003;
2.422833333333334E+009;1.643871963024139E-001;-7.451165467500687E-002;2.242635935544968E-003;4.315559286624193E-003;
2.423000000000000E+009;1.638745814561844E-001;-7.667187601327896E-002;2.443723380565643E-003;4.264739807695150E-003;
2.423166666666667E+009;1.635207086801529E-001;-7.844517379999161E-002;2.608757233247161E-003;3.980988636612892E-003;
2.423333333333334E+009;1.632733494043350E-001;-8.055388927459717E-002;2.612766111269593E-003;3.859683871269226E-003;
2.423500000000000E+009;1.632242649793625E-001;-8.226422220468521E-002;2.709013409912586E-003;3.956195432692766E-003;
2.423666666666667E+009;1.632397919893265E-001;-8.417798578739166E-002;2.834099577739835E-003;3.818070748820901E-003;
2.423833333333334E+009;1.631821841001511E-001;-8.592769503593445E-002;2.888539107516408E-003;3.684409195557237E-003;
2.424000000000000E+009;1.632845848798752E-001;-8.784323930740356E-002;2.997035160660744E-003;3.767796792089939E-003;
2.424166666666667E+009;1.633006483316422E-001;-8.934731781482697E-002;2.912294818088412E-003;3.580646822229028E-003;
2.424333333333334E+009;1.635769456624985E-001;-9.087465703487396E-002;3.172981552779675E-003;3.384567564353347E-003;
2.424500000000000E+009;1.639048606157303E-001;-9.266272187232971E-002;3.244396531954408E-003;3.378219436854124E-003;
2.424666666666667E+009;1.640787124633789E-001;-9.399943053722382E-002;3.347740042954683E-003;3.209695452824235E-003;
2.424833333333334E+009;1.647344976663590E-001;-9.523618966341019E-002;3.292753361165524E-003;3.082117764279246E-003;
2.425000000000000E+009;1.649683564901352E-001;-9.636640548706055E-002;3.500371240079403E-003;3.022977150976658E-003;
2.425166666666667E+009;1.654251515865326E-001;-9.759353846311569E-002;3.572697052732110E-003;2.960111945867539E-003;
2.425333333333334E+009;1.656710654497147E-001;-9.834009408950806E-002;3.835595445707440E-003;2.814403036609292E-003;
2.425500000000000E+009;1.660072058439255E-001;-9.939403086900711E-002;3.561996854841709E-003;2.542463131248951E-003;
2.425666666666667E+009;1.664636433124542E-001;-1.000915914773941E-001;3.824316198006272E-003;2.413605805486441E-003;
2.425833333333334E+009;1.667138487100601E-001;-1.008719131350517E-001;3.849523840472102E-003;2.239559311419725E-003;
2.426000000000000E+009;1.671558320522308E-001;-1.013161316514015E-001;3.843438811600208E-003;2.209614031016827E-003;
2.426166666666667E+009;1.675156056880951E-001;-1.018121093511581E-001;3.824582323431969E-003;2.197171328589320E-003;
2.426333333333334E+009;1.675423085689545E-001;-1.022581085562706E-001;3.794597694650292E-003;1.982694258913398E-003;
2.426500000000000E+009;1.679025143384934E-001;-1.025168746709824E-001;3.753941738978028E-003;1.667893026024103E-003;
2.426666666666667E+009;1.680807173252106E-001;-1.028322204947472E-001;3.696347819641233E-003;1.759196980856359E-003;
2.426833333333334E+009;1.683291047811508E-001;-1.031662300229073E-001;3.814575960859656E-003;1.633304753340781E-003;
2.427000000000000E+009;1.682262718677521E-001;-1.033015847206116E-001;3.735476639121771E-003;1.598567585460842E-003;
2.427166666666667E+009;1.683087795972824E-001;-1.033982411026955E-001;3.612946951761842E-003;1.480407547205687E-003;
2.427333333333334E+009;1.681413352489471E-001;-1.035887002944946E-001;3.838872304186225E-003;1.426695613190532E-003;
2.427500000000000E+009;1.678264886140823E-001;-1.039252132177353E-001;3.750729141756892E-003;1.312982756644487E-003;
2.427666666666667E+009;1.675635576248169E-001;-1.039120927453041E-001;3.727738978341222E-003;1.193151692859829E-003;
2.427833333333334E+009;1.670532226562500E-001;-1.040087714791298E-001;3.633138956502080E-003;1.136979088187218E-003;
