# Hz S RI R 
2400000000.0000000000 0.167600363492965698242187500000 0.041316080838441848754882812500 0.002159624127671122984645224463 -0.003417192492634057998657226562 0 0 0 0 
2400166666.6666665077 0.168322890996933011154013115629 0.040585588663816452026367187500 0.001940229092724621079088520581 -0.003438614076003431840183877100 0 0 0 0 
2400333333.3333334923 0.168793275952339200118856865629 0.039527259767055511474609375000 0.001777798286639153957366943359 -0.003572378307580947875976562500 0 0 0 0 
2400500000.0000000000 0.169199287891387911697549384371 0.038716930896043777465820312500 0.001813363516703248023986816406 -0.003685351926833391189575195312 0 0 0 0 
2400666666.6666665077 0.169623777270317105392294365629 0.037615999579429633403737653907 0.001624303171411157088038779150 -0.003663619281724094910862588037 0 0 0 0 
2400833333.3333334923 0.169942960143089294433593750000 0.036835949867963790893554687500 0.001624636235646903948542929541 -0.003652612911537290053126669775 0 0 0 0 
2401000000.0000000000 0.170320987701415987869424384371 0.035910852253437042236328125000 0.001329437131062150001525878906 -0.003773479955270885987522744287 0 0 0 0 
2401166666.6666665077 0.170593515038490295410156250000 0.035068225115537643432617187500 0.001205665175803005912183452075 -0.003924796357750892639160156250 0 0 0 0 
2401333333.3333334923 0.170736029744148309905682481258 0.034138195216655731201171875000 0.001151035889051855044123984229 -0.003849217435345054106471396338 0 0 0 0 
2401500000.0000000000 0.171063676476478604415731865629 0.033232714980840682983398437500 0.000827896117698401212692260742 -0.003880885196849703788757324219 0 0 0 0 
2401666666.6666665077 0.171131446957588195800781250000 0.032348617911338813091237653907 0.000887069036252796649932861328 -0.004075400065630674362182617188 0 0 0 0 
2401833333.3333334923 0.171136572957038907150106865629 0.031288210302591316913645158593 0.000582579348701983690261840820 -0.003936013206839562329764081738 0 0 0 0 
2402000000.0000000000 0.171111613512039212325888115629 0.030437635257840160024622733204 0.000384682673029601573944091797 -0.004065588582307100296020507812 0 0 0 0 
2402166666.6666665077 0.171182513236999511718750000000 0.029491739347577098501185233204 0.000215421183384023606777191162 -0.003873606445267796950099326025 0 0 0 0 
2402333333.3333334923 0.171201258897781399825888115629 0.028308043256402019155482108204 0.000081471072917338460683822632 -0.003926921635866165161132812500 0 0 0 0 
2402500000.0000000000 0.171346917748451205154580634371 0.027388727292418479919433593750 -0.000268161325948312878608703613 -0.003967031370848417282104492188 0 0 0 0 
2402666666.6666665077 0.171404018998146112640057481258 0.026483781635761260986328125000 -0.000299888808513060212135314941 -0.003754052799195051193237304688 0 0 0 0 
2402833333.3333334923 0.171311452984809903243856865629 0.025461452081799510610560233204 -0.000486428762087598388821202411 -0.003705827519297599792480468750 0 0 0 0 
2403000000.0000000000 0.171204209327697809417401231258 0.024320557713508609426478201954 -0.000667189946398138999938964844 -0.003318478586152195930480957031 0 0 0 0 
2403166666.6666665077 0.171210259199142511565838731258 0.023012565448880199087122733204 -0.000815023435279726982116699219 -0.003498808247968554930446005713 0 0 0 0 
2403333333.3333334923 0.171182692050933810135049384371 0.022171186283230781555175781250 -0.000809937133453786373138427734 -0.003201484447345138029811240088 0 0 0 0 
2403500000.0000000000 0.171003729104995699783486884371 0.020992478355765339242955391796 -0.000924741791095584630966186523 -0.003024789039045571847202920068 0 0 0 0 
2403666666.6666665077 0.170869842171669006347656250000 0.019819509238004680978795235546 -0.000902492029126733541488647461 -0.002860922832041978836059570312 0 0 0 0 
2403833333.3333334923 0.170847073197364807128906250000 0.018430914729833599435826485546 -0.001046967692673205895664834131 -0.002746397396549582915065146338 0 0 0 0 
2404000000.0000000000 0.170719832181930486481036268742 0.017209304496645930898646170704 -0.001082481001503766016719199072 -0.002387533430010079903843545068 0 0 0 0 
2404166666.6666665077 0.170664787292480496505575615629 0.015842925757169720041295235546 -0.000908333982806652784347534180 -0.002349850488826632933375693213 0 0 0 0 
2404333333.3333334923 0.170521453022956903655682481258 0.014595488086342809849749180273 -0.000804934476036578416824340820 -0.002465843223035335974452353369 0 0 0 0 
2404500000.0000000000 0.170415014028549194335937500000 0.013152964413166049612025076954 -0.000635002623312175273895263672 -0.002272089477628469900843954932 0 0 0 0 
2404666666.6666665077 0.170403316617011996170205634371 0.011796367354691030329694179102 -0.000589768111240118741989135742 -0.002215455984696745872497558594 0 0 0 0 
2404833333.3333334923 0.170367002487182589431924384371 0.010464264079928399867047694727 -0.000635305128525942564010620117 -0.002265671035274862809422158350 0 0 0 0 
2405000000.0000000000 0.170309811830520602127236884371 0.008882095105946063995361328125 -0.000500369700603187084197998047 -0.002271306235343217849731445312 0 0 0 0 
2405166666.6666665077 0.170354261994361905196981865629 0.007511783391237258911132812500 -0.000391960580600425601005554199 -0.002469588769599794907810830225 0 0 0 0 
2405333333.3333334923 0.170441076159477206131143134371 0.006004703231155872344970703125 -0.000517021806444972753524780273 -0.002669834066182374954223632812 0 0 0 0 
2405500000.0000000000 0.170253694057464599609375000000 0.004415867850184440612792968750 -0.000255537073826417326927185059 -0.002619510749354958967921591650 0 0 0 0 
2405666666.6666665077 0.170281976461410494705361884371 0.003003265941515564918518066406 -0.000367770320735871791839599609 -0.002645525848492980003356933594 0 0 0 0 
2405833333.3333334923 0.170168116688728304763955634371 0.001325340475887059948564838940 -0.000507097225636243820190429688 -0.002671056892722845077514648438 0 0 0 0 
2406000000.0000000000 0.170191287994384793380575615629 -0.000351196096744388287693577899 -0.000501170754432678222656250000 -0.002966757165268063978907919775 0 0 0 0 
2406166666.6666665077 0.169905662536621093750000000000 -0.001783834071829915046691894531 -0.000473538762889802510112208234 -0.003017004346475005149841308594 0 0 0 0 
2406333333.3333334923 0.170056089758873013595419365629 -0.003321798751130700111389160156 -0.000745444733183830976486206055 -0.003042558440938591957092285156 0 0 0 0 
2406500000.0000000000 0.169821903109550503829794365629 -0.004871332552284002304077148438 -0.000882850377820432186126708984 -0.003200376173481345176696777344 0 0 0 0 
2406666666.6666665077 0.169601932168006896972656250000 -0.006374723277986049652099609375 -0.001157134654931724071502685547 -0.003179930616170167922973632812 0 0 0 0 
2406833333.3333334923 0.169355586171150207519531250000 -0.007896700873970985412597656250 -0.001153426477685570933698344653 -0.003190410789102315902709960938 0 0 0 0 
2407000000.0000000000 0.169345229864120511154013115629 -0.009144531562924385070800781250 -0.001388193806633353016496967847 -0.003292723093181848959681845557 0 0 0 0 
2407166666.6666665077 0.169330328702926607986611884371 -0.010554697364568710327148437500 -0.001509829540736973068834614331 -0.003129393327981234030482626807 0 0 0 0 
2407333333.3333334923 0.168928369879722595214843750000 -0.012039645574986939866035662305 -0.001620855298824607892277382959 -0.003165470203384757041931152344 0 0 0 0 
2407500000.0000000000 0.168854176998138399978799384371 -0.013243173249065879476527030079 -0.001882043899968266920802451025 -0.003153739962726831002476357568 0 0 0 0 
2407666666.6666665077 0.168687120079994201660156250000 -0.014374503865838050842285156250 -0.001965795876458286805393838037 -0.002989657456055283980128622900 0 0 0 0 
2407833333.3333334923 0.168404683470726013183593750000 -0.015694219619035720825195312500 -0.002181880641728640036342001807 -0.002816537395119667053222656250 0 0 0 0 
2408000000.0000000000 0.168468639254570007324218750000 -0.016788454726338390005091483204 -0.002373838564381002946140908350 -0.002740997821092606024501181494 0 0 0 0 
2408166666.6666665077 0.168421790003776605804119981258 -0.017443247139453891408900076954 -0.002359774429351090951206826318 -0.002781456802040338949916220557 0 0 0 0 
2408333333.3333334923 0.168342828750610407073651231258 -0.018488271161913868295689766796 -0.002522370312362908883335732568 -0.002455992158502339883091591943 0 0 0 0 
2408500000.0000000000 0.168391436338424710372763115629 -0.019490556791424751281738281250 -0.002538595115765928788426064600 -0.002394285751506686210632324219 0 0 0 0 
2408666666.6666665077 0.168278247117996188064736884371 -0.020373744890093799936314766796 -0.002597281476482748985290527344 -0.002096176613122224807739257812 0 0 0 0 
2408833333.3333334923 0.168192103505134610275106865629 -0.021343728527426719665527343750 -0.002592009026557207107543945312 -0.002072639996185899214503622900 0 0 0 0 
2409000000.0000000000 0.168258741497993496993856865629 -0.021936619654297828674316406250 -0.002542644971981645064112997900 -0.001690216246061027050018310547 0 0 0 0 
2409166666.6666665077 0.168529585003852788727130018742 -0.023044573143124580383300781250 -0.002544273855164647102355957031 -0.001704601570963859991786337744 0 0 0 0 
2409333333.3333334923 0.168765261769294711013955634371 -0.023896260187029838562011718750 -0.002411732217296957969665527344 -0.001670442521572113037109375000 0 0 0 0 
2409500000.0000000000 0.168810814619064303299111884371 -0.024985337629914280282994454296 -0.002276305574923754172084189307 -0.001712496741674841100808168726 0 0 0 0 
2409666666.6666665077 0.168776825070381192306356865629 -0.025700569152832031250000000000 -0.002344468608498572869541787256 -0.001796248136088252067565917969 0 0 0 0 
2409833333.3333334923 0.168746978044509887695312500000 -0.026577813550829890859583670704 -0.002332982141524552865269326318 -0.001711012213490902943852089990 0 0 0 0 
2410000000.0000000000 0.169180706143379211425781250000 -0.027439961209893230092982108204 -0.002220085589215158982517861475 -0.001772038755007087967516254956 0 0 0 0 
2410166666.6666665077 0.169132769107818603515625000000 -0.028287539258599281311035156250 -0.002166924998164176940917968750 -0.001709238742478192069410014575 0 0 0 0 
2410333333.3333334923 0.168953374028205899337606865629 -0.029409877955913540231724923046 -0.002374048111960291862487792969 -0.001806790707632899067522358472 0 0 0 0 
2410500000.0000000000 0.169098690152168301681356865629 -0.030291933566331859933873360546 -0.002426865277811884880065917969 -0.001756080193445086912867880713 0 0 0 0 
2410666666.6666665077 0.168790459632873507400674384371 -0.031453687697649002075195312500 -0.002616101177409290833714150537 -0.001775802229531108899357461084 0 0 0 0 
2410833333.3333334923 0.168947100639343289474325615629 -0.032207246869802481914479841407 -0.002577924402430654005763388525 -0.001784191583283245997187949072 0 0 0 0 
2411000000.0000000000 0.168807297945022610763388115629 -0.033131413161754608154296875000 -0.002739963820204139189479208838 -0.001887686317786573930027627100 0 0 0 0 
2411166666.6666665077 0.168404564261436490157919365629 -0.034261669963598251342773437500 -0.003026694525033235983607626807 -0.001665827701799571947810507666 0 0 0 0 
2411333333.3333334923 0.168125361204147311111611884371 -0.034964490681886672973632812500 -0.002951073693111538887023925781 -0.001604413264431058926823281396 0 0 0 0 
2411500000.0000000000 0.167996630072593688964843750000 -0.036035481840372092510182966407 -0.002932158065959811210632324219 -0.001509688096120953993556357275 0 0 0 0 
2411666666.6666665077 0.167846858501434298416299384371 -0.036754596978425979614257812500 -0.003052259562537074089050292969 -0.001507330103777348995208740234 0 0 0 0 
2411833333.3333334923 0.167588800191879300216513115629 -0.037763081490993499755859375000 -0.003224677639082074165344238281 -0.001341238035820424990413046729 0 0 0 0 
2412000000.0000000000 0.167230665683746310135049384371 -0.038605771958827972412109375000 -0.003257641801610589027404785156 -0.001252734451554716067073202979 0 0 0 0 
2412166666.6666665077 0.167082324624061612228231865629 -0.039739817380905151367187500000 -0.003212756011635065078735351562 -0.001395122846588491959812783350 0 0 0 0 
2412333333.3333334923 0.167003586888313293457031250000 -0.040508277714252471923828125000 -0.003311286447569727897644042969 -0.001035265042446553923963237231 0 0 0 0 
2412500000.0000000000 0.166393026709556607345419365629 -0.041395977139472961425781250000 -0.003288707695901393890380859375 -0.001029502716846764087677001953 0 0 0 0 
2412666666.6666665077 0.166135892271995488922442518742 -0.042775452136993408203125000000 -0.003254439216107130050659179688 -0.000956459261942654848098754883 0 0 0 0 
2412833333.3333334923 0.165782615542411804199218750000 -0.043649498373270041728932966407 -0.003251798218116164207458496094 -0.000913318013772368431091308594 0 0 0 0 
2413000000.0000000000 0.165313243865966796875000000000 -0.044580888003110892559011091407 -0.003316217334941029982325888525 -0.000904683605767786502838134766 0 0 0 0 
2413166666.6666665077 0.164858877658843994140625000000 -0.045580796897411353374440778907 -0.003549508284777402877807617188 -0.000815387465991079807281494141 0 0 0 0 
2413333333.3333334923 0.164425387978553799728231865629 -0.046648979187011718750000000000 -0.003513519652187823815586709131 -0.000838407431729137897491455078 0 0 0 0 
2413500000.0000000000 0.164067253470420809646768134371 -0.047760412096977226947824846093 -0.003626597579568624930140829932 -0.000750199717003852128982543945 0 0 0 0 
2413666666.6666665077 0.163575962185859707931356865629 -0.048691846430301673198659528907 -0.003805104410275816917419433594 -0.000585639732889831066131591797 0 0 0 0 
2413833333.3333334923 0.163058251142501803299111884371 -0.049778465181589126586914062500 -0.003785891691222786903381347656 -0.000662970123812556266784667969 0 0 0 0 
2414000000.0000000000 0.162543177604675292968750000000 -0.050743654370307922363281250000 -0.003986421041190624237060546875 -0.000639776582829654216766357422 0 0 0 0 
2414166666.6666665077 0.162367194890976007659588731258 -0.051614657044410712505300153907 -0.004068085458129644393920898438 -0.000388041167752817273139953613 0 0 0 0 
2414333333.3333334923 0.161960467696189908126669365629 -0.052646908909082412719726562500 -0.004095824901014566421508789062 -0.000202240902581252211898249493 0 0 0 0 
2414500000.0000000000 0.161792322993278503417968750000 -0.053549088537693016742746721093 -0.004154545255005359649658203125 0.000029342270863708108663558960 0 0 0 0 
2414666666.6666665077 0.161433115601539611816406250000 -0.054496061056852340698242187500 -0.004333768505603075027465820312 0.000209394667763262987136840820 0 0 0 0 
2414833333.3333334923 0.161221250891685513595419365629 -0.055516533553600311279296875000 -0.004217353183776140213012695312 0.000412051798775792121887207031 0 0 0 0 
2415000000.0000000000 0.160831019282341003417968750000 -0.056599102914333336566965471093 -0.004380920436233282089233398438 0.000745342986192554235458374023 0 0 0 0 
2415166666.6666665077 0.160798683762550409515057481258 -0.057572409510612487792968750000 -0.004360113758593797683715820312 0.000874288904014974832534790039 0 0 0 0 
2415333333.3333334923 0.160693928599357604980468750000 -0.058830700814723968505859375000 -0.004342440050095319747924804688 0.001010490814223885969874716650 0 0 0 0 
2415500000.0000000000 0.160547971725463894943075615629 -0.059701718389987952495534528907 -0.004201774951070547103881835938 0.001294624293223022980930947412 0 0 0 0 
2415666666.6666665077 0.160451829433441189864950615629 -0.060896813869476318359375000000 -0.004193849395960569381713867188 0.001527024665847420909284282153 0 0 0 0 
2415833333.3333334923 0.160266026854515103439169365629 -0.062130309641361236572265625000 -0.004082503262907266616821289062 0.001724914647638797976850200122 0 0 0 0 
2416000000.0000000000 0.159946978092193603515625000000 -0.063410438597202301025390625000 -0.004003141541033983230590820312 0.001826237770728766918182373047 0 0 0 0 
2416166666.6666665077 0.159927979111671503265057481258 -0.064520463347434997558593750000 -0.003876917995512485937831259619 0.001961064059287310080287314307 0 0 0 0 
2416333333.3333334923 0.159590303897857693771200615629 -0.065659992396831512451171875000 -0.003770605893805623054504394531 0.002214358653873205184936523438 0 0 0 0 
2416500000.0000000000 0.159384861588478088378906250000 -0.066862121224403381347656250000 -0.003580042859539390043971396338 0.002244237810373305840733193506 0 0 0 0 
2416666666.6666665077 0.159058347344398498535156250000 -0.068033345043659210205078125000 -0.003557334188371897177455283057 0.002484619617462158203125000000 0 0 0 0 
2416833333.3333334923 0.158925697207450894454794365629 -0.069232396781444549560546875000 -0.003406134899705647988560341943 0.002449397696182132200953818213 0 0 0 0 
2417000000.0000000000 0.158439517021179199218750000000 -0.070281684398651123046875000000 -0.003262520534917712211608886719 0.002556559862568974928614951025 0 0 0 0 
2417166666.6666665077 0.158109068870544405838174384371 -0.071304626762866973876953125000 -0.003156886901706457138061523438 0.002623537788167595863342285156 0 0 0 0 
2417333333.3333334923 0.157693013548851013183593750000 -0.072343043982982635498046875000 -0.002940433798357843919041298975 0.002720259828492999076843261719 0 0 0 0 
2417500000.0000000000 0.157514452934265108963174384371 -0.073364898562431335449218750000 -0.002957009710371493859532021631 0.002669577952474356131312704932 0 0 0 0 
2417666666.6666665077 0.157262265682220486739950615629 -0.074165038764476776123046875000 -0.002686439780518413023707724463 0.002704738639295101165771484375 0 0 0 0 
2417833333.3333334923 0.157024428248405512054119981258 -0.075060673058032989501953125000 -0.002543209120631217956542968750 0.002813604893162846998927451025 0 0 0 0 
2418000000.0000000000 0.156519949436187688629473768742 -0.076040461659431457519531250000 -0.002611718140542507171630859375 0.002905582310631870789768838037 0 0 0 0 
2418166666.6666665077 0.156244009733200100997763115629 -0.076554425060749053955078125000 -0.002405132865533233122584677588 0.002926028333604335784912109375 0 0 0 0 
2418333333.3333334923 0.156185597181320190429687500000 -0.077619120478630065917968750000 -0.002404036931693553924560546875 0.003021571319550275802612304688 0 0 0 0 
2418500000.0000000000 0.155654281377792386154013115629 -0.078369058668613433837890625000 -0.002267581177875400023219443213 0.003087415359914302825927734375 0 0 0 0 
2418666666.6666665077 0.155422449111938504318075615629 -0.079187273979187011718750000000 -0.002094059251248836951014853369 0.003249181900173426108119345557 0 0 0 0 
2418833333.3333334923 0.155052721500396700760049384371 -0.079848580062389373779296875000 -0.002177153481170535087585449219 0.003156498307362198829650878906 0 0 0 0 
2419000000.0000000000 0.154596075415611294845419365629 -0.080681502819061279296875000000 -0.001978100743144751028773642432 0.003111443948000669913050986182 0 0 0 0 
2419166666.6666665077 0.154319420456886291503906250000 -0.081160113215446472167968750000 -0.001932030078023672103881835938 0.003145370166748762130737304688 0 0 0 0 
2419333333.3333334923 0.153677880764007596114950615629 -0.081787772476673126220703125000 -0.001859273412264883951899863135 0.003373383311554789976832724463 0 0 0 0 
2419500000.0000000000 0.153531834483146695236044365629 -0.082548260688781738281250000000 -0.001767099718563259081599570166 0.003383988980203866958618164062 0 0 0 0 
2419666666.6666665077 0.153150603175163296798544365629 -0.083193972706794738769531250000 -0.001590839936397969939588237231 0.003388027660548686981201171875 0 0 0 0 
2419833333.3333334923 0.152697086334228487869424384371 -0.083598583936691284179687500000 -0.001454594661481678919551230322 0.003501796862110496001002646338 0 0 0 0 
