# Version 1.00
#
freq[Hz];re:Trc1_S11;im:Trc1_S11;re:Trc2_S21;im:Trc2_S21;
2.400000000000000E+009;1.550445258617401E-001;1.064120009541512E-001;-3.843055805191398E-003;-2.922956773545593E-004;
2.400166666666667E+009;1.550542861223221E-001;1.040757894515991E-001;-3.926046192646027E-003;-2.092993090627715E-004;
2.400333333333334E+009;1.550163328647614E-001;1.016377061605454E-001;-4.075417295098305E-003;-2.538597618695349E-004;
2.400500000000000E+009;1.551303416490555E-001;9.901316463947296E-002;-4.167912993580103E-003;-1.320944429608062E-004;
2.400666666666667E+009;1.550029814243317E-001;9.669871628284454E-002;-4.444837104529142E-003;-1.075020918506198E-004;
2.400833333333334E+009;1.551151424646378E-001;9.388429671525955E-002;-4.368057474493980E-003;6.160810153232887E-005;
2.401000000000000E+009;1.553029119968414E-001;9.090746194124222E-002;-4.467568825930357E-003;1.645411102799699E-004;
2.401166666666667E+009;1.553779691457748E-001;8.828791230916977E-002;-4.624444991350174E-003;2.887868613470346E-004;
2.401333333333334E+009;1.558401584625244E-001;8.534713834524155E-002;-4.598505329340696E-003;4.974075127393007E-004;
2.401500000000000E+009;1.561993807554245E-001;8.259592950344086E-002;-4.817849025130272E-003;5.815833574160934E-004;
2.401666666666667E+009;1.566694974899292E-001;7.968045026063919E-002;-4.707595333456993E-003;8.700204780325294E-004;
2.401833333333334E+009;1.570972651243210E-001;7.704748213291168E-002;-4.785412922501564E-003;1.068229903467000E-003;
2.402000000000000E+009;1.580598652362824E-001;7.452863454818726E-002;-4.693466238677502E-003;1.344122923910618E-003;
2.402166666666667E+009;1.587658524513245E-001;7.187483459711075E-002;-4.746072459965944E-003;1.540606026537716E-003;
2.402333333333334E+009;1.597887873649597E-001;6.919272243976593E-002;-4.800914786756039E-003;1.683120382949710E-003;
2.402500000000000E+009;1.609768420457840E-001;6.679479032754898E-002;-4.858113359659910E-003;1.821553683839738E-003;
2.402666666666667E+009;1.621182411909103E-001;6.441554427146912E-002;-4.798033274710178E-003;1.984786707907915E-003;
2.402833333333334E+009;1.634702831506729E-001;6.198470294475555E-002;-4.868767224252224E-003;2.201330149546266E-003;
2.403000000000000E+009;1.651007235050201E-001;5.992710962891579E-002;-4.702152218669653E-003;2.373812021687627E-003;
2.403166666666667E+009;1.666672676801682E-001;5.761083588004112E-002;-4.693831317126751E-003;2.780193230137229E-003;
2.403333333333334E+009;1.682297140359879E-001;5.547995492815971E-002;-4.652295261621475E-003;3.119101049378514E-003;
2.403500000000000E+009;1.697691828012466E-001;5.326671525835991E-002;-4.658258054405451E-003;3.243772778660059E-003;
2.403666666666667E+009;1.715459972620010E-001;5.148074775934219E-002;-4.445055034011602E-003;3.476674901321530E-003;
2.403833333333334E+009;1.732484996318817E-001;4.965149611234665E-002;-4.217060748487711E-003;3.754911012947559E-003;
2.404000000000000E+009;1.747513562440872E-001;4.786329716444016E-002;-4.022816196084023E-003;4.080106504261494E-003;
2.404166666666667E+009;1.765094399452210E-001;4.633414372801781E-002;-3.884505480527878E-003;4.181485157459974E-003;
2.404333333333334E+009;1.780180633068085E-001;4.480415582656860E-002;-3.737877355888486E-003;4.441062919795513E-003;
2.404500000000000E+009;1.796947866678238E-001;4.358222335577011E-002;-3.381530288606882E-003;4.654018674045801E-003;
2.404666666666667E+009;1.814059913158417E-001;4.237495735287666E-002;-3.040543990209699E-003;4.699251614511013E-003;
2.404833333333334E+009;1.829074919223785E-001;4.160264879465103E-002;-3.042898839339614E-003;4.852007608860731E-003;
2.405000000000000E+009;1.839478909969330E-001;4.100083932280541E-002;-2.702725119888783E-003;4.829487297683954E-003;
2.405166666666667E+009;1.859751939773560E-001;3.979193419218063E-002;-2.392841968685389E-003;5.161053966730833E-003;
2.405333333333334E+009;1.871900260448456E-001;3.947763517498970E-002;-2.161861630156636E-003;4.939810838550329E-003;
2.405500000000000E+009;1.885625869035721E-001;3.894250467419624E-002;-1.973500242456794E-003;5.288995336741209E-003;
2.405666666666667E+009;1.899416744709015E-001;3.877136856317520E-002;-1.783481216989458E-003;5.229145288467407E-003;
2.405833333333334E+009;1.908776313066483E-001;3.823999688029289E-002;-1.547545311041176E-003;5.276557989418507E-003;
2.406000000000000E+009;1.919290572404862E-001;3.806355223059654E-002;-1.264275982975960E-003;5.266587249934673E-003;
2.406166666666667E+009;1.928643733263016E-001;3.770439326763153E-002;-1.048351405188441E-003;5.237470846623182E-003;
2.406333333333334E+009;1.936457902193070E-001;3.795875608921051E-002;-7.760750595480204E-004;5.249855108559132E-003;
2.406500000000000E+009;1.944168806076050E-001;3.774418681859970E-002;-6.172265857458115E-004;5.427286494523287E-003;
2.406666666666667E+009;1.949747353792191E-001;3.779714554548264E-002;-3.137298917863518E-004;5.204500630497932E-003;
2.406833333333334E+009;1.955506503582001E-001;3.779408708214760E-002;-5.746322858612984E-005;5.313618108630180E-003;
2.407000000000000E+009;1.958084255456924E-001;3.802660480141640E-002;2.504283620510250E-004;5.043095443397760E-003;
2.407166666666667E+009;1.962357312440872E-001;3.770706057548523E-002;4.167230217717588E-004;4.982022102922201E-003;
2.407333333333334E+009;1.960133910179138E-001;3.792991861701012E-002;6.416279356926680E-004;4.856400191783905E-003;
2.407500000000000E+009;1.959970742464066E-001;3.805377334356308E-002;6.762733100913465E-004;4.965267144143581E-003;
2.407666666666667E+009;1.960789263248444E-001;3.771668672561646E-002;8.910585893318057E-004;4.735159687697887E-003;
2.407833333333334E+009;1.955324411392212E-001;3.762120753526688E-002;1.304846722632647E-003;4.647944122552872E-003;
2.408000000000000E+009;1.954363137483597E-001;3.744053095579147E-002;1.343947718851268E-003;4.320710431784391E-003;
2.408166666666667E+009;1.949087530374527E-001;3.721547126770020E-002;1.351382932625711E-003;4.353380296379328E-003;
2.408333333333334E+009;1.944019496440888E-001;3.648614510893822E-002;1.492486800998449E-003;4.142403136938810E-003;
2.408500000000000E+009;1.937541365623474E-001;3.624712303280830E-002;1.488234614953399E-003;3.813375718891621E-003;
2.408666666666667E+009;1.931941658258438E-001;3.556468337774277E-002;1.703985035419464E-003;3.880593227222562E-003;
2.408833333333334E+009;1.923261582851410E-001;3.481871634721756E-002;1.608118298463523E-003;3.691323567181826E-003;
2.409000000000000E+009;1.915094405412674E-001;3.403695300221443E-002;1.666622702032328E-003;3.650048281997442E-003;
2.409166666666667E+009;1.904510557651520E-001;3.283921256661415E-002;1.728745177388191E-003;3.397189779207110E-003;
2.409333333333334E+009;1.893185824155808E-001;3.187642619013786E-002;1.954975770786405E-003;2.898678882047534E-003;
2.409500000000000E+009;1.886193752288818E-001;3.076093457639217E-002;1.650147140026093E-003;3.439779859036207E-003;
2.409666666666667E+009;1.875371187925339E-001;2.939708717167378E-002;1.531755551695824E-003;3.155828686431050E-003;
2.409833333333334E+009;1.866283416748047E-001;2.756578102707863E-002;2.014607889577746E-003;3.066394710913301E-003;
2.410000000000000E+009;1.853099018335342E-001;2.586267516016960E-002;1.802395214326680E-003;2.316370373591781E-003;
2.410166666666667E+009;1.844318211078644E-001;2.411866188049316E-002;2.027457579970360E-003;2.466945443302393E-003;
2.410333333333334E+009;1.834842264652252E-001;2.263927832245827E-002;1.560280215926468E-003;2.525395480915904E-003;
2.410500000000000E+009;1.827307790517807E-001;2.023665420711041E-002;2.210756530985236E-003;2.644588472321630E-003;
2.410666666666667E+009;1.817565113306046E-001;1.827146299183369E-002;1.846964354626834E-003;2.339970786124468E-003;
2.410833333333334E+009;1.812284290790558E-001;1.597115024924278E-002;1.991406781598926E-003;2.330519026145339E-003;
2.411000000000000E+009;1.804855763912201E-001;1.388528384268284E-002;2.033294411376119E-003;2.091068075969815E-003;
2.411166666666667E+009;1.798128187656403E-001;1.169702503830195E-002;1.931357546709478E-003;2.013398567214608E-003;
2.411333333333334E+009;1.794155240058899E-001;9.158567525446415E-003;2.092923736199737E-003;2.010714262723923E-003;
2.411500000000000E+009;1.790112704038620E-001;6.798850838094950E-003;1.846952596679330E-003;1.932669081725180E-003;
2.411666666666667E+009;1.789117455482483E-001;4.585804417729378E-003;1.819374389015138E-003;2.005305374041200E-003;
2.411833333333334E+009;1.785167157649994E-001;2.112644026055932E-003;1.694718841463327E-003;1.717489445582032E-003;
2.412000000000000E+009;1.787240207195282E-001;-5.637694266624749E-004;1.781760249286890E-003;1.794458716176450E-003;
2.412166666666667E+009;1.787908375263214E-001;-2.685835119336844E-003;1.608449150808156E-003;1.657141954638064E-003;
2.412333333333334E+009;1.789938956499100E-001;-5.373963620513678E-003;1.685703173279762E-003;1.556407776661217E-003;
2.412500000000000E+009;1.794915199279785E-001;-7.653562352061272E-003;1.556501840241253E-003;1.595000037923455E-003;
2.412666666666667E+009;1.799890249967575E-001;-1.016887743026018E-002;1.602948876097798E-003;1.686486648395658E-003;
2.412833333333334E+009;1.805672049522400E-001;-1.253161299973726E-002;1.465088571421802E-003;1.495918142609298E-003;
2.413000000000000E+009;1.813847720623016E-001;-1.486953534185886E-002;1.190068316645920E-003;1.532745547592640E-003;
2.413166666666667E+009;1.819789558649063E-001;-1.702451519668102E-002;1.309171435423195E-003;1.620832365006208E-003;
2.413333333333334E+009;1.830301284790039E-001;-1.933502405881882E-002;1.264680409803987E-003;1.604315824806690E-003;
2.413500000000000E+009;1.839958429336548E-001;-2.151852659881115E-002;1.258279313333333E-003;1.743744011037052E-003;
2.413666666666667E+009;1.850071102380753E-001;-2.376098185777664E-002;1.188871799968183E-003;1.825056271627545E-003;
2.413833333333334E+009;1.860442012548447E-001;-2.564521692693234E-002;1.366079668514431E-003;1.867744722403586E-003;
2.414000000000000E+009;1.872696876525879E-001;-2.752192690968514E-002;1.227018772624433E-003;1.918583759106696E-003;
2.414166666666667E+009;1.884910464286804E-001;-2.948278933763504E-002;1.164775807410479E-003;2.112641930580139E-003;
2.414333333333334E+009;1.894573867321014E-001;-3.134718537330627E-002;1.331190462224186E-003;2.096252515912056E-003;
2.414500000000000E+009;1.908157020807266E-001;-3.270383551716805E-002;1.415635575540364E-003;1.987589290365577E-003;
2.414666666666667E+009;1.918806284666061E-001;-3.409951180219650E-002;1.456401427276433E-003;2.272447571158409E-003;
2.414833333333334E+009;1.929561197757721E-001;-3.548124805092812E-002;1.549477106891573E-003;2.280289772897959E-003;
2.415000000000000E+009;1.940507888793945E-001;-3.676538914442062E-002;1.701646600849927E-003;2.315063960850239E-003;
2.415166666666667E+009;1.952270865440369E-001;-3.780583292245865E-002;1.903606695123017E-003;2.213257132098079E-003;
2.415333333333334E+009;1.961638480424881E-001;-3.869237005710602E-002;1.887028105556965E-003;2.403806429356337E-003;
2.415500000000000E+009;1.974191963672638E-001;-3.945638611912727E-002;1.955445855855942E-003;2.426924882456660E-003;
2.415666666666667E+009;1.982852816581726E-001;-4.027331247925758E-002;2.240509493276477E-003;2.442988334223628E-003;
2.415833333333334E+009;1.992028504610062E-001;-4.084040224552155E-002;2.347921254113317E-003;2.521048067137599E-003;
2.416000000000000E+009;1.999486982822418E-001;-4.145807400345802E-002;2.356165321543813E-003;2.511885482817888E-003;
2.416166666666667E+009;2.005015909671783E-001;-4.187027364969254E-002;2.518881112337112E-003;2.486924408003688E-003;
2.416333333333334E+009;2.011839002370834E-001;-4.223775491118431E-002;2.812744816765189E-003;2.468102611601353E-003;
2.416500000000000E+009;2.014795839786530E-001;-4.238555207848549E-002;2.896523103117943E-003;2.485975623130798E-003;
2.416666666666667E+009;2.018601894378662E-001;-4.273267462849617E-002;2.890137489885092E-003;2.426228020340204E-003;
2.416833333333334E+009;2.019621878862381E-001;-4.272376373410225E-002;3.214265219867230E-003;2.438923111185432E-003;
2.417000000000000E+009;2.021191418170929E-001;-4.288214445114136E-002;3.466485068202019E-003;2.202354371547699E-003;
2.417166666666667E+009;2.017347812652588E-001;-4.286464303731918E-002;3.793301759287715E-003;2.132759429514408E-003;
2.417333333333334E+009;2.014149576425552E-001;-4.277259856462479E-002;3.894823370501399E-003;1.925471122376621E-003;
2.417500000000000E+009;2.011327147483826E-001;-4.272438958287239E-002;4.061789251863957E-003;1.668099663220346E-003;
2.417666666666667E+009;2.006481140851975E-001;-4.248774051666260E-002;3.984197042882443E-003;1.467862399294972E-003;
2.417833333333334E+009;2.001177370548248E-001;-4.228114336729050E-002;4.101488273590803E-003;1.245547435246408E-003;
2.418000000000000E+009;1.995204240083695E-001;-4.202760756015778E-002;4.218924324959517E-003;1.100074383430183E-003;
2.418166666666667E+009;1.987393349409103E-001;-4.202054440975189E-002;4.238348454236984E-003;1.024769386276603E-003;
2.418333333333334E+009;1.976850777864456E-001;-4.187875986099243E-002;4.160289186984301E-003;8.365605608560145E-004;
2.418500000000000E+009;1.967520564794540E-001;-4.188833385705948E-002;4.285489208996296E-003;6.432828959077597E-004;
2.418666666666667E+009;1.957943886518478E-001;-4.186731576919556E-002;4.281772300601006E-003;4.182458214927465E-004;
2.418833333333334E+009;1.945491284132004E-001;-4.203733801841736E-002;4.192804917693138E-003;2.941043348982930E-004;
2.419000000000000E+009;1.932552307844162E-001;-4.223454371094704E-002;4.134223330765963E-003;1.982012618100271E-004;
2.419166666666667E+009;1.920569688081741E-001;-4.249687865376473E-002;4.155494272708893E-003;1.680559648775670E-006;
2.419333333333334E+009;1.907046437263489E-001;-4.305440559983254E-002;4.020387772470713E-003;-6.098930316511542E-005;
2.419500000000000E+009;1.891535073518753E-001;-4.345580935478210E-002;4.032643511891365E-003;-3.082909970544279E-004;
2.419666666666667E+009;1.876171827316284E-001;-4.428809508681297E-002;4.035341553390026E-003;-2.838927030097693E-004;
2.419833333333334E+009;1.860656440258026E-001;-4.483076930046082E-002;4.152890760451555E-003;-2.812073507811874E-004;
2.420000000000000E+009;1.844359189271927E-001;-4.574434459209442E-002;4.072190728038549E-003;-3.692329337354749E-004;
2.420166666666667E+009;1.829820424318314E-001;-4.679450020194054E-002;4.066040739417076E-003;-6.672703893855214E-004;
2.420333333333334E+009;1.813173443078995E-001;-4.783160611987114E-002;4.127374850213528E-003;-6.269451114349067E-004;
2.420500000000000E+009;1.796716600656509E-001;-4.926038533449173E-002;4.099136684089899E-003;-6.809649057686329E-004;
2.420666666666667E+009;1.781464517116547E-001;-5.021883547306061E-002;4.087301902472973E-003;-8.947297465056181E-004;
2.420833333333334E+009;1.767848134040833E-001;-5.181931704282761E-002;4.170470871031284E-003;-9.913004469126463E-004;
2.421000000000000E+009;1.751514822244644E-001;-5.336298793554306E-002;4.204291850328445E-003;-1.201914390549064E-003;
2.421166666666667E+009;1.738786548376083E-001;-5.504459142684937E-002;4.175951704382896E-003;-1.246128231287003E-003;
2.421333333333334E+009;1.722646802663803E-001;-5.657466873526573E-002;4.158522002398968E-003;-1.536381663754582E-003;
2.421500000000000E+009;1.710920780897141E-001;-5.856044217944145E-002;4.214816726744175E-003;-1.606565667316318E-003;
2.421666666666667E+009;1.699123829603195E-001;-6.025948375463486E-002;4.082078579813242E-003;-1.754909637384117E-003;
2.421833333333334E+009;1.687986999750137E-001;-6.214725598692894E-002;4.068661946803331E-003;-2.017386723309755E-003;
2.422000000000000E+009;1.676572412252426E-001;-6.395267695188522E-002;3.860540688037872E-003;-2.176869427785277E-003;
2.422166666666667E+009;1.668284982442856E-001;-6.604573130607605E-002;3.887829370796681E-003;-2.294535282999277E-003;
2.422333333333334E+009;1.659319698810577E-001;-6.800442188978195E-002;3.656167071312666E-003;-2.413581591099501E-003;
2.422500000000000E+009;1.652459055185318E-001;-7.000761479139328E-002;3.627873491495848E-003;-2.522612456232309E-003;
2.422666666666667E+009;1.645630896091461E-001;-7.211218029260635E-002;3.488058457151055E-003;-2.659051213413477E-003;
2.422833333333334E+009;1.642372459173203E-001;-7.416161894798279E-002;3.329686354845762E-003;-2.802281174808741E-003;
2.423000000000000E+009;1.637099385261536E-001;-7.606608420610428E-002;3.153159981593490E-003;-2.986579900607467E-003;
2.423166666666667E+009;1.632866114377976E-001;-7.807336747646332E-002;2.917326521128416E-003;-3.016269765794277E-003;
2.423333333333334E+009;1.630851179361343E-001;-7.993399351835251E-002;2.877806546166539E-003;-3.147378563880920E-003;
2.423500000000000E+009;1.629907637834549E-001;-8.159115910530090E-002;2.694610273465514E-003;-3.331215120851994E-003;
2.423666666666667E+009;1.630830615758896E-001;-8.370257914066315E-002;2.509414684027433E-003;-3.256936324760318E-003;
2.423833333333334E+009;1.629430651664734E-001;-8.529163151979446E-002;2.274100901558995E-003;-3.120307810604572E-003;
2.424000000000000E+009;1.630890965461731E-001;-8.704349398612976E-002;2.172548556700349E-003;-3.323640674352646E-003;
2.424166666666667E+009;1.632505804300308E-001;-8.859768509864807E-002;2.184587996453047E-003;-3.316632471978664E-003;
2.424333333333334E+009;1.633148491382599E-001;-9.000244736671448E-002;1.911519910208881E-003;-3.248414723202586E-003;
2.424500000000000E+009;1.637890934944153E-001;-9.179089218378067E-002;1.951181795448065E-003;-3.277402836829424E-003;
2.424666666666667E+009;1.641010791063309E-001;-9.315185248851776E-002;1.632245839573443E-003;-3.129555843770504E-003;
2.424833333333334E+009;1.645503789186478E-001;-9.446188062429428E-002;1.657687360420823E-003;-3.254990093410015E-003;
2.425000000000000E+009;1.648502051830292E-001;-9.559781849384308E-002;1.572008477523923E-003;-3.265779698267579E-003;
2.425166666666667E+009;1.651289463043213E-001;-9.662427753210068E-002;1.469033071771264E-003;-3.118749707937241E-003;
2.425333333333334E+009;1.654213666915894E-001;-9.757854044437408E-002;1.362548442557454E-003;-3.077364759519696E-003;
2.425500000000000E+009;1.659204512834549E-001;-9.851972758769989E-002;1.367887365631759E-003;-3.295156871899962E-003;
2.425666666666667E+009;1.663331687450409E-001;-9.914128482341766E-002;1.379586989060044E-003;-3.136229002848268E-003;
2.425833333333334E+009;1.667134314775467E-001;-9.998482465744019E-002;1.259549637325108E-003;-3.210391849279404E-003;
2.426000000000000E+009;1.670168638229370E-001;-1.003801301121712E-001;1.273326925002039E-003;-3.028265899047256E-003;
2.426166666666667E+009;1.674272567033768E-001;-1.010029166936874E-001;1.124325441196561E-003;-3.090945538133383E-003;
2.426333333333334E+009;1.674911528825760E-001;-1.014531329274178E-001;1.164620509371162E-003;-3.375687869265676E-003;
2.426500000000000E+009;1.678011268377304E-001;-1.017396375536919E-001;9.690406732261181E-004;-3.188101807609201E-003;
2.426666666666667E+009;1.680260300636292E-001;-1.019970700144768E-001;1.089905388653278E-003;-3.050911240279675E-003;
2.426833333333334E+009;1.683104932308197E-001;-1.023055687546730E-001;1.022299285978079E-003;-3.204235807061195E-003;
2.427000000000000E+009;1.682460606098175E-001;-1.025449782609940E-001;7.462644716724753E-004;-3.325451398268342E-003;
2.427166666666667E+009;1.681480407714844E-001;-1.026249006390572E-001;8.458212250843644E-004;-3.323708893731237E-003;
2.427333333333334E+009;1.680511534214020E-001;-1.028705388307571E-001;8.041905239224434E-004;-3.239364828914404E-003;
2.427500000000000E+009;1.678935289382935E-001;-1.030347496271133E-001;7.798030273988843E-004;-3.383585717529059E-003;
2.427666666666667E+009;1.675190329551697E-001;-1.031207591295242E-001;6.244700052775443E-004;-3.441057400777936E-003;
2.427833333333334E+009;1.670995652675629E-001;-1.032658889889717E-001;6.273917388170958E-004;-3.596566850319505E-003;
