# Hz S RI R 50
2400000000.0000000000 0.157544687390327509124432481258 0.111587435007095295280699076557 -0.000979792908765375614166259766 0.000372486596461385488510131836 0 0 0 0 
2400166666.6666665077 0.156923979520797701736611884371 0.109590023756027193924111884371 -0.000827442621812224388122558594 0.000302603119052946621745509015 0 0 0 0 
2400333333.3333334923 0.156714528799057006835937500000 0.107446588575839996337890625000 -0.000719795294571667909622192383 0.000296931451885029673576354980 0 0 0 0 
2400500000.0000000000 0.156244054436683710296307481258 0.104862980544567094276509067186 -0.000497469212859869003295898438 0.000265154056251048987537938251 0 0 0 0 
2400666666.6666665077 0.155859693884849603850994981258 0.102436318993568406532368442186 -0.000123745325254276394844055176 0.000184979115147143602371215820 0 0 0 0 
2400833333.3333334923 0.155321851372718811035156250000 0.099693417549133300781250000000 0.000001850401645242528016443691 -0.000006694423973385710269212723 0 0 0 0 
2401000000.0000000000 0.155384719371795709808026231258 0.096826650202274322509765625000 -0.000116167844680603593587875366 -0.000187430996447801589965820312 0 0 0 0 
2401166666.6666665077 0.155144110321998596191406250000 0.093843467533588409423828125000 -0.000062496073951479047536849976 -0.000371029076632112318843287335 0 0 0 0 
2401333333.3333334923 0.155119836330413790603799384371 0.091030716896057128906250000000 0.000007046880909911124035716057 -0.000570387404877692461013793945 0 0 0 0 
2401500000.0000000000 0.155219659209251403808593750000 0.088049814105033874511718750000 -0.000322060979669913703769129620 -0.000675033312290906906127929688 0 0 0 0 
2401666666.6666665077 0.155151739716529901702557481258 0.084929116070270538330078125000 -0.000404750055167823975712376727 -0.000978230498731136322021484375 0 0 0 0 
2401833333.3333334923 0.155258163809776306152343750000 0.082096733152866363525390625000 -0.000581162108574062585830688477 -0.000911634240765124559402465820 0 0 0 0 
2402000000.0000000000 0.155979156494140597244424384371 0.079050377011299133300781250000 -0.000640967453364282846450805664 -0.000989974825643002986907958984 0 0 0 0 
2402166666.6666665077 0.156316950917244013030682481258 0.076187603175640106201171875000 -0.000940195983275771141052246094 -0.001185097265988587899449013818 0 0 0 0 
2402333333.3333334923 0.157046243548393305022869981258 0.073194704949855804443359375000 -0.001188651891425251960754394531 -0.001099404180422425053240131909 0 0 0 0 
2402500000.0000000000 0.158020138740539606292401231258 0.070293545722961425781250000000 -0.001293308450840414004084921729 -0.001145154237747191949131631006 0 0 0 0 
2402666666.6666665077 0.158871367573738098144531250000 0.067690432071685791015625000000 -0.001479249680414796092389750903 -0.001006742939352988979936909253 0 0 0 0 
2402833333.3333334923 0.160127893090248107910156250000 0.064823277294635772705078125000 -0.001766290981322526931762695312 -0.000652476737741380929946899414 0 0 0 0 
2403000000.0000000000 0.161375269293785095214843750000 0.062175638973712921142578125000 -0.001824817853048444011090922778 -0.000495079497341066598892211914 0 0 0 0 
2403166666.6666665077 0.162929490208625793457031250000 0.059698797762393951416015625000 -0.001774250064045191027997661060 -0.000298428290989249890476781024 0 0 0 0 
2403333333.3333334923 0.164337381720542907714843750000 0.057169161736965179443359375000 -0.001936122775077820041059184497 -0.000254308048170059919357299805 0 0 0 0 
2403500000.0000000000 0.165867522358894403655682481258 0.054708357900381088256835937500 -0.001984878210350871086120605469 0.000079191413533408194780349731 0 0 0 0 
2403666666.6666665077 0.167631059885024996658486884371 0.052310772240161902690847028907 -0.001925508608110249042510986328 0.000154610635945573503344935284 0 0 0 0 
2403833333.3333334923 0.169420555233955411056356865629 0.050157181918621063232421875000 -0.001927943783812225081800151294 0.000474815635243430679470616473 0 0 0 0 
2404000000.0000000000 0.171021252870559692382812500000 0.048057947307825088500976562500 -0.001898339716717601039289164966 0.000669288099743425846099853516 0 0 0 0 
2404166666.6666665077 0.172895252704620389083700615629 0.046138416975736618041992187500 -0.001639370108023286082624125903 0.000692675821483135223388671875 0 0 0 0 
2404333333.3333334923 0.174898639321327209472656250000 0.044366344809532172466237653907 -0.001614592270925641059875488281 0.000918152392841875553131103516 0 0 0 0 
2404500000.0000000000 0.176424548029899597167968750000 0.042742937803268432617187500000 -0.001441132044419646046282124097 0.001017283881083131053327250903 0 0 0 0 
2404666666.6666665077 0.178332343697547912597656250000 0.041297089308500289916992187500 -0.001354899839498103098628378760 0.001061172108165919997571635669 0 0 0 0 
2404833333.3333334923 0.180236577987670898437500000000 0.039875891059637069702148437500 -0.001125119277276098945020366138 0.000958505668677389621734619141 0 0 0 0 
2405000000.0000000000 0.181806355714798001388388115629 0.038863107562065131450612653907 -0.001179939019493758895276713794 0.001105012488551438071607280200 0 0 0 0 
2405166666.6666665077 0.183487534523010309417401231258 0.038021348416805267333984375000 -0.001050606486387551047681498950 0.001027792110107839107513427734 0 0 0 0 
2405333333.3333334923 0.185423016548156710525674384371 0.037188842892646789550781250000 -0.000832039397209882736206054688 0.001143273548223078034044575269 0 0 0 0 
2405500000.0000000000 0.186922639608383206466513115629 0.036572571843862526630442033593 -0.000789176672697067260742187500 0.000842313980683684349060058594 0 0 0 0 
2405666666.6666665077 0.188681557774543789962606865629 0.036073748022317893291432966407 -0.000693201087415218353271484375 0.001076688058674335913417197119 0 0 0 0 
2405833333.3333334923 0.190265193581581087967080634371 0.035577040165662772441823591407 -0.000821365567389875650405883789 0.000796194246504455804824829102 0 0 0 0 
2406000000.0000000000 0.191556841135024996658486884371 0.035565391182899482036550153907 -0.000836166786029934883117675781 0.000871660187840461730957031250 0 0 0 0 
2406166666.6666665077 0.193024873733520507812500000000 0.035365723073482513427734375000 -0.000778680259827524423599243164 0.000808402139227837324142456055 0 0 0 0 
2406333333.3333334923 0.194252893328666687011718750000 0.035380385816097259521484375000 -0.000634780852124094963073730469 0.000962913967669010162353515625 0 0 0 0 
2406500000.0000000000 0.195396006107330294510049384371 0.035643808543682098388671875000 -0.000697708921507000923156738281 0.000994314905256032943725585938 0 0 0 0 
2406666666.6666665077 0.196385309100151089767294365629 0.035652879625558853149414062500 -0.000778812274802476167678833008 0.000929587811697274446487426758 0 0 0 0 
2406833333.3333334923 0.197236448526382501800213731258 0.035840503871440887451171875000 -0.000869305571541190147399902344 0.000994268339127302169799804688 0 0 0 0 
2407000000.0000000000 0.198050677776336697677450615629 0.036176458001136779785156250000 -0.000805269519332796335220336914 0.001069147838279604911804199219 0 0 0 0 
2407166666.6666665077 0.198689833283424405196981865629 0.036159709095954901958425153907 -0.000720766780432313680648803711 0.001112958416342735073686909253 0 0 0 0 
2407333333.3333334923 0.198977813124656705001669365629 0.036620471626520156860351562500 -0.000739510636776685714721679688 0.001112994272261857986450195312 0 0 0 0 
2407500000.0000000000 0.199215397238731412032919365629 0.036973316222429282451589216407 -0.000625951972324401140213012695 0.001228282111696898937225341797 0 0 0 0 
2407666666.6666665077 0.199510231614112909515057481258 0.037152856588363647460937500000 -0.000809541612397879362106323242 0.001374570536427200057386088794 0 0 0 0 
2407833333.3333334923 0.199394807219505310058593750000 0.037376593798398971557617187500 -0.000610450981184840202331542969 0.001465309062041342041612934644 0 0 0 0 
2408000000.0000000000 0.199537158012390108963174384371 0.037528909742832176898996721093 -0.000607554335147142410278320312 0.001397784915752708911895751953 0 0 0 0 
2408166666.6666665077 0.199197560548782404143963731258 0.037675470113754272460937500000 -0.000567248032893985509872436523 0.001538206008262932083727192456 0 0 0 0 
2408333333.3333334923 0.198840737342834500411825615629 0.037541612982749938964843750000 -0.000451897154562175273895263672 0.001567278522998094992396689307 0 0 0 0 
2408500000.0000000000 0.198331177234649713714276231258 0.037653475999832153320312500000 -0.000233491198741830912515363150 0.001702819950878619930864643628 0 0 0 0 
2408666666.6666665077 0.197608679533004788497763115629 0.037435419857501976703684221093 -0.000096342831966467201709747314 0.001774054719135164997698139722 0 0 0 0 
2408833333.3333334923 0.197093725204467801193075615629 0.037137422710657119750976562500 -0.000025121562430285848677158356 0.001727624330669641928431845557 0 0 0 0 
2409000000.0000000000 0.196116149425506591796875000000 0.036595061421394348144531250000 0.000107365332951303598567685538 0.001741804997436702034593891675 0 0 0 0 
2409166666.6666665077 0.195126965641975402832031250000 0.035952892154455191875417341407 0.000198135094251483705922803336 0.001592059852555393955828022534 0 0 0 0 
2409333333.3333334923 0.194171980023384094238281250000 0.035410583019256591796875000000 0.000307595415506511926651000977 0.001677090767771006064174033057 0 0 0 0 
2409500000.0000000000 0.192909702658653287032919365629 0.034572068601846701885182966407 0.000378151220502331907123011456 0.001658324152231215996983193506 0 0 0 0 
2409666666.6666665077 0.191799789667129488845986884371 0.033470265567302696918527971093 0.000492550432682037353515625000 0.001643133815377951102015829932 0 0 0 0 
2409833333.3333334923 0.190664008259773309905682481258 0.032262682914733886718750000000 0.000562156899832189083099365234 0.001604229328222573020337748950 0 0 0 0 
2410000000.0000000000 0.189291402697563199142294365629 0.030975529924035068857213204296 0.000791775353718549013137817383 0.001625164411962032101274799878 0 0 0 0 
2410166666.6666665077 0.188108474016189602950888115629 0.029567461460828781127929687500 0.000890776456799358129501342773 0.001451510353945195891736674731 0 0 0 0 
2410333333.3333334923 0.186788037419319208343182481258 0.027967436239123340951939766796 0.001055108848959207968470908057 0.001477610901929437897325825269 0 0 0 0 
2410500000.0000000000 0.185292869806289700607138115629 0.026190318167209628713587576954 0.001270401873625814914703369141 0.001355802989564836025238037109 0 0 0 0 
2410666666.6666665077 0.184244811534881591796875000000 0.024097530171275138854980468750 0.001220025820657610893249511719 0.001350536011159420013427734375 0 0 0 0 
2410833333.3333334923 0.183248370885848999023437500000 0.022270452231168750417689139454 0.001356541644781827926635742188 0.001063980744220315976383828271 0 0 0 0 
2411000000.0000000000 0.182349070906639099121093750000 0.020095977932214740407923514454 0.001409837044775485992431640625 0.000937596138101071119308471680 0 0 0 0 
2411166666.6666665077 0.181199252605438204666299384371 0.017916912212967869150181954296 0.001371552352793514945386577075 0.000746118894312530755996704102 0 0 0 0 
2411333333.3333334923 0.180183604359626797775106865629 0.015452106483280660456647304102 0.001420983113348484039306640625 0.000636762415524572134017944336 0 0 0 0 
2411500000.0000000000 0.179283097386360196212606865629 0.013235169462859630584716796875 0.001374204875901341004612588037 0.000405367958592250888973790302 0 0 0 0 
2411666666.6666665077 0.178881540894508389571981865629 0.010896073654294010507603829296 0.001287860795855521938921284253 0.000276471429970115423202514648 0 0 0 0 
2411833333.3333334923 0.178216636180877713302450615629 0.008459308184683322906494140625 0.001271980465389787933946919019 0.000147167185787111493662157602 0 0 0 0 
2412000000.0000000000 0.177969619631767300704794365629 0.005655811633914709091186523438 0.001263448386453092098236083984 -0.000079294928582385182380676270 0 0 0 0 
2412166666.6666665077 0.177864626049995394607705634371 0.003470635274425148963928222656 0.001091895624995232062098837744 -0.000180795483174733790472307748 0 0 0 0 
2412333333.3333334923 0.177764847874641390701455634371 0.000724796205759048461914062500 0.001016456983052193901659321362 -0.000280067120911553502082824707 0 0 0 0 
2412500000.0000000000 0.177787914872169494628906250000 -0.002037511439993977980372763525 0.000804702693130820989608764648 -0.000307446607621386701434534894 0 0 0 0 
2412666666.6666665077 0.178097248077392605880575615629 -0.004585206042975187301635742188 0.000754337874241173267364501953 -0.000246323237661272287368774414 0 0 0 0 
2412833333.3333334923 0.178621977567672701736611884371 -0.007318304385989904403686523438 0.000650462869089096784591674805 -0.000462773023173213005065917969 0 0 0 0 
2413000000.0000000000 0.179092437028884887695312500000 -0.009982758201658725738525390625 0.000527163909282535314559936523 -0.000493809231556951999664306641 0 0 0 0 
2413166666.6666665077 0.179676428437232998946981865629 -0.012286941520869730168352695898 0.000461538293166086077690124512 -0.000291953212581574916839599609 0 0 0 0 
2413333333.3333334923 0.180668756365776089767294365629 -0.015090628527104859787910662305 0.000235194282140582799911499023 -0.000368397100828588008880615234 0 0 0 0 
2413500000.0000000000 0.181365936994552612304687500000 -0.017616568133234981191614920704 0.000175207416759803891181945801 -0.000243183661950752111986437387 0 0 0 0 
2413666666.6666665077 0.182481288909912109375000000000 -0.020126594230532649648646170704 0.000140304633532650795861920767 -0.000234666935284621986463823862 0 0 0 0 
2413833333.3333334923 0.183505907654762295821981865629 -0.022342395037412639963170235546 0.000127201288705691695213317871 -0.000012462914128263950010741881 0 0 0 0 
2414000000.0000000000 0.184625670313835088531817518742 -0.024737056344747539865513985546 0.000125595441204495700910845346 0.000091238638560753315687179565 0 0 0 0 
2414166666.6666665077 0.185802549123764010330361884371 -0.026793533936142921447753906250 0.000093325914349406957626342773 0.000050091519369743757624218600 0 0 0 0 
2414333333.3333334923 0.186876684427261408050213731258 -0.029032653197646141052246093750 0.000034895751014119007367680209 0.000081560472608543932437896729 0 0 0 0 
2414500000.0000000000 0.188366234302520807464276231258 -0.030948316678404811513880545704 0.000273838551947847008705139160 0.000113717265776358504168926100 0 0 0 0 
2414666666.6666665077 0.189645171165466308593750000000 -0.032726414501667022705078125000 0.000299595441902056282192784442 0.000192964944289997192934313364 0 0 0 0 
2414833333.3333334923 0.190807908773422213455361884371 -0.034479387104511260986328125000 0.000279110099654644673496800555 0.000401831493945792317390441895 0 0 0 0 
2415000000.0000000000 0.192193210124969510177450615629 -0.036129258573055267333984375000 0.000404370395699515884548741473 0.000092433729150798171758651733 0 0 0 0 
2415166666.6666665077 0.193643808364868191818075615629 -0.037498600780963897705078125000 0.000243185189901851090505877084 0.000120491196867078502051769118 0 0 0 0 
2415333333.3333334923 0.195076122879981994628906250000 -0.038500145077705383300781250000 0.000264383474132046103477478027 0.000042416872020112350583076477 0 0 0 0 
2415500000.0000000000 0.196386262774467496017294365629 -0.039568904787302017211914062500 0.000211753242183476686477661133 0.000051030805479967966675758362 0 0 0 0 
2415666666.6666665077 0.197613492608070401290731865629 -0.040379390120506286621093750000 0.000215147054404951604917803354 0.000137533206725493100568494254 0 0 0 0 
2415833333.3333334923 0.198943346738815307617187500000 -0.041300829499959952617604841407 0.000054926884331507608294487000 -0.000085390864114742726087570190 0 0 0 0 
2416000000.0000000000 0.199848830699920709808026231258 -0.042092341929674148559570312500 -0.000131583612528629601001739502 0.000022013935449649579823017120 0 0 0 0 
2416166666.6666665077 0.200951844453811701018963731258 -0.042700279504060752178151716407 -0.000052532341214828193187713623 0.000084915904153604060411453247 0 0 0 0 
2416333333.3333334923 0.201874032616615295410156250000 -0.042962498962879180908203125000 -0.000024890368877095170319080353 0.000061541089962702244520187378 0 0 0 0 
2416500000.0000000000 0.202763959765434292892294365629 -0.043394971638917922973632812500 -0.000138651448651216897085466928 0.000249205040745437199443262921 0 0 0 0 
2416666666.6666665077 0.203464627265930203536825615629 -0.043707691133022308349609375000 -0.000194704043678939288288670673 0.000395624228985980207293909894 0 0 0 0 
2416833333.3333334923 0.203851521015167208572549384371 -0.043685860931873321533203125000 -0.000221344496821984702914637433 0.000345666747307404875755310059 0 0 0 0 
2417000000.0000000000 0.204379990696906987945880018742 -0.043745074421167366718332658593 -0.000218782355659641298368731088 0.000643343664705753326416015625 0 0 0 0 
2417166666.6666665077 0.204533234238624600509481865629 -0.043681256473064422607421875000 0.000049563743232283741235733032 0.000723493460100144147872924805 0 0 0 0 
2417333333.3333334923 0.204637259244918795486611884371 -0.043355282396078109741210937500 -0.000101152239949442500441950665 0.000959898578003048896789550781 0 0 0 0 
2417500000.0000000000 0.204583346843719510177450615629 -0.043181169778108596801757812500 0.000219440567889250787809649057 0.000907404581084847450256347656 0 0 0 0 
2417666666.6666665077 0.204557344317436190506143134371 -0.042734786868095397949218750000 0.000136134913191199302673339844 0.000998274888843297958374023438 0 0 0 0 
2417833333.3333334923 0.204376548528671292404013115629 -0.042409952729940407489817033593 0.000450989406090229803889674054 0.001020504278130828900578164209 0 0 0 0 
2418000000.0000000000 0.203998878598213195800781250000 -0.041986826807260513305664062500 0.000472981773782521486282348633 0.000988181796856224536895751953 0 0 0 0 
2418166666.6666665077 0.203459069132804898361044365629 -0.041631527245044708251953125000 0.000648110464680939912796020508 0.000954687013290822505950927734 0 0 0 0 
2418333333.3333334923 0.202728316187858609298544365629 -0.041152969002723686908762346093 0.000864453322719782590866088867 0.000848728290293365716934204102 0 0 0 0 
2418500000.0000000000 0.201925203204154996017294365629 -0.040946424007415771484375000000 0.000899225356988608837127685547 0.000857621023897081613540649414 0 0 0 0 
2418666666.6666665077 0.201129019260406494140625000000 -0.040536250919103622436523437500 0.001144805108197032971623086084 0.000663525366690009832382202148 0 0 0 0 
2418833333.3333334923 0.199919328093528803069744981258 -0.040432494133710861206054687500 0.001128042582422495105146098560 0.000780837319325655698776245117 0 0 0 0 
2419000000.0000000000 0.198780000209808405120526231258 -0.040222931653261191631276716407 0.001223742146976291916490864331 0.000576040125451982021331787109 0 0 0 0 
2419166666.6666665077 0.197617381811141995529013115629 -0.040327597409486770629882812500 0.001321519725024699947954487378 0.000490496342536062002182006836 0 0 0 0 
2419333333.3333334923 0.196221932768821688553018134371 -0.040294952690601348876953125000 0.001312687410973012013676308740 0.000257925275946035981178283691 0 0 0 0 
2419500000.0000000000 0.194786489009857205489950615629 -0.040545430034399032592773437500 0.001305883051827549934387207031 0.000032034782634582370519638062 0 0 0 0 
2419666666.6666665077 0.193219929933548001388388115629 -0.041091043502092361450195312500 0.001226946013048290989519428784 0.000108522719528991701916018076 0 0 0 0 
2419833333.3333334923 0.191370382905006408691406250000 -0.041333686560392379760742187500 0.001152481301687658049939799731 -0.000039989310607779771089553833 0 0 0 0 
2420000000.0000000000 0.189739391207695007324218750000 -0.041915770620107650756835937500 0.000976013136096298694610595703 -0.000111419307359028594054360661 0 0 0 0 
