# Version 1.00
#
freq[Hz];re:Trc1_S11;im:Trc1_S11;re:Trc2_S21;im:Trc2_S21;
2.400000000000000E+009;1.522750109434128E-001;1.173840910196304E-001;2.451336011290550E-003;1.957180211320519E-003;
2.400166666666667E+009;1.518926173448563E-001;1.151522696018219E-001;2.448413055390120E-003;2.008221345022321E-003;
2.400333333333334E+009;1.516879051923752E-001;1.130265220999718E-001;2.522511174902320E-003;2.072782954201102E-003;
2.400500000000000E+009;1.514835208654404E-001;1.102387905120850E-001;2.923584775999188E-003;2.083594212308526E-003;
2.400666666666667E+009;1.513886302709580E-001;1.079398170113564E-001;2.875643083825707E-003;2.067010384052992E-003;
2.400833333333334E+009;1.510870158672333E-001;1.051478832960129E-001;3.128010313957930E-003;2.194286091253161E-003;
2.401000000000000E+009;1.512006968259811E-001;1.021972745656967E-001;3.222961677238345E-003;1.978863263502717E-003;
2.401166666666667E+009;1.510654687881470E-001;9.924127906560898E-002;3.439898137003183E-003;1.909506740048528E-003;
2.401333333333334E+009;1.515039950609207E-001;9.645836800336838E-002;3.546671010553837E-003;1.830389839597046E-003;
2.401500000000000E+009;1.517040580511093E-001;9.337675571441650E-002;3.881637472659349E-003;1.591010135598481E-003;
2.401666666666667E+009;1.520970612764359E-001;9.049808233976364E-002;4.001037683337927E-003;1.603015582077205E-003;
2.401833333333334E+009;1.521854698657990E-001;8.759602904319763E-002;4.148480016738176E-003;1.341897412203252E-003;
2.402000000000000E+009;1.531312614679337E-001;8.468070626258850E-002;4.273126833140850E-003;1.157231396064162E-003;
2.402166666666667E+009;1.537692248821259E-001;8.209886401891708E-002;4.438882227987051E-003;8.361083455383778E-004;
2.402333333333334E+009;1.549034565687180E-001;7.900458574295044E-002;4.432354122400284E-003;5.456868093460798E-004;
2.402500000000000E+009;1.557878106832504E-001;7.620887458324432E-002;4.625854548066855E-003;4.888685652986169E-004;
2.402666666666667E+009;1.572053432464600E-001;7.366429269313812E-002;4.738074727356434E-003;2.391854068264365E-004;
2.402833333333334E+009;1.586166620254517E-001;7.081864774227142E-002;4.775883629918098E-003;-1.212423376273364E-004;
2.403000000000000E+009;1.602263450622559E-001;6.836720556020737E-002;4.774257540702820E-003;-3.247167624067515E-004;
2.403166666666667E+009;1.620812714099884E-001;6.578296422958374E-002;4.741348791867495E-003;-5.612233071587980E-004;
2.403333333333334E+009;1.636691391468048E-001;6.317092478275299E-002;4.713192116469145E-003;-1.072625513188541E-003;
2.403500000000000E+009;1.656361222267151E-001;6.094530224800110E-002;4.612311720848084E-003;-1.238464727066457E-003;
2.403666666666667E+009;1.675907522439957E-001;5.859598144888878E-002;4.283452406525612E-003;-1.542801968753338E-003;
2.403833333333334E+009;1.693670749664307E-001;5.643204599618912E-002;4.274106584489346E-003;-1.679094857536256E-003;
2.404000000000000E+009;1.712249666452408E-001;5.432882905006409E-002;4.118580836802721E-003;-1.752522657625377E-003;
2.404166666666667E+009;1.732554584741592E-001;5.232760310173035E-002;3.892007283866406E-003;-2.030691830441356E-003;
2.404333333333334E+009;1.752804368734360E-001;5.067172646522522E-002;3.756392048671842E-003;-2.136866794899106E-003;
2.404500000000000E+009;1.771860867738724E-001;4.887209087610245E-002;3.856312716379762E-003;-2.278719097375870E-003;
2.404666666666667E+009;1.792383939027786E-001;4.752136766910553E-002;3.535517491400242E-003;-2.391700167208910E-003;
2.404833333333334E+009;1.810773164033890E-001;4.614836722612381E-002;3.372256178408861E-003;-2.263972768560052E-003;
2.405000000000000E+009;1.829058825969696E-001;4.541078209877014E-002;3.285320941358805E-003;-2.488285303115845E-003;
2.405166666666667E+009;1.847984492778778E-001;4.449865594506264E-002;3.258741460740566E-003;-2.525891643017530E-003;
2.405333333333334E+009;1.865517497062683E-001;4.362080618739128E-002;3.234175965189934E-003;-2.592409728094935E-003;
2.405500000000000E+009;1.882792115211487E-001;4.305066913366318E-002;3.101501846686006E-003;-2.814411418512464E-003;
2.405666666666667E+009;1.899501383304596E-001;4.257984459400177E-002;2.992325229570270E-003;-2.902645850554109E-003;
2.405833333333334E+009;1.916578710079193E-001;4.220419004559517E-002;2.793197054415941E-003;-2.938903635367751E-003;
2.406000000000000E+009;1.929178088903427E-001;4.196082800626755E-002;2.644758438691497E-003;-3.029362065717578E-003;
2.406166666666667E+009;1.944287121295929E-001;4.165866225957871E-002;2.600499894469976E-003;-3.043088130652905E-003;
2.406333333333334E+009;1.958353221416473E-001;4.170364513993263E-002;2.679195720702410E-003;-3.394368570297957E-003;
2.406500000000000E+009;1.969119459390640E-001;4.177583754062653E-002;2.500925213098526E-003;-3.324379911646247E-003;
2.406666666666667E+009;1.978645771741867E-001;4.179153591394424E-002;2.330044982954860E-003;-3.497508587315679E-003;
2.406833333333334E+009;1.988734006881714E-001;4.177238047122955E-002;2.129576401785016E-003;-3.444915404543281E-003;
2.407000000000000E+009;1.993242353200913E-001;4.205646365880966E-002;1.910097082145512E-003;-3.418137086555362E-003;
2.407166666666667E+009;2.000740170478821E-001;4.187811538577080E-002;1.844497979618609E-003;-3.584825666621327E-003;
2.407333333333334E+009;2.004657536745071E-001;4.224115237593651E-002;1.597905415110290E-003;-3.685283940285444E-003;
2.407500000000000E+009;2.005788087844849E-001;4.239018633961678E-002;1.442315871827304E-003;-3.700166707858443E-003;
2.407666666666667E+009;2.007060647010803E-001;4.242573678493500E-002;1.247567590326071E-003;-3.679318819195032E-003;
2.407833333333334E+009;2.004686892032623E-001;4.240668565034866E-002;1.258837641216815E-003;-3.715531434863806E-003;
2.408000000000000E+009;2.004889696836472E-001;4.245724156498909E-002;9.836027165874839E-004;-3.726590657606721E-003;
2.408166666666667E+009;1.998877972364426E-001;4.232407361268997E-002;9.615090675652027E-004;-3.812978509813547E-003;
2.408333333333334E+009;1.996445953845978E-001;4.196868091821671E-002;8.449485176242888E-004;-3.487195121124387E-003;
2.408500000000000E+009;1.989193409681320E-001;4.190223664045334E-002;6.645916728302836E-004;-3.608295228332281E-003;
2.408666666666667E+009;1.982553750276566E-001;4.163563251495361E-002;5.159365828149021E-004;-3.550588851794601E-003;
2.408833333333334E+009;1.973370462656021E-001;4.111363366246223E-002;5.004904232919216E-004;-3.516323631629348E-003;
2.409000000000000E+009;1.963575929403305E-001;4.023377969861031E-002;4.621561092790216E-004;-3.442157292738557E-003;
2.409166666666667E+009;1.952464729547501E-001;3.952464461326599E-002;4.017615865450352E-004;-3.418330103158951E-003;
2.409333333333334E+009;1.941339969635010E-001;3.877473250031471E-002;4.273984523024410E-004;-3.575858194380999E-003;
2.409500000000000E+009;1.927681863307953E-001;3.762152045965195E-002;2.908503229264170E-004;-3.348578000441194E-003;
2.409666666666667E+009;1.914975196123123E-001;3.669629618525505E-002;2.261726185679436E-004;-3.507020883262157E-003;
2.409833333333334E+009;1.900544017553330E-001;3.514854237437248E-002;6.594149454031140E-005;-3.479178063571453E-003;
2.410000000000000E+009;1.888424754142761E-001;3.388606011867523E-002;1.752504795149434E-005;-3.575529204681516E-003;
2.410166666666667E+009;1.875198781490326E-001;3.221900388598442E-002;-2.584089088486508E-006;-3.623519558459520E-003;
2.410333333333334E+009;1.862244009971619E-001;3.054557740688324E-002;-1.581036340212449E-004;-3.642457071691752E-003;
2.410500000000000E+009;1.850745081901550E-001;2.878255024552345E-002;-3.372555074747652E-004;-3.631928935647011E-003;
2.410666666666667E+009;1.836635768413544E-001;2.668957971036434E-002;-5.402013775892556E-004;-3.566113300621510E-003;
2.410833333333334E+009;1.826601475477219E-001;2.451350353658199E-002;-6.190423155203462E-004;-3.616667352616787E-003;
2.411000000000000E+009;1.816658675670624E-001;2.250762842595577E-002;-7.677262183278799E-004;-3.604935482144356E-003;
2.411166666666667E+009;1.805589795112610E-001;2.034181915223599E-002;-9.170977864414454E-004;-3.738740691915155E-003;
2.411333333333334E+009;1.797614246606827E-001;1.768021658062935E-002;-9.070495725609362E-004;-3.478340338915587E-003;
2.411500000000000E+009;1.790101379156113E-001;1.536807976663113E-002;-9.891544468700886E-004;-3.378249006345868E-003;
2.411666666666667E+009;1.784116923809052E-001;1.298203971236944E-002;-1.229942427016795E-003;-3.357639070600271E-003;
2.411833333333334E+009;1.778049170970917E-001;1.040551532059908E-002;-1.330848434008658E-003;-3.312655026093125E-003;
2.412000000000000E+009;1.774856448173523E-001;7.742062676697969E-003;-1.296684262342751E-003;-2.973136026412249E-003;
2.412166666666667E+009;1.772499382495880E-001;5.327787715941668E-003;-1.313829445280135E-003;-3.146699396893382E-003;
2.412333333333334E+009;1.772197633981705E-001;2.527733333408833E-003;-1.455983496271074E-003;-3.091251710429788E-003;
2.412500000000000E+009;1.773879826068878E-001;-6.381167622748762E-005;-1.531812944449484E-003;-2.959299832582474E-003;
2.412666666666667E+009;1.777349114418030E-001;-2.554683480411768E-003;-1.415847335010767E-003;-3.045588964596391E-003;
2.412833333333334E+009;1.782032996416092E-001;-5.238309968262911E-003;-1.509605557657778E-003;-2.766985446214676E-003;
2.413000000000000E+009;1.786398887634277E-001;-7.865436375141144E-003;-1.547680352814496E-003;-2.957626711577177E-003;
2.413166666666667E+009;1.792999207973480E-001;-1.027766522020102E-002;-1.699494663625956E-003;-2.846697112545371E-003;
2.413333333333334E+009;1.802617162466049E-001;-1.273147948086262E-002;-1.843860372900963E-003;-2.916646189987660E-003;
2.413500000000000E+009;1.811964511871338E-001;-1.531798485666513E-002;-1.798098557628691E-003;-2.955024596303701E-003;
2.413666666666667E+009;1.822255402803421E-001;-1.765631884336472E-002;-1.936691580340266E-003;-2.774870721623302E-003;
2.413833333333334E+009;1.834536194801331E-001;-1.991740427911282E-002;-2.067065099254251E-003;-2.975903218612075E-003;
2.414000000000000E+009;1.843607425689697E-001;-2.215786464512348E-002;-2.201045630499721E-003;-2.852227771654725E-003;
2.414166666666667E+009;1.858388334512711E-001;-2.411044389009476E-002;-2.298789797350764E-003;-2.772371983155608E-003;
2.414333333333334E+009;1.868809759616852E-001;-2.617467753589153E-002;-2.426930936053395E-003;-2.664146712049842E-003;
2.414500000000000E+009;1.881620138883591E-001;-2.796659432351589E-002;-2.617704216390848E-003;-2.572762779891491E-003;
2.414666666666667E+009;1.893611699342728E-001;-2.968548238277435E-002;-2.575105521827936E-003;-2.360152546316385E-003;
2.414833333333334E+009;1.907387673854828E-001;-3.130972757935524E-002;-2.597846090793610E-003;-2.465545665472746E-003;
2.415000000000000E+009;1.920760869979858E-001;-3.268549591302872E-002;-2.638125792145729E-003;-2.214496489614248E-003;
2.415166666666667E+009;1.933885365724564E-001;-3.397443518042564E-002;-2.750090789049864E-003;-2.128629479557276E-003;
2.415333333333334E+009;1.947322189807892E-001;-3.503056988120079E-002;-2.783622825518251E-003;-2.011106116697192E-003;
2.415500000000000E+009;1.960127651691437E-001;-3.584942221641541E-002;-2.899189246818423E-003;-1.799690304324031E-003;
2.415666666666667E+009;1.973105072975159E-001;-3.679354116320610E-002;-2.936296630650759E-003;-1.853810274042189E-003;
2.415833333333334E+009;1.983963400125504E-001;-3.746171668171883E-002;-2.952971030026674E-003;-1.908393343910575E-003;
2.416000000000000E+009;1.993992924690247E-001;-3.803190216422081E-002;-2.854837570339441E-003;-1.756568904966116E-003;
2.416166666666667E+009;2.005960494279862E-001;-3.869590908288956E-002;-2.997377654537559E-003;-1.820085919462144E-003;
2.416333333333334E+009;2.013615518808365E-001;-3.887245431542397E-002;-3.134205471724272E-003;-1.611635903827846E-003;
2.416500000000000E+009;2.023049592971802E-001;-3.915221244096756E-002;-3.202256513759494E-003;-1.597808906808496E-003;
2.416666666666667E+009;2.027734816074371E-001;-3.940552845597267E-002;-3.204904962331057E-003;-1.591037376783788E-003;
2.416833333333334E+009;2.033302485942841E-001;-3.924718126654625E-002;-3.158145118504763E-003;-1.348660560324788E-003;
2.417000000000000E+009;2.036953717470169E-001;-3.927421197295189E-002;-3.197328886017203E-003;-1.262697856873274E-003;
2.417166666666667E+009;2.036467492580414E-001;-3.903900459408760E-002;-3.225717693567276E-003;-1.244812970981002E-003;
2.417333333333334E+009;2.037263512611389E-001;-3.869240358471870E-002;-3.346845973283052E-003;-1.177405822090805E-003;
2.417500000000000E+009;2.037108242511749E-001;-3.857037052512169E-002;-3.424275433644652E-003;-1.065959339030087E-003;
2.417666666666667E+009;2.035636603832245E-001;-3.804625198245049E-002;-3.558051306754351E-003;-9.702840470708907E-004;
2.417833333333334E+009;2.033761888742447E-001;-3.756844624876976E-002;-3.686449956148863E-003;-8.346264949068427E-004;
2.418000000000000E+009;2.029241323471069E-001;-3.705548867583275E-002;-3.747231792658567E-003;-7.724426686763763E-004;
2.418166666666667E+009;2.023576498031616E-001;-3.681183978915215E-002;-3.690314944833517E-003;-6.613372825086117E-004;
2.418333333333334E+009;2.017125338315964E-001;-3.627363592386246E-002;-3.730407916009426E-003;-6.202707882039249E-004;
2.418500000000000E+009;2.009178847074509E-001;-3.604296222329140E-002;-3.762226784601808E-003;-4.396757285576314E-004;
2.418666666666667E+009;2.001701891422272E-001;-3.560944646596909E-002;-3.864840837195516E-003;-2.073429932352155E-004;
2.418833333333334E+009;1.991359293460846E-001;-3.548596426844597E-002;-3.768144175410271E-003;-2.103185106534511E-004;
2.419000000000000E+009;1.980123668909073E-001;-3.529804944992065E-002;-3.742985660210252E-003;1.491491711931303E-004;
2.419166666666667E+009;1.967545598745346E-001;-3.533790633082390E-002;-3.867268562316895E-003;9.827570465859026E-005;
2.419333333333334E+009;1.954347938299179E-001;-3.560107201337814E-002;-3.850285429507494E-003;3.097660955972970E-004;
2.419500000000000E+009;1.940522193908691E-001;-3.569979965686798E-002;-3.911095671355724E-003;3.222843806724995E-004;
2.419666666666667E+009;1.925081014633179E-001;-3.625745326280594E-002;-3.579677548259497E-003;5.681400070898235E-004;
2.419833333333334E+009;1.907497942447662E-001;-3.675268962979317E-002;-3.781899809837341E-003;5.519212572835386E-004;
2.420000000000000E+009;1.892753690481186E-001;-3.740728273987770E-002;-3.621479729190469E-003;5.818400532007217E-004;
2.420166666666667E+009;1.875664144754410E-001;-3.815629705786705E-002;-3.765677334740758E-003;6.625151727348566E-004;
2.420333333333334E+009;1.859922260046005E-001;-3.900096565485001E-002;-3.782453015446663E-003;7.545945700258017E-004;
2.420500000000000E+009;1.839937567710877E-001;-4.035853967070580E-002;-3.856487805023789E-003;6.527079967781901E-004;
2.420666666666667E+009;1.822799146175385E-001;-4.113923385739327E-002;-3.819409292191267E-003;7.736134575679898E-004;
2.420833333333334E+009;1.805986911058426E-001;-4.271182790398598E-002;-3.951819147914648E-003;9.203503141179681E-004;
2.421000000000000E+009;1.788650304079056E-001;-4.401149228215218E-002;-4.090586677193642E-003;1.080166082829237E-003;
2.421166666666667E+009;1.771859377622604E-001;-4.566390067338944E-002;-4.145544022321701E-003;1.238594879396260E-003;
2.421333333333334E+009;1.752393394708633E-001;-4.712858423590660E-002;-4.139824304729700E-003;1.576742273755372E-003;
2.421500000000000E+009;1.737104952335358E-001;-4.896007478237152E-002;-4.263951908797026E-003;1.693453057669103E-003;
2.421666666666667E+009;1.722629815340042E-001;-5.078271776437759E-002;-4.270009230822325E-003;1.968314405530691E-003;
2.421833333333334E+009;1.708955913782120E-001;-5.272220820188522E-002;-4.183936398476362E-003;2.366255968809128E-003;
2.422000000000000E+009;1.694748997688294E-001;-5.457865819334984E-002;-4.055442288517952E-003;2.504864009097219E-003;
2.422166666666667E+009;1.685587763786316E-001;-5.659344792366028E-002;-4.129550419747829E-003;2.740997355431318E-003;
2.422333333333334E+009;1.674128770828247E-001;-5.861809104681015E-002;-3.938837908208370E-003;3.010495333001018E-003;
2.422500000000000E+009;1.665212661027908E-001;-6.079843267798424E-002;-3.699969733133912E-003;3.385031362995505E-003;
2.422666666666667E+009;1.656273901462555E-001;-6.286165863275528E-002;-3.503304673358798E-003;3.515155753120780E-003;
2.422833333333334E+009;1.650045514106751E-001;-6.516489386558533E-002;-3.398350905627012E-003;3.653714200481772E-003;
2.423000000000000E+009;1.645236909389496E-001;-6.732046604156494E-002;-3.034896915778518E-003;3.799379104748368E-003;
2.423166666666667E+009;1.640250533819199E-001;-6.937246024608612E-002;-2.887379378080368E-003;4.030469805002213E-003;
2.423333333333334E+009;1.637406796216965E-001;-7.161943614482880E-002;-2.554713748395443E-003;3.973469138145447E-003;
2.423500000000000E+009;1.636438965797424E-001;-7.358976453542709E-002;-2.311676042154431E-003;4.307404626160860E-003;
2.423666666666667E+009;1.636665016412735E-001;-7.586348056793213E-002;-2.047162037342787E-003;4.372456111013889E-003;
2.423833333333334E+009;1.636572182178497E-001;-7.780137658119202E-002;-1.687097013927996E-003;4.252536222338677E-003;
2.424000000000000E+009;1.638742238283157E-001;-8.002060651779175E-002;-1.601660042069852E-003;4.493462387472391E-003;
2.424166666666667E+009;1.639965176582336E-001;-8.171473443508148E-002;-1.229829038493335E-003;4.321688786149025E-003;
2.424333333333334E+009;1.641865074634552E-001;-8.366899192333221E-002;-1.151152537204325E-003;4.234540276229382E-003;
2.424500000000000E+009;1.646881401538849E-001;-8.549863100051880E-002;-9.405566379427910E-004;4.229323007166386E-003;
2.424666666666667E+009;1.650068163871765E-001;-8.710479736328125E-002;-8.446379215456545E-004;4.177825991064310E-003;
2.424833333333334E+009;1.657842546701431E-001;-8.874226361513138E-002;-4.973034956492484E-004;3.928369842469692E-003;
2.425000000000000E+009;1.664057672023773E-001;-9.010385721921921E-002;-4.699261335190386E-004;3.900112118571997E-003;
2.425166666666667E+009;1.668225079774857E-001;-9.142024070024490E-002;-2.801032387651503E-004;3.861419856548309E-003;
2.425333333333334E+009;1.674369424581528E-001;-9.264811128377914E-002;-2.790399012155831E-004;3.859114833176136E-003;
2.425500000000000E+009;1.681086272001267E-001;-9.380877017974854E-002;-8.365775283891708E-005;3.707184456288815E-003;
2.425666666666667E+009;1.688343286514282E-001;-9.467695653438568E-002;-1.448510156478733E-004;3.666472155600786E-003;
2.425833333333334E+009;1.693062186241150E-001;-9.575071930885315E-002;-2.045937435468659E-005;3.582536242902279E-003;
2.426000000000000E+009;1.700708270072937E-001;-9.623920917510986E-002;4.714353781309910E-005;3.659100970253348E-003;
2.426166666666667E+009;1.708350032567978E-001;-9.688919782638550E-002;2.049238537438214E-004;3.651839680969715E-003;
2.426333333333334E+009;1.712854653596878E-001;-9.768159687519074E-002;3.590936248656362E-004;3.514659125357866E-003;
2.426500000000000E+009;1.719089001417160E-001;-9.804686158895493E-002;4.673838848248124E-004;3.460062202066183E-003;
2.426666666666667E+009;1.724739223718643E-001;-9.850192070007324E-002;5.179880536161363E-004;3.493056865409017E-003;
2.426833333333334E+009;1.730429977178574E-001;-9.875060617923737E-002;7.984804105944932E-004;3.488396992906928E-003;
2.427000000000000E+009;1.734703183174133E-001;-9.905021637678146E-002;6.935148849152029E-004;3.344024065881968E-003;
2.427166666666667E+009;1.737302988767624E-001;-9.919252991676331E-002;8.711392292752862E-004;3.389441408216953E-003;
2.427333333333334E+009;1.740459650754929E-001;-9.944301098585129E-002;9.195759776048362E-004;3.264090046286583E-003;
2.427500000000000E+009;1.741064041852951E-001;-9.964908659458160E-002;1.070896512828767E-003;3.146218601614237E-003;
2.427666666666667E+009;1.741433739662170E-001;-9.968190640211105E-002;1.056000124663115E-003;3.090683603659272E-003;
