# Version 1.00
#
freq[Hz];re:Trc1_S11;im:Trc1_S11;re:Trc2_S21;im:Trc2_S21;
2.400000000000000E+009;1.519880592823029E-001;1.170566901564598E-001;2.435520989820361E-003;2.253710292279720E-003;
2.400166666666667E+009;1.514682769775391E-001;1.149348169565201E-001;2.429500455036759E-003;2.216470660641789E-003;
2.400333333333334E+009;1.513126939535141E-001;1.126532182097435E-001;2.470413688570261E-003;2.277646446600556E-003;
2.400500000000000E+009;1.511730551719666E-001;1.101075261831284E-001;2.568168332800269E-003;2.328138565644622E-003;
2.400666666666667E+009;1.510620117187500E-001;1.077842637896538E-001;2.852550940588117E-003;2.345231128856540E-003;
2.400833333333334E+009;1.507909595966339E-001;1.048464924097061E-001;3.055392764508724E-003;2.280475804582238E-003;
2.401000000000000E+009;1.508204191923142E-001;1.020660400390625E-001;3.289361251518130E-003;2.261883812025189E-003;
2.401166666666667E+009;1.506558209657669E-001;9.923797100782394E-002;3.502796869724989E-003;2.095961710438132E-003;
2.401333333333334E+009;1.508569717407227E-001;9.644726663827896E-002;3.666832810267806E-003;2.060932340100408E-003;
2.401500000000000E+009;1.513460129499435E-001;9.357791393995285E-002;3.866930957883596E-003;2.080820966511965E-003;
2.401666666666667E+009;1.514125764369965E-001;9.047482907772064E-002;4.080232232809067E-003;1.826944411732256E-003;
2.401833333333334E+009;1.520193666219711E-001;8.763123303651810E-002;4.268589895218611E-003;1.539711956866086E-003;
2.402000000000000E+009;1.528307199478149E-001;8.458271622657776E-002;4.400259349495173E-003;1.409354736097157E-003;
2.402166666666667E+009;1.534904092550278E-001;8.203787356615067E-002;4.418396856635809E-003;9.666092810221016E-004;
2.402333333333334E+009;1.544642597436905E-001;7.893792539834976E-002;4.724367521703243E-003;6.983365165069699E-004;
2.402500000000000E+009;1.554957628250122E-001;7.605629414319992E-002;4.768310580402613E-003;5.388961290009320E-004;
2.402666666666667E+009;1.565614044666290E-001;7.354365289211273E-002;4.706719890236855E-003;2.666423388291150E-004;
2.402833333333334E+009;1.581477820873261E-001;7.078770548105240E-002;4.808390047401190E-003;1.283837045775726E-004;
2.403000000000000E+009;1.598289161920548E-001;6.815519928932190E-002;4.755319561809301E-003;-2.394558105152100E-004;
2.403166666666667E+009;1.615753471851349E-001;6.583729386329651E-002;4.722737707197666E-003;-4.584758426062763E-004;
2.403333333333334E+009;1.631809622049332E-001;6.324782222509384E-002;4.680942278355360E-003;-8.684117347002029E-004;
2.403500000000000E+009;1.650314480066299E-001;6.092293933033943E-002;4.525915719568729E-003;-9.863583836704493E-004;
2.403666666666667E+009;1.670591831207275E-001;5.864183977246285E-002;4.476706497371197E-003;-1.355858519673348E-003;
2.403833333333334E+009;1.690668314695358E-001;5.661361664533615E-002;4.296230152249336E-003;-1.478580292314291E-003;
2.404000000000000E+009;1.709061563014984E-001;5.452518537640572E-002;4.113783594220877E-003;-1.635181135497987E-003;
2.404166666666667E+009;1.729736328125000E-001;5.248461291193962E-002;4.070767201483250E-003;-1.812686678022146E-003;
2.404333333333334E+009;1.747777909040451E-001;5.094597488641739E-002;3.877700539305806E-003;-1.913216663524509E-003;
2.404500000000000E+009;1.767346262931824E-001;4.922664538025856E-002;3.701738780364394E-003;-2.159735653549433E-003;
2.404666666666667E+009;1.785810589790344E-001;4.772736132144928E-002;3.649850375950337E-003;-2.079354133456945E-003;
2.404833333333334E+009;1.807816475629807E-001;4.640731215476990E-002;3.508352441713214E-003;-2.126418985426426E-003;
2.405000000000000E+009;1.824760586023331E-001;4.553499817848206E-002;3.533889539539814E-003;-2.150218235328794E-003;
2.405166666666667E+009;1.842776834964752E-001;4.456231370568276E-002;3.364194650202990E-003;-2.257062820717692E-003;
2.405333333333334E+009;1.860886812210083E-001;4.398944973945618E-002;3.312481101602316E-003;-2.269478514790535E-003;
2.405500000000000E+009;1.879778057336807E-001;4.334104433655739E-002;3.321659751236439E-003;-2.499234629794955E-003;
2.405666666666667E+009;1.896725893020630E-001;4.282896220684052E-002;3.227364504709840E-003;-2.643593586981297E-003;
2.405833333333334E+009;1.914172321557999E-001;4.249670356512070E-002;3.222476691007614E-003;-2.781027695164084E-003;
2.406000000000000E+009;1.927444338798523E-001;4.222584515810013E-002;3.031375119462609E-003;-2.898205770179629E-003;
2.406166666666667E+009;1.941289901733398E-001;4.190343990921974E-002;2.947040833532810E-003;-2.951565664261580E-003;
2.406333333333334E+009;1.955080926418304E-001;4.196779429912567E-002;2.809064229950309E-003;-3.104358678683639E-003;
2.406500000000000E+009;1.968510299921036E-001;4.193418473005295E-002;2.703784033656120E-003;-3.339453134685755E-003;
2.406666666666667E+009;1.976121962070465E-001;4.203662276268005E-002;2.559429267421365E-003;-3.328553866595030E-003;
2.406833333333334E+009;1.986419111490250E-001;4.206037148833275E-002;2.340622944757342E-003;-3.426672657951713E-003;
2.407000000000000E+009;1.992709487676621E-001;4.233316332101822E-002;2.288576215505600E-003;-3.510214621201158E-003;
2.407166666666667E+009;1.999486237764359E-001;4.211964830756187E-002;2.169750630855560E-003;-3.667245851829648E-003;
2.407333333333334E+009;2.001168280839920E-001;4.253048077225685E-002;1.840186072513461E-003;-3.722337074577808E-003;
2.407500000000000E+009;2.003141641616821E-001;4.267725721001625E-002;1.866362872533500E-003;-3.825121559202671E-003;
2.407666666666667E+009;2.006086260080338E-001;4.271711781620979E-002;1.571297994814813E-003;-3.685142146423459E-003;
2.407833333333334E+009;2.002848833799362E-001;4.268807917833328E-002;1.360889407806099E-003;-3.838574280962348E-003;
2.408000000000000E+009;2.002640813589096E-001;4.270147159695625E-002;1.188586349599063E-003;-3.619272727519274E-003;
2.408166666666667E+009;1.998389214277268E-001;4.264523088932037E-002;1.060234615579248E-003;-3.615264780819416E-003;
2.408333333333334E+009;1.994875818490982E-001;4.242858290672302E-002;1.047164783813059E-003;-3.605333855375648E-003;
2.408500000000000E+009;1.987991034984589E-001;4.228661209344864E-002;9.042557212524116E-004;-3.659523092210293E-003;
2.408666666666667E+009;1.980435252189636E-001;4.206489026546478E-002;6.854409584775567E-004;-3.615775145590305E-003;
2.408833333333334E+009;1.972871720790863E-001;4.132188484072685E-002;6.961449398659170E-004;-3.601073753088713E-003;
2.409000000000000E+009;1.962172091007233E-001;4.071968793869019E-002;5.995993269607425E-004;-3.576078452169895E-003;
2.409166666666667E+009;1.950670331716538E-001;4.014078155159950E-002;5.396371125243604E-004;-3.743561916053295E-003;
2.409333333333334E+009;1.939890533685684E-001;3.934883698821068E-002;5.292736459523439E-004;-3.493313211947680E-003;
2.409500000000000E+009;1.926608234643936E-001;3.825723007321358E-002;4.429130349308252E-004;-3.509590867906809E-003;
2.409666666666667E+009;1.914202123880386E-001;3.694529086351395E-002;3.987599047832191E-004;-3.550181398168206E-003;
2.409833333333334E+009;1.900502741336823E-001;3.582405298948288E-002;2.914243668783456E-004;-3.444547066465020E-003;
2.410000000000000E+009;1.889189183712006E-001;3.441549837589264E-002;2.433015324641019E-004;-3.595103044062853E-003;
2.410166666666667E+009;1.876724362373352E-001;3.262179717421532E-002;2.345031534787267E-004;-3.519655438140035E-003;
2.410333333333334E+009;1.863649487495422E-001;3.115314990282059E-002;-7.402118353638798E-005;-3.681248286738992E-003;
2.410500000000000E+009;1.850139349699020E-001;2.938348799943924E-002;-8.458454249193892E-005;-3.693546168506146E-003;
2.410666666666667E+009;1.837103664875031E-001;2.719767205417156E-002;-1.850758126238361E-004;-3.828214947134256E-003;
2.410833333333334E+009;1.828710883855820E-001;2.499837242066860E-002;-3.618815680965781E-004;-3.649732097983360E-003;
2.411000000000000E+009;1.818158775568008E-001;2.287098020315170E-002;-5.286593805067241E-004;-3.648409619927406E-003;
2.411166666666667E+009;1.806135773658752E-001;2.084618434309959E-002;-5.535386153496802E-004;-3.609168576076627E-003;
2.411333333333334E+009;1.799322068691254E-001;1.815431192517281E-002;-6.967685185372829E-004;-3.677688771858811E-003;
2.411500000000000E+009;1.791162043809891E-001;1.571702398359776E-002;-8.279780158773065E-004;-3.465593559667468E-003;
2.411666666666667E+009;1.785806566476822E-001;1.329028978943825E-002;-1.061080023646355E-003;-3.499160753563047E-003;
2.411833333333334E+009;1.778704077005386E-001;1.091331336647272E-002;-1.133541460148990E-003;-3.412411548197269E-003;
2.412000000000000E+009;1.777410060167313E-001;8.190375752747059E-003;-9.827899048104882E-004;-3.452653065323830E-003;
2.412166666666667E+009;1.776299327611923E-001;5.659631919115782E-003;-1.171056414023042E-003;-3.277304116636515E-003;
2.412333333333334E+009;1.774000823497772E-001;3.022472606971860E-003;-1.386488554999232E-003;-3.253726521506906E-003;
2.412500000000000E+009;1.776541173458099E-001;4.962829989381135E-004;-1.337273628450930E-003;-3.281356301158667E-003;
2.412666666666667E+009;1.779127568006516E-001;-2.187262754887343E-003;-1.180541003122926E-003;-3.206203458830714E-003;
2.412833333333334E+009;1.785636842250824E-001;-4.813035484403372E-003;-1.334658707492054E-003;-3.142212051898241E-003;
2.413000000000000E+009;1.789264529943466E-001;-7.394820451736450E-003;-1.424791291356087E-003;-3.104218281805515E-003;
2.413166666666667E+009;1.796470135450363E-001;-9.894741699099541E-003;-1.529336092062295E-003;-3.307051956653595E-003;
2.413333333333334E+009;1.806820183992386E-001;-1.247831806540489E-002;-1.601140946149826E-003;-3.270953195169568E-003;
2.413500000000000E+009;1.814085543155670E-001;-1.490409951657057E-002;-1.634885789826512E-003;-3.102494869381189E-003;
2.413666666666667E+009;1.824904531240463E-001;-1.744285412132740E-002;-1.766972942277789E-003;-3.168399911373854E-003;
2.413833333333334E+009;1.837041229009628E-001;-1.963257603347302E-002;-1.961128553375602E-003;-3.149290336295962E-003;
2.414000000000000E+009;1.846369057893753E-001;-2.190178632736206E-002;-2.190656494349241E-003;-3.181973006576300E-003;
2.414166666666667E+009;1.860000938177109E-001;-2.394528314471245E-002;-2.225766191259027E-003;-2.944885287433863E-003;
2.414333333333334E+009;1.871353983879089E-001;-2.609101310372353E-002;-2.293063560500741E-003;-3.007621271535754E-003;
2.414500000000000E+009;1.884319931268692E-001;-2.797792665660381E-002;-2.441653516143560E-003;-2.790215658023953E-003;
2.414666666666667E+009;1.897477358579636E-001;-2.958041615784168E-002;-2.550558419898152E-003;-2.742832759395242E-003;
2.414833333333334E+009;1.910038590431213E-001;-3.122816793620586E-002;-2.662665676325560E-003;-2.644298365339637E-003;
2.415000000000000E+009;1.922521144151688E-001;-3.262346237897873E-002;-2.778930356726050E-003;-2.580635482445359E-003;
2.415166666666667E+009;1.936132460832596E-001;-3.387916833162308E-002;-2.865617163479328E-003;-2.402525860816240E-003;
2.415333333333334E+009;1.950023025274277E-001;-3.496772795915604E-002;-3.052918938919902E-003;-2.276745159178972E-003;
2.415500000000000E+009;1.962392181158066E-001;-3.578502684831619E-002;-3.126122290268540E-003;-2.232167869806290E-003;
2.415666666666667E+009;1.976170539855957E-001;-3.671800345182419E-002;-2.798069035634399E-003;-2.217215951532126E-003;
2.415833333333334E+009;1.985683739185333E-001;-3.730107843875885E-002;-3.009309992194176E-003;-2.128170337527990E-003;
2.416000000000000E+009;1.997235715389252E-001;-3.798601776361466E-002;-3.058019792661071E-003;-2.098457189276815E-003;
2.416166666666667E+009;2.006914466619492E-001;-3.857237473130226E-002;-3.158729989081621E-003;-2.033024327829480E-003;
2.416333333333334E+009;2.017327845096588E-001;-3.887490183115006E-002;-3.187278518453240E-003;-1.987636089324951E-003;
2.416500000000000E+009;2.024030536413193E-001;-3.907577693462372E-002;-3.312982153147459E-003;-1.671618898399174E-003;
2.416666666666667E+009;2.031518220901489E-001;-3.931817039847374E-002;-3.269939916208386E-003;-1.749858958646655E-003;
2.416833333333334E+009;2.035688757896423E-001;-3.926486894488335E-002;-3.526310436427593E-003;-1.563452067784965E-003;
2.417000000000000E+009;2.039933502674103E-001;-3.921597078442574E-002;-3.422354813665152E-003;-1.580762444064021E-003;
2.417166666666667E+009;2.039413154125214E-001;-3.903352469205856E-002;-3.649390535429120E-003;-1.384690520353615E-003;
2.417333333333334E+009;2.040596902370453E-001;-3.870209306478500E-002;-3.726559691131115E-003;-1.474366988986731E-003;
2.417500000000000E+009;2.040037363767624E-001;-3.842111676931381E-002;-3.780729137361050E-003;-1.249202410690486E-003;
2.417666666666667E+009;2.038211822509766E-001;-3.809627145528793E-002;-3.764458233490586E-003;-1.156326965428889E-003;
2.417833333333334E+009;2.036949843168259E-001;-3.763327747583389E-002;-3.779541002586484E-003;-9.779050014913082E-004;
2.418000000000000E+009;2.031353712081909E-001;-3.708726912736893E-002;-3.964905627071858E-003;-9.328216547146440E-004;
2.418166666666667E+009;2.027154862880707E-001;-3.668016195297241E-002;-3.982714843004942E-003;-7.601255201734603E-004;
2.418333333333334E+009;2.020441293716431E-001;-3.614914789795876E-002;-4.058761987835169E-003;-6.784909637644887E-004;
2.418500000000000E+009;2.012609839439392E-001;-3.592432662844658E-002;-4.084748215973377E-003;-4.760056908708066E-004;
2.418666666666667E+009;2.004928439855576E-001;-3.555355966091156E-002;-4.256058949977160E-003;-3.173674049321562E-004;
2.418833333333334E+009;1.992971748113632E-001;-3.541000559926033E-002;-4.101527854800224E-003;-1.287917984882370E-004;
2.419000000000000E+009;1.982526630163193E-001;-3.537536039948463E-002;-4.074475727975369E-003;1.191756964544766E-004;
2.419166666666667E+009;1.970742046833038E-001;-3.533590957522392E-002;-4.003191366791725E-003;1.124391128541902E-004;
2.419333333333334E+009;1.957086622714996E-001;-3.567464277148247E-002;-3.962100949138403E-003;3.810609632637352E-004;
2.419500000000000E+009;1.943725794553757E-001;-3.572268411517143E-002;-4.005768802016974E-003;2.814272302202880E-004;
2.419666666666667E+009;1.929126232862473E-001;-3.639336302876473E-002;-3.999071661382914E-003;4.220584814902395E-004;
2.419833333333334E+009;1.913122683763504E-001;-3.679633885622025E-002;-3.978046122938395E-003;5.893509951420128E-004;
2.420000000000000E+009;1.896349340677261E-001;-3.749203309416771E-002;-3.935942426323891E-003;5.602349992841482E-004;
2.420166666666667E+009;1.879561692476273E-001;-3.827548772096634E-002;-4.001064226031303E-003;6.851254729554057E-004;
2.420333333333334E+009;1.861509233713150E-001;-3.933982923626900E-002;-3.953195177018642E-003;8.105883025564253E-004;
2.420500000000000E+009;1.843190938234329E-001;-4.044410586357117E-002;-4.008740186691284E-003;8.213389664888382E-004;
2.420666666666667E+009;1.826007962226868E-001;-4.153714329004288E-002;-4.036246798932552E-003;9.901138255372644E-004;
2.420833333333334E+009;1.807605028152466E-001;-4.283185675740242E-002;-4.139610566198826E-003;8.980394923128188E-004;
2.421000000000000E+009;1.790392696857452E-001;-4.398506134748459E-002;-4.308133851736784E-003;1.123329391703010E-003;
2.421166666666667E+009;1.772862374782562E-001;-4.580052196979523E-002;-4.253024701029062E-003;1.180928782559931E-003;
2.421333333333334E+009;1.755031496286392E-001;-4.722697660326958E-002;-4.176454152911902E-003;1.457126694731414E-003;
2.421500000000000E+009;1.739722937345505E-001;-4.918431490659714E-002;-4.350821953266859E-003;1.791152870282531E-003;
2.421666666666667E+009;1.725522279739380E-001;-5.083167552947998E-002;-4.422910977154970E-003;1.939425827004015E-003;
2.421833333333334E+009;1.710500121116638E-001;-5.272309109568596E-002;-4.392270930111408E-003;2.372131217271090E-003;
2.422000000000000E+009;1.698860824108124E-001;-5.465020611882210E-002;-4.317254759371281E-003;2.439347794279456E-003;
2.422166666666667E+009;1.688170284032822E-001;-5.693985894322395E-002;-4.222252406179905E-003;2.830339595675468E-003;
2.422333333333334E+009;1.675516217947006E-001;-5.885719880461693E-002;-4.090893082320690E-003;3.087637946009636E-003;
2.422500000000000E+009;1.666771620512009E-001;-6.076436489820480E-002;-3.954322077333927E-003;3.286530962213874E-003;
2.422666666666667E+009;1.659353971481323E-001;-6.299076229333878E-002;-3.695339430123568E-003;3.612259402871132E-003;
2.422833333333334E+009;1.652993261814117E-001;-6.523038446903229E-002;-3.510238835588098E-003;3.598168492317200E-003;
2.423000000000000E+009;1.647550612688065E-001;-6.745980679988861E-002;-3.282021032646298E-003;4.028098657727242E-003;
2.423166666666667E+009;1.643401235342026E-001;-6.949402391910553E-002;-3.166109556332231E-003;4.096468910574913E-003;
2.423333333333334E+009;1.639489978551865E-001;-7.190392166376114E-002;-2.705350983887911E-003;4.245671443641186E-003;
2.423500000000000E+009;1.640089601278305E-001;-7.380782812833786E-002;-2.439917996525765E-003;4.296914674341679E-003;
2.423666666666667E+009;1.639356315135956E-001;-7.605344802141190E-002;-2.351637464016676E-003;4.409754648804665E-003;
2.423833333333334E+009;1.638630330562592E-001;-7.796158641576767E-002;-2.019252395257354E-003;4.401820246130228E-003;
2.424000000000000E+009;1.640106439590454E-001;-8.024047315120697E-002;-1.786750974133611E-003;4.304387141019106E-003;
2.424166666666667E+009;1.641060709953308E-001;-8.191360533237457E-002;-1.473899814300239E-003;4.331414587795734E-003;
2.424333333333334E+009;1.643906086683273E-001;-8.373595774173737E-002;-1.315326779149473E-003;4.283403046429157E-003;
2.424500000000000E+009;1.649170666933060E-001;-8.586318790912628E-002;-1.029144856147468E-003;4.174136091023684E-003;
2.424666666666667E+009;1.652281135320664E-001;-8.745285123586655E-002;-9.413245134055615E-004;4.180349875241518E-003;
2.424833333333334E+009;1.659891009330750E-001;-8.893031626939774E-002;-8.247039513662458E-004;4.075165372341871E-003;
2.425000000000000E+009;1.665074825286865E-001;-9.054818749427795E-002;-7.345305057242513E-004;4.134133458137512E-003;
2.425166666666667E+009;1.670458763837814E-001;-9.172062575817108E-002;-5.819521029479802E-004;4.014768172055483E-003;
2.425333333333334E+009;1.674017608165741E-001;-9.300850331783295E-002;-4.212497733533382E-004;4.061087500303984E-003;
2.425500000000000E+009;1.681859195232391E-001;-9.411255270242691E-002;-2.846546121872962E-004;4.069614689797163E-003;
2.425666666666667E+009;1.689591407775879E-001;-9.502313286066055E-002;-1.682693109614775E-004;3.919937647879124E-003;
2.425833333333334E+009;1.694506108760834E-001;-9.594238549470902E-002;-1.388364617014304E-004;3.780028782784939E-003;
2.426000000000000E+009;1.701213121414185E-001;-9.665234386920929E-002;1.378724264213815E-004;3.883081022650003E-003;
2.426166666666667E+009;1.708763241767883E-001;-9.732491523027420E-002;1.994219783227891E-004;3.944338299334049E-003;
2.426333333333334E+009;1.713219285011292E-001;-9.790313243865967E-002;2.753598964773119E-004;3.842823440209031E-003;
2.426500000000000E+009;1.720462292432785E-001;-9.831268340349197E-002;3.510795650072396E-004;3.687307005748153E-003;
2.426666666666667E+009;1.726089119911194E-001;-9.875588864088059E-002;5.314362933859229E-004;3.713356796652079E-003;
2.426833333333334E+009;1.731792688369751E-001;-9.913004189729691E-002;6.717744399793446E-004;3.791660303249955E-003;
2.427000000000000E+009;1.734409630298615E-001;-9.940366446971893E-002;6.762319244444370E-004;3.545700805261731E-003;
2.427166666666667E+009;1.739123016595841E-001;-9.949887543916702E-002;7.508845301344991E-004;3.592749591916800E-003;
2.427333333333334E+009;1.740739047527313E-001;-9.983073920011520E-002;9.169466211460531E-004;3.379379399120808E-003;
2.427500000000000E+009;1.742333918809891E-001;-9.997142851352692E-002;9.424024610780180E-004;3.402078989893198E-003;
2.427666666666667E+009;1.741415560245514E-001;-1.000172197818756E-001;9.888280183076859E-004;3.361831186339259E-003;
