# Hz S RI R 
2400000000.0000000000 0.168830096721649197677450615629 0.040496945381164550781250000000 -0.000435150228440761620372217999 -0.002045722911134361787083291162 0 0 0 0 
2400166666.6666665077 0.169359862804412786285723768742 0.039609957486391067504882812500 -0.000229191733524203300476074219 -0.001958709675818682150599814307 0 0 0 0 
2400333333.3333334923 0.169805034995079012771768134371 0.038684874773025512695312500000 -0.000217617736780084696695050650 -0.001907602534629404978511191260 0 0 0 0 
2400500000.0000000000 0.170567780733108492752236884371 0.038060564547777182842214216407 -0.000469308492029085809558314191 -0.002101596910506486892700195312 0 0 0 0 
2400666666.6666665077 0.170807614922523498535156250000 0.037107914686203002929687500000 -0.000313757132971659302711486816 -0.002145189791917800903320312500 0 0 0 0 
2400833333.3333334923 0.171048775315284701248330634371 0.036460332572460181499440778907 -0.000366583990398794412612915039 -0.002155848080292344093322753906 0 0 0 0 
2401000000.0000000000 0.171535208821296691894531250000 0.035630669444799423217773437500 -0.000431835040217265486717224121 -0.002309017814695835113525390625 0 0 0 0 
2401166666.6666665077 0.171852335333824213225994981258 0.034721985459327697753906250000 -0.000504175957757979631423950195 -0.002334225689992309050319052588 0 0 0 0 
2401333333.3333334923 0.172047793865203912933026231258 0.033898863941431052471120466407 -0.000484716525534167885780334473 -0.002271540462970734076258993994 0 0 0 0 
2401500000.0000000000 0.172074139118194607833700615629 0.033242609351873397827148437500 -0.000752509746234863996505737305 -0.002375269308686255975010537256 0 0 0 0 
2401666666.6666665077 0.172232046723365811446981865629 0.032582174986600882793386091407 -0.000761502597015351057052612305 -0.002471773186698555946350097656 0 0 0 0 
2401833333.3333334923 0.172327026724815396407919365629 0.031670249998569488525390625000 -0.000826190109364688396453857422 -0.002561355708166956901550292969 0 0 0 0 
2402000000.0000000000 0.172189816832542391678018134371 0.030884604901075359689732735546 -0.001062035793438554026960063403 -0.002580058993771671815159463037 0 0 0 0 
2402166666.6666665077 0.172191604971885708907919365629 0.029851738363504409790039062500 -0.001192955533042550086975097656 -0.002653458854183555083033896338 0 0 0 0 
2402333333.3333334923 0.172111168503761291503906250000 0.029021153226494789123535156250 -0.001259547425433992905857705225 -0.002637153258547186851501464844 0 0 0 0 
2402500000.0000000000 0.172294214367866488357705634371 0.028114464133977890014648437500 -0.001292212982662021896959614331 -0.002308276947587728934047079932 0 0 0 0 
2402666666.6666665077 0.172240093350410489181356865629 0.027150619775056838989257812500 -0.001656413893215358040453266675 -0.002425094367936253981349326025 0 0 0 0 
2402833333.3333334923 0.171950727701187106033486884371 0.026429070159792900085449218750 -0.001717036706395447037340473706 -0.002402133308351039886474609375 0 0 0 0 
2403000000.0000000000 0.172047093510627802093182481258 0.025224696844816211355189139454 -0.001712649012915790081024169922 -0.002231802325695753097534179688 0 0 0 0 
2403166666.6666665077 0.171687573194503811935263115629 0.024165036156773570669153983204 -0.001984866568818687958958291162 -0.002280887216329575018641806494 0 0 0 0 
2403333333.3333334923 0.171442523598670987228231865629 0.023112330585718158376673514454 -0.001989868236705660820007324219 -0.002138121286407113075256347656 0 0 0 0 
2403500000.0000000000 0.171263471245765713790731865629 0.021887460723519328725794608204 -0.002254508435726166205165243994 -0.002067965222522615952732705225 0 0 0 0 
2403666666.6666665077 0.171086207032203702071981865629 0.020522888749837878835657889454 -0.002203834941610693931579589844 -0.002063723048195242881774902344 0 0 0 0 
2403833333.3333334923 0.170982211828231811523437500000 0.019524687901139259338378906250 -0.002133478410542010827305459131 -0.001952952705323695919634174878 0 0 0 0 
2404000000.0000000000 0.170806705951690701583700615629 0.018146779388189319265345389454 -0.002308867406100035147425986182 -0.001796717289835215048549033057 0 0 0 0 
2404166666.6666665077 0.170408070087432889083700615629 0.016827633604407310485839843750 -0.002533394843339920043945312500 -0.001813264796510339000104594653 0 0 0 0 
2404333333.3333334923 0.170348614454269409179687500000 0.015552802011370660609235194727 -0.002415266819298266930821084131 -0.001608170801773666901829384912 0 0 0 0 
2404500000.0000000000 0.170023277401924105545205634371 0.014164065942168239248255545704 -0.002470816019922494888305664062 -0.001793567906133830981013632666 0 0 0 0 
2404666666.6666665077 0.170038804411888094803018134371 0.012588893063366409647008126171 -0.002652334515005350112915039062 -0.001706110080704092979431152344 0 0 0 0 
2404833333.3333334923 0.169861093163490295410156250000 0.011269637383520599710484688671 -0.002691696863621472878697060693 -0.001490102964453398964525532300 0 0 0 0 
2405000000.0000000000 0.169842004776001004318075615629 0.009704645723104476928710937500 -0.002659815596416593031642294775 -0.001192269031889737086055136572 0 0 0 0 
2405166666.6666665077 0.169676661491393987457598768742 0.008073440752923488616943359375 -0.002804957330226898193359375000 -0.001267292653210460922838520581 0 0 0 0 
2405333333.3333334923 0.169627577066421508789062500000 0.006422946695238351821899414062 -0.002773146843537687821629189600 -0.001071604434400797107099223560 0 0 0 0 
2405500000.0000000000 0.169647499918937710861044365629 0.004800171125680208206176757812 -0.002909180941060184998753213037 -0.000958077725954353809356689453 0 0 0 0 
2405666666.6666665077 0.169545590877532986739950615629 0.003218448953703045845031738281 -0.002871773671358824209925986182 -0.000953709415625780820846557617 0 0 0 0 
2405833333.3333334923 0.169374376535415704925213731258 0.001668678247369826056836772388 -0.002979903249070047898533486475 -0.000797150714788585901260375977 0 0 0 0 
2406000000.0000000000 0.169381678104400607010049384371 -0.000278865336440503597259521484 -0.002917261794209479851963662256 -0.000493432860821485519409179688 0 0 0 0 
2406166666.6666665077 0.169147118926048306564169365629 -0.001676104846410453102709126050 -0.002962344093248248100280761719 -0.000712396111339330673217773438 0 0 0 0 
2406333333.3333334923 0.169128417968750000000000000000 -0.003432616358622909025904990088 -0.002853505779057741165161132812 -0.000472120853373780900805872784 0 0 0 0 
2406500000.0000000000 0.168862000107765197753906250000 -0.005015180911868810653686523438 -0.002946604276075959205627441406 -0.000473609310574829578399658203 0 0 0 0 
2406666666.6666665077 0.168643862009048489669638115629 -0.006698593962937594327444745801 -0.002909613307565451102015829932 -0.000372987677110359126895350323 0 0 0 0 
2406833333.3333334923 0.168700724840164212325888115629 -0.008233869448304176330566406250 -0.002896218560636043982264853369 -0.000493272789753973484039306641 0 0 0 0 
2407000000.0000000000 0.168487310409545898437500000000 -0.009816030971705913543701171875 -0.002901665400713682174682617188 -0.000222149014007300111368456430 0 0 0 0 
2407166666.6666665077 0.168568432331085205078125000000 -0.011317611671984199178675467579 -0.002960861660540103912353515625 -0.000145662605063989812701624738 0 0 0 0 
2407333333.3333334923 0.168273270130157498458700615629 -0.012769148685038089752197265625 -0.002996170660480856895446777344 -0.000218365283217281103134155273 0 0 0 0 
2407500000.0000000000 0.168212577700614901443643134371 -0.014055080711841579782506173046 -0.003075235523283482031581259619 0.000002149266492779133841395378 0 0 0 0 
2407666666.6666665077 0.168021947145462008377236884371 -0.015443284995853899174700352148 -0.003096773754805326895472861182 0.000124631973449140787124633789 0 0 0 0 
2407833333.3333334923 0.167849630117416409591513115629 -0.016599690541625019418736641796 -0.003137292573228477998020791162 0.000139865267556160688400268555 0 0 0 0 
2408000000.0000000000 0.167745620012283297439736884371 -0.017773121595382690429687500000 -0.003180641913786530928370810400 0.000210791244171559810638427734 0 0 0 0 
2408166666.6666665077 0.167888373136520413497763115629 -0.018586421385407451284388358204 -0.003338653827086091041564941406 0.000276639591902494376331883563 0 0 0 0 
2408333333.3333334923 0.168110430240631103515625000000 -0.019786747172474861145019531250 -0.003244738560169934792759560693 0.000468995101982727701037806378 0 0 0 0 
2408500000.0000000000 0.167994588613510104080361884371 -0.020744500681757930410364920704 -0.003304452635347843170166015625 0.000600002182181924581527709961 0 0 0 0 
2408666666.6666665077 0.168115198612213107010049384371 -0.021754331886768341064453125000 -0.003318660426884890036342001807 0.000919545593205839395523071289 0 0 0 0 
2408833333.3333334923 0.168220371007919311523437500000 -0.022519249469041820871373360546 -0.003115816274657845930812216650 0.000986013445071876049041748047 0 0 0 0 
2409000000.0000000000 0.168377295136451693435830634371 -0.023390697315335270273228829296 -0.003278683871030807928798056494 0.001376937143504620032069540869 0 0 0 0 
2409166666.6666665077 0.168542966246604891678018134371 -0.024098189547657970083216483204 -0.003142616245895624160766601562 0.001376140629872679927228618091 0 0 0 0 
2409333333.3333334923 0.168914675712585504729901231258 -0.025189744308590888977050781250 -0.003013598266988993124720908057 0.001664711162447928948643349756 0 0 0 0 
2409500000.0000000000 0.169036448001861600021200615629 -0.026209928095340728759765625000 -0.002978829899802803993225097656 0.001757884281687438921687460791 0 0 0 0 
2409666666.6666665077 0.169153735041618402679119981258 -0.026960946619510650634765625000 -0.002855494152754545211791992188 0.001772658666595817045924521338 0 0 0 0 
2409833333.3333334923 0.169391497969627408126669365629 -0.027735296636819839477539062500 -0.002726538339629768891575478662 0.001864621764980256991145468604 0 0 0 0 
2410000000.0000000000 0.169616162776946993728799384371 -0.028446944430470470083216483204 -0.002673409413546324209925986182 0.001766451168805361010907817310 0 0 0 0 
2410166666.6666665077 0.169656291604042108733807481258 -0.029535382986068729055384451954 -0.002543668495491147041320800781 0.001979787368327378793003701318 0 0 0 0 
2410333333.3333334923 0.169732749462127713302450615629 -0.030174070969223979604700858204 -0.002417944837361574172973632812 0.002046640729531646208522177588 0 0 0 0 
2410500000.0000000000 0.169879660010337801834268134371 -0.031106257811188701284388358204 -0.002370504429563879966735839844 0.002116258256137371063232421875 0 0 0 0 
2410666666.6666665077 0.169767171144485501388388115629 -0.032075107097625732421875000000 -0.002221924485638738112208701025 0.002268882235512136979344033350 0 0 0 0 
2410833333.3333334923 0.169838458299636813064736884371 -0.032780796289443969726562500000 -0.002269413089379667802097939600 0.002293393248692154884338378906 0 0 0 0 
2411000000.0000000000 0.169591292738914489746093750000 -0.033517543226480477069895158593 -0.002062652027234435081481933594 0.002231950405985116958618164062 0 0 0 0 
2411166666.6666665077 0.169428318738937405685263115629 -0.034305136650800711894948591407 -0.001892965985462069945094443213 0.002447783714160323143005371094 0 0 0 0 
2411333333.3333334923 0.169284388422966003417968750000 -0.034924894571304321289062500000 -0.001973198959603906111476279150 0.002479288261383771896362304688 0 0 0 0 
2411500000.0000000000 0.168898507952690096756143134371 -0.035974819213151931762695312500 -0.001905094715766608931897807544 0.002584731671959162192103720557 0 0 0 0 
2411666666.6666665077 0.169051423668861389160156250000 -0.036738079041242599487304687500 -0.001778626465238630988477397388 0.002630742266774177984950400244 0 0 0 0 
2411833333.3333334923 0.168632686138153103927450615629 -0.037497915327548980712890625000 -0.001517097000032662911656045068 0.002632485469803214073181152344 0 0 0 0 
2412000000.0000000000 0.168425217270851107498330634371 -0.038319874554872512817382812500 -0.001485720276832581000087118994 0.002734470879659057097194052588 0 0 0 0 
2412166666.6666665077 0.168259531259536687652911268742 -0.039210002869367599487304687500 -0.001320283394306897900224995190 0.002590190153568983078002929688 0 0 0 0 
2412333333.3333334923 0.167921334505081204513388115629 -0.040209483355283737182617187500 -0.001236630370840430042864155347 0.002750491024926304817199707031 0 0 0 0 
2412500000.0000000000 0.167447164654731805999432481258 -0.040902789682149887084960937500 -0.001220691832713783004163432544 0.002700709737837315039393759619 0 0 0 0 
2412666666.6666665077 0.167102798819541903396768134371 -0.041958291083574301982839216407 -0.001110627083107829093933105469 0.002689692657440900802612304688 0 0 0 0 
2412833333.3333334923 0.166750550270080594161825615629 -0.042805857956409447406809221093 -0.000861169362906366586685180664 0.002611619653180242018458701025 0 0 0 0 
2413000000.0000000000 0.166160851716995211502236884371 -0.043786592781543731689453125000 -0.000860390369780361652374267578 0.002557197818532586097717285156 0 0 0 0 
2413166666.6666665077 0.165807247161865206619424384371 -0.044727418571710586547851562500 -0.000726738187950104475021362305 0.002552744233980774879455566406 0 0 0 0 
2413333333.3333334923 0.165129259228706387618856865629 -0.045675128698348999023437500000 -0.000747269717976450920104980469 0.002520981943234800858738564600 0 0 0 0 
2413500000.0000000000 0.164761349558830288986044365629 -0.046698529273271560668945312500 -0.000936232798267155885696411133 0.002551469486206769943237304688 0 0 0 0 
2413666666.6666665077 0.164412349462509210784588731258 -0.047791529446840293193776716407 -0.000580629042815417051315307617 0.002547238487750291824340820312 0 0 0 0 
2413833333.3333334923 0.163493633270263699630575615629 -0.048610355705022811889648437500 -0.000575367012061178684234619141 0.002629109658300877051112509619 0 0 0 0 
2414000000.0000000000 0.162863597273826599121093750000 -0.049628823995590209960937500000 -0.000449878221843391711085718976 0.002740695606917142868041992188 0 0 0 0 
2414166666.6666665077 0.162595450878143310546875000000 -0.050525087863206863403320312500 -0.000489118625409901142120361328 0.002504582516849040985107421875 0 0 0 0 
2414333333.3333334923 0.162047147750854492187500000000 -0.051695939153432853008229841407 -0.000621846586000174283981323242 0.002523805713281034989597939600 0 0 0 0 
2414500000.0000000000 0.161788210272789001464843750000 -0.052512217313051216815988908593 -0.000468207203084603006213587628 0.002554278820753097967860556494 0 0 0 0 
2414666666.6666665077 0.161359220743179293533486884371 -0.053649414330720901489257812500 -0.000314859644277021288871765137 0.002713563153520226912257529150 0 0 0 0 
2414833333.3333334923 0.161072015762329101562500000000 -0.054610956460237503051757812500 -0.000385730876587331295013427734 0.002776415320113300843479775537 0 0 0 0 
2415000000.0000000000 0.160642907023429898361044365629 -0.055715333670377731323242187500 -0.000257884326856583411067408429 0.002756722504273056983947753906 0 0 0 0 
2415166666.6666665077 0.160307303071022005935830634371 -0.056855984032154083251953125000 -0.000202423150767572197035112924 0.002800029236823319955113076318 0 0 0 0 
2415333333.3333334923 0.160359427332878112792968750000 -0.058088764548301696777343750000 -0.000136485483380965888500213623 0.002805901458486915068385458838 0 0 0 0 
2415500000.0000000000 0.160078480839729309082031250000 -0.059241481125354766845703125000 0.000144777499372139600202283316 0.002737737726420164108276367188 0 0 0 0 
2415666666.6666665077 0.159811690449714688400106865629 -0.060391593724489212036132812500 0.000176560526597313610002240591 0.002835370833054184913635253906 0 0 0 0 
2415833333.3333334923 0.159653335809707613845986884371 -0.061724837869405753398854841407 0.000380803860025480389595031738 0.002907640300691128210780478369 0 0 0 0 
2416000000.0000000000 0.159308820962905911544638115629 -0.063005261123180389404296875000 0.000254996761213988119929713116 0.002868862589821219010594033350 0 0 0 0 
2416166666.6666665077 0.159301534295082092285156250000 -0.064228057861328125000000000000 0.000566242379136383533477783203 0.002602694788947701887843466650 0 0 0 0 
2416333333.3333334923 0.158952489495277404785156250000 -0.065606012940406799316406250000 0.000783623254392296075820922852 0.002821033122017980055568076025 0 0 0 0 
2416500000.0000000000 0.158716619014739990234375000000 -0.066864214837551116943359375000 0.000641574559267610311508178711 0.002725264988839625878574990381 0 0 0 0 
2416666666.6666665077 0.158430039882659912109375000000 -0.068024314939975738525390625000 0.000836668594274669885635375977 0.002611836651340126991271972656 0 0 0 0 
2416833333.3333334923 0.158280313014984103103799384371 -0.069390021264553070068359375000 0.001054536551237106106401753003 0.002585809212177991867065429688 0 0 0 0 
2417000000.0000000000 0.157628178596496609786825615629 -0.070672407746315002441406250000 0.000939415825996547937393188477 0.002486565383151174025294638525 0 0 0 0 
2417166666.6666665077 0.157456010580062893966513115629 -0.071756586432456970214843750000 0.001148801879025995948194194263 0.002434892347082496123072958838 0 0 0 0 
2417333333.3333334923 0.157209232449531610686932481258 -0.072872258722782135009765625000 0.001158148865215479893925332178 0.002329895971342920823338173975 0 0 0 0 
2417500000.0000000000 0.156847372651100186446981865629 -0.074018485844135284423828125000 0.001256946823559701009037636865 0.002068834379315375848057412256 0 0 0 0 
2417666666.6666665077 0.156665802001953097244424384371 -0.074887149035930633544921875000 0.001225876272656023936030722510 0.002059839433059095902683877100 0 0 0 0 
2417833333.3333334923 0.156397789716720608810263115629 -0.075784526765346527099609375000 0.001218802179209887981414794922 0.002008818089962006048915243994 0 0 0 0 
2418000000.0000000000 0.156076893210411099532919365629 -0.076890625059604644775390625000 0.001046813675202429077745747144 0.001941677532158792018890380859 0 0 0 0 
2418166666.6666665077 0.155832529067993191818075615629 -0.077678240835666656494140625000 0.001167619950138032002689980615 0.001813284819945693016052246094 0 0 0 0 
2418333333.3333334923 0.155899703502655001541299384371 -0.078655757009983062744140625000 0.000966255320236086953818166467 0.001831479137763381004333496094 0 0 0 0 
2418500000.0000000000 0.155630335211753900725994981258 -0.079445712268352508544921875000 0.001061763614416122002842568506 0.001572101726196706078172993237 0 0 0 0 
2418666666.6666665077 0.155348896980285589020098768742 -0.080363340675830841064453125000 0.001048865611664951064466166919 0.001785867149010301069972372900 0 0 0 0 
2418833333.3333334923 0.155004724860191400725994981258 -0.081098020076751708984375000000 0.000846185779664665460586547852 0.001697255647741257927538227612 0 0 0 0 
2419000000.0000000000 0.154658183455467196365518134371 -0.081817097961902618408203125000 0.000846177397761493921279907227 0.001950518460944294929504394531 0 0 0 0 
2419166666.6666665077 0.154574885964393587967080634371 -0.082523345947265625000000000000 0.000821784022264182567596435547 0.002080866601318120956420898438 0 0 0 0 
2419333333.3333334923 0.154198586940765408614950615629 -0.083151683211326599121093750000 0.000931095913983881473541259766 0.002098598051816225051879882812 0 0 0 0 
2419500000.0000000000 0.153962001204490689376669365629 -0.083881393074989318847656250000 0.000984328682534396648406982422 0.002238205401226878166198730469 0 0 0 0 
2419666666.6666665077 0.153779983520507812500000000000 -0.084555543959140777587890625000 0.001133522018790245056152343750 0.002482049399986863136291503906 0 0 0 0 
2419833333.3333334923 0.153372034430503900725994981258 -0.085007399320602416992187500000 0.001346150995232165076612163013 0.002463958226144313812255859375 0 0 0 0 
