# Hz S RI R 50
2400000000.0000000000 0.166131302714347811599893134371 0.041513942182064063335378278907 -0.001917714835144578976872109521 0.000281221204204484820365905762 0 0 0 0 
2400166666.6666665077 0.166714861989021301269531250000 0.040772896260023117065429687500 -0.001752065145410597107530903394 0.000225414623855613199159345084 0 0 0 0 
2400333333.3333334923 0.167217016220092801193075615629 0.039702657610177986835520158593 -0.001855952665209769985796284253 0.000122954588732682195588788443 0 0 0 0 
2400500000.0000000000 0.167818486690521212478799384371 0.038703761994838721538503278907 -0.001936522545292973952052451025 0.000199596717720851302146911621 0 0 0 0 
2400666666.6666665077 0.167914912104606600662393134371 0.037520565092563629150390625000 -0.001917006331495940902112651294 0.000070790403697174042463302612 0 0 0 0 
2400833333.3333334923 0.168445929884910611251669365629 0.036542240530252456665039062500 -0.001966385869309306144714355469 0.000333396077621728181838989258 0 0 0 0 
2401000000.0000000000 0.168762668967247009277343750000 0.035663899034261696552317033593 -0.002175950678065419197082519531 0.000165268051205202910021105356 0 0 0 0 
2401166666.6666665077 0.169108584523200988769531250000 0.034581523388624191284179687500 -0.002120427554473280906677246094 0.000184733347850851687505999155 0 0 0 0 
2401333333.3333334923 0.169242799282074002364950615629 0.033535476773977279663085937500 -0.002209882019087671799900673975 0.000332169060129672288894653320 0 0 0 0 
2401500000.0000000000 0.169636517763137789627236884371 0.032546829432249069213867187500 -0.002383693587034941153285361182 0.000422674347646534388691502704 0 0 0 0 
2401666666.6666665077 0.169915199279785211761151231258 0.031634602695703513408620466407 -0.002338908845558762984034872900 0.000409441709052771275669652118 0 0 0 0 
2401833333.3333334923 0.169983968138694790939169365629 0.030662180855870250356653983204 -0.002605017740279436111450195312 0.000245031173108145594596862793 0 0 0 0 
2402000000.0000000000 0.169973447918891906738281250000 0.029589673504233360290527343750 -0.002547815209254622893092490088 0.000586567213758826255798339844 0 0 0 0 
2402166666.6666665077 0.170203998684883089920205634371 0.028476892039179798471471016796 -0.002734294161200522942783974756 0.000510738289449363946914672852 0 0 0 0 
2402333333.3333334923 0.170280814170837402343750000000 0.027359589934349060058593750000 -0.002558068605139852003810263525 0.000854009820614010095596313477 0 0 0 0 
2402500000.0000000000 0.170587122440338107010049384371 0.026534475386142730712890625000 -0.002627507783472537994384765625 0.000976245617493987083435058594 0 0 0 0 
2402666666.6666665077 0.170616582036018399337606865629 0.025455433875322338449498360546 -0.002749216044321655793430947412 0.001082271337509155056597065503 0 0 0 0 
2402833333.3333334923 0.170643731951713589767294365629 0.024459078907966610300084298046 -0.002478065202012658119201660156 0.001383389928378164985059428638 0 0 0 0 
2403000000.0000000000 0.170672148466110201736611884371 0.023278497159481048583984375000 -0.002601857762783765792846679688 0.001464818720705806992174458081 0 0 0 0 
2403166666.6666665077 0.170880272984504699707031250000 0.022115046158432960510253906250 -0.002537832828238606886622763525 0.001789605943486094908473349463 0 0 0 0 
2403333333.3333334923 0.170940846204757690429687500000 0.020951118320226669311523437500 -0.002619323786348104910609579932 0.001695586135610938072204589844 0 0 0 0 
2403500000.0000000000 0.170897051692008999923544365629 0.019771095365285869943638985546 -0.002387787681072949929478310693 0.001750872354023158983943320166 0 0 0 0 
2403666666.6666665077 0.170915290713310186188067518742 0.018687197938561439514160156250 -0.002239842200651764869689941406 0.001821927377022803046582866138 0 0 0 0 
2403833333.3333334923 0.171198666095733587066973768742 0.017434764653444290161132812500 -0.002199088921770453886744833838 0.002066709334030746979954384912 0 0 0 0 
2404000000.0000000000 0.171109691262245205978231865629 0.016243649646639820444127266796 -0.002025178866460918946507119287 0.001989473123103380203247070312 0 0 0 0 
2404166666.6666665077 0.171074822545051602462606865629 0.014827434904873369389544102148 -0.002117121126502751870396279443 0.001993653131648898124694824219 0 0 0 0 
2404333333.3333334923 0.171237155795097406585369981258 0.013763180002570150547991367773 -0.001864632009528576894047402490 0.001805350300855935053584433447 0 0 0 0 
2404500000.0000000000 0.171174600720405606368856865629 0.012403318658471109217633632227 -0.001838156138546765067456889575 0.002058936748653649850132607568 0 0 0 0 
2404666666.6666665077 0.171140849590301513671875000000 0.011095296591520309448242187500 -0.001810786430723964951158833081 0.002222083043307065963745117188 0 0 0 0 
2404833333.3333334923 0.171274662017822293380575615629 0.009883677586913108825683593750 -0.001715140999294817013981484521 0.002114399569109081788303994287 0 0 0 0 
2405000000.0000000000 0.171338751912117004394531250000 0.008410844951868057250976562500 -0.001884368481114506938337016528 0.002188369631767272949218750000 0 0 0 0 
2405166666.6666665077 0.171349719166755704025106865629 0.007109279278665781021118164062 -0.001643006340600549957872700269 0.002220366150140761895420693506 0 0 0 0 
2405333333.3333334923 0.171498969197273309905682481258 0.005506709218025208386892987988 -0.001576976384967565970179892432 0.002046994399279356002807617188 0 0 0 0 
2405500000.0000000000 0.171484023332595797439736884371 0.004132705740630626678466796875 -0.001692329533398150964024209131 0.002208368387073277993443154443 0 0 0 0 
2405666666.6666665077 0.171450018882751492599325615629 0.002741172676905990080592490088 -0.001489327172748744921443320166 0.002261370886117219924926757812 0 0 0 0 
2405833333.3333334923 0.171291813254356412032919365629 0.001386364107020199082018208081 -0.001548096071928739981410361182 0.002528987126424909071681357275 0 0 0 0 
2406000000.0000000000 0.171421840786933898925781250000 -0.000252135912887752110331934796 -0.001553039648570119900944375146 0.002480294089764357046840048682 0 0 0 0 
2406166666.6666665077 0.171067759394645690917968750000 -0.001554757123813033103942871094 -0.001693197642453015067456889575 0.002445364370942115783691406250 0 0 0 0 
2406333333.3333334923 0.171170115470886202713174384371 -0.003024851903319358825683593750 -0.001562286401167511940002441406 0.002619667211547493934631347656 0 0 0 0 
2406500000.0000000000 0.170999348163604708572549384371 -0.004551073070615530014038085938 -0.001372000318951904990552592700 0.002743880962952971892115927588 0 0 0 0 
2406666666.6666665077 0.170525312423706110198651231258 -0.005872801411896944046020507812 -0.001580432639457284970524453271 0.002925500040873885154724121094 0 0 0 0 
2406833333.3333334923 0.170538306236267089843750000000 -0.007258518133312463760375976562 -0.001332262880168854973436665112 0.002998664043843746185302734375 0 0 0 0 
2407000000.0000000000 0.170339047908782986739950615629 -0.008583336137235164642333984375 -0.001313316402956842942478798975 0.003188671777024865150451660156 0 0 0 0 
2407166666.6666665077 0.170098811388015802581463731258 -0.009905546903610229492187500000 -0.001207220368087291934369731372 0.003167137270793319182154990088 0 0 0 0 
2407333333.3333334923 0.169649139046669006347656250000 -0.011295974254608150827428048046 -0.001108956988900900103925395435 0.003459959058091043992283486475 0 0 0 0 
2407500000.0000000000 0.169350028038024902343750000000 -0.012309561483561989175816719921 -0.000951098045334219932556152344 0.003438232932239770889282226562 0 0 0 0 
2407666666.6666665077 0.169061303138732910156250000000 -0.013326397165656089782714843750 -0.000751503102947026491165161133 0.003638718742877244949340820312 0 0 0 0 
2407833333.3333334923 0.168752595782279996017294365629 -0.014657165855169299734095389454 -0.000601173320319503654181325647 0.003567928215488791899440146338 0 0 0 0 
2408000000.0000000000 0.168499618768691988845986884371 -0.015608676709234719712227068555 -0.000516722851898521184921264648 0.003913315013051033020019531250 0 0 0 0 
2408166666.6666665077 0.168344318866729708572549384371 -0.016501547768712040292760079296 -0.000102663500001654001787462778 0.003917981870472431182861328125 0 0 0 0 
2408333333.3333334923 0.168367654085159301757812500000 -0.017339598387479778635045235546 -0.000054417720093624673109462125 0.003841165918856859207153320312 0 0 0 0 
2408500000.0000000000 0.168056100606918307205361884371 -0.018440445885062221181849295704 0.000275633734418079311221522198 0.003762005595490335984470986475 0 0 0 0 
2408666666.6666665077 0.168018653988838195800781250000 -0.019281931221485141408900076954 0.000307581358356401324272155762 0.003875765716657042937037802588 0 0 0 0 
2408833333.3333334923 0.167857795953750610351562500000 -0.020142292603850371623952497657 0.000595246267039328813552856445 0.003771622432395815849304199219 0 0 0 0 
2409000000.0000000000 0.167649477720260592361611884371 -0.020991636440157890319824218750 0.000679560820572078227996826172 0.003900838550180197195765829932 0 0 0 0 
2409166666.6666665077 0.167922139167785589020098768742 -0.021932758390903469430943673046 0.000975813600234687328338623047 0.003827817738056182861328125000 0 0 0 0 
2409333333.3333334923 0.167924091219902010818643134371 -0.022859005257487300527552420704 0.001143291709013283035875629956 0.003552361624315381050109863281 0 0 0 0 
2409500000.0000000000 0.167827293276786804199218750000 -0.023916941136121749877929687500 0.001201300416141747994663857568 0.003602025797590612931492470850 0 0 0 0 
2409666666.6666665077 0.167840972542762811858807481258 -0.024690700694918629037877266796 0.001572727458551526069641113281 0.003412607824429870085475302588 0 0 0 0 
2409833333.3333334923 0.167810827493667602539062500000 -0.025516619905829429626464843750 0.001683405600488186099408793872 0.003223821986466646194458007812 0 0 0 0 
2410000000.0000000000 0.167852997779846191406250000000 -0.026570113375782970083216483204 0.001743321889080106995226215894 0.003190088784322143034694052588 0 0 0 0 
2410166666.6666665077 0.167958647012710599044638115629 -0.027687618508934981609304060157 0.001695116981863975958583212744 0.002940239850431681113002158057 0 0 0 0 
2410333333.3333334923 0.167820230126380892654580634371 -0.028508646413683891296386718750 0.001868542167358099980595254053 0.002937038894742726845982216943 0 0 0 0 
2410500000.0000000000 0.167754292488098089020098768742 -0.029659291729331020009974295704 0.002077210927382111983058310400 0.002734234323725103898289345850 0 0 0 0 
2410666666.6666665077 0.167531430721282986739950615629 -0.030699046328663829458216483204 0.002129985718056559996363974463 0.002680016215890645980834960938 0 0 0 0 
2410833333.3333334923 0.167543306946754511077557481258 -0.031658768653869628906250000000 0.002184413373470305962803506006 0.002595355268567800955531454932 0 0 0 0 
2411000000.0000000000 0.167468637228012112716513115629 -0.032749805599451072002370466407 0.002219225512817502021789550781 0.002305166563019156889674521338 0 0 0 0 
2411166666.6666665077 0.167256355285644503494424384371 -0.033718574792146682739257812500 0.002342971274629234833958291162 0.002258933149278163909912109375 0 0 0 0 
2411333333.3333334923 0.166997164487838800628338731258 -0.034692324697971337055246721093 0.002421702258288859887364052881 0.002106346888467669920680380713 0 0 0 0 
2411500000.0000000000 0.166853249073028592208700615629 -0.036059472709894180297851562500 0.002472917549312115149257040869 0.001844551879912615039228129810 0 0 0 0 
2411666666.6666665077 0.166621878743171691894531250000 -0.036742884665727622295339216407 0.002361066173762083053588867188 0.001768993446603416962864541162 0 0 0 0 
2411833333.3333334923 0.166390329599380493164062500000 -0.037712018936872482299804687500 0.002514000749215484099147177588 0.001788090332411230044123984229 0 0 0 0 
2412000000.0000000000 0.166219428181648309905682481258 -0.038783289492130279541015625000 0.002442929893732070922851562500 0.001403139787726104042650532300 0 0 0 0 
2412166666.6666665077 0.166028782725334195236044365629 -0.039867814630269997333567033593 0.002431052969768642945530556787 0.001486880355514585971832275391 0 0 0 0 
2412333333.3333334923 0.166184216737747192382812500000 -0.040980856865644461894948591407 0.002163539174944161935093545068 0.001390021177940071062800742041 0 0 0 0 
2412500000.0000000000 0.165569424629211398025674384371 -0.042179211974143981933593750000 0.002192392712458968162536621094 0.001173143275082110924961709131 0 0 0 0 
2412666666.6666665077 0.165434136986732510665731865629 -0.043216131627559661865234375000 0.001992379548028111891505576025 0.001148981275036931037902832031 0 0 0 0 
2412833333.3333334923 0.165072128176689203460369981258 -0.044188413769006729125976562500 0.002020138083025813102722167969 0.001122680259868503050563193213 0 0 0 0 
2413000000.0000000000 0.164924681186675997635049384371 -0.045312911272048950195312500000 0.001987201394513248963596963037 0.001158137107267976024030375903 0 0 0 0 
2413166666.6666665077 0.164702147245407104492187500000 -0.046337280422449111938476562500 0.001938420697115361907361674731 0.001169023686088622050044394385 0 0 0 0 
2413333333.3333334923 0.164170086383819607833700615629 -0.047479961067438132549245466407 0.001794069074094295935389853369 0.001104475231841206984279013525 0 0 0 0 
2413500000.0000000000 0.164031818509101895431356865629 -0.048443015664815902709960937500 0.001714130165055393955828022534 0.001229457673616707108141254956 0 0 0 0 
2413666666.6666665077 0.163734376430511502364950615629 -0.049723379313945770263671875000 0.001821748679503798918483115088 0.001079982030205429033992148291 0 0 0 0 
2413833333.3333334923 0.163317531347274808029013115629 -0.050697997212409973144531250000 0.001824307488277554945704794775 0.001117427716962992928148579175 0 0 0 0 
2414000000.0000000000 0.162889286875724792480468750000 -0.051585342735052108764648437500 0.001902976538985968069789267432 0.001244893297553062005283974756 0 0 0 0 
2414166666.6666665077 0.162732318043708801269531250000 -0.052544821053743362426757812500 0.001852575689554214911219931494 0.001226549502462149100062704932 0 0 0 0 
2414333333.3333334923 0.162398725748062106033486884371 -0.053649675101041786884348283593 0.001792371738702059008954692310 0.001288920524530112960218120044 0 0 0 0 
2414500000.0000000000 0.162308111786842401702557481258 -0.054590050131082541728932966407 0.002005713991820811791660927881 0.001360946916975080966949462891 0 0 0 0 
2414666666.6666665077 0.161919295787811307052450615629 -0.055434606969356536865234375000 0.002281272551044822172877646338 0.001343268784694374041316367041 0 0 0 0 
2414833333.3333334923 0.161732405424117986481036268742 -0.056434936821460716938059221093 0.002033401746302843093872070312 0.001468840055167675018310546875 0 0 0 0 
2415000000.0000000000 0.161613389849662808517294365629 -0.057447489351034157489817033593 0.002251637633889913992640829932 0.001256041927263140895246196216 0 0 0 0 
2415166666.6666665077 0.161442577838897705078125000000 -0.058374915271997451782226562500 0.002255244646221398873570107568 0.001113116159103811004041362231 0 0 0 0 
2415333333.3333334923 0.161419495940208407303018134371 -0.059446908533573150634765625000 0.002537376247346401214599609375 0.001196985249407589001896523584 0 0 0 0 
2415500000.0000000000 0.161275207996368408203125000000 -0.060506410896778106689453125000 0.002498762914910912947413779150 0.000986166647635400295257568359 0 0 0 0 
2415666666.6666665077 0.161186367273330688476562500000 -0.061323538422584526752512346093 0.002618098398670554161071777344 0.001016183407045901038526225513 0 0 0 0 
2415833333.3333334923 0.161115065217018099685830634371 -0.062597580254077911376953125000 0.002541286638006567955017089844 0.000863743771333247423171997070 0 0 0 0 
2416000000.0000000000 0.160917222499847412109375000000 -0.063578404486179351806640625000 0.002680096542462706999537802588 0.000822993868496268987655639648 0 0 0 0 
2416166666.6666665077 0.160853073000907897949218750000 -0.064776085317134857177734375000 0.002688066335394978956935263525 0.000726771482732146978378295898 0 0 0 0 
2416333333.3333334923 0.160564690828323392013388115629 -0.065761305391788482666015625000 0.002644981490448116822483681787 0.000806847587227821350097656250 0 0 0 0 
2416500000.0000000000 0.160350158810615511795205634371 -0.066904574632644653320312500000 0.002567428862676024003269814600 0.000630644382908940315246582031 0 0 0 0 
2416666666.6666665077 0.160022601485252408126669365629 -0.067821413278579711914062500000 0.002740397816523910002467490088 0.000468342506792396306991577148 0 0 0 0 
2416833333.3333334923 0.159844726324081393142861884371 -0.069114618003368377685546875000 0.002730293665081263022181845557 0.000270941585768014192581176758 0 0 0 0 
2417000000.0000000000 0.159140095114708002288494981258 -0.069935329258441925048828125000 0.002829314908012748198268271338 0.000411758723203092813491821289 0 0 0 0 
2417166666.6666665077 0.158846735954284695724325615629 -0.070856437087059020996093750000 0.002706281142309308052062988281 0.000230829464271664592340746469 0 0 0 0 
2417333333.3333334923 0.158623397350311307052450615629 -0.071689464151859283447265625000 0.002563196932896972136256552588 0.000148263265145942595884046011 0 0 0 0 
2417500000.0000000000 0.158148005604744013030682481258 -0.072787001729011535644531250000 0.002809721045196055932285927881 0.000180982984602451297357836313 0 0 0 0 
2417666666.6666665077 0.157900661230087308029013115629 -0.073385730385780334472656250000 0.002789795165881514982936240088 0.000035618446418084197420666354 0 0 0 0 
2417833333.3333334923 0.157371178269386291503906250000 -0.074292816221714019775390625000 0.002856605453416705131530761719 -0.000098064636404160410165786743 0 0 0 0 
2418000000.0000000000 0.157109484076499911209268134371 -0.075119726359844207763671875000 0.002933686133474111990687704932 -0.000095159499323926866054534912 0 0 0 0 
2418166666.6666665077 0.156690269708633395095986884371 -0.075691573321819305419921875000 0.002847395837306975884678506006 -0.000232058606343343908160609113 0 0 0 0 
2418333333.3333334923 0.156504839658737210372763115629 -0.076558344066143035888671875000 0.002862411318346858024597167969 -0.000261937908362597227096557617 0 0 0 0 
2418500000.0000000000 0.155922099947929410079794365629 -0.077282644808292388916015625000 0.002892475808039308027980185400 -0.000350057322066277319758814679 0 0 0 0 
2418666666.6666665077 0.155664846301078796386718750000 -0.077969238162040710449218750000 0.002793213818222283883335732568 -0.000360253849066793918609619141 0 0 0 0 
2418833333.3333334923 0.155186370015144403655682481258 -0.078770108520984649658203125000 0.002801589900627731843235634912 -0.000370313529856503009796142578 0 0 0 0 
2419000000.0000000000 0.154563456773757906814736884371 -0.079458318650722503662109375000 0.002785624470561743216273642432 -0.000555376114789396524429321289 0 0 0 0 
2419166666.6666665077 0.154206186532974187652911268742 -0.080157302320003509521484375000 0.002813813509419559998753213037 -0.000396350806113332509994506836 0 0 0 0 
2419333333.3333334923 0.153686404228210504729901231258 -0.080420799553394317626953125000 0.002913325326517223878147744287 -0.000611708033829927444458007812 0 0 0 0 
2419500000.0000000000 0.153248041868209811111611884371 -0.081453345715999603271484375000 0.002838154323399066925048828125 -0.000705040409229695796966552734 0 0 0 0 
2419666666.6666665077 0.152890831232070895095986884371 -0.082080952823162078857421875000 0.002778907539322971863987588037 -0.000869453186169266700744628906 0 0 0 0 
2419833333.3333334923 0.152371868491172790527343750000 -0.082593701779842376708984375000 0.002907396294176578955409384619 -0.000924454012420028448104858398 0 0 0 0 
