# Hz S RI R 
2400000000.0000000000 0.168311998248100308517294365629 0.040889613330364227294921875000 0.002334790769964456991908408057 -0.001503347419202327945111918872 0 0 0 0 
2400166666.6666665077 0.168773740530014010330361884371 0.040381424129009246826171875000 0.002257957123219966888427734375 -0.001642981776967644908307719653 0 0 0 0 
2400333333.3333334923 0.169211849570274408538494981258 0.039411630481481552124023437500 0.002423541154712439017054892432 -0.001723889377899467945098876953 0 0 0 0 
2400500000.0000000000 0.169713124632835388183593750000 0.038385450839996337890625000000 0.002415745519101620154139853369 -0.001692115911282598972320556641 0 0 0 0 
2400666666.6666665077 0.170171573758125305175781250000 0.037586934864521026611328125000 0.002598955063149333000183105469 -0.001713834819383919022203754956 0 0 0 0 
2400833333.3333334923 0.170517951250076293945312500000 0.036843646317720413208007812500 0.002647254150360823111293173682 -0.001679973560385406017303466797 0 0 0 0 
2401000000.0000000000 0.170704185962677001953125000000 0.035958126187324516986887346093 0.002737727249041200117823935400 -0.001766532426699995994567871094 0 0 0 0 
2401166666.6666665077 0.171042457222938509842080634371 0.034970197826623916625976562500 0.002915377030149102210998535156 -0.002028357936069368882420205225 0 0 0 0 
2401333333.3333334923 0.171197935938835088531817518742 0.034213166683912277221679687500 0.002965387888252735137939453125 -0.002041555475443602041957236182 0 0 0 0 
2401500000.0000000000 0.171401426196098299881143134371 0.033178754150867462158203125000 0.003043308388441801071166992188 -0.002264606533572078184840536963 0 0 0 0 
2401666666.6666665077 0.171445459127426202972088731258 0.032533612102270133281667341407 0.003019572468474506898167275537 -0.002339173108339310126063681494 0 0 0 0 
2401833333.3333334923 0.171455308794975308517294365629 0.031688597053289413452148437500 0.003097553737461566925048828125 -0.002768417121842503981349326025 0 0 0 0 
2402000000.0000000000 0.171352833509445190429687500000 0.030785733833909041667897810157 0.003207911271601914925816201318 -0.002898700069636106924769736182 0 0 0 0 
2402166666.6666665077 0.171470865607261713225994981258 0.029894189909100529062291329296 0.003201867686584591865539550781 -0.003047589911147952079772949219 0 0 0 0 
2402333333.3333334923 0.171474933624267605880575615629 0.028860298916697498666783516796 0.003166845999658108191249228369 -0.003348310710862278938293457031 0 0 0 0 
2402500000.0000000000 0.171613723039627102950888115629 0.027794888243079188955286795704 0.003151337383314967155456542969 -0.003597412491217256026027060400 0 0 0 0 
2402666666.6666665077 0.171646714210510309417401231258 0.027045594528317451477050781250 0.002741690957918763160705566406 -0.003771757474169135093688964844 0 0 0 0 
2402833333.3333334923 0.171439871191978510100994981258 0.026015052571892738342285156250 0.002765532117336988015415810693 -0.004160242155194283399100019238 0 0 0 0 
2403000000.0000000000 0.171289682388305691818075615629 0.024877611547708511352539062500 0.002440948039293289184570312500 -0.004331643227487803372854902051 0 0 0 0 
2403166666.6666665077 0.171412110328674288650674384371 0.023780474439263340341588204296 0.002375250449404120011570595850 -0.004516293294727802276611328125 0 0 0 0 
2403333333.3333334923 0.171367555856704711914062500000 0.022530319169163700449010079296 0.002072837902233005003688193213 -0.004791467916220427426809980176 0 0 0 0 
2403500000.0000000000 0.171089500188827486892861884371 0.021456915885210040700892264454 0.001515644951723515987396240234 -0.004822273273020982742309570312 0 0 0 0 
2403666666.6666665077 0.171145111322403009612713731258 0.020215623080730441701868826954 0.001312240259721874973894428784 -0.004860972054302692413330078125 0 0 0 0 
2403833333.3333334923 0.170945182442665100097656250000 0.018806360661983489990234375000 0.001194840297102927944780659253 -0.004995838273316621780395507812 0 0 0 0 
2404000000.0000000000 0.170947447419166592696981865629 0.017410179600119590759277343750 0.000921949220355600118637084961 -0.004975377116352319717407226562 0 0 0 0 
2404166666.6666665077 0.170563548803329495529013115629 0.016112254932522770273228829296 0.000581785454414784908294677734 -0.004995425231754779815673828125 0 0 0 0 
2404333333.3333334923 0.170673877000808688064736884371 0.014994457364082339895228201954 0.000304842658806592226028442383 -0.004983613267540931701660156250 0 0 0 0 
2404500000.0000000000 0.170503139495849609375000000000 0.013353561982512470590611641796 0.000078852150181774049997329712 -0.004898535553365945816040039062 0 0 0 0 
2404666666.6666665077 0.170230016112327603439169365629 0.011889345012605190277099609375 -0.000309513940010219812393188477 -0.004750770051032304763793945312 0 0 0 0 
2404833333.3333334923 0.170330926775932312011718750000 0.010571942664682870346992693555 -0.000399810902308672720759791241 -0.004658207297325134277343750000 0 0 0 0 
2405000000.0000000000 0.170230805873870905120526231258 0.009018914774060249328613281250 -0.000606884248554706573486328125 -0.004686691332608461380004882812 0 0 0 0 
2405166666.6666665077 0.170198872685432406326455634371 0.007518704049289227399344159863 -0.000872735748998820781707763672 -0.004264496266841888427734375000 0 0 0 0 
2405333333.3333334923 0.170122146606445312500000000000 0.005853709299117326736450195312 -0.001004158868454396941541362231 -0.004308087751269341382498456738 0 0 0 0 
2405500000.0000000000 0.170154914259910611251669365629 0.004330718889832496643066406250 -0.001115558668971061923383403247 -0.004104370251297950744628906250 0 0 0 0 
2405666666.6666665077 0.169984862208366394042968750000 0.002732714405283331871032714844 -0.001175196142867207960841513525 -0.003726114053279161886927939307 0 0 0 0 
2405833333.3333334923 0.169843479990959195236044365629 0.001305438228882848999620747144 -0.001374387298710644028307270581 -0.003670892445370554924011230469 0 0 0 0 
2406000000.0000000000 0.169840306043624905685263115629 -0.000315022130962461178928929462 -0.001359492656774818897247314453 -0.003580093383789062933680868994 0 0 0 0 
2406166666.6666665077 0.169703677296638488769531250000 -0.001897916779853404001948691260 -0.001397563843056559996363974463 -0.003402747446671127839329384912 0 0 0 0 
2406333333.3333334923 0.169869005680084200760049384371 -0.003454488702118397192714072119 -0.001251089852303266958949423682 -0.003281646175310016112086630713 0 0 0 0 
2406500000.0000000000 0.169527217745780889313067518742 -0.005092969164252281188964843750 -0.001193967880681156895281147534 -0.003210015362128614945652627100 0 0 0 0 
2406666666.6666665077 0.169249087572097806075888115629 -0.006628006231039763364309980176 -0.001258090720511972904205322266 -0.003107199212536216215846396338 0 0 0 0 
2406833333.3333334923 0.169247359037399291992187500000 -0.008175652474164962768554687500 -0.001323777833022177002550434644 -0.003170348471030592918395996094 0 0 0 0 
2407000000.0000000000 0.169245287775993402679119981258 -0.009652841836214065551757812500 -0.001241728314198553995845175635 -0.003093413775786757902858115088 0 0 0 0 
2407166666.6666665077 0.169227600097656305511151231258 -0.011060041375458240509033203125 -0.001210207119584083990809775244 -0.003032281761988997893092490088 0 0 0 0 
2407333333.3333334923 0.168926239013671902755575615629 -0.012506839819252489262590977148 -0.001232338603585958914515829932 -0.003020875621587038040161132812 0 0 0 0 
2407500000.0000000000 0.168605655431747408767861884371 -0.013637546449899669992467110546 -0.001438430510461329980137490381 -0.003094376530498265786411904443 0 0 0 0 
2407666666.6666665077 0.168663486838340787032919365629 -0.014950232580304149282435233204 -0.001546366256661712906481098706 -0.003084944561123847961425781250 0 0 0 0 
2407833333.3333334923 0.168417558073997497558593750000 -0.016097979620099071157435233204 -0.001655146363191307024714804541 -0.003063689917325973944423056494 0 0 0 0 
2408000000.0000000000 0.168270617723464993575888115629 -0.017309404909610748291015625000 -0.001638924703001976013183593750 -0.002783691277727485136744833838 0 0 0 0 
2408166666.6666665077 0.168284550309181213378906250000 -0.018193187192082408559778983204 -0.001832924317568541006800986182 -0.002774624619632958932163857568 0 0 0 0 
2408333333.3333334923 0.168536633253097506424111884371 -0.019212728366255760192871093750 -0.001750954310409724929212260669 -0.002694598631933331923243857275 0 0 0 0 
2408500000.0000000000 0.168477684259414700607138115629 -0.020140493288636211050013358204 -0.001820187317207456068751669775 -0.002604863373562694029567099463 0 0 0 0 
2408666666.6666665077 0.168298751115799005706463731258 -0.020992200821638110769251639454 -0.001852608984336256980895996094 -0.002439204137772322134730673682 0 0 0 0 
2408833333.3333334923 0.168456837534904507736044365629 -0.021950891241431239736536795704 -0.001653286395594478087184286963 -0.002372581977397203011753701318 0 0 0 0 
2409000000.0000000000 0.168510720133781405349893134371 -0.022774355486035350454310233204 -0.001727277645841241099713969653 -0.002387887798249721960780478369 0 0 0 0 
2409166666.6666665077 0.168652594089508112151776231258 -0.023662686347961429250696951954 -0.001559890923090279102325439453 -0.002367074834182858900782919775 0 0 0 0 
2409333333.3333334923 0.168883979320526095291299384371 -0.024492787197232249868372733204 -0.001568084931932389953015971606 -0.002269800519570707841160439600 0 0 0 0 
2409500000.0000000000 0.168919488787651089767294365629 -0.025502908974885940551757812500 -0.001493157236836851076838827979 -0.002406266052275896072387695312 0 0 0 0 
2409666666.6666665077 0.169098600745201110839843750000 -0.026456378400325778615931326954 -0.001523794140666723034502338940 -0.002382495673373341994044638525 0 0 0 0 
2409833333.3333334923 0.169102758169174194335937500000 -0.027248915284872058523157889454 -0.001375220017507672093035053784 -0.002363039180636405944824218750 0 0 0 0 
2410000000.0000000000 0.169413805007934598068075615629 -0.028034467250108718872070312500 -0.001465407782234251932856894385 -0.002567882416769862174987792969 0 0 0 0 
2410166666.6666665077 0.169217437505722101409588731258 -0.028958689421415328979492187500 -0.001452406751923263072967529297 -0.002603752305731176896336220850 0 0 0 0 
2410333333.3333334923 0.169421389698982211013955634371 -0.029861293733119971538503278907 -0.001471745315939188003540039062 -0.002694938797503709793090820312 0 0 0 0 
2410500000.0000000000 0.169365480542182894607705634371 -0.030765213072299960744837576954 -0.001422428875230252959607768481 -0.002881360240280628204345703125 0 0 0 0 
2410666666.6666665077 0.169189706444740295410156250000 -0.031662799417972571636159528907 -0.001653715618886053995845175635 -0.003046829253435134887695312500 0 0 0 0 
2410833333.3333334923 0.169104456901550292968750000000 -0.032483834773302078247070312500 -0.001777456607669591903686523438 -0.003052474698051809830906533350 0 0 0 0 
2411000000.0000000000 0.168893694877624511718750000000 -0.033361412584781646728515625000 -0.001894345972687005996704101562 -0.003160515567287803129908896338 0 0 0 0 
2411166666.6666665077 0.168848410248756408691406250000 -0.034132514148950576782226562500 -0.002195810433477162881138466943 -0.003146001137793064117431640625 0 0 0 0 
2411333333.3333334923 0.168569132685661288162393134371 -0.034874014556407928466796875000 -0.002307325601577758789062500000 -0.003245079889893531799316406250 0 0 0 0 
2411500000.0000000000 0.168182864785194396972656250000 -0.035960070788860321044921875000 -0.002638643374666572050807333838 -0.003283747471868991851806640625 0 0 0 0 
2411666666.6666665077 0.168191418051719693282919365629 -0.036772463470697402954101562500 -0.002788888057693839073181152344 -0.003181189764291048049926757812 0 0 0 0 
2411833333.3333334923 0.167869806289672907073651231258 -0.037556607276201248168945312500 -0.002914092037826776938197470557 -0.003210548544302583174464560400 0 0 0 0 
2412000000.0000000000 0.167732179164886502364950615629 -0.038650758564472198486328125000 -0.003315447596833109855651855469 -0.003175638848915696144104003906 0 0 0 0 
2412166666.6666665077 0.167314127087593106368856865629 -0.039460722357034683227539062500 -0.003583929035812615914585732568 -0.002953202230855822996852255713 0 0 0 0 
2412333333.3333334923 0.167189344763755798339843750000 -0.040406595915555947040598283593 -0.003631060943007469177246093750 -0.003030883846804500059840536963 0 0 0 0 
2412500000.0000000000 0.166477486491203308105468750000 -0.041324559599161148071289062500 -0.003951709717512130737304687500 -0.002799018984660505814793252100 0 0 0 0 
2412666666.6666665077 0.166299223899841308593750000000 -0.042485445737838752056081403907 -0.004176161717623472213745117188 -0.002548947231844068007228232275 0 0 0 0 
2412833333.3333334923 0.165865480899810791015625000000 -0.043510477989912033081054687500 -0.004091441631317138671875000000 -0.002306056441739201979396201025 0 0 0 0 
2413000000.0000000000 0.165345862507820101638955634371 -0.044479031115770339965820312500 -0.004442470148205757141113281250 -0.002359271515160799026489257812 0 0 0 0 
2413166666.6666665077 0.164847597479820306975994981258 -0.045383423566818237304687500000 -0.004344118759036064147949218750 -0.001990215387195349173304892432 0 0 0 0 
2413333333.3333334923 0.164414659142494201660156250000 -0.046400599181652069091796875000 -0.004485589917749167356009198926 -0.001671956386417150931117392432 0 0 0 0 
2413500000.0000000000 0.164119631052017211914062500000 -0.047394562512636191631276716407 -0.004761741962283849716186523438 -0.001511560752987862066981650244 0 0 0 0 
2413666666.6666665077 0.163546442985534695724325615629 -0.048433236777782440185546875000 -0.004729537293314933776855468750 -0.001534817158244550011278461987 0 0 0 0 
2413833333.3333334923 0.163092926144599886795205634371 -0.049427665770053856586496721093 -0.004791539628058671951293945312 -0.001225293846800922913792275537 0 0 0 0 
2414000000.0000000000 0.162511855363845797439736884371 -0.050419431179761886596679687500 -0.004951751790940762433523847363 -0.000972739595454186201095581055 0 0 0 0 
2414166666.6666665077 0.162241131067276000976562500000 -0.051381211727857589721679687500 -0.004814486019313335418701171875 -0.000649910478387027978897094727 0 0 0 0 
2414333333.3333334923 0.161722749471664400955361884371 -0.052291624248027801513671875000 -0.005139926914125680923461914062 -0.000488364137709140777587890625 0 0 0 0 
2414500000.0000000000 0.161532744765281705001669365629 -0.053296357393264770507812500000 -0.005112646147608757019042968750 -0.000156576410518027787834721698 0 0 0 0 
2414666666.6666665077 0.161156043410301208496093750000 -0.054285801947116851806640625000 -0.005123055540025234222412109375 0.000094395436462946236133575439 0 0 0 0 
2414833333.3333334923 0.160836264491081210037393134371 -0.055269945412874221801757812500 -0.005120934452861548337454511426 0.000217664040974341305807390756 0 0 0 0 
2415000000.0000000000 0.160602331161498995681924384371 -0.056301537901163101196289062500 -0.005062456708401441574096679688 0.000604204833507537841796875000 0 0 0 0 
2415166666.6666665077 0.160527378320693997482138115629 -0.057353708893060677265207658593 -0.004893863573670387268066406250 0.000958626682404428720474243164 0 0 0 0 
2415333333.3333334923 0.160411372780799893478231865629 -0.058617077767848968505859375000 -0.004734521731734275817871093750 0.001097651314921676895738911206 0 0 0 0 
2415500000.0000000000 0.160236373543739291092080634371 -0.059607625007629401470143903907 -0.004383681342005729675292968750 0.001432140823453664996503520435 0 0 0 0 
2415666666.6666665077 0.159980356693267794510049384371 -0.060766994953155517578125000000 -0.004360539838671684265136718750 0.001889992388896643898607563550 0 0 0 0 
2415833333.3333334923 0.159962788224220303634481865629 -0.062047589570283889770507812500 -0.004053344018757343292236328125 0.001824441947974265055415488135 0 0 0 0 
2416000000.0000000000 0.159544706344604492187500000000 -0.063299320638179779052734375000 -0.003920540213584899902343750000 0.002045386703684926033020019531 0 0 0 0 
2416166666.6666665077 0.159698545932769803146200615629 -0.064478076994419097900390625000 -0.003596269525587559180018759619 0.002087664790451527075526572119 0 0 0 0 
2416333333.3333334923 0.159311413764953613281250000000 -0.065646573901176452636718750000 -0.003322227159515022797825478662 0.002139945514500141143798828125 0 0 0 0 
2416500000.0000000000 0.159080743789672907073651231258 -0.066938959062099456787109375000 -0.003110417397692800001857138525 0.002223294926807283921482705225 0 0 0 0 
2416666666.6666665077 0.158761337399482699295205634371 -0.068056516349315643310546875000 -0.002928651869297028021571493994 0.002165307756513357162475585938 0 0 0 0 
2416833333.3333334923 0.158523961901664706131143134371 -0.069406382739543914794921875000 -0.002699000760912895202636718750 0.002255636500194669203517294775 0 0 0 0 
2417000000.0000000000 0.158109933137893704513388115629 -0.070504650473594665527343750000 -0.002590921707451343970057822119 0.002095626899972558021545410156 0 0 0 0 
2417166666.6666665077 0.157901510596275301834268134371 -0.071437284350395202636718750000 -0.002273406134918332099914550781 0.001981018809601664976832724463 0 0 0 0 
2417333333.3333334923 0.157571434974670410156250000000 -0.072573363780975341796875000000 -0.002220525639131664796116494287 0.002035585464909673170802451025 0 0 0 0 
2417500000.0000000000 0.157123863697052001953125000000 -0.073692984879016876220703125000 -0.002089315326884388923645019531 0.001743015949614346027374267578 0 0 0 0 
2417666666.6666665077 0.157033532857894897460937500000 -0.074382655322551727294921875000 -0.001930418075062334971186972510 0.001826369320042430920841836084 0 0 0 0 
2417833333.3333334923 0.156651869416236905196981865629 -0.075226284563541412353515625000 -0.001936079002916812896728515625 0.001729819923639297919032431494 0 0 0 0 
2418000000.0000000000 0.156201526522636413574218750000 -0.076209850609302520751953125000 -0.001750247785821557044982910156 0.001623982796445488929748535156 0 0 0 0 
2418166666.6666665077 0.155910611152648898025674384371 -0.076959997415542602539062500000 -0.001783914980478584983228373950 0.001584439771249889893772744287 0 0 0 0 
2418333333.3333334923 0.156034767627716092208700615629 -0.077801458537578582763671875000 -0.001692855264991522052167582935 0.001473130541853606917737651294 0 0 0 0 
2418500000.0000000000 0.155540123581886291503906250000 -0.078552685678005218505859375000 -0.001730617368593811988830566406 0.001352962222881614945055317456 0 0 0 0 
2418666666.6666665077 0.155405372381210299392861884371 -0.079387374222278594970703125000 -0.001772315124981104893925332178 0.001283518737182020924211811597 0 0 0 0 
2418833333.3333334923 0.155072942376136807540731865629 -0.080200701951980590820312500000 -0.001785579253919423060176230322 0.001130177639424801089643168872 0 0 0 0 
2419000000.0000000000 0.154601082205772399902343750000 -0.080875702202320098876953125000 -0.001981332432478665871861123193 0.001038528513163327953935932690 0 0 0 0 
2419166666.6666665077 0.154436975717544611175213731258 -0.081483267247676849365234375000 -0.001999569358304142951965332031 0.001050144201144576072692871094 0 0 0 0 
2419333333.3333334923 0.153943687677383395095986884371 -0.081887602806091308593750000000 -0.002239740220829844908473349463 0.001050906372256577014923095703 0 0 0 0 
2419500000.0000000000 0.153766214847564697265625000000 -0.082797959446907043457031250000 -0.002333086682483553886413574219 0.001121301786042750098584819263 0 0 0 0 
2419666666.6666665077 0.153441831469535799881143134371 -0.083475485444068908691406250000 -0.002362626139074563980102539062 0.001059670932590962106820131616 0 0 0 0 
2419833333.3333334923 0.153097882866859408279580634371 -0.083852872252464294433593750000 -0.002460058545693755149841308594 0.001323478529229759953142475659 0 0 0 0 
