# Hz S RI R 
2400000000.0000000000 0.168271750211715698242187500000 0.040988933295011520385742187500 0.002176547423005104064941406250 -0.001543218037113547108293842847 0 0 0 0 
2400166666.6666665077 0.168844282627105712890625000000 0.040358904749155051494557966407 0.002453902037814259962794638525 -0.001656689448282123045680380713 0 0 0 0 
2400333333.3333334923 0.169378653168678311446981865629 0.039219532161951072002370466407 0.002350812079384922981262207031 -0.001543643418699502944946289062 0 0 0 0 
2400500000.0000000000 0.169690266251563998123330634371 0.038355696946382522583007812500 0.002444330602884293036219931494 -0.001683203852735460021375346606 0 0 0 0 
2400666666.6666665077 0.170090809464454706390057481258 0.037422008812427520751953125000 0.002530822763219476179835654150 -0.001651984755881130912183452075 0 0 0 0 
2400833333.3333334923 0.170622780919075012207031250000 0.036643099039793021465261091407 0.002551029669120907783508300781 -0.001695369603112339973449707031 0 0 0 0 
2401000000.0000000000 0.170628026127815302093182481258 0.035796858370304107666015625000 0.002788590267300606207606650244 -0.001820366713218390941619873047 0 0 0 0 
2401166666.6666665077 0.171040549874305697342080634371 0.035065807402133941650390625000 0.002827747259289025826695107568 -0.001834381488151848099352192456 0 0 0 0 
2401333333.3333334923 0.171035557985305786132812500000 0.034078385680913932109792341407 0.002849979326128960089442587744 -0.001972106285393238067626953125 0 0 0 0 
2401500000.0000000000 0.171363160014152499099893134371 0.033283844590187072753906250000 0.002891044132411479949951171875 -0.002346859546378254890441894531 0 0 0 0 
2401666666.6666665077 0.171353608369827298263388115629 0.032416518777608871459960937500 0.003183562541380525068995810400 -0.002373927971348166899440146338 0 0 0 0 
2401833333.3333334923 0.171604156494140597244424384371 0.031499177217483520507812500000 0.003025951096788049177882529150 -0.002589557552710175947902060400 0 0 0 0 
2402000000.0000000000 0.171388119459152193924111884371 0.030751759186387058603306954296 0.003190097631886601014378213037 -0.002793550956994295120239257812 0 0 0 0 
2402166666.6666665077 0.171555310487747192382812500000 0.029613358899950981140136718750 0.003201450454071164131164550781 -0.003105886979028583006617880713 0 0 0 0 
2402333333.3333334923 0.171577900648117093185263115629 0.028905717656016349792480468750 0.003028264502063394026515341650 -0.003470125142484902901890420068 0 0 0 0 
2402500000.0000000000 0.171615004539489801604901231258 0.027801077812910079956054687500 0.003087023273110390143153525244 -0.003764546243473887009861611475 0 0 0 0 
2402666666.6666665077 0.171535283327102688888388115629 0.026849828660488128662109375000 0.002843539230525494055507040869 -0.003986320458352565765380859375 0 0 0 0 
2402833333.3333334923 0.171414330601692199707031250000 0.025984402745962139474888985546 0.002766589168459177017211914062 -0.004055856261402369412893964551 0 0 0 0 
2403000000.0000000000 0.171362400054931612869424384371 0.024790015071630481374720389454 0.002635366516187787055969238281 -0.004376323893666267395019531250 0 0 0 0 
2403166666.6666665077 0.171363055706024197677450615629 0.023811249062418941152552420704 0.002375063020735979080200195312 -0.004629417322576045989990234375 0 0 0 0 
2403333333.3333334923 0.171229466795921297928018134371 0.022591143846511840820312500000 0.001958503620699048042297363281 -0.004671804141253232955932617188 0 0 0 0 
2403500000.0000000000 0.171080380678176907638388115629 0.021400097757577899587611014454 0.001826203777454794103737856226 -0.004974147770553827285766601562 0 0 0 0 
2403666666.6666665077 0.170924514532089205642861884371 0.020056676119565960275670235546 0.001377243781462311961530375903 -0.004927345551550388336181640625 0 0 0 0 
2403833333.3333334923 0.171014159917831393142861884371 0.018705090507864948617955391796 0.001234397408552468039868998950 -0.005100174807012081146240234375 0 0 0 0 
2404000000.0000000000 0.171016752719879205901776231258 0.017538847401738170278528983204 0.000864281901158392429351806641 -0.004889497067779302597045898438 0 0 0 0 
2404166666.6666665077 0.170555576682090787032919365629 0.015970125794410709035853201954 0.000664051156491041183471679688 -0.004980098921805620193481445312 0 0 0 0 
2404333333.3333334923 0.170464247465133694747763115629 0.014897969551384450739850429102 0.000242421534494496909066876822 -0.004922653082758188247680664062 0 0 0 0 
2404500000.0000000000 0.170274302363395690917968750000 0.013316249474883079528808593750 -0.000066446344135329127311706543 -0.005030356347560882568359375000 0 0 0 0 
2404666666.6666665077 0.170303508639335604568643134371 0.011818006634712219238281250000 -0.000239707660512067404672345572 -0.004871507175266742706298828125 0 0 0 0 
2404833333.3333334923 0.170160531997680691818075615629 0.010534076020121569197685040820 -0.000546725816093385219573974609 -0.004510477185249328613281250000 0 0 0 0 
2405000000.0000000000 0.170145854353904696365518134371 0.008962919935584068298339843750 -0.000680422817822545766830444336 -0.004550495184957981109619140625 0 0 0 0 
2405166666.6666665077 0.170120015740394592285156250000 0.007509243674576283368582441113 -0.000902192143257707357406616211 -0.004395507276058197021484375000 0 0 0 0 
2405333333.3333334923 0.170168802142143305022869981258 0.005764983594417572021484375000 -0.001162378815934062004089355469 -0.004198127426207065582275390625 0 0 0 0 
2405500000.0000000000 0.170077219605445889571981865629 0.004358056467026472091674804688 -0.001292203553020953915239643628 -0.004136361647397279739379882812 0 0 0 0 
2405666666.6666665077 0.170066684484481811523437500000 0.002755640307441353797912597656 -0.001260602497495711066602397388 -0.003759889863431454138514853369 0 0 0 0 
2405833333.3333334923 0.169839695096015902420205634371 0.001260604825802146954777382959 -0.001325124991126358942744589697 -0.003744854126125574111938476562 0 0 0 0 
2406000000.0000000000 0.169924452900886507888955634371 -0.000608185946475714553534352991 -0.001350402715615927956224751050 -0.003524030791595578193664550781 0 0 0 0 
2406166666.6666665077 0.169682949781417902190838731258 -0.001941264257766305966618203271 -0.001429814845323563055751181494 -0.003369376761838794188258505713 0 0 0 0 
2406333333.3333334923 0.169763937592506408691406250000 -0.003674715757369995117187500000 -0.001280104508623481013654399341 -0.003297505434602499008178710938 0 0 0 0 
2406500000.0000000000 0.169562339782714788238848768742 -0.005150579381734132766723632812 -0.001449385541491210894343710791 -0.003203799715265632109401083838 0 0 0 0 
2406666666.6666665077 0.169302701950073186676348768742 -0.006561600137501955032348632812 -0.001340038026683032946345663916 -0.003146717557683587074279785156 0 0 0 0 
2406833333.3333334923 0.169350802898407010177450615629 -0.008331640623509883880615234375 -0.001184127875603735013249062646 -0.003022855380550026893615722656 0 0 0 0 
2407000000.0000000000 0.169096648693084689041299384371 -0.009642824530601501464843750000 -0.001364122028462589003919291919 -0.003146236063912510871887207031 0 0 0 0 
2407166666.6666665077 0.169115945696830805022869981258 -0.011076184920966630417793474805 -0.001386523479595779938938759912 -0.003147346898913383917567587744 0 0 0 0 
2407333333.3333334923 0.168907165527343805511151231258 -0.012479378841817380732526210352 -0.001457613543607294993159628760 -0.003178785322234034971949911963 0 0 0 0 
2407500000.0000000000 0.168812587857246398925781250000 -0.013783650472760200500488281250 -0.001463314751163125038146972656 -0.003023004857823253111598349463 0 0 0 0 
2407666666.6666665077 0.168659582734107998946981865629 -0.014842593111097809183140938671 -0.001637043314985930919647216797 -0.003008300438523292975184775244 0 0 0 0 
2407833333.3333334923 0.168487891554832486251669365629 -0.016086168587207790720006173046 -0.001629613456316292069078754956 -0.003073330502957106070277548682 0 0 0 0 
2408000000.0000000000 0.168356642127037103850994981258 -0.017340630292892459524134451954 -0.001678486703895031972172402490 -0.002820429159328341917750693213 0 0 0 0 
2408166666.6666665077 0.168289095163345309158486884371 -0.018188577145338058471679687500 -0.001904819859191775105120014722 -0.002849630778655409812927246094 0 0 0 0 
2408333333.3333334923 0.168458625674247686188067518742 -0.019047256559133529663085937500 -0.001776841469109057946446084131 -0.002764882287010550932643271338 0 0 0 0 
2408500000.0000000000 0.168352529406547601897869981258 -0.020153205841779708862304687500 -0.001911631552502512931823730469 -0.002712963148951530890223837744 0 0 0 0 
2408666666.6666665077 0.168404638767242403885049384371 -0.021090352907776829111119454296 -0.001870601670816540934919047778 -0.002490944229066371917724609375 0 0 0 0 
2408833333.3333334923 0.168440997600555392166299384371 -0.022030862048268321645716483204 -0.001843437901698053099988627856 -0.002321251202374697165248251807 0 0 0 0 
2409000000.0000000000 0.168620377779007013518963731258 -0.022732792422175410879114920704 -0.001771607319824397997615195166 -0.002401991747319697900059365381 0 0 0 0 
2409166666.6666665077 0.168757438659667996505575615629 -0.023587556555867198598841483204 -0.001673372113145888068555522388 -0.002333830110728741125819540869 0 0 0 0 
2409333333.3333334923 0.168849378824234008789062500000 -0.024544114246964461589772810157 -0.001611052663065493106842041016 -0.002350924070924520926234579932 0 0 0 0 
2409500000.0000000000 0.169195041060447692871093750000 -0.025551320984959598886510079296 -0.001604518853127955956699990381 -0.002337530953809618949890136719 0 0 0 0 
2409666666.6666665077 0.169040903449058504959268134371 -0.026492832228541370737096016796 -0.001526443869806825897814106519 -0.002351414877921342849731445312 0 0 0 0 
2409833333.3333334923 0.169063061475753811935263115629 -0.027231141924858089792271798046 -0.001421687542460859038709330981 -0.002435819711536169052124023438 0 0 0 0 
2410000000.0000000000 0.169304177165031405349893134371 -0.028084976598620421672780622657 -0.001389267272315918965580605615 -0.002527171978726983070373535156 0 0 0 0 
2410166666.6666665077 0.169212237000465393066406250000 -0.028946096077561378479003906250 -0.001389261800795793967006064307 -0.002702025463804603056666708838 0 0 0 0 
2410333333.3333334923 0.169285342097282409667968750000 -0.029944822192192081106165701954 -0.001484570675529540018794394385 -0.002639105077832936806919716943 0 0 0 0 
2410500000.0000000000 0.169174715876579312423544365629 -0.030772505328059199941614920704 -0.001758371246978640990016318213 -0.002861496293917297883274697412 0 0 0 0 
2410666666.6666665077 0.169214710593223599532919365629 -0.031662065535783767700195312500 -0.001710331067442893981933593750 -0.002957824617624282836914062500 0 0 0 0 
2410833333.3333334923 0.169112205505371093750000000000 -0.032500535249710083007812500000 -0.001800815691240132071851420825 -0.003056065645068883895874023438 0 0 0 0 
2411000000.0000000000 0.168936878442764309982138115629 -0.033365886658430099487304687500 -0.002085390966385602951049804688 -0.003112835809588431878330849756 0 0 0 0 
2411166666.6666665077 0.168785437941551208496093750000 -0.034283306449651718139648437500 -0.002039368730038404898402548682 -0.003255268326029181914088583838 0 0 0 0 
2411333333.3333334923 0.168536469340324401855468750000 -0.034929558634758002544362653907 -0.002266303403303027153015136719 -0.003112409263849257989170693506 0 0 0 0 
2411500000.0000000000 0.168262615799903897384481865629 -0.036094889044761657714843750000 -0.002597398357465862794163369287 -0.003350944258272647857666015625 0 0 0 0 
2411666666.6666665077 0.168045863509178189376669365629 -0.036735031753778457641601562500 -0.002777745015919208960292197119 -0.003413039725273848013636923682 0 0 0 0 
2411833333.3333334923 0.167862370610237093826455634371 -0.037492219358682632446289062500 -0.003069227561354637145996093750 -0.003279032651335000991821289062 0 0 0 0 
2412000000.0000000000 0.167610496282577486892861884371 -0.038590911775827407836914062500 -0.003425389295443892912623740088 -0.003106626449152826829197548975 0 0 0 0 
2412166666.6666665077 0.167101129889488192459268134371 -0.039698969572782523418386091407 -0.003534906543791294097900390625 -0.002939150435850023789646767725 0 0 0 0 
2412333333.3333334923 0.167106881737709100921307481258 -0.040432047098875052715261091407 -0.003682969836518168015720986475 -0.002963004400953650908229208838 0 0 0 0 
2412500000.0000000000 0.166438400745391901214276231258 -0.041315279901027679443359375000 -0.003896849462762475013732910156 -0.002795567736029624938964843750 0 0 0 0 
2412666666.6666665077 0.166170015931129511077557481258 -0.042458996176719672466237653907 -0.004162834491580724716186523438 -0.002541744383051991896388388525 0 0 0 0 
2412833333.3333334923 0.165877565741539001464843750000 -0.043367724865674972534179687500 -0.004117753356695175170898437500 -0.002342328429222106933593750000 0 0 0 0 
2413000000.0000000000 0.165267586708068903167401231258 -0.044315259903669357299804687500 -0.004257753491401672363281250000 -0.002194692380726336999180459131 0 0 0 0 
2413166666.6666665077 0.164870038628578213790731865629 -0.045348551124334342266042341407 -0.004452210385352373123168945312 -0.002134162466973065896275185693 0 0 0 0 
2413333333.3333334923 0.164211496710777310470419365629 -0.046254806220531456684152971093 -0.004526675213128328323364257812 -0.001975475577637553215026855469 0 0 0 0 
2413500000.0000000000 0.163863793015480013748330634371 -0.047306995838880538940429687500 -0.004647125024348497390747070312 -0.001499179401434957981109619141 0 0 0 0 
2413666666.6666665077 0.163590043783187893966513115629 -0.048205260187387473369557966407 -0.004778612870723009109497070312 -0.001444223802536725997924804688 0 0 0 0 
2413833333.3333334923 0.163008868694305392166299384371 -0.049338795244693763042409528907 -0.004862614907324314117431640625 -0.001145822927355766079546284253 0 0 0 0 
2414000000.0000000000 0.162490710616111810882244981258 -0.050261452794075012207031250000 -0.004913488868623971939086914062 -0.000985189806669950485229492188 0 0 0 0 
2414166666.6666665077 0.162185132503509493728799384371 -0.051283750683069229125976562500 -0.005000816192477942380423261426 -0.000688509375322610139846801758 0 0 0 0 
2414333333.3333334923 0.161693513393402099609375000000 -0.052377309650182717060129533593 -0.004903285298496484756469726562 -0.000384549784939736073643284930 0 0 0 0 
2414500000.0000000000 0.161614045500755310058593750000 -0.053249463438987731933593750000 -0.005017610266804695129394531250 -0.000141609314596280509799403058 0 0 0 0 
2414666666.6666665077 0.161224097013473510742187500000 -0.054154176265001296997070312500 -0.005043014883995056152343750000 0.000120362288726028095610202928 0 0 0 0 
2414833333.3333334923 0.160780817270278902908486884371 -0.055340450257062911987304687500 -0.005114969797432422637939453125 0.000342681247275322675704956055 0 0 0 0 
2415000000.0000000000 0.160612776875495910644531250000 -0.056316997855901718139648437500 -0.005110259633511304855346679688 0.000614667311310768127441406250 0 0 0 0 
2415166666.6666665077 0.160450652241706903655682481258 -0.057324264198541641235351562500 -0.004895524121820926666259765625 0.000947552791330963373184204102 0 0 0 0 
2415333333.3333334923 0.160277605056762695312500000000 -0.058585710823535919189453125000 -0.004699082579463720321655273438 0.001122510409913956902147602612 0 0 0 0 
2415500000.0000000000 0.160113260149955805022869981258 -0.059615902602672576904296875000 -0.004492337815463542938232421875 0.001792007009498775005340576172 0 0 0 0 
2415666666.6666665077 0.159778892993927001953125000000 -0.060844533145427696918527971093 -0.004458789248019456863403320312 0.001739881699904799895045615088 0 0 0 0 
2415833333.3333334923 0.159854382276535006424111884371 -0.062008511275053017353098283593 -0.004248378332704305648803710938 0.001994215883314609961268759619 0 0 0 0 
2416000000.0000000000 0.159447818994522094726562500000 -0.063387185335159301757812500000 -0.004001209046691656112670898438 0.002094421535730361938476562500 0 0 0 0 
2416166666.6666665077 0.159564331173896789550781250000 -0.064466141164302825927734375000 -0.003641304327175021171569824219 0.002187747973948717117309570312 0 0 0 0 
2416333333.3333334923 0.159259885549545288085937500000 -0.065698713064193725585937500000 -0.003316529095172882080078125000 0.002185821533203125000000000000 0 0 0 0 
2416500000.0000000000 0.159048840403556795974893134371 -0.066900663077831268310546875000 -0.003161313012242317199707031250 0.002394546754658222198486328125 0 0 0 0 
2416666666.6666665077 0.158697694540023803710937500000 -0.068182140588760375976562500000 -0.002805091673508286909816122900 0.002273158868774772124049521338 0 0 0 0 
2416833333.3333334923 0.158522039651870699783486884371 -0.069481857120990753173828125000 -0.002633885713294148011448525537 0.002208070596680045127868652344 0 0 0 0 
2417000000.0000000000 0.157984301447868402679119981258 -0.070604898035526275634765625000 -0.002573088742792605920078896631 0.002188883954659103913548134912 0 0 0 0 
2417166666.6666665077 0.157783389091491699218750000000 -0.071524076163768768310546875000 -0.002448842162266374068019247900 0.001997546991333365006687783350 0 0 0 0 
2417333333.3333334923 0.157422572374343899825888115629 -0.072512097656726837158203125000 -0.002187241567298769950866699219 0.002238535787910223007202148438 0 0 0 0 
2417500000.0000000000 0.157107844948768587967080634371 -0.073700904846191406250000000000 -0.002141214441508055166957236182 0.001952426508069037957432412256 0 0 0 0 
2417666666.6666665077 0.156932577490806607345419365629 -0.074470400810241699218750000000 -0.001894714776426553943036723560 0.001998304622247815132141113281 0 0 0 0 
2417833333.3333334923 0.156651243567466708084268134371 -0.075247243046760559082031250000 -0.001845857710577547983882285010 0.001904100296087563037872314453 0 0 0 0 
2418000000.0000000000 0.156274631619453402420205634371 -0.076370194554328918457031250000 -0.001710865763016045093536376953 0.001798203215003014044520712744 0 0 0 0 
2418166666.6666665077 0.155945643782615689376669365629 -0.077031597495079040527343750000 -0.001784401945769787051557231372 0.001642573857679962895037006909 0 0 0 0 
2418333333.3333334923 0.156001627445221002776776231258 -0.077874444425106048583984375000 -0.001690971897915005900739360278 0.001449193456210196018218994141 0 0 0 0 
2418500000.0000000000 0.155603185296058710296307481258 -0.078593201935291290283203125000 -0.001779653714038432078120566260 0.001338100992143153927446674878 0 0 0 0 
2418666666.6666665077 0.155315592885017395019531250000 -0.079515613615512847900390625000 -0.001752990763634443066240620190 0.001330624450929462909698486328 0 0 0 0 
2418833333.3333334923 0.154997080564498901367187500000 -0.080241419374942779541015625000 -0.001762983039952815012690878760 0.001077877590432763099670410156 0 0 0 0 
2419000000.0000000000 0.154629409313201904296875000000 -0.080807723104953765869140625000 -0.001876268768683075904846191406 0.001181258470751344940782856519 0 0 0 0 
2419166666.6666665077 0.154450327157974187652911268742 -0.081489868462085723876953125000 -0.002034223405644298033473349463 0.001122169778682291941401816260 0 0 0 0 
2419333333.3333334923 0.153966531157493591308593750000 -0.081975534558296203613281250000 -0.002217930741608142852783203125 0.001093616941943764903424907153 0 0 0 0 
2419500000.0000000000 0.153641477227210998535156250000 -0.082838051021099090576171875000 -0.002097272081300615830662392725 0.001130733522586524920222617041 0 0 0 0 
2419666666.6666665077 0.153464511036872891525106865629 -0.083384200930595397949218750000 -0.002349590882658958001377724756 0.001120774075388907952549599756 0 0 0 0 
2419833333.3333334923 0.153093069791793795486611884371 -0.083795256912708282470703125000 -0.002422103192657231850865029443 0.001225073472596704959869384766 0 0 0 0 
