# Hz S RI R 
2400000000.0000000000 0.168113365769386291503906250000 0.040862187743186950683593750000 0.002257941057905555205104208838 -0.001640763250179589011548686450 0 0 0 0 
2400166666.6666665077 0.168834760785102788727130018742 0.040343962609767906879465471093 0.002243099501356482939479208838 -0.001569084939546883106231689453 0 0 0 0 
2400333333.3333334923 0.169355109333992004394531250000 0.039293475449085242534597028907 0.002388733904808760123011923682 -0.001653867308050394058227539062 0 0 0 0 
2400500000.0000000000 0.169770598411560086349325615629 0.038363847881555557250976562500 0.002449735067784785790684365381 -0.001680396613664925098419189453 0 0 0 0 
2400666666.6666665077 0.169924199581146212478799384371 0.037555359303951263427734375000 0.002502624178305267853977822412 -0.001503388979472219944000244141 0 0 0 0 
2400833333.3333334923 0.170440286397933987716513115629 0.036743383854627609252929687500 0.002561531728133558793308877100 -0.001716607250273227908490825122 0 0 0 0 
2401000000.0000000000 0.170655757188796997070312500000 0.035811182111501686786692033593 0.002578392857685685157775878906 -0.001839953823946415944340371240 0 0 0 0 
2401166666.6666665077 0.170784175395965603927450615629 0.034906167536973953247070312500 0.002858568681403994993922568213 -0.001924714655615388913395547021 0 0 0 0 
2401333333.3333334923 0.171093747019767788986044365629 0.034127589315176010131835937500 0.002893402939662336869480752100 -0.002217541681602596802952431787 0 0 0 0 
2401500000.0000000000 0.171310886740684509277343750000 0.033440034836530692363698591407 0.002986933570355176925659179688 -0.002115872688591479821446084131 0 0 0 0 
2401666666.6666665077 0.171451240777969388107138115629 0.032547671347856521606445312500 0.003079706104472279982325888525 -0.002399580320343375205993652344 0 0 0 0 
2401833333.3333334923 0.171306446194648687164630018742 0.031638726592063896869699846093 0.003065329277887939973118447412 -0.002541822381317615942714072119 0 0 0 0 
2402000000.0000000000 0.171412542462348910232705634371 0.030726457014679908752441406250 0.003133427351713180975673056494 -0.002827647142112255096435546875 0 0 0 0 
2402166666.6666665077 0.171538263559341402908486884371 0.029723171144723888742467110546 0.003059681970626115798950195312 -0.003180941566824913024902343750 0 0 0 0 
2402333333.3333334923 0.171521484851837213714276231258 0.028932891786098480224609375000 0.002983145881444216208217001807 -0.003273114096373320059535361182 0 0 0 0 
2402500000.0000000000 0.171686798334121704101562500000 0.027945680543780330312708670704 0.002894567092880607084987021338 -0.003595365444198251204249716650 0 0 0 0 
2402666666.6666665077 0.171660423278808593750000000000 0.026966499164700511587122733204 0.002845882670953869819641113281 -0.003708483418449759917018271338 0 0 0 0 
2402833333.3333334923 0.171379894018173190017861884371 0.025985078886151310312291329296 0.002782702678814529938938759912 -0.004195923916995525360107421875 0 0 0 0 
2403000000.0000000000 0.171461924910545404632244981258 0.024886460974812511098841483204 0.002348739188164473013636923682 -0.004297156352549791336059570312 0 0 0 0 
2403166666.6666665077 0.171436801552772494217080634371 0.023668242618441581726074218750 0.002107448875904082818272256006 -0.004482327029109001159667968750 0 0 0 0 
2403333333.3333334923 0.171442314982414301116619981258 0.022590463981032371520996093750 0.001956686377525330023524618994 -0.004853243939578533172607421875 0 0 0 0 
2403500000.0000000000 0.171241700649261502364950615629 0.021373955532908439636230468750 0.001678817439824342944501567310 -0.004909706301987171173095703125 0 0 0 0 
2403666666.6666665077 0.171120643615722711761151231258 0.020056979730725288391113281250 0.001236926531419157981872558594 -0.004800275433808565139770507812 0 0 0 0 
2403833333.3333334923 0.170881688594818087478799384371 0.018921021372079849243164062500 0.001021192991174757914302206885 -0.005020304583013057708740234375 0 0 0 0 
2404000000.0000000000 0.170956581830978393554687500000 0.017516396939754489553431326954 0.000616482808254659175872802734 -0.005144218914210796356201171875 0 0 0 0 
2404166666.6666665077 0.170641750097274808029013115629 0.016186496242880821228027343750 0.000459664501249790191650390625 -0.004948132671415805816650390625 0 0 0 0 
2404333333.3333334923 0.170618742704391507247763115629 0.014850562438368800771693045704 0.000211859514820389503806513654 -0.005063261836767196655273437500 0 0 0 0 
2404500000.0000000000 0.170422852039337213714276231258 0.013183560222387310373326485546 -0.000212669066968374008506220685 -0.004932786803692579269409179688 0 0 0 0 
2404666666.6666665077 0.170359000563621493240518134371 0.011919758282601829874058907421 -0.000243271351791918304845532828 -0.004731842316687107086181640625 0 0 0 0 
2404833333.3333334923 0.170212954282760592361611884371 0.010504697449505330866803554102 -0.000507285469211637973785400391 -0.004629255738109350204467773438 0 0 0 0 
2405000000.0000000000 0.170127555727958706954794365629 0.008961834944784641265869140625 -0.000788813573308289051055908203 -0.004654021933674812316894531250 0 0 0 0 
2405166666.6666665077 0.170083060860633905608807481258 0.007379463873803615570068359375 -0.000928048102650791406631469727 -0.004332499578595160570626543262 0 0 0 0 
2405333333.3333334923 0.170186668634414700607138115629 0.005674376152455806732177734375 -0.000981753342784941196441650391 -0.004182222299277781572823808887 0 0 0 0 
2405500000.0000000000 0.170085340738296508789062500000 0.004293818958103656768798828125 -0.001147101400420069911359477466 -0.004212121013551951322073652051 0 0 0 0 
2405666666.6666665077 0.170108571648597689529580634371 0.002811542712152003808262490381 -0.001277099712751805999158549731 -0.003933393862098455429077148438 0 0 0 0 
2405833333.3333334923 0.169897824525833102127236884371 0.001238329219631850936292338794 -0.001307910308241843960405659253 -0.003664771094918251037597656250 0 0 0 0 
2406000000.0000000000 0.169863015413284301757812500000 -0.000478805683087557608455103741 -0.001364615396596490903141640771 -0.003481772029772400856018066406 0 0 0 0 
2406166666.6666665077 0.169785603880882290939169365629 -0.001989163458347320990321493994 -0.001399436034262179894688271631 -0.003443311434239149093627929688 0 0 0 0 
2406333333.3333334923 0.169751256704330388824786268742 -0.003559292992576957182643271338 -0.001264560734853148894069052588 -0.003357830224558711051940917969 0 0 0 0 
2406500000.0000000000 0.169552445411682101150674384371 -0.005091577302664518356323242188 -0.001291566179133952097651816260 -0.003068692982196807861328125000 0 0 0 0 
2406666666.6666665077 0.169247180223464993575888115629 -0.006502993404865264892578125000 -0.001319641596637666008592915112 -0.003102023154497147040126181494 0 0 0 0 
2406833333.3333334923 0.169253304600715609451455634371 -0.008301431313157081604003906250 -0.001429048948921263001085590894 -0.003080614376813172860386513818 0 0 0 0 
2407000000.0000000000 0.169134795665740994552450615629 -0.009626545943319797515869140625 -0.001231016125530004935023642432 -0.003135494654998182816746377100 0 0 0 0 
2407166666.6666665077 0.169258669018745394607705634371 -0.010968334972858430689801600977 -0.001354688778519629998448037256 -0.003069394268095492882969521631 0 0 0 0 
2407333333.3333334923 0.168796464800834711272869981258 -0.012534183450043199711809727148 -0.001606969628483057022094726562 -0.003069774247705935998203896631 0 0 0 0 
2407500000.0000000000 0.168784394860267611404580634371 -0.013699791394174100703229335352 -0.001475282362662255980848002856 -0.003052336629480123953578329932 0 0 0 0 
2407666666.6666665077 0.168543323874473599532919365629 -0.014930237084627149754534336523 -0.001678907545283436992047954028 -0.003110321937128901915309286963 0 0 0 0 
2407833333.3333334923 0.168306797742843600174111884371 -0.016142694279551509511927420704 -0.001643203780986369089839316260 -0.002844875678420066833496093750 0 0 0 0 
2408000000.0000000000 0.168306276202201787750567518742 -0.017135284841060638427734375000 -0.001747779315337538936017680591 -0.002928031608462334112880087744 0 0 0 0 
2408166666.6666665077 0.168239504098892211914062500000 -0.018168328329920768737792968750 -0.001754647237248718955396342700 -0.002704996382817625999450683594 0 0 0 0 
2408333333.3333334923 0.168461024761200006683026231258 -0.019124805927276611328125000000 -0.001868341583758593039271689307 -0.002791245235130190849304199219 0 0 0 0 
2408500000.0000000000 0.168322995305061312576455634371 -0.020012605935335159301757812500 -0.001953395782038569884059286963 -0.002567285671830176873448037256 0 0 0 0 
2408666666.6666665077 0.168361425399780301193075615629 -0.021021040156483650207519531250 -0.001839655102230608896968222510 -0.002505484037101269201991415869 0 0 0 0 
2408833333.3333334923 0.168371751904487609863281250000 -0.021884288638830188405970389454 -0.001740945153869688944575644385 -0.002350017661228775978088378906 0 0 0 0 
2409000000.0000000000 0.168557137250900296310263115629 -0.022672558203339580190638358204 -0.001785727334208786921260214697 -0.002267433097586036162135458838 0 0 0 0 
2409166666.6666665077 0.168793484568595886230468750000 -0.023473843932151790964146798046 -0.001716505270451307079912495190 -0.002307002432644366784336709131 0 0 0 0 
2409333333.3333334923 0.169010400772094698806924384371 -0.024527801200747489929199218750 -0.001670165569521486976026225513 -0.002291112672537564797642373193 0 0 0 0 
2409500000.0000000000 0.169110134243965204436932481258 -0.025415699928998950613001639454 -0.001479594269767404036280966650 -0.002251446479931474165675497900 0 0 0 0 
2409666666.6666665077 0.169253453612327603439169365629 -0.026148978620767589914342110546 -0.001488622277975081963780068506 -0.002280537737533450126647949219 0 0 0 0 
2409833333.3333334923 0.169319748878479003906250000000 -0.027109628543257709848424141796 -0.001461104722693562941310263525 -0.002346340799704194068908691406 0 0 0 0 
2410000000.0000000000 0.169471755623817388336505018742 -0.027909317985177040100097656250 -0.001509435009211302020429301685 -0.002502530347555876211879111182 0 0 0 0 
2410166666.6666665077 0.169451475143432589431924384371 -0.028790885582566261291503906250 -0.001477041863836348056793212891 -0.002527358476072549819946289062 0 0 0 0 
2410333333.3333334923 0.169287040829658508300781250000 -0.029710354283452030527135079296 -0.001583938254043459892272949219 -0.002619563601911067962646484375 0 0 0 0 
2410500000.0000000000 0.169331893324851989746093750000 -0.030499406158924099313756173046 -0.001795897260308265902875590747 -0.002729051979258656935450888525 0 0 0 0 
2410666666.6666665077 0.169140502810478210449218750000 -0.031641837209463119506835937500 -0.001533997943624854087829589844 -0.002844381844624876976013183594 0 0 0 0 
2410833333.3333334923 0.169114112854003906250000000000 -0.032316036522388458251953125000 -0.001781625323928893046138144385 -0.002975747687742114067077636719 0 0 0 0 
2411000000.0000000000 0.168966397643089294433593750000 -0.033262688666582107543945312500 -0.002106618136167525811436318506 -0.003283379832282661957981728662 0 0 0 0 
2411166666.6666665077 0.168884277343750000000000000000 -0.034230630844831466674804687500 -0.002169145271182059808018349756 -0.003071024548262358145472861182 0 0 0 0 
2411333333.3333334923 0.168489798903465298751669365629 -0.034929323941469192504882812500 -0.002348814159631729125976562500 -0.003158786101266742186305380713 0 0 0 0 
2411500000.0000000000 0.168313458561897305587606865629 -0.035981684923171997070312500000 -0.002550102304667233987095498193 -0.003180606756359339194056845557 0 0 0 0 
2411666666.6666665077 0.168095380067825289627236884371 -0.036757871508598327636718750000 -0.002780266106128693060633993994 -0.003204045351594686941859579932 0 0 0 0 
2411833333.3333334923 0.167850196361541803558026231258 -0.037760101258754730224609375000 -0.003010523039847611947300576318 -0.003092282218858600096461630713 0 0 0 0 
2412000000.0000000000 0.167599603533744812011718750000 -0.038726709783077239990234375000 -0.003246833337470889091491699219 -0.003209541086107492013218545068 0 0 0 0 
2412166666.6666665077 0.167161941528320312500000000000 -0.039524182677268981933593750000 -0.003606413025408982796909951318 -0.003070020815357565879821777344 0 0 0 0 
2412333333.3333334923 0.167066514492034912109375000000 -0.040409207344055182720143903907 -0.003732000710442661805393838037 -0.002892412012442946000340127100 0 0 0 0 
2412500000.0000000000 0.166533619165420504470986884371 -0.041211422532796859741210937500 -0.003883376019075512886047363281 -0.002620629733428359031677246094 0 0 0 0 
2412666666.6666665077 0.166215792298317011077557481258 -0.042434331029653549194335937500 -0.003976346459239721298217773438 -0.002316945232450962066650390625 0 0 0 0 
2412833333.3333334923 0.165760964155197088043536268742 -0.043342523276805877685546875000 -0.004232323728501796722412109375 -0.002180602867156267166137695312 0 0 0 0 
2413000000.0000000000 0.165429294109344510177450615629 -0.044297926127910607074777971093 -0.004401616752147675427908612988 -0.002095336560159922079799033057 0 0 0 0 
2413166666.6666665077 0.164908319711685208419638115629 -0.045368079096078872680664062500 -0.004496651235967875394339277051 -0.001934986561536788940429687500 0 0 0 0 
2413333333.3333334923 0.164414986968040494064169365629 -0.046235289424657821655273437500 -0.004639215767383574572091387012 -0.001701837638393044905421591650 0 0 0 0 
2413500000.0000000000 0.163851961493492098709268134371 -0.047460328787565231323242187500 -0.004595490638166666030883789062 -0.001540619996376336054560995947 0 0 0 0 
2413666666.6666665077 0.163612693548202486892861884371 -0.048346716910600662231445312500 -0.004683699458837509155273437500 -0.001377377193421124978306435693 0 0 0 0 
2413833333.3333334923 0.162974774837493896484375000000 -0.049293521791696548461914062500 -0.004693995695561170578002929688 -0.001064729643985629081726074219 0 0 0 0 
2414000000.0000000000 0.162352994084358187576455634371 -0.050384413450956351543386091407 -0.004701217636466026306152343750 -0.000890113122295588254928588867 0 0 0 0 
2414166666.6666665077 0.162035942077636690994424384371 -0.051166020333766937255859375000 -0.004918618127703666687011718750 -0.000789703975897282361984252930 0 0 0 0 
2414333333.3333334923 0.161728873848915100097656250000 -0.052297998219728469848632812500 -0.005002825055271387100219726562 -0.000417372124502435326576232910 0 0 0 0 
2414500000.0000000000 0.161527976393699701507244981258 -0.053209125995635993267018903907 -0.005093942862004041671752929688 0.000008885337592801079154014587 0 0 0 0 
2414666666.6666665077 0.161023274064063998123330634371 -0.054301232099533081054687500000 -0.005048586986958981427664472363 0.000052055976993869990110397339 0 0 0 0 
2414833333.3333334923 0.160835176706314086914062500000 -0.055212356150150299072265625000 -0.004980880301445722579956054688 0.000488014135044068098068237305 0 0 0 0 
2415000000.0000000000 0.160601034760475186446981865629 -0.056303489953279502178151716407 -0.005056377500295639038085937500 0.000746184203308075666427612305 0 0 0 0 
2415166666.6666665077 0.160522773861885098556356865629 -0.057262782007455832744557966407 -0.004956512711942195892333984375 0.001067607197910547039629292065 0 0 0 0 
2415333333.3333334923 0.160353943705558804611044365629 -0.058609656989574432373046875000 -0.004681721329689025878906250000 0.001216521719470619938494038159 0 0 0 0 
2415500000.0000000000 0.160144850611686706542968750000 -0.059662520885467529296875000000 -0.004552520811557769775390625000 0.001519290730357170104980468750 0 0 0 0 
2415666666.6666665077 0.160055965185165405273437500000 -0.060806911438703536987304687500 -0.004323203582316637039184570312 0.001849290682002902030944824219 0 0 0 0 
2415833333.3333334923 0.159978926181793212890625000000 -0.062063548713922500610351562500 -0.004132913425564765930175781250 0.001988706178963183923008584131 0 0 0 0 
2416000000.0000000000 0.159516751766204806228799384371 -0.063293479382991790771484375000 -0.003805840620771050886866904150 0.002012273529544473128077841650 0 0 0 0 
2416166666.6666665077 0.159644082188606289962606865629 -0.064528137445449829101562500000 -0.003555563045665622191188193213 0.002135851886123418807983398438 0 0 0 0 
2416333333.3333334923 0.159369736909866305252236884371 -0.065624505281448364257812500000 -0.003296764101833105087280273438 0.002238596091046928925755166162 0 0 0 0 
2416500000.0000000000 0.158968463540077209472656250000 -0.066930197179317474365234375000 -0.003156794002279638810398720850 0.002311187563464045958278036963 0 0 0 0 
2416666666.6666665077 0.158683598041534396072549384371 -0.068065188825130462646484375000 -0.002851832658052444891688681494 0.002337681828066707091090536963 0 0 0 0 
2416833333.3333334923 0.158624783158302307128906250000 -0.069354005157947540283203125000 -0.002707731444388628005981445312 0.002367745153605937957763671875 0 0 0 0 
2417000000.0000000000 0.158121556043624905685263115629 -0.070463947951793670654296875000 -0.002416123403236269950866699219 0.002277530729770659966709756006 0 0 0 0 
2417166666.6666665077 0.157845452427864102462606865629 -0.071504391729831695556640625000 -0.002184537472203373908996582031 0.002236362546682357788085937500 0 0 0 0 
2417333333.3333334923 0.157403439283370999435263115629 -0.072557166218757629394531250000 -0.002191474661231040954589843750 0.002151305321604013009312295068 0 0 0 0 
2417500000.0000000000 0.157238230109214810470419365629 -0.073579378426074981689453125000 -0.002114127157256007194519042969 0.002005859045311809019801474463 0 0 0 0 
2417666666.6666665077 0.156972929835319491287393134371 -0.074253931641578674316406250000 -0.001896439353004097938537597656 0.002128334017470479011535644531 0 0 0 0 
2417833333.3333334923 0.156770095229148892501669365629 -0.075290970504283905029296875000 -0.001899866038002073981641459888 0.001917653600685298009159707178 0 0 0 0 
2418000000.0000000000 0.156402334570884704589843750000 -0.076196916401386260986328125000 -0.001749491901136934974073100513 0.001756306272000073952915810693 0 0 0 0 
2418166666.6666665077 0.155926257371902493575888115629 -0.076823860406875610351562500000 -0.001639114459976553916931152344 0.001798025099560617966892861475 0 0 0 0 
2418333333.3333334923 0.156030654907226590255575615629 -0.077764429152011871337890625000 -0.001836094539612532095668173682 0.001556607312522829012629843604 0 0 0 0 
2418500000.0000000000 0.155701473355293301681356865629 -0.078455768525600433349609375000 -0.001757396850734948895098042065 0.001394593156874180056928325122 0 0 0 0 
2418666666.6666665077 0.155447304248809786697549384371 -0.079282559454441070556640625000 -0.001726258429698646068572998047 0.001306576770730317072627402197 0 0 0 0 
2418833333.3333334923 0.154971808195114107986611884371 -0.080311752855777740478515625000 -0.001747563364915549971936870044 0.001213372685015202002284384619 0 0 0 0 
2419000000.0000000000 0.154645770788192804534588731258 -0.080918557941913604736328125000 -0.001825161394663155078887939453 0.001202156301587820053100585938 0 0 0 0 
2419166666.6666665077 0.154415950179100008865518134371 -0.081461556255817413330078125000 -0.001813944196328520991681743091 0.001099665532819926955579448169 0 0 0 0 
2419333333.3333334923 0.153967767953872708419638115629 -0.081973120570182800292968750000 -0.002124101854860783056971884619 0.001055636559613049030303955078 0 0 0 0 
2419500000.0000000000 0.153593197464942904373330634371 -0.082742638885974884033203125000 -0.002183040836825966835021972656 0.001239401986822485923767089844 0 0 0 0 
2419666666.6666665077 0.153455525636673001388388115629 -0.083478070795536041259765625000 -0.002302958397194743156433105469 0.001172143965959548950195312500 0 0 0 0 
2419833333.3333334923 0.152987807989120511154013115629 -0.083877876400947570800781250000 -0.002330830087885261015651083838 0.001200710306875407912610698169 0 0 0 0 
