# Hz S RI R 
2400000000.0000000000 0.155904710292816189864950615629 0.060225624591112136840820312500 0.004743312485516071319580078125 -0.001900545787066221020342182690 0 0 0 0 
2400166666.6666665077 0.156078696250915499588174384371 0.058349948376417160034179687500 0.004787080921232700347900390625 -0.002006343798711895942687988281 0 0 0 0 
2400333333.3333334923 0.156056076288223294357138115629 0.056288372725248336791992187500 0.004819446709007024765014648438 -0.002136988332495092911961220850 0 0 0 0 
2400500000.0000000000 0.156283736228942898849325615629 0.054252177476882941509206403907 0.004736634902656078338623046875 -0.002359456149861216978785849463 0 0 0 0 
2400666666.6666665077 0.156506180763244601150674384371 0.052244763821363449096679687500 0.004680759739130735397338867188 -0.002470257459208368821385048975 0 0 0 0 
2400833333.3333334923 0.157116100192070007324218750000 0.050318919122219092632253278907 0.004434883594512940320486737988 -0.002671129303053020997288369287 0 0 0 0 
2401000000.0000000000 0.157276645302772494217080634371 0.048148810863494873046875000000 0.004534677136689425382132245801 -0.002992826513946055932285927881 0 0 0 0 
2401166666.6666665077 0.157712936401367187500000000000 0.045873731374740600585937500000 0.004261539317667484283447265625 -0.003026482881978154182434082031 0 0 0 0 
2401333333.3333334923 0.158188626170158386230468750000 0.043824583292007453227956403907 0.004095012787729501724243164062 -0.003251424292102456092834472656 0 0 0 0 
2401500000.0000000000 0.158992961049079895019531250000 0.041992992162704467773437500000 0.004071391187608242034912109375 -0.003419635351747273965122841943 0 0 0 0 
2401666666.6666665077 0.159428879618644686599893134371 0.039928533136844641948659528907 0.004060843028128147125244140625 -0.003445636713877319855930947412 0 0 0 0 
2401833333.3333334923 0.160136684775352505782919365629 0.038065887987613677978515625000 0.003870792919769883155822753906 -0.003763338550925254821777343750 0 0 0 0 
2402000000.0000000000 0.160576462745666503906250000000 0.036176249384880072856862653907 0.003692397847771645025966025244 -0.003805781714618206024169921875 0 0 0 0 
2402166666.6666665077 0.161373227834701510330361884371 0.034102473407983779907226562500 0.003591022454202175140380859375 -0.003916608169674873352050781250 0 0 0 0 
2402333333.3333334923 0.162097886204719487945880018742 0.032524317502975456928293596093 0.003274484537541865868809365381 -0.004143963567912578582763671875 0 0 0 0 
2402500000.0000000000 0.163276731967925997635049384371 0.030913043767213821411132812500 0.003059031674638390974757529150 -0.004341551102697849273681640625 0 0 0 0 
2402666666.6666665077 0.164121195673942593673544365629 0.029434876516461368906041329296 0.003056996734812856154200888525 -0.004354986362159252166748046875 0 0 0 0 
2402833333.3333334923 0.164911195635795593261718750000 0.027898469939827919006347656250 0.003066806355491280989405966650 -0.004545988980680704116821289062 0 0 0 0 
2403000000.0000000000 0.165820136666297912597656250000 0.026568910107016559946080391796 0.002592915669083594842198037256 -0.004548306576907634735107421875 0 0 0 0 
2403166666.6666665077 0.166977643966674804687500000000 0.025250935927033420907994454296 0.002339792437851428985595703125 -0.004766249097883701324462890625 0 0 0 0 
2403333333.3333334923 0.167769476771354703048544365629 0.024074280634522441518763358204 0.002315775724127889113185263525 -0.004664777312427759170532226562 0 0 0 0 
2403500000.0000000000 0.168841168284416198730468750000 0.022837275639176368713378906250 0.001885042176581918976427387769 -0.004871150013059377670288085938 0 0 0 0 
2403666666.6666665077 0.169788390398025512695312500000 0.021605348214507099496861641796 0.001967670163139700889587402344 -0.004950666800141335401053144238 0 0 0 0 
2403833333.3333334923 0.170831486582755986969317518742 0.020697493106126788747767264454 0.001496932236477733092067099463 -0.004865980707108975324148847363 0 0 0 0 
2404000000.0000000000 0.171812370419502313811932481258 0.019859040156006809579869454296 0.001351411803625524044036865234 -0.004885741975158452987670898438 0 0 0 0 
2404166666.6666665077 0.172768026590347290039062500000 0.019039843231439590454101562500 0.001156836980953813032862997900 -0.004910260438919067382812500000 0 0 0 0 
2404333333.3333334923 0.173550441861152704436932481258 0.018167886883020401000976562500 0.000950279354583472013473510742 -0.004808817058801651000976562500 0 0 0 0 
2404500000.0000000000 0.174320101737976101974325615629 0.017453169450163841247558593750 0.000800562091171741485595703125 -0.005016686394810676574707031250 0 0 0 0 
2404666666.6666665077 0.175297543406486511230468750000 0.016801739111542701721191406250 0.000396651943447068279415684833 -0.004915519151836633682250976562 0 0 0 0 
2404833333.3333334923 0.175989866256713894943075615629 0.016311174258589751506764997657 0.000321907224133610725402832031 -0.004731174558401107788085937500 0 0 0 0 
2405000000.0000000000 0.176907405257225008865518134371 0.015971880406141281127929687500 0.000137038165121339288636884146 -0.004802857991307973861694335938 0 0 0 0 
2405166666.6666665077 0.177331969141960088531817518742 0.015463585034012789290458478320 -0.000127677412820048603132525034 -0.004616978578269481658935546875 0 0 0 0 
2405333333.3333334923 0.178045481443405206878338731258 0.014727699570357799530029296875 -0.000282739347312599420547485352 -0.004612475167959929379934980176 0 0 0 0 
2405500000.0000000000 0.178619101643562289138955634371 0.014564177952706810342808907421 -0.000490407866891473531723022461 -0.004529673140496016416067792676 0 0 0 0 
2405666666.6666665077 0.179042428731918307205361884371 0.014350120909512039529820626171 -0.000608276983257383108139038086 -0.004501295275986194610595703125 0 0 0 0 
2405833333.3333334923 0.179262131452560397049111884371 0.014172953553497789555559727148 -0.000889058748725801706314086914 -0.004400395322591066360473632812 0 0 0 0 
2406000000.0000000000 0.179543659090995788574218750000 0.013683713972568510228167149023 -0.001104976632632314942003559644 -0.004235508851706981658935546875 0 0 0 0 
2406166666.6666665077 0.179701983928680392166299384371 0.013584409840404990804652030079 -0.001298614079132675907732319409 -0.004173884633928537368774414062 0 0 0 0 
2406333333.3333334923 0.180104851722717312911825615629 0.013277300633490090805977068555 -0.001105024828575551943538046729 -0.004002465866506099700927734375 0 0 0 0 
2406500000.0000000000 0.180022805929183987716513115629 0.012839788571000099182128906250 -0.001121061504818499088287353516 -0.003842354053631424903869628906 0 0 0 0 
2406666666.6666665077 0.179831638932228088378906250000 0.012550570070743560791015625000 -0.001433606958016752979875874097 -0.003769181435927749113795615088 0 0 0 0 
2406833333.3333334923 0.179849907755851801116619981258 0.012307473458349709946602068555 -0.001395804225467145009281777490 -0.003480273298919200897216796875 0 0 0 0 
2407000000.0000000000 0.179795384407043512542401231258 0.011837369762361049652099609375 -0.001604571705684066035627055591 -0.003513220930472015900852822412 0 0 0 0 
2407166666.6666665077 0.179584130644798306564169365629 0.011491088196635249746302420704 -0.001781548955477773926378559644 -0.003572305897250771956202841650 0 0 0 0 
2407333333.3333334923 0.179149657487869290450888115629 0.010797807015478609257708164648 -0.001779707963578402996063232422 -0.003419246990233660177943564307 0 0 0 0 
2407500000.0000000000 0.178752377629280090332031250000 0.010455003939568999898890311329 -0.001823380356654525020002055591 -0.003200117498636246161219931494 0 0 0 0 
2407666666.6666665077 0.178262978792190607268963731258 0.009748184122145175933837890625 -0.001851311302743851921678852612 -0.003053148044273256821873330225 0 0 0 0 
2407833333.3333334923 0.177697017788886996170205634371 0.008905939757823944091796875000 -0.001934621250256896018981933594 -0.003025162033736706213710165869 0 0 0 0 
2408000000.0000000000 0.177200004458427401443643134371 0.007993448525667190551757812500 -0.001856435788795351982116699219 -0.002860248787328600883483886719 0 0 0 0 
2408166666.6666665077 0.176630422472953796386718750000 0.007261330261826515197753906250 -0.001947814133018255016924213940 -0.002684609731659293174743652344 0 0 0 0 
2408333333.3333334923 0.176139324903488186935263115629 0.006342564709484577178955078125 -0.001956387888640164895298623193 -0.002760083414614201025721884619 0 0 0 0 
2408500000.0000000000 0.175402715802192687988281250000 0.005175552330911160382742597363 -0.001943847979418932957890175928 -0.002653716364875435829162597656 0 0 0 0 
2408666666.6666665077 0.174670308828353909591513115629 0.004169683903455734252929687500 -0.001975508406758307976963662256 -0.002499377587810159163234091650 0 0 0 0 
2408833333.3333334923 0.173889711499214200118856865629 0.002846577204763888879063271631 -0.001995318569242953820469521631 -0.002365770051255822181701660156 0 0 0 0 
2409000000.0000000000 0.173171192407608004470986884371 0.001594691188074647946598672021 -0.002030624309554696083068847656 -0.002546045230701566176173544775 0 0 0 0 
2409166666.6666665077 0.172613695263862609863281250000 0.000222197544644586687714177264 -0.001885040313936769962310791016 -0.002315661171451210975646972656 0 0 0 0 
2409333333.3333334923 0.171907752752304104904013115629 -0.001363301649689673943760537256 -0.001968538155779242949244833838 -0.002345806453377008004429482568 0 0 0 0 
2409500000.0000000000 0.171416476368904113769531250000 -0.003116900799795984788181923975 -0.001964509021490811867954873193 -0.002361327409744263128993368994 0 0 0 0 
2409666666.6666665077 0.170523226261138888260049384371 -0.004680403973907232284545898438 -0.001949227298609911961796425928 -0.002182747935876249833347939600 0 0 0 0 
2409833333.3333334923 0.169897064566612188141192518742 -0.006158547475934028625488281250 -0.002045534318313003020045615088 -0.002197780180722475051879882812 0 0 0 0 
2410000000.0000000000 0.169435232877731295486611884371 -0.007824447937309741973876953125 -0.002067751483991742134094238281 -0.002175766043365002112147665869 0 0 0 0 
2410166666.6666665077 0.168993979692459106445312500000 -0.009674225933849811553955078125 -0.002162314951419829888584756006 -0.002179200993850826783421181787 0 0 0 0 
2410333333.3333334923 0.168525665998458890060263115629 -0.011638037860393520700474923046 -0.002016661921516060829162597656 -0.002125236671417952017543173682 0 0 0 0 
2410500000.0000000000 0.168122574687004089355468750000 -0.013512971810996530705462070898 -0.002196937100961803956272744287 -0.002001018729060887856724404443 0 0 0 0 
2410666666.6666665077 0.167701303958892794510049384371 -0.015504177659749989945381365430 -0.002235134830698370933532714844 -0.002054364653304218812229775537 0 0 0 0 
2410833333.3333334923 0.167536690831184387207031250000 -0.017392119392752650869349295704 -0.002205579308792949156520224463 -0.002011184580624103979823447119 0 0 0 0 
2411000000.0000000000 0.167520776391029413421307481258 -0.019337855279445651662806326954 -0.002324694767594337897059775244 -0.002035157987847923798802041162 0 0 0 0 
2411166666.6666665077 0.167217060923576410491619981258 -0.021223848685622218740443045704 -0.002489641308784484863281250000 -0.001996527193114161925074911963 0 0 0 0 
2411333333.3333334923 0.167261987924575805664062500000 -0.023297864943742748605748360546 -0.002485648030415176911595009912 -0.001865124562755227088928222656 0 0 0 0 
2411500000.0000000000 0.167169764637947110275106865629 -0.025300126522779471660573591407 -0.002478125039488077163696289062 -0.001849126303568481965305947412 0 0 0 0 
2411666666.6666665077 0.167476788163185091873330634371 -0.027181057259440418588658516796 -0.002496515167877078056335449219 -0.001798113808035850958583212744 0 0 0 0 
2411833333.3333334923 0.167592957615852411468182481258 -0.029084987938404079782506173046 -0.002709230175241827964782714844 -0.001760331331752241091487265479 0 0 0 0 
2412000000.0000000000 0.167962327599525507171307481258 -0.030958948656916618347167968750 -0.002712771529331802888157509912 -0.001560158096253871917724609375 0 0 0 0 
2412166666.6666665077 0.168187722563743591308593750000 -0.032714024186134338378906250000 -0.002788605634123086929321289062 -0.001498731900937855026842426831 0 0 0 0 
2412333333.3333334923 0.168736100196838406661825615629 -0.034585252404212951660156250000 -0.002773693529888987974879599463 -0.001507259323261678002001118237 0 0 0 0 
2412500000.0000000000 0.169144004583358792404013115629 -0.036326039582490921020507812500 -0.002971870126202702955958701025 -0.001391493948176502964617085034 0 0 0 0 
2412666666.6666665077 0.169739723205566406250000000000 -0.038283646106719970703125000000 -0.003001950215548276901245117188 -0.001268563908524811051012348706 0 0 0 0 
2412833333.3333334923 0.170254275202751187423544365629 -0.039929468184709548950195312500 -0.003056697081774473190307617188 -0.001058854744769633033155131763 0 0 0 0 
2413000000.0000000000 0.170821711421012906173544365629 -0.041421905159950263286550153907 -0.003196510253474115891697548975 -0.001117003848776221058489155347 0 0 0 0 
2413166666.6666665077 0.171409010887145996093750000000 -0.043184570968151092529296875000 -0.003149677533656359152552939307 -0.000828941643703728914260864258 0 0 0 0 
2413333333.3333334923 0.171994283795356805999432481258 -0.044706758111715316772460937500 -0.003145534778013824982884072412 -0.000746555102523416280746459961 0 0 0 0 
2413500000.0000000000 0.172652557492256192306356865629 -0.045944649726152420043945312500 -0.003101004287600516839268349756 -0.000595720135606825351715087891 0 0 0 0 
2413666666.6666665077 0.173169121146202087402343750000 -0.047378741204738616943359375000 -0.003160747233778237862827920068 -0.000561441411264240741729736328 0 0 0 0 
2413833333.3333334923 0.173993289470672607421875000000 -0.048619598150253302837331403907 -0.003095434745773673057556152344 -0.000342135637765750288963317871 0 0 0 0 
2414000000.0000000000 0.174386814236640902420205634371 -0.049687497317790992046315778907 -0.003111796453595161004307412256 -0.000378489028662443215220850812 0 0 0 0 
2414166666.6666665077 0.175060808658599909026776231258 -0.050712995231151580810546875000 -0.003061155555769801139831542969 -0.000193605563254095586851397104 0 0 0 0 
2414333333.3333334923 0.175657153129577608963174384371 -0.051898092031478881835937500000 -0.003081946633756161169764853369 -0.000101175646705087301418027335 0 0 0 0 
2414500000.0000000000 0.176334872841834994217080634371 -0.052801612764596939086914062500 -0.003121677087619901137111044775 -0.000047783636546228080987930298 0 0 0 0 
2414666666.6666665077 0.176960319280624389648437500000 -0.053406786173582077026367187500 -0.003150821197777986960170126807 0.000235342100495472604602259503 0 0 0 0 
2414833333.3333334923 0.177137032151222201248330634371 -0.054385412484407431865651716407 -0.002978189848363399939296103369 0.000160987343406304689958849496 0 0 0 0 
2415000000.0000000000 0.177392989397049005706463731258 -0.054818850010633468627929687500 -0.003149831201881169839146279443 0.000181820374564267694950103760 0 0 0 0 
2415166666.6666665077 0.177662432193756103515625000000 -0.055474746972322457050363908593 -0.002953334944322704835178994287 0.000465064571471884900897425519 0 0 0 0 
2415333333.3333334923 0.178227663040161105056924384371 -0.056069780141115188598632812500 -0.002967024222016334967372275244 0.000437111128121614510386866437 0 0 0 0 
2415500000.0000000000 0.178274169564247103592080634371 -0.056354351341724402690847028907 -0.002886037575080990791320800781 0.000463162985397502779960632324 0 0 0 0 
2415666666.6666665077 0.178491503000259399414062500000 -0.056700773537158973003347028907 -0.003023182041943072839024209131 0.000682700891047716140747070312 0 0 0 0 
2415833333.3333334923 0.178649619221687289138955634371 -0.057052470743656158447265625000 -0.002962221158668398857116699219 0.000687402731273323297500610352 0 0 0 0 
2416000000.0000000000 0.178431496024131802657919365629 -0.057392627000808722759206403907 -0.002806951990351080894470214844 0.000792674487456679344177246094 0 0 0 0 
2416166666.6666665077 0.178471460938453702071981865629 -0.057597912847995758056640625000 -0.002730703447014092965366982568 0.000872515549417585134506225586 0 0 0 0 
2416333333.3333334923 0.178195446729660006424111884371 -0.057714026421308517456054687500 -0.002728381427004932923557900537 0.001095927786082028908970498193 0 0 0 0 
2416500000.0000000000 0.177836880087852505782919365629 -0.058058474212884902954101562500 -0.002578407758846879005432128906 0.001111425342969595952274941553 0 0 0 0 
2416666666.6666665077 0.177309811115264892578125000000 -0.058209519833326339721679687500 -0.002813023049384355978724814307 0.001009672880172729925868368994 0 0 0 0 
2416833333.3333334923 0.176927164196968106368856865629 -0.058345202356576919555664062500 -0.002654677489772439002990722656 0.001284598140046000914332724463 0 0 0 0 
2417000000.0000000000 0.176209136843681307693643134371 -0.058691006153821952129323591407 -0.002427685307338833808898925781 0.001296079251915216012241982568 0 0 0 0 
2417166666.6666665077 0.175610914826393099685830634371 -0.058893874287605292583425153907 -0.002467578276991844177246093750 0.001377663109451531930210732568 0 0 0 0 
2417333333.3333334923 0.174884662032127408126669365629 -0.059000924229621887207031250000 -0.002436077687889337973353720557 0.001232482027262449047685932690 0 0 0 0 
2417500000.0000000000 0.174015834927558898925781250000 -0.059509035199880599975585937500 -0.002370928879827260971069335938 0.001378792454488575892207480322 0 0 0 0 
2417666666.6666665077 0.173114731907844487945880018742 -0.059534821659326553344726562500 -0.002238086191937326951267861475 0.001514806994237005927442241138 0 0 0 0 
2417833333.3333334923 0.172096878290176391601562500000 -0.059961829334497451782226562500 -0.002191343577578663825988769531 0.001627241843380033969879150391 0 0 0 0 
2418000000.0000000000 0.170977294445037786285723768742 -0.060438413172960281372070312500 -0.002170619089156388802769326318 0.001617237459868193106410361182 0 0 0 0 
2418166666.6666665077 0.169808790087699890136718750000 -0.060741487890481948852539062500 -0.002056978177279233932495117188 0.001726980321109295108197856372 0 0 0 0 
2418333333.3333334923 0.168962612748146112640057481258 -0.061320442706346511840820312500 -0.002066243672743440108058310400 0.001781596336513757922528911060 0 0 0 0 
2418500000.0000000000 0.167631655931472806075888115629 -0.061923343688249588012695312500 -0.001992685953155159950256347656 0.001616169349290430979487753760 0 0 0 0 
2418666666.6666665077 0.166590556502342196365518134371 -0.062653109431266784667968750000 -0.001768768066540361101265932398 0.001660344772972166971919394385 0 0 0 0 
2418833333.3333334923 0.165010020136833190917968750000 -0.063369914889335632324218750000 -0.001756354002282022996189736475 0.001766068395227194049237895435 0 0 0 0 
2419000000.0000000000 0.163826078176498413085937500000 -0.064045727252960205078125000000 -0.001746374997310339970829629053 0.001898277201689779975293803638 0 0 0 0 
2419166666.6666665077 0.162632480263709994217080634371 -0.064990356564521789550781250000 -0.001643628580495714924455952222 0.001820458099246025085449218750 0 0 0 0 
2419333333.3333334923 0.161239311099052401443643134371 -0.065794169902801513671875000000 -0.001618323964066804105874086694 0.001769863767549395994899130713 0 0 0 0 
2419500000.0000000000 0.160225525498390197753906250000 -0.067039489746093750000000000000 -0.001540119876153766892076801831 0.002028742106631398200988769531 0 0 0 0 
2419666666.6666665077 0.158934623003006009200888115629 -0.068094953894615173339843750000 -0.001384986913762987093684531104 0.001941064139828085899353027344 0 0 0 0 
2419833333.3333334923 0.157816082239151000976562500000 -0.069105550646781921386718750000 -0.001398465828970075087306357275 0.001876452239230274937273335034 0 0 0 0 
