# Version 1.00
#
freq[Hz];re:Trc1_S11;im:Trc1_S11;re:Trc2_S21;im:Trc2_S21;
2.400000000000000E+009;1.620009839534760E-001;5.673809349536896E-002;-6.652304437011480E-003;1.658842549659312E-003;
2.400166666666667E+009;1.620932519435883E-001;5.525046959519386E-002;-6.726537365466356E-003;1.923820935189724E-003;
2.400333333333334E+009;1.620925366878510E-001;5.352104082703590E-002;-6.791618186980486E-003;2.264978596940637E-003;
2.400500000000000E+009;1.622084379196167E-001;5.187365412712097E-002;-6.666937842965126E-003;2.382865874096751E-003;
2.400666666666667E+009;1.623079478740692E-001;4.991194605827332E-002;-6.822532508522272E-003;2.698128344491124E-003;
2.400833333333334E+009;1.624213010072708E-001;4.833427071571350E-002;-6.567441392689943E-003;3.017592476680875E-003;
2.401000000000000E+009;1.626404374837875E-001;4.644778743386269E-002;-6.601932458579540E-003;3.372744889929891E-003;
2.401166666666667E+009;1.627204865217209E-001;4.458529502153397E-002;-6.391487084329128E-003;3.712806152179837E-003;
2.401333333333334E+009;1.628284007310867E-001;4.278783127665520E-002;-6.231873296201229E-003;3.903097240254283E-003;
2.401500000000000E+009;1.632503420114517E-001;4.087537899613380E-002;-6.106968969106674E-003;4.209175240248442E-003;
2.401666666666667E+009;1.637341082096100E-001;3.919633105397224E-002;-5.955947097390890E-003;4.312945995479822E-003;
2.401833333333334E+009;1.637717932462692E-001;3.736148774623871E-002;-5.567692220211029E-003;4.642643965780735E-003;
2.402000000000000E+009;1.640277802944183E-001;3.568515926599503E-002;-5.515383090823889E-003;4.966962151229382E-003;
2.402166666666667E+009;1.644945740699768E-001;3.375386819243431E-002;-5.269336979836226E-003;5.296985618770123E-003;
2.402333333333334E+009;1.649357080459595E-001;3.232492133975029E-002;-4.999429453164339E-003;5.463520530611277E-003;
2.402500000000000E+009;1.655826866626740E-001;3.062495216727257E-002;-4.761090967804194E-003;5.603117402642965E-003;
2.402666666666667E+009;1.657427847385407E-001;2.916690707206726E-002;-4.473037086427212E-003;5.711794830858707E-003;
2.402833333333334E+009;1.664459109306335E-001;2.756245434284210E-002;-4.247155971825123E-003;5.801797844469547E-003;
2.403000000000000E+009;1.671745330095291E-001;2.628588862717152E-002;-4.027339164167643E-003;6.027740426361561E-003;
2.403166666666667E+009;1.676339507102966E-001;2.476164139807224E-002;-3.631651634350419E-003;6.131416186690331E-003;
2.403333333333334E+009;1.681856215000153E-001;2.338798902928829E-002;-3.310807049274445E-003;6.290916353464127E-003;
2.403500000000000E+009;1.687289625406265E-001;2.220562472939491E-002;-3.040089271962643E-003;6.326721049845219E-003;
2.403666666666667E+009;1.695423424243927E-001;2.080426178872585E-002;-2.697395859286189E-003;6.572091951966286E-003;
2.403833333333334E+009;1.703046709299088E-001;1.959827542304993E-002;-2.516678301617503E-003;6.517834030091763E-003;
2.404000000000000E+009;1.709472537040710E-001;1.844403706490994E-002;-2.085407730191946E-003;6.579527631402016E-003;
2.404166666666667E+009;1.715074628591538E-001;1.734563522040844E-002;-1.956236548721790E-003;6.605288013815880E-003;
2.404333333333334E+009;1.722142249345779E-001;1.649106666445732E-002;-1.585508347488940E-003;6.453201640397310E-003;
2.404500000000000E+009;1.726306676864624E-001;1.535422168672085E-002;-1.361258444376290E-003;6.604045629501343E-003;
2.404666666666667E+009;1.732720583677292E-001;1.463264226913452E-002;-1.084624673239887E-003;6.474534980952740E-003;
2.404833333333334E+009;1.739383786916733E-001;1.383510883897543E-002;-7.994490442797542E-004;6.780400406569243E-003;
2.405000000000000E+009;1.744701862335205E-001;1.295894850045443E-002;-3.464870387688279E-004;6.551705766469240E-003;
2.405166666666667E+009;1.750227510929108E-001;1.238676719367504E-002;-2.297789178555831E-004;6.491058971732855E-003;
2.405333333333334E+009;1.756589114665985E-001;1.150763034820557E-002;1.597902301000431E-004;6.413308903574944E-003;
2.405500000000000E+009;1.759950369596481E-001;1.103831827640533E-002;4.261716676410288E-004;6.282792892307043E-003;
2.405666666666667E+009;1.765341162681580E-001;1.053054723888636E-002;5.773817538283765E-004;6.268347613513470E-003;
2.405833333333334E+009;1.767131090164185E-001;1.010129693895578E-002;9.685815311968327E-004;6.249804515391588E-003;
2.406000000000000E+009;1.771984994411469E-001;9.349639527499676E-003;1.159161562100053E-003;6.086966954171658E-003;
2.406166666666667E+009;1.772866994142532E-001;9.185769595205784E-003;1.317292684689164E-003;5.851760040968657E-003;
2.406333333333334E+009;1.777024418115616E-001;8.704986423254013E-003;1.476668752729893E-003;5.699304398149252E-003;
2.406500000000000E+009;1.778466105461121E-001;8.178377524018288E-003;1.859416952356696E-003;5.565158557146788E-003;
2.406666666666667E+009;1.777834743261337E-001;7.714381441473961E-003;1.941608148626983E-003;5.270846188068390E-003;
2.406833333333334E+009;1.779294461011887E-001;7.159891538321972E-003;2.247009193524718E-003;5.243156105279923E-003;
2.407000000000000E+009;1.779464185237885E-001;6.570209283381701E-003;2.305514644831419E-003;5.095966625958681E-003;
2.407166666666667E+009;1.780489683151245E-001;6.249119527637959E-003;2.379846060648561E-003;4.797303583472967E-003;
2.407333333333334E+009;1.777971088886261E-001;5.640564486384392E-003;2.480537630617619E-003;4.789085593074560E-003;
2.407500000000000E+009;1.776374578475952E-001;4.999407101422548E-003;2.617958234623075E-003;4.622251261025667E-003;
2.407666666666667E+009;1.775367707014084E-001;4.431823268532753E-003;2.722889417782426E-003;4.378454294055700E-003;
2.407833333333334E+009;1.770628541707993E-001;3.727255389094353E-003;2.867748960852623E-003;4.240870475769043E-003;
2.408000000000000E+009;1.768247485160828E-001;2.935188589617610E-003;2.992669353261590E-003;4.074828233569861E-003;
2.408166666666667E+009;1.764668375253677E-001;2.355084754526615E-003;2.951667876914144E-003;3.675699234008789E-003;
2.408333333333334E+009;1.761800944805145E-001;1.356973429210484E-003;3.186317160725594E-003;3.858058014884591E-003;
2.408500000000000E+009;1.757014691829681E-001;4.603274574037641E-004;3.004435217007995E-003;3.522214014083147E-003;
2.408666666666667E+009;1.753335744142532E-001;-4.786726785823703E-004;3.063633106648922E-003;3.385457908734679E-003;
2.408833333333334E+009;1.748427897691727E-001;-1.539215329103172E-003;3.082711482420564E-003;3.106083022430539E-003;
2.409000000000000E+009;1.742513030767441E-001;-2.556731691583991E-003;3.099919995293021E-003;3.003122983500361E-003;
2.409166666666667E+009;1.737096607685089E-001;-3.684658091515303E-003;3.085472155362368E-003;2.887938404455781E-003;
2.409333333333334E+009;1.733348816633225E-001;-5.179674364626408E-003;3.074773587286472E-003;2.829449484124780E-003;
2.409500000000000E+009;1.727775782346726E-001;-6.400185637176037E-003;3.106784773990512E-003;2.606620080769062E-003;
2.409666666666667E+009;1.720814406871796E-001;-7.801714818924666E-003;3.189082257449627E-003;2.372965682297945E-003;
2.409833333333334E+009;1.717022955417633E-001;-9.126104414463043E-003;3.301522927358747E-003;2.314503304660320E-003;
2.410000000000000E+009;1.713600009679794E-001;-1.064230408519507E-002;3.238257253542543E-003;2.296562772244215E-003;
2.410166666666667E+009;1.707857251167297E-001;-1.215122919529676E-002;3.231481183320284E-003;2.191601553931832E-003;
2.410333333333334E+009;1.704707741737366E-001;-1.378087978810072E-002;3.235962009057403E-003;2.104741754010320E-003;
2.410500000000000E+009;1.701428741216660E-001;-1.535023935139179E-002;3.240320365875959E-003;1.953948521986604E-003;
2.410666666666667E+009;1.696131080389023E-001;-1.708815805613995E-002;3.187889931723476E-003;1.957897562533617E-003;
2.410833333333334E+009;1.692729890346527E-001;-1.865502074360848E-002;3.148113144561648E-003;1.771157956682146E-003;
2.411000000000000E+009;1.690495312213898E-001;-2.057288214564323E-002;3.316032933071256E-003;1.749883755110204E-003;
2.411166666666667E+009;1.689243167638779E-001;-2.240853011608124E-002;3.192675765603781E-003;1.646223478019238E-003;
2.411333333333334E+009;1.687359809875488E-001;-2.408398501574993E-002;3.307272214442492E-003;1.672235783189535E-003;
2.411500000000000E+009;1.686307191848755E-001;-2.595148608088493E-002;3.318821545690298E-003;1.515762181952596E-003;
2.411666666666667E+009;1.686513423919678E-001;-2.785828709602356E-002;3.314069006592035E-003;1.354770269244909E-003;
2.411833333333334E+009;1.686975210905075E-001;-2.964166365563870E-002;3.229267196729779E-003;1.319203292950988E-003;
2.412000000000000E+009;1.688139736652374E-001;-3.144750744104385E-002;3.383106319233775E-003;1.070634811185300E-003;
2.412166666666667E+009;1.686880290508270E-001;-3.319523483514786E-002;3.302762052044272E-003;9.367717429995537E-004;
2.412333333333334E+009;1.691596210002899E-001;-3.512334078550339E-002;3.398990258574486E-003;8.507771999575198E-004;
2.412500000000000E+009;1.690840274095535E-001;-3.660910949110985E-002;3.416712163016200E-003;6.810607155784965E-004;
2.412666666666667E+009;1.695865988731384E-001;-3.869285807013512E-002;3.312793560326099E-003;7.190384203568101E-004;
2.412833333333334E+009;1.699085384607315E-001;-4.029547050595284E-002;3.568346612155438E-003;4.798699519596994E-004;
2.413000000000000E+009;1.701160818338394E-001;-4.193570092320442E-002;3.432587021961808E-003;5.174553953111172E-004;
2.413166666666667E+009;1.705985665321350E-001;-4.354484379291534E-002;3.383396426215768E-003;4.257817345205694E-004;
2.413333333333334E+009;1.708757281303406E-001;-4.505708441138268E-002;3.398373257368803E-003;1.692624937277287E-005;
2.413500000000000E+009;1.712621152400971E-001;-4.669860005378723E-002;3.403924405574799E-003;-1.698082487564534E-004;
2.413666666666667E+009;1.717499643564224E-001;-4.822617024183273E-002;3.197116777300835E-003;-2.170992811443284E-004;
2.413833333333334E+009;1.720878630876541E-001;-4.957013204693794E-002;3.069893224164844E-003;-3.681301895994693E-004;
2.414000000000000E+009;1.724289357662201E-001;-5.078865587711334E-002;3.145374124869704E-003;-5.056012887507677E-004;
2.414166666666667E+009;1.730972230434418E-001;-5.193733423948288E-002;2.997550880536437E-003;-4.738187708426267E-004;
2.414333333333334E+009;1.733352988958359E-001;-5.327300354838371E-002;2.821323461830616E-003;-7.106630946509540E-004;
2.414500000000000E+009;1.740465760231018E-001;-5.426784232258797E-002;2.864324254915118E-003;-8.258736343123019E-004;
2.414666666666667E+009;1.742563992738724E-001;-5.518831312656403E-002;2.725502010434866E-003;-7.196385413408279E-004;
2.414833333333334E+009;1.747745722532272E-001;-5.604075640439987E-002;2.536212792620063E-003;-1.000106683932245E-003;
2.415000000000000E+009;1.750286072492600E-001;-5.707389116287231E-002;2.525229472666979E-003;-1.143234898336232E-003;
2.415166666666667E+009;1.751613169908524E-001;-5.780163034796715E-002;2.250032033771277E-003;-1.050082268193364E-003;
2.415333333333334E+009;1.755806505680084E-001;-5.857202783226967E-002;2.295255661010742E-003;-8.974859374575317E-004;
2.415500000000000E+009;1.757175773382187E-001;-5.913790687918663E-002;2.029493683949113E-003;-9.544254862703383E-004;
2.415666666666667E+009;1.759619861841202E-001;-5.972763150930405E-002;1.964749535545707E-003;-1.132483361288905E-003;
2.415833333333334E+009;1.760363727807999E-001;-6.016480550169945E-002;1.894715009257197E-003;-1.129336305893958E-003;
2.416000000000000E+009;1.760770827531815E-001;-6.073327362537384E-002;1.835049130022526E-003;-1.165692578069866E-003;
2.416166666666667E+009;1.762352436780930E-001;-6.113277003169060E-002;1.809689798392355E-003;-1.169068505987525E-003;
2.416333333333334E+009;1.759877651929855E-001;-6.137664243578911E-002;1.713678357191384E-003;-1.094703562557697E-003;
2.416500000000000E+009;1.758551299571991E-001;-6.187105178833008E-002;1.496252603828907E-003;-1.001300406642258E-003;
2.416666666666667E+009;1.755899488925934E-001;-6.202065572142601E-002;1.454965327866375E-003;-9.394850931130350E-004;
2.416833333333334E+009;1.752886623144150E-001;-6.247207894921303E-002;1.351577695459127E-003;-9.548843954689801E-004;
2.417000000000000E+009;1.747776269912720E-001;-6.276153773069382E-002;1.386014861054719E-003;-1.000370131805539E-003;
2.417166666666667E+009;1.743028461933136E-001;-6.295613199472427E-002;1.443852670490742E-003;-1.016687252558768E-003;
2.417333333333334E+009;1.737451553344727E-001;-6.313645094633102E-002;1.338550471700728E-003;-9.155101142823696E-004;
2.417500000000000E+009;1.731158345937729E-001;-6.352832913398743E-002;1.347298617474735E-003;-9.304815321229398E-004;
2.417666666666667E+009;1.724622249603272E-001;-6.388732045888901E-002;1.446714042685926E-003;-1.001167343929410E-003;
2.417833333333334E+009;1.717027425765991E-001;-6.408459693193436E-002;1.207832130603492E-003;-9.258888894692063E-004;
2.418000000000000E+009;1.708452105522156E-001;-6.452421098947525E-002;1.229553949087858E-003;-9.397873072884977E-004;
2.418166666666667E+009;1.697437763214111E-001;-6.478849053382874E-002;1.285537960939109E-003;-7.929491112008691E-004;
2.418333333333334E+009;1.691362261772156E-001;-6.517711281776428E-002;1.115925027988851E-003;-9.048448409885168E-004;
2.418500000000000E+009;1.680860072374344E-001;-6.569392234086990E-002;1.213080133311451E-003;-7.332764216698706E-004;
2.418666666666667E+009;1.671077162027359E-001;-6.612526625394821E-002;1.088207005523145E-003;-8.619590080343187E-004;
2.418833333333334E+009;1.659087389707565E-001;-6.674222648143768E-002;1.186034292913973E-003;-6.575549487024546E-004;
2.419000000000000E+009;1.646753698587418E-001;-6.741511821746826E-002;1.159702544100583E-003;-8.120753336697817E-004;
2.419166666666667E+009;1.637106984853745E-001;-6.799870729446411E-002;1.147514791227877E-003;-7.319625583477318E-004;
2.419333333333334E+009;1.622621268033981E-001;-6.860804557800293E-002;9.250704315491021E-004;-7.081122021190822E-004;
2.419500000000000E+009;1.614012569189072E-001;-6.956823170185089E-002;1.176875899545848E-003;-6.772781489416957E-004;
2.419666666666667E+009;1.602350622415543E-001;-7.044695317745209E-002;1.252840738743544E-003;-6.638478371314704E-004;
2.419833333333334E+009;1.588874608278275E-001;-7.117037475109100E-002;9.193053119815886E-004;-6.937647121958435E-004;
2.420000000000000E+009;1.579227000474930E-001;-7.239609211683273E-002;1.095199957489967E-003;-8.091061026789248E-004;
2.420166666666667E+009;1.568280160427094E-001;-7.339640706777573E-002;1.151270582340658E-003;-6.862357258796692E-004;
2.420333333333334E+009;1.558907330036163E-001;-7.451555877923966E-002;1.201311824843288E-003;-7.534635951742530E-004;
2.420500000000000E+009;1.550126522779465E-001;-7.567810267210007E-002;1.023150980472565E-003;-6.363553693518043E-004;
2.420666666666667E+009;1.537470370531082E-001;-7.681421935558319E-002;1.083321520127356E-003;-7.222476415336132E-004;
2.420833333333334E+009;1.528933644294739E-001;-7.839614897966385E-002;1.014844048768282E-003;-7.881735218688846E-004;
2.421000000000000E+009;1.519180089235306E-001;-7.963453233242035E-002;1.130623044446111E-003;-8.232050458900631E-004;
2.421166666666667E+009;1.512185037136078E-001;-8.093266934156418E-002;1.073758816346526E-003;-7.951695006340742E-004;
2.421333333333334E+009;1.507567912340164E-001;-8.287920057773590E-002;1.167554291896522E-003;-9.039452997967601E-004;
2.421500000000000E+009;1.497706174850464E-001;-8.412989974021912E-002;1.072753337211907E-003;-7.129253936000168E-004;
2.421666666666667E+009;1.492838859558106E-001;-8.554178476333618E-002;1.020307070575655E-003;-7.487048860639334E-004;
2.421833333333334E+009;1.487566232681274E-001;-8.725588023662567E-002;9.031064691953361E-004;-6.422335864044726E-004;
2.422000000000000E+009;1.483529061079025E-001;-8.889734745025635E-002;9.421808063052595E-004;-8.965274319052696E-004;
2.422166666666667E+009;1.479016393423080E-001;-9.060350805521011E-002;8.809159044176340E-004;-8.072191267274320E-004;
2.422333333333334E+009;1.475014239549637E-001;-9.211887419223785E-002;8.759019547142088E-004;-7.201701519079506E-004;
2.422500000000000E+009;1.472162455320358E-001;-9.382046014070511E-002;9.849646594375372E-004;-7.996230269782245E-004;
2.422666666666667E+009;1.470134556293488E-001;-9.549707919359207E-002;1.014359411783516E-003;-7.737164269201458E-004;
2.422833333333334E+009;1.469482481479645E-001;-9.724730998277664E-002;8.342827786691487E-004;-6.763376877643168E-004;
2.423000000000000E+009;1.469990015029907E-001;-9.894483536481857E-002;8.522081770934165E-004;-7.942905067466199E-004;
2.423166666666667E+009;1.470523625612259E-001;-1.004300639033318E-001;9.226659894920886E-004;-8.368514245375991E-004;
2.423333333333334E+009;1.471386849880219E-001;-1.018579304218292E-001;8.553349180147052E-004;-7.744730100966990E-004;
2.423500000000000E+009;1.472611874341965E-001;-1.035265401005745E-001;9.324182174168527E-004;-7.833398412913084E-004;
2.423666666666667E+009;1.472838073968887E-001;-1.051033213734627E-001;1.004087156616151E-003;-8.929551695473492E-004;
2.423833333333334E+009;1.477411389350891E-001;-1.065455302596092E-001;1.074285246431828E-003;-7.255502277985215E-004;
2.424000000000000E+009;1.477547287940979E-001;-1.078137606382370E-001;1.016919966787100E-003;-7.610943866893649E-004;
2.424166666666667E+009;1.480224430561066E-001;-1.092247515916824E-001;1.089565805159509E-003;-7.469890988431871E-004;
2.424333333333334E+009;1.483890414237976E-001;-1.103288233280182E-001;1.213103649206460E-003;-7.788951625116170E-004;
2.424500000000000E+009;1.487495750188828E-001;-1.116331294178963E-001;1.041191047988832E-003;-6.012789090164006E-004;
2.424666666666667E+009;1.491101831197739E-001;-1.125787794589996E-001;1.181478728540242E-003;-9.487029747106135E-004;
2.424833333333334E+009;1.493830531835556E-001;-1.136758551001549E-001;1.056675799190998E-003;-6.587446550838649E-004;
2.425000000000000E+009;1.498324275016785E-001;-1.147367358207703E-001;1.202568528242409E-003;-9.477611747570336E-004;
2.425166666666667E+009;1.499731391668320E-001;-1.156317517161369E-001;1.192137249745429E-003;-8.309424156323075E-004;
2.425333333333334E+009;1.502689719200134E-001;-1.163359358906746E-001;1.236720243468881E-003;-8.012246689759195E-004;
2.425500000000000E+009;1.504420489072800E-001;-1.172501742839813E-001;1.175785786472261E-003;-9.609741973690689E-004;
2.425666666666667E+009;1.507210880517960E-001;-1.178950220346451E-001;1.344538643024862E-003;-9.296341449953616E-004;
2.425833333333334E+009;1.507876515388489E-001;-1.185165792703629E-001;1.179003855213523E-003;-1.011355197988451E-003;
2.426000000000000E+009;1.509788483381271E-001;-1.191084831953049E-001;1.359707792289555E-003;-9.868015768006444E-004;
2.426166666666667E+009;1.512556225061417E-001;-1.196228042244911E-001;1.133776502683759E-003;-1.028046943247318E-003;
2.426333333333334E+009;1.512253731489182E-001;-1.200284883379936E-001;1.294972724281251E-003;-1.189680420793593E-003;
2.426500000000000E+009;1.512099355459213E-001;-1.203025951981545E-001;1.299103256314993E-003;-1.143118599429727E-003;
2.426666666666667E+009;1.511892378330231E-001;-1.204924508929253E-001;1.394614577293396E-003;-1.225405721925199E-003;
2.426833333333334E+009;1.509945094585419E-001;-1.208846718072891E-001;1.349236117675901E-003;-1.278303796425462E-003;
2.427000000000000E+009;1.506564617156982E-001;-1.212011203169823E-001;1.383508089929819E-003;-1.275887363590300E-003;
2.427166666666667E+009;1.503867059946060E-001;-1.212459206581116E-001;1.360735972411931E-003;-1.462963642552495E-003;
2.427333333333334E+009;1.499112993478775E-001;-1.214632466435432E-001;1.403427682816982E-003;-1.470745075494051E-003;
2.427500000000000E+009;1.495818048715591E-001;-1.218292862176895E-001;1.260060933418572E-003;-1.469996641390026E-003;
2.427666666666667E+009;1.489116549491882E-001;-1.219181492924690E-001;1.241348916664720E-003;-1.658338238485158E-003;
2.427833333333334E+009;1.481917202472687E-001;-1.219735667109489E-001;1.294669811613858E-003;-1.698120264336467E-003;
