# Hz S RI R 50
2400000000.0000000000 0.171393811702728299239950615629 0.040228370577096939086914062500 0.001800689846277236938476562500 0.000272330769803375005722045898 0 0 0 0 
2400166666.6666665077 0.172250941395759610275106865629 0.039679322391748428344726562500 0.001619946560822427055956196362 0.000204732510610483586788177490 0 0 0 0 
2400333333.3333334923 0.172539889812469510177450615629 0.039056915789842612529714216407 0.001614091102965176105499267578 0.000431321735959500074386596680 0 0 0 0 
2400500000.0000000000 0.173017546534538296798544365629 0.038450952619314186786692033593 0.001594772213138639926910400391 0.000304383924230933189392089844 0 0 0 0 
2400666666.6666665077 0.173180848360061701018963731258 0.037601299583911902690847028907 0.001534921117126941897748637622 0.000395587878301739692687988281 0 0 0 0 
2400833333.3333334923 0.173525720834732111175213731258 0.037345267832279212261159528907 0.001471227966248989105224609375 0.000502304581459611654281616211 0 0 0 0 
2401000000.0000000000 0.173716530203819302657919365629 0.036466002464294426654856096093 0.001543956459499896006343222510 0.000603197840973734855651855469 0 0 0 0 
2401166666.6666665077 0.173756211996078491210937500000 0.035950839519500732421875000000 0.001707414397969841957092285156 0.000748802674934267997741699219 0 0 0 0 
2401333333.3333334923 0.173717454075813293457031250000 0.035264007747173309326171875000 0.001515637151896954016444540869 0.000696641218382865190505981445 0 0 0 0 
2401500000.0000000000 0.173705294728279113769531250000 0.034676123410463333129882812500 0.001476557808928192095515585791 0.000692839792463928461074829102 0 0 0 0 
2401666666.6666665077 0.173618063330650301834268134371 0.034060034900903701782226562500 0.001859482959844172000885009766 0.000674030452501028776168823242 0 0 0 0 
2401833333.3333334923 0.173512697219848605056924384371 0.033216759562492370605468750000 0.001749400165863334915758442456 0.000723910692613571882247924805 0 0 0 0 
2402000000.0000000000 0.173161089420318603515625000000 0.032678741961717612529714216407 0.001972383353859186172485351562 0.000898453930858522653579711914 0 0 0 0 
2402166666.6666665077 0.172935992479324313064736884371 0.031813528388738632202148437500 0.002010490978136659102198935400 0.001018027076497673988342285156 0 0 0 0 
2402333333.3333334923 0.172818183898925809005575615629 0.030870335176587108266810233204 0.002231349702924489974975585938 0.001044517266564070961595844800 0 0 0 0 
2402500000.0000000000 0.172768265008926391601562500000 0.030047768726944919931431954296 0.002373647876083850860595703125 0.001006000209599732918980263818 0 0 0 0 
2402666666.6666665077 0.172121286392211886306924384371 0.028986321762204170227050781250 0.002639023819938302040100097656 0.001098210574127733924268413013 0 0 0 0 
2402833333.3333334923 0.171825885772705105880575615629 0.028079159557819369924525076954 0.002637298544868826866149902344 0.001047036494128406047821044922 0 0 0 0 
2403000000.0000000000 0.171594008803367586990518134371 0.027074631303548809396763985546 0.002867202507331966920139931787 0.000909806345589458942413330078 0 0 0 0 
2403166666.6666665077 0.171191051602363586425781250000 0.025887191295623779296875000000 0.003085915464907885031459189307 0.000624979380518198013305664062 0 0 0 0 
2403333333.3333334923 0.170884504914283807952557481258 0.024794330820441249502161795704 0.003160477383062243895289755713 0.000641121412627398967742919922 0 0 0 0 
2403500000.0000000000 0.170516818761825589279013115629 0.023539856076240539550781250000 0.003315355861559509797337197412 0.000616111734416335821151733398 0 0 0 0 
2403666666.6666665077 0.169833749532699612716513115629 0.022057242691516879690150076954 0.003458699444308876991271972656 0.000510607031174004077911376953 0 0 0 0 
2403833333.3333334923 0.169649586081504794021768134371 0.020680202171206470834752266796 0.003562476951628922982456826318 0.000059582132962532341480255127 0 0 0 0 
2404000000.0000000000 0.169311165809631403167401231258 0.019148973748087879526158516796 0.003631086321547627015354775537 0.000063673825934529304504394531 0 0 0 0 
2404166666.6666665077 0.168970927596092196365518134371 0.017648588865995410573939139454 0.003524239175021647973301552881 -0.000149481376865878701210021973 0 0 0 0 
2404333333.3333334923 0.168707787990570096114950615629 0.016266876831650730478306954296 0.003716379869729280905482626807 -0.000300823274301365017890930176 0 0 0 0 
2404500000.0000000000 0.168423563241958590408486884371 0.014430619776248930150042149023 0.003627573838457465171813964844 -0.000586536829359829425811767578 0 0 0 0 
2404666666.6666665077 0.168173983693122891525106865629 0.012798462063074110203753086523 0.003737852210178970856907509912 -0.000552359735593199729919433594 0 0 0 0 
2404833333.3333334923 0.167990297079086303710937500000 0.011251695454120639455775076954 0.003681219415739179091212607275 -0.000725489400792867053686940881 0 0 0 0 
2405000000.0000000000 0.168006509542465209960937500000 0.009449715726077556610107421875 0.003790090326219797134399414062 -0.000898798462003469467163085938 0 0 0 0 
2405166666.6666665077 0.167822331190109308440838731258 0.007757025770843029022216796875 0.003723062574863433837890625000 -0.001166548579931258938433003003 0 0 0 0 
2405333333.3333334923 0.167791873216629000564736884371 0.005665400531142950057983398438 0.003925332799553871154785156250 -0.001456982688978313966038369287 0 0 0 0 
2405500000.0000000000 0.167889326810836791992187500000 0.004034433513879776000976562500 0.003624010598286985917332314600 -0.001552708679810165925266884912 0 0 0 0 
2405666666.6666665077 0.167806252837181091308593750000 0.002112265909090638160705566406 0.003775548189878464178798056494 -0.001861853525042534091352153247 0 0 0 0 
2405833333.3333334923 0.167721182107925387283486884371 0.000271262746537104303210657941 0.003641965799033641815185546875 -0.001962827751412988142726279150 0 0 0 0 
2406000000.0000000000 0.167858913540840204436932481258 -0.001671067788265645937678671729 0.003750352188944817023036337744 -0.001991129014641046957728720557 0 0 0 0 
2406166666.6666665077 0.167664930224418612381143134371 -0.003409418510273098945617675781 0.003509500296786427931544638525 -0.002294000005349516868591308594 0 0 0 0 
2406333333.3333334923 0.167938306927680996993856865629 -0.005260431207716464996337890625 0.003639768343418837027308798682 -0.002411537803709506988525390625 0 0 0 0 
2406500000.0000000000 0.167838528752326993087606865629 -0.007204376161098480224609375000 0.003354695392772554917576455225 -0.002530796453356742858886718750 0 0 0 0 
2406666666.6666665077 0.167665392160415704925213731258 -0.008880303241312503814697265625 0.003411435289308429198024130713 -0.002693027257919311957118368994 0 0 0 0 
2406833333.3333334923 0.167944356799125699142294365629 -0.010701309889554979151715663477 0.003336129477247595787048339844 -0.003005490405485033988952636719 0 0 0 0 
2407000000.0000000000 0.168017506599426297286825615629 -0.012262193486094479996650896680 0.003310634521767497062683105469 -0.002890316536650062041041708838 0 0 0 0 
2407166666.6666665077 0.168125420808792086502236884371 -0.013801835477352140599260899023 0.003057869616895914077758789062 -0.003240304067730904059169150244 0 0 0 0 
2407333333.3333334923 0.168065533041954012771768134371 -0.015368619933724399911900704296 0.003035933244973421096801757812 -0.003453294048085809187648154150 0 0 0 0 
2407500000.0000000000 0.168154314160347012618856865629 -0.016698025166988369333287423046 0.002920834347605704827549599756 -0.003707620548084377808811806787 0 0 0 0 
2407666666.6666665077 0.168173000216484097579794365629 -0.017835855484008789062500000000 0.002512167207896709008457802881 -0.003835081588476895852329873193 0 0 0 0 
2407833333.3333334923 0.168308928608894403655682481258 -0.019237240776419639587402343750 0.002563667250797152952906943213 -0.004043436609208583831787109375 0 0 0 0 
2408000000.0000000000 0.168504312634468106368856865629 -0.020253140479326251638392264454 0.002312099328264594078063964844 -0.004144659265875816345214843750 0 0 0 0 
2408166666.6666665077 0.168608427047729492187500000000 -0.021151572465896609914759451954 0.002077923156321049170253134619 -0.004256699234247207641601562500 0 0 0 0 
2408333333.3333334923 0.169043183326721191406250000000 -0.022223910316824909555455391796 0.001717421691864728927612304688 -0.004371759016066789627075195312 0 0 0 0 
2408500000.0000000000 0.169162541627883911132812500000 -0.023159224539995190011998360546 0.001451936899684369997737265479 -0.004440649878233671188354492188 0 0 0 0 
2408666666.6666665077 0.169263735413551302810830634371 -0.023918027058243751525878906250 0.001461478066630661921260214697 -0.004557583946734666824340820312 0 0 0 0 
2408833333.3333334923 0.169599309563636807540731865629 -0.024648124352097511291503906250 0.001172596239484847025630331885 -0.004502599127590656280517578125 0 0 0 0 
2409000000.0000000000 0.170026510953903198242187500000 -0.025203855708241459238072579296 0.000795977364759892225265502930 -0.004678857512772083282470703125 0 0 0 0 
2409166666.6666665077 0.170483157038688687423544365629 -0.025955630466341968881627266796 0.000558003201149404048919677734 -0.004607747308909893035888671875 0 0 0 0 
2409333333.3333334923 0.170863911509513910491619981258 -0.026685185730457309377650076954 0.000226749747525900602340698242 -0.004544392228126525878906250000 0 0 0 0 
2409500000.0000000000 0.171133711934089688400106865629 -0.027567757293581959116002266796 -0.000102194680948741693370281081 -0.004510106984525918960571289062 0 0 0 0 
2409666666.6666665077 0.171522378921508789062500000000 -0.028281539678573608398437500000 -0.000210843834793195101335802621 -0.004506268072873353958129882812 0 0 0 0 
2409833333.3333334923 0.171502038836479187011718750000 -0.028755161911249160766601562500 -0.000491703685838729143142700195 -0.004380527883768081665039062500 0 0 0 0 
2410000000.0000000000 0.171795383095741299728231865629 -0.029407821595668789255162423046 -0.000758328358642756938934326172 -0.004365583881735801696777343750 0 0 0 0 
2410166666.6666665077 0.171978563070297213455361884371 -0.030117914080619808542271798046 -0.000719131669029593467712402344 -0.004053364973515272140502929688 0 0 0 0 
2410333333.3333334923 0.171877905726432800292968750000 -0.030666315928101539611816406250 -0.000835379876662045717239379883 -0.003945380449295043945312500000 0 0 0 0 
2410500000.0000000000 0.172026246786117609222088731258 -0.031254693865776062011718750000 -0.001103798625990747971775673975 -0.003862130921334027810337685693 0 0 0 0 
2410666666.6666665077 0.171879217028617886642294365629 -0.032048758119344711303710937500 -0.001202330575324594974517822266 -0.003532947972416878180262900244 0 0 0 0 
2410833333.3333334923 0.171622917056083706954794365629 -0.032590560615062706684152971093 -0.001223186380229889912846230615 -0.003364074509590864181518554688 0 0 0 0 
2411000000.0000000000 0.171787828207015991210937500000 -0.033186953514814376831054687500 -0.001438671024516225077985454028 -0.003309573279693723158595419775 0 0 0 0 
2411166666.6666665077 0.171376183629036005218182481258 -0.033819381147623062133789062500 -0.001357454457320272922515869141 -0.003084341296926140785217285156 0 0 0 0 
2411333333.3333334923 0.171083718538284301757812500000 -0.034367956221103668212890625000 -0.001467271125875412984135293115 -0.003118693362921475930454873193 0 0 0 0 
2411500000.0000000000 0.170667886734008789062500000000 -0.035279814153909683227539062500 -0.001525609754025935909868549878 -0.002918558428063989119288779150 0 0 0 0 
2411666666.6666665077 0.170444473624229403396768134371 -0.035795878618955612182617187500 -0.001349056838080286979675292969 -0.002758885500952600999119423975 0 0 0 0 
2411833333.3333334923 0.169990375638008089920205634371 -0.036415290087461471557617187500 -0.001523197395727037949803017725 -0.002693889662623405890223837744 0 0 0 0 
2412000000.0000000000 0.169628247618675204178018134371 -0.037292208522558212280273437500 -0.001402697875164448998094868237 -0.002512515988200902938842773438 0 0 0 0 
2412166666.6666665077 0.168920457363128689864950615629 -0.038137614727020256732981096093 -0.001461922191083431027056049878 -0.002479629358276724815368652344 0 0 0 0 
2412333333.3333334923 0.168591231107711791992187500000 -0.038664702326059341430664062500 -0.001418830244801938967463827979 -0.002502648392692207856419228662 0 0 0 0 
2412500000.0000000000 0.167949393391609191894531250000 -0.039440345019102096557617187500 -0.001451843068934977054595947266 -0.002485206117853521867039345850 0 0 0 0 
2412666666.6666665077 0.167543813586235101897869981258 -0.040497474372386932373046875000 -0.001392855308949946923496865381 -0.002447971608489751815795898438 0 0 0 0 
2412833333.3333334923 0.166849181056022588531817518742 -0.041464600712060928344726562500 -0.001375350053422152996063232422 -0.002435596194118260903599404443 0 0 0 0 
2413000000.0000000000 0.166218876838684109786825615629 -0.042353495955467217182199846093 -0.001526450156234204985974955981 -0.002450639614835381941554404150 0 0 0 0 
2413166666.6666665077 0.165496751666069003006143134371 -0.043454457074403762817382812500 -0.001570191932842134995701455225 -0.002365317428484559059143066406 0 0 0 0 
2413333333.3333334923 0.164622500538825988769531250000 -0.044368103146553039550781250000 -0.001472480362281203053118061597 -0.002441350137814878983738564600 0 0 0 0 
2413500000.0000000000 0.164087265729904202560263115629 -0.045262213796377182006835937500 -0.001573438639752567031263041919 -0.002357047749683260917663574219 0 0 0 0 
2413666666.6666665077 0.163475602865219088455361884371 -0.046495366841554641723632812500 -0.001711457269266247966169047778 -0.002282867906615138053894042969 0 0 0 0 
2413833333.3333334923 0.162617191672325106521768134371 -0.047504849731922149658203125000 -0.001817673910409211895586323315 -0.002205509692430496215820312500 0 0 0 0 
2414000000.0000000000 0.161831527948379488845986884371 -0.048625197261571877216379533593 -0.001743050874210894107818603516 -0.002126228995621203942539834131 0 0 0 0 
2414166666.6666665077 0.161359339952468899825888115629 -0.049834687262773506855051408593 -0.001829674467444420077680278247 -0.001937862485647201971766806494 0 0 0 0 
2414333333.3333334923 0.160627797245979309082031250000 -0.050923265516757972026784528907 -0.001996874809265137152430868994 -0.001916044508107006983516074072 0 0 0 0 
2414500000.0000000000 0.160307347774505587478799384371 -0.052178308367729187011718750000 -0.001798694254830480055568076025 -0.001995691331103444099426269531 0 0 0 0 
2414666666.6666665077 0.159774392843246487716513115629 -0.053218841552734381938893903907 -0.002029405673965812163112021338 -0.001750717172399163029314350659 0 0 0 0 
2414833333.3333334923 0.159222558140754699707031250000 -0.054567471146583557128906250000 -0.001888407394289969964268349756 -0.001703585032373666980146098560 0 0 0 0 
2415000000.0000000000 0.158752948045730590820312500000 -0.055749196559190750122070312500 -0.001909393467940389893175434644 -0.001702935900539159991620707935 0 0 0 0 
2415166666.6666665077 0.158557042479515103439169365629 -0.056982267647981636737863908593 -0.001788440393283962986589741284 -0.001753744785673915906193398584 0 0 0 0 
2415333333.3333334923 0.158340185880661010742187500000 -0.058450814336538321758229841407 -0.001821474405005574009538960034 -0.001637134351767600016352988135 0 0 0 0 
2415500000.0000000000 0.158033341169357299804687500000 -0.059756260365247733379323591407 -0.001834311988204718069789267432 -0.001684005721472203948377299731 0 0 0 0 
2415666666.6666665077 0.157849401235580388824786268742 -0.061167657375335693359375000000 -0.001844553393311799006221152197 -0.001638867659494281031964946216 0 0 0 0 
2415833333.3333334923 0.157652482390403803069744981258 -0.062668174505233764648437500000 -0.002040100516751409010646201025 -0.001660627895034850077388144385 0 0 0 0 
2416000000.0000000000 0.157311588525772094726562500000 -0.064029477536678314208984375000 -0.002115990966558455987217568506 -0.001541726756840944073320698315 0 0 0 0 
2416166666.6666665077 0.157364368438720703125000000000 -0.065476715564727783203125000000 -0.002116351621225475831272744287 -0.001479376689530909061431884766 0 0 0 0 
2416333333.3333334923 0.157170653343200711349325615629 -0.066923536360263824462890625000 -0.002188379177823663191554404150 -0.001387601485475898005841899341 0 0 0 0 
2416500000.0000000000 0.157000258564949007888955634371 -0.068462088704109191894531250000 -0.002276447135955094857456826318 -0.001387460157275200106977153247 0 0 0 0 
2416666666.6666665077 0.156692489981651306152343750000 -0.069673188030719757080078125000 -0.002136636525392531914951943506 -0.001321218442171812057495117188 0 0 0 0 
2416833333.3333334923 0.156671673059463500976562500000 -0.071292877197265625000000000000 -0.002267134841531515121459960938 -0.001168288988992572047589946216 0 0 0 0 
2417000000.0000000000 0.156367674469947787185830634371 -0.072490528225898742675781250000 -0.002389131346717476844787597656 -0.001168384682387114004847861182 0 0 0 0 
2417166666.6666665077 0.156275019049644497970419365629 -0.073537528514862060546875000000 -0.002224194351583718819859170068 -0.000990805332548916339874267578 0 0 0 0 
2417333333.3333334923 0.156106248497963007171307481258 -0.074901767075061798095703125000 -0.002357834484428166909458779443 -0.000859080173540860414505004883 0 0 0 0 
2417500000.0000000000 0.155996769666671808440838731258 -0.076131366193294525146484375000 -0.002242139074951409859898232568 -0.000755310931708663702011108398 0 0 0 0 
2417666666.6666665077 0.155944719910621587555255018742 -0.077052332460880279541015625000 -0.002195421839132905006408691406 -0.000586919253692030906677246094 0 0 0 0 
2417833333.3333334923 0.155799284577369689941406250000 -0.078030042350292205810546875000 -0.002153318142518401145935058594 -0.000563789042644202709197998047 0 0 0 0 
2418000000.0000000000 0.155634149909019497970419365629 -0.079130463302135467529296875000 -0.002182556781917810006382607568 -0.000483098119730129783779698505 0 0 0 0 
2418166666.6666665077 0.155622377991676302810830634371 -0.079765848815441131591796875000 -0.002126415958628057999851845850 -0.000485830067191272974014282227 0 0 0 0 
2418333333.3333334923 0.155789166688919095138388115629 -0.080702699720859527587890625000 -0.001920609152875841097590781104 -0.000358214078005403280258178711 0 0 0 0 
2418500000.0000000000 0.155690550804138211349325615629 -0.081469938158988952636718750000 -0.001900572096928953907610249097 -0.000210562968277372392729082651 0 0 0 0 
2418666666.6666665077 0.155812516808509798904580634371 -0.082257620990276336669921875000 -0.001871388405561446926714253003 -0.000277698447462171316146850586 0 0 0 0 
2418833333.3333334923 0.155474677681922912597656250000 -0.082930639386177062988281250000 -0.001784083666279911994934082031 -0.000224102288484573391362866812 0 0 0 0 
2419000000.0000000000 0.155321314930915804763955634371 -0.083619341254234313964843750000 -0.001460083643905818896052695166 -0.000312523741740733385086059570 0 0 0 0 
2419166666.6666665077 0.155384868383407592773437500000 -0.084252126514911651611328125000 -0.001522766076959670023677206885 -0.000320113525958731824725550519 0 0 0 0 
2419333333.3333334923 0.155014351010322598556356865629 -0.084638185799121856689453125000 -0.001371043501421808979631733472 -0.000493445026222616434097290039 0 0 0 0 
2419500000.0000000000 0.154937580227851895431356865629 -0.085160851478576660156250000000 -0.001190811628475785038591694409 -0.000457942282082512974739074707 0 0 0 0 
2419666666.6666665077 0.154917016625404413421307481258 -0.085720598697662353515625000000 -0.001271434477530420043348002856 -0.000790962018072605133056640625 0 0 0 0 
2419833333.3333334923 0.154563143849372891525106865629 -0.085988812148571014404296875000 -0.001209460664540529034258198315 -0.000917363679036498069763183594 0 0 0 0 
