# Hz S RI R 
2400000000.0000000000 0.168868377804756192306356865629 0.045814365148544311523437500000 -0.001211295020766556046129536206 0.000976628973148763179779052734 0 0 0 0 
2400166666.6666665077 0.169736295938491793533486884371 0.044745791703462600708007812500 -0.001021339674480258984806679834 0.000860451895277947187423706055 0 0 0 0 
2400333333.3333334923 0.170844316482544000823651231258 0.043598789721727371215820312500 -0.001019745017401874065399169922 0.000908771122340112924575805664 0 0 0 0 
2400500000.0000000000 0.171864762902259798904580634371 0.042799063026905059814453125000 -0.000848026364110410213470458984 0.000789037847425788640975952148 0 0 0 0 
2400666666.6666665077 0.172592580318450899978799384371 0.041720937937498092651367187500 -0.000905415159650146961212158203 0.000756321183871477842330932617 0 0 0 0 
2400833333.3333334923 0.173586934804916409591513115629 0.041061583906412131572682966407 -0.000699485710356384515762329102 0.000635799369774758815765380859 0 0 0 0 
2401000000.0000000000 0.174356251955032404143963731258 0.040296908468008041381835937500 -0.000727740291040390729904174805 0.000585726345889270305633544922 0 0 0 0 
2401166666.6666665077 0.175300851464271600921307481258 0.039569888263940811157226562500 -0.000805005722213536500930786133 0.000421390839619561975628453387 0 0 0 0 
2401333333.3333334923 0.175867587327957208831463731258 0.038789317011833190917968750000 -0.000746146426536142826080322266 0.000338699057465419173240661621 0 0 0 0 
2401500000.0000000000 0.176678374409675598144531250000 0.038145225495100021362304687500 -0.000776424014475196599960327148 0.000266261573415249586105346680 0 0 0 0 
2401666666.6666665077 0.177378281950950594803018134371 0.037660893052816390991210937500 -0.000629042857326567173004150391 0.000201922797714360112517756329 0 0 0 0 
2401833333.3333334923 0.177869960665702792068643134371 0.036843284964561462402343750000 -0.000666640000417828559875488281 -0.000026250418159179389476776123 0 0 0 0 
2402000000.0000000000 0.178276658058166503906250000000 0.036362413316965103149414062500 -0.000781836861278861761093139648 -0.000117215175123419599093575749 0 0 0 0 
2402166666.6666665077 0.178811699151992797851562500000 0.035667952150106430053710937500 -0.000639536534436047077178955078 -0.000162795317010022699832916260 0 0 0 0 
2402333333.3333334923 0.179026916623115511795205634371 0.035249251872301101684570312500 -0.000781547161750495433807373047 -0.000002957954848170630126024923 0 0 0 0 
2402500000.0000000000 0.179610058665275601486044365629 0.034701243042945861816406250000 -0.000924394058529287576675415039 -0.000313639204250648617744445801 0 0 0 0 
2402666666.6666665077 0.179775565862655611892861884371 0.034017223864793777465820312500 -0.000720367068424820899963378906 -0.000423650344600901007652282715 0 0 0 0 
2402833333.3333334923 0.179936334490776089767294365629 0.033517792820930480957031250000 -0.000978746917098760604858398438 -0.000270869932137429714202880859 0 0 0 0 
2403000000.0000000000 0.180190876126289395431356865629 0.032492462545633322978932966407 -0.000969181186519563198089599609 -0.000408551248256117105484008789 0 0 0 0 
2403166666.6666665077 0.180009275674820001800213731258 0.031763102859258651733398437500 -0.001025318168103694915771484375 -0.000603242428041994571685791016 0 0 0 0 
2403333333.3333334923 0.180027529597282409667968750000 0.030949125066399570810338204296 -0.001254036091268063025233603369 -0.000503350805956870317459106445 0 0 0 0 
2403500000.0000000000 0.179818257689476013183593750000 0.030099365860223770141601562500 -0.001411677803844213919398642432 -0.000814576400443911552429199219 0 0 0 0 
2403666666.6666665077 0.179503232240676907638388115629 0.028876960277557369577428048046 -0.001698459964245558001874614185 -0.000831014476716518402099609375 0 0 0 0 
2403833333.3333334923 0.179421454668044988434161268742 0.027965713292360309255579764454 -0.001699919579550623893737792969 -0.000697763054631650447845458984 0 0 0 0 
2404000000.0000000000 0.178932741284370394607705634371 0.026843601837754249572753906250 -0.001823350205086172060725546729 -0.000732810236513614654541015625 0 0 0 0 
2404166666.6666665077 0.178504720330238286774005018742 0.025794479995965961111048514454 -0.001985999057069420814514160156 -0.000666432722937315702438354492 0 0 0 0 
2404333333.3333334923 0.178091555833816500564736884371 0.024414259940385818481445312500 -0.002134108217433094978332519531 -0.000652772374451160430908203125 0 0 0 0 
2404500000.0000000000 0.177498996257782010177450615629 0.023101629689335819589635079296 -0.002381954342126845879795693506 -0.000627978122793138027191162109 0 0 0 0 
2404666666.6666665077 0.177069306373596191406250000000 0.021709006279706958425501639454 -0.002455923240631819205043173682 -0.000493787694722414016723632812 0 0 0 0 
2404833333.3333334923 0.176602676510810907561932481258 0.020366512238979339599609375000 -0.002634570468217134909388876807 -0.000518167158588767051696777344 0 0 0 0 
2405000000.0000000000 0.176195740699768094161825615629 0.018830845132470130920410156250 -0.002885787514969706969020224463 -0.000396490329876542091369628906 0 0 0 0 
2405166666.6666665077 0.175699278712272588531817518742 0.017207637429237369192103201954 -0.002938380930572748184204101562 -0.000297934137051925117343348370 0 0 0 0 
2405333333.3333334923 0.175094366073608398437500000000 0.015507217496633529663085937500 -0.003044414566829801039454794775 -0.000064634288719389587640762329 0 0 0 0 
2405500000.0000000000 0.174788624048233004470986884371 0.014002685435116289311419102148 -0.003157739760354160828831338037 -0.000045209249947220087051391602 0 0 0 0 
2405666666.6666665077 0.174225673079490689376669365629 0.012186460196971889841099923046 -0.003237206023186444802525185693 0.000166319019626826102107447491 0 0 0 0 
2405833333.3333334923 0.173758968710899408538494981258 0.010445794090628620492955391796 -0.003164566820487380027770996094 0.000274947175057604908943176270 0 0 0 0 
2406000000.0000000000 0.173429667949676513671875000000 0.008402855135500431060791015625 -0.003442839952185750007629394531 0.000539627682883292436599731445 0 0 0 0 
2406166666.6666665077 0.173161208629608209808026231258 0.006696458440274000167846679688 -0.003466134425252676010131835938 0.000686361978296190500259399414 0 0 0 0 
2406333333.3333334923 0.173077464103698702713174384371 0.004789683036506175994873046875 -0.003518419573083519935607910156 0.000991233973763883113861083984 0 0 0 0 
2406500000.0000000000 0.172750711441040011306924384371 0.002756729256361722946166992188 -0.003710518125444651083705283057 0.001225891523063183047650981372 0 0 0 0 
2406666666.6666665077 0.172504156827926607986611884371 0.000729849678464233875274658203 -0.003852766240015625953674316406 0.001344926306046545939204550635 0 0 0 0 
2406833333.3333334923 0.172633603215217590332031250000 -0.001340617542155086994171142578 -0.003730960888788104057312011719 0.001668238663114606900456093896 0 0 0 0 
2407000000.0000000000 0.172745421528816195388955634371 -0.003392550628632307052612304688 -0.003709384705871344046351767432 0.001883743680082261996028281104 0 0 0 0 
2407166666.6666665077 0.172845751047134399414062500000 -0.005462420172989367571358965137 -0.003739251755177975134608603369 0.002209158614277840094325400244 0 0 0 0 
2407333333.3333334923 0.172819823026657104492187500000 -0.007620299700647593411917402051 -0.003535566385835409164428710938 0.002309865783900022940394736182 0 0 0 0 
2407500000.0000000000 0.173222243785858209808026231258 -0.009724026545882225036621093750 -0.003668195568025112152099609375 0.002634719246998428864720009912 0 0 0 0 
2407666666.6666665077 0.173358693718910189529580634371 -0.011734824627637859689732735546 -0.003616137430071831183192587744 0.002790365368127822875976562500 0 0 0 0 
2407833333.3333334923 0.173442497849464388748330634371 -0.013958374038338659459124180273 -0.003435316495597362951991415869 0.003200533101335167884826660156 0 0 0 0 
2408000000.0000000000 0.173973754048347500900106865629 -0.015994047746062278747558593750 -0.003197076730430126190185546875 0.003252450842410326004028320312 0 0 0 0 
2408166666.6666665077 0.174318715929985101897869981258 -0.017841620370745658874511718750 -0.003137940308079123930690146338 0.003736624959856272177455283057 0 0 0 0 
2408333333.3333334923 0.174940213561057988922442518742 -0.019965758547186851501464843750 -0.002920223167166113853454589844 0.003661931725218892097473144531 0 0 0 0 
2408500000.0000000000 0.175260528922080993652343750000 -0.021881205961108211172083670704 -0.002743219956755638122558593750 0.004050406161695718765258789062 0 0 0 0 
2408666666.6666665077 0.175579577684402493575888115629 -0.023889005184173580514928048046 -0.002492524450644851164576865088 0.004218516405671834945678710938 0 0 0 0 
2408833333.3333334923 0.176019340753555297851562500000 -0.025585986673831939697265625000 -0.002424101112410426139831542969 0.004254195839166641235351562500 0 0 0 0 
2409000000.0000000000 0.176221534609794588943643134371 -0.027149805799126628530482108204 -0.002076928038150072097778320312 0.004457636270672082901000976562 0 0 0 0 
2409166666.6666665077 0.176625072956085205078125000000 -0.028622463345527648925781250000 -0.001997480168938637213466025244 0.004414148628711699572091387012 0 0 0 0 
2409333333.3333334923 0.177254393696785000900106865629 -0.030277265235781669616699218750 -0.001759519916959106922149658203 0.004737907554954290390014648438 0 0 0 0 
2409500000.0000000000 0.177549630403518704513388115629 -0.031781133264303207397460937500 -0.001399643835611640973332070459 0.004691787529736757278442382812 0 0 0 0 
2409666666.6666665077 0.178036436438560513595419365629 -0.032980367541313171386718750000 -0.001169458730146289088605571216 0.004765792749822139739990234375 0 0 0 0 
2409833333.3333334923 0.178470820188522311111611884371 -0.033923994749784469604492187500 -0.001047908328473567962646484375 0.004779473878443241119384765625 0 0 0 0 
2410000000.0000000000 0.178978368639946011642294365629 -0.035058759152889251708984375000 -0.000617023266386240720748901367 0.004837236832827329635620117188 0 0 0 0 
2410166666.6666665077 0.179445743560790987869424384371 -0.035909797996282577514648437500 -0.000470198836410418207019251691 0.004961338825523853302001953125 0 0 0 0 
2410333333.3333334923 0.179800733923912103850994981258 -0.036723874509334557270090471093 -0.000244556082179769873619079590 0.005096238572150468826293945312 0 0 0 0 
2410500000.0000000000 0.180296808481216402908486884371 -0.037363093346357352519948591407 -0.000101699908555019701093119489 0.005169913638383150100708007812 0 0 0 0 
2410666666.6666665077 0.180579796433448791503906250000 -0.038382593542337417602539062500 0.000300426472676917910575866699 0.005232807714492082595825195312 0 0 0 0 
2410833333.3333334923 0.180941000580787686446981865629 -0.038787014782428741455078125000 0.000512566126417368650436401367 0.005026399157941341400146484375 0 0 0 0 
2411000000.0000000000 0.181183367967605590820312500000 -0.039463732391595840454101562500 0.000806732859928160905838012695 0.005085130222141742706298828125 0 0 0 0 
2411166666.6666665077 0.181623056530952509124432481258 -0.039955757558345801616628278907 0.000929407600779086351394653320 0.005095926579087972640991210938 0 0 0 0 
2411333333.3333334923 0.181665882468223599532919365629 -0.040481947362422943115234375000 0.001169874100014566941502236475 0.004905696026980876922607421875 0 0 0 0 
2411500000.0000000000 0.181574985384941101074218750000 -0.040992591530084609985351562500 0.001678284374065696976305317456 0.004852356854826211929321289062 0 0 0 0 
2411666666.6666665077 0.181691035628318786621093750000 -0.041385173797607421875000000000 0.001736901467666029930114746094 0.004630988929420709609985351562 0 0 0 0 
2411833333.3333334923 0.181695953011512811858807481258 -0.041717886924743652343750000000 0.001934373518452048084856342847 0.004599463194608688354492187500 0 0 0 0 
2412000000.0000000000 0.181354388594627408126669365629 -0.042266283184289932250976562500 0.002242153510451316833496093750 0.004424169659614562988281250000 0 0 0 0 
2412166666.6666665077 0.181142240762710599044638115629 -0.042578369379043579101562500000 0.002328655915334821181056357275 0.004375857766717672348022460938 0 0 0 0 
2412333333.3333334923 0.180981829762458801269531250000 -0.042882714420557022094726562500 0.002483879681676626205444335938 0.004107481334358453750610351562 0 0 0 0 
2412500000.0000000000 0.180312514305114801604901231258 -0.043130833655595779418945312500 0.002762445481494069099426269531 0.003958861343562602996826171875 0 0 0 0 
2412666666.6666665077 0.179806202650070190429687500000 -0.043519727885723107074777971093 0.002925754524767398834228515625 0.003866969607770442962646484375 0 0 0 0 
2412833333.3333334923 0.179002761840820312500000000000 -0.043896630406379699707031250000 0.002929835813120007948634482275 0.003543829778209329085109091650 0 0 0 0 
2413000000.0000000000 0.178360193967819213867187500000 -0.044266901910305023193359375000 0.003053303342312573952915810693 0.003449742915108799934387207031 0 0 0 0 
2413166666.6666665077 0.177590250968933105468750000000 -0.044699821621179580688476562500 0.003078363137319684028625488281 0.003232551040127872987034463037 0 0 0 0 
2413333333.3333334923 0.176568493247032193282919365629 -0.045214731246232993389089216407 0.003164928173646330833435058594 0.003109863726422191099879599463 0 0 0 0 
2413500000.0000000000 0.175593197345733587066973768742 -0.045683611184358596801757812500 0.003109819022938609123229980469 0.002986203879117966131923056494 0 0 0 0 
2413666666.6666665077 0.174675107002258300781250000000 -0.046104863286018371582031250000 0.003101128851994872093200683594 0.002917124889791011810302734375 0 0 0 0 
2413833333.3333334923 0.173509359359741210937500000000 -0.046596042811870581890065778907 0.003273718291893600983860634912 0.002693052869290113015415810693 0 0 0 0 
2414000000.0000000000 0.172342911362648010253906250000 -0.047295540571212768554687500000 0.003191870404407382011413574219 0.002926548244431614875793457031 0 0 0 0 
2414166666.6666665077 0.171342104673385592361611884371 -0.047849152237176902080495466407 0.003220034530386329130885458838 0.002482749987393618063685751807 0 0 0 0 
2414333333.3333334923 0.170043945312500000000000000000 -0.048607498407363891601562500000 0.003355056047439575195312500000 0.002542332047596573829650878906 0 0 0 0 
2414500000.0000000000 0.168961659073829706390057481258 -0.049501400440931320190429687500 0.003234503092244267897364951025 0.002532108919695020155665732275 0 0 0 0 
2414666666.6666665077 0.167760401964187594314736884371 -0.050444427877664572978932966407 0.003400845220312476158142089844 0.002586881630122662024257040869 0 0 0 0 
2414833333.3333334923 0.166541740298271206954794365629 -0.051585555076599121093750000000 0.003452126402407885031459189307 0.002478054258972405953648232568 0 0 0 0 
2415000000.0000000000 0.165441960096359308440838731258 -0.052716631442308432842214216407 0.003642385359853506088256835938 0.002449123421683907942530966650 0 0 0 0 
2415166666.6666665077 0.164181470870971707443075615629 -0.053791876882314682006835937500 0.003722433932125567956211709131 0.002379328012466431097743368994 0 0 0 0 
2415333333.3333334923 0.163201794028282193282919365629 -0.055188644677400588989257812500 0.003793789772316813902613974463 0.002334588905796409086940146338 0 0 0 0 
2415500000.0000000000 0.161837682127952603439169365629 -0.056577991694211959838867187500 0.003918007947504520416259765625 0.002276651561260222954991006006 0 0 0 0 
2415666666.6666665077 0.160741657018661499023437500000 -0.057850353419780731201171875000 0.004005632363259792327880859375 0.002323094522580503983738564600 0 0 0 0 
2415833333.3333334923 0.159670338034629794021768134371 -0.059506226330995559692382812500 0.004271754063665866851806640625 0.002073555020615458922145224463 0 0 0 0 
2416000000.0000000000 0.158509373664856012542401231258 -0.061111390590667731548268903907 0.004520558286458253860473632812 0.002179513219743967056274414062 0 0 0 0 
2416166666.6666665077 0.157727926969528198242187500000 -0.062811680138111114501953125000 0.004504628013819456100463867188 0.001824281411245465061785053784 0 0 0 0 
2416333333.3333334923 0.156757846474647494217080634371 -0.064523689448833465576171875000 0.004612648859620094299316406250 0.001895977766253053925157856519 0 0 0 0 
2416500000.0000000000 0.155717581510543795486611884371 -0.066507317125797271728515625000 0.004915245342999696731567382812 0.001538657234050333933589316260 0 0 0 0 
2416666666.6666665077 0.154881134629249600509481865629 -0.068277694284915924072265625000 0.005115393549203872680664062500 0.001361108268611133098602294922 0 0 0 0 
2416833333.3333334923 0.154094174504280090332031250000 -0.070313923060894012451171875000 0.005244769621640443801879882812 0.000987235456705093383789062500 0 0 0 0 
2417000000.0000000000 0.153226122260093688964843750000 -0.072057455778121948242187500000 0.005298264324665069580078125000 0.000847733637783676385879516602 0 0 0 0 
2417166666.6666665077 0.152526542544364901443643134371 -0.073927678167819976806640625000 0.005369643215090036392211914062 0.000562343455385416746139526367 0 0 0 0 
2417333333.3333334923 0.152001217007636996170205634371 -0.075856506824493408203125000000 0.005468486808240413665771484375 0.000319013139232993125915527344 0 0 0 0 
2417500000.0000000000 0.151383310556411687652911268742 -0.077860645949840545654296875000 0.005274500697851181030273437500 -0.000118660907901357900030674120 0 0 0 0 
2417666666.6666665077 0.151028528809547396560830634371 -0.079628974199295043945312500000 0.005445707123726606369018554688 -0.000396623334381729418605250226 0 0 0 0 
2417833333.3333334923 0.150446891784667996505575615629 -0.081491425633430480957031250000 0.005408235825598239898681640625 -0.000585945497732609510421752930 0 0 0 0 
2418000000.0000000000 0.150111079216003390213174384371 -0.083249881863594055175781250000 0.005501508247107267379760742188 -0.000884327455423772335052490234 0 0 0 0 
2418166666.6666665077 0.149734988808631896972656250000 -0.084870025515556335449218750000 0.005378616042435169219970703125 -0.001069711288437247059465717847 0 0 0 0 
2418333333.3333334923 0.149886578321456909179687500000 -0.086604155600070953369140625000 0.005375306122004985809326171875 -0.001487482804805039925816201318 0 0 0 0 
2418500000.0000000000 0.149589434266090393066406250000 -0.088287271559238433837890625000 0.005202686414122582349295331738 -0.001665458781644701957702636719 0 0 0 0 
2418666666.6666665077 0.149701654911041287521200615629 -0.089737735688686370849609375000 0.004948284011334180831909179688 -0.002019277773797512054443359375 0 0 0 0 
2418833333.3333334923 0.149515330791473388671875000000 -0.091302670538425445556640625000 0.004996342584490776062011718750 -0.002241352107375860214233398438 0 0 0 0 
2419000000.0000000000 0.149432837963104303558026231258 -0.092550516128540039062500000000 0.004663443192839623364920331738 -0.002551306737586855888366699219 0 0 0 0 
2419166666.6666665077 0.149586543440818786621093750000 -0.093832515180110931396484375000 0.004604320973157882690429687500 -0.002771143103018403053283691406 0 0 0 0 
2419333333.3333334923 0.149475380778312710861044365629 -0.094841942191123962402343750000 0.004336324520409107208251953125 -0.002897424157708882851841591943 0 0 0 0 
2419500000.0000000000 0.149676233530044611175213731258 -0.096099942922592163085937500000 0.004272118676453828811645507812 -0.002987555228173733191249228369 0 0 0 0 
2419666666.6666665077 0.150014564394950894454794365629 -0.096905633807182312011718750000 0.003978563938289880752563476562 -0.003312868531793355941772460938 0 0 0 0 
2419833333.3333334923 0.150121778249740600585937500000 -0.097523897886276245117187500000 0.003772302530705928802490234375 -0.003447211580350995063781738281 0 0 0 0 
