# Hz S RI R 50
2400000000.0000000000 0.171527072787284906585369981258 0.040289271622896187519113908593 0.000554811325855553150177001953 -0.001285171718336642005323100513 0 0 0 0 
2400166666.6666665077 0.172173812985420199295205634371 0.039894014596939086914062500000 0.000549644115380942821502685547 -0.001320274895988404967664409106 0 0 0 0 
2400333333.3333334923 0.172623023390769986251669365629 0.039115764200687408447265625000 0.000498936919029802083969116211 -0.001208829111419617912889790112 0 0 0 0 
2400500000.0000000000 0.173071369528770502288494981258 0.038657180964946746826171875000 0.000679442018736153841018676758 -0.001214881311170757033704448169 0 0 0 0 
2400666666.6666665077 0.173341721296310397049111884371 0.037902519106864929199218750000 0.000677508010994642972946166992 -0.001202768879011272950413369287 0 0 0 0 
2400833333.3333334923 0.173746556043624905685263115629 0.037187736481428153301198591407 0.000933873525355011224746704102 -0.001144785666838288090349506909 0 0 0 0 
2401000000.0000000000 0.173881709575653103927450615629 0.036462355405092239379882812500 0.000805898918770253658294677734 -0.001130703487433492920519184644 0 0 0 0 
2401166666.6666665077 0.173883169889450100997763115629 0.035947177559137337421457658593 0.000968001375440508127212524414 -0.001349273137748240990879677881 0 0 0 0 
2401333333.3333334923 0.173776209354400607010049384371 0.035325367003679282451589216407 0.000982598983682692050933837891 -0.001274088863283395984052348560 0 0 0 0 
2401500000.0000000000 0.173874512314796503265057481258 0.034742984920740127563476562500 0.001118662883527576923370361328 -0.001358276815153657956364297021 0 0 0 0 
2401666666.6666665077 0.173892676830291803558026231258 0.033961113542318337177317033593 0.001154564553871751048444438403 -0.001454840763472021059748984229 0 0 0 0 
2401833333.3333334923 0.173697158694267300704794365629 0.033220671117305762554128278907 0.001303498749621212916133261572 -0.001393466256558894894243549878 0 0 0 0 
2402000000.0000000000 0.173222243785858209808026231258 0.032499529421329498291015625000 0.001284180441871285004856728662 -0.001356492983177304051042866284 0 0 0 0 
2402166666.6666665077 0.173200950026512201507244981258 0.031370334327220916748046875000 0.001433623954653739929199218750 -0.001432237098924816088435507666 0 0 0 0 
2402333333.3333334923 0.172665342688560513595419365629 0.030679542571306228637695312500 0.001607361831702291965484619141 -0.001735221827402710914611816406 0 0 0 0 
2402500000.0000000000 0.172561302781105013748330634371 0.030020812526345249521275704296 0.001405163551680743911145854419 -0.001928509329445659897447895581 0 0 0 0 
2402666666.6666665077 0.172110185027122497558593750000 0.029072146862745288503626639454 0.001609302358701824925066303784 -0.001941729336977005004882812500 0 0 0 0 
2402833333.3333334923 0.171859890222549410720986884371 0.028029188513755798339843750000 0.001503184786997735934016562354 -0.002257982967421412901637411963 0 0 0 0 
2403000000.0000000000 0.171436205506324795821981865629 0.027055725455284118652343750000 0.001634594053030014038085937500 -0.002445157151669263839721679688 0 0 0 0 
2403166666.6666665077 0.171078145503997802734375000000 0.025812344625592228281041329296 0.001540729426778852939605712891 -0.002635077573359013037440634619 0 0 0 0 
2403333333.3333334923 0.170739039778709411621093750000 0.024798650294542309152623360546 0.001474467921070754961726523291 -0.002779077738523482842686318506 0 0 0 0 
2403500000.0000000000 0.170334771275520296951455634371 0.023402107879519459116002266796 0.001493938500061630985857319409 -0.002955403178930283026454306494 0 0 0 0 
2403666666.6666665077 0.170062243938445989410723768742 0.022111384198069568979283516796 0.001235686126165091991424560547 -0.003122350201010704040527343750 0 0 0 0 
2403833333.3333334923 0.169498488306999206542968750000 0.020579971373081210744837576954 0.001035992521792650005937885815 -0.003284057835116982893702841650 0 0 0 0 
2404000000.0000000000 0.169364511966705294510049384371 0.019182953983545299875279610546 0.000775215798057615756988525391 -0.003477643243968486785888671875 0 0 0 0 
2404166666.6666665077 0.168927282094955388824786268742 0.017699312418699271465261091407 0.000841601227875798940658569336 -0.003625511657446622848510742188 0 0 0 0 
2404333333.3333334923 0.168536454439163208007812500000 0.016184162348508838308314139454 0.000447534286649897694587707520 -0.003575071925297379927394247900 0 0 0 0 
2404500000.0000000000 0.168291881680488586425781250000 0.014488740824162960052490234375 0.000142806820804253193453112192 -0.003602485405281186103820800781 0 0 0 0 
2404666666.6666665077 0.168211713433265713790731865629 0.012899038381874559575090977148 0.000160390991368330988004961557 -0.003416217165067791938781738281 0 0 0 0 
2404833333.3333334923 0.168094620108604403396768134371 0.011245178058743480337122733204 -0.000389165623346343582302647723 -0.003511376911774278120753622900 0 0 0 0 
2405000000.0000000000 0.167866006493568392654580634371 0.009411625564098358154296875000 -0.000425642065238207578659057617 -0.003273262642323970794677734375 0 0 0 0 
2405166666.6666665077 0.167859643697738702972088731258 0.007556783501058816909790039062 -0.000574236619286239147186279297 -0.003240790450945496992823935400 0 0 0 0 
2405333333.3333334923 0.167819499969482394119424384371 0.005644729826599360379690839551 -0.000713367131538689136505126953 -0.003120120381936430931091308594 0 0 0 0 
2405500000.0000000000 0.167873844504356412032919365629 0.003945507109165191650390625000 -0.000763306568842381238937377930 -0.003186613554134964942932128906 0 0 0 0 
2405666666.6666665077 0.167784258723258999923544365629 0.002137076808139681816101074219 -0.000767893507145345211029052734 -0.003074715379625558853149414062 0 0 0 0 
2405833333.3333334923 0.167628154158592196365518134371 0.000438596296589821577072143555 -0.000896767305675894021987915039 -0.002933552023023366928100585938 0 0 0 0 
2406000000.0000000000 0.167727351188659695724325615629 -0.001677036634646356105804443359 -0.000909078284166753292083740234 -0.002835837192833424048182822119 0 0 0 0 
2406166666.6666665077 0.167710840702056912521200615629 -0.003318165428936481909510947119 -0.001118510845117270946502685547 -0.002883569104596972899196005713 0 0 0 0 
2406333333.3333334923 0.167874708771705599685830634371 -0.005293282214552164077758789062 -0.000975483446381986141204833984 -0.002855969360098243193385458838 0 0 0 0 
2406500000.0000000000 0.167694061994552612304687500000 -0.007083140779286623001098632812 -0.000893503020051866769790649414 -0.002779415575787425041198730469 0 0 0 0 
2406666666.6666665077 0.167703673243522588531817518742 -0.008837352506816387176513671875 -0.000927551765926182270050048828 -0.002800988266244531111476279150 0 0 0 0 
2406833333.3333334923 0.167855218052864102462606865629 -0.010519446805119509261161603320 -0.001072397106327116923091269385 -0.002660724334418774084803915869 0 0 0 0 
2407000000.0000000000 0.167991951107978793045205634371 -0.012199582532048230607002459180 -0.001185197383165359930751181494 -0.002602532738819717927220009912 0 0 0 0 
2407166666.6666665077 0.168161511421203613281250000000 -0.013673258945345880335797694727 -0.001082887989468872980830527197 -0.002611864358186721801757812500 0 0 0 0 
2407333333.3333334923 0.168159544467925997635049384371 -0.015176152810454370326032069727 -0.000960827106609940528869628906 -0.002670024754479527907130576025 0 0 0 0 
2407500000.0000000000 0.168273687362670898437500000000 -0.016509070992469791067103201954 -0.001075932057574390931370400537 -0.002720104064792395071742392432 0 0 0 0 
2407666666.6666665077 0.168330401182174710372763115629 -0.017886029556393619882603829296 -0.001185753964819014072418212891 -0.002672683447599411010742187500 0 0 0 0 
2407833333.3333334923 0.168330475687980707366619981258 -0.019215658307075500488281250000 -0.001082919770851731083513569409 -0.002871280303224920792820595850 0 0 0 0 
2408000000.0000000000 0.168591499328613309005575615629 -0.020287400111556049692174141796 -0.001116848899982870058772421729 -0.002918255748227239088771201025 0 0 0 0 
2408166666.6666665077 0.168814718723297091385049384371 -0.021160034462809559213658516796 -0.001462776795960962989209819263 -0.003032873151823877854588173975 0 0 0 0 
2408333333.3333334923 0.169031769037246704101562500000 -0.022139664739370349538782889454 -0.001513750059530138969421386719 -0.002964635379612445831298828125 0 0 0 0 
2408500000.0000000000 0.169230982661247308929119981258 -0.023124868050217628479003906250 -0.001674465136602520942687988281 -0.003226797329261898994445800781 0 0 0 0 
2408666666.6666665077 0.169630423188209505935830634371 -0.023990405723452571523646170704 -0.001770423143170773983001708984 -0.003202206455171107812168740381 0 0 0 0 
2408833333.3333334923 0.169818714261054992675781250000 -0.024748630821704871440847028907 -0.002028306014835834936854697119 -0.003121752757579088211059570312 0 0 0 0 
2409000000.0000000000 0.170178323984146090408486884371 -0.025441700592637058603306954296 -0.002078545512631535963771201025 -0.003120529232546687126159667969 0 0 0 0 
2409166666.6666665077 0.170586124062538202483807481258 -0.026304459199309349060058593750 -0.002348321257159113883972167969 -0.003109516808763145966770791162 0 0 0 0 
2409333333.3333334923 0.170938074588775607010049384371 -0.026987653225660320627232735546 -0.002532299375161529021022177588 -0.002877545077353715896606445312 0 0 0 0 
2409500000.0000000000 0.171046599745750399490518134371 -0.027750836685299869882603829296 -0.002684433246031403975245810400 -0.002956906333565711975097656250 0 0 0 0 
2409666666.6666665077 0.171285778284072903732138115629 -0.028327664360404021526296247657 -0.002902184147387742996215820312 -0.002969598630443214936497353662 0 0 0 0 
2409833333.3333334923 0.171567171812057495117187500000 -0.028934324160218238830566406250 -0.002889535389840602874755859375 -0.002709197578951715989353798975 0 0 0 0 
2410000000.0000000000 0.171859055757522610763388115629 -0.029688954353332519531250000000 -0.003173257689923048019409179688 -0.002579030580818653106689453125 0 0 0 0 
2410166666.6666665077 0.172033965587615994552450615629 -0.030245067551732059824010079296 -0.003266828600317240195033408057 -0.002646090928465127944946289062 0 0 0 0 
2410333333.3333334923 0.172053843736648587325888115629 -0.030940093100070949899693673046 -0.003535472787916659875157021631 -0.002344761975109577178955078125 0 0 0 0 
2410500000.0000000000 0.172041758894920404632244981258 -0.031626727432012557983398437500 -0.003568783169612288908717490088 -0.002104493090882896943333291162 0 0 0 0 
2410666666.6666665077 0.172027990221977206131143134371 -0.032235056161880493164062500000 -0.003621280426159501075744628906 -0.002303588669747114181518554688 0 0 0 0 
2410833333.3333334923 0.171738117933273287674111884371 -0.032697547227144241333007812500 -0.003781339619308710098266601562 -0.002006623195484281019923544775 0 0 0 0 
2411000000.0000000000 0.171470373868942288497763115629 -0.033518329262733459472656250000 -0.003846416715532540841343545068 -0.001828029286116362051722861182 0 0 0 0 
2411166666.6666665077 0.171273067593574496170205634371 -0.034124355763196952129323591407 -0.003962233196943998336791992188 -0.001656837062910198948503803784 0 0 0 0 
2411333333.3333334923 0.170937016606330899337606865629 -0.034647457301616668701171875000 -0.004289613105356693267822265625 -0.001528221764601767063140869141 0 0 0 0 
2411500000.0000000000 0.170531198382377596756143134371 -0.035435918718576431274414062500 -0.004435859620571137341971112988 -0.001318181515671313025830913013 0 0 0 0 
2411666666.6666665077 0.170405566692352294921875000000 -0.036008223891258239746093750000 -0.004370565060526132583618164062 -0.001125743263401091098785400391 0 0 0 0 
2411833333.3333334923 0.169983819127082796951455634371 -0.036543041467666632915456403907 -0.004509672522544860839843750000 -0.000709770538378506898880004883 0 0 0 0 
2412000000.0000000000 0.169570222496986389160156250000 -0.037360385060310356830637346093 -0.004566382151097059249877929688 -0.000497732078656554222106933594 0 0 0 0 
2412166666.6666665077 0.168780088424682589431924384371 -0.038105860352516167377512346093 -0.004535334650427103042602539062 -0.000318363192491233403056544171 0 0 0 0 
2412333333.3333334923 0.168515697121620205978231865629 -0.038917712867259979248046875000 -0.004375809337943792343139648438 -0.000151196261867880794122973032 0 0 0 0 
2412500000.0000000000 0.167938962578773498535156250000 -0.039579648524522781372070312500 -0.004421793390065431594848632812 0.000019287906980025578627382585 0 0 0 0 
2412666666.6666665077 0.167340427637100191970986884371 -0.040670346468687057495117187500 -0.004433443304151296615600585938 0.000368146196706220507621765137 0 0 0 0 
2412833333.3333334923 0.166657254099845886230468750000 -0.041576299816370010375976562500 -0.004297655541449785232543945312 0.000595795048866420984268188477 0 0 0 0 
2413000000.0000000000 0.166045203804969787597656250000 -0.042412303388118736957590471093 -0.004179932177066802978515625000 0.000621213286649435758590698242 0 0 0 0 
2413166666.6666665077 0.165269210934639004806356865629 -0.043387398123741149902343750000 -0.004089299123734235763549804688 0.000878637772984802722930908203 0 0 0 0 
2413333333.3333334923 0.164582237601280212402343750000 -0.044344995170831680297851562500 -0.004102568142116069793701171875 0.000986675964668393135070800781 0 0 0 0 
2413500000.0000000000 0.163872256875038202483807481258 -0.045399907976388931274414062500 -0.003954318352043628692626953125 0.001011342974379658915876079028 0 0 0 0 
2413666666.6666665077 0.163237690925598089020098768742 -0.046523567289113998413085937500 -0.003898076247423886819126748193 0.001319829840213059945347451318 0 0 0 0 
2413833333.3333334923 0.162478581070899991134481865629 -0.047441627830266952514648437500 -0.003795100841671227975132607568 0.001543848193250596956965781104 0 0 0 0 
2414000000.0000000000 0.161687314510345486739950615629 -0.048703283071517937397043596093 -0.003673604922369122938868857275 0.001701490720733999989153217847 0 0 0 0 
2414166666.6666665077 0.161175400018691988845986884371 -0.049737758934497833251953125000 -0.003479665145277976989746093750 0.001887617865577339909197163159 0 0 0 0 
2414333333.3333334923 0.160610839724540710449218750000 -0.051007635891437530517578125000 -0.003547001397237182097194052588 0.001954886596649885177612304688 0 0 0 0 
2414500000.0000000000 0.160239592194557189941406250000 -0.052053209394216537475585937500 -0.003155332058668137030360556494 0.001977041130885481834411621094 0 0 0 0 
2414666666.6666665077 0.159615844488143893142861884371 -0.053252730518579483032226562500 -0.003058660542592405839207314600 0.002225176431238650841953896631 0 0 0 0 
2414833333.3333334923 0.159124255180358886718750000000 -0.054443057626485831523854841407 -0.002983633428812026977539062500 0.002297591418027877807617187500 0 0 0 0 
2415000000.0000000000 0.158774271607398986816406250000 -0.055739741772413246845285783593 -0.002757140202447772026062011719 0.002399068325757979912998818506 0 0 0 0 
2415166666.6666665077 0.158416271209716796875000000000 -0.057072781026363372802734375000 -0.002447021426632999940159463037 0.002477494766935706138610839844 0 0 0 0 
2415333333.3333334923 0.158368095755577087402343750000 -0.058411616832017898559570312500 -0.002165192272514104843139648438 0.002643440617248415946960449219 0 0 0 0 
2415500000.0000000000 0.158039391040802001953125000000 -0.059816557914018630981445312500 -0.002092602197080851034877158057 0.002665367675945163206813193213 0 0 0 0 
2415666666.6666665077 0.157923787832260104080361884371 -0.061066307127475738525390625000 -0.001736230333335698084590292822 0.002702707191929221153259277344 0 0 0 0 
2415833333.3333334923 0.157643377780914306640625000000 -0.062585137784481048583984375000 -0.001652978127822279930114746094 0.002558333799242972893955849756 0 0 0 0 
2416000000.0000000000 0.157299071550369290450888115629 -0.064051836729049682617187500000 -0.001502217026427387974382710034 0.002417589537799357934239052881 0 0 0 0 
2416166666.6666665077 0.157389700412750188629473768742 -0.065576240420341491699218750000 -0.001272962195798754908918071216 0.002453447319567203955409384619 0 0 0 0 
2416333333.3333334923 0.157121986150741604904013115629 -0.066893823444843292236328125000 -0.001074282219633460044860839844 0.002314019482582807974574423682 0 0 0 0 
2416500000.0000000000 0.157009005546569796463174384371 -0.068518400192260742187500000000 -0.000837366329506039619445800781 0.002184928394854069189784384619 0 0 0 0 
2416666666.6666665077 0.156665712594985989669638115629 -0.069900006055831909179687500000 -0.000853469129651784896850585938 0.002088640816509724097010947119 0 0 0 0 
2416833333.3333334923 0.156676888465881403167401231258 -0.071331560611724853515625000000 -0.000697602576110512018203735352 0.001730439136736094951629638672 0 0 0 0 
2417000000.0000000000 0.156326621770858792404013115629 -0.072639741003513336181640625000 -0.000699971278663724660873413086 0.001497422228567302010179829175 0 0 0 0 
2417166666.6666665077 0.156264662742614801604901231258 -0.073809623718261718750000000000 -0.000716508831828832626342773438 0.001334863132797182039973593604 0 0 0 0 
2417333333.3333334923 0.156067818403243990799111884371 -0.074917681515216827392578125000 -0.000694448011927306652069091797 0.001094387262128293947932577979 0 0 0 0 
2417500000.0000000000 0.155829578638076809982138115629 -0.076213538646697998046875000000 -0.000928570225369185209274291992 0.001015764079056679985643696362 0 0 0 0 
2417666666.6666665077 0.155858397483825711349325615629 -0.077070318162441253662109375000 -0.001004267483949661038042378003 0.001018972368910908915876079028 0 0 0 0 
2417833333.3333334923 0.155707776546478299239950615629 -0.078152790665626525878906250000 -0.001211159047670661969425820459 0.000848969793878495693206787109 0 0 0 0 
2418000000.0000000000 0.155505910515785189529580634371 -0.079181276261806488037109375000 -0.001262804842554033019422221606 0.000823794631287455558776855469 0 0 0 0 
2418166666.6666665077 0.155402868986129788497763115629 -0.079820074141025543212890625000 -0.001330701517872511906864785303 0.000895878940355032682418823242 0 0 0 0 
2418333333.3333334923 0.155569523572921808440838731258 -0.080740481615066528320312500000 -0.001509672496467828967450786060 0.000990955624729394912719726562 0 0 0 0 
2418500000.0000000000 0.155493170022964505294638115629 -0.081406421959400177001953125000 -0.001741808955557643933537148584 0.001008059945888817093492817456 0 0 0 0 
2418666666.6666665077 0.155629783868789700607138115629 -0.082249268889427185058593750000 -0.001673376769758760929107666016 0.000958359916694462299346923828 0 0 0 0 
2418833333.3333334923 0.155347153544425992111044365629 -0.082948341965675354003906250000 -0.001832179841585457108141254956 0.001144666457548737959620810400 0 0 0 0 
2419000000.0000000000 0.155021071434020996093750000000 -0.083509467542171478271484375000 -0.001906006946228445009944296729 0.001229270594194531007053994287 0 0 0 0 
2419166666.6666665077 0.155216872692108209808026231258 -0.084104023873805999755859375000 -0.001623737858608365058898925781 0.001255532726645470099208212744 0 0 0 0 
2419333333.3333334923 0.154889300465583801269531250000 -0.084472648799419403076171875000 -0.001814893796108663082122802734 0.001347085926681756973266601562 0 0 0 0 
2419500000.0000000000 0.154863610863685607910156250000 -0.085164144635200500488281250000 -0.001801344566047192053553915869 0.001447196118533611080766987378 0 0 0 0 
2419666666.6666665077 0.154816299676895113845986884371 -0.085625298321247100830078125000 -0.001863065990619360966923379053 0.001477124635130167007446289062 0 0 0 0 
2419833333.3333334923 0.154388383030891390701455634371 -0.086075551807880401611328125000 -0.001681351219303905963897705078 0.001542559824883938052533793872 0 0 0 0 
