# Version 1.00
#
freq[Hz];re:Trc1_S11;im:Trc1_S11;re:Trc2_S21;im:Trc2_S21;
2.400000000000000E+009;1.581391990184784E-001;6.272921711206436E-002;-4.047692753374577E-003;-9.823571890592575E-004;
2.400166666666667E+009;1.579234749078751E-001;6.123169139027596E-002;-3.819574601948261E-003;-8.004393312148750E-004;
2.400333333333334E+009;1.577242314815521E-001;5.922057107090950E-002;-3.826725063845515E-003;-6.383435684256256E-004;
2.400500000000000E+009;1.577578783035278E-001;5.746445059776306E-002;-4.037239123135805E-003;-5.810030852444470E-004;
2.400666666666667E+009;1.576100587844849E-001;5.516317486763001E-002;-3.923491109162569E-003;-4.369601956568658E-004;
2.400833333333334E+009;1.579833775758743E-001;5.345231667160988E-002;-4.012634512037039E-003;-4.344523767940700E-004;
2.401000000000000E+009;1.578175574541092E-001;5.129597336053848E-002;-3.953230567276478E-003;-1.804461644496769E-004;
2.401166666666667E+009;1.581660509109497E-001;4.914635792374611E-002;-3.937136381864548E-003;-1.132191537180916E-004;
2.401333333333334E+009;1.581536233425140E-001;4.712211713194847E-002;-3.906644415110350E-003;-9.567098459228873E-005;
2.401500000000000E+009;1.585470736026764E-001;4.498106241226196E-002;-3.937496338039637E-003;-7.363537588389590E-005;
2.401666666666667E+009;1.588688641786575E-001;4.300117492675781E-002;-3.899632487446070E-003;1.378488814225420E-004;
2.401833333333334E+009;1.593501418828964E-001;4.096375778317452E-002;-3.925299271941185E-003;2.981306170113385E-004;
2.402000000000000E+009;1.594186276197434E-001;3.887987881898880E-002;-3.963111899793148E-003;3.806961176451296E-004;
2.402166666666667E+009;1.601548790931702E-001;3.683923929929733E-002;-3.858144395053387E-003;4.353427502792329E-004;
2.402333333333334E+009;1.605835556983948E-001;3.501556813716888E-002;-3.843171987682581E-003;4.199807881377637E-004;
2.402500000000000E+009;1.614909470081329E-001;3.308925032615662E-002;-3.800008911639452E-003;6.620671483688057E-004;
2.402666666666667E+009;1.621464639902115E-001;3.133860975503922E-002;-3.654812229797244E-003;6.221591029316187E-004;
2.402833333333334E+009;1.629160493612289E-001;2.971902489662170E-002;-3.855349496006966E-003;8.446645224466920E-004;
2.403000000000000E+009;1.636125296354294E-001;2.800414711236954E-002;-3.768636379390955E-003;9.867153130471706E-004;
2.403166666666667E+009;1.645125150680542E-001;2.630619518458843E-002;-3.751111682504416E-003;1.052527804858983E-003;
2.403333333333334E+009;1.653311997652054E-001;2.482722513377667E-002;-3.750777803361416E-003;1.221753307618201E-003;
2.403500000000000E+009;1.663262546062470E-001;2.347403019666672E-002;-3.827217733487487E-003;1.304228790104389E-003;
2.403666666666667E+009;1.673452556133270E-001;2.193029411137104E-002;-3.757888451218605E-003;1.573762157931924E-003;
2.403833333333334E+009;1.684062033891678E-001;2.072026021778584E-002;-3.656694199889898E-003;1.597639056853950E-003;
2.404000000000000E+009;1.693766713142395E-001;1.957641914486885E-002;-3.580473130568862E-003;1.843502162955701E-003;
2.404166666666667E+009;1.702725887298584E-001;1.839509047567844E-002;-3.593402914702892E-003;1.831612898968160E-003;
2.404333333333334E+009;1.710906773805618E-001;1.735315285623074E-002;-3.443423192948103E-003;2.014349913224578E-003;
2.404500000000000E+009;1.719669401645660E-001;1.642153598368168E-002;-3.450196934863925E-003;2.256493316963315E-003;
2.404666666666667E+009;1.731577515602112E-001;1.553321909159422E-002;-3.434943035244942E-003;2.259340370073915E-003;
2.404833333333334E+009;1.739119887351990E-001;1.485745608806610E-002;-3.198619233444333E-003;2.516354899853468E-003;
2.405000000000000E+009;1.748310029506683E-001;1.398762781172991E-002;-3.099122783169150E-003;2.539956942200661E-003;
2.405166666666667E+009;1.757903844118118E-001;1.328460779041052E-002;-2.969533437862992E-003;2.597554353997111E-003;
2.405333333333334E+009;1.765409260988236E-001;1.274156384170055E-002;-2.796420129016042E-003;2.757359063252807E-003;
2.405500000000000E+009;1.772772669792175E-001;1.241295970976353E-002;-2.633866854012013E-003;3.128502517938614E-003;
2.405666666666667E+009;1.779089719057083E-001;1.192491594702005E-002;-2.531453967094421E-003;3.053421387448907E-003;
2.405833333333334E+009;1.784347444772720E-001;1.154236309230328E-002;-2.283662324771285E-003;3.006533253937960E-003;
2.406000000000000E+009;1.790503710508347E-001;1.102861668914557E-002;-2.109572058543563E-003;3.233169671148062E-003;
2.406166666666667E+009;1.794121563434601E-001;1.080566551536322E-002;-2.119170734658837E-003;2.956037642434239E-003;
2.406333333333334E+009;1.799262613058090E-001;1.056764367967844E-002;-1.914711087010801E-003;3.257698845118284E-003;
2.406500000000000E+009;1.802624017000198E-001;1.004458963871002E-002;-1.585209276527166E-003;3.338767681270838E-003;
2.406666666666667E+009;1.804383546113968E-001;9.873844683170319E-003;-1.573479152284563E-003;3.135415958240628E-003;
2.406833333333334E+009;1.806301772594452E-001;9.500646963715553E-003;-1.511278795078397E-003;3.278457093983889E-003;
2.407000000000000E+009;1.807544976472855E-001;9.299907833337784E-003;-1.348279882222414E-003;3.316548652946949E-003;
2.407166666666667E+009;1.808978766202927E-001;9.003991261124611E-003;-1.126674469560385E-003;3.122438443824649E-003;
2.407333333333334E+009;1.806102097034454E-001;8.516775444149971E-003;-1.183671294711530E-003;3.225192427635193E-003;
2.407500000000000E+009;1.804410368204117E-001;8.115482516586781E-003;-1.047440920956433E-003;3.051793435588479E-003;
2.407666666666667E+009;1.803966909646988E-001;7.892791181802750E-003;-7.887947722338140E-004;3.189759096130729E-003;
2.407833333333334E+009;1.798678040504456E-001;7.178310304880142E-003;-7.673066575080156E-004;3.081709612160921E-003;
2.408000000000000E+009;1.796133220195770E-001;6.535576190799475E-003;-5.907946615479887E-004;3.087167628109455E-003;
2.408166666666667E+009;1.791807562112808E-001;6.187323480844498E-003;-4.280565772205591E-004;3.006169805303216E-003;
2.408333333333334E+009;1.789632141590118E-001;5.335990339517593E-003;-5.186756025068462E-004;3.194373566657305E-003;
2.408500000000000E+009;1.781946122646332E-001;4.721158184111118E-003;-3.907437494490296E-004;3.065385622903705E-003;
2.408666666666667E+009;1.776130199432373E-001;3.624828299507499E-003;-1.434701844118536E-004;2.863104455173016E-003;
2.408833333333334E+009;1.768538355827332E-001;2.704061102122068E-003;-2.258574531879276E-004;2.961066085845232E-003;
2.409000000000000E+009;1.762990802526474E-001;1.766189932823181E-003;-1.682359434198588E-004;2.745199017226696E-003;
2.409166666666667E+009;1.756793111562729E-001;5.009198212064803E-004;-3.720758104464039E-005;2.814494073390961E-003;
2.409333333333334E+009;1.749784201383591E-001;-6.164808874018490E-004;-1.494419029768324E-005;2.759872935712338E-003;
2.409500000000000E+009;1.741612404584885E-001;-1.859614043496549E-003;6.389798363670707E-005;2.654197858646512E-003;
2.409666666666667E+009;1.734783798456192E-001;-3.188572125509381E-003;1.207712339237332E-004;2.598146442323923E-003;
2.409833333333334E+009;1.728562712669373E-001;-4.586760420352221E-003;1.682636648183689E-004;2.835592022165656E-003;
2.410000000000000E+009;1.722449511289597E-001;-6.024328526109457E-003;1.254109083674848E-004;2.670222893357277E-003;
2.410166666666667E+009;1.715211272239685E-001;-7.584126666188240E-003;2.657504519447684E-004;2.773344516754150E-003;
2.410333333333334E+009;1.709427237510681E-001;-9.477407671511173E-003;2.589837240520865E-004;2.596542006358504E-003;
2.410500000000000E+009;1.704897135496140E-001;-1.112023554742336E-002;4.475500609260052E-004;2.593962941318750E-003;
2.410666666666667E+009;1.698507368564606E-001;-1.299239601939917E-002;2.987606276292354E-004;2.463322831317782E-003;
2.410833333333334E+009;1.694857329130173E-001;-1.458665356040001E-002;4.828037053812295E-004;2.481631236150861E-003;
2.411000000000000E+009;1.690659970045090E-001;-1.644597202539444E-002;5.569109926000238E-004;2.504647243767977E-003;
2.411166666666667E+009;1.686154305934906E-001;-1.843089051544666E-002;5.420522647909820E-004;2.501344308257103E-003;
2.411333333333334E+009;1.683581918478012E-001;-2.039569616317749E-002;5.880999960936606E-004;2.451470587402582E-003;
2.411500000000000E+009;1.681406944990158E-001;-2.238014526665211E-002;7.023264188319445E-004;2.467697486281395E-003;
2.411666666666667E+009;1.681568920612335E-001;-2.421577274799347E-002;6.955855060368776E-004;2.336178440600634E-003;
2.411833333333334E+009;1.681627780199051E-001;-2.624440006911755E-002;6.481731543317437E-004;2.424335572868586E-003;
2.412000000000000E+009;1.682842969894409E-001;-2.832881547510624E-002;7.372620166279376E-004;2.186554716899991E-003;
2.412166666666667E+009;1.682673841714859E-001;-3.029727935791016E-002;8.398947538807988E-004;2.457341644912958E-003;
2.412333333333334E+009;1.685949862003326E-001;-3.198293969035149E-002;9.553489508107305E-004;2.270923461765051E-003;
2.412500000000000E+009;1.686034798622131E-001;-3.391481563448906E-002;9.608419495634735E-004;2.417965093627572E-003;
2.412666666666667E+009;1.689545959234238E-001;-3.602856025099754E-002;9.270000737160444E-004;2.267778152599931E-003;
2.412833333333334E+009;1.692449897527695E-001;-3.778243437409401E-002;1.066496479324997E-003;2.279335167258978E-003;
2.413000000000000E+009;1.696600168943405E-001;-3.956140577793121E-002;1.206061919219792E-003;2.159226685762405E-003;
2.413166666666667E+009;1.701218187808991E-001;-4.129464179277420E-002;1.079584588296711E-003;2.132473746314645E-003;
2.413333333333334E+009;1.704245954751968E-001;-4.294361546635628E-002;1.182239386253059E-003;2.167434431612492E-003;
2.413500000000000E+009;1.710218042135239E-001;-4.485972225666046E-002;1.384152914397419E-003;2.156282076612115E-003;
2.413666666666667E+009;1.715717166662216E-001;-4.615117982029915E-002;1.477876678109169E-003;2.139999531209469E-003;
2.413833333333334E+009;1.720647215843201E-001;-4.783670604228973E-002;1.506547443568707E-003;2.007027622312307E-003;
2.414000000000000E+009;1.725352257490158E-001;-4.919368028640747E-002;1.591705135069788E-003;1.973466482013464E-003;
2.414166666666667E+009;1.733144223690033E-001;-5.046169087290764E-002;1.712198252789676E-003;1.983056543394923E-003;
2.414333333333334E+009;1.738152056932449E-001;-5.174303054809570E-002;1.817171229049563E-003;1.822118763811886E-003;
2.414500000000000E+009;1.744058430194855E-001;-5.280802026391029E-002;1.788385678082705E-003;1.815628609620035E-003;
2.414666666666667E+009;1.748932451009750E-001;-5.384311825037003E-002;1.970050856471062E-003;1.953615341335535E-003;
2.414833333333334E+009;1.753444671630859E-001;-5.494697019457817E-002;1.980490982532501E-003;1.640355447307229E-003;
2.415000000000000E+009;1.758662760257721E-001;-5.573045462369919E-002;1.963589340448380E-003;1.690394361503422E-003;
2.415166666666667E+009;1.762503236532211E-001;-5.664064362645149E-002;1.976863481104374E-003;1.562102930620313E-003;
2.415333333333334E+009;1.766664683818817E-001;-5.740559101104736E-002;2.298247534781694E-003;1.346880453638732E-003;
2.415500000000000E+009;1.769161075353622E-001;-5.789116024971008E-002;2.269806805998087E-003;1.379810157231987E-003;
2.415666666666667E+009;1.773081123828888E-001;-5.848380178213120E-002;2.166498685255647E-003;1.251257257536054E-003;
2.415833333333334E+009;1.775216162204742E-001;-5.898540839552879E-002;2.188607817515731E-003;9.840121492743492E-004;
2.416000000000000E+009;1.774624884128571E-001;-5.940898880362511E-002;2.347316592931747E-003;8.712426642887294E-004;
2.416166666666667E+009;1.777612268924713E-001;-5.978537723422051E-002;2.250441350042820E-003;8.272679988294840E-004;
2.416333333333334E+009;1.776738762855530E-001;-6.012601405382156E-002;2.277209190651774E-003;6.470240768976510E-004;
2.416500000000000E+009;1.774225682020187E-001;-6.046866625547409E-002;2.230370417237282E-003;6.210521678440273E-004;
2.416666666666667E+009;1.773087382316589E-001;-6.063044816255570E-002;2.240657107904553E-003;4.887875984422863E-004;
2.416833333333334E+009;1.771916151046753E-001;-6.101330369710922E-002;2.158944727852941E-003;3.930266830138862E-004;
2.417000000000000E+009;1.765730679035187E-001;-6.116000562906265E-002;2.188659040257335E-003;2.805281255859882E-004;
2.417166666666667E+009;1.761757880449295E-001;-6.131073087453842E-002;2.259820001199842E-003;1.277881528949365E-004;
2.417333333333334E+009;1.756818145513535E-001;-6.154754757881165E-002;2.088371198624373E-003;1.661126152612269E-004;
2.417500000000000E+009;1.750341057777405E-001;-6.186325103044510E-002;1.978523563593626E-003;-8.531766070518643E-005;
2.417666666666667E+009;1.744066774845123E-001;-6.193673238158226E-002;2.061007544398308E-003;-2.912586023740005E-005;
2.417833333333334E+009;1.735739856958389E-001;-6.224392354488373E-002;1.749946852214634E-003;-1.389112730976194E-004;
2.418000000000000E+009;1.726190447807312E-001;-6.255832314491272E-002;1.740160863846541E-003;-2.029505412792787E-004;
2.418166666666667E+009;1.716690212488174E-001;-6.272444128990173E-002;1.730663701891899E-003;-1.984976261155680E-004;
2.418333333333334E+009;1.709658652544022E-001;-6.325495988130570E-002;1.604770426638424E-003;-4.166013968642801E-004;
2.418500000000000E+009;1.698363721370697E-001;-6.358332186937332E-002;1.530527253635228E-003;-4.281838773749769E-004;
2.418666666666667E+009;1.688421666622162E-001;-6.405486166477203E-002;1.526311039924622E-003;-3.327603335492313E-004;
2.418833333333334E+009;1.675408333539963E-001;-6.465033441781998E-002;1.480309874750674E-003;-3.418819978833199E-004;
2.419000000000000E+009;1.663666367530823E-001;-6.506370007991791E-002;1.347738085314632E-003;-3.582398931030184E-004;
2.419166666666667E+009;1.652403473854065E-001;-6.586754322052002E-002;1.456279191188514E-003;-3.493759722914547E-004;
2.419333333333334E+009;1.638613492250443E-001;-6.641592830419540E-002;1.364938681945205E-003;-4.555096093099564E-004;
2.419500000000000E+009;1.627916246652603E-001;-6.734021008014679E-002;1.361533766612411E-003;-3.700503439176828E-004;
2.419666666666667E+009;1.615260690450668E-001;-6.830076128244400E-002;1.241924706846476E-003;-3.092562255915254E-004;
2.419833333333334E+009;1.604484766721726E-001;-6.918624043464661E-002;1.131742610596120E-003;-3.732381446752697E-004;
2.420000000000000E+009;1.593467891216278E-001;-7.023531198501587E-002;1.123944879509509E-003;-4.438637988641858E-004;
2.420166666666667E+009;1.582526117563248E-001;-7.125571370124817E-002;1.001370372250676E-003;-3.791006747633219E-004;
2.420333333333334E+009;1.570917367935181E-001;-7.258827984333038E-002;1.083997311070561E-003;-4.397521261125803E-004;
2.420500000000000E+009;1.560089588165283E-001;-7.362268865108490E-002;1.000597956590354E-003;-2.604493929538876E-004;
2.420666666666667E+009;1.550287157297134E-001;-7.479094713926315E-002;1.005906844511628E-003;-3.598304174374789E-004;
2.420833333333334E+009;1.541974246501923E-001;-7.644615322351456E-002;1.000300399027765E-003;-3.039954754058272E-004;
2.421000000000000E+009;1.533277779817581E-001;-7.782975584268570E-002;1.122620189562440E-003;-4.520708753261715E-004;
2.421166666666667E+009;1.525368541479111E-001;-7.931413501501083E-002;8.820777875371277E-004;-2.067972964141518E-004;
2.421333333333334E+009;1.519355177879334E-001;-8.091101050376892E-002;1.019543386064470E-003;-3.474817203823477E-004;
2.421500000000000E+009;1.512395739555359E-001;-8.256436884403229E-002;9.468298521824181E-004;-2.849676238838583E-004;
2.421666666666667E+009;1.508299261331558E-001;-8.411978930234909E-002;1.010629581287503E-003;-2.796347544062883E-004;
2.421833333333334E+009;1.502198129892349E-001;-8.571364730596542E-002;8.275322034023702E-004;-3.037792048417032E-004;
2.422000000000000E+009;1.499739140272141E-001;-8.735382556915283E-002;9.938065195456147E-004;-3.716232604347169E-004;
2.422166666666667E+009;1.496335566043854E-001;-8.929114043712616E-002;9.814209770411253E-004;-3.675191837828606E-004;
2.422333333333334E+009;1.495219320058823E-001;-9.071230888366699E-002;9.186716051772237E-004;-2.833695907611400E-004;
2.422500000000000E+009;1.493148207664490E-001;-9.252998977899551E-002;1.071816077455878E-003;-4.120544763281941E-004;
2.422666666666667E+009;1.491972953081131E-001;-9.446221590042114E-002;8.028154843486846E-004;-3.979690955020487E-004;
2.422833333333334E+009;1.493730992078781E-001;-9.600602090358734E-002;9.821541607379913E-004;-4.089651047252119E-004;
2.423000000000000E+009;1.495315879583359E-001;-9.764315932989121E-002;9.239688515663147E-004;-3.529857203830034E-004;
2.423166666666667E+009;1.497339457273483E-001;-9.926734119653702E-002;8.974003139883280E-004;-2.882733824662864E-004;
2.423333333333334E+009;1.500015407800674E-001;-1.007686108350754E-001;9.446945623494685E-004;-4.100287915207446E-004;
2.423500000000000E+009;1.503290235996246E-001;-1.022784709930420E-001;8.941292180679739E-004;-5.228648078627884E-004;
2.423666666666667E+009;1.504298448562622E-001;-1.040287241339684E-001;8.713803254067898E-004;-5.454962374642491E-004;
2.423833333333334E+009;1.510529220104218E-001;-1.053957641124725E-001;7.403289200738072E-004;-3.992354031652212E-004;
2.424000000000000E+009;1.514172106981278E-001;-1.065879687666893E-001;7.455623708665371E-004;-5.155419930815697E-004;
2.424166666666667E+009;1.519095748662949E-001;-1.080663278698921E-001;9.342684643343091E-004;-5.928044556640089E-004;
2.424333333333334E+009;1.524543464183807E-001;-1.091384813189507E-001;7.628300809301436E-004;-4.503375093918294E-004;
2.424500000000000E+009;1.529764980077744E-001;-1.103658825159073E-001;7.002812926657498E-004;-4.505465039983392E-004;
2.424666666666667E+009;1.535475105047226E-001;-1.113231480121613E-001;6.144009530544281E-004;-5.163021269254386E-004;
2.424833333333334E+009;1.538800597190857E-001;-1.123181208968163E-001;6.815353408455849E-004;-6.058180588297546E-004;
2.425000000000000E+009;1.544371992349625E-001;-1.132691279053688E-001;5.679380847141147E-004;-5.433341721072793E-004;
2.425166666666667E+009;1.547969430685043E-001;-1.142149120569229E-001;6.011188379488885E-004;-5.920628900639713E-004;
2.425333333333334E+009;1.552950739860535E-001;-1.148495152592659E-001;6.132756243459880E-004;-4.150360764469951E-004;
2.425500000000000E+009;1.557478904724121E-001;-1.156691312789917E-001;5.396954366005957E-004;-5.217657890170813E-004;
2.425666666666667E+009;1.558750867843628E-001;-1.160876005887985E-001;6.343129207380116E-004;-5.356795736588538E-004;
2.425833333333334E+009;1.562196463346481E-001;-1.167977079749107E-001;6.352743948809803E-004;-5.321858916431665E-004;
2.426000000000000E+009;1.563630253076553E-001;-1.172929704189301E-001;5.629106890410185E-004;-5.538906552828848E-004;
2.426166666666667E+009;1.567181050777435E-001;-1.176836714148521E-001;6.595497834496200E-004;-5.178528372198343E-004;
2.426333333333334E+009;1.567529588937759E-001;-1.180351674556732E-001;3.862176963593811E-004;-4.258778062649071E-004;
2.426500000000000E+009;1.567614227533341E-001;-1.182702183723450E-001;4.835491417907178E-004;-4.916288307867944E-004;
2.426666666666667E+009;1.567837446928024E-001;-1.183434203267098E-001;4.693209484685212E-004;-3.739859675988555E-004;
2.426833333333334E+009;1.564924120903015E-001;-1.186422631144524E-001;5.824342370033264E-004;-4.560197412502021E-004;
2.427000000000000E+009;1.562278419733048E-001;-1.188878566026688E-001;4.657953977584839E-004;-5.140721914358437E-004;
2.427166666666667E+009;1.559373140335083E-001;-1.188337057828903E-001;5.113187944516540E-004;-4.246559401508421E-004;
2.427333333333334E+009;1.552165448665619E-001;-1.190595179796219E-001;5.720237386412919E-004;-3.786907182075083E-004;
2.427500000000000E+009;1.547684669494629E-001;-1.190842390060425E-001;5.201229359954596E-004;-2.926315355580300E-004;
2.427666666666667E+009;1.541348993778229E-001;-1.192824691534042E-001;5.212206160649657E-004;-2.183236356358975E-004;
2.427833333333334E+009;1.531619280576706E-001;-1.193389222025871E-001;4.964453401044011E-004;-3.447557392064482E-004;
