# Hz S RI R 
2400000000.0000000000 0.169530227780342102050781250000 0.039142176508903503417968750000 0.002949763787910342216491699219 -0.001941157504916191101074218750 0 0 0 0 
2400166666.6666665077 0.170317873358726501464843750000 0.038585111498832702636718750000 0.002921762643381952805760048975 -0.002198622329160571098327636719 0 0 0 0 
2400333333.3333334923 0.171084657311439486404580634371 0.037829544395208358764648437500 0.002743725432083011107203818213 -0.002205415861681104140040732275 0 0 0 0 
2400500000.0000000000 0.171853616833686800857705634371 0.037023764103651046752929687500 0.002556743798777461051940917969 -0.002443613251671195030212402344 0 0 0 0 
2400666666.6666665077 0.172253727912902804275674384371 0.036313954740762710571289062500 0.002272093901410698890686035156 -0.002385734114795922799351357568 0 0 0 0 
2400833333.3333334923 0.172713831067085293868856865629 0.035788852721452713012695312500 0.002180966781452298164367675781 -0.002478619571775197982788085938 0 0 0 0 
2401000000.0000000000 0.173127636313438387771768134371 0.034989327192306518554687500000 0.001915520755574106953264545972 -0.002401422010734676881077431787 0 0 0 0 
2401166666.6666665077 0.173382312059402493575888115629 0.034190330654382712627370466407 0.001837097341194749095319438403 -0.002543076407164334817173623193 0 0 0 0 
2401333333.3333334923 0.173444107174873407561932481258 0.033674463629722602153737653907 0.001583602977916598103166889722 -0.002485528821125626997706747900 0 0 0 0 
2401500000.0000000000 0.173851549625396700760049384371 0.032859265804290771484375000000 0.001717694220133125998853373950 -0.002310092560946940942051552881 0 0 0 0 
2401666666.6666665077 0.173945143818855313400106865629 0.032424565404653549194335937500 0.001417689258232712962506938403 -0.002411890774965285821201943506 0 0 0 0 
2401833333.3333334923 0.174032017588615389724893134371 0.031691528856754302978515625000 0.001227303408086299896240234375 -0.002303943270817399024963378906 0 0 0 0 
2402000000.0000000000 0.173753231763839693924111884371 0.030967855826020240783691406250 0.001249789027497171921970986475 -0.002248443197458982901332236182 0 0 0 0 
2402166666.6666665077 0.173843488097190912444744981258 0.030245093628764149057408516796 0.001127801020629703998565673828 -0.002120755380019545988795615088 0 0 0 0 
2402333333.3333334923 0.173732906579971313476562500000 0.029392190277576450002650076954 0.000996861024759709835052490234 -0.002205463359132409095764160156 0 0 0 0 
2402500000.0000000000 0.173796460032463101486044365629 0.028845587745308879507044608204 0.000928043387830257415771484375 -0.002263135276734828948974609375 0 0 0 0 
2402666666.6666665077 0.173541978001594487945880018742 0.028010351583361629140833670704 0.000991365173831582069396972656 -0.002136766910552978949305868994 0 0 0 0 
2402833333.3333334923 0.173421710729598999023437500000 0.027256865054368969308873360546 0.000840918277390301227569580078 -0.002085516927763820128199911963 0 0 0 0 
2403000000.0000000000 0.173177674412727411468182481258 0.026115477085113528860071951954 0.000886245223227888454138601038 -0.001908359117805958011029887622 0 0 0 0 
2403166666.6666665077 0.173004344105720492263955634371 0.025366339832544330251673514454 0.000728054612409323453903198242 -0.001875387039035558917401957935 0 0 0 0 
2403333333.3333334923 0.172652095556259210784588731258 0.024290774017572399484654610546 0.000866237038280814886093139648 -0.002014368306845426993129111182 0 0 0 0 
2403500000.0000000000 0.172044023871421786209268134371 0.023286040872335430490513985546 0.000775312830228358507156372070 -0.001764148706570267894147563403 0 0 0 0 
2403666666.6666665077 0.171831652522087097167968750000 0.021970914676785469055175781250 0.000752979540266096591949462891 -0.001651657512411474964739155347 0 0 0 0 
2403833333.3333334923 0.171628370881080599685830634371 0.020843014121055599557896798046 0.000730946892872452735900878906 -0.001658994820900260968449257959 0 0 0 0 
2404000000.0000000000 0.171148389577865600585937500000 0.019759217277169231069544608204 0.000750284292735159397125244141 -0.001617566798813641071319580078 0 0 0 0 
2404166666.6666665077 0.170901969075202886383380018742 0.018272066488862041128138358204 0.001013208180665970065473246997 -0.001543044811114669062970805591 0 0 0 0 
2404333333.3333334923 0.170445561408996609786825615629 0.016951423138380050659179687500 0.000782715971581637859344482422 -0.001567348488606512980220175635 0 0 0 0 
2404500000.0000000000 0.169958904385566711425781250000 0.015537731349468229466448399023 0.001116865780204534964320517432 -0.001656644279137253978131938403 0 0 0 0 
2404666666.6666665077 0.169824734330177307128906250000 0.014196495525538919621477695898 0.000975166331045329570770263672 -0.001719277119264007048365927588 0 0 0 0 
2404833333.3333334923 0.169518008828163202483807481258 0.012608223594725130253801914648 0.001114951330237091021296835791 -0.001842763274908066012738871997 0 0 0 0 
2405000000.0000000000 0.169331014156341608245526231258 0.011091894470155240839948085352 0.001203635707497596957563090747 -0.001730717136524618105647421729 0 0 0 0 
2405166666.6666665077 0.169118627905845586578692518742 0.009482071734964847564697265625 0.001169660128653049902675009619 -0.001872653840109705924987792969 0 0 0 0 
2405333333.3333334923 0.169067695736885098556356865629 0.007739817257970572385306073926 0.001221875892952084975001669775 -0.001935978536494076035143208081 0 0 0 0 
2405500000.0000000000 0.168716818094253512283486884371 0.006007805932313203811645507812 0.001128399511799216053606342847 -0.002089846180751920180079794775 0 0 0 0 
2405666666.6666665077 0.168650820851325988769531250000 0.004337555263191462430472089551 0.001219224999658762974980019678 -0.002080721314996480941772460938 0 0 0 0 
2405833333.3333334923 0.168376758694648687164630018742 0.002616252051666378974914550781 0.001217353157699107906938862378 -0.002105062594637275175807333838 0 0 0 0 
2406000000.0000000000 0.168299794197082491775674384371 0.000502174021676182746887207031 0.001174156903289258913752890479 -0.002335579367354512214660644531 0 0 0 0 
2406166666.6666665077 0.168075606226921109298544365629 -0.001064087613485753969905234229 0.000997579074464738368988037109 -0.002485923469066619873046875000 0 0 0 0 
2406333333.3333334923 0.168038979172706604003906250000 -0.002916122321039437813999795068 0.001140036969445646026014018481 -0.002601670799776912169215536963 0 0 0 0 
2406500000.0000000000 0.167633786797523498535156250000 -0.004836028441786766052246093750 0.001003553159534930966020893628 -0.002738044830039143995997763525 0 0 0 0 
2406666666.6666665077 0.167389854788780212402343750000 -0.006523602176457644376272870801 0.001060072681866585991503071362 -0.002889982191845775084254599463 0 0 0 0 
2406833333.3333334923 0.167450502514839200118856865629 -0.008291853591799736022949218750 0.000843325979076325893402099609 -0.002938154852017759843113564600 0 0 0 0 
2407000000.0000000000 0.167247772216796902755575615629 -0.010059192776679989206334298046 0.000749596452806144952774047852 -0.003044126555323601202723837744 0 0 0 0 
2407166666.6666665077 0.167365834116935702224893134371 -0.011503404006361959630022617773 0.000471347768325358575016575946 -0.003151775803416966958286904443 0 0 0 0 
2407333333.3333334923 0.167058542370796203613281250000 -0.013172040693461900193184099805 0.000331593502778559923171997070 -0.003353039734065533118007040869 0 0 0 0 
2407500000.0000000000 0.166992619633674593826455634371 -0.014709929004311559849749180273 0.000299943669233471209376734601 -0.003313036635518074035644531250 0 0 0 0 
2407666666.6666665077 0.166944205760955810546875000000 -0.016147615388035770761510079296 -0.000012469906323531180283034972 -0.003357343375682830810546875000 0 0 0 0 
2407833333.3333334923 0.166844904422760009765625000000 -0.017565537244081500661829764454 -0.000101257377536967396736145020 -0.003493204480037093162536621094 0 0 0 0 
2408000000.0000000000 0.166846796870231600662393134371 -0.018789276480674740182896798046 -0.000348909292370081002086085187 -0.003443347522988915009739541162 0 0 0 0 
2408166666.6666665077 0.166890129446983309646768134371 -0.019927725195884711528737653907 -0.000615860335528850555419921875 -0.003482092870399355888366699219 0 0 0 0 
2408333333.3333334923 0.167258769273757906814736884371 -0.021100170910358428955078125000 -0.000594595505390316247940063477 -0.003409029683098196983337402344 0 0 0 0 
2408500000.0000000000 0.167501270771026611328125000000 -0.022129654884338378906250000000 -0.000820908986497670412063598633 -0.003411766141653060913085937500 0 0 0 0 
2408666666.6666665077 0.167576119303703308105468750000 -0.023149169981479651714284528907 -0.001004886231385170979740761865 -0.003293367801234126091003417969 0 0 0 0 
2408833333.3333334923 0.167659059166908291915731865629 -0.024034569039940830575963204296 -0.001080757239833473942400288159 -0.003150687785819172859191894531 0 0 0 0 
2409000000.0000000000 0.168032929301261901855468750000 -0.025017047300934791564941406250 -0.001247651060111820914624858325 -0.003177038859575986862182617188 0 0 0 0 
2409166666.6666665077 0.168346971273422213455361884371 -0.025862494483590129507044608204 -0.001303424709476530985591269385 -0.003055187407881021933314658057 0 0 0 0 
2409333333.3333334923 0.169006288051605196853799384371 -0.026674406602978709829310233204 -0.001663057133555412075640034253 -0.002912741852924228148219443213 0 0 0 0 
2409500000.0000000000 0.169168680906295804122763115629 -0.027626078575849529611607735546 -0.001666257972829044082044291919 -0.002876103157177567915675497900 0 0 0 0 
2409666666.6666665077 0.169508010149002102950888115629 -0.028507176786661151540736014454 -0.001734967692755162932752299731 -0.002774213207885622978210449219 0 0 0 0 
2409833333.3333334923 0.169749066233635004241619981258 -0.029247831553220748901367187500 -0.001954073784872889952418661963 -0.002697659423574804826023720850 0 0 0 0 
2410000000.0000000000 0.170253172516822787185830634371 -0.030262775719165798532506173046 -0.001940983813256025097490620190 -0.002666452201083302931544638525 0 0 0 0 
2410166666.6666665077 0.170360073447227505782919365629 -0.030869858339428901672363281250 -0.001942542730830610015271830981 -0.002557954983785748915431357275 0 0 0 0 
2410333333.3333334923 0.170561015605926513671875000000 -0.031767230480909347534179687500 -0.002196229761466383934020996094 -0.002480043563991785049438476562 0 0 0 0 
2410500000.0000000000 0.170845553278923006912393134371 -0.032352793961763381958007812500 -0.002124269260093570189235068213 -0.002287787618115543885471963037 0 0 0 0 
2410666666.6666665077 0.170784309506416293045205634371 -0.033299788832664489746093750000 -0.002339935861527920202967978369 -0.002349297748878598213195800781 0 0 0 0 
2410833333.3333334923 0.170838803052902193924111884371 -0.033883683383464813232421875000 -0.002389564877375959916355752100 -0.002225673291832209067103720557 0 0 0 0 
2411000000.0000000000 0.170962408185005187988281250000 -0.034609325230121612548828125000 -0.002472327556461095809936523438 -0.002089733956381679014918661963 0 0 0 0 
2411166666.6666665077 0.170767083764076205154580634371 -0.035468798130750663066823591407 -0.002554586157202721075770712744 -0.001984302652999759154078818213 0 0 0 0 
2411333333.3333334923 0.170818850398063687423544365629 -0.035955362021923072124440778907 -0.002672249684110283851623535156 -0.001869879197329282977460551685 0 0 0 0 
2411500000.0000000000 0.170535594224929809570312500000 -0.036781616508960716938059221093 -0.002691047498956323103663779150 -0.001583057921379805044886923682 0 0 0 0 
2411666666.6666665077 0.170430809259414700607138115629 -0.037493202835321433330495466407 -0.002718875184655189947841025244 -0.001494354219175874970079731519 0 0 0 0 
2411833333.3333334923 0.170338034629821805099325615629 -0.038093909621238708496093750000 -0.002828122116625308990478515625 -0.001140118343755603053449321216 0 0 0 0 
2412000000.0000000000 0.170125469565391512771768134371 -0.038709413260221481323242187500 -0.002835350111126900152919150244 -0.001086945994757116057752299731 0 0 0 0 
2412166666.6666665077 0.169664949178695706466513115629 -0.039446130394935607910156250000 -0.002743895631283522085902548682 -0.001009192434139549949048686450 0 0 0 0 
2412333333.3333334923 0.169626086950302096267861884371 -0.040187336504459381103515625000 -0.002711505163460969924926757812 -0.000646268134005367755889892578 0 0 0 0 
2412500000.0000000000 0.169036328792571993728799384371 -0.040970019996166229248046875000 -0.002478435868397355079650878906 -0.000651010777801275253295898438 0 0 0 0 
2412666666.6666665077 0.168673753738403292556924384371 -0.041801325976848602294921875000 -0.002427276922389864921569824219 -0.000518088112585246562957763672 0 0 0 0 
2412833333.3333334923 0.168112605810165405273437500000 -0.042567737400531768798828125000 -0.002329977927729486985447548975 -0.000683913298416882753372192383 0 0 0 0 
2413000000.0000000000 0.167587876319885309417401231258 -0.043321978300809860229492187500 -0.002183129079639912085292197119 -0.000564894871786236763000488281 0 0 0 0 
2413166666.6666665077 0.167010501027107211013955634371 -0.044317372143268592143972028907 -0.001920546987093985080718994141 -0.000605846522375941276550292969 0 0 0 0 
2413333333.3333334923 0.166361212730407687088174384371 -0.045181840658187873149831403907 -0.001838688855059444904327392578 -0.000504148541949689388275146484 0 0 0 0 
2413500000.0000000000 0.165935680270195007324218750000 -0.046044956892728812480886091407 -0.001956759020686150030848837744 -0.000682809797581285238265991211 0 0 0 0 
2413666666.6666665077 0.165275618433952303787393134371 -0.046863649040460586547851562500 -0.001790457987226546027539897388 -0.000833871832583099603652954102 0 0 0 0 
2413833333.3333334923 0.164421662688255310058593750000 -0.047888759523630142211914062500 -0.001957518747076392173767089844 -0.000973135523963719606399536133 0 0 0 0 
2414000000.0000000000 0.163575515151023892501669365629 -0.048802983015775680541992187500 -0.001983891474083065986633300781 -0.000973217538557946681976318359 0 0 0 0 
2414166666.6666665077 0.163195535540580805022869981258 -0.049690488725900650024414062500 -0.001933751860633492903468466650 -0.000943286460824310779571533203 0 0 0 0 
2414333333.3333334923 0.162587210536003112792968750000 -0.050663299858570098876953125000 -0.002063947264105081991908408057 -0.001180431339889765002607036060 0 0 0 0 
2414500000.0000000000 0.162118569016456604003906250000 -0.051605340093374252319335937500 -0.002170534571632742881774902344 -0.001161932246759534098981547778 0 0 0 0 
2414666666.6666665077 0.161563813686370905120526231258 -0.052661195397377007221262346093 -0.002300863852724432945251464844 -0.000965592102147638797760009766 0 0 0 0 
2414833333.3333334923 0.160976260900497408767861884371 -0.053684033453464508056640625000 -0.002478988841176033020019531250 -0.000925596628803759813308715820 0 0 0 0 
2415000000.0000000000 0.160541951656341608245526231258 -0.054613649845123291015625000000 -0.002360869664698839187622070312 -0.001026791636832057996037148584 0 0 0 0 
2415166666.6666665077 0.160018548369407709319744981258 -0.055857270956039428710937500000 -0.002761589596047997908351279150 -0.000878569670021533966064453125 0 0 0 0 
2415333333.3333334923 0.159818604588508605957031250000 -0.057215020060539252544362653907 -0.002975955372676252885105752100 -0.000817144522443413734436035156 0 0 0 0 
2415500000.0000000000 0.159344673156738309005575615629 -0.058256778866052627563476562500 -0.003034099005162715911865234375 -0.000773607171140611171722412109 0 0 0 0 
2415666666.6666665077 0.158925488591194208343182481258 -0.059621341526508331298828125000 -0.003194755176082253889796591650 -0.000544976617675274610519409180 0 0 0 0 
2415833333.3333334923 0.158832550048828097244424384371 -0.060904260724782936786692033593 -0.003291876520961523056030273438 -0.000472589046694338321685791016 0 0 0 0 
2416000000.0000000000 0.158349007368087796310263115629 -0.062282554805278778076171875000 -0.003239162964746356010437011719 -0.000297252088785171508789062500 0 0 0 0 
2416166666.6666665077 0.158116385340690612792968750000 -0.063611947000026702880859375000 -0.003160288557410240173339843750 -0.000020195308024995028972625732 0 0 0 0 
2416333333.3333334923 0.157685220241546603103799384371 -0.064938880503177642822265625000 -0.003305612131953239007237099756 0.000201761591597460210323333740 0 0 0 0 
2416500000.0000000000 0.157466143369674710372763115629 -0.066495679318904876708984375000 -0.003272114554420113997218466650 0.000302722648484632427066248761 0 0 0 0 
2416666666.6666665077 0.156965330243110712249432481258 -0.067826591432094573974609375000 -0.003343776334077119827270507812 0.000278499617706984281539916992 0 0 0 0 
2416833333.3333334923 0.156649053096771212478799384371 -0.069219775497913360595703125000 -0.003375387052074075178859091650 0.000562978850211948156356811523 0 0 0 0 
2417000000.0000000000 0.156169459223747308929119981258 -0.070501931011676788330078125000 -0.003385825548321009115931845557 0.000723106262739747762680053711 0 0 0 0 
2417166666.6666665077 0.155995085835456903655682481258 -0.071678206324577331542968750000 -0.003326537320390344099757529150 0.000857672537676990032196044922 0 0 0 0 
2417333333.3333334923 0.155667781829834012130575615629 -0.072943188250064849853515625000 -0.003317375434562563896179199219 0.001034944783896208026288676685 0 0 0 0 
2417500000.0000000000 0.155256405472755404373330634371 -0.074363864958286285400390625000 -0.003070452483370900154113769531 0.001185602042824029922485351562 0 0 0 0 
2417666666.6666665077 0.155132219195365905761718750000 -0.075192354619503021240234375000 -0.003131438279524445967433310400 0.001229118322953582026837993091 0 0 0 0 
2417833333.3333334923 0.154946818947792108733807481258 -0.076288409531116485595703125000 -0.003167222021147609190699911963 0.001387983793392777009251259912 0 0 0 0 
2418000000.0000000000 0.154628843069076510330361884371 -0.077502422034740447998046875000 -0.003041458548977971076965332031 0.001631259219720960097071982275 0 0 0 0 
2418166666.6666665077 0.154455482959747286697549384371 -0.078298762440681457519531250000 -0.003057955065742135047912597656 0.001655385596677660942077636719 0 0 0 0 
2418333333.3333334923 0.154547974467277499099893134371 -0.079357393085956573486328125000 -0.003020890057086945013758993994 0.001854685600847006060956645435 0 0 0 0 
2418500000.0000000000 0.154315307736396789550781250000 -0.080290086567401885986328125000 -0.002750153187662363052368164062 0.002073285402730106873753213037 0 0 0 0 
2418666666.6666665077 0.154307439923286410232705634371 -0.081270433962345123291015625000 -0.002794826403260231018066406250 0.002074674237519503073451376807 0 0 0 0 
2418833333.3333334923 0.154133856296539306640625000000 -0.082042083144187927246093750000 -0.002603203756734728813171386719 0.002259525470435618920567177881 0 0 0 0 
2419000000.0000000000 0.153859570622444208343182481258 -0.082892283797264099121093750000 -0.002457403112202883200404501807 0.002493431093171238899230957031 0 0 0 0 
2419166666.6666665077 0.153864234685897799392861884371 -0.083634406328201293945312500000 -0.002147409133613110022303915869 0.002594143850728869004490517725 0 0 0 0 
2419333333.3333334923 0.153611883521079989334268134371 -0.084248244762420654296875000000 -0.002077952492982149124145507812 0.002549781231209636168238974463 0 0 0 0 
2419500000.0000000000 0.153522193431854303558026231258 -0.085112079977989196777343750000 -0.001806055894121528105494833838 0.002674574265256524085998535156 0 0 0 0 
2419666666.6666665077 0.153499558568000793457031250000 -0.085759580135345458984375000000 -0.001742040854878724055049277197 0.002671262016519904136657714844 0 0 0 0 
2419833333.3333334923 0.153145283460617093185263115629 -0.086334653198719024658203125000 -0.001466310117393732070922851562 0.002544170478358864784240722656 0 0 0 0 
