# Hz S RI R 
2400000000.0000000000 0.155065685510635403732138115629 0.111446402966976193527059990629 -0.002719162730500102043151855469 0.000929106783587485551834106445 0 0 0 0 
2400166666.6666665077 0.154409676790237399002236884371 0.109161965548992198615785298443 -0.002607270143926144079921103369 0.001192268566228448910954140771 0 0 0 0 
2400333333.3333334923 0.154277399182319613357705634371 0.106973834335803999473490932814 -0.002331696450710297064540243994 0.001340284594334661960601806641 0 0 0 0 
2400500000.0000000000 0.153841808438301086425781250000 0.104337655007839202880859375000 -0.002163405995815991921665810693 0.001423140871338546059252094800 0 0 0 0 
2400666666.6666665077 0.153810963034629794021768134371 0.101872265338897705078125000000 -0.002054990734905004935023642432 0.001484069391153753020642924731 0 0 0 0 
2400833333.3333334923 0.153442934155464200118856865629 0.099116161465644836425781250000 -0.002014860045164823965785361182 0.001618955982849002101300883716 0 0 0 0 
2401000000.0000000000 0.153467595577239990234375000000 0.096125982701778411865234375000 -0.001861844211816787936566996997 0.001617809059098362922668457031 0 0 0 0 
2401166666.6666665077 0.153430715203285189529580634371 0.093295745551586151123046875000 -0.001650264253839849992039345850 0.001510376343503593964817666162 0 0 0 0 
2401333333.3333334923 0.153382077813148498535156250000 0.090429469943046569824218750000 -0.001658442546613513989689492334 0.001642393763177097060559916919 0 0 0 0 
2401500000.0000000000 0.153759315609932001311932481258 0.087445944547653198242187500000 -0.001532032852992414994480752100 0.001704988069832324981689453125 0 0 0 0 
2401666666.6666665077 0.153882637619972201248330634371 0.084345303475856781005859375000 -0.001526671228930353901506733472 0.001833567279390990950940776294 0 0 0 0 
2401833333.3333334923 0.154216066002845791915731865629 0.081568263471126556396484375000 -0.001448750612325965924503945459 0.001902785385027528025983500903 0 0 0 0 
2402000000.0000000000 0.154912129044532803634481865629 0.078372560441493988037109375000 -0.001282282988540828011156391675 0.001865257509052753014805459131 0 0 0 0 
2402166666.6666665077 0.155716434121131896972656250000 0.075700156390666961669921875000 -0.001298781950026750998256064307 0.001978339161723852157592773438 0 0 0 0 
2402333333.3333334923 0.156177297234535189529580634371 0.072668373584747314453125000000 -0.001086091739125550010083842700 0.002084115520119667053222656250 0 0 0 0 
2402500000.0000000000 0.157639846205711392501669365629 0.070084869861602783203125000000 -0.001011425745673478083369589697 0.002134335925802588896510458838 0 0 0 0 
2402666666.6666665077 0.158398136496543912032919365629 0.067286878824234008789062500000 -0.000840913387946784496307373047 0.002215587534010409875157021631 0 0 0 0 
2402833333.3333334923 0.159809261560440091232138115629 0.064687296748161315917968750000 -0.000602798420004546642303466797 0.002258034888654946847202920068 0 0 0 0 
2403000000.0000000000 0.161234706640243502517861884371 0.062013067305088043212890625000 -0.000391488691093400120735168457 0.002229038160294293923618935693 0 0 0 0 
2403166666.6666665077 0.162948593497276306152343750000 0.059471331536769866943359375000 -0.000223172028199769610732478009 0.002275004750117660002467490088 0 0 0 0 
2403333333.3333334923 0.164367154240608187576455634371 0.056992866098880767822265625000 0.000070968875661492347717285156 0.002383910585194826126098632812 0 0 0 0 
2403500000.0000000000 0.166226029396057101150674384371 0.054742697626352310180664062500 0.000170786297530867186471661978 0.002234624698758124871494912256 0 0 0 0 
2403666666.6666665077 0.168100342154502896407919365629 0.052574913948774337768554687500 0.000395925220800563693046569824 0.002316543832421302795410156250 0 0 0 0 
2403833333.3333334923 0.169699922204017611404580634371 0.050440847873687737201731096093 0.000536843377631157636642456055 0.002140053780749440193176269531 0 0 0 0 
2404000000.0000000000 0.171470880508422907073651231258 0.048597242683172232891042341407 0.000907472393009811639785766602 0.001823568018153310038922954028 0 0 0 0 
2404166666.6666665077 0.173235893249511690994424384371 0.046686451882123947143554687500 0.000954211922362446784973144531 0.001724668196402489922167133862 0 0 0 0 
2404333333.3333334923 0.175265982747077886383380018742 0.045027714222669601440429687500 0.001178993843495846011518168872 0.001399959204718471007106161963 0 0 0 0 
2404500000.0000000000 0.176967144012451199630575615629 0.043460112065076828002929687500 0.000893729273229837417602539062 0.001090029603801667907117534106 0 0 0 0 
2404666666.6666665077 0.178801685571670504470986884371 0.042180545628070831298828125000 0.001048306818120181994197226416 0.000916214485187083482742309570 0 0 0 0 
2404833333.3333334923 0.180666953325271606445312500000 0.040909040719270713115651716407 0.000943663646467030048370361328 0.000543358852155506610870361328 0 0 0 0 
2405000000.0000000000 0.182338401675224304199218750000 0.040103513747453689575195312500 0.000925381144043058156967163086 0.000421809963881969506114405499 0 0 0 0 
2405166666.6666665077 0.184049129486084012130575615629 0.039274122565984732891042341407 0.000749565893784165382385253906 0.000329571164911612922519129620 0 0 0 0 
2405333333.3333334923 0.185603126883506802657919365629 0.038689374923706061626393903907 0.000708710227627307176589965820 0.000255495833698660081059056415 0 0 0 0 
2405500000.0000000000 0.187339961528778103927450615629 0.038219630718231201171875000000 0.000666798267047852277755737305 -0.000020371824575704519042764970 0 0 0 0 
2405666666.6666665077 0.188862830400466891189736884371 0.037652708590030670166015625000 0.000478659931104630177647191180 0.000040649465518072247505187988 0 0 0 0 
2405833333.3333334923 0.190543293952941894531250000000 0.037246029824018478393554687500 0.000062311963120009750127792358 -0.000157796355779282802909296857 0 0 0 0 
2406000000.0000000000 0.191503420472145108321981865629 0.037630867213010787963867187500 0.000614570861216634511947631836 -0.000012279021575523079798527258 0 0 0 0 
2406166666.6666665077 0.192770734429359408279580634371 0.037297289818525307392160783593 0.000204299300094135105609893799 -0.000033850737963803112506866455 0 0 0 0 
2406333333.3333334923 0.194291844964027404785156250000 0.037059050053358078002929687500 -0.000397339870687574202388209210 -0.000317404512315988486439305438 0 0 0 0 
2406500000.0000000000 0.195196151733398409744424384371 0.036979626864194869995117187500 -0.000694008776918053627014160156 -0.000256198662100359797477722168 0 0 0 0 
2406666666.6666665077 0.196029797196388189117755018742 0.037245489656925201416015625000 -0.000858094310387969017028808594 -0.000217786538996733697965899057 0 0 0 0 
2406833333.3333334923 0.196775585412979098220986884371 0.037568680942058563232421875000 -0.000916481541935354471206665039 -0.000163727920153178301736554556 0 0 0 0 
2407000000.0000000000 0.197142094373703002929687500000 0.038234427571296691894531250000 -0.000836482446175068616867065430 -0.000015119161616894419899190596 0 0 0 0 
2407166666.6666665077 0.197656258940696688553018134371 0.038030795753002166748046875000 -0.000980776385404169559478759766 0.000303823850117623805999755859 0 0 0 0 
2407333333.3333334923 0.197664767503738403320312500000 0.038807295262813568115234375000 -0.000922360282856971025466918945 0.000326992623740807175636291504 0 0 0 0 
2407500000.0000000000 0.198131740093231201171875000000 0.039186567068099982524831403907 -0.001095511950552463965175009619 0.000309141760226339101791381836 0 0 0 0 
2407666666.6666665077 0.198236003518104608733807481258 0.039419047534465789794921875000 -0.000990658532828092575073242188 0.000564575835596770048141479492 0 0 0 0 
2407833333.3333334923 0.197984144091606112381143134371 0.039530452340841293334960937500 -0.001129514654166996912715292822 0.000795548956375569105148315430 0 0 0 0 
2408000000.0000000000 0.197973310947418212890625000000 0.039677616208791732788085937500 -0.001122812158428132967707968604 0.000797536515165120363235473633 0 0 0 0 
2408166666.6666665077 0.197291120886802701095419365629 0.039839468896389007568359375000 -0.001062404131516814015032124097 0.000999088864773511886596679688 0 0 0 0 
2408333333.3333334923 0.197166755795478793045205634371 0.039618384093046188354492187500 -0.001096489140763879039167094653 0.001061917166225611946703266675 0 0 0 0 
2408500000.0000000000 0.196438103914260892013388115629 0.039703015238046653057057966407 -0.000946887070313096046447753906 0.001115529565140604972839355469 0 0 0 0 
2408666666.6666665077 0.195591390132904108245526231258 0.039570365101099007343332658593 -0.001081872032955289103864360278 0.001298507326282561042188334888 0 0 0 0 
2408833333.3333334923 0.195049181580543490310830634371 0.039172772318124771118164062500 -0.000959287222940474748611450195 0.001496442360803484916687011719 0 0 0 0 
2409000000.0000000000 0.194167733192443903167401231258 0.038517918437719352031667341407 -0.000897468824405223131179809570 0.001381434616632760004756308447 0 0 0 0 
2409166666.6666665077 0.193101435899734497070312500000 0.037890929728746407245676408593 -0.000838196312543004751205444336 0.001670173835009336905238486182 0 0 0 0 
2409333333.3333334923 0.192116588354110690017861884371 0.037295710295438773418386091407 -0.000895389588549733161926269531 0.001735212747007607980015420068 0 0 0 0 
2409500000.0000000000 0.190775245428085299392861884371 0.036276832222938537597656250000 -0.000717633462045341730117797852 0.001754303462803364016889262622 0 0 0 0 
2409666666.6666665077 0.189648255705833407303018134371 0.035022370517253882671315778907 -0.000774667190853506326675415039 0.001922760624438524029375385815 0 0 0 0 
2409833333.3333334923 0.188456550240516690353231865629 0.033938061445951461791992187500 -0.000625069893430918455123901367 0.001924799755215645053266215747 0 0 0 0 
2410000000.0000000000 0.187310785055160494705361884371 0.032477185130119316791574846093 -0.000703964033164083957672119141 0.002029254334047437147853232275 0 0 0 0 
2410166666.6666665077 0.186238288879394503494424384371 0.030878294259309768676757812500 -0.000521819514688104391098022461 0.002245061565190554098842001807 0 0 0 0 
2410333333.3333334923 0.184932321310043307205361884371 0.029209736734628680837611014454 -0.000550142605789005756378173828 0.002213150262832642035243368994 0 0 0 0 
2410500000.0000000000 0.183757930994033813476562500000 0.027180042117834091186523437500 -0.000433888548286631703376770020 0.002248706063255668120143271338 0 0 0 0 
2410666666.6666665077 0.182586580514907809158486884371 0.025227015838027000427246093750 -0.000139139359816908809259691782 0.002365644555538893179652548682 0 0 0 0 
2410833333.3333334923 0.181729391217231805999432481258 0.023202173411846160888671875000 -0.000119942953460849794462481088 0.002534976229071617126464843750 0 0 0 0 
2411000000.0000000000 0.180712193250656100174111884371 0.021053735166788101196289062500 -0.000073413721111137419939041138 0.002595997648313641981837607275 0 0 0 0 
2411166666.6666665077 0.179916441440582303146200615629 0.018903644755482670175572579296 0.000130297165014781112044733868 0.002826203359290957884547568213 0 0 0 0 
2411333333.3333334923 0.179117158055305508712606865629 0.016280248761177059518834298046 0.000181931405677460106924334116 0.002707558451220393180847167969 0 0 0 0 
2411500000.0000000000 0.178522691130638094803018134371 0.013869518414139749354352382227 0.000456692185252904891967773438 0.002859158208593726158142089844 0 0 0 0 
2411666666.6666665077 0.178041607141494806487713731258 0.011541024781763550149937813671 0.000562992703635245561599731445 0.002937042387202382087707519531 0 0 0 0 
2411833333.3333334923 0.177611380815506009200888115629 0.008781266398727893829345703125 0.000679754884913563728332519531 0.003044560318812727928161621094 0 0 0 0 
2412000000.0000000000 0.177576929330825805664062500000 0.006214114371687173843383789062 0.000697762065101414918899536133 0.003056499874219297929051064600 0 0 0 0 
2412166666.6666665077 0.177416935563087491134481865629 0.003795942990109324888942099463 0.001107293646782637076136923682 0.003132471581920980973484658350 0 0 0 0 
2412333333.3333334923 0.177471727132797213455361884371 0.001111194491386414007899618994 0.001350580248981714031816792065 0.003132674377411603927612304688 0 0 0 0 
2412500000.0000000000 0.177751094102859497070312500000 -0.001629898557439446015598916162 0.001538533135317265987396240234 0.003195008728653192953822470557 0 0 0 0 
2412666666.6666665077 0.178068146109580993652343750000 -0.004403272178024053573608398438 0.001751851872541009946110390771 0.003106376389041543006896972656 0 0 0 0 
2412833333.3333334923 0.178718268871307400802450615629 -0.006930274888873100280761718750 0.002085361164063214822056435693 0.003146612551063299179077148438 0 0 0 0 
2413000000.0000000000 0.179426044225692804534588731258 -0.009599143639206886291503906250 0.002178892260417342185974121094 0.002927584340795875029322958838 0 0 0 0 
2413166666.6666665077 0.180186167359352111816406250000 -0.011940026655793190002441406250 0.002584832953289151191711425781 0.002949120942503213882446289062 0 0 0 0 
2413333333.3333334923 0.181107312440872192382812500000 -0.014474881812930110586146170704 0.002773520303890109062194824219 0.002792615210637449784519814600 0 0 0 0 
2413500000.0000000000 0.182003349065780611892861884371 -0.017310081049799919128417968750 0.002974815433844923973083496094 0.002528278389945625825169228662 0 0 0 0 
2413666666.6666665077 0.183189347386360196212606865629 -0.019675638526678088796595389454 0.003288883483037352995631552588 0.002463058801367878913879394531 0 0 0 0 
2413833333.3333334923 0.184276074171066311935263115629 -0.021949028596282008779505545704 0.003558888332918285889866494287 0.002043507993221282958984375000 0 0 0 0 
2414000000.0000000000 0.185343936085700988769531250000 -0.024092094972729679452916329296 0.003762061707675457000732421875 0.001856032176874577999114990234 0 0 0 0 
2414166666.6666665077 0.186917379498481805999432481258 -0.026094958186149600637415701954 0.003902337048202753067016601562 0.001514382660388946966883993994 0 0 0 0 
2414333333.3333334923 0.188010111451148986816406250000 -0.028359502553939819335937500000 0.003906481899321079254150390625 0.001220550620928406932233500903 0 0 0 0 
2414500000.0000000000 0.189343661069869995117187500000 -0.029936900362372398376464843750 0.003943425137549638748168945312 0.001017853384837507984758686597 0 0 0 0 
2414666666.6666665077 0.190720453858375604827557481258 -0.031702853739261627197265625000 0.003905151505023241043090820312 0.000539218133781105279922485352 0 0 0 0 
2414833333.3333334923 0.192143037915229797363281250000 -0.033370982855558402324636091407 0.003948771860450506210327148438 0.000237490326981060206890106201 0 0 0 0 
2415000000.0000000000 0.193405464291572598556356865629 -0.034850627183914191509206403907 0.003806733060628176169154501807 0.000185254117241129306241712027 0 0 0 0 
2415166666.6666665077 0.195015355944633511642294365629 -0.035975385457277297973632812500 0.003856289666146039962768554688 -0.000075371346611063927412033081 0 0 0 0 
2415333333.3333334923 0.196359187364578302581463731258 -0.037226036190986633300781250000 0.003675426356494427160975790869 -0.000238589054788462790563860483 0 0 0 0 
2415500000.0000000000 0.197647228837013189117755018742 -0.038064423948526382446289062500 0.003600998548790812926051474463 -0.000602190208155661821365356445 0 0 0 0 
2415666666.6666665077 0.199059650301933288574218750000 -0.038920808583498001098632812500 0.003594586858525871796848916162 -0.000623150379396975040435791016 0 0 0 0 
2415833333.3333334923 0.200184702873230008224325615629 -0.039774052798748023296315778907 0.003494283650070428848266601562 -0.000847439048811793327331542969 0 0 0 0 
2416000000.0000000000 0.201307117938995389083700615629 -0.040353514254093170166015625000 0.003284739097580314116237021338 -0.001005163765512407042859721606 0 0 0 0 
2416166666.6666665077 0.202435538172721890548544365629 -0.041061479598283767700195312500 0.003285048063844441933872841943 -0.001102965325117110989214253003 0 0 0 0 
2416333333.3333334923 0.203374922275543212890625000000 -0.041325133293867111206054687500 0.003045211080461740927455283057 -0.001238071126863359971287392725 0 0 0 0 
2416500000.0000000000 0.204143926501274108886718750000 -0.041592996567487716674804687500 0.003024565521627664999720908057 -0.001331613399088382937787700122 0 0 0 0 
2416666666.6666665077 0.204622074961662292480468750000 -0.041939571499824516986887346093 0.002888717222958803176879882812 -0.001569092622958123900769877856 0 0 0 0 
2416833333.3333334923 0.205218300223350497146768134371 -0.041927993297576897357981096093 0.002674172166734933853149414062 -0.001667386270128190951106406104 0 0 0 0 
2417000000.0000000000 0.205569162964820889571981865629 -0.042136412113904953002929687500 0.002645683009177445931675576318 -0.001860610209405421993852924878 0 0 0 0 
2417166666.6666665077 0.205562949180602999588174384371 -0.041888937354087829589843750000 0.002491878345608710808994912256 -0.001890987157821655056597065503 0 0 0 0 
2417333333.3333334923 0.205645278096199007888955634371 -0.041621632874011993408203125000 0.002525920979678630828857421875 -0.001949997385963798002955771338 0 0 0 0 
2417500000.0000000000 0.205661445856094388107138115629 -0.041449058800935752178151716407 0.002181869698688387870788574219 -0.001991526456549764113185263525 0 0 0 0 
2417666666.6666665077 0.205379709601402310470419365629 -0.041214756667613983154296875000 0.002265576738864182992222451318 -0.002058763522654771804809570312 0 0 0 0 
2417833333.3333334923 0.205084443092346191406250000000 -0.040816795080900192260742187500 0.002152736298739910125732421875 -0.002177944174036384062526083838 0 0 0 0 
2418000000.0000000000 0.204597145318985013107138115629 -0.040414065122604370117187500000 0.002039616927504539923426962744 -0.002146863611415029005763388525 0 0 0 0 
2418166666.6666665077 0.203994527459144592285156250000 -0.040139693766832351684570312500 0.002072907052934170202967978369 -0.002252171048894525007960654150 0 0 0 0 
2418333333.3333334923 0.203284367918968200683593750000 -0.039783224463462829589843750000 0.001916841487400233962415385669 -0.002203768584877253012416220557 0 0 0 0 
2418500000.0000000000 0.202333971858024597167968750000 -0.039673175662755973125417341407 0.001832781708799303011653281104 -0.002441193675622344017028808594 0 0 0 0 
2418666666.6666665077 0.201536834239959689041299384371 -0.039335321635007858276367187500 0.001673820312134921984431601416 -0.002437071641907095909118652344 0 0 0 0 
2418833333.3333334923 0.200323358178138705154580634371 -0.039311323314905166625976562500 0.001496751443482934994938515771 -0.002485640812665224075317382812 0 0 0 0 
2419000000.0000000000 0.199005812406539889236611884371 -0.039346169680356979370117187500 0.001306578400544821999193501050 -0.002673500450327992005589150537 0 0 0 0 
2419166666.6666665077 0.197869628667831393142861884371 -0.039314571768045432353932966407 0.001137475832365453026415180737 -0.002653209725394845008850097656 0 0 0 0 
2419333333.3333334923 0.196504279971122686188067518742 -0.039807040244340896606445312500 0.001101873349398374991175986182 -0.002635379554703832106349326025 0 0 0 0 
2419500000.0000000000 0.194935142993927001953125000000 -0.039986792951822280883789062500 0.000799532281234860420227050781 -0.002769380342215300040004111182 0 0 0 0 
2419666666.6666665077 0.193231463432312011718750000000 -0.040575418621301651000976562500 0.000561324588488787412643432617 -0.002805688185617328123805380713 0 0 0 0 
2419833333.3333334923 0.191499903798103304763955634371 -0.041102595627307891845703125000 0.000421654636738821918338221417 -0.002631545998156071142909384619 0 0 0 0 
2420000000.0000000000 0.189910814166069003006143134371 -0.041848082095384597778320312500 0.000297352235065773075253087177 -0.002618247410282493071315146338 0 0 0 0 
