# Hz S RI R 50
2400000000.0000000000 0.168762221932411193847656250000 0.040356967598199837421457658593 -0.000700073665939271450042724609 -0.001498543773777782917022705078 0 0 0 0 
2400166666.6666665077 0.169272989034652709960937500000 0.039715766906738281250000000000 -0.000893649819772690534591674805 -0.001536671654321253082872700269 0 0 0 0 
2400333333.3333334923 0.169776529073715209960937500000 0.038799013942480087280273437500 -0.000668926048092544078826904297 -0.001666207215748727104784321362 0 0 0 0 
2400500000.0000000000 0.170357391238212613204794365629 0.038107875734567642211914062500 -0.000746847887057811021804809570 -0.001549045089632272937177348560 0 0 0 0 
2400666666.6666665077 0.170816689729690607268963731258 0.037278603762388229370117187500 -0.000869481649715453386306762695 -0.001748676761053502993342734229 0 0 0 0 
2400833333.3333334923 0.171209245920181302169638115629 0.036653280258178710937500000000 -0.000920363119803369153677785608 -0.001733224024064839103101420825 0 0 0 0 
2401000000.0000000000 0.171427294611930902679119981258 0.035792127251625061035156250000 -0.000894118042197078466415405273 -0.001844491111114620945574116284 0 0 0 0 
2401166666.6666665077 0.171844750642776489257812500000 0.034811921417713172222097028907 -0.001044605392962693951250385815 -0.001873717526905239062068320166 0 0 0 0 
2401333333.3333334923 0.172014907002449007888955634371 0.034013502299785607074777971093 -0.001148939714767039039014506763 -0.002004583366215229034423828125 0 0 0 0 
2401500000.0000000000 0.172114759683609008789062500000 0.033259946852922439575195312500 -0.001144335954450071074842143481 -0.002029816154390573935267783057 0 0 0 0 
2401666666.6666665077 0.172198101878166198730468750000 0.032697413116693496704101562500 -0.001352504361420870044110942310 -0.002135040471330285072326660156 0 0 0 0 
2401833333.3333334923 0.172364175319671603103799384371 0.031677637249231338500976562500 -0.001460662228055297894718789209 -0.001984009519219398932216025244 0 0 0 0 
2402000000.0000000000 0.172226771712303189376669365629 0.030867679044604301452636718750 -0.001601226045750081972834921729 -0.002135525923222302956822060693 0 0 0 0 
2402166666.6666665077 0.172113955020904513260049384371 0.030048582702875140798548514454 -0.001757836202159523963928222656 -0.002211359329521656036376953125 0 0 0 0 
2402333333.3333334923 0.172076925635337801834268134371 0.029213607311248779296875000000 -0.001776820980012417056440043872 -0.001959509216248989105224609375 0 0 0 0 
2402500000.0000000000 0.172301307320594787597656250000 0.028379069641232490539550781250 -0.002191563136875628991367959131 -0.001963730435818434195277548682 0 0 0 0 
2402666666.6666665077 0.172265917062759399414062500000 0.027329370379447940481165701954 -0.002165039069950581030604697119 -0.001987176714465022087097167969 0 0 0 0 
2402833333.3333334923 0.172017261385917691329794365629 0.026503842324018478393554687500 -0.002290344797074795202967978369 -0.001883714809082448916194296729 0 0 0 0 
2403000000.0000000000 0.171819880604744013030682481258 0.025334747508168220520019531250 -0.002350536175072193145751953125 -0.001548420987091958956477499854 0 0 0 0 
2403166666.6666665077 0.171589627861976595779580634371 0.024296503514051440847376639454 -0.002620555693283677101135253906 -0.001583666889928281090380024487 0 0 0 0 
2403333333.3333334923 0.171793818473815890213174384371 0.023255512118339538574218750000 -0.002780451672151685194728232275 -0.001591683016158639950993203271 0 0 0 0 
2403500000.0000000000 0.171270951628684997558593750000 0.022117678076028820383092110546 -0.002862608758732676939723349463 -0.001498572761192918040631938403 0 0 0 0 
2403666666.6666665077 0.171261996030807495117187500000 0.020822105929255489004114920704 -0.003008179366588592962977743994 -0.001256117480807005925419472803 0 0 0 0 
2403833333.3333334923 0.171040400862693786621093750000 0.019406635314226150512695312500 -0.002817139960825442834141396631 -0.001142289838753641085383749854 0 0 0 0 
2404000000.0000000000 0.170860841870307894607705634371 0.018306149169802669179896170704 -0.003186146961525083021876669775 -0.000801486661657691001892089844 0 0 0 0 
2404166666.6666665077 0.170628413558006286621093750000 0.017047578468918800354003906250 -0.002918578451499342918395996094 -0.000736024463549256324768066406 0 0 0 0 
2404333333.3333334923 0.170538038015365600585937500000 0.015704143792390819894810860546 -0.002941172337159513993504189600 -0.000502312032040208578109741211 0 0 0 0 
2404500000.0000000000 0.170203447341919000823651231258 0.014177639968693259847620780079 -0.003082857234403491020202636719 -0.000464750512037426179081517352 0 0 0 0 
2404666666.6666665077 0.170085623860359191894531250000 0.012823461554944520432441912305 -0.003053625579923390908482216943 -0.000320971856126561815112513409 0 0 0 0 
2404833333.3333334923 0.170017853379249600509481865629 0.011257408186793330800989920704 -0.003104449016973375840428017725 -0.000265421520452946424484252930 0 0 0 0 
2405000000.0000000000 0.169840961694717407226562500000 0.009678207337856292724609375000 -0.002998308744281529946568154443 -0.000220868954784236902564448224 0 0 0 0 
2405166666.6666665077 0.169872999191284207443075615629 0.008127178996801376342773437500 -0.002941875718533993201014853369 -0.000125756501802243292331695557 0 0 0 0 
2405333333.3333334923 0.169812276959419305999432481258 0.006312683224678040418142987988 -0.002975284354761242866516113281 0.000227205338887870311737060547 0 0 0 0 
2405500000.0000000000 0.169693008065223693847656250000 0.004974476061761379241943359375 -0.002759077819064259962794638525 0.000214836749364621910169878549 0 0 0 0 
2405666666.6666665077 0.169568732380867004394531250000 0.003250490408390759988072060693 -0.002867035567760467962977743994 0.000345023960107937509387415753 0 0 0 0 
2405833333.3333334923 0.169337317347526605804119981258 0.001558406162075697942021035303 -0.002902161097154020829441689600 0.000380563869839534217685145245 0 0 0 0 
2406000000.0000000000 0.169261530041694613357705634371 -0.000375297415303066427081507550 -0.002680025994777679009678506006 0.000501251837704330682754516602 0 0 0 0 
2406166666.6666665077 0.169158428907394409179687500000 -0.001822803635150193951250385815 -0.002613568445667624907252646338 0.000627201749011874198913574219 0 0 0 0 
2406333333.3333334923 0.169009745121002197265625000000 -0.003414308652281761169433593750 -0.002591160126030445098876953125 0.000808955868706107139587402344 0 0 0 0 
2406500000.0000000000 0.168980449438095092773437500000 -0.005233703181147575378417968750 -0.002447025617584586143493652344 0.000917588826268911361694335938 0 0 0 0 
2406666666.6666665077 0.168660506606101989746093750000 -0.006664879620075225830078125000 -0.002225219272077084021327353369 0.000941646634601056575775146484 0 0 0 0 
2406833333.3333334923 0.168554216623306302169638115629 -0.008407362736761569976806640625 -0.002132015302777289910557412256 0.000944035942666232585906982422 0 0 0 0 
2407000000.0000000000 0.168532118201255798339843750000 -0.009961882606148719787597656250 -0.002231976715847849845886230469 0.000995780690573155879974365234 0 0 0 0 
2407166666.6666665077 0.168528303503990201095419365629 -0.011268959380686279642125313671 -0.002108385320752859115600585938 0.001032602391205728054046630859 0 0 0 0 
2407333333.3333334923 0.168180808424949701507244981258 -0.012794836424291130411168282421 -0.001933153136633336977717734229 0.000849176198244094848632812500 0 0 0 0 
2407500000.0000000000 0.168137162923812893966513115629 -0.014096473343670369929303554102 -0.001932654646225274042842245947 0.000951022608205676078796386719 0 0 0 0 
2407666666.6666665077 0.168111711740493802169638115629 -0.015375476330518720799456211523 -0.002165522426366806030273437500 0.000985973398201167583465576172 0 0 0 0 
2407833333.3333334923 0.167768061161041287521200615629 -0.016575483605265620840052420704 -0.002003514207899570898768759619 0.000819359906017780303955078125 0 0 0 0 
2408000000.0000000000 0.167914405465126009842080634371 -0.017753304913640018808385079296 -0.002068431116640568213221884619 0.000655385316349565982818603516 0 0 0 0 
2408166666.6666665077 0.167865797877311706542968750000 -0.018737595528364181518554687500 -0.002034723525866866111755371094 0.000863726949319243431091308594 0 0 0 0 
2408333333.3333334923 0.168027922511100796798544365629 -0.019795421510934829711914062500 -0.002059064339846373038050986182 0.000778623623773455619812011719 0 0 0 0 
2408500000.0000000000 0.168176278471946688553018134371 -0.020771190524101260793665701954 -0.002260855631902813911437988281 0.000910473405383527278900146484 0 0 0 0 
2408666666.6666665077 0.168282076716423006912393134371 -0.021642064675688740121861641796 -0.002181507181376218795776367188 0.000918926263693720102310180664 0 0 0 0 
2408833333.3333334923 0.168346166610717801193075615629 -0.022548519074916839599609375000 -0.002198382513597608046290732275 0.001005653757601975960972451318 0 0 0 0 
2409000000.0000000000 0.168521329760551508147869981258 -0.023562410846352580678919608204 -0.002396877855062485174891806494 0.001206525717861949963810586084 0 0 0 0 
2409166666.6666665077 0.168772682547569302657919365629 -0.024217298254370689392089843750 -0.002324847038835287094116210938 0.001117427484132349924800253760 0 0 0 0 
2409333333.3333334923 0.168968826532363891601562500000 -0.025203641504049301147460937500 -0.002389365574344993071315146338 0.001255591283552349047419882666 0 0 0 0 
2409500000.0000000000 0.169117063283920288085937500000 -0.026158656924963000905970389454 -0.002434686757624148888828896631 0.001470576040446758053423237378 0 0 0 0 
2409666666.6666665077 0.169236063957214410979901231258 -0.026945743709802631032923514454 -0.002480876399204134941101074219 0.001535324379801749966265034253 0 0 0 0 
2409833333.3333334923 0.169402733445167513748330634371 -0.027657970786094668996790701954 -0.002312120283022522926330566406 0.001641129842028022029279399341 0 0 0 0 
2410000000.0000000000 0.169711649417877197265625000000 -0.028550483286380771291712576954 -0.002532421378418803215026855469 0.001695048529654741070391010815 0 0 0 0 
2410166666.6666665077 0.169730782508850097656250000000 -0.029299547895789149892786795704 -0.002318375743925571007969521631 0.001813006238080560944200825269 0 0 0 0 
2410333333.3333334923 0.169810250401496887207031250000 -0.030121192336082458496093750000 -0.002442491939291357994079589844 0.001966455718502401871922158350 0 0 0 0 
2410500000.0000000000 0.169794440269470187088174384371 -0.030965287238359451293945312500 -0.002215726301074028015136718750 0.002217192901298404173610068213 0 0 0 0 
2410666666.6666665077 0.169810891151428194900674384371 -0.031968601047992713237722028907 -0.002221154980361462073085165869 0.002330719726160169081446982275 0 0 0 0 
2410833333.3333334923 0.169898346066474886795205634371 -0.032664306461811072612722028907 -0.002260262146592140197753906250 0.002518736291676760153529501807 0 0 0 0 
2411000000.0000000000 0.169704809784889193435830634371 -0.033375203609466552734375000000 -0.001980354078114033179042197119 0.002623524051159619851353310693 0 0 0 0 
2411166666.6666665077 0.169589966535568209549111884371 -0.034289605915546417236328125000 -0.001923814415931702093837118994 0.002674766117706894874572753906 0 0 0 0 
2411333333.3333334923 0.169404119253158597091513115629 -0.035031180828809738159179687500 -0.001878220355138183073756552588 0.002754151122644544081446982275 0 0 0 0 
2411500000.0000000000 0.169191166758537292480468750000 -0.035941947251558296894113908593 -0.001753035001456737951991415869 0.002870120573788880868199013818 0 0 0 0 
2411666666.6666665077 0.169202759861946105957031250000 -0.036617930978536612773854841407 -0.001537463744170963981031108325 0.003100759815424681143519736182 0 0 0 0 
2411833333.3333334923 0.168766632676124600509481865629 -0.037349067628383643413503278907 -0.001470267190597950978520058740 0.003063314827159047126770019531 0 0 0 0 
2412000000.0000000000 0.168698698282241793533486884371 -0.038363244384527213359792341407 -0.001266049803234637000440288013 0.003174770856276154951808310400 0 0 0 0 
2412166666.6666665077 0.168436586856842013260049384371 -0.039155393838882453227956403907 -0.001132866018451750061632465894 0.003215477103367447853088378906 0 0 0 0 
2412333333.3333334923 0.168168172240257290939169365629 -0.040020700544118881225585937500 -0.000994735397398471832275390625 0.003159104380756617026088095557 0 0 0 0 
2412500000.0000000000 0.167525723576545687576455634371 -0.040848832577466971660573591407 -0.000855779566336423158645629883 0.003134447615593671798706054688 0 0 0 0 
2412666666.6666665077 0.167199194431304903885049384371 -0.041808947920799262309987653907 -0.000723024539183825254440307617 0.003217335091903806166407919775 0 0 0 0 
2412833333.3333334923 0.166761413216590909103231865629 -0.042744621634483337402343750000 -0.000653020397294312715530395508 0.003136799670755863189697265625 0 0 0 0 
2413000000.0000000000 0.166355267167091397384481865629 -0.043710079044103622436523437500 -0.000443681783508509397506713867 0.003177069360390305952784872900 0 0 0 0 
2413166666.6666665077 0.165799558162689208984375000000 -0.044703919440507888793945312500 -0.000350482994690537506907862531 0.003183716908097267150878906250 0 0 0 0 
2413333333.3333334923 0.165338739752769497970419365629 -0.045620344579219818115234375000 -0.000297188060358166694641113281 0.003138516098260879950282431494 0 0 0 0 
2413500000.0000000000 0.164716288447380093673544365629 -0.046750459820032119750976562500 -0.000178658941877074512556353159 0.003057708730921148820164345850 0 0 0 0 
2413666666.6666665077 0.164290487766265896896200615629 -0.047732848674058907245676408593 -0.000182353105628863004132947379 0.003194964258000255064723349463 0 0 0 0 
2413833333.3333334923 0.163594678044319208343182481258 -0.048599805682897567749023437500 -0.000093770759121980518102645874 0.003149045631289482116699218750 0 0 0 0 
2414000000.0000000000 0.163053467869758605957031250000 -0.049798570573329932476003278907 0.000091952533693984150886535645 0.003251493908464909033534384619 0 0 0 0 
2414166666.6666665077 0.162677660584449795821981865629 -0.050574082881212227558176408593 0.000255654013017192482948303223 0.003365933662280439896824502100 0 0 0 0 
2414333333.3333334923 0.162237957119941711425781250000 -0.051633410155773162841796875000 0.000512811588123440742492675781 0.003206261433660984039306640625 0 0 0 0 
2414500000.0000000000 0.161766737699508694747763115629 -0.052478417754173278808593750000 0.000595350400544703006744384766 0.003162365639582275910618447412 0 0 0 0 
2414666666.6666665077 0.161410823464393587967080634371 -0.053507562726736068725585937500 0.000772038532886654138565063477 0.003291689325124024911167763818 0 0 0 0 
2414833333.3333334923 0.160982906818389892578125000000 -0.054752562195062637329101562500 0.000883169414009898900985717773 0.003148741321638226942775107275 0 0 0 0 
2415000000.0000000000 0.160674318671226501464843750000 -0.055731169879436492919921875000 0.001045753131620585918426513672 0.003101333742961287932154990088 0 0 0 0 
2415166666.6666665077 0.160427480936050387283486884371 -0.056925147771835327148437500000 0.001032624044455588080762553638 0.003058826318010687828063964844 0 0 0 0 
2415333333.3333334923 0.160244628787040710449218750000 -0.057959172874689102172851562500 0.001292327186092733903172158350 0.002906276611611247062683105469 0 0 0 0 
2415500000.0000000000 0.160050213336944607833700615629 -0.059212021529674530029296875000 0.001338184927590190930607461084 0.002767059486359357833862304688 0 0 0 0 
2415666666.6666665077 0.159760445356368990799111884371 -0.060368672013282782817800153907 0.001420083572156727097154926831 0.002725613769143819808959960938 0 0 0 0 
2415833333.3333334923 0.159573912620544405838174384371 -0.061778783798217773437500000000 0.001650211168453096909763955225 0.002548885066062211990356445312 0 0 0 0 
2416000000.0000000000 0.159246847033500699142294365629 -0.063054822385311126708984375000 0.001762264524586498954175639575 0.002467149402946234183070517432 0 0 0 0 
2416166666.6666665077 0.159195154905319213867187500000 -0.064397349953651428222656250000 0.001795221236534416892408061450 0.002241386333480476899387978662 0 0 0 0 
2416333333.3333334923 0.158807680010795593261718750000 -0.065599918365478515625000000000 0.001742636086419224955915141528 0.002267408417537807984593056787 0 0 0 0 
2416500000.0000000000 0.158461108803749112228231865629 -0.066977657377719879150390625000 0.001791381859220563931706093896 0.002322959713637828826904296875 0 0 0 0 
2416666666.6666665077 0.158257365226745605468750000000 -0.068164832890033721923828125000 0.001758519327268003983738564600 0.002141491742804646925685263525 0 0 0 0 
2416833333.3333334923 0.158010989427566500564736884371 -0.069477371871471405029296875000 0.002003481844440103010890341650 0.001904642675071954944013286060 0 0 0 0 
2417000000.0000000000 0.157498180866241510589276231258 -0.070798277854919433593750000000 0.001708550262264906926396035303 0.001726829330436884923222207178 0 0 0 0 
2417166666.6666665077 0.157312586903572110275106865629 -0.071816295385360717773437500000 0.001882378826849163012263632666 0.001702674198895693042157817310 0 0 0 0 
2417333333.3333334923 0.156911149621009798904580634371 -0.072905696928501129150390625000 0.001829767716117203018785786206 0.001610494102351367907283163916 0 0 0 0 
2417500000.0000000000 0.156746804714202908614950615629 -0.074086867272853851318359375000 0.001751390751451254107831645435 0.001601384836249053911921835791 0 0 0 0 
2417666666.6666665077 0.156548663973808288574218750000 -0.075026355683803558349609375000 0.001832968788221478895900107275 0.001483758911490439934971474756 0 0 0 0 
2417833333.3333334923 0.156200021505355807205361884371 -0.075881741940975189208984375000 0.001777827390469610907910991138 0.001404794747941195964813232422 0 0 0 0 
2418000000.0000000000 0.155952006578445406814736884371 -0.077028043568134307861328125000 0.001766266650520265102386474609 0.001453873701393604061724018628 0 0 0 0 
2418166666.6666665077 0.155679196119308499435263115629 -0.077649973332881927490234375000 0.001637375331483780904057168115 0.001400490640662610964534140479 0 0 0 0 
2418333333.3333334923 0.155791163444518987457598768742 -0.078665591776371002197265625000 0.001666298252530395984649658203 0.001456767553463578007341694409 0 0 0 0 
2418500000.0000000000 0.155470281839370699783486884371 -0.079385042190551757812500000000 0.001629966078326106071472167969 0.001312885433435440063476562500 0 0 0 0 
2418666666.6666665077 0.155324310064315795898437500000 -0.080402001738548278808593750000 0.001710464362986386039136577075 0.001461801934055984020233154297 0 0 0 0 
2418833333.3333334923 0.154968813061714200118856865629 -0.081210121512413024902343750000 0.001647810102440417029737163013 0.001491254079155623912811279297 0 0 0 0 
2419000000.0000000000 0.154683247208595303634481865629 -0.081852652132511138916015625000 0.001742749242112040953395224463 0.001558217103593050999882363428 0 0 0 0 
2419166666.6666665077 0.154522508382797213455361884371 -0.082613579928874969482421875000 0.001812528003938495895983051831 0.001479994854889810085296630859 0 0 0 0 
2419333333.3333334923 0.154158830642700195312500000000 -0.083216518163681030273437500000 0.001844047452323138930677104419 0.001619989518076180978062295068 0 0 0 0 
2419500000.0000000000 0.154052540659904507736044365629 -0.083905898034572601318359375000 0.002063977764919400215148925781 0.001740836305543779893162392725 0 0 0 0 
2419666666.6666665077 0.153772443532943697830361884371 -0.084594100713729858398437500000 0.001972364727407693862915039062 0.001488480134867131926892924731 0 0 0 0 
2419833333.3333334923 0.153330281376838711837606865629 -0.085046216845512390136718750000 0.002347111469134687943699502100 0.001350416918285191059112548828 0 0 0 0 
