# Version 1.00
#
freq[Hz];re:Trc1_S11;im:Trc1_S11;re:Trc2_S21;im:Trc2_S21;
2.400000000000000E+009;1.729112118482590E-001;4.874368011951447E-002;-7.974308100529015E-004;4.261573776602745E-003;
2.400166666666667E+009;1.735690236091614E-001;4.843926057219505E-002;-6.303410045802593E-004;4.218796733766794E-003;
2.400333333333334E+009;1.738473922014237E-001;4.748029261827469E-002;-6.336121587082744E-004;4.131530877202749E-003;
2.400500000000000E+009;1.742822974920273E-001;4.674535244703293E-002;-5.943766445852816E-004;4.169876221567392E-003;
2.400666666666667E+009;1.748104691505432E-001;4.602781310677528E-002;-5.176112172193825E-004;4.157220479100943E-003;
2.400833333333334E+009;1.752296835184097E-001;4.563626274466515E-002;-5.414400948211551E-004;4.148770589381456E-003;
2.401000000000000E+009;1.752388179302216E-001;4.488411918282509E-002;-4.100807127542794E-004;4.338003695011139E-003;
2.401166666666667E+009;1.754426509141922E-001;4.429280757904053E-002;-4.525689582806081E-004;4.324463196098805E-003;
2.401333333333334E+009;1.756249964237213E-001;4.344408586621285E-002;-3.241583763156086E-004;4.558501765131950E-003;
2.401500000000000E+009;1.759195625782013E-001;4.290843009948731E-002;-2.155698457499966E-004;4.573522135615349E-003;
2.401666666666667E+009;1.758937984704971E-001;4.218816757202148E-002;-1.722953893477097E-004;4.502858035266399E-003;
2.401833333333334E+009;1.756988167762756E-001;4.128541424870491E-002;-2.679764747881563E-006;4.700809717178345E-003;
2.402000000000000E+009;1.755868196487427E-001;4.056870937347412E-002;9.130736725637689E-005;4.652635660022497E-003;
2.402166666666667E+009;1.754485815763474E-001;3.948362544178963E-002;3.810258640442044E-004;4.711752291768789E-003;
2.402333333333334E+009;1.754711717367172E-001;3.851525858044624E-002;3.573375870473683E-004;4.803647287189961E-003;
2.402500000000000E+009;1.752625703811646E-001;3.768803924322128E-002;5.960405687801540E-004;4.802452400326729E-003;
2.402666666666667E+009;1.748730838298798E-001;3.681687265634537E-002;6.856742547824979E-004;4.895580466836691E-003;
2.402833333333334E+009;1.747460365295410E-001;3.545759618282318E-002;8.116029785014689E-004;4.849740304052830E-003;
2.403000000000000E+009;1.744360923767090E-001;3.434155881404877E-002;1.054724212735891E-003;4.750967491418123E-003;
2.403166666666667E+009;1.741570085287094E-001;3.288533911108971E-002;1.277112169191241E-003;4.757007583975792E-003;
2.403333333333334E+009;1.738823503255844E-001;3.159326687455177E-002;1.317269518040121E-003;4.720421042293310E-003;
2.403500000000000E+009;1.733388304710388E-001;3.005995787680149E-002;1.472987467423081E-003;4.658451303839684E-003;
2.403666666666667E+009;1.729578673839569E-001;2.847550436854363E-002;1.773249125108123E-003;4.669496789574623E-003;
2.403833333333334E+009;1.725675761699677E-001;2.686497010290623E-002;1.731986994855106E-003;4.451734013855457E-003;
2.404000000000000E+009;1.722924560308456E-001;2.523547224700451E-002;2.047693822532892E-003;4.407521337270737E-003;
2.404166666666667E+009;1.718228161334992E-001;2.350733429193497E-002;1.906308811157942E-003;4.286175128072500E-003;
2.404333333333334E+009;1.715810596942902E-001;2.174102142453194E-002;2.241029404103756E-003;4.197548143565655E-003;
2.404500000000000E+009;1.709661036729813E-001;1.972317881882191E-002;2.467210870236158E-003;4.001801367849112E-003;
2.404666666666667E+009;1.708334237337112E-001;1.782603003084660E-002;2.317546168342233E-003;3.976750653237104E-003;
2.404833333333334E+009;1.706782579421997E-001;1.597123034298420E-002;2.484758384525776E-003;3.861797507852316E-003;
2.405000000000000E+009;1.704022735357285E-001;1.387282926589251E-002;2.510055201128125E-003;3.857376053929329E-003;
2.405166666666667E+009;1.704020053148270E-001;1.198444422334433E-002;2.593589946627617E-003;3.808673005551100E-003;
2.405333333333334E+009;1.702889949083328E-001;9.827093221247196E-003;2.558316336944699E-003;3.532203845679760E-003;
2.405500000000000E+009;1.703162789344788E-001;7.930020801723003E-003;2.823762129992247E-003;3.676800988614559E-003;
2.405666666666667E+009;1.705301403999329E-001;6.015052553266287E-003;2.763052470982075E-003;3.650867613032460E-003;
2.405833333333334E+009;1.704822629690170E-001;4.058875143527985E-003;2.826398005709052E-003;3.639867762103677E-003;
2.406000000000000E+009;1.707646101713181E-001;1.970525365322828E-003;2.915664343163371E-003;3.635186469182372E-003;
2.406166666666667E+009;1.709966063499451E-001;-5.478947059600614E-005;2.900459570810199E-003;3.497192868962884E-003;
2.406333333333334E+009;1.713487803936005E-001;-2.048807684332132E-003;3.183664055541158E-003;3.417809493839741E-003;
2.406500000000000E+009;1.718841344118118E-001;-4.085324238985777E-003;3.344634780660272E-003;3.433869220316410E-003;
2.406666666666667E+009;1.720667630434036E-001;-5.968216806650162E-003;3.522216109558940E-003;3.347077406942844E-003;
2.406833333333334E+009;1.727592051029205E-001;-8.027668111026287E-003;3.557094605639577E-003;3.297685412690043E-003;
2.407000000000000E+009;1.734202206134796E-001;-1.005235128104687E-002;3.892969107255340E-003;3.157123457640410E-003;
2.407166666666667E+009;1.741848587989807E-001;-1.196278352290392E-002;4.062939435243607E-003;3.221037099137902E-003;
2.407333333333334E+009;1.745913326740265E-001;-1.384410075843334E-002;4.224521573632956E-003;3.100552363321185E-003;
2.407500000000000E+009;1.754011213779450E-001;-1.537938322871923E-002;4.455563146620989E-003;2.890330273658037E-003;
2.407666666666667E+009;1.761809438467026E-001;-1.716578006744385E-002;4.625628236681223E-003;2.714271191507578E-003;
2.407833333333334E+009;1.766082495450974E-001;-1.898100040853024E-002;4.908369854092598E-003;2.455669222399592E-003;
2.408000000000000E+009;1.774752289056778E-001;-2.069246582686901E-002;5.039077717810869E-003;2.223706105723977E-003;
2.408166666666667E+009;1.781330853700638E-001;-2.204716205596924E-002;5.070007406175137E-003;2.092028968036175E-003;
2.408333333333334E+009;1.789349168539047E-001;-2.367123961448669E-002;5.161087960004807E-003;1.775425393134356E-003;
2.408500000000000E+009;1.795285791158676E-001;-2.497448399662972E-002;5.328608211129904E-003;1.364019466564059E-003;
2.408666666666667E+009;1.800543665885925E-001;-2.647758834064007E-002;5.267917644232512E-003;1.045658951625228E-003;
2.408833333333334E+009;1.806408315896988E-001;-2.766939438879490E-002;5.294677801430225E-003;8.150662179104984E-004;
2.409000000000000E+009;1.809929013252258E-001;-2.870913408696652E-002;5.301455967128277E-003;6.373620126396418E-004;
2.409166666666667E+009;1.813752949237824E-001;-2.965537086129189E-002;5.081591662019491E-003;3.829839406535029E-004;
2.409333333333334E+009;1.819506287574768E-001;-3.070769459009171E-002;5.135237704962492E-003;-1.602130339506402E-007;
2.409500000000000E+009;1.822439283132553E-001;-3.161131963133812E-002;5.121481139212847E-003;-2.583765890449286E-004;
2.409666666666667E+009;1.823563873767853E-001;-3.230416029691696E-002;4.741453099995852E-003;-5.024778074584901E-004;
2.409833333333334E+009;1.827982515096664E-001;-3.267043828964233E-002;4.753527697175741E-003;-6.950324750505388E-004;
2.410000000000000E+009;1.830029636621475E-001;-3.327210620045662E-002;4.547661170363426E-003;-9.103198535740376E-004;
2.410166666666667E+009;1.831086874008179E-001;-3.367168456315994E-002;4.476949572563171E-003;-8.955419179983437E-004;
2.410333333333334E+009;1.830352842807770E-001;-3.397313877940178E-002;4.384269472211599E-003;-1.071309437975287E-003;
2.410500000000000E+009;1.833575814962387E-001;-3.434681147336960E-002;4.016102757304907E-003;-1.212615054100752E-003;
2.410666666666667E+009;1.830189377069473E-001;-3.477747738361359E-002;3.938416484743357E-003;-1.493648742325604E-003;
2.410833333333334E+009;1.831073909997940E-001;-3.503929078578949E-002;3.946321550756693E-003;-1.329033868387342E-003;
2.411000000000000E+009;1.827592402696610E-001;-3.534930199384689E-002;3.778522834181786E-003;-1.601045485585928E-003;
2.411166666666667E+009;1.825466752052307E-001;-3.576160222291946E-002;3.539208555594087E-003;-1.720720785669982E-003;
2.411333333333334E+009;1.822230964899063E-001;-3.573541715741158E-002;3.372892038896680E-003;-1.764793996699154E-003;
2.411500000000000E+009;1.816402077674866E-001;-3.641926869750023E-002;3.274589311331511E-003;-1.823471626266837E-003;
2.411666666666667E+009;1.811444461345673E-001;-3.662254288792610E-002;2.948123263195157E-003;-1.831678440794349E-003;
2.411833333333334E+009;1.805055141448975E-001;-3.698850050568581E-002;2.979533746838570E-003;-1.974997576326132E-003;
2.412000000000000E+009;1.799547076225281E-001;-3.744956851005554E-002;2.837829291820526E-003;-1.786048873327673E-003;
2.412166666666667E+009;1.788906604051590E-001;-3.782738745212555E-002;2.641319762915373E-003;-1.882851473055780E-003;
2.412333333333334E+009;1.782286018133164E-001;-3.827793523669243E-002;2.514722989872098E-003;-1.877346774563193E-003;
2.412500000000000E+009;1.771617680788040E-001;-3.885463252663612E-002;2.349100308492780E-003;-1.634091720916331E-003;
2.412666666666667E+009;1.762522757053375E-001;-3.948748856782913E-002;2.187480218708515E-003;-1.482452964410186E-003;
2.412833333333334E+009;1.749645620584488E-001;-4.032679274678230E-002;2.323545748367906E-003;-1.751569448970258E-003;
2.413000000000000E+009;1.738548725843430E-001;-4.080931842327118E-002;2.090181224048138E-003;-1.463481574319303E-003;
2.413166666666667E+009;1.726333498954773E-001;-4.162212461233139E-002;1.920315437018871E-003;-1.264607650227845E-003;
2.413333333333334E+009;1.713631153106690E-001;-4.262147471308708E-002;2.046298934146762E-003;-1.279263989999890E-003;
2.413500000000000E+009;1.700185239315033E-001;-4.360042512416840E-002;2.016528276726604E-003;-1.063090632669628E-003;
2.413666666666667E+009;1.688787937164307E-001;-4.458739235997200E-002;2.041798317804933E-003;-1.149513060227037E-003;
2.413833333333334E+009;1.675048172473908E-001;-4.558956250548363E-002;2.081008395180106E-003;-1.043773256242275E-003;
2.414000000000000E+009;1.660517752170563E-001;-4.684164747595787E-002;2.139874035492539E-003;-9.725358686409891E-004;
2.414166666666667E+009;1.650748997926712E-001;-4.795946925878525E-002;2.150059444829822E-003;-8.168735075742006E-004;
2.414333333333334E+009;1.637373566627502E-001;-4.938921704888344E-002;2.323226071894169E-003;-8.359441417269409E-004;
2.414500000000000E+009;1.627398282289505E-001;-5.056747794151306E-002;2.180958166718483E-003;-7.407102966681123E-004;
2.414666666666667E+009;1.615010350942612E-001;-5.209965258836746E-002;2.371975453570485E-003;-7.072347798384726E-004;
2.414833333333334E+009;1.603952050209045E-001;-5.374402180314064E-002;2.434847643598914E-003;-8.660061866976321E-004;
2.415000000000000E+009;1.592222601175308E-001;-5.535003170371056E-002;2.605709945783019E-003;-7.127115968614817E-004;
2.415166666666667E+009;1.584583669900894E-001;-5.701993778347969E-002;2.570915967226028E-003;-8.610715740360320E-004;
2.415333333333334E+009;1.577199846506119E-001;-5.881814286112785E-002;2.890515141189098E-003;-8.813338936306536E-004;
2.415500000000000E+009;1.568130701780319E-001;-6.058207154273987E-002;2.864449284970760E-003;-9.271797607652843E-004;
2.415666666666667E+009;1.559790968894959E-001;-6.242526322603226E-002;2.854815917089582E-003;-9.252085001207888E-004;
2.415833333333334E+009;1.552972346544266E-001;-6.436884403228760E-002;2.870435127988458E-003;-1.082074712030590E-003;
2.416000000000000E+009;1.545834541320801E-001;-6.620792299509049E-002;3.053517080843449E-003;-1.509662717580795E-003;
2.416166666666667E+009;1.542360037565231E-001;-6.832853704690933E-002;3.201764775440097E-003;-1.327531761489809E-003;
2.416333333333334E+009;1.535807549953461E-001;-7.016958296298981E-002;3.284612903371453E-003;-1.501270686276257E-003;
2.416500000000000E+009;1.531890183687210E-001;-7.205621898174286E-002;3.245853818953037E-003;-1.663035480305553E-003;
2.416666666666667E+009;1.527591198682785E-001;-7.408042997121811E-002;3.244510618969798E-003;-1.777340774424374E-003;
2.416833333333334E+009;1.524624973535538E-001;-7.609725743532181E-002;3.336402820423245E-003;-1.967302756384015E-003;
2.417000000000000E+009;1.521479487419128E-001;-7.809948176145554E-002;3.194166347384453E-003;-1.974343322217464E-003;
2.417166666666667E+009;1.520124971866608E-001;-7.980379462242127E-002;3.409597789868712E-003;-2.206085016950965E-003;
2.417333333333334E+009;1.518627256155014E-001;-8.155842870473862E-002;3.225535852834582E-003;-2.349648857489228E-003;
2.417500000000000E+009;1.517006307840347E-001;-8.343021571636200E-002;3.274094546213746E-003;-2.371710026636720E-003;
2.417666666666667E+009;1.518328636884689E-001;-8.487533032894135E-002;3.233375959098339E-003;-2.690772060304880E-003;
2.417833333333334E+009;1.518032103776932E-001;-8.651552349328995E-002;3.049849299713969E-003;-2.768976613879204E-003;
2.418000000000000E+009;1.518356949090958E-001;-8.799502253532410E-002;3.153586992993951E-003;-2.979101613163948E-003;
2.418166666666667E+009;1.518734842538834E-001;-8.916949480772018E-002;3.063273383304477E-003;-3.113943152129650E-003;
2.418333333333334E+009;1.521978825330734E-001;-9.069255739450455E-002;3.004146274179220E-003;-3.287725383415818E-003;
2.418500000000000E+009;1.523518562316895E-001;-9.175721555948257E-002;2.843390684574843E-003;-3.455517115071416E-003;
2.418666666666667E+009;1.525663584470749E-001;-9.296388924121857E-002;2.840800909325481E-003;-3.546450054273009E-003;
2.418833333333334E+009;1.525302380323410E-001;-9.390489012002945E-002;2.687616040930152E-003;-3.653567750006914E-003;
2.419000000000000E+009;1.526824980974197E-001;-9.475123137235642E-002;2.481273375451565E-003;-3.758392296731472E-003;
2.419166666666667E+009;1.529389321804047E-001;-9.541165828704834E-002;2.492398489266634E-003;-3.893848508596420E-003;
2.419333333333334E+009;1.531459391117096E-001;-9.574753046035767E-002;2.222128678113222E-003;-4.008361138403416E-003;
2.419500000000000E+009;1.533289849758148E-001;-9.657565504312515E-002;2.133952453732491E-003;-4.015052225440741E-003;
2.419666666666667E+009;1.536582112312317E-001;-9.706624597311020E-002;1.934430096298456E-003;-4.074550233781338E-003;
2.419833333333334E+009;1.537217050790787E-001;-9.723214060068131E-002;1.849787891842425E-003;-4.171713721007109E-003;
2.420000000000000E+009;1.539291888475418E-001;-9.736841171979904E-002;1.798767363652587E-003;-4.183354321867228E-003;
2.420166666666667E+009;1.539024561643601E-001;-9.746579080820084E-002;1.482370891608298E-003;-4.356249235570431E-003;
2.420333333333334E+009;1.539960652589798E-001;-9.743142873048782E-002;1.493774587288499E-003;-4.322386346757412E-003;
2.420500000000000E+009;1.542596817016602E-001;-9.726890921592712E-002;1.385154318995774E-003;-4.429001361131668E-003;
2.420666666666667E+009;1.541717648506165E-001;-9.708120673894882E-002;1.161674037575722E-003;-4.468018189072609E-003;
2.420833333333334E+009;1.540773212909699E-001;-9.692405909299851E-002;1.063006347976625E-003;-4.581262823194265E-003;
2.421000000000000E+009;1.539702266454697E-001;-9.676141291856766E-002;7.749543292447925E-004;-4.677800927311182E-003;
2.421166666666667E+009;1.537306159734726E-001;-9.638517349958420E-002;8.760060300119221E-004;-4.652887582778931E-003;
2.421333333333334E+009;1.535588651895523E-001;-9.625089168548584E-002;5.900115356780589E-004;-4.800202324986458E-003;
2.421500000000000E+009;1.532118618488312E-001;-9.599629789590836E-002;4.225138400215656E-004;-4.874727688729763E-003;
2.421666666666667E+009;1.529026031494141E-001;-9.569312632083893E-002;2.411653986200690E-004;-4.779827781021595E-003;
2.421833333333334E+009;1.523151546716690E-001;-9.526709467172623E-002;1.619454269530252E-004;-4.693489521741867E-003;
2.422000000000000E+009;1.516596078872681E-001;-9.508773684501648E-002;1.008304316201247E-004;-4.751149564981461E-003;
2.422166666666667E+009;1.509319096803665E-001;-9.486241638660431E-002;-1.179380196845159E-004;-4.675013013184071E-003;
2.422333333333334E+009;1.500551551580429E-001;-9.471514821052551E-002;-2.324089437024668E-004;-4.559134133160114E-003;
2.422500000000000E+009;1.490932106971741E-001;-9.428951889276505E-002;-3.786082670558244E-004;-4.666635766625404E-003;
2.422666666666667E+009;1.478476077318192E-001;-9.417725354433060E-002;-5.313637666404247E-004;-4.566022660583258E-003;
2.422833333333334E+009;1.469002664089203E-001;-9.418752044439316E-002;-5.455646314658225E-004;-4.620730411261320E-003;
2.423000000000000E+009;1.457183957099915E-001;-9.405427426099777E-002;-6.760568940080702E-004;-4.688497167080641E-003;
2.423166666666667E+009;1.444080770015717E-001;-9.409308433532715E-002;-7.254111696965993E-004;-4.382516257464886E-003;
2.423333333333334E+009;1.430149972438812E-001;-9.393335133790970E-002;-8.928475435823202E-004;-4.342676606029272E-003;
2.423500000000000E+009;1.415360867977142E-001;-9.416599571704865E-002;-8.051636395975947E-004;-4.163759760558605E-003;
2.423666666666667E+009;1.399726420640945E-001;-9.414703398942947E-002;-9.020310244522989E-004;-4.420290701091290E-003;
2.423833333333334E+009;1.386412531137466E-001;-9.435205906629562E-002;-8.450642926618457E-004;-4.361836705356836E-003;
2.424000000000000E+009;1.369381397962570E-001;-9.450188279151917E-002;-9.531218092888594E-004;-4.489269107580185E-003;
2.424166666666667E+009;1.355212777853012E-001;-9.490023553371429E-002;-9.573905845172703E-004;-4.553173203021288E-003;
2.424333333333334E+009;1.340726464986801E-001;-9.540692716836929E-002;-1.194664975628257E-003;-4.536080639809370E-003;
2.424500000000000E+009;1.327386796474457E-001;-9.576736390590668E-002;-1.188853057101369E-003;-4.914811812341213E-003;
2.424666666666667E+009;1.313760876655579E-001;-9.629862010478973E-002;-1.342007657513022E-003;-4.709037952125073E-003;
2.424833333333334E+009;1.297531574964523E-001;-9.707348793745041E-002;-1.462419750168920E-003;-5.042999982833862E-003;
2.425000000000000E+009;1.283615827560425E-001;-9.801398217678070E-002;-1.743330154567957E-003;-4.958629608154297E-003;
2.425166666666667E+009;1.268463879823685E-001;-9.884160757064819E-002;-1.791000366210938E-003;-4.958149045705795E-003;
2.425333333333334E+009;1.256410926580429E-001;-9.985546767711639E-002;-2.086153253912926E-003;-5.052912048995495E-003;
2.425500000000000E+009;1.244122236967087E-001;-1.009707227349281E-001;-2.386879874393344E-003;-5.133862607181072E-003;
2.425666666666667E+009;1.230755671858788E-001;-1.022311672568321E-001;-2.442465862259269E-003;-5.226751789450645E-003;
2.425833333333334E+009;1.221392005681992E-001;-1.034163758158684E-001;-2.755620284006000E-003;-5.036399234086275E-003;
2.426000000000000E+009;1.210582926869392E-001;-1.048857346177101E-001;-2.963594626635313E-003;-4.947466775774956E-003;
2.426166666666667E+009;1.202783212065697E-001;-1.063267514109612E-001;-3.124744398519397E-003;-5.098788533359766E-003;
2.426333333333334E+009;1.191779449582100E-001;-1.078214794397354E-001;-3.361451672390103E-003;-4.732648842036724E-003;
2.426500000000000E+009;1.184882447123528E-001;-1.092490702867508E-001;-3.466505324468017E-003;-4.572845529764891E-003;
2.426666666666667E+009;1.177707388997078E-001;-1.107490062713623E-001;-3.745959606021643E-003;-4.584889393299818E-003;
2.426833333333334E+009;1.169427484273911E-001;-1.123925670981407E-001;-3.858846379444003E-003;-4.462587181478739E-003;
2.427000000000000E+009;1.163253709673882E-001;-1.140490397810936E-001;-3.916848450899124E-003;-4.432918038219214E-003;
2.427166666666667E+009;1.157820597290993E-001;-1.155141443014145E-001;-4.237649962306023E-003;-4.368784371763468E-003;
2.427333333333334E+009;1.154051050543785E-001;-1.171699985861778E-001;-4.374670796096325E-003;-4.111314658075571E-003;
2.427500000000000E+009;1.151187643408775E-001;-1.188570261001587E-001;-4.490743856877089E-003;-4.142860416322947E-003;
2.427666666666667E+009;1.147942692041397E-001;-1.204267889261246E-001;-4.751475527882576E-003;-3.880036529153585E-003;
