# Version 1.00
#
freq[Hz];re:Trc1_S11;im:Trc1_S11;re:Trc2_S21;im:Trc2_S21;
2.400000000000000E+009;1.726717501878738E-001;4.886617511510849E-002;-5.365357501432300E-004;4.242941737174988E-003;
2.400166666666667E+009;1.734642088413239E-001;4.830304160714150E-002;-4.968716530129314E-004;4.120273049920797E-003;
2.400333333333334E+009;1.739639490842819E-001;4.740360379219055E-002;-7.078204071149230E-004;4.132782109081745E-003;
2.400500000000000E+009;1.744485944509506E-001;4.677176102995873E-002;-5.132519872859120E-004;4.167719278484583E-003;
2.400666666666667E+009;1.746057420969009E-001;4.614497348666191E-002;-6.546842050738633E-004;4.413430579006672E-003;
2.400833333333334E+009;1.749055981636047E-001;4.552704840898514E-002;-5.783942178823054E-004;4.214379470795393E-003;
2.401000000000000E+009;1.751748621463776E-001;4.489300400018692E-002;-5.440256209112704E-004;4.156463779509068E-003;
2.401166666666667E+009;1.755243390798569E-001;4.407816752791405E-002;-5.011839675717056E-004;4.414955619722605E-003;
2.401333333333334E+009;1.756170988082886E-001;4.323571547865868E-002;-4.686152387876064E-004;4.468370229005814E-003;
2.401500000000000E+009;1.758578568696976E-001;4.289771988987923E-002;-4.348240036051720E-004;4.490684717893601E-003;
2.401666666666667E+009;1.758802235126495E-001;4.226733744144440E-002;-3.113993152510375E-004;4.741686861962080E-003;
2.401833333333334E+009;1.757381707429886E-001;4.147695749998093E-002;-2.080508274957538E-004;4.837393760681152E-003;
2.402000000000000E+009;1.757088750600815E-001;4.051424562931061E-002;-9.132317063631490E-005;4.731282126158476E-003;
2.402166666666667E+009;1.755033582448959E-001;3.959174454212189E-002;1.666603639023379E-004;4.792980384081602E-003;
2.402333333333334E+009;1.753776371479034E-001;3.876794129610062E-002;4.817704902961850E-004;4.854360129684210E-003;
2.402500000000000E+009;1.754252165555954E-001;3.763228654861450E-002;5.267867236398161E-004;4.969952628016472E-003;
2.402666666666667E+009;1.750445663928986E-001;3.643894940614700E-002;6.187761318869889E-004;5.095728673040867E-003;
2.402833333333334E+009;1.748003959655762E-001;3.550194948911667E-002;8.619186701253057E-004;4.821960814297199E-003;
2.403000000000000E+009;1.744700521230698E-001;3.424561396241188E-002;1.004058984108269E-003;4.979019984602928E-003;
2.403166666666667E+009;1.741646826267242E-001;3.291637822985649E-002;1.183202140964568E-003;4.888248164206743E-003;
2.403333333333334E+009;1.737765669822693E-001;3.135305643081665E-002;1.398360938765109E-003;4.692526534199715E-003;
2.403500000000000E+009;1.735088825225830E-001;3.001434728503227E-002;1.588511280715466E-003;4.649984184652567E-003;
2.403666666666667E+009;1.730736792087555E-001;2.830305695533752E-002;1.662920112721622E-003;4.550540354102850E-003;
2.403833333333334E+009;1.726908385753632E-001;2.683526650071144E-002;1.762845902703702E-003;4.429940134286881E-003;
2.404000000000000E+009;1.723575890064240E-001;2.511598169803619E-002;1.993229845538735E-003;4.593096673488617E-003;
2.404166666666667E+009;1.718357354402542E-001;2.330261096358299E-002;2.231335733085871E-003;4.461831878870726E-003;
2.404333333333334E+009;1.715312600135803E-001;2.163648046553135E-002;2.268066629767418E-003;4.171732347458601E-003;
2.404500000000000E+009;1.710469424724579E-001;1.973177678883076E-002;2.416194649413228E-003;4.168339073657990E-003;
2.404666666666667E+009;1.708928942680359E-001;1.782361790537834E-002;2.369433408603072E-003;4.024384077638388E-003;
2.404833333333334E+009;1.707234531641007E-001;1.578863151371479E-002;2.519636647775769E-003;3.897652495652437E-003;
2.405000000000000E+009;1.705459207296372E-001;1.381426956504583E-002;2.509984886273742E-003;3.915272653102875E-003;
2.405166666666667E+009;1.701941639184952E-001;1.188949681818485E-002;2.559570595622063E-003;3.763270331546664E-003;
2.405333333333334E+009;1.703170835971832E-001;9.766619652509689E-003;2.524408511817455E-003;3.660163376480341E-003;
2.405500000000000E+009;1.703153401613236E-001;7.976594381034374E-003;2.548707881942391E-003;3.669936908408999E-003;
2.405666666666667E+009;1.703366935253143E-001;5.975330714136362E-003;2.789930207654834E-003;3.682479262351990E-003;
2.405833333333334E+009;1.704482436180115E-001;3.926462028175592E-003;2.727980026975274E-003;3.521623555570841E-003;
2.406000000000000E+009;1.707951277494431E-001;1.866568229161203E-003;2.836976898834109E-003;3.575774841010571E-003;
2.406166666666667E+009;1.709781736135483E-001;-5.677564331563190E-005;3.028386970981956E-003;3.427248215302825E-003;
2.406333333333334E+009;1.714452952146530E-001;-2.058331388980150E-003;3.236865159124136E-003;3.528875531628728E-003;
2.406500000000000E+009;1.717999279499054E-001;-4.091494716703892E-003;3.294810885563493E-003;3.390944562852383E-003;
2.406666666666667E+009;1.720811575651169E-001;-6.064145825803280E-003;3.396612592041493E-003;3.525167703628540E-003;
2.406833333333334E+009;1.728533953428268E-001;-8.154829032719135E-003;3.745747730135918E-003;3.300084965303540E-003;
2.407000000000000E+009;1.733366698026657E-001;-1.007867697626352E-002;3.776046913117170E-003;3.390143625438213E-003;
2.407166666666667E+009;1.740596741437912E-001;-1.185954548418522E-002;4.089114256203175E-003;3.218727186322212E-003;
2.407333333333334E+009;1.746446639299393E-001;-1.373922824859619E-002;4.338550847023726E-003;2.981261815875769E-003;
2.407500000000000E+009;1.753519773483276E-001;-1.548788137733936E-002;4.417738877236843E-003;2.936676377430558E-003;
2.407666666666667E+009;1.761790812015533E-001;-1.724221184849739E-002;4.641935694962740E-003;2.752501983195543E-003;
2.407833333333334E+009;1.767174154520035E-001;-1.905561424791813E-002;4.693325143307447E-003;2.477277070283890E-003;
2.408000000000000E+009;1.774706691503525E-001;-2.058038860559464E-002;4.928187001496553E-003;2.157764043658972E-003;
2.408166666666667E+009;1.781179457902908E-001;-2.210877276957035E-002;4.993827082216740E-003;2.016638172790408E-003;
2.408333333333334E+009;1.789520382881165E-001;-2.351856790482998E-002;5.079983267933130E-003;1.596912741661072E-003;
2.408500000000000E+009;1.795539855957031E-001;-2.510398440063000E-002;5.265830084681511E-003;1.306318910792470E-003;
2.408666666666667E+009;1.802018731832504E-001;-2.646210603415966E-002;5.265745334327221E-003;1.128027332015336E-003;
2.408833333333334E+009;1.806161403656006E-001;-2.760145254433155E-002;5.306723527610302E-003;8.907006122171879E-004;
2.409000000000000E+009;1.810021847486496E-001;-2.867270261049271E-002;5.078394897282124E-003;5.828407010994852E-004;
2.409166666666667E+009;1.814848929643631E-001;-2.977037057280541E-002;5.015546455979347E-003;2.626564528327435E-004;
2.409333333333334E+009;1.819668412208557E-001;-3.051435761153698E-002;5.149657838046551E-003;3.085609205299988E-005;
2.409500000000000E+009;1.823003292083740E-001;-3.159556910395622E-002;4.917334765195847E-003;-2.117147087119520E-004;
2.409666666666667E+009;1.825534701347351E-001;-3.226757794618607E-002;4.746331833302975E-003;-5.083948490209878E-004;
2.409833333333334E+009;1.827389597892761E-001;-3.269838541746140E-002;4.685929976403713E-003;-5.814845790155232E-004;
2.410000000000000E+009;1.830884367227554E-001;-3.335021063685417E-002;4.608174785971642E-003;-9.048455976881087E-004;
2.410166666666667E+009;1.832642704248428E-001;-3.353856503963471E-002;4.394634161144495E-003;-8.459750097244978E-004;
2.410333333333334E+009;1.832623332738876E-001;-3.398247063159943E-002;4.307247698307037E-003;-1.044502947479487E-003;
2.410500000000000E+009;1.832055598497391E-001;-3.440225496888161E-002;4.148750100284815E-003;-1.135599333792925E-003;
2.410666666666667E+009;1.832223683595657E-001;-3.496927395462990E-002;3.966222982853651E-003;-1.427370239980519E-003;
2.410833333333334E+009;1.830177754163742E-001;-3.500096127390862E-002;3.849394153803587E-003;-1.261644880287349E-003;
2.411000000000000E+009;1.828442513942719E-001;-3.537637740373612E-002;3.691036719828844E-003;-1.441304339095950E-003;
2.411166666666667E+009;1.825499534606934E-001;-3.560042008757591E-002;3.653303021565080E-003;-1.585009973496199E-003;
2.411333333333334E+009;1.822161525487900E-001;-3.606978058815002E-002;3.613604698330164E-003;-1.654237275943160E-003;
2.411500000000000E+009;1.816990375518799E-001;-3.660531342029572E-002;3.207699628546834E-003;-1.690349425189197E-003;
2.411666666666667E+009;1.812494397163391E-001;-3.668430820107460E-002;3.111739177256823E-003;-1.694831531494856E-003;
2.411833333333334E+009;1.804372966289520E-001;-3.702031075954437E-002;2.820414956659079E-003;-1.752377487719059E-003;
2.412000000000000E+009;1.799678057432175E-001;-3.736349567770958E-002;2.870778087526560E-003;-1.823581638745964E-003;
2.412166666666667E+009;1.790170371532440E-001;-3.803362324833870E-002;2.533483784645796E-003;-1.774712582118809E-003;
2.412333333333334E+009;1.781826466321945E-001;-3.843609243631363E-002;2.517824061214924E-003;-1.647279481403530E-003;
2.412500000000000E+009;1.772064417600632E-001;-3.893293067812920E-002;2.316674916073680E-003;-1.622140873223543E-003;
2.412666666666667E+009;1.761960983276367E-001;-3.984355926513672E-002;2.385584171861410E-003;-1.669601420871913E-003;
2.412833333333334E+009;1.750460416078568E-001;-4.039588198065758E-002;2.333938842639327E-003;-1.508570159785450E-003;
2.413000000000000E+009;1.739027351140976E-001;-4.073670506477356E-002;2.202611416578293E-003;-1.583205768838525E-003;
2.413166666666667E+009;1.726267337799072E-001;-4.174163192510605E-002;1.963193761184812E-003;-1.349945436231792E-003;
2.413333333333334E+009;1.713868677616119E-001;-4.265183955430985E-002;1.878980430774391E-003;-1.266938284970820E-003;
2.413500000000000E+009;1.701507568359375E-001;-4.359078779816628E-002;2.025924390181899E-003;-1.119342283345759E-003;
2.413666666666667E+009;1.689474433660507E-001;-4.467831924557686E-002;1.950750709511340E-003;-1.040113507770002E-003;
2.413833333333334E+009;1.675601303577423E-001;-4.565716162323952E-002;2.084764651954174E-003;-1.007536193355918E-003;
2.414000000000000E+009;1.661018133163452E-001;-4.692775011062622E-002;1.912368228659034E-003;-8.923164568841457E-004;
2.414166666666667E+009;1.649172604084015E-001;-4.813372343778610E-002;2.093321410939097E-003;-8.142613223753870E-004;
2.414333333333334E+009;1.637579649686813E-001;-4.927166551351547E-002;2.198950387537479E-003;-8.462117984890938E-004;
2.414500000000000E+009;1.627327501773834E-001;-5.070648714900017E-002;2.298881532624364E-003;-8.409513975493610E-004;
2.414666666666667E+009;1.615929454565048E-001;-5.209478363394737E-002;2.237324370071292E-003;-6.560145411640406E-004;
2.414833333333334E+009;1.604483276605606E-001;-5.376781895756722E-002;2.485399134457111E-003;-7.303320453502238E-004;
2.415000000000000E+009;1.593364626169205E-001;-5.539137497544289E-002;2.383106853812933E-003;-8.657721336930990E-004;
2.415166666666667E+009;1.583695560693741E-001;-5.703343823552132E-002;2.765985904261470E-003;-8.145803585648537E-004;
2.415333333333334E+009;1.575849950313568E-001;-5.883284658193588E-002;2.771595027297735E-003;-9.416764369234443E-004;
2.415500000000000E+009;1.566825807094574E-001;-6.053708866238594E-002;2.731530927121639E-003;-9.432802908122540E-004;
2.415666666666667E+009;1.558279842138290E-001;-6.234588101506233E-002;2.780291251838207E-003;-9.382959688082337E-004;
2.415833333333334E+009;1.551258414983749E-001;-6.436301767826080E-002;3.044944256544113E-003;-1.182902720756829E-003;
2.416000000000000E+009;1.545056253671646E-001;-6.622850894927979E-002;2.928503556177020E-003;-1.231097616255283E-003;
2.416166666666667E+009;1.541512161493301E-001;-6.830545514822006E-002;3.219142090529203E-003;-1.328847254626453E-003;
2.416333333333334E+009;1.535320430994034E-001;-7.014610618352890E-002;3.137011080980301E-003;-1.378938322886825E-003;
2.416500000000000E+009;1.531225740909576E-001;-7.223435491323471E-002;3.132010577246547E-003;-1.578303985297680E-003;
2.416666666666667E+009;1.526220142841339E-001;-7.410668581724167E-002;3.281709738075733E-003;-1.714365324005485E-003;
2.416833333333334E+009;1.524273604154587E-001;-7.604025304317474E-002;3.243504092097282E-003;-1.712590456008911E-003;
2.417000000000000E+009;1.520245224237442E-001;-7.803954929113388E-002;3.268108237534761E-003;-2.094461582601070E-003;
2.417166666666667E+009;1.519173979759216E-001;-7.977738976478577E-002;3.345082281157374E-003;-2.341208513826132E-003;
2.417333333333334E+009;1.517532616853714E-001;-8.149372041225433E-002;3.352934028953314E-003;-2.241183305159211E-003;
2.417500000000000E+009;1.516357064247131E-001;-8.335095643997192E-002;3.236679127439857E-003;-2.414939226582646E-003;
2.417666666666667E+009;1.517058014869690E-001;-8.482148498296738E-002;3.175548277795315E-003;-2.502992982044816E-003;
2.417833333333334E+009;1.517842859029770E-001;-8.641535788774490E-002;3.183194203302264E-003;-2.862362889572978E-003;
2.418000000000000E+009;1.517851054668427E-001;-8.810630440711975E-002;2.994214184582233E-003;-2.829438773915172E-003;
2.418166666666667E+009;1.518907248973846E-001;-8.926375955343247E-002;3.008906729519367E-003;-3.090206300839782E-003;
2.418333333333334E+009;1.521938890218735E-001;-9.063940495252609E-002;2.895617391914129E-003;-3.216029843315482E-003;
2.418500000000000E+009;1.523123383522034E-001;-9.180869907140732E-002;2.831835532560945E-003;-3.451695200055838E-003;
2.418666666666667E+009;1.525079756975174E-001;-9.300005435943604E-002;2.661868697032332E-003;-3.526868298649788E-003;
2.418833333333334E+009;1.525079011917114E-001;-9.394824504852295E-002;2.707804087549448E-003;-3.510712878778577E-003;
2.419000000000000E+009;1.526489406824112E-001;-9.467721730470657E-002;2.442806493490934E-003;-3.778906306251884E-003;
2.419166666666667E+009;1.529439687728882E-001;-9.531871229410172E-002;2.328634494915605E-003;-3.792904783040285E-003;
2.419333333333334E+009;1.530330926179886E-001;-9.572886675596237E-002;2.245779614895582E-003;-4.073182120919228E-003;
2.419500000000000E+009;1.532679200172424E-001;-9.646886587142944E-002;2.091359579935670E-003;-3.998300060629845E-003;
2.419666666666667E+009;1.534855812788010E-001;-9.689308702945709E-002;1.813103328458965E-003;-4.108554683625698E-003;
2.419833333333334E+009;1.536303162574768E-001;-9.704279154539108E-002;1.864186837337911E-003;-4.179029259830713E-003;
2.420000000000000E+009;1.538494974374771E-001;-9.716612100601196E-002;1.722499029710889E-003;-4.127618856728077E-003;
2.420166666666667E+009;1.539648771286011E-001;-9.747953712940216E-002;1.508928486146033E-003;-4.233916755765677E-003;
2.420333333333334E+009;1.540916860103607E-001;-9.761057794094086E-002;1.499353558756411E-003;-4.228070378303528E-003;
2.420500000000000E+009;1.542596220970154E-001;-9.727767109870911E-002;1.428373041562736E-003;-4.452343564480543E-003;
2.420666666666667E+009;1.540852040052414E-001;-9.688061475753784E-002;1.265275874175131E-003;-4.530827049165964E-003;
2.420833333333334E+009;1.541704088449478E-001;-9.691269695758820E-002;1.134832971729338E-003;-4.451976623386145E-003;
2.421000000000000E+009;1.539493352174759E-001;-9.675385057926178E-002;9.481452871114016E-004;-4.533231724053621E-003;
2.421166666666667E+009;1.539060622453690E-001;-9.642525017261505E-002;8.520205155946314E-004;-4.598658531904221E-003;
2.421333333333334E+009;1.536953896284103E-001;-9.613272547721863E-002;6.091462564654648E-004;-4.682579077780247E-003;
2.421500000000000E+009;1.530842483043671E-001;-9.573668986558914E-002;4.552620521280915E-004;-4.704432561993599E-003;
2.421666666666667E+009;1.529443711042404E-001;-9.557412564754486E-002;3.904160694219172E-004;-4.790823440998793E-003;
2.421833333333334E+009;1.522882431745529E-001;-9.508706629276276E-002;1.190804905490950E-004;-4.552668426185846E-003;
2.422000000000000E+009;1.516019850969315E-001;-9.495601803064346E-002;2.522042996133678E-005;-4.775667097419500E-003;
2.422166666666667E+009;1.508679389953613E-001;-9.490855783224106E-002;-2.468936727382243E-004;-4.673182498663664E-003;
2.422333333333334E+009;1.501576751470566E-001;-9.449609369039536E-002;-3.413412487134337E-004;-4.675712902098894E-003;
2.422500000000000E+009;1.490583866834641E-001;-9.431813657283783E-002;-3.919672453776002E-004;-4.532589577138424E-003;
2.422666666666667E+009;1.479404717683792E-001;-9.421678632497788E-002;-6.043821922503412E-004;-4.611834418028593E-003;
2.422833333333334E+009;1.470305919647217E-001;-9.408236294984818E-002;-7.247171597555280E-004;-4.482494667172432E-003;
2.423000000000000E+009;1.456617861986160E-001;-9.395316988229752E-002;-8.134196395985782E-004;-4.508023615926504E-003;
2.423166666666667E+009;1.443744748830795E-001;-9.392590075731278E-002;-6.419694982469082E-004;-4.466192796826363E-003;
2.423333333333334E+009;1.430681794881821E-001;-9.372530877590179E-002;-8.042626432143152E-004;-4.378551617264748E-003;
2.423500000000000E+009;1.416422277688980E-001;-9.412034600973129E-002;-7.896332535892725E-004;-4.443211946636438E-003;
2.423666666666667E+009;1.399438381195068E-001;-9.409092366695404E-002;-7.759265718050301E-004;-4.480470903217793E-003;
2.423833333333334E+009;1.387149989604950E-001;-9.434298425912857E-002;-8.365786634385586E-004;-4.496610257774591E-003;
2.424000000000000E+009;1.370244324207306E-001;-9.449191391468048E-002;-8.648652583360672E-004;-4.608571063727140E-003;
2.424166666666667E+009;1.354951411485672E-001;-9.482514113187790E-002;-9.034472168423235E-004;-4.578405991196632E-003;
2.424333333333334E+009;1.340783536434174E-001;-9.519787877798080E-002;-1.126786461099982E-003;-4.775336943566799E-003;
2.424500000000000E+009;1.326624453067780E-001;-9.594489634037018E-002;-1.147435395978391E-003;-4.848231095820665E-003;
2.424666666666667E+009;1.313836127519608E-001;-9.625235944986343E-002;-1.238444820046425E-003;-4.772386513650417E-003;
2.424833333333334E+009;1.297300606966019E-001;-9.708327800035477E-002;-1.446057809516788E-003;-4.963402636349201E-003;
2.425000000000000E+009;1.283851861953735E-001;-9.790023416280747E-002;-1.521878759376705E-003;-4.929854534566402E-003;
2.425166666666667E+009;1.269069314002991E-001;-9.891991317272186E-002;-1.735016820020974E-003;-4.866691771894693E-003;
2.425333333333334E+009;1.257560998201370E-001;-9.996804594993591E-002;-1.975420163944364E-003;-5.104383919388056E-003;
2.425500000000000E+009;1.245013847947121E-001;-1.010724678635597E-001;-2.292826306074858E-003;-5.045863334089518E-003;
2.425666666666667E+009;1.231709271669388E-001;-1.021944433450699E-001;-2.406503772363067E-003;-5.031298846006393E-003;
2.425833333333334E+009;1.221537217497826E-001;-1.036152988672257E-001;-2.784234471619129E-003;-4.991340450942516E-003;
2.426000000000000E+009;1.210749819874764E-001;-1.049592569470406E-001;-2.798113739117980E-003;-5.019576754420996E-003;
2.426166666666667E+009;1.202099546790123E-001;-1.064083203673363E-001;-3.168536582961679E-003;-4.838876891881228E-003;
2.426333333333334E+009;1.192065104842186E-001;-1.077478528022766E-001;-3.498367266729474E-003;-4.806234035640955E-003;
2.426500000000000E+009;1.184099018573761E-001;-1.093041747808456E-001;-3.504399675875902E-003;-4.741620738059282E-003;
2.426666666666667E+009;1.177532151341438E-001;-1.107442900538445E-001;-3.683649003505707E-003;-4.664011299610138E-003;
2.426833333333334E+009;1.170604228973389E-001;-1.125188693404198E-001;-3.895802656188607E-003;-4.650014918297529E-003;
2.427000000000000E+009;1.163861155509949E-001;-1.141308918595314E-001;-3.976571373641491E-003;-4.455477464944124E-003;
2.427166666666667E+009;1.159043982625008E-001;-1.156057938933373E-001;-4.125846549868584E-003;-4.393386188894510E-003;
2.427333333333334E+009;1.153166517615318E-001;-1.172393932938576E-001;-4.259902052581310E-003;-4.181166179478169E-003;
2.427500000000000E+009;1.151256263256073E-001;-1.188330277800560E-001;-4.435440991073847E-003;-4.076288547366858E-003;
2.427666666666667E+009;1.148673146963120E-001;-1.204743161797524E-001;-4.565831739455462E-003;-4.040741361677647E-003;
