# Version 1.00
#
freq[Hz];re:Trc1_S11;im:Trc1_S11;re:Trc2_S21;im:Trc2_S21;
2.400000000000000E+009;1.728781312704086E-001;4.885866865515709E-002;-5.677434382960200E-004;4.199394490569830E-003;
2.400166666666667E+009;1.735126674175263E-001;4.828162118792534E-002;-5.431019817478955E-004;4.202415701001883E-003;
2.400333333333334E+009;1.740339696407318E-001;4.747361317276955E-002;-5.912370979785919E-004;4.190367646515369E-003;
2.400500000000000E+009;1.744213402271271E-001;4.665208980441093E-002;-5.723329377360642E-004;4.290311131626368E-003;
2.400666666666667E+009;1.747125089168549E-001;4.612534120678902E-002;-5.495130317285657E-004;4.138594027608633E-003;
2.400833333333334E+009;1.750826388597488E-001;4.555725306272507E-002;-5.239564343355596E-004;4.230527207255364E-003;
2.401000000000000E+009;1.752991527318955E-001;4.488749802112579E-002;-5.808828864246607E-004;4.255606792867184E-003;
2.401166666666667E+009;1.755177825689316E-001;4.417527839541435E-002;-5.363118834793568E-004;4.527162294834852E-003;
2.401333333333334E+009;1.756943613290787E-001;4.354662448167801E-002;-3.860303841065615E-004;4.404646810144186E-003;
2.401500000000000E+009;1.759502142667770E-001;4.292683675885201E-002;-3.469421062618494E-004;4.332692362368107E-003;
2.401666666666667E+009;1.758510321378708E-001;4.252459853887558E-002;-1.988031581277028E-004;4.533993545919657E-003;
2.401833333333334E+009;1.758125275373459E-001;4.142841324210167E-002;-1.795611315174028E-004;4.656027071177959E-003;
2.402000000000000E+009;1.756008565425873E-001;4.062391445040703E-002;4.259191700839438E-005;4.842248745262623E-003;
2.402166666666667E+009;1.756129264831543E-001;3.961386904120445E-002;2.595578262116760E-004;4.841634072363377E-003;
2.402333333333334E+009;1.753346920013428E-001;3.869352489709854E-002;3.746708971448243E-004;4.802900832146406E-003;
2.402500000000000E+009;1.753681302070618E-001;3.780931979417801E-002;5.036658258177340E-004;4.961509257555008E-003;
2.402666666666667E+009;1.750277429819107E-001;3.670674934983254E-002;7.219930994324386E-004;4.757091403007507E-003;
2.402833333333334E+009;1.748535186052322E-001;3.562351316213608E-002;8.244412601925433E-004;5.025357939302921E-003;
2.403000000000000E+009;1.745810210704804E-001;3.425157815217972E-002;1.111625693738461E-003;4.867029841989279E-003;
2.403166666666667E+009;1.742934137582779E-001;3.298456594347954E-002;1.043628901243210E-003;4.866823554039002E-003;
2.403333333333334E+009;1.738080382347107E-001;3.165213391184807E-002;1.433098921552301E-003;4.792037419974804E-003;
2.403500000000000E+009;1.734563559293747E-001;3.008993342518807E-002;1.626905985176563E-003;4.710448440164328E-003;
2.403666666666667E+009;1.729974448680878E-001;2.839997969567776E-002;1.735627069137991E-003;4.423037171363831E-003;
2.403833333333334E+009;1.727020591497421E-001;2.692428044974804E-002;1.966622425243259E-003;4.420135170221329E-003;
2.404000000000000E+009;1.723012626171112E-001;2.531417086720467E-002;1.986487535759807E-003;4.261563066393137E-003;
2.404166666666667E+009;1.719290316104889E-001;2.331463620066643E-002;2.100708195939660E-003;4.356934688985348E-003;
2.404333333333334E+009;1.715802550315857E-001;2.174611762166023E-002;2.050425158813596E-003;4.200129304081202E-003;
2.404500000000000E+009;1.710675060749054E-001;1.964443922042847E-002;2.395686926320195E-003;4.080540966242552E-003;
2.404666666666667E+009;1.711009740829468E-001;1.792221888899803E-002;2.496849047020078E-003;3.880703356117010E-003;
2.404833333333334E+009;1.708148717880249E-001;1.594381034374237E-002;2.390865469351411E-003;3.941027913242579E-003;
2.405000000000000E+009;1.706133335828781E-001;1.401382032781839E-002;2.696778392419219E-003;3.820650046691299E-003;
2.405166666666667E+009;1.703594624996185E-001;1.194671820849180E-002;2.626090543344617E-003;3.865221515297890E-003;
2.405333333333334E+009;1.704070121049881E-001;9.711051359772682E-003;2.827896503731608E-003;3.742043627426028E-003;
2.405500000000000E+009;1.703008711338043E-001;8.058166131377220E-003;2.843094989657402E-003;3.669550642371178E-003;
2.405666666666667E+009;1.704198122024536E-001;6.106562912464142E-003;2.766391029581428E-003;3.628666279837489E-003;
2.405833333333334E+009;1.704092919826508E-001;4.106907173991203E-003;2.782908733934164E-003;3.412789665162563E-003;
2.406000000000000E+009;1.708223819732666E-001;1.874184934422374E-003;3.028254723176360E-003;3.533031092956662E-003;
2.406166666666667E+009;1.710481345653534E-001;-7.561119127785787E-005;3.019338706508279E-003;3.531350288540125E-003;
2.406333333333334E+009;1.714884638786316E-001;-2.143214689567685E-003;3.322057658806443E-003;3.497427329421043E-003;
2.406500000000000E+009;1.718163043260574E-001;-4.101762082427740E-003;3.240082180127502E-003;3.462302265688777E-003;
2.406666666666667E+009;1.720800548791885E-001;-6.095976103097200E-003;3.324944525957108E-003;3.427224000915885E-003;
2.406833333333334E+009;1.728068888187408E-001;-8.041705004870892E-003;3.720007836818695E-003;3.288370557129383E-003;
2.407000000000000E+009;1.735311299562454E-001;-9.903731755912304E-003;3.759821644052863E-003;3.284033387899399E-003;
2.407166666666667E+009;1.740939021110535E-001;-1.171411480754614E-002;3.961545415222645E-003;3.155637066811323E-003;
2.407333333333334E+009;1.746882647275925E-001;-1.370440330356360E-002;4.179311916232109E-003;3.244072431698442E-003;
2.407500000000000E+009;1.754373908042908E-001;-1.542582735419273E-002;4.559398628771305E-003;3.028848208487034E-003;
2.407666666666667E+009;1.761298328638077E-001;-1.708751358091831E-002;4.599574021995068E-003;2.692122710868716E-003;
2.407833333333334E+009;1.767228692770004E-001;-1.890394464135170E-002;4.773530643433332E-003;2.583769615739584E-003;
2.408000000000000E+009;1.774620115756989E-001;-2.052542753517628E-002;4.984654486179352E-003;2.319526160135865E-003;
2.408166666666667E+009;1.780644506216049E-001;-2.208228595554829E-002;5.002568941563368E-003;1.931607024744153E-003;
2.408333333333334E+009;1.789375692605972E-001;-2.357713878154755E-002;5.183963570743799E-003;1.694034901447594E-003;
2.408500000000000E+009;1.795717477798462E-001;-2.503057010471821E-002;5.214125383645296E-003;1.322212629020214E-003;
2.408666666666667E+009;1.801687180995941E-001;-2.628199011087418E-002;5.304216872900724E-003;1.042761723510921E-003;
2.408833333333334E+009;1.805244684219360E-001;-2.761309407651424E-002;5.210618954151869E-003;6.922093452885747E-004;
2.409000000000000E+009;1.810696721076965E-001;-2.864262275397778E-002;5.231542978435755E-003;4.523408133536577E-004;
2.409166666666667E+009;1.815872490406036E-001;-2.968928404152393E-002;4.999264609068632E-003;2.662180631887168E-004;
2.409333333333334E+009;1.819528043270111E-001;-3.062673471868038E-002;5.045242607593536E-003;-1.689810051175300E-005;
2.409500000000000E+009;1.823093295097351E-001;-3.150695189833641E-002;4.876621067523956E-003;-1.260620192624629E-004;
2.409666666666667E+009;1.825287789106369E-001;-3.208181634545326E-002;4.686077591031790E-003;-3.777817182708532E-004;
2.409833333333334E+009;1.827288866043091E-001;-3.264889121055603E-002;4.703451879322529E-003;-6.063795299269259E-004;
2.410000000000000E+009;1.831266134977341E-001;-3.306059166789055E-002;4.537637345492840E-003;-8.922764682210982E-004;
2.410166666666667E+009;1.831756532192230E-001;-3.358529880642891E-002;4.235958214849234E-003;-8.924989961087704E-004;
2.410333333333334E+009;1.831700205802918E-001;-3.400493413209915E-002;4.346846137195826E-003;-8.857842185534537E-004;
2.410500000000000E+009;1.832915693521500E-001;-3.429438173770905E-002;4.064175300300121E-003;-1.228573848493397E-003;
2.410666666666667E+009;1.831101030111313E-001;-3.493874147534370E-002;4.059264902025461E-003;-1.409009448252618E-003;
2.410833333333334E+009;1.832245886325836E-001;-3.501281142234802E-002;3.897681599482894E-003;-1.359860645607114E-003;
2.411000000000000E+009;1.829562336206436E-001;-3.533608466386795E-002;3.748715156689286E-003;-1.434762612916529E-003;
2.411166666666667E+009;1.825137287378311E-001;-3.571483492851257E-002;3.647135803475976E-003;-1.455334946513176E-003;
2.411333333333334E+009;1.821931004524231E-001;-3.586548939347267E-002;3.310241037979722E-003;-1.622805837541819E-003;
2.411500000000000E+009;1.817484349012375E-001;-3.645577654242516E-002;3.171101212501526E-003;-1.658483059145510E-003;
2.411666666666667E+009;1.815258860588074E-001;-3.670545294880867E-002;3.045438090339303E-003;-1.791117712855339E-003;
2.411833333333334E+009;1.806239932775497E-001;-3.706717491149902E-002;2.959746168926358E-003;-1.710028853267431E-003;
2.412000000000000E+009;1.799988299608231E-001;-3.761614114046097E-002;2.963182050734758E-003;-1.761980121955276E-003;
2.412166666666667E+009;1.790242195129395E-001;-3.801227360963821E-002;2.648479072377086E-003;-1.729275099933147E-003;
2.412333333333334E+009;1.783450990915299E-001;-3.827916458249092E-002;2.455076668411493E-003;-1.769700553268194E-003;
2.412500000000000E+009;1.771688908338547E-001;-3.875963762402535E-002;2.454454777762294E-003;-1.777488505467773E-003;
2.412666666666667E+009;1.762155443429947E-001;-3.950991854071617E-002;2.311217365786433E-003;-1.511143287643790E-003;
2.412833333333334E+009;1.750711947679520E-001;-4.021061211824417E-002;2.098663244396448E-003;-1.301888143643737E-003;
2.413000000000000E+009;1.737681776285172E-001;-4.094835370779038E-002;2.117996802553535E-003;-1.456142170354724E-003;
2.413166666666667E+009;1.727207601070404E-001;-4.177381843328476E-002;1.961585367098451E-003;-1.354299020022154E-003;
2.413333333333334E+009;1.715133637189865E-001;-4.268930107355118E-002;2.095923060551286E-003;-1.201648497954011E-003;
2.413500000000000E+009;1.702560782432556E-001;-4.363097250461578E-002;2.036320976912975E-003;-1.121900742873550E-003;
2.413666666666667E+009;1.689187586307526E-001;-4.459669440984726E-002;2.095508156344295E-003;-1.049773418344557E-003;
2.413833333333334E+009;1.673813313245773E-001;-4.561131820082665E-002;2.099463483318687E-003;-1.044134027324617E-003;
2.414000000000000E+009;1.661384999752045E-001;-4.676111415028572E-002;1.953488215804100E-003;-8.684017229825258E-004;
2.414166666666667E+009;1.650415211915970E-001;-4.796923696994782E-002;2.005562651902437E-003;-9.881107835099101E-004;
2.414333333333334E+009;1.637864410877228E-001;-4.946117848157883E-002;2.346521243453026E-003;-7.515338947996497E-004;
2.414500000000000E+009;1.628869473934174E-001;-5.077682062983513E-002;2.290954580530524E-003;-7.589596207253635E-004;
2.414666666666667E+009;1.614941954612732E-001;-5.216230079531670E-002;2.444472629576922E-003;-7.225582958199084E-004;
2.414833333333334E+009;1.604165881872177E-001;-5.378066748380661E-002;2.399596851319075E-003;-5.899415700696409E-004;
2.415000000000000E+009;1.593598723411560E-001;-5.537569895386696E-002;2.560926135629416E-003;-7.013709982857108E-004;
2.415166666666667E+009;1.584105938673019E-001;-5.696586519479752E-002;2.662908285856247E-003;-7.562441169284284E-004;
2.415333333333334E+009;1.575599610805512E-001;-5.885183811187744E-002;2.849807497113943E-003;-7.289612549357116E-004;
2.415500000000000E+009;1.567268222570419E-001;-6.064310669898987E-002;2.693582093343139E-003;-8.211795357055962E-004;
2.415666666666667E+009;1.559476703405380E-001;-6.232117116451263E-002;3.015253227204084E-003;-8.771005668677390E-004;
2.415833333333334E+009;1.553673446178436E-001;-6.445208936929703E-002;3.181555308401585E-003;-1.038197893649340E-003;
2.416000000000000E+009;1.545913070440292E-001;-6.632822751998901E-002;2.955549862235785E-003;-1.082342118024826E-003;
2.416166666666667E+009;1.542059034109116E-001;-6.826213002204895E-002;3.149971133098006E-003;-1.338981441222131E-003;
2.416333333333334E+009;1.536625325679779E-001;-7.019195705652237E-002;3.255808493122459E-003;-1.459297141991556E-003;
2.416500000000000E+009;1.532059162855148E-001;-7.230890542268753E-002;3.197462996467948E-003;-1.587465521879494E-003;
2.416666666666667E+009;1.526472121477127E-001;-7.409287989139557E-002;3.224741201847792E-003;-1.746501307934523E-003;
2.416833333333334E+009;1.524325609207153E-001;-7.621843367815018E-002;3.397753695026040E-003;-1.865486497990787E-003;
2.417000000000000E+009;1.520482301712036E-001;-7.806993275880814E-002;3.267080988734961E-003;-1.941546332091093E-003;
2.417166666666667E+009;1.518491208553314E-001;-7.979081571102142E-002;3.178888233378530E-003;-2.297499449923635E-003;
2.417333333333334E+009;1.517368555068970E-001;-8.153200149536133E-002;3.225309308618307E-003;-2.271202392876148E-003;
2.417500000000000E+009;1.517293900251389E-001;-8.337206393480301E-002;3.106236457824707E-003;-2.398310462012887E-003;
2.417666666666667E+009;1.517425477504730E-001;-8.494558185338974E-002;3.276916453614831E-003;-2.594926394522190E-003;
2.417833333333334E+009;1.517707258462906E-001;-8.643098920583725E-002;3.273579059168696E-003;-2.758663613349199E-003;
2.418000000000000E+009;1.517544239759445E-001;-8.810415863990784E-002;3.039062954485416E-003;-2.896673511713743E-003;
2.418166666666667E+009;1.518536359071732E-001;-8.930426836013794E-002;2.937467070296407E-003;-3.293205983936787E-003;
2.418333333333334E+009;1.522377282381058E-001;-9.072951227426529E-002;2.964992308989167E-003;-3.121200017631054E-003;
2.418500000000000E+009;1.521396487951279E-001;-9.187887609004974E-002;2.804140327498317E-003;-3.361188340932131E-003;
2.418666666666667E+009;1.524669677019119E-001;-9.297291189432144E-002;2.708865562453866E-003;-3.566641593351960E-003;
2.418833333333334E+009;1.525321751832962E-001;-9.393724799156189E-002;2.610138384625316E-003;-3.589449217543006E-003;
2.419000000000000E+009;1.526792347431183E-001;-9.469398111104965E-002;2.476493129506707E-003;-3.769690403714776E-003;
2.419166666666667E+009;1.529842615127564E-001;-9.552170336246491E-002;2.281128661707044E-003;-3.895857138559222E-003;
2.419333333333334E+009;1.530160307884216E-001;-9.588266909122467E-002;2.156212925910950E-003;-4.005093127489090E-003;
2.419500000000000E+009;1.533463001251221E-001;-9.649116545915604E-002;2.158395480364561E-003;-4.023533314466476E-003;
2.419666666666667E+009;1.536139696836472E-001;-9.688396751880646E-002;2.018494298681617E-003;-4.134550224989653E-003;
2.419833333333334E+009;1.536041200160980E-001;-9.701532870531082E-002;1.767419278621674E-003;-4.203659947961569E-003;
2.420000000000000E+009;1.538526415824890E-001;-9.729379415512085E-002;1.764501561410725E-003;-4.228843841701746E-003;
2.420166666666667E+009;1.539333313703537E-001;-9.742116183042526E-002;1.572713837958872E-003;-4.267921205610037E-003;
2.420333333333334E+009;1.541518419981003E-001;-9.761670976877213E-002;1.435086480341852E-003;-4.287148360162973E-003;
2.420500000000000E+009;1.540822982788086E-001;-9.729261696338654E-002;1.448589959181845E-003;-4.379574675112963E-003;
2.420666666666667E+009;1.541490703821182E-001;-9.693921357393265E-002;1.210814458318055E-003;-4.456559196114540E-003;
2.420833333333334E+009;1.540751159191132E-001;-9.686406701803207E-002;1.051984727382660E-003;-4.523267969489098E-003;
2.421000000000000E+009;1.538226157426834E-001;-9.675388038158417E-002;9.215121972374618E-004;-4.516145680099726E-003;
2.421166666666667E+009;1.537372320890427E-001;-9.651987254619598E-002;7.552225724793971E-004;-4.538785200566053E-003;
2.421333333333334E+009;1.534914076328278E-001;-9.628074616193771E-002;6.935960846021771E-004;-4.827916622161865E-003;
2.421500000000000E+009;1.532010287046433E-001;-9.581051021814346E-002;4.653547657653689E-004;-4.685899708420038E-003;
2.421666666666667E+009;1.528798043727875E-001;-9.543939679861069E-002;3.579662006814033E-004;-4.745138343423605E-003;
2.421833333333334E+009;1.522903144359589E-001;-9.521839767694473E-002;1.380532630719245E-004;-4.763567354530096E-003;
2.422000000000000E+009;1.515966206789017E-001;-9.499917924404144E-002;6.162111094454303E-005;-4.700970370322466E-003;
2.422166666666667E+009;1.509560197591782E-001;-9.482543170452118E-002;-1.569785963511095E-004;-4.608275368809700E-003;
2.422333333333334E+009;1.501352488994598E-001;-9.456644952297211E-002;-3.726020513568074E-004;-4.645570181310177E-003;
2.422500000000000E+009;1.491217315196991E-001;-9.432060271501541E-002;-3.648126148618758E-004;-4.501716233789921E-003;
2.422666666666667E+009;1.480040252208710E-001;-9.414853900671005E-002;-4.710596113000065E-004;-4.458882845938206E-003;
2.422833333333334E+009;1.468950062990189E-001;-9.415379911661148E-002;-6.123761995695531E-004;-4.386906046420336E-003;
2.423000000000000E+009;1.456222236156464E-001;-9.384439140558243E-002;-9.114358690567315E-004;-4.452561959624291E-003;
2.423166666666667E+009;1.442780345678330E-001;-9.386187791824341E-002;-7.048678235150874E-004;-4.558562766760588E-003;
2.423333333333334E+009;1.430899798870087E-001;-9.373012930154800E-002;-7.109735743142664E-004;-4.423532169312239E-003;
2.423500000000000E+009;1.415854841470718E-001;-9.402028471231461E-002;-8.102481951937079E-004;-4.409698303788900E-003;
2.423666666666667E+009;1.399195045232773E-001;-9.422700107097626E-002;-8.130181813612580E-004;-4.410265944898129E-003;
2.423833333333334E+009;1.386983096599579E-001;-9.433845430612564E-002;-9.346417500637472E-004;-4.364786669611931E-003;
2.424000000000000E+009;1.370728611946106E-001;-9.443520754575729E-002;-9.118795278482139E-004;-4.363833460956812E-003;
2.424166666666667E+009;1.355720460414887E-001;-9.469918906688690E-002;-8.637801511213183E-004;-4.505736753344536E-003;
2.424333333333334E+009;1.342055499553680E-001;-9.517491608858109E-002;-1.145700109191239E-003;-4.716148134320974E-003;
2.424500000000000E+009;1.327262520790100E-001;-9.576746076345444E-002;-9.523407788947225E-004;-4.616322461515665E-003;
2.424666666666667E+009;1.313851773738861E-001;-9.627218544483185E-002;-1.324639073573053E-003;-4.826817195862532E-003;
2.424833333333334E+009;1.298068463802338E-001;-9.702116996049881E-002;-1.448503229767084E-003;-4.762968514114618E-003;
2.425000000000000E+009;1.284268945455551E-001;-9.787139296531677E-002;-1.692833844572306E-003;-4.879147745668888E-003;
2.425166666666667E+009;1.269527077674866E-001;-9.882079064846039E-002;-1.847573323175311E-003;-5.032043904066086E-003;
2.425333333333334E+009;1.257599294185638E-001;-9.988069534301758E-002;-2.150402870029211E-003;-5.050701089203358E-003;
2.425500000000000E+009;1.246939972043037E-001;-1.009966135025024E-001;-2.276407554745674E-003;-5.078850314021111E-003;
2.425666666666667E+009;1.232144385576248E-001;-1.021918132901192E-001;-2.453152090311050E-003;-5.102256778627634E-003;
2.425833333333334E+009;1.222397387027741E-001;-1.034632623195648E-001;-2.630808157846332E-003;-4.971380811184645E-003;
2.426000000000000E+009;1.210933774709702E-001;-1.048838794231415E-001;-2.957220189273357E-003;-4.850897006690502E-003;
2.426166666666667E+009;1.203196272253990E-001;-1.063987463712692E-001;-3.164489520713687E-003;-4.877886269241571E-003;
2.426333333333334E+009;1.192293912172318E-001;-1.077562570571899E-001;-3.233195049688220E-003;-4.781619645655155E-003;
2.426500000000000E+009;1.183796226978302E-001;-1.093105524778366E-001;-3.490836825221777E-003;-4.677562043070793E-003;
2.426666666666667E+009;1.177615970373154E-001;-1.107401847839356E-001;-3.669265657663345E-003;-4.557574633508921E-003;
2.426833333333334E+009;1.170047074556351E-001;-1.124748140573502E-001;-3.719681408256292E-003;-4.602896515280008E-003;
2.427000000000000E+009;1.164848729968071E-001;-1.140135452151299E-001;-4.212291911244392E-003;-4.407920408993959E-003;
2.427166666666667E+009;1.159364432096481E-001;-1.155684962868691E-001;-4.184493329375982E-003;-4.362705163657665E-003;
2.427333333333334E+009;1.154453679919243E-001;-1.172642484307289E-001;-4.384086467325687E-003;-4.253700841218233E-003;
2.427500000000000E+009;1.152106374502182E-001;-1.188729703426361E-001;-4.536397289484739E-003;-4.148186650127173E-003;
2.427666666666667E+009;1.149164512753487E-001;-1.204531043767929E-001;-4.555732011795044E-003;-4.024608992040157E-003;
