# Version 1.00
#
freq[Hz];re:Trc1_S11;im:Trc1_S11;re:Trc2_S21;im:Trc2_S21;
2.400000000000000E+009;1.711894571781158E-001;3.990432620048523E-002;-2.166286110877991E-003;-1.403190544806421E-003;
2.400166666666667E+009;1.718521714210510E-001;3.954391553997994E-002;-2.308370079845190E-003;-1.487437402829528E-003;
2.400333333333334E+009;1.722913533449173E-001;3.879128396511078E-002;-2.415081951767206E-003;-1.425725175067782E-003;
2.400500000000000E+009;1.726349443197250E-001;3.821286186575890E-002;-2.670034300535917E-003;-1.444045105017722E-003;
2.400666666666667E+009;1.730577200651169E-001;3.741064295172691E-002;-2.826945856213570E-003;-1.307058730162680E-003;
2.400833333333334E+009;1.733909547328949E-001;3.697012737393379E-002;-3.015422262251377E-003;-1.284001162275672E-003;
2.401000000000000E+009;1.735145002603531E-001;3.650491312146187E-002;-3.238941309973598E-003;-1.166667207144201E-003;
2.401166666666667E+009;1.736926585435867E-001;3.564218059182167E-002;-3.472449723631144E-003;-1.059674657881260E-003;
2.401333333333334E+009;1.734766364097595E-001;3.518369421362877E-002;-3.541432786732912E-003;-9.323132107965648E-004;
2.401500000000000E+009;1.736487895250320E-001;3.449890390038490E-002;-3.539239289239049E-003;-8.349284762516618E-004;
2.401666666666667E+009;1.735738068819046E-001;3.388146311044693E-002;-3.852664958685637E-003;-6.997386226430535E-004;
2.401833333333334E+009;1.733691692352295E-001;3.299290686845779E-002;-4.139482975006104E-003;-1.834615250118077E-004;
2.402000000000000E+009;1.730558723211289E-001;3.240944072604179E-002;-4.151380620896816E-003;2.218080408056267E-005;
2.402166666666667E+009;1.729384958744049E-001;3.156470507383347E-002;-4.226127639412880E-003;1.636723609408364E-004;
2.402333333333334E+009;1.726429313421249E-001;3.063882701098919E-002;-4.160944372415543E-003;4.330669471528381E-004;
2.402500000000000E+009;1.725372374057770E-001;2.980928868055344E-002;-4.228140227496624E-003;9.021758451126516E-004;
2.402666666666667E+009;1.721203476190567E-001;2.888273261487484E-002;-4.094902426004410E-003;1.116765430197120E-003;
2.402833333333334E+009;1.717432439327240E-001;2.784404717385769E-002;-3.887003520503640E-003;1.299917232245207E-003;
2.403000000000000E+009;1.716642528772354E-001;2.696607634425163E-002;-3.721562912687659E-003;1.588993705809116E-003;
2.403166666666667E+009;1.711784154176712E-001;2.571872994303703E-002;-3.463912988081574E-003;1.822376158088446E-003;
2.403333333333334E+009;1.707624346017838E-001;2.459662966430187E-002;-3.448977600783110E-003;1.871788874268532E-003;
2.403500000000000E+009;1.704283058643341E-001;2.320315316319466E-002;-3.120140638202429E-003;1.896096044220030E-003;
2.403666666666667E+009;1.702053397893906E-001;2.179364487528801E-002;-3.187318332493305E-003;2.045361092314124E-003;
2.403833333333334E+009;1.697797179222107E-001;2.047588303685188E-002;-3.025843063369393E-003;2.171326195821166E-003;
2.404000000000000E+009;1.695372164249420E-001;1.924420706927776E-002;-2.979662036523223E-003;2.210566774010658E-003;
2.404166666666667E+009;1.689907014369965E-001;1.762953773140907E-002;-2.956224372610450E-003;2.213012427091599E-003;
2.404333333333334E+009;1.687163412570953E-001;1.618649251759052E-002;-2.690630266442895E-003;2.132530556991696E-003;
2.404500000000000E+009;1.683919727802277E-001;1.435652468353510E-002;-2.852584235370159E-003;2.196616027504206E-003;
2.404666666666667E+009;1.681701391935349E-001;1.290082745254040E-002;-2.706792904064059E-003;2.227932913228869E-003;
2.404833333333334E+009;1.680907458066940E-001;1.117867045104504E-002;-2.580428961664438E-003;2.415503840893507E-003;
2.405000000000000E+009;1.679746806621552E-001;9.481557644903660E-003;-2.693453803658485E-003;2.385988133028150E-003;
2.405166666666667E+009;1.678566932678223E-001;7.731030695140362E-003;-2.588698174804449E-003;2.534645143896341E-003;
2.405333333333334E+009;1.678957343101502E-001;5.745628848671913E-003;-2.688534324988723E-003;2.628225367516279E-003;
2.405500000000000E+009;1.677481532096863E-001;4.085736349225044E-003;-2.565633272752166E-003;2.867088420316577E-003;
2.405666666666667E+009;1.677712500095367E-001;2.153720473870635E-003;-2.360645448789001E-003;2.969573251903057E-003;
2.405833333333334E+009;1.677477657794952E-001;3.372820792719722E-004;-2.469563856720924E-003;2.981562633067370E-003;
2.406000000000000E+009;1.677769422531128E-001;-1.639359397813678E-003;-2.382679376751185E-003;3.272793022915721E-003;
2.406166666666667E+009;1.677175760269165E-001;-3.277624724432826E-003;-2.194614848122001E-003;3.437223378568888E-003;
2.406333333333334E+009;1.678799092769623E-001;-5.074239335954189E-003;-1.922752941027284E-003;3.576285205781460E-003;
2.406500000000000E+009;1.679128557443619E-001;-6.800764240324497E-003;-1.751263276673853E-003;3.606258658692241E-003;
2.406666666666667E+009;1.676800847053528E-001;-8.691246621310711E-003;-1.625702949240804E-003;3.735135542228818E-003;
2.406833333333334E+009;1.678664237260819E-001;-1.044176053255796E-002;-1.353387837298214E-003;3.738966537639499E-003;
2.407000000000000E+009;1.678739637136459E-001;-1.219874899834395E-002;-1.078411005437374E-003;3.861557692289352E-003;
2.407166666666667E+009;1.681457310914993E-001;-1.350620202720165E-002;-9.696498746052384E-004;3.762467997148633E-003;
2.407333333333334E+009;1.681330800056458E-001;-1.518160291016102E-002;-7.447760435752571E-004;3.723878413438797E-003;
2.407500000000000E+009;1.682545244693756E-001;-1.642315648496151E-002;-5.611542728729546E-004;3.692795522511005E-003;
2.407666666666667E+009;1.683579683303833E-001;-1.761189475655556E-002;-4.022509965579957E-004;3.832312067970634E-003;
2.407833333333334E+009;1.683364659547806E-001;-1.901665516197681E-002;-2.277398452861235E-004;3.704452188685536E-003;
2.408000000000000E+009;1.685115993022919E-001;-2.015583217144013E-002;-1.730005751596764E-004;3.619643859565258E-003;
2.408166666666667E+009;1.686941087245941E-001;-2.109703607857227E-002;-1.171993062598631E-004;3.574453294277191E-003;
2.408333333333334E+009;1.691381186246872E-001;-2.202025242149830E-002;7.013305730652064E-005;3.482424188405275E-003;
2.408500000000000E+009;1.693280786275864E-001;-2.298399806022644E-002;1.700933207757771E-004;3.506637178361416E-003;
2.408666666666667E+009;1.695874780416489E-001;-2.369740791618824E-002;2.930992632173002E-004;3.450920805335045E-003;
2.408833333333334E+009;1.697033345699310E-001;-2.453805319964886E-002;2.511547645553947E-004;3.323626006022096E-003;
2.409000000000000E+009;1.701437234878540E-001;-2.526658959686756E-002;3.697023785207421E-004;3.213976975530386E-003;
2.409166666666667E+009;1.705759316682816E-001;-2.609194815158844E-002;3.137095191050321E-004;3.302977187559009E-003;
2.409333333333334E+009;1.709577441215515E-001;-2.677078545093536E-002;3.791135968640447E-004;3.286534920334816E-003;
2.409500000000000E+009;1.711625456809998E-001;-2.762298472225666E-002;4.998592776246369E-004;3.193944459781051E-003;
2.409666666666667E+009;1.713321805000305E-001;-2.831608057022095E-002;5.722548812627792E-004;3.278726944699884E-003;
2.409833333333334E+009;1.715001165866852E-001;-2.901383303105831E-002;8.455730858258903E-004;3.123272676020861E-003;
2.410000000000000E+009;1.718490868806839E-001;-2.957074902951717E-002;9.401412098668516E-004;3.192384028807282E-003;
2.410166666666667E+009;1.718423962593079E-001;-3.036802448332310E-002;1.038144109770656E-003;3.107724711298943E-003;
2.410333333333334E+009;1.718650907278061E-001;-3.086807206273079E-002;1.150544267147780E-003;3.230371512472630E-003;
2.410500000000000E+009;1.719741672277451E-001;-3.164929896593094E-002;1.101535861380398E-003;3.051672596484423E-003;
2.410666666666667E+009;1.717274636030197E-001;-3.239170461893082E-002;1.225542044267058E-003;3.142109140753746E-003;
2.410833333333334E+009;1.717559546232224E-001;-3.293255716562271E-002;1.304047065787017E-003;2.993703819811344E-003;
2.411000000000000E+009;1.715114116668701E-001;-3.346899896860123E-002;1.376819447614253E-003;3.117584390565753E-003;
2.411166666666667E+009;1.711778044700623E-001;-3.419630229473114E-002;1.685076509602368E-003;2.939845668151975E-003;
2.411333333333334E+009;1.709270924329758E-001;-3.462971374392510E-002;1.682648551650345E-003;2.804215066134930E-003;
2.411500000000000E+009;1.704834997653961E-001;-3.547130525112152E-002;1.707578543573618E-003;2.861966378986836E-003;
2.411666666666667E+009;1.704138964414597E-001;-3.616081923246384E-002;1.827577012591064E-003;2.815584186464548E-003;
2.411833333333334E+009;1.698738038539887E-001;-3.668532520532608E-002;1.757676945999265E-003;2.641476690769196E-003;
2.412000000000000E+009;1.696237027645111E-001;-3.764293715357781E-002;2.035503508523107E-003;2.717349678277969E-003;
2.412166666666667E+009;1.689701825380325E-001;-3.824928402900696E-002;1.863825251348317E-003;2.612398937344551E-003;
2.412333333333334E+009;1.686917245388031E-001;-3.880568593740463E-002;2.060528611764312E-003;2.474350156262517E-003;
2.412500000000000E+009;1.679413467645645E-001;-3.979243338108063E-002;2.244287403300405E-003;2.391526242718101E-003;
2.412666666666667E+009;1.674522906541824E-001;-4.091509059071541E-002;2.136496128514409E-003;2.161754528060556E-003;
2.412833333333334E+009;1.669014841318131E-001;-4.160344600677490E-002;2.368943532928824E-003;2.273027552291751E-003;
2.413000000000000E+009;1.658294349908829E-001;-4.246582463383675E-002;2.417550887912512E-003;2.114178612828255E-003;
2.413166666666667E+009;1.654265522956848E-001;-4.358464106917381E-002;2.567101968452334E-003;2.091646194458008E-003;
2.413333333333334E+009;1.646010875701904E-001;-4.462892934679985E-002;2.389217959716916E-003;1.812157221138477E-003;
2.413500000000000E+009;1.638560593128204E-001;-4.556428268551827E-002;2.526116091758013E-003;1.816798467189074E-003;
2.413666666666667E+009;1.633030623197556E-001;-4.667854681611061E-002;2.495969180017710E-003;1.730281510390341E-003;
2.413833333333334E+009;1.626065522432327E-001;-4.771398007869721E-002;2.696875482797623E-003;1.379258348606527E-003;
2.414000000000000E+009;1.617408096790314E-001;-4.878814518451691E-002;2.637513913214207E-003;1.431688433513045E-003;
2.414166666666667E+009;1.614722013473511E-001;-4.996166378259659E-002;2.694692928344011E-003;1.245993073098362E-003;
2.414333333333334E+009;1.606495678424835E-001;-5.117040500044823E-002;2.635590964928269E-003;1.259599346667528E-003;
2.414500000000000E+009;1.602372080087662E-001;-5.224626511335373E-002;2.722135279327631E-003;1.098917215131223E-003;
2.414666666666667E+009;1.597248762845993E-001;-5.331472307443619E-002;2.766308374702931E-003;9.428710909560323E-004;
2.414833333333334E+009;1.593685299158096E-001;-5.462466552853584E-002;2.646325156092644E-003;8.806235855445266E-004;
2.415000000000000E+009;1.588197648525238E-001;-5.595087632536888E-002;2.503163181245327E-003;9.101012255996466E-004;
2.415166666666667E+009;1.585515886545181E-001;-5.713636055588722E-002;2.548208460211754E-003;8.278058958239853E-004;
2.415333333333334E+009;1.584029048681259E-001;-5.854194238781929E-002;2.437330316752195E-003;6.606261013075709E-004;
2.415500000000000E+009;1.581274867057800E-001;-5.987371131777763E-002;2.410649321973324E-003;5.839171353727579E-004;
2.415666666666667E+009;1.578460186719894E-001;-6.134319305419922E-002;2.516847103834152E-003;4.907093825750053E-004;
2.415833333333334E+009;1.576842516660690E-001;-6.272635608911514E-002;2.281283028423786E-003;5.505390581674874E-004;
2.416000000000000E+009;1.574154496192932E-001;-6.422088295221329E-002;2.250767080113292E-003;4.402449121698737E-004;
2.416166666666667E+009;1.573511660099030E-001;-6.554635614156723E-002;2.251067198812962E-003;5.768244154751301E-004;
2.416333333333334E+009;1.571262329816818E-001;-6.717526912689209E-002;2.237825654447079E-003;4.950285656377673E-004;
2.416500000000000E+009;1.569044739007950E-001;-6.852834671735764E-002;2.123841783031821E-003;3.825149906333536E-004;
2.416666666666667E+009;1.566680669784546E-001;-6.983131170272827E-002;2.202321775257587E-003;4.292495432309806E-004;
2.416833333333334E+009;1.566943228244782E-001;-7.132666558027268E-002;2.204878488555551E-003;3.659700159914792E-004;
2.417000000000000E+009;1.563063412904739E-001;-7.264572381973267E-002;2.377434633672237E-003;2.211413229815662E-004;
2.417166666666667E+009;1.561772078275681E-001;-7.376700639724731E-002;2.074317308142781E-003;2.508444013074040E-004;
2.417333333333334E+009;1.560822725296021E-001;-7.486107200384140E-002;2.130492590367794E-003;2.375105104874820E-004;
2.417500000000000E+009;1.559891253709793E-001;-7.615634799003601E-002;2.013166435062885E-003;1.054956737789325E-004;
2.417666666666667E+009;1.558685153722763E-001;-7.714603841304779E-002;2.058387501165271E-003;3.168341936543584E-005;
2.417833333333334E+009;1.557450890541077E-001;-7.802740484476090E-002;2.032074378803372E-003;1.786613865988329E-004;
2.418000000000000E+009;1.556296795606613E-001;-7.904562354087830E-002;1.916607725434005E-003;2.307047252543271E-004;
2.418166666666667E+009;1.556553393602371E-001;-7.975153625011444E-002;1.964580267667770E-003;1.702666777418926E-004;
2.418333333333334E+009;1.557797044515610E-001;-8.072192221879959E-002;1.928929239511490E-003;2.669942332431674E-004;
2.418500000000000E+009;1.556739956140518E-001;-8.151384443044663E-002;1.965068746358156E-003;3.723490517586470E-004;
2.418666666666667E+009;1.556347906589508E-001;-8.223842084407806E-002;2.025174442678690E-003;5.508674657903612E-004;
2.418833333333334E+009;1.554401963949204E-001;-8.298341184854507E-002;2.026068512350321E-003;5.269163521006703E-004;
2.419000000000000E+009;1.552841812372208E-001;-8.359917253255844E-002;2.141321310773492E-003;6.046046619303525E-004;
2.419166666666667E+009;1.551933586597443E-001;-8.412607014179230E-002;2.245343057438731E-003;6.861421861685813E-004;
2.419333333333334E+009;1.548956632614136E-001;-8.456064760684967E-002;2.530529396608472E-003;6.560291512869299E-004;
2.419500000000000E+009;1.548863500356674E-001;-8.530687540769577E-002;2.666083164513111E-003;7.118845242075622E-004;
2.419666666666667E+009;1.548479050397873E-001;-8.579318970441818E-002;2.936438657343388E-003;6.514981505461037E-004;
2.419833333333334E+009;1.545046865940094E-001;-8.601343631744385E-002;3.018219489604235E-003;5.763148656114936E-004;
2.420000000000000E+009;1.543777287006378E-001;-8.639410138130188E-002;3.243087558075786E-003;4.623315762728453E-004;
2.420166666666667E+009;1.541174650192261E-001;-8.692813664674759E-002;3.525063628330827E-003;2.990028297062963E-004;
2.420333333333334E+009;1.538764089345932E-001;-8.723918348550797E-002;3.494486911222339E-003;3.075223648920655E-004;
2.420500000000000E+009;1.535805612802506E-001;-8.742183446884155E-002;3.715375205501914E-003;-1.888026890810579E-004;
2.420666666666667E+009;1.533058434724808E-001;-8.786724507808685E-002;3.740177024155855E-003;-3.358078538440168E-004;
2.420833333333334E+009;1.529474854469299E-001;-8.820342272520065E-002;3.847333136945963E-003;-5.575104732997716E-004;
2.421000000000000E+009;1.524908542633057E-001;-8.861900866031647E-002;3.998097032308579E-003;-7.894383743405342E-004;
2.421166666666667E+009;1.520527154207230E-001;-8.892274647951126E-002;3.972052596509457E-003;-1.134719699621201E-003;
2.421333333333334E+009;1.515024900436401E-001;-8.949550241231918E-002;3.986802883446217E-003;-1.272551948204637E-003;
2.421500000000000E+009;1.509415507316589E-001;-9.002191573381424E-002;3.949420526623726E-003;-1.535953138954938E-003;
2.421666666666667E+009;1.504116952419281E-001;-9.030666202306747E-002;3.856257302686572E-003;-1.874586334452033E-003;
2.421833333333334E+009;1.498172730207443E-001;-9.090095758438110E-002;3.878367366269231E-003;-1.904433360323310E-003;
2.422000000000000E+009;1.490285694599152E-001;-9.126136451959610E-002;3.848927095532417E-003;-2.266886411234736E-003;
2.422166666666667E+009;1.484300941228867E-001;-9.219876676797867E-002;3.553271526470780E-003;-2.537549240514636E-003;
2.422333333333334E+009;1.475544273853302E-001;-9.267783164978027E-002;3.400549991056323E-003;-2.663233084604144E-003;
2.422500000000000E+009;1.467777341604233E-001;-9.320078790187836E-002;3.411458572372794E-003;-2.962759230285883E-003;
2.422666666666667E+009;1.459205299615860E-001;-9.393696486949921E-002;3.152232617139816E-003;-3.328093560412526E-003;
2.422833333333334E+009;1.452102512121201E-001;-9.473983198404312E-002;2.966614440083504E-003;-3.472566371783614E-003;
2.423000000000000E+009;1.441926807165146E-001;-9.541556239128113E-002;2.663776976987720E-003;-3.465336281806231E-003;
2.423166666666667E+009;1.433896720409393E-001;-9.623743593692780E-002;2.411424648016691E-003;-3.518294077366591E-003;
2.423333333333334E+009;1.426524668931961E-001;-9.701594710350037E-002;2.369091147556901E-003;-3.589770523831248E-003;
2.423500000000000E+009;1.416346281766892E-001;-9.795901179313660E-002;2.201659837737680E-003;-3.831114387139678E-003;
2.423666666666667E+009;1.405281424522400E-001;-9.903816133737564E-002;2.037231810390949E-003;-3.819831181317568E-003;
2.423833333333334E+009;1.398375183343887E-001;-1.000993475317955E-001;1.909557380713522E-003;-3.987899515777826E-003;
2.424000000000000E+009;1.388799697160721E-001;-1.008015498518944E-001;1.553339650854468E-003;-4.005490802228451E-003;
2.424166666666667E+009;1.378763318061829E-001;-1.019137650728226E-001;1.307666418142617E-003;-3.890051040798426E-003;
2.424333333333334E+009;1.370963752269745E-001;-1.028505191206932E-001;1.075818901881576E-003;-4.086833912879229E-003;
2.424500000000000E+009;1.362965852022171E-001;-1.040047705173492E-001;7.961681694723666E-004;-4.123698920011520E-003;
2.424666666666667E+009;1.356505304574966E-001;-1.049097403883934E-001;5.555762327276170E-004;-3.946975804865360E-003;
2.424833333333334E+009;1.347849816083908E-001;-1.061497852206230E-001;4.202098352834582E-004;-4.122544545680285E-003;
2.425000000000000E+009;1.342038065195084E-001;-1.073364391922951E-001;1.737829588819295E-004;-4.050713498145342E-003;
2.425166666666667E+009;1.333131641149521E-001;-1.084304898977280E-001;-1.075195395969786E-004;-4.026690032333136E-003;
2.425333333333334E+009;1.328296214342117E-001;-1.096729785203934E-001;-3.122515918221325E-004;-3.961801528930664E-003;
2.425500000000000E+009;1.321653276681900E-001;-1.109266802668572E-001;-4.751075466629118E-004;-3.848025808110833E-003;
2.425666666666667E+009;1.315504759550095E-001;-1.120304986834526E-001;-8.003550465218723E-004;-3.623417112976313E-003;
2.425833333333334E+009;1.309962868690491E-001;-1.132085397839546E-001;-8.953625801950693E-004;-3.485593479126692E-003;
2.426000000000000E+009;1.305355876684189E-001;-1.145273447036743E-001;-1.245263963937759E-003;-3.301921533420682E-003;
2.426166666666667E+009;1.303948163986206E-001;-1.157450377941132E-001;-1.229639747180045E-003;-3.169233677908778E-003;
2.426333333333334E+009;1.297975331544876E-001;-1.168198883533478E-001;-1.272470923140645E-003;-2.865685150027275E-003;
2.426500000000000E+009;1.293874084949493E-001;-1.179314777255058E-001;-1.143131987191737E-003;-2.765293233096600E-003;
2.426666666666667E+009;1.292254924774170E-001;-1.188767477869988E-001;-1.388828270137310E-003;-2.574080368503928E-003;
2.426833333333334E+009;1.288536638021469E-001;-1.200614273548126E-001;-1.411823090165854E-003;-2.365897176787257E-003;
2.427000000000000E+009;1.285485476255417E-001;-1.210223510861397E-001;-1.440448802895844E-003;-2.249804092571139E-003;
2.427166666666667E+009;1.283127367496491E-001;-1.218420937657356E-001;-1.408980344422162E-003;-2.031241776421666E-003;
2.427333333333334E+009;1.280657649040222E-001;-1.228968501091003E-001;-1.387620810419321E-003;-2.014936879277229E-003;
2.427500000000000E+009;1.279618293046951E-001;-1.237098202109337E-001;-1.288303406909108E-003;-1.914437278173864E-003;
2.427666666666667E+009;1.279171109199524E-001;-1.246166825294495E-001;-1.175398239865899E-003;-1.723439316265285E-003;
2.427833333333334E+009;1.277086287736893E-001;-1.253183931112289E-001;-1.211308874189854E-003;-1.699892804026604E-003;
