# Version 1.00
#
freq[Hz];re:Trc1_S11;im:Trc1_S11;re:Trc2_S21;im:Trc2_S21;
2.400000000000000E+009;1.680450439453125E-001;4.086998850107193E-002;-2.530266763642430E-003;-2.927832305431366E-003;
2.400166666666667E+009;1.685529500246048E-001;4.022483527660370E-002;-2.629417693242431E-003;-2.962644211947918E-003;
2.400333333333334E+009;1.689852327108383E-001;3.930287435650826E-002;-2.611926291137934E-003;-2.879687584936619E-003;
2.400500000000000E+009;1.696233153343201E-001;3.835551068186760E-002;-2.871863543987274E-003;-2.929342910647392E-003;
2.400666666666667E+009;1.699261367321014E-001;3.741646185517311E-002;-3.213759046047926E-003;-2.808856777846813E-003;
2.400833333333334E+009;1.704051047563553E-001;3.653496131300926E-002;-3.217659192159772E-003;-2.717649331316352E-003;
2.401000000000000E+009;1.705246418714523E-001;3.575118258595467E-002;-3.529548877850175E-003;-2.571223070845008E-003;
2.401166666666667E+009;1.707586050033569E-001;3.463135287165642E-002;-3.788965754210949E-003;-2.313445322215557E-003;
2.401333333333334E+009;1.709685325622559E-001;3.377560153603554E-002;-3.960155416280031E-003;-2.224961528554559E-003;
2.401500000000000E+009;1.712810993194580E-001;3.299836441874504E-002;-3.919220063835383E-003;-1.988690812140703E-003;
2.401666666666667E+009;1.712255030870438E-001;3.226589038968086E-002;-4.021599888801575E-003;-1.642776769585908E-003;
2.401833333333334E+009;1.713180541992188E-001;3.106778301298618E-002;-4.044080153107643E-003;-1.355477957986295E-003;
2.402000000000000E+009;1.712968647480011E-001;3.040456958115101E-002;-4.170751199126244E-003;-1.037306734360755E-003;
2.402166666666667E+009;1.712482124567032E-001;2.931856922805309E-002;-4.186567850410938E-003;-8.988791378214955E-004;
2.402333333333334E+009;1.712075024843216E-001;2.848201803863049E-002;-4.114007111638784E-003;-5.113146035000682E-004;
2.402500000000000E+009;1.715434789657593E-001;2.754735574126244E-002;-4.045125562697649E-003;-2.682019548956305E-004;
2.402666666666667E+009;1.712420433759689E-001;2.665871009230614E-002;-3.958909772336483E-003;1.011738931993023E-004;
2.402833333333334E+009;1.712411046028137E-001;2.553108334541321E-002;-3.840726101770997E-003;4.053397569805384E-004;
2.403000000000000E+009;1.712071746587753E-001;2.452426776289940E-002;-3.673289436846972E-003;4.004404472652823E-004;
2.403166666666667E+009;1.712137460708618E-001;2.347344346344471E-002;-3.454879857599735E-003;7.258726400323212E-004;
2.403333333333334E+009;1.710494309663773E-001;2.238647453486919E-002;-3.197710262611508E-003;8.046642178669572E-004;
2.403500000000000E+009;1.709575355052948E-001;2.127574384212494E-002;-2.980926772579551E-003;7.478918414562941E-004;
2.403666666666667E+009;1.708670109510422E-001;1.994531042873859E-002;-2.975241746753454E-003;7.601738325320184E-004;
2.403833333333334E+009;1.708119213581085E-001;1.874274946749210E-002;-2.651751739904285E-003;9.748255251906812E-004;
2.404000000000000E+009;1.708380877971649E-001;1.743696071207523E-002;-2.526164753362536E-003;8.922181441448629E-004;
2.404166666666667E+009;1.705953180789948E-001;1.589255221188068E-002;-2.413327340036631E-003;7.912547443993390E-004;
2.404333333333334E+009;1.704472452402115E-001;1.489967759698629E-002;-2.377142664045095E-003;9.730305755510926E-004;
2.404500000000000E+009;1.701924502849579E-001;1.346604432910681E-002;-2.236361382529140E-003;7.981978706084192E-004;
2.404666666666667E+009;1.702504158020020E-001;1.207060925662518E-002;-2.181871328502893E-003;7.560991216450930E-004;
2.404833333333334E+009;1.701616793870926E-001;1.049113459885120E-002;-2.196435816586018E-003;7.367824437096715E-004;
2.405000000000000E+009;1.701641231775284E-001;9.066504426300526E-003;-2.055909018963575E-003;8.461120887659490E-004;
2.405166666666667E+009;1.701121777296066E-001;7.565038278698921E-003;-2.017932245507836E-003;7.806879584677517E-004;
2.405333333333334E+009;1.702079921960831E-001;5.898441188037396E-003;-1.920908689498901E-003;6.267427233979106E-004;
2.405500000000000E+009;1.702181398868561E-001;4.484716337174177E-003;-1.844055368565023E-003;6.669384893029928E-004;
2.405666666666667E+009;1.701972931623459E-001;2.931161550804973E-003;-1.887150225229561E-003;6.073189433664084E-004;
2.405833333333334E+009;1.700249314308167E-001;1.392562757246196E-003;-1.783860847353935E-003;6.781666306778789E-004;
2.406000000000000E+009;1.700805574655533E-001;-4.722206213045865E-004;-1.775477197952569E-003;7.302125450223684E-004;
2.406166666666667E+009;1.697728037834168E-001;-1.910975086502731E-003;-1.822751364670694E-003;5.304327351041138E-004;
2.406333333333334E+009;1.698688119649887E-001;-3.400147426873446E-003;-1.998607302084565E-003;5.816148477606475E-004;
2.406500000000000E+009;1.697887927293778E-001;-5.084428004920483E-003;-1.874459325335920E-003;6.652919109910727E-004;
2.406666666666667E+009;1.693690419197083E-001;-6.609964184463024E-003;-1.803748775273562E-003;8.444148697890341E-004;
2.406833333333334E+009;1.693731844425201E-001;-8.175659924745560E-003;-1.651861472055316E-003;6.260194932110608E-004;
2.407000000000000E+009;1.693379729986191E-001;-9.552496485412121E-003;-1.878021983429790E-003;7.521407096646726E-004;
2.407166666666667E+009;1.691882908344269E-001;-1.089180074632168E-002;-1.654871739447117E-003;7.474358426406980E-004;
2.407333333333334E+009;1.690257042646408E-001;-1.228252984583378E-002;-1.748559297993779E-003;6.054544355720282E-004;
2.407500000000000E+009;1.688555330038071E-001;-1.357825286686420E-002;-1.575707225129008E-003;5.867512663826346E-004;
2.407666666666667E+009;1.685831993818283E-001;-1.472275890409946E-002;-1.655284548178315E-003;4.358628939371556E-004;
2.407833333333334E+009;1.683921217918396E-001;-1.608496159315109E-002;-1.586006139405072E-003;3.290079475846142E-004;
2.408000000000000E+009;1.682743430137634E-001;-1.706401258707047E-002;-1.659043016843498E-003;1.762751053320244E-004;
2.408166666666667E+009;1.681270748376846E-001;-1.794860325753689E-002;-1.693385420367122E-003;1.550016895635054E-004;
2.408333333333334E+009;1.682829707860947E-001;-1.890955865383148E-002;-1.779511221684516E-003;1.229740009875968E-004;
2.408500000000000E+009;1.682527810335159E-001;-1.980401016771793E-002;-1.950438832864165E-003;2.414101763861254E-004;
2.408666666666667E+009;1.683701425790787E-001;-2.083452232182026E-002;-2.008450683206320E-003;1.008698309306055E-004;
2.408833333333334E+009;1.683939248323441E-001;-2.173473499715328E-002;-2.210818929597735E-003;2.009135932894424E-004;
2.409000000000000E+009;1.682816594839096E-001;-2.259743027389050E-002;-2.325946930795908E-003;1.110112789319828E-004;
2.409166666666667E+009;1.686566621065140E-001;-2.338103018701077E-002;-2.336038742214441E-003;2.601420856080949E-004;
2.409333333333334E+009;1.687081158161163E-001;-2.441867627203465E-002;-2.552753314375877E-003;5.498487735167146E-004;
2.409500000000000E+009;1.688060909509659E-001;-2.545319683849812E-002;-2.789094578474760E-003;4.658405377995223E-004;
2.409666666666667E+009;1.689512729644775E-001;-2.615315467119217E-002;-2.868196228519082E-003;7.535792537964881E-004;
2.409833333333334E+009;1.689814776182175E-001;-2.702471986413002E-002;-2.928608562797308E-003;7.633973145857453E-004;
2.410000000000000E+009;1.692286878824234E-001;-2.784962393343449E-002;-2.935506403446198E-003;9.153892751783133E-004;
2.410166666666667E+009;1.693412512540817E-001;-2.883203141391277E-002;-2.854253631085157E-003;1.054205931723118E-003;
2.410333333333334E+009;1.691632121801376E-001;-2.972594834864140E-002;-3.124732524156570E-003;1.275776303373277E-003;
2.410500000000000E+009;1.691561043262482E-001;-3.062616847455502E-002;-3.135117469355464E-003;1.494394382461906E-003;
2.410666666666667E+009;1.689148098230362E-001;-3.168157115578651E-002;-3.221030579879880E-003;1.615953282453120E-003;
2.410833333333334E+009;1.688725352287293E-001;-3.257101401686668E-002;-3.006394254043698E-003;2.010573633015156E-003;
2.411000000000000E+009;1.686705648899078E-001;-3.326323628425598E-002;-2.975166775286198E-003;1.881895703263581E-003;
2.411166666666667E+009;1.684627234935761E-001;-3.436630219221115E-002;-2.976964227855206E-003;2.276859479025006E-003;
2.411333333333334E+009;1.684397757053375E-001;-3.502165526151657E-002;-2.925927517935634E-003;2.344098873436451E-003;
2.411500000000000E+009;1.680627018213272E-001;-3.610257431864739E-002;-2.749825594946742E-003;2.711518900468946E-003;
2.411666666666667E+009;1.681304723024368E-001;-3.691345453262329E-002;-2.831947524100542E-003;2.887879032641649E-003;
2.411833333333334E+009;1.678110361099243E-001;-3.749167919158936E-002;-2.650371287018061E-003;2.903511282056570E-003;
2.412000000000000E+009;1.677082180976868E-001;-3.861660510301590E-002;-2.428688574582338E-003;3.112185513600707E-003;
2.412166666666667E+009;1.671075522899628E-001;-3.945311903953552E-002;-2.098093507811427E-003;3.307963721454144E-003;
2.412333333333334E+009;1.672301739454269E-001;-4.030618444085121E-002;-2.138923853635788E-003;3.193364711478353E-003;
2.412500000000000E+009;1.665808409452438E-001;-4.137692600488663E-002;-1.820933306589723E-003;3.278117394074798E-003;
2.412666666666667E+009;1.663841009140015E-001;-4.245416820049286E-002;-1.754124881699681E-003;3.464021021500230E-003;
2.412833333333334E+009;1.659446507692337E-001;-4.352411627769470E-002;-1.695644110441208E-003;3.478788072243333E-003;
2.413000000000000E+009;1.655414253473282E-001;-4.441461712121964E-002;-1.613400643691421E-003;3.524495987221599E-003;
2.413166666666667E+009;1.650311499834061E-001;-4.543166607618332E-002;-1.369184348732233E-003;3.681071568280459E-003;
2.413333333333334E+009;1.647509783506393E-001;-4.638523608446121E-002;-1.179528655484319E-003;3.666020464152098E-003;
2.413500000000000E+009;1.642940193414688E-001;-4.746027290821075E-002;-1.053169369697571E-003;3.564899554476142E-003;
2.413666666666667E+009;1.638033539056778E-001;-4.856381937861443E-002;-9.256423800252378E-004;3.741770051419735E-003;
2.413833333333334E+009;1.630215793848038E-001;-4.945175349712372E-002;-8.635981939733028E-004;3.665010910481215E-003;
2.414000000000000E+009;1.627340316772461E-001;-5.050009116530418E-002;-7.447073003277183E-004;3.790527116507292E-003;
2.414166666666667E+009;1.624598056077957E-001;-5.162657052278519E-002;-5.802141386084259E-004;3.636644454672933E-003;
2.414333333333334E+009;1.620551049709320E-001;-5.252543091773987E-002;-5.349267739802599E-004;3.558740252628923E-003;
2.414500000000000E+009;1.617907732725143E-001;-5.346830189228058E-002;-4.062968364451081E-004;3.557023126631975E-003;
2.414666666666667E+009;1.614601463079453E-001;-5.440616980195046E-002;-2.340291393920779E-004;3.519458230584860E-003;
2.414833333333334E+009;1.611094772815704E-001;-5.552629008889198E-002;-1.528743305243552E-004;3.835252486169338E-003;
2.415000000000000E+009;1.608987450599670E-001;-5.658037588000298E-002;-9.577206947142258E-005;3.604819066822529E-003;
2.415166666666667E+009;1.606037020683289E-001;-5.759174376726151E-002;-1.484780204918934E-005;3.761332249268889E-003;
2.415333333333334E+009;1.606057584285736E-001;-5.884128436446190E-002;2.445075951982290E-004;3.521148115396500E-003;
2.415500000000000E+009;1.603399366140366E-001;-5.981948971748352E-002;2.535224484745413E-004;3.550789784640074E-003;
2.415666666666667E+009;1.602028459310532E-001;-6.105682998895645E-002;1.303382741753012E-004;3.677646629512310E-003;
2.415833333333334E+009;1.600835025310516E-001;-6.228277087211609E-002;4.511173756327480E-004;3.601627191528678E-003;
2.416000000000000E+009;1.597793102264404E-001;-6.337167322635651E-002;4.978848737664521E-004;3.494380274787545E-003;
2.416166666666667E+009;1.597988903522492E-001;-6.476344168186188E-002;7.167177391238511E-004;3.705519484356046E-003;
2.416333333333334E+009;1.594218909740448E-001;-6.585315614938736E-002;6.056248093955219E-004;3.551827976480126E-003;
2.416500000000000E+009;1.592004895210266E-001;-6.707107275724411E-002;5.944464937783778E-004;3.741578897461295E-003;
2.416666666666667E+009;1.588436365127564E-001;-6.824185699224472E-002;8.703102939762175E-004;3.850696608424187E-003;
2.416833333333334E+009;1.586090922355652E-001;-6.968972831964493E-002;1.014646142721176E-003;3.830118104815483E-003;
2.417000000000000E+009;1.579680442810059E-001;-7.067426294088364E-002;1.152095617726445E-003;3.819715930148959E-003;
2.417166666666667E+009;1.578112840652466E-001;-7.151585817337036E-002;1.409452408552170E-003;3.800262464210391E-003;
2.417333333333334E+009;1.573921591043472E-001;-7.265635579824448E-002;1.602801610715687E-003;3.777640173211694E-003;
2.417500000000000E+009;1.570440530776978E-001;-7.360973954200745E-002;1.637676265090704E-003;3.886245423927903E-003;
2.417666666666667E+009;1.568383425474167E-001;-7.437773048877716E-002;1.990565098822117E-003;3.873946610838175E-003;
2.417833333333334E+009;1.565877050161362E-001;-7.525298744440079E-002;2.042397158220410E-003;3.674692241474986E-003;
2.418000000000000E+009;1.560931205749512E-001;-7.617402076721191E-002;2.182965166866779E-003;3.710811259225011E-003;
2.418166666666667E+009;1.558987796306610E-001;-7.693124562501907E-002;2.457805909216404E-003;3.573858877643943E-003;
2.418333333333334E+009;1.559188216924667E-001;-7.778436690568924E-002;2.596271457150579E-003;3.495103912428021E-003;
2.418500000000000E+009;1.554517447948456E-001;-7.854109257459641E-002;2.837256528437138E-003;3.441618988290429E-003;
2.418666666666667E+009;1.552928686141968E-001;-7.941693067550659E-002;2.877864055335522E-003;3.404125338420272E-003;
2.418833333333334E+009;1.548685729503632E-001;-8.006656914949417E-002;3.176324767991900E-003;3.013255074620247E-003;
2.419000000000000E+009;1.544715762138367E-001;-8.080685138702393E-002;3.336467547342181E-003;2.872183453291655E-003;
2.419166666666667E+009;1.542151421308518E-001;-8.155347406864166E-002;3.468899754807353E-003;2.869119634851813E-003;
2.419333333333334E+009;1.537480503320694E-001;-8.195310831069946E-002;3.575871465727687E-003;2.598649589344859E-003;
2.419500000000000E+009;1.533617079257965E-001;-8.283472061157227E-002;3.868260188028216E-003;2.441946417093277E-003;
2.419666666666667E+009;1.532359272241592E-001;-8.346372842788696E-002;4.010565578937531E-003;2.156685804948211E-003;
2.419833333333334E+009;1.528102606534958E-001;-8.390880376100540E-002;4.030944779515266E-003;1.877193688414991E-003;
2.420000000000000E+009;1.525021940469742E-001;-8.453362435102463E-002;4.168569575995207E-003;1.687693409621716E-003;
2.420166666666667E+009;1.521672308444977E-001;-8.502016216516495E-002;4.052823875099421E-003;1.394541934132576E-003;
2.420333333333334E+009;1.517645567655563E-001;-8.571325987577438E-002;4.214499611407518E-003;1.126149552874267E-003;
2.420500000000000E+009;1.514800190925598E-001;-8.596426248550415E-002;4.118557553738356E-003;9.350879117846489E-004;
2.420666666666667E+009;1.510291546583176E-001;-8.650235086679459E-002;4.108607303351164E-003;6.425380124710500E-004;
2.420833333333334E+009;1.507442742586136E-001;-8.723762631416321E-002;3.938013687729836E-003;3.088427474722266E-004;
2.421000000000000E+009;1.502609401941299E-001;-8.798834681510925E-002;3.815486095845699E-003;1.278470881516114E-004;
2.421166666666667E+009;1.498020887374878E-001;-8.846075832843781E-002;3.782263724133372E-003;-1.442992015654454E-005;
2.421333333333334E+009;1.494862735271454E-001;-8.918687701225281E-002;3.559699282050133E-003;-2.729723055381328E-004;
2.421500000000000E+009;1.488508284091950E-001;-8.987884223461151E-002;3.438222222030163E-003;-6.064488552510738E-004;
2.421666666666667E+009;1.483806967735291E-001;-9.060706943273544E-002;3.307462437078357E-003;-4.134946502745152E-004;
2.421833333333334E+009;1.479173153638840E-001;-9.141944348812103E-002;2.852084347978234E-003;-6.977858720347285E-004;
2.422000000000000E+009;1.472293287515640E-001;-9.210924059152603E-002;2.963119884952903E-003;-7.198664243333042E-004;
2.422166666666667E+009;1.465858966112137E-001;-9.303735941648483E-002;2.646422246471047E-003;-7.093125605024397E-004;
2.422333333333334E+009;1.459057927131653E-001;-9.362361580133438E-002;2.655950142070651E-003;-6.320932880043984E-004;
2.422500000000000E+009;1.453647166490555E-001;-9.410800784826279E-002;2.365235239267349E-003;-6.609768024645746E-004;
2.422666666666667E+009;1.446637809276581E-001;-9.521687030792236E-002;2.244381001219153E-003;-7.344538462348282E-004;
2.422833333333334E+009;1.442252099514008E-001;-9.605834633111954E-002;2.034676494076848E-003;-8.033608901314437E-004;
2.423000000000000E+009;1.435064077377319E-001;-9.680298715829849E-002;2.059476217254996E-003;-6.767948507331312E-004;
2.423166666666667E+009;1.429629474878311E-001;-9.784935414791107E-002;1.932296319864690E-003;-6.078955484554172E-004;
2.423333333333334E+009;1.423385143280029E-001;-9.850391745567322E-002;1.817801035940647E-003;-5.771087598986924E-004;
2.423500000000000E+009;1.417263150215149E-001;-9.957893192768097E-002;1.800113474018872E-003;-4.289256175979972E-004;
2.423666666666667E+009;1.408282220363617E-001;-1.006614118814468E-001;1.731247990392149E-003;-3.138940664939582E-004;
2.423833333333334E+009;1.403988450765610E-001;-1.016167551279068E-001;1.523307291790843E-003;-1.942631206475198E-004;
2.424000000000000E+009;1.395121514797211E-001;-1.024172529578209E-001;1.743025495670736E-003;-1.951751764863730E-004;
2.424166666666667E+009;1.387138664722443E-001;-1.034719496965408E-001;1.689844648353756E-003;-2.397482749074698E-004;
2.424333333333334E+009;1.382507234811783E-001;-1.043500676751137E-001;1.725944108329713E-003;-3.814407318714075E-005;
2.424500000000000E+009;1.376852244138718E-001;-1.054316535592079E-001;1.891238614916802E-003;3.021377960976679E-005;
2.424666666666667E+009;1.371881514787674E-001;-1.062296107411385E-001;1.930302707478404E-003;-3.616006506490521E-005;
2.424833333333334E+009;1.363030523061752E-001;-1.072431281208992E-001;1.980334753170610E-003;1.656191016081721E-004;
2.425000000000000E+009;1.359286159276962E-001;-1.082111299037933E-001;1.967212418094277E-003;2.255093131680042E-004;
2.425166666666667E+009;1.352040171623230E-001;-1.091367602348328E-001;2.028195187449455E-003;4.481880387174897E-005;
2.425333333333334E+009;1.347431689500809E-001;-1.101493388414383E-001;2.101912396028638E-003;1.484832027927041E-004;
2.425500000000000E+009;1.342818439006805E-001;-1.111542880535126E-001;2.415416296571493E-003;1.687979965936393E-004;
2.425666666666667E+009;1.336493790149689E-001;-1.121756732463837E-001;2.464831573888660E-003;2.183889300795272E-004;
2.425833333333334E+009;1.331358700990677E-001;-1.130416020751000E-001;2.554785227403045E-003;-1.333642576355487E-004;
2.426000000000000E+009;1.327732503414154E-001;-1.142450347542763E-001;2.729572122916579E-003;-3.114329301752150E-004;
2.426166666666667E+009;1.324565857648850E-001;-1.151633933186531E-001;2.829325152561069E-003;-2.115869283443317E-004;
2.426333333333334E+009;1.318894326686859E-001;-1.160970330238342E-001;2.962906146422029E-003;-3.088473749812692E-004;
2.426500000000000E+009;1.316061913967133E-001;-1.168166995048523E-001;2.903210697695613E-003;-5.757540347985923E-004;
2.426666666666667E+009;1.313028037548065E-001;-1.176208108663559E-001;2.919016638770700E-003;-5.966561730019748E-004;
2.426833333333334E+009;1.308165788650513E-001;-1.185281202197075E-001;2.997273113578558E-003;-5.665650824084878E-004;
2.427000000000000E+009;1.302895098924637E-001;-1.194173395633698E-001;3.012503730133176E-003;-7.477174513041973E-004;
2.427166666666667E+009;1.299726963043213E-001;-1.200576126575470E-001;2.993605332449079E-003;-1.053397194482386E-003;
2.427333333333334E+009;1.295941472053528E-001;-1.208182126283646E-001;2.997369272634387E-003;-1.212990842759609E-003;
2.427500000000000E+009;1.294152885675430E-001;-1.215694397687912E-001;2.993660513311625E-003;-1.378898043185473E-003;
2.427666666666667E+009;1.291275322437286E-001;-1.222120523452759E-001;2.842885442078114E-003;-1.519545097835362E-003;
