# Hz S RI R 50
2400000000.0000000000 0.150515943765640286544638115629 0.115634299814701094200053432814 0.006592427380383014678955078125 0.003021380165591835975646972656 0 0 0 0 
2400166666.6666665077 0.150089681148529108245526231258 0.113569922745227799842915317186 0.006630718242377042770385742188 0.002624723361805080933811806787 0 0 0 0 
2400333333.3333334923 0.150123745203018188476562500000 0.111286893486976595779580634371 0.006656195502728223800659179688 0.002189861843362451033351279150 0 0 0 0 
2400500000.0000000000 0.149903461337089510818643134371 0.108890712261200006683026231258 0.006903939414769411087036132812 0.001608997932635247924207377856 0 0 0 0 
2400666666.6666665077 0.149889543652534512618856865629 0.106369271874427795410156250000 0.006728845648467540740966796875 0.001242375466972589926478720557 0 0 0 0 
2400833333.3333334923 0.149799332022666903396768134371 0.103661820292472797722105326557 0.006710565183311700820922851562 0.000743209791835397481918334961 0 0 0 0 
2401000000.0000000000 0.149959176778793307205361884371 0.100935295224189799934144673443 0.006626720540225505828857421875 0.000217762877582572400569915771 0 0 0 0 
2401166666.6666665077 0.149967744946479797363281250000 0.098270356655120849609375000000 0.006340416148304939270019531250 -0.000062354178226087242364883423 0 0 0 0 
2401333333.3333334923 0.150189891457557705978231865629 0.095575518906116485595703125000 0.006243200507014989852905273438 -0.000473558000521734411090296613 0 0 0 0 
2401500000.0000000000 0.150571271777152987381143134371 0.092518225312232971191406250000 0.006040869746357203397268964551 -0.000662031292449682950973510742 0 0 0 0 
2401666666.6666665077 0.150937438011169405838174384371 0.089782759547233581542968750000 0.005801947321742773056030273438 -0.000815540784969925880432128906 0 0 0 0 
2401833333.3333334923 0.151443585753440912444744981258 0.086918070912361145019531250000 0.005639422219246625900268554688 -0.001123437890782952091814350659 0 0 0 0 
2402000000.0000000000 0.152361288666725186446981865629 0.084253437817096710205078125000 0.005161086563020944595336914062 -0.001457062200643121979357075269 0 0 0 0 
2402166666.6666665077 0.153231024742126492599325615629 0.081498458981513977050781250000 0.004964662715792655944824218750 -0.001476686447858809991123818506 0 0 0 0 
2402333333.3333334923 0.154148712754249600509481865629 0.078872077167034149169921875000 0.004819049965590238571166992188 -0.001716221333481370969059609521 0 0 0 0 
2402500000.0000000000 0.155476748943328912933026231258 0.076210074126720428466796875000 0.004755511414259672164916992188 -0.001571715227328241088269877856 0 0 0 0 
2402666666.6666665077 0.156767040491104098220986884371 0.073702625930309295654296875000 0.004437731113284826278686523438 -0.001942739356309175925013876807 0 0 0 0 
2402833333.3333334923 0.158073723316192599197549384371 0.070991501212120056152343750000 0.004421147052198649320120527051 -0.001786341192200779914855957031 0 0 0 0 
2403000000.0000000000 0.159671068191528292556924384371 0.068672940135002136230468750000 0.004131338559091091156005859375 -0.002003138186410069899318076025 0 0 0 0 
2403166666.6666665077 0.161639481782913208007812500000 0.066267140209674835205078125000 0.004061348270624876022338867188 -0.001988923409953712983372353662 0 0 0 0 
2403333333.3333334923 0.163328245282173212249432481258 0.064000613987445831298828125000 0.003916241694241762161254882812 -0.001962031004950404167175292969 0 0 0 0 
2403500000.0000000000 0.165433213114738492111044365629 0.061944711953401572490651716407 0.003897967515513300895690917969 -0.002084357431158422990086220850 0 0 0 0 
2403666666.6666665077 0.167282655835151700118856865629 0.059800103306770331645925153907 0.003692752914503217177150107275 -0.002274086000397800965550088037 0 0 0 0 
2403833333.3333334923 0.169214040040969904143963731258 0.057696942239999771118164062500 0.003592423163354396820068359375 -0.002358452416956425146815634619 0 0 0 0 
2404000000.0000000000 0.171065956354141207595986884371 0.055723376572132110595703125000 0.003456771839410067038295126807 -0.002424738602712750001194619287 0 0 0 0 
2404166666.6666665077 0.173142641782760592361611884371 0.054019834846258163452148437500 0.003357360139489173889160156250 -0.002255548024550079865696572412 0 0 0 0 
2404333333.3333334923 0.174981370568275507171307481258 0.052423845976591110229492187500 0.003241934813559054894688271631 -0.002668249886482954025268554688 0 0 0 0 
2404500000.0000000000 0.176933512091636713225994981258 0.050661735236644751811940778907 0.003170927753672004179713583838 -0.002595092868432403044459677588 0 0 0 0 
2404666666.6666665077 0.179029911756515502929687500000 0.049370318651199340820312500000 0.003053478663787246184108115088 -0.002720667980611323876621865381 0 0 0 0 
2404833333.3333334923 0.180989101529121398925781250000 0.048333398997783660888671875000 0.002905077766627072854282998193 -0.002641313010826706886291503906 0 0 0 0 
2405000000.0000000000 0.182659223675727788727130018742 0.047417107969522483135182966407 0.002641150727868080139160156250 -0.002679485362023115158081054688 0 0 0 0 
2405166666.6666665077 0.184535920619964599609375000000 0.046582646667957312847097028907 0.002568102907389401955845498193 -0.002776596928015350861790322412 0 0 0 0 
2405333333.3333334923 0.186336442828178405761718750000 0.045839499682188027118723283593 0.002322150161489843888523720850 -0.002810705918818711800816201318 0 0 0 0 
2405500000.0000000000 0.187909126281738309005575615629 0.045186851173639297485351562500 0.002251201309263706207275390625 -0.002689549233764410018920898438 0 0 0 0 
2405666666.6666665077 0.189694613218307495117187500000 0.044761747121810913085937500000 0.002003053436055779890773154150 -0.002786808414384723143336630713 0 0 0 0 
2405833333.3333334923 0.191294521093368502517861884371 0.044452775269746780395507812500 0.001998300664126873016357421875 -0.002737881848588585853576660156 0 0 0 0 
2406000000.0000000000 0.192655131220817593673544365629 0.044153206050395972515065778907 0.001929092104546725966809916919 -0.002715640002861618995666503906 0 0 0 0 
2406166666.6666665077 0.194011747837066705901776231258 0.043835472315549850463867187500 0.001777575700543821074842143481 -0.002739321440458298163173056494 0 0 0 0 
2406333333.3333334923 0.195164442062377901931924384371 0.043817959725856781005859375000 0.001788709079846739985822368091 -0.002817765809595584869384765625 0 0 0 0 
2406500000.0000000000 0.196255773305892888824786268742 0.043669432401657097553293596093 0.001628171419724822044372558594 -0.002611666452139616012573242188 0 0 0 0 
2406666666.6666665077 0.197238415479660006424111884371 0.043796371668577187274973283593 0.001519590965472161986707377856 -0.002511988161131740050074911963 0 0 0 0 
2406833333.3333334923 0.198030740022659301757812500000 0.043713405728340148925781250000 0.001374478335492312908172607422 -0.002588918898254632949829101562 0 0 0 0 
2407000000.0000000000 0.198613077402114895919638115629 0.043877910822629928588867187500 0.001454808632843195958378457178 -0.002423735335469245910644531250 0 0 0 0 
2407166666.6666665077 0.199323669075965909103231865629 0.043741676956415183330495466407 0.001437228638678788921953510815 -0.002417410025373100800755166162 0 0 0 0 
2407333333.3333334923 0.199515327811241205413494981258 0.043893031775951392436940778907 0.001412676414474844932556152344 -0.002254973165690898895263671875 0 0 0 0 
2407500000.0000000000 0.199576452374458312988281250000 0.044056355953216552734375000000 0.001362063339911401054979633862 -0.002388214459642767906188964844 0 0 0 0 
2407666666.6666665077 0.199778199195861788650674384371 0.043959792703390121459960937500 0.001281546079553663947461772388 -0.002337566344067453904392861475 0 0 0 0 
2407833333.3333334923 0.199455723166465787032919365629 0.043993048369884490966796875000 0.001328451908193529085872031104 -0.002364505548030138015747070312 0 0 0 0 
2408000000.0000000000 0.199516490101814297775106865629 0.043761909008026123046875000000 0.001307132071815430901171040112 -0.002248550532385706901550292969 0 0 0 0 
2408166666.6666665077 0.199095010757446289062500000000 0.043691247701644897460937500000 0.001294712419621645970585488428 -0.002426101360470056967494345557 0 0 0 0 
2408333333.3333334923 0.198579072952270507812500000000 0.043178606778383261943776716407 0.001306002144701779105542827075 -0.002419132273644208908081054688 0 0 0 0 
2408500000.0000000000 0.197922229766845703125000000000 0.042925983667373657226562500000 0.001311636646278202967402792822 -0.002380283083766698837280273438 0 0 0 0 
2408666666.6666665077 0.197427198290824890136718750000 0.042673747986555099487304687500 0.001289370353333652019500732422 -0.002359515987336636023280478369 0 0 0 0 
2408833333.3333334923 0.196522220969200106521768134371 0.041839677840471267700195312500 0.001420214539393783049342490088 -0.002373033436015247864964150537 0 0 0 0 
2409000000.0000000000 0.195520281791687011718750000000 0.041135139763355262065847028907 0.001456717029213904900791787256 -0.002384670777246356010437011719 0 0 0 0 
2409166666.6666665077 0.194451302289962796310263115629 0.040305327624082572246511091407 0.001393987098708749034284282153 -0.002501839771866797967198037256 0 0 0 0 
2409333333.3333334923 0.193465068936347989181356865629 0.039537992328405380249023437500 0.001517931115813552899601601709 -0.002549061086028813882115029443 0 0 0 0 
2409500000.0000000000 0.192232668399810791015625000000 0.038253627717494971538503278907 0.001545315142720937945722270435 -0.002602549502626061005833291162 0 0 0 0 
2409666666.6666665077 0.191268354654312106033486884371 0.037022762000560760498046875000 0.001667463337071239948272705078 -0.002765901852399110794067382812 0 0 0 0 
2409833333.3333334923 0.189938351511955288986044365629 0.035648997873067862773854841407 0.001561475801281630992889404297 -0.002726140199229121208190917969 0 0 0 0 
2410000000.0000000000 0.188801050186157198806924384371 0.034211318939924240112304687500 0.001528750522993505001068115234 -0.002851770957931876182556152344 0 0 0 0 
2410166666.6666665077 0.187538355588912991622763115629 0.032550722360610961914062500000 0.001550553715787827968597412109 -0.003013797337189317183253622900 0 0 0 0 
2410333333.3333334923 0.186386048793792696853799384371 0.030784351751208308828333670704 0.001564495847560464902165078271 -0.003257928183302282853367470850 0 0 0 0 
2410500000.0000000000 0.185188800096511813064736884371 0.028979625552892688405970389454 0.001501876045949757099151611328 -0.003430048702284694151637411963 0 0 0 0 
2410666666.6666665077 0.184136584401130704025106865629 0.026709515601396560668945312500 0.001378915389068424918531108325 -0.003345242002978920936584472656 0 0 0 0 
2410833333.3333334923 0.183221995830535888671875000000 0.024723444133996960031529610546 0.001299327937886119105695414966 -0.003617009846493601799011230469 0 0 0 0 
2411000000.0000000000 0.182375341653823908050213731258 0.022484272718429568899134451954 0.001082789851352572007420205225 -0.003679854795336722893955849756 0 0 0 0 
2411166666.6666665077 0.181387349963188199142294365629 0.020245853811502460134486014454 0.001036816393025219006779336084 -0.003904304932802916006800986182 0 0 0 0 
2411333333.3333334923 0.180720224976539611816406250000 0.017661677673459049570103829296 0.000804735114797949790954589844 -0.003895319299772382216212607275 0 0 0 0 
2411500000.0000000000 0.179909572005271911621093750000 0.015458612702786920720110508398 0.000601169827859848737716674805 -0.003934256266802549362182617188 0 0 0 0 
2411666666.6666665077 0.179594442248344393631143134371 0.012938023544847970444648943555 0.000625338521786034107208251953 -0.003835383104160428047180175781 0 0 0 0 
2411833333.3333334923 0.179187148809433011154013115629 0.010423738509416580200195312500 0.000436186703154817223548889160 -0.004011050797998905181884765625 0 0 0 0 
2412000000.0000000000 0.179173722863197298904580634371 0.007771643344312906265258789062 0.000264875765424221808284205304 -0.004112986382097005844116210938 0 0 0 0 
2412166666.6666665077 0.179055809974670410156250000000 0.005435338243842124938964843750 -0.000028179438231745741587092741 -0.003969454672187566757202148438 0 0 0 0 
2412333333.3333334923 0.179056122899055508712606865629 0.002551065990701317787170410156 -0.000011293303032289260829789009 -0.003971084952354431152343750000 0 0 0 0 
2412500000.0000000000 0.179309323430061312576455634371 0.000175496345036663087919512338 -0.000290605326881632208824157715 -0.004091972950845956802368164062 0 0 0 0 
2412666666.6666665077 0.179837360978126498123330634371 -0.002445703372359275817871093750 -0.000339329824782908017009180890 -0.003908218350261449813842773438 0 0 0 0 
2412833333.3333334923 0.180462360382080105880575615629 -0.004985515959560871124267578125 -0.000484476768178865313529968262 -0.004058940801769495010375976562 0 0 0 0 
2413000000.0000000000 0.180887430906295804122763115629 -0.007500278763473033905029296875 -0.000889007758814841508865356445 -0.004022438544780015945434570312 0 0 0 0 
2413166666.6666665077 0.181709378957748413085937500000 -0.009955508634448051452636718750 -0.000760758761316537857055664062 -0.004027559421956539154052734375 0 0 0 0 
2413333333.3333334923 0.182567015290260287185830634371 -0.012502156198024749755859375000 -0.000894779223017394542694091797 -0.004080928396433591842651367188 0 0 0 0 
2413500000.0000000000 0.183505266904830904861611884371 -0.015070242807269099843958670704 -0.000950965972151607275009155273 -0.003908860962837935361380292676 0 0 0 0 
2413666666.6666665077 0.184549257159233093261718750000 -0.017375476658344268798828125000 -0.001001424505375325896619487231 -0.003989764954894781112670898438 0 0 0 0 
2413833333.3333334923 0.185632482171058710296307481258 -0.019684646278619769704798514454 -0.001089762430638075091718364185 -0.003895077388733624978306435693 0 0 0 0 
2414000000.0000000000 0.186602413654327392578125000000 -0.021780412644147869455357735546 -0.001216856297105550982831645435 -0.003737535793334246115443564307 0 0 0 0 
2414166666.6666665077 0.188023835420608492752236884371 -0.023639686405658718454381173046 -0.001540274359285832101937319116 -0.003722478635609149932861328125 0 0 0 0 
2414333333.3333334923 0.189035505056381197830361884371 -0.025908518582582470285435860546 -0.001527444925159215927124023438 -0.003965720534324645996093750000 0 0 0 0 
2414500000.0000000000 0.190436437726020812988281250000 -0.027597930282354358327845389454 -0.001582680386491120078443217700 -0.004085740540176630020141601562 0 0 0 0 
2414666666.6666665077 0.191677957773208590408486884371 -0.029248746111989021301269531250 -0.001890288782306015925166464697 -0.004134257789701223373413085938 0 0 0 0 
2414833333.3333334923 0.192971676588058499435263115629 -0.030689399689435958862304687500 -0.001997612183913588957545615088 -0.004152439534664154052734375000 0 0 0 0 
2415000000.0000000000 0.194088771939277704436932481258 -0.032304272055625922466237653907 -0.002339232247322798208949423682 -0.004068766720592975616455078125 0 0 0 0 
2415166666.6666665077 0.195523723959922790527343750000 -0.033515010029077529907226562500 -0.002541434252634644942042685400 -0.003978553228080272674560546875 0 0 0 0 
2415333333.3333334923 0.196732461452484103103799384371 -0.034647811204195022583007812500 -0.002659455640241504149196005713 -0.004027251154184341430664062500 0 0 0 0 
2415500000.0000000000 0.197872176766395596603231865629 -0.035576585680246353149414062500 -0.002905987203121184869053506006 -0.004011576995253562927246093750 0 0 0 0 
2415666666.6666665077 0.199173524975776700118856865629 -0.036524996161460883403737653907 -0.003251376794651151137111044775 -0.003829619148746132850646972656 0 0 0 0 
2415833333.3333334923 0.200181052088737487792968750000 -0.037285041064023971557617187500 -0.003521613776683806939366006006 -0.003784833475947380065917968750 0 0 0 0 
2416000000.0000000000 0.201095104217529296875000000000 -0.037812542170286178588867187500 -0.003681720700114965005161904443 -0.003424415132030845122096396338 0 0 0 0 
2416166666.6666665077 0.201891362667083712478799384371 -0.038521002978086471557617187500 -0.003861935576424003081080771338 -0.003253776580095291137695312500 0 0 0 0 
2416333333.3333334923 0.202671259641647311111611884371 -0.038799282163381576538085937500 -0.004144670907407999038696289062 -0.003038447350263596014735556494 0 0 0 0 
2416500000.0000000000 0.203326404094695989410723768742 -0.039126660674810409545898437500 -0.004333575721830129623413085938 -0.002770543564110993905308388818 0 0 0 0 
2416666666.6666665077 0.203742742538452203948651231258 -0.039366316050291061401367187500 -0.004228622652590274810791015625 -0.002429418032988905906677246094 0 0 0 0 
2416833333.3333334923 0.204101070761680603027343750000 -0.039371643215417861938476562500 -0.004180159885436297330374433301 -0.002209119033068418936488486182 0 0 0 0 
2417000000.0000000000 0.204303175210952786544638115629 -0.039531715214252471923828125000 -0.004342937842011451721191406250 -0.002137922914698719978332519531 0 0 0 0 
2417166666.6666665077 0.204259008169174194335937500000 -0.039276991039514541625976562500 -0.004339397884905338287353515625 -0.001865765778347850062726664966 0 0 0 0 
2417333333.3333334923 0.204264298081398010253906250000 -0.039005249738693237304687500000 -0.004474011249840260419363691113 -0.001465254230424761988996196216 0 0 0 0 
2417500000.0000000000 0.204113408923149108886718750000 -0.038936696946620941162109375000 -0.004268727265298367413992597363 -0.001371984835714102008222270435 0 0 0 0 
2417666666.6666665077 0.203863263130187988281250000000 -0.038605615496635437011718750000 -0.004197912756353616714477539062 -0.001278922194615006013157509912 0 0 0 0 
2417833333.3333334923 0.203614369034767206390057481258 -0.038227524608373641967773437500 -0.004169186111539602279663085938 -0.001177972531877458095550537109 0 0 0 0 
2418000000.0000000000 0.203118801116943387130575615629 -0.037802904844284057617187500000 -0.004239956382662057876586914062 -0.001097059808671475107308412866 0 0 0 0 
2418166666.6666665077 0.202449798583984402755575615629 -0.037482392042875289916992187500 -0.004289083182811737060546875000 -0.000898866332136094570159912109 0 0 0 0 
2418333333.3333334923 0.201687350869178799728231865629 -0.037182960659265518188476562500 -0.004313000943511725339407636426 -0.000782791990786790847778320312 0 0 0 0 
2418500000.0000000000 0.200782135128974886795205634371 -0.037076018750667572021484375000 -0.004455942660570144653320312500 -0.000624915643129497766494750977 0 0 0 0 
2418666666.6666665077 0.200009360909462002853231865629 -0.036847002804279327392578125000 -0.004475486464798451337332441113 -0.000555756560061126947402954102 0 0 0 0 
2418833333.3333334923 0.198876723647117586990518134371 -0.036720998585224151611328125000 -0.004448504187166690826416015625 -0.000450491032097488587528782977 0 0 0 0 
2419000000.0000000000 0.197645172476768493652343750000 -0.036773677915334701538085937500 -0.004629523493349552154541015625 -0.000212948536500334712580004282 0 0 0 0 
2419166666.6666665077 0.196433052420616205413494981258 -0.036756049841642379760742187500 -0.004538414534181356430053710938 -0.000148657243698835400029859000 0 0 0 0 
2419333333.3333334923 0.195136532187461908538494981258 -0.037100259214639656757395158593 -0.004605427850037813186645507812 0.000141251148306764689370831900 0 0 0 0 
2419500000.0000000000 0.193678185343742398361044365629 -0.037364874035120010375976562500 -0.004567742347717285156250000000 0.000367518456187099218368530273 0 0 0 0 
2419666666.6666665077 0.192146912217140197753906250000 -0.038103256374597549438476562500 -0.004562154412269592285156250000 0.000601300504058599472045898438 0 0 0 0 
2419833333.3333334923 0.190570786595344487945880018742 -0.038679812103509902954101562500 -0.004549909383058547973632812500 0.000846797949634492397308349609 0 0 0 0 
