# Version 1.00
#
freq[Hz];re:Trc1_S11;im:Trc1_S11;re:Trc2_S21;im:Trc2_S21;
2.400000000000000E+009;1.711213290691376E-001;4.005498811602593E-002;2.108209533616900E-003;1.529393601231277E-003;
2.400166666666667E+009;1.716690212488174E-001;3.960261866450310E-002;2.056959317997098E-003;1.434138393960893E-003;
2.400333333333334E+009;1.723058074712753E-001;3.879797086119652E-002;2.235407941043377E-003;1.230888999998570E-003;
2.400500000000000E+009;1.726933568716049E-001;3.822714835405350E-002;2.223678166046739E-003;1.191773102618754E-003;
2.400666666666667E+009;1.729565858840942E-001;3.761171549558640E-002;2.055328804999590E-003;1.081292051821947E-003;
2.400833333333334E+009;1.731493920087814E-001;3.726314008235931E-002;2.002698136493564E-003;1.118625979870558E-003;
2.401000000000000E+009;1.734426170587540E-001;3.641863167285919E-002;1.978729618713260E-003;7.676585810258985E-004;
2.401166666666667E+009;1.736840009689331E-001;3.586986288428307E-002;1.943708397448063E-003;9.113886626437306E-004;
2.401333333333334E+009;1.734520792961121E-001;3.519514575600624E-002;1.849156338721514E-003;8.120959973894060E-004;
2.401500000000000E+009;1.735637634992600E-001;3.451694175601006E-002;2.082196297124028E-003;8.173563983291388E-004;
2.401666666666667E+009;1.734337657690048E-001;3.398359194397926E-002;1.944110612384975E-003;8.966170134954155E-004;
2.401833333333334E+009;1.734874695539475E-001;3.319587931036949E-002;1.906112185679376E-003;9.137039887718856E-004;
2.402000000000000E+009;1.730698198080063E-001;3.232056647539139E-002;1.936252461746335E-003;7.620899705216289E-004;
2.402166666666667E+009;1.728865951299667E-001;3.148354962468147E-002;2.009912393987179E-003;7.963437237776816E-004;
2.402333333333334E+009;1.724984049797058E-001;3.097318671643734E-002;2.115470590069890E-003;7.026236853562295E-004;
2.402500000000000E+009;1.726116091012955E-001;2.999300323426724E-002;1.948297955095768E-003;8.152426453307271E-004;
2.402666666666667E+009;1.719628572463989E-001;2.898923680186272E-002;2.004421781748533E-003;6.339731626212597E-004;
2.402833333333334E+009;1.719734966754913E-001;2.812593057751656E-002;2.030880656093359E-003;6.019434076733887E-004;
2.403000000000000E+009;1.715442687273026E-001;2.682946249842644E-002;2.057124860584736E-003;5.649367230944336E-004;
2.403166666666667E+009;1.712264567613602E-001;2.569036744534969E-002;1.982443267479539E-003;4.567885771393776E-004;
2.403333333333334E+009;1.708811968564987E-001;2.457669749855995E-002;1.935428357683122E-003;4.432018613442779E-004;
2.403500000000000E+009;1.704297214746475E-001;2.345675230026245E-002;2.018731553107500E-003;4.328272771090269E-004;
2.403666666666667E+009;1.700916141271591E-001;2.213059552013874E-002;2.074338495731354E-003;5.773761076852679E-004;
2.403833333333334E+009;1.697745025157929E-001;2.057366445660591E-002;2.179177012294531E-003;6.443960010074079E-004;
2.404000000000000E+009;1.694904863834381E-001;1.922679506242275E-002;2.137348521500826E-003;4.577113431878388E-004;
2.404166666666667E+009;1.691032350063324E-001;1.770367100834847E-002;2.186610130593181E-003;7.100134389474988E-004;
2.404333333333334E+009;1.688618212938309E-001;1.626583188772202E-002;2.394035458564758E-003;6.576185696758330E-004;
2.404500000000000E+009;1.685285568237305E-001;1.447117328643799E-002;2.491907449439168E-003;6.753474590368569E-004;
2.404666666666667E+009;1.683228015899658E-001;1.281998679041863E-002;2.634048927575350E-003;4.791390092577785E-004;
2.404833333333334E+009;1.681430488824844E-001;1.123002730309963E-002;2.585157984867692E-003;6.195635651238263E-004;
2.405000000000000E+009;1.679421514272690E-001;9.391496889293194E-003;2.883619628846645E-003;5.452884361147881E-004;
2.405166666666667E+009;1.678567528724670E-001;7.605886552482843E-003;2.918685320764780E-003;3.300544049125165E-004;
2.405333333333334E+009;1.679852008819580E-001;5.732456222176552E-003;3.110876772552729E-003;1.632897619856522E-004;
2.405500000000000E+009;1.677580922842026E-001;4.070832394063473E-003;3.035676432773471E-003;8.597894338890910E-005;
2.405666666666667E+009;1.677682995796204E-001;2.218106063082814E-003;3.295804141089320E-003;-8.507876918883994E-005;
2.405833333333334E+009;1.675997078418732E-001;4.952945164404810E-004;3.364128991961479E-003;-2.125680330209434E-004;
2.406000000000000E+009;1.677184551954269E-001;-1.498731202445924E-003;3.254499752074480E-003;-5.531608476303518E-004;
2.406166666666667E+009;1.676456332206726E-001;-3.295370144769549E-003;3.344329306855798E-003;-7.313480600714684E-004;
2.406333333333334E+009;1.679011285305023E-001;-5.077065899968147E-003;3.223492996767163E-003;-7.836506702005863E-004;
2.406500000000000E+009;1.677072346210480E-001;-6.801480893045664E-003;3.221347928047180E-003;-1.185522996820509E-003;
2.406666666666667E+009;1.676726043224335E-001;-8.638299070298672E-003;3.180551342666149E-003;-1.378891523927450E-003;
2.406833333333334E+009;1.677927523851395E-001;-1.028447039425373E-002;3.175709163770080E-003;-1.325708813965321E-003;
2.407000000000000E+009;1.678649783134460E-001;-1.203833054751158E-002;3.266575047746301E-003;-1.677753520198166E-003;
2.407166666666667E+009;1.680614501237869E-001;-1.345020905137062E-002;3.111706348136067E-003;-1.814016373828054E-003;
2.407333333333334E+009;1.678965538740158E-001;-1.499575842171907E-002;2.942644525319338E-003;-1.911024912260473E-003;
2.407500000000000E+009;1.680336147546768E-001;-1.636322215199471E-002;2.963090548291802E-003;-2.083594445139170E-003;
2.407666666666667E+009;1.682534664869309E-001;-1.752575673162937E-002;2.742833690717816E-003;-2.241017995402217E-003;
2.407833333333334E+009;1.682006865739822E-001;-1.894936338067055E-002;2.471445128321648E-003;-2.512514358386397E-003;
2.408000000000000E+009;1.683975309133530E-001;-2.012106031179428E-002;2.440323121845722E-003;-2.532243961468339E-003;
2.408166666666667E+009;1.685992181301117E-001;-2.093782275915146E-002;2.409936627373099E-003;-2.433576388284564E-003;
2.408333333333334E+009;1.690191626548767E-001;-2.185843139886856E-002;2.192210406064987E-003;-2.521653193980455E-003;
2.408500000000000E+009;1.691221743822098E-001;-2.276608347892761E-002;2.050191629678011E-003;-2.690687077119947E-003;
2.408666666666667E+009;1.695274859666824E-001;-2.376379817724228E-002;1.841272460296750E-003;-2.745207631960511E-003;
2.408833333333334E+009;1.698099821805954E-001;-2.446284331381321E-002;1.814631745219231E-003;-2.739366609603167E-003;
2.409000000000000E+009;1.700251698493958E-001;-2.513245865702629E-002;1.577020389959216E-003;-2.644902793690562E-003;
2.409166666666667E+009;1.705180555582047E-001;-2.596509084105492E-002;1.506063505075872E-003;-2.823628718033433E-003;
2.409333333333334E+009;1.709296703338623E-001;-2.686780318617821E-002;1.454682671464980E-003;-2.887965878471732E-003;
2.409500000000000E+009;1.712813675403595E-001;-2.762629464268684E-002;1.456615515053272E-003;-2.906506881117821E-003;
2.409666666666667E+009;1.713443249464035E-001;-2.821657434105873E-002;1.429066411219537E-003;-2.945895073935390E-003;
2.409833333333334E+009;1.714875996112824E-001;-2.877959981560707E-002;1.276704366318882E-003;-2.894982462748885E-003;
2.410000000000000E+009;1.718552857637405E-001;-2.961748279631138E-002;1.124960370361805E-003;-3.006248967722058E-003;
2.410166666666667E+009;1.719376891851425E-001;-3.024318441748619E-002;1.070769852958620E-003;-3.014499787241221E-003;
2.410333333333334E+009;1.718257218599320E-001;-3.092784062027931E-002;1.013999106362462E-003;-3.225425491109490E-003;
2.410500000000000E+009;1.718140542507172E-001;-3.155280277132988E-002;9.228601120412350E-004;-3.190014977008104E-003;
2.410666666666667E+009;1.716860234737396E-001;-3.267238661646843E-002;6.183226360008121E-004;-3.146217204630375E-003;
2.410833333333334E+009;1.716443151235580E-001;-3.300309926271439E-002;4.757380229420960E-004;-3.152491757646203E-003;
2.411000000000000E+009;1.714583039283752E-001;-3.359850868582726E-002;4.126327694393694E-004;-3.317412687465549E-003;
2.411166666666667E+009;1.712179034948349E-001;-3.424542769789696E-002;3.310370666440576E-004;-3.260472556576133E-003;
2.411333333333334E+009;1.709348112344742E-001;-3.476794436573982E-002;1.960570079972968E-004;-3.282243618741632E-003;
2.411500000000000E+009;1.705321073532105E-001;-3.541640192270279E-002;6.603681686101481E-005;-3.292262554168701E-003;
2.411666666666667E+009;1.703491806983948E-001;-3.618134930729866E-002;-7.121028465917334E-005;-3.293729387223721E-003;
2.411833333333334E+009;1.699333190917969E-001;-3.664885461330414E-002;-2.953245711978525E-004;-3.308151848614216E-003;
2.412000000000000E+009;1.695404201745987E-001;-3.754229843616486E-002;-3.363834402989596E-004;-3.407583339139819E-003;
2.412166666666667E+009;1.689469814300537E-001;-3.826541826128960E-002;-5.808205460198224E-004;-3.382500261068344E-003;
2.412333333333334E+009;1.687833964824677E-001;-3.900968283414841E-002;-7.450014818459749E-004;-3.281313693150878E-003;
2.412500000000000E+009;1.678908616304398E-001;-3.985415771603584E-002;-1.137344981543720E-003;-3.161512315273285E-003;
2.412666666666667E+009;1.673617064952850E-001;-4.088431969285011E-002;-1.218574936501682E-003;-3.024180186912417E-003;
2.412833333333334E+009;1.668857336044312E-001;-4.169365018606186E-002;-1.354671316221356E-003;-2.951274393126369E-003;
2.413000000000000E+009;1.661137342453003E-001;-4.260607063770294E-002;-1.544218161143363E-003;-2.748271217569709E-003;
2.413166666666667E+009;1.654234826564789E-001;-4.381544515490532E-002;-1.598197966814041E-003;-2.641341416165233E-003;
2.413333333333334E+009;1.646395027637482E-001;-4.478812590241432E-002;-1.831237692385912E-003;-2.390951383858919E-003;
2.413500000000000E+009;1.641404330730438E-001;-4.578201100230217E-002;-1.728643779642880E-003;-2.262646565213800E-003;
2.413666666666667E+009;1.633353680372238E-001;-4.677976295351982E-002;-1.651577418670058E-003;-1.941634807735682E-003;
2.413833333333334E+009;1.624734699726105E-001;-4.777703806757927E-002;-1.778446254320443E-003;-1.891341526061297E-003;
2.414000000000000E+009;1.617220640182495E-001;-4.894984513521195E-002;-1.735721598379314E-003;-1.600428484380245E-003;
2.414166666666667E+009;1.613229811191559E-001;-5.004115775227547E-002;-1.572200795635581E-003;-1.452831551432610E-003;
2.414333333333334E+009;1.606047898530960E-001;-5.112073943018913E-002;-1.369097619317472E-003;-1.596034620888531E-003;
2.414500000000000E+009;1.602922528982163E-001;-5.217457190155983E-002;-1.255472889170051E-003;-1.450389390811324E-003;
2.414666666666667E+009;1.597277671098709E-001;-5.337101221084595E-002;-1.164136338047683E-003;-1.383700058795512E-003;
2.414833333333334E+009;1.592862159013748E-001;-5.469588935375214E-002;-1.109646633267403E-003;-1.219580415636301E-003;
2.415000000000000E+009;1.588925570249558E-001;-5.586311966180801E-002;-1.092652324587107E-003;-1.421837951056659E-003;
2.415166666666667E+009;1.585851907730103E-001;-5.726065486669540E-002;-9.906307095661759E-004;-1.453804085031152E-003;
2.415333333333334E+009;1.583628505468369E-001;-5.846480652689934E-002;-9.049663785845041E-004;-1.422632136382163E-003;
2.415500000000000E+009;1.581312716007233E-001;-5.977233499288559E-002;-8.411480812355876E-004;-1.428846386261284E-003;
2.415666666666667E+009;1.577683985233307E-001;-6.121918931603432E-002;-9.465377079322934E-004;-1.717832055874169E-003;
2.415833333333334E+009;1.576429903507233E-001;-6.268337368965149E-002;-1.007385784760118E-003;-1.676715910434723E-003;
2.416000000000000E+009;1.573529243469238E-001;-6.405435502529144E-002;-1.059828442521393E-003;-1.599561190232635E-003;
2.416166666666667E+009;1.574367135763168E-001;-6.549356877803803E-002;-1.083633862435818E-003;-1.716063241474330E-003;
2.416333333333334E+009;1.572756022214890E-001;-6.694469600915909E-002;-1.219280296936631E-003;-1.767095993272960E-003;
2.416500000000000E+009;1.570198833942413E-001;-6.851127743721008E-002;-1.274476177059114E-003;-1.797882490791380E-003;
2.416666666666667E+009;1.568011790513992E-001;-6.976941227912903E-002;-1.364418887533248E-003;-1.806526561267674E-003;
2.416833333333334E+009;1.567850708961487E-001;-7.117596268653870E-002;-1.449524657800794E-003;-1.663361559621990E-003;
2.417000000000000E+009;1.563600003719330E-001;-7.258317619562149E-002;-1.506307860836387E-003;-1.720111467875540E-003;
2.417166666666667E+009;1.562293022871018E-001;-7.367631047964096E-002;-1.598810660652816E-003;-1.513087074272335E-003;
2.417333333333334E+009;1.561110615730286E-001;-7.477784156799316E-002;-1.724880188703537E-003;-1.556656789034605E-003;
2.417500000000000E+009;1.558476537466049E-001;-7.622142136096954E-002;-1.744219800457358E-003;-1.577901770360768E-003;
2.417666666666667E+009;1.558517962694168E-001;-7.703602313995361E-002;-1.710405340418220E-003;-1.634682412259281E-003;
2.417833333333334E+009;1.556960791349411E-001;-7.801707088947296E-002;-1.848955405876041E-003;-1.505900989286602E-003;
2.418000000000000E+009;1.556413769721985E-001;-7.903870940208435E-002;-1.941849477589130E-003;-1.459837891161442E-003;
2.418166666666667E+009;1.555038392543793E-001;-7.979808747768402E-002;-1.960207242518663E-003;-1.283233636058867E-003;
2.418333333333334E+009;1.556999087333679E-001;-8.067329227924347E-002;-1.896441797725856E-003;-1.345782657153904E-003;
2.418500000000000E+009;1.554591655731201E-001;-8.149052411317825E-002;-1.978958724066615E-003;-1.221534097567201E-003;
2.418666666666667E+009;1.555767655372620E-001;-8.239665627479553E-002;-1.936776679940522E-003;-1.174724427983165E-003;
2.418833333333334E+009;1.552812755107880E-001;-8.297236263751984E-002;-1.940021524205804E-003;-1.100728404708207E-003;
2.419000000000000E+009;1.551256775856018E-001;-8.372008055448532E-002;-2.012987388297916E-003;-1.095668296329677E-003;
2.419166666666667E+009;1.550295203924179E-001;-8.421263843774796E-002;-1.893369131721556E-003;-1.074999454431236E-003;
2.419333333333334E+009;1.547620594501495E-001;-8.450415730476379E-002;-2.088934881612659E-003;-1.188815222121775E-003;
2.419500000000000E+009;1.546780467033386E-001;-8.524452894926071E-002;-1.950856880284846E-003;-1.007467973977327E-003;
2.419666666666667E+009;1.545039266347885E-001;-8.581556379795075E-002;-2.110647037625313E-003;-9.300027741119266E-004;
2.419833333333334E+009;1.542994081974030E-001;-8.591695874929428E-002;-2.073376672342420E-003;-8.853062754496932E-004;
2.420000000000000E+009;1.542179584503174E-001;-8.650787919759750E-002;-2.404030179604888E-003;-9.979509050026536E-004;
2.420166666666667E+009;1.539185047149658E-001;-8.676366508007050E-002;-2.175040543079376E-003;-9.414477972313762E-004;
2.420333333333334E+009;1.537308543920517E-001;-8.708339184522629E-002;-2.328365342691541E-003;-9.902179008349776E-004;
2.420500000000000E+009;1.534525603055954E-001;-8.740727603435516E-002;-2.466529607772827E-003;-8.713628631085157E-004;
2.420666666666667E+009;1.531901508569717E-001;-8.748639374971390E-002;-2.402486046776176E-003;-7.735175313428044E-004;
2.420833333333334E+009;1.528273671865463E-001;-8.805318921804428E-002;-2.490005688741803E-003;-8.308684919029474E-004;
2.421000000000000E+009;1.522780358791351E-001;-8.855608105659485E-002;-2.641085069626570E-003;-5.726641975343227E-004;
2.421166666666667E+009;1.520611643791199E-001;-8.879221975803375E-002;-2.558757551014423E-003;-5.613802932202816E-004;
2.421333333333334E+009;1.516285538673401E-001;-8.949311822652817E-002;-2.658702898770571E-003;-6.281178211793304E-004;
2.421500000000000E+009;1.508115231990814E-001;-8.967550843954086E-002;-2.670028014108539E-003;-4.915974568575621E-004;
2.421666666666667E+009;1.504603922367096E-001;-9.016858786344528E-002;-2.675826428458095E-003;-4.314311954658479E-004;
2.421833333333334E+009;1.497404426336289E-001;-9.061458706855774E-002;-2.701600082218647E-003;-5.271597765386105E-004;
2.422000000000000E+009;1.489586681127548E-001;-9.131156653165817E-002;-2.685420447960496E-003;-2.555526734795421E-004;
2.422166666666667E+009;1.482592821121216E-001;-9.196539223194122E-002;-2.942981896921992E-003;-2.584096509963274E-004;
2.422333333333334E+009;1.474958807229996E-001;-9.239201247692108E-002;-2.731119049713016E-003;-3.891028463840485E-004;
2.422500000000000E+009;1.467446833848953E-001;-9.288830310106278E-002;-3.021362237632275E-003;-4.021353670395911E-004;
2.422666666666667E+009;1.459206938743591E-001;-9.376636147499085E-002;-3.234498668462038E-003;-3.038371214643121E-004;
2.422833333333334E+009;1.450972855091095E-001;-9.470371901988983E-002;-3.142744768410921E-003;-1.125843918998726E-004;
2.423000000000000E+009;1.442363411188126E-001;-9.540882706642151E-002;-3.442762885242701E-003;-1.302434684475884E-004;
2.423166666666667E+009;1.434733122587204E-001;-9.604460746049881E-002;-3.613466629758477E-003;4.385049032862298E-005;
2.423333333333334E+009;1.426287293434143E-001;-9.682706743478775E-002;-3.692583646625280E-003;2.588134375400841E-004;
2.423500000000000E+009;1.416656225919724E-001;-9.789879620075226E-002;-3.952124621719122E-003;5.576197290793061E-004;
2.423666666666667E+009;1.406535059213638E-001;-9.894512593746185E-002;-3.819415112957358E-003;7.086840923875570E-004;
2.423833333333334E+009;1.398626863956451E-001;-9.971507638692856E-002;-3.889000741764903E-003;1.013127504847944E-003;
2.424000000000000E+009;1.387878209352493E-001;-1.007742881774902E-001;-4.097780678421259E-003;1.279919757507742E-003;
2.424166666666667E+009;1.379376649856567E-001;-1.018461212515831E-001;-3.978138789534569E-003;1.517380354925990E-003;
2.424333333333334E+009;1.372399181127548E-001;-1.027687042951584E-001;-3.891788888722658E-003;1.936438377015293E-003;
2.424500000000000E+009;1.363666355609894E-001;-1.041030958294869E-001;-3.839917713776231E-003;1.979426946491003E-003;
2.424666666666667E+009;1.358249187469482E-001;-1.048512384295464E-001;-3.829316934570670E-003;2.381568308919668E-003;
2.424833333333334E+009;1.347988545894623E-001;-1.061423495411873E-001;-3.758479608222842E-003;2.440810436382890E-003;
2.425000000000000E+009;1.342183649539948E-001;-1.072785854339600E-001;-3.471805248409510E-003;2.809050492942333E-003;
2.425166666666667E+009;1.333548128604889E-001;-1.084186956286430E-001;-3.150105709210038E-003;2.942220540717244E-003;
2.425333333333334E+009;1.328217536211014E-001;-1.095424965023994E-001;-2.864476293325424E-003;3.057047259062529E-003;
2.425500000000000E+009;1.323156356811523E-001;-1.108287051320076E-001;-2.951235044747591E-003;3.295107511803508E-003;
2.425666666666667E+009;1.315784156322479E-001;-1.119649410247803E-001;-2.654125448316336E-003;3.258978249505162E-003;
2.425833333333334E+009;1.312673091888428E-001;-1.131621673703194E-001;-2.386318519711494E-003;3.534124698489904E-003;
2.426000000000000E+009;1.306599825620651E-001;-1.144681870937347E-001;-2.204281743615866E-003;3.561850171536207E-003;
2.426166666666667E+009;1.303527355194092E-001;-1.155244857072830E-001;-1.832206966355443E-003;3.771277144551277E-003;
2.426333333333334E+009;1.298386007547379E-001;-1.168374642729759E-001;-1.809483976103365E-003;3.905136138200760E-003;
2.426500000000000E+009;1.295082718133926E-001;-1.179324164986610E-001;-1.623688382096589E-003;4.127995111048222E-003;
2.426666666666667E+009;1.292682439088821E-001;-1.188494190573692E-001;-1.375188119709492E-003;3.864178666844964E-003;
2.426833333333334E+009;1.288470774888992E-001;-1.199893280863762E-001;-1.139616128057241E-003;4.020295105874538E-003;
2.427000000000000E+009;1.284909695386887E-001;-1.211415752768517E-001;-7.217840175144374E-004;4.027907736599445E-003;
2.427166666666667E+009;1.283850967884064E-001;-1.218726634979248E-001;-6.581521010957658E-004;3.952024504542351E-003;
2.427333333333334E+009;1.280523985624313E-001;-1.229367777705193E-001;-4.065364191774279E-004;3.962687682360411E-003;
2.427500000000000E+009;1.280613839626312E-001;-1.237190887331963E-001;-1.547016727272421E-004;3.979319706559181E-003;
2.427666666666667E+009;1.278651654720306E-001;-1.246247813105583E-001;1.410991826560348E-004;3.967609722167254E-003;
