# Hz S RI R 50
2400000000.0000000000 0.154520243406295804122763115629 0.061197772622108459472656250000 0.003877210430800915198085165869 0.002434667199850081963780068506 0 0 0 0 
2400166666.6666665077 0.154352784156799288650674384371 0.059365086257457733154296875000 0.003959225490689277648925781250 0.002445434220135211944580078125 0 0 0 0 
2400333333.3333334923 0.154267430305481012542401231258 0.057023376226425170898437500000 0.003936011809855700406546308301 0.002315147779881954193115234375 0 0 0 0 
2400500000.0000000000 0.154507726430892888824786268742 0.054914306849241256713867187500 0.004006631672382354736328125000 0.002138768322765827178955078125 0 0 0 0 
2400666666.6666665077 0.154651492834091186523437500000 0.052514985203742980957031250000 0.004027599003165960311889648438 0.002044144552201033072230673682 0 0 0 0 
2400833333.3333334923 0.154996708035469110686932481258 0.050571087747812271118164062500 0.003979973960667848587036132812 0.001784280058927834033966064453 0 0 0 0 
2401000000.0000000000 0.155302822589874295333700615629 0.048017825931310646747629533593 0.004114514682441949844360351562 0.001803426654078065915348672021 0 0 0 0 
2401166666.6666665077 0.155686259269714410979901231258 0.045817557722330093383789062500 0.004171691834926605224609375000 0.001712485449388623020769428784 0 0 0 0 
2401333333.3333334923 0.156019806861877413650674384371 0.043588638305664062500000000000 0.004042430315166711807250976562 0.001499815727584064006805419922 0 0 0 0 
2401500000.0000000000 0.156820625066757202148437500000 0.041775327175855636596679687500 0.004193828906863927841186523438 0.001369803096167742989183735425 0 0 0 0 
2401666666.6666665077 0.157153040170669611175213731258 0.039473328739404678344726562500 0.004142939578741788864135742188 0.001296473550610244057298969800 0 0 0 0 
2401833333.3333334923 0.158018767833709689041299384371 0.037331033498048782348632812500 0.004245825577527284622192382812 0.001150556607171892902971577222 0 0 0 0 
2402000000.0000000000 0.158595591783523587325888115629 0.035305876284837722778320312500 0.004105333704501391324515058301 0.000981855439022183418273925781 0 0 0 0 
2402166666.6666665077 0.159647077322006197830361884371 0.033345006406307220458984375000 0.004153933376073837280273437500 0.000939142191782593727111816406 0 0 0 0 
2402333333.3333334923 0.160335361957550104339276231258 0.031577654182910919189453125000 0.004263203125447034835815429688 0.000671651563607156276702880859 0 0 0 0 
2402500000.0000000000 0.161470517516136197189169365629 0.029647123068571090698242187500 0.004206010606139898300170898438 0.000820164685137569904327392578 0 0 0 0 
2402666666.6666665077 0.162377938628196688553018134371 0.028185529634356498718261718750 0.004032861441373825073242187500 0.000663397891912609338760375977 0 0 0 0 
2402833333.3333334923 0.163448542356491088867187500000 0.026553606614470478403111641796 0.004232373088598251342773437500 0.000621937680989503860473632812 0 0 0 0 
2403000000.0000000000 0.164465561509132413009481865629 0.025075826793909069406529610546 0.004225030075758695602416992188 0.000381747406208887696266174316 0 0 0 0 
2403166666.6666665077 0.165724024176597595214843750000 0.023511465638875961303710937500 0.004250799771398305892944335938 0.000327842106344178318977355957 0 0 0 0 
2403333333.3333334923 0.166873067617416409591513115629 0.022351197898387908935546875000 0.004222705028951168060302734375 0.000290254421997815424769801007 0 0 0 0 
2403500000.0000000000 0.167915880680084200760049384371 0.020984267815947529184361641796 0.004227731376886367797851562500 0.000276847160421311909526270734 0 0 0 0 
2403666666.6666665077 0.169252365827560397049111884371 0.019897611811757091176966483204 0.004199526272714138031005859375 0.000216412212466821101590833121 0 0 0 0 
2403833333.3333334923 0.170243725180625887771768134371 0.018970398232340809213658516796 0.004103614483028650283813476562 0.000003521730832289903932486334 0 0 0 0 
2404000000.0000000000 0.171481579542160006424111884371 0.018024953082203868520716483204 0.004208429716527462005615234375 -0.000179246810148470103740692139 0 0 0 0 
2404166666.6666665077 0.172516405582428006271200615629 0.017180526629090309143066406250 0.004350572824478149414062500000 -0.000391457433579489588737487793 0 0 0 0 
2404333333.3333334923 0.173653915524482699295205634371 0.016640689224004748952845389454 0.004126366227865219116210937500 -0.000327168294461444020271301270 0 0 0 0 
2404500000.0000000000 0.174515485763549804687500000000 0.015753632411360740661621093750 0.004351659677922725677490234375 -0.000379098724806681275367736816 0 0 0 0 
2404666666.6666665077 0.175576135516166687011718750000 0.015230854041874410456647304102 0.004217634908854961395263671875 -0.000526511284988373517990112305 0 0 0 0 
2404833333.3333334923 0.176648065447807312011718750000 0.014775250107049940281878086523 0.004233526065945625305175781250 -0.000600236351601779460906982422 0 0 0 0 
2405000000.0000000000 0.177512198686599703689736884371 0.014412227086722850799560546875 0.004289531148970127105712890625 -0.000857224338687956333160400391 0 0 0 0 
2405166666.6666665077 0.178207024931907709319744981258 0.014038905501365659886370274023 0.004330097697675228118896484375 -0.000910204311367124319076538086 0 0 0 0 
2405333333.3333334923 0.179189741611480712890625000000 0.013631599955260750162144844921 0.004206612706184387207031250000 -0.000898371741641312837600708008 0 0 0 0 
2405500000.0000000000 0.179775476455688504318075615629 0.013532627373933790379534336523 0.004245961550623179349417402051 -0.001202407409437000968335795825 0 0 0 0 
2405666666.6666665077 0.180278852581977788727130018742 0.013416685163974760228167149023 0.004332394804805517196655273438 -0.001212759991176425976994179834 0 0 0 0 
2405833333.3333334923 0.180687412619590787032919365629 0.013269887305796149862269217579 0.004335508216172456741333007812 -0.001359086018055676980259560693 0 0 0 0 
2406000000.0000000000 0.181062728166580200195312500000 0.013025824911892410623570626171 0.004186685197055339813232421875 -0.001538751763291656970977783203 0 0 0 0 
2406166666.6666665077 0.181197166442871093750000000000 0.013000087812542920548408709180 0.004038162529468536376953125000 -0.001469809794798492951634072412 0 0 0 0 
2406333333.3333334923 0.181577682495117187500000000000 0.012832272797822950535784336523 0.004136499948799610137939453125 -0.001725339330732821984532021631 0 0 0 0 
2406500000.0000000000 0.181638479232788113693075615629 0.012811033055186269932756992773 0.003974835388362407684326171875 -0.001863572979345917918561625903 0 0 0 0 
2406666666.6666665077 0.181394502520561190506143134371 0.012765297666192059952705584180 0.004079666454344987869262695312 -0.002005969407036900954005576025 0 0 0 0 
2406833333.3333334923 0.181284621357917813400106865629 0.012368262745440009725550467579 0.004091539885848760604858398438 -0.001972352154552936987635947119 0 0 0 0 
2407000000.0000000000 0.181143060326576205154580634371 0.012295647524297240865687186329 0.004019143059849739074707031250 -0.002079353434965014891383505713 0 0 0 0 
2407166666.6666665077 0.181099370121955899337606865629 0.012120729312300680333147617773 0.003795418888330460028407431494 -0.002248895820230246023890829932 0 0 0 0 
2407333333.3333334923 0.180448397994041387359942518742 0.011589264497160909825335117773 0.003780666505917907194850302588 -0.002336811274290084838867187500 0 0 0 0 
2407500000.0000000000 0.180036038160324096679687500000 0.011237202212214469909667968750 0.003767893183976411819458007812 -0.002476181834936141967773437500 0 0 0 0 
2407666666.6666665077 0.179419115185737609863281250000 0.010881518013775350398053554102 0.003667730605229734940769814600 -0.002569063799455761909484863281 0 0 0 0 
2407833333.3333334923 0.178717270493507413009481865629 0.010149605572223659860631173046 0.003699622349813580946681357275 -0.002750018378719687895533896338 0 0 0 0 
2408000000.0000000000 0.178193360567092895507812500000 0.009412242099642753601074218750 0.003681944217532873153686523438 -0.002750234678387641906738281250 0 0 0 0 
2408166666.6666665077 0.177354812622070312500000000000 0.008871926926076412200927734375 0.003585655707865953011753701318 -0.002904266817495226860046386719 0 0 0 0 
2408333333.3333334923 0.176859647035598810393963731258 0.008011677302420139312744140625 0.003542299848049879074096679688 -0.003247544867917894883396767725 0 0 0 0 
2408500000.0000000000 0.175888672471046503265057481258 0.006925797089934349060058593750 0.003445342415943741798400878906 -0.003154942067340015931370400537 0 0 0 0 
2408666666.6666665077 0.175143778324127197265625000000 0.005799439270049333572387695312 0.003270486136898397965672158350 -0.003329445607960224151611328125 0 0 0 0 
2408833333.3333334923 0.174235239624977111816406250000 0.004643858876079320907592773438 0.003432960016652942137477255713 -0.003502560779452323913574218750 0 0 0 0 
2409000000.0000000000 0.173354670405387906173544365629 0.003464588196948171095607138525 0.003277297364547849135157919775 -0.003604077268391848044154501807 0 0 0 0 
2409166666.6666665077 0.172626063227653503417968750000 0.002146106446161866188049316406 0.003207585541531444029567099463 -0.003606273559853434996363974463 0 0 0 0 
2409333333.3333334923 0.171691268682479886154013115629 0.000488542660605162382125854492 0.003057644469663500785827636719 -0.003850942011922597885131835938 0 0 0 0 
2409500000.0000000000 0.170918121933937100509481865629 -0.001085467287339269898058247144 0.002827228046953678131103515625 -0.003920308314263820648193359375 0 0 0 0 
2409666666.6666665077 0.170095503330230712890625000000 -0.002708438085392117933986044775 0.002821734175086020989658974756 -0.004022746812552213668823242188 0 0 0 0 
2409833333.3333334923 0.169335886836051913162393134371 -0.004328766372054815292358398438 0.002766245976090431213378906250 -0.004173286259174346923828125000 0 0 0 0 
2410000000.0000000000 0.168561831116676302810830634371 -0.006067700218409299850463867188 0.002670513233169912858250283350 -0.004252223297953605651855468750 0 0 0 0 
2410166666.6666665077 0.168014645576477106292401231258 -0.007977712899446487426757812500 0.002446715719997882843017578125 -0.004499774891883134841918945312 0 0 0 0 
2410333333.3333334923 0.167438820004463195800781250000 -0.010036279447376729792584804102 0.002350423485040665106532431494 -0.004615139681845903396606445312 0 0 0 0 
2410500000.0000000000 0.167105242609977694412393134371 -0.011883696541190149134625819727 0.002236467553302646116969443213 -0.004773029126226902008056640625 0 0 0 0 
2410666666.6666665077 0.166372463107109097579794365629 -0.014091037213802339381207850977 0.002143858000636101202723837744 -0.004792211111634969711303710938 0 0 0 0 
2410833333.3333334923 0.166379109025001498123330634371 -0.016003403812646869314173514454 0.002042434178292750878574990381 -0.004957217257469893369192792676 0 0 0 0 
2411000000.0000000000 0.165861949324607904632244981258 -0.018130509182810779916783516796 0.001825553947128355936763144385 -0.004994971677660942077636718750 0 0 0 0 
2411166666.6666665077 0.165752649307251004318075615629 -0.020321067422628399240513985546 0.001589139923453330993652343750 -0.005176067817956209182739257812 0 0 0 0 
2411333333.3333334923 0.165819674730300903320312500000 -0.022536719217896461486816406250 0.001452572876587509892107319409 -0.005172301549464464187622070312 0 0 0 0 
2411500000.0000000000 0.165776431560516412933026231258 -0.024620903655886650085449218750 0.001233707414940000014064169775 -0.005366967525333166122436523438 0 0 0 0 
2411666666.6666665077 0.166117489337921087066973768742 -0.026818724349141120910644531250 0.000890360737685114253699147913 -0.005314776673913002014160156250 0 0 0 0 
2411833333.3333334923 0.166200920939445495605468750000 -0.028856331482529640197753906250 0.000603205000516027212142944336 -0.005308554973453283309936523438 0 0 0 0 
2412000000.0000000000 0.166478633880615206619424384371 -0.031012853607535358774205391796 0.000494448991958051919937133789 -0.005472488701343536376953125000 0 0 0 0 
2412166666.6666665077 0.166682392358779907226562500000 -0.033050149679183959960937500000 0.000392764806747436523437500000 -0.005560623016208410263061523438 0 0 0 0 
2412333333.3333334923 0.167421385645866394042968750000 -0.035028018057346337055246721093 0.000180936214746907407611292706 -0.005500496365129947662353515625 0 0 0 0 
2412500000.0000000000 0.167760148644447298904580634371 -0.036715824156999588012695312500 -0.000077677432273048907518386841 -0.005576120689511299133300781250 0 0 0 0 
2412666666.6666665077 0.168344601988792391678018134371 -0.039055198431015021587331403907 -0.000445332087110728025436401367 -0.005467041861265897750854492188 0 0 0 0 
2412833333.3333334923 0.169176727533340509612713731258 -0.040872115641832351684570312500 -0.000755769258830696344375610352 -0.005486121866852045059204101562 0 0 0 0 
2413000000.0000000000 0.169674023985862704178018134371 -0.042643323540687561035156250000 -0.000906105677131563425064086914 -0.005271290894597768783569335938 0 0 0 0 
2413166666.6666665077 0.170252054929733304122763115629 -0.044140212237834930419921875000 -0.001118140411563218073603964697 -0.005167322698980569839477539062 0 0 0 0 
2413333333.3333334923 0.171136915683746310135049384371 -0.045867752283811569213867187500 -0.001411084667779505035997700269 -0.005298762582242488861083984375 0 0 0 0 
2413500000.0000000000 0.171873584389686612228231865629 -0.047412067651748657226562500000 -0.001582051394507288932800292969 -0.005197080317884683609008789062 0 0 0 0 
2413666666.6666665077 0.172724634408950805664062500000 -0.048862203955650329589843750000 -0.001766939298249780914903950269 -0.005083152558654546737670898438 0 0 0 0 
2413833333.3333334923 0.173335954546928405761718750000 -0.050171509385108947753906250000 -0.001995013095438479943516396631 -0.005230629350990056991577148438 0 0 0 0 
2414000000.0000000000 0.174040958285331698318643134371 -0.051415536552667617797851562500 -0.002194510307163000106811523438 -0.004998440854251384735107421875 0 0 0 0 
2414166666.6666665077 0.174999907612800598144531250000 -0.052550494670867919921875000000 -0.002274855505675077004673623193 -0.004695354960858821868896484375 0 0 0 0 
2414333333.3333334923 0.175470918416976900955361884371 -0.053559217602014541625976562500 -0.002495731692761182785034179688 -0.004479422699660062789916992188 0 0 0 0 
2414500000.0000000000 0.176494091749191311935263115629 -0.054329164326190948486328125000 -0.002752710832282900810241699219 -0.004478849936276674270629882812 0 0 0 0 
2414666666.6666665077 0.177076473832130404373330634371 -0.055098272860050201416015625000 -0.002831279998645185990574502100 -0.004337708000093699368948652051 0 0 0 0 
2414833333.3333334923 0.177468672394752502441406250000 -0.055880658328533172607421875000 -0.002986059989780188040492392432 -0.004198904614895582199096679688 0 0 0 0 
2415000000.0000000000 0.178020313382148687164630018742 -0.056451149284839630126953125000 -0.003232954069972037835362099756 -0.003958918154239655408377362988 0 0 0 0 
2415166666.6666665077 0.178465932607650812347088731258 -0.056874580681324012065847028907 -0.003357429988682270050048828125 -0.003977281507104635238647460938 0 0 0 0 
2415333333.3333334923 0.178961873054504394531250000000 -0.057502679526805877685546875000 -0.003337192581966518922093056787 -0.003775728633627295927760458838 0 0 0 0 
2415500000.0000000000 0.179370582103729303558026231258 -0.057832803577184677124023437500 -0.003450442804023623900172568213 -0.003685608971863985061645507812 0 0 0 0 
2415666666.6666665077 0.179648339748382596114950615629 -0.057954490184783942485768903907 -0.003627647645771503014805459131 -0.003466462949290872053859091650 0 0 0 0 
2415833333.3333334923 0.179739907383918789962606865629 -0.058220848441123962402343750000 -0.003725526155903934998753213037 -0.003250251291319727897644042969 0 0 0 0 
2416000000.0000000000 0.179560124874114990234375000000 -0.058452572673559188842773437500 -0.003852575784549117088317871094 -0.003123308066278696060180664062 0 0 0 0 
2416166666.6666665077 0.179776728153228787521200615629 -0.058548387140035629272460937500 -0.003797943238168954849243164062 -0.003018887480720878081080771338 0 0 0 0 
2416333333.3333334923 0.179515004158019991775674384371 -0.058598805218935012817382812500 -0.004018005449324846267700195312 -0.002755439607426524162292480469 0 0 0 0 
2416500000.0000000000 0.179194971919059808929119981258 -0.058684866875410079956054687500 -0.003858971875160932974574423682 -0.002598082413896917863133095850 0 0 0 0 
2416666666.6666665077 0.178859934210777310470419365629 -0.058761823922395713115651716407 -0.004129215143620967864990234375 -0.002285817172378302054164267432 0 0 0 0 
2416833333.3333334923 0.178482696413993807693643134371 -0.058796644210815429687500000000 -0.004148385021835565567016601562 -0.002284722868353127999546670068 0 0 0 0 
2417000000.0000000000 0.177676096558570889571981865629 -0.058954145759344100952148437500 -0.004144808277487754821777343750 -0.002064317930489778952357626807 0 0 0 0 
2417166666.6666665077 0.177092283964157104492187500000 -0.058797065168619162822682966407 -0.004254681989550591382498456738 -0.001847350155003369071363139575 0 0 0 0 
2417333333.3333334923 0.176273912191390991210937500000 -0.058855932205915451049804687500 -0.004236319568008184432983398438 -0.001771950861439109065412211841 0 0 0 0 
2417500000.0000000000 0.175319418311119107345419365629 -0.059171840548515319824218750000 -0.004068597685545682907104492188 -0.001607415149919688918470073169 0 0 0 0 
2417666666.6666665077 0.174636647105217007736044365629 -0.059098973870277411724050153907 -0.004153984133154153823852539062 -0.001449466217309236960170126807 0 0 0 0 
2417833333.3333334923 0.173425748944282503982705634371 -0.059371855109930038452148437500 -0.004125705920159816741943359375 -0.001372165046632290103315043872 0 0 0 0 
2418000000.0000000000 0.172243669629097012618856865629 -0.059721808880567550659179687500 -0.004127958789467811584472656250 -0.001235614181496202945709228516 0 0 0 0 
2418166666.6666665077 0.171018749475479098220986884371 -0.059897411614656448364257812500 -0.004109529778361321362967206738 -0.001038990914821624972699809497 0 0 0 0 
2418333333.3333334923 0.170007571578025790115518134371 -0.060406077653169631958007812500 -0.004275774583220481872558593750 -0.000930808659177273511886596680 0 0 0 0 
2418500000.0000000000 0.168568879365920992752236884371 -0.060858793556690223003347028907 -0.004128885921090841293334960938 -0.000829827040433883666992187500 0 0 0 0 
2418666666.6666665077 0.167326062917709406097088731258 -0.061403509229421622539479841407 -0.004026832990348339080810546875 -0.000729545077774673700332641602 0 0 0 0 
2418833333.3333334923 0.165726304054260309417401231258 -0.062085136771202087402343750000 -0.004150632303208112716674804688 -0.000616561970673501491546630859 0 0 0 0 
2419000000.0000000000 0.164291888475418090820312500000 -0.062719956040382385253906250000 -0.003979254979640244570260332324 -0.000458263384643942117691040039 0 0 0 0 
2419166666.6666665077 0.162925019860267611404580634371 -0.063623636960983276367187500000 -0.004013578873127698898315429688 -0.000355048250639811212390345441 0 0 0 0 
2419333333.3333334923 0.161379590630531311035156250000 -0.064298026263713836669921875000 -0.004000161774456501007080078125 -0.000233778671827167299672803336 0 0 0 0 
2419500000.0000000000 0.160065412521362304687500000000 -0.065637893974781036376953125000 -0.004028499592095614346975995801 -0.000215483029023744193002423697 0 0 0 0 
2419666666.6666665077 0.158856183290481595138388115629 -0.066563747823238372802734375000 -0.004061069805175065994262695312 -0.000007086087407515150579163151 0 0 0 0 
2419833333.3333334923 0.157386720180511502364950615629 -0.067670270800590515136718750000 -0.004145633429288864135742187500 0.000088893182692117989063262939 0 0 0 0 
