# Version 1.00
#
freq[Hz];re:Trc1_S11;im:Trc1_S11;re:Trc2_S21;im:Trc2_S21;
2.400000000000000E+009;1.551776379346848E-001;1.065737530589104E-001;4.061325918883085E-003;-4.565917421132326E-003;
2.400166666666667E+009;1.549117416143417E-001;1.041727587580681E-001;3.954420331865549E-003;-4.687708802521229E-003;
2.400333333333334E+009;1.550687998533249E-001;1.019089445471764E-001;4.058904945850372E-003;-4.728940781205893E-003;
2.400500000000000E+009;1.551418602466583E-001;9.921456873416901E-002;3.895990084856749E-003;-4.795410204678774E-003;
2.400666666666667E+009;1.553109586238861E-001;9.678366035223007E-002;3.556384239345789E-003;-4.897057544440031E-003;
2.400833333333334E+009;1.552010923624039E-001;9.386292845010757E-002;3.723986214026809E-003;-4.917056765407324E-003;
2.401000000000000E+009;1.555659770965576E-001;9.100552648305893E-002;3.546545049175620E-003;-5.041366443037987E-003;
2.401166666666667E+009;1.556774675846100E-001;8.845598995685577E-002;3.642560448497534E-003;-5.191650241613388E-003;
2.401333333333334E+009;1.560393124818802E-001;8.555298298597336E-002;3.451680997386575E-003;-5.270461551845074E-003;
2.401500000000000E+009;1.564814150333405E-001;8.268255740404129E-002;3.362679155543447E-003;-5.370064638555050E-003;
2.401666666666667E+009;1.569901257753372E-001;7.989866286516190E-002;3.015249734744430E-003;-5.556258838623762E-003;
2.401833333333334E+009;1.574408113956451E-001;7.711850106716156E-002;3.118589054793119E-003;-5.894237663596869E-003;
2.402000000000000E+009;1.583821177482605E-001;7.440154254436493E-002;2.918801037594676E-003;-6.020489614456892E-003;
2.402166666666667E+009;1.590429395437241E-001;7.195456326007843E-002;2.563408343121409E-003;-6.140940822660923E-003;
2.402333333333334E+009;1.602948755025864E-001;6.916457414627075E-002;2.489471109583974E-003;-6.451712455600500E-003;
2.402500000000000E+009;1.612560003995895E-001;6.693343073129654E-002;2.188980346545577E-003;-6.465803366154432E-003;
2.402666666666667E+009;1.626249253749847E-001;6.445396691560745E-002;1.924224314279854E-003;-6.656061392277479E-003;
2.402833333333334E+009;1.637863069772720E-001;6.198025867342949E-002;1.727111521176994E-003;-6.813205312937498E-003;
2.403000000000000E+009;1.651505529880524E-001;5.971158295869827E-002;1.295776339247823E-003;-6.852894555777311E-003;
2.403166666666667E+009;1.668389290571213E-001;5.767052993178368E-002;9.748336160555482E-004;-7.015719078481197E-003;
2.403333333333334E+009;1.684257388114929E-001;5.528438836336136E-002;5.165886250324547E-004;-6.927453912794590E-003;
2.403500000000000E+009;1.701461225748062E-001;5.332797393202782E-002;7.331743836402893E-005;-6.906203925609589E-003;
2.403666666666667E+009;1.716274172067642E-001;5.147375166416168E-002;-2.981990401167423E-004;-6.819593720138073E-003;
2.403833333333334E+009;1.734154224395752E-001;4.963711649179459E-002;-7.048845873214304E-004;-6.649179384112358E-003;
2.404000000000000E+009;1.748867630958557E-001;4.781021922826767E-002;-8.904454298317432E-004;-6.562881171703339E-003;
2.404166666666667E+009;1.767131984233856E-001;4.639106243848801E-002;-1.121777109801769E-003;-6.312539801001549E-003;
2.404333333333334E+009;1.783074289560318E-001;4.476742818951607E-002;-1.181341824121773E-003;-6.016661413013935E-003;
2.404500000000000E+009;1.796899437904358E-001;4.326507076621056E-002;-1.452143304049969E-003;-5.903644021600485E-003;
2.404666666666667E+009;1.814833432435989E-001;4.239557310938835E-002;-1.574057620018721E-003;-5.650049541145563E-003;
2.404833333333334E+009;1.830468773841858E-001;4.134557396173477E-002;-1.738036051392555E-003;-5.713133141398430E-003;
2.405000000000000E+009;1.844291985034943E-001;4.074893146753311E-002;-1.860867720097303E-003;-5.369496997445822E-003;
2.405166666666667E+009;1.858125925064087E-001;3.986443579196930E-002;-1.902586896903813E-003;-5.326728336513042E-003;
2.405333333333334E+009;1.872924566268921E-001;3.951372951269150E-002;-1.978472340852022E-003;-5.185384768992662E-003;
2.405500000000000E+009;1.885618865489960E-001;3.908610343933106E-002;-2.107779961079359E-003;-5.115873180329800E-003;
2.405666666666667E+009;1.897497028112412E-001;3.872327506542206E-002;-2.116305287927389E-003;-5.013120360672474E-003;
2.405833333333334E+009;1.910595893859863E-001;3.832579404115677E-002;-2.132113790139556E-003;-5.036760121583939E-003;
2.406000000000000E+009;1.919939070940018E-001;3.817071393132210E-002;-2.293479163199663E-003;-4.863534122705460E-003;
2.406166666666667E+009;1.929717659950256E-001;3.799131512641907E-002;-2.439890056848526E-003;-4.618410952389240E-003;
2.406333333333334E+009;1.938296109437943E-001;3.795463964343071E-002;-2.487552119418979E-003;-4.676529671996832E-003;
2.406500000000000E+009;1.946597248315811E-001;3.793606907129288E-002;-2.358246361836791E-003;-4.462615121155977E-003;
2.406666666666667E+009;1.952974945306778E-001;3.788583353161812E-002;-2.390458481386304E-003;-4.459829535335302E-003;
2.406833333333334E+009;1.958128064870834E-001;3.788884729146957E-002;-2.764193806797266E-003;-4.331795033067465E-003;
2.407000000000000E+009;1.959434300661087E-001;3.813784196972847E-002;-2.776929875835776E-003;-4.333301912993193E-003;
2.407166666666667E+009;1.965044885873795E-001;3.791483119130135E-002;-2.736148424446583E-003;-4.388671368360519E-003;
2.407333333333334E+009;1.963683962821960E-001;3.798008710145950E-002;-2.799240872263908E-003;-4.005526658147574E-003;
2.407500000000000E+009;1.963403075933456E-001;3.797040507197380E-002;-2.888670423999429E-003;-4.144245292991400E-003;
2.407666666666667E+009;1.964096724987030E-001;3.789687529206276E-002;-3.096665255725384E-003;-4.060404375195503E-003;
2.407833333333334E+009;1.958839446306229E-001;3.771536797285080E-002;-3.115875879302621E-003;-4.025971051305533E-003;
2.408000000000000E+009;1.959474533796310E-001;3.750608116388321E-002;-3.305993741378188E-003;-4.062117543071508E-003;
2.408166666666667E+009;1.951155215501785E-001;3.712728992104530E-002;-3.306381870061159E-003;-3.913101274520159E-003;
2.408333333333334E+009;1.948740482330322E-001;3.653119504451752E-002;-3.201746847480536E-003;-3.862367244437337E-003;
2.408500000000000E+009;1.941156983375549E-001;3.614778444170952E-002;-3.375497879460454E-003;-3.940330352634192E-003;
2.408666666666667E+009;1.933655738830566E-001;3.560630604624748E-002;-3.646287601441145E-003;-3.883168799802661E-003;
2.408833333333334E+009;1.927608400583267E-001;3.471719846129417E-002;-3.721878631040454E-003;-3.866629209369421E-003;
2.409000000000000E+009;1.918103247880936E-001;3.364796563982964E-002;-3.868991741910577E-003;-3.624476492404938E-003;
2.409166666666667E+009;1.908624470233917E-001;3.271112591028214E-002;-4.010133910924196E-003;-3.547290107235313E-003;
2.409333333333334E+009;1.899396181106567E-001;3.159182891249657E-002;-4.258959554135799E-003;-3.409845521673560E-003;
2.409500000000000E+009;1.889011710882187E-001;3.025244548916817E-002;-4.166837316006422E-003;-3.217808203771710E-003;
2.409666666666667E+009;1.878914982080460E-001;2.887842059135437E-002;-4.342760890722275E-003;-3.129208693280816E-003;
2.409833333333334E+009;1.867585033178330E-001;2.749592252075672E-002;-4.563483875244856E-003;-2.969555556774139E-003;
2.410000000000000E+009;1.860497891902924E-001;2.565368264913559E-002;-4.554623272269964E-003;-2.647080691531301E-003;
2.410166666666667E+009;1.848504990339279E-001;2.395628951489925E-002;-4.527644254267216E-003;-2.626301487907767E-003;
2.410333333333334E+009;1.838837862014771E-001;2.204655483365059E-002;-4.589804448187351E-003;-2.469802973791957E-003;
2.410500000000000E+009;1.829686015844345E-001;2.025843784213066E-002;-4.553682170808315E-003;-2.188444370403886E-003;
2.410666666666667E+009;1.821124851703644E-001;1.797283068299294E-002;-4.636195488274097E-003;-2.103360835462809E-003;
2.410833333333334E+009;1.815267801284790E-001;1.574323140084744E-002;-4.641839768737555E-003;-2.203499199822545E-003;
2.411000000000000E+009;1.807772368192673E-001;1.354905776679516E-002;-4.608872812241316E-003;-2.012915443629026E-003;
2.411166666666667E+009;1.801767647266388E-001;1.138184405863285E-002;-4.494996275752783E-003;-1.875797635875642E-003;
2.411333333333334E+009;1.795897185802460E-001;8.702239021658897E-003;-4.629184026271105E-003;-1.781912636943162E-003;
2.411500000000000E+009;1.791592985391617E-001;6.583623122423887E-003;-4.570374730974436E-003;-1.679766923189163E-003;
2.411666666666667E+009;1.790091246366501E-001;4.076284356415272E-003;-4.682028200477362E-003;-1.674041850492358E-003;
2.411833333333334E+009;1.787459552288055E-001;1.797010074369609E-003;-4.783472046256065E-003;-1.567359315231443E-003;
2.412000000000000E+009;1.788214892148972E-001;-7.460188353434205E-004;-4.819797817617655E-003;-1.679452951066196E-003;
2.412166666666667E+009;1.787330508232117E-001;-3.035422181710601E-003;-4.918748512864113E-003;-1.535263960249722E-003;
2.412333333333334E+009;1.791413277387619E-001;-5.444464273750782E-003;-4.945712629705668E-003;-1.481925020925701E-003;
2.412500000000000E+009;1.793656051158905E-001;-7.901486940681934E-003;-5.035024601966143E-003;-1.365480129607022E-003;
2.412666666666667E+009;1.798915416002274E-001;-1.030787825584412E-002;-5.197573453187943E-003;-1.423064037226141E-003;
2.412833333333334E+009;1.807252317667007E-001;-1.270321570336819E-002;-5.297502968460321E-003;-1.078999368473887E-003;
2.413000000000000E+009;1.812546700239182E-001;-1.493933517485857E-002;-5.357245914638042E-003;-1.115092891268432E-003;
2.413166666666667E+009;1.821157187223434E-001;-1.729003898799419E-002;-5.454319994896650E-003;-9.259760263375938E-004;
2.413333333333334E+009;1.831068992614746E-001;-1.945444755256176E-002;-5.618691910058260E-003;-7.245799642987549E-004;
2.413500000000000E+009;1.840088069438934E-001;-2.169768325984478E-002;-5.613524001091719E-003;-5.750380223616958E-004;
2.413666666666667E+009;1.850389093160629E-001;-2.377718500792980E-002;-5.934511777013540E-003;-3.577741445042193E-004;
2.413833333333334E+009;1.859691143035889E-001;-2.562984637916088E-002;-5.893100984394550E-003;-1.323803298873827E-004;
2.414000000000000E+009;1.872661262750626E-001;-2.769778668880463E-002;-5.950736347585917E-003;3.146744274999946E-004;
2.414166666666667E+009;1.884744763374329E-001;-2.939949929714203E-002;-6.061542313545942E-003;4.643661668524146E-004;
2.414333333333334E+009;1.895113885402679E-001;-3.126668557524681E-002;-6.015122402459383E-003;8.024616399779916E-004;
2.414500000000000E+009;1.906656473875046E-001;-3.266542032361031E-002;-6.012483965605497E-003;1.042439835146070E-003;
2.414666666666667E+009;1.918651163578033E-001;-3.413841128349304E-002;-5.989532917737961E-003;1.342433155514300E-003;
2.414833333333334E+009;1.928805559873581E-001;-3.561943024396896E-002;-6.057002115994692E-003;1.508687739260495E-003;
2.415000000000000E+009;1.940650045871735E-001;-3.691457211971283E-002;-5.703595466911793E-003;1.872690510936081E-003;
2.415166666666667E+009;1.952170878648758E-001;-3.793688490986824E-002;-5.742975976318121E-003;2.005390822887421E-003;
2.415333333333334E+009;1.963309198617935E-001;-3.882740810513496E-002;-5.645466037094593E-003;2.275373786687851E-003;
2.415500000000000E+009;1.972613334655762E-001;-3.946154564619064E-002;-5.407199263572693E-003;2.540585584938526E-003;
2.415666666666667E+009;1.983843445777893E-001;-4.034289345145226E-002;-5.289834458380938E-003;2.650574315339327E-003;
2.415833333333334E+009;1.992222964763641E-001;-4.084010794758797E-002;-5.127464421093464E-003;2.870621392503381E-003;
2.416000000000000E+009;1.999557018280029E-001;-4.145796969532967E-002;-5.121783353388310E-003;3.167534712702036E-003;
2.416166666666667E+009;2.005710750818253E-001;-4.204288870096207E-002;-4.810783080756664E-003;3.237684955820441E-003;
2.416333333333334E+009;2.012626826763153E-001;-4.224810004234314E-002;-4.682932514697313E-003;3.503104904666543E-003;
2.416500000000000E+009;2.016348391771317E-001;-4.246870055794716E-002;-4.555215593427420E-003;3.672919468954206E-003;
2.416666666666667E+009;2.019366323947907E-001;-4.292723536491394E-002;-4.306465387344360E-003;3.739770967513323E-003;
2.416833333333334E+009;2.020053267478943E-001;-4.299209266901016E-002;-4.178676288574934E-003;3.813996678218246E-003;
2.417000000000000E+009;2.021419256925583E-001;-4.315007477998734E-002;-3.915288951247931E-003;3.978211898356676E-003;
2.417166666666667E+009;2.019018381834030E-001;-4.307423159480095E-002;-3.685048082843423E-003;4.127614665776491E-003;
2.417333333333334E+009;2.015900462865830E-001;-4.277393594384193E-002;-3.561907680705190E-003;4.250253085047007E-003;
2.417500000000000E+009;2.012774050235748E-001;-4.284752905368805E-002;-3.314828500151634E-003;4.060203675180674E-003;
2.417666666666667E+009;2.007386833429337E-001;-4.269970580935478E-002;-3.016688628122211E-003;4.306269343942404E-003;
2.417833333333334E+009;2.002630680799484E-001;-4.254779592156410E-002;-2.851891797035933E-003;4.166520200669766E-003;
2.418000000000000E+009;1.995346546173096E-001;-4.237796366214752E-002;-2.666383283212781E-003;4.080245271325111E-003;
2.418166666666667E+009;1.986379772424698E-001;-4.228622093796730E-002;-2.518936526030302E-003;4.245151299983263E-003;
2.418333333333334E+009;1.978258192539215E-001;-4.217175394296646E-002;-2.250714227557182E-003;4.234704189002514E-003;
2.418500000000000E+009;1.967954933643341E-001;-4.227861016988754E-002;-2.245219191536307E-003;4.247706383466721E-003;
2.418666666666667E+009;1.958980560302734E-001;-4.212180525064468E-002;-2.031539566814899E-003;4.198491107672453E-003;
2.418833333333334E+009;1.946722716093063E-001;-4.234865307807922E-002;-1.908021979033947E-003;4.188951104879379E-003;
2.419000000000000E+009;1.931574940681458E-001;-4.255335405468941E-002;-1.860677148215473E-003;3.960932604968548E-003;
2.419166666666667E+009;1.921780705451965E-001;-4.305388405919075E-002;-1.637882785871625E-003;3.962160088121891E-003;
2.419333333333334E+009;1.907096058130264E-001;-4.335324466228485E-002;-1.647046417929232E-003;4.087378270924091E-003;
2.419500000000000E+009;1.892744153738022E-001;-4.363696649670601E-002;-1.504881191067398E-003;3.971494268625975E-003;
2.419666666666667E+009;1.877203434705734E-001;-4.470416158437729E-002;-1.621014787815511E-003;3.971464000642300E-003;
2.419833333333334E+009;1.861277371644974E-001;-4.535650461912155E-002;-1.487862784415484E-003;3.902350552380085E-003;
2.420000000000000E+009;1.846627146005631E-001;-4.615510627627373E-002;-1.468854490667582E-003;3.909976687282324E-003;
2.420166666666667E+009;1.829792559146881E-001;-4.713994264602661E-002;-1.217100303620100E-003;3.882984863594174E-003;
2.420333333333334E+009;1.814098805189133E-001;-4.830253869295120E-002;-1.259241718798876E-003;3.773360513150692E-003;
2.420500000000000E+009;1.797958314418793E-001;-4.970913007855415E-002;-1.293048495426774E-003;3.972813487052918E-003;
2.420666666666667E+009;1.782816052436829E-001;-5.087783187627792E-002;-1.221261220052838E-003;3.768168389797211E-003;
2.420833333333334E+009;1.767168343067169E-001;-5.245858430862427E-002;-1.049864920787513E-003;3.845642087981105E-003;
2.421000000000000E+009;1.751993149518967E-001;-5.378084257245064E-002;-9.507719660177827E-004;3.849973436444998E-003;
2.421166666666667E+009;1.738108247518539E-001;-5.558002740144730E-002;-9.254826582036912E-004;3.954345826059580E-003;
2.421333333333334E+009;1.721789091825485E-001;-5.693723633885384E-002;-9.264113614335656E-004;3.854681504890323E-003;
2.421500000000000E+009;1.709548085927963E-001;-5.893648788332939E-002;-8.897327934391797E-004;3.746539587154985E-003;
2.421666666666667E+009;1.698241978883743E-001;-6.069952994585037E-002;-8.901735418476164E-004;3.889100626111031E-003;
2.421833333333334E+009;1.686272174119949E-001;-6.247362494468689E-002;-7.643195567652583E-004;3.896718844771385E-003;
2.422000000000000E+009;1.676013916730881E-001;-6.449126452207565E-002;-6.977986195124686E-004;3.934282809495926E-003;
2.422166666666667E+009;1.668944954872131E-001;-6.641117483377457E-002;-6.522132898680866E-004;3.875699127092958E-003;
2.422333333333334E+009;1.656713336706162E-001;-6.855560094118118E-002;-4.640020197257400E-004;3.968917299062014E-003;
2.422500000000000E+009;1.650961935520172E-001;-7.044891268014908E-002;-5.286653758957982E-004;3.886150661855936E-003;
2.422666666666667E+009;1.641432195901871E-001;-7.235219329595566E-002;-3.124152135569602E-004;3.882381832227111E-003;
2.422833333333334E+009;1.638050675392151E-001;-7.444572448730469E-002;-3.352248459123075E-004;3.917020745575428E-003;
2.423000000000000E+009;1.633055955171585E-001;-7.639253884553909E-002;-4.743763711303473E-004;4.090705420821905E-003;
2.423166666666667E+009;1.630438268184662E-001;-7.841956615447998E-002;-1.288312778342515E-004;3.915688488632441E-003;
2.423333333333334E+009;1.626183539628983E-001;-8.014354109764099E-002;-1.147013972513378E-004;4.006265662610531E-003;
2.423500000000000E+009;1.626745611429215E-001;-8.192062377929688E-002;-1.000148040475324E-004;3.943039104342461E-003;
2.423666666666667E+009;1.626678407192230E-001;-8.382479846477509E-002;4.023004294140264E-005;3.999324515461922E-003;
2.423833333333334E+009;1.626408547163010E-001;-8.545992523431778E-002;1.159946550615132E-004;3.951482009142637E-003;
2.424000000000000E+009;1.628621667623520E-001;-8.712951093912125E-002;2.074599178740755E-004;4.014879930764437E-003;
2.424166666666667E+009;1.628641635179520E-001;-8.874323219060898E-002;1.826118386816233E-004;3.929703496396542E-003;
2.424333333333334E+009;1.630943119525909E-001;-9.008625894784927E-002;1.435010781278834E-004;3.975640982389450E-003;
2.424500000000000E+009;1.634154319763184E-001;-9.188539534807205E-002;2.694900904316455E-004;4.011022392660379E-003;
2.424666666666667E+009;1.636116057634354E-001;-9.319713711738586E-002;3.109418030362576E-004;4.134669434279203E-003;
2.424833333333334E+009;1.641625016927719E-001;-9.439779072999954E-002;4.950335132889450E-004;4.233243875205517E-003;
2.425000000000000E+009;1.644599884748459E-001;-9.554186463356018E-002;4.935254692099989E-004;4.368368070572615E-003;
2.425166666666667E+009;1.648147404193878E-001;-9.660936146974564E-002;4.881567729171366E-004;4.276550840586424E-003;
2.425333333333334E+009;1.653514653444290E-001;-9.754500538110733E-002;7.774397381581366E-004;4.354766570031643E-003;
2.425500000000000E+009;1.657617688179016E-001;-9.851267933845520E-002;9.122118353843689E-004;4.272011108696461E-003;
2.425666666666667E+009;1.659796684980393E-001;-9.915580600500107E-002;1.090384204871953E-003;4.526883829385042E-003;
2.425833333333334E+009;1.663985550403595E-001;-9.996505081653595E-002;1.170886796899140E-003;4.369519185274839E-003;
2.426000000000000E+009;1.666744947433472E-001;-1.003855392336845E-001;1.158101600594819E-003;4.348088521510363E-003;
2.426166666666667E+009;1.671950370073319E-001;-1.009929925203323E-001;1.484427135437727E-003;4.379589110612869E-003;
2.426333333333334E+009;1.672200858592987E-001;-1.013771519064903E-001;1.739542465656996E-003;4.583592060953379E-003;
2.426500000000000E+009;1.676327288150787E-001;-1.017048060894013E-001;1.739739673212171E-003;4.444512538611889E-003;
2.426666666666667E+009;1.678519248962402E-001;-1.019614040851593E-001;1.875540474429727E-003;4.329130519181490E-003;
2.426833333333334E+009;1.681055128574371E-001;-1.022987142205238E-001;2.283523092046380E-003;4.436700604856014E-003;
2.427000000000000E+009;1.680736690759659E-001;-1.025441363453865E-001;2.395751886069775E-003;4.242048133164644E-003;
2.427166666666667E+009;1.680598109960556E-001;-1.026061028242111E-001;2.400916768237948E-003;4.326040856540203E-003;
2.427333333333334E+009;1.679670959711075E-001;-1.030118763446808E-001;2.512064995244145E-003;4.320167936384678E-003;
2.427500000000000E+009;1.677328795194626E-001;-1.031234338879585E-001;2.637714613229036E-003;4.173566587269306E-003;
2.427666666666667E+009;1.673513948917389E-001;-1.031352207064629E-001;3.012728644534946E-003;4.159045871347189E-003;
