# Version 1.00
#
freq[Hz];re:Trc1_S11;im:Trc1_S11;re:Trc2_S21;im:Trc2_S21;
2.400000000000000E+009;1.688782125711441E-001;4.052343219518662E-002;2.625590423122048E-003;2.228986239060760E-003;
2.400166666666667E+009;1.695793867111206E-001;3.984066098928452E-002;2.725244965404272E-003;2.235323190689087E-003;
2.400333333333334E+009;1.700979173183441E-001;3.887677192687988E-002;2.964968327432871E-003;2.161005279049277E-003;
2.400500000000000E+009;1.705857664346695E-001;3.822997957468033E-002;3.265560604631901E-003;2.028006361797452E-003;
2.400666666666667E+009;1.710125803947449E-001;3.732573240995407E-002;3.335574641823769E-003;2.091494388878346E-003;
2.400833333333334E+009;1.713809967041016E-001;3.668573871254921E-002;3.464806359261274E-003;1.776174409314990E-003;
2.401000000000000E+009;1.717067062854767E-001;3.572844713926315E-002;3.676502266898751E-003;1.579453470185399E-003;
2.401166666666667E+009;1.720390617847443E-001;3.510982543230057E-002;3.888455452397466E-003;1.634880900382996E-003;
2.401333333333334E+009;1.717836856842041E-001;3.423881158232689E-002;3.918590489774942E-003;1.197007019072771E-003;
2.401500000000000E+009;1.723074615001679E-001;3.348969668149948E-002;4.007114563137293E-003;1.043200260028243E-003;
2.401666666666667E+009;1.722508370876312E-001;3.290769457817078E-002;4.077612422406673E-003;8.382254745811224E-004;
2.401833333333334E+009;1.723289042711258E-001;3.189394623041153E-002;4.149112384766340E-003;5.005596904084086E-004;
2.402000000000000E+009;1.721275895833969E-001;3.115070797502995E-002;4.070406313985586E-003;5.388975841924548E-004;
2.402166666666667E+009;1.721215993165970E-001;3.012650832533836E-002;4.222158342599869E-003;2.762138610705733E-004;
2.402333333333334E+009;1.722240895032883E-001;2.944374270737171E-002;3.980848006904125E-003;3.353425199748017E-005;
2.402500000000000E+009;1.722468733787537E-001;2.845001965761185E-002;3.899131203070283E-003;-5.424119080998935E-005;
2.402666666666667E+009;1.719483286142349E-001;2.748485654592514E-002;4.035887308418751E-003;-2.512195205781609E-004;
2.402833333333334E+009;1.716599017381668E-001;2.659368701279163E-002;3.936422523111105E-003;-3.615228051785380E-004;
2.403000000000000E+009;1.716145873069763E-001;2.543263509869576E-002;3.866719314828515E-003;-4.098998324479908E-004;
2.403166666666667E+009;1.715678423643112E-001;2.444778196513653E-002;3.690374316647649E-003;-8.479619282297790E-004;
2.403333333333334E+009;1.713482141494751E-001;2.329670637845993E-002;3.714246442541480E-003;-8.421641541644931E-004;
2.403500000000000E+009;1.710174232721329E-001;2.202909998595715E-002;3.614318091422319E-003;-9.600797202438116E-004;
2.403666666666667E+009;1.708481162786484E-001;2.093387022614479E-002;3.513216972351074E-003;-1.117913634516299E-003;
2.403833333333334E+009;1.706538200378418E-001;1.951674371957779E-002;3.607823513448238E-003;-1.112546189688146E-003;
2.404000000000000E+009;1.704283058643341E-001;1.858267001807690E-002;3.540195524692535E-003;-1.095584593713284E-003;
2.404166666666667E+009;1.701722592115402E-001;1.710107363760471E-002;3.439248539507389E-003;-1.309609040617943E-003;
2.404333333333334E+009;1.701491326093674E-001;1.573412306606770E-002;3.527507418766618E-003;-1.422524917870760E-003;
2.404500000000000E+009;1.698372811079025E-001;1.424156874418259E-002;3.402706934139133E-003;-1.539983437396586E-003;
2.404666666666667E+009;1.698760390281677E-001;1.288734562695026E-002;3.401043126359582E-003;-1.659831730648875E-003;
2.404833333333334E+009;1.696347743272781E-001;1.123905740678310E-002;3.306523431092501E-003;-1.854094909504056E-003;
2.405000000000000E+009;1.696561723947525E-001;9.585976600646973E-003;3.238371107727289E-003;-1.911684637889266E-003;
2.405166666666667E+009;1.694163233041763E-001;8.014853112399578E-003;3.162656677886844E-003;-2.165844198316336E-003;
2.405333333333334E+009;1.696069240570068E-001;6.358204875141382E-003;3.099121386185288E-003;-2.230297308415175E-003;
2.405500000000000E+009;1.693712472915649E-001;4.582945257425308E-003;3.068991238251329E-003;-2.389135537669063E-003;
2.405666666666667E+009;1.693858504295349E-001;3.110427875071764E-003;2.980699529871345E-003;-2.756904345005751E-003;
2.405833333333334E+009;1.691114753484726E-001;1.437930855900049E-003;2.669494599103928E-003;-2.812793478369713E-003;
2.406000000000000E+009;1.692640334367752E-001;-3.450747753959149E-004;2.719084965065122E-003;-2.682389225810766E-003;
2.406166666666667E+009;1.688880920410156E-001;-1.976030878722668E-003;2.300511114299297E-003;-2.871017204597592E-003;
2.406333333333334E+009;1.690536737442017E-001;-3.780881175771356E-003;2.294029807671905E-003;-3.080961294472218E-003;
2.406500000000000E+009;1.689168959856033E-001;-5.501536652445793E-003;1.961964182555676E-003;-2.954461146146059E-003;
2.406666666666667E+009;1.685855686664581E-001;-6.929884199053049E-003;1.861124299466610E-003;-3.087279386818409E-003;
2.406833333333334E+009;1.686387360095978E-001;-8.667771704494953E-003;1.806503161787987E-003;-3.065032651647925E-003;
2.407000000000000E+009;1.685755997896195E-001;-1.005303114652634E-002;1.479331636801362E-003;-3.045263700187206E-003;
2.407166666666667E+009;1.686706244945526E-001;-1.157754566520453E-002;1.245166873559356E-003;-2.985493745654821E-003;
2.407333333333334E+009;1.683733761310577E-001;-1.308342162519693E-002;1.189353410154581E-003;-3.047006204724312E-003;
2.407500000000000E+009;1.682820022106171E-001;-1.443876232951880E-002;1.091557671315968E-003;-2.867887960746884E-003;
2.407666666666667E+009;1.682059168815613E-001;-1.564864441752434E-002;8.581306901760399E-004;-2.824360271915793E-003;
2.407833333333334E+009;1.679906547069550E-001;-1.699454709887505E-002;7.533503230661154E-004;-2.708494197577238E-003;
2.408000000000000E+009;1.680819541215897E-001;-1.821545697748661E-002;7.784425397403538E-004;-2.791528590023518E-003;
2.408166666666667E+009;1.679916232824326E-001;-1.896379515528679E-002;8.168497006408870E-004;-2.502180403098464E-003;
2.408333333333334E+009;1.683119088411331E-001;-2.003371156752110E-002;6.411354406736791E-004;-2.370947971940041E-003;
2.408500000000000E+009;1.682084351778030E-001;-2.089629694819450E-002;7.882003556005657E-004;-2.511026104912162E-003;
2.408666666666667E+009;1.683609038591385E-001;-2.193513326346874E-002;7.383979973383248E-004;-2.391070360317826E-003;
2.408833333333334E+009;1.685081720352173E-001;-2.280031330883503E-002;6.745052523910999E-004;-2.474952023476362E-003;
2.409000000000000E+009;1.687288731336594E-001;-2.352683804929256E-002;7.221259875223041E-004;-2.483086660504341E-003;
2.409166666666667E+009;1.689858883619309E-001;-2.441877871751785E-002;5.970770143903792E-004;-2.468584803864360E-003;
2.409333333333334E+009;1.692328602075577E-001;-2.513109333813191E-002;6.120088510215282E-004;-2.337589161470532E-003;
2.409500000000000E+009;1.693679392337799E-001;-2.620354667305946E-002;6.046920316293836E-004;-2.395951887592673E-003;
2.409666666666667E+009;1.696338504552841E-001;-2.693372033536434E-002;5.865122657269239E-004;-2.640882972627878E-003;
2.409833333333334E+009;1.696746498346329E-001;-2.767569012939930E-002;7.128838333301246E-004;-2.481684787198901E-003;
2.410000000000000E+009;1.699834018945694E-001;-2.850996516644955E-002;5.441986140795052E-004;-2.584845060482621E-003;
2.410166666666667E+009;1.703430414199829E-001;-2.934411913156509E-002;5.684004863724113E-004;-2.407958265393972E-003;
2.410333333333334E+009;1.700877845287323E-001;-3.018156066536903E-002;5.182337481528521E-004;-2.475602552294731E-003;
2.410500000000000E+009;1.700893789529800E-001;-3.100352361798286E-002;5.489657633006573E-004;-2.633264288306236E-003;
2.410666666666667E+009;1.701319068670273E-001;-3.187596052885056E-002;4.561521054711193E-004;-2.720697550103068E-003;
2.410833333333334E+009;1.703357994556427E-001;-3.271656110882759E-002;2.815629995893687E-004;-2.632291289046407E-003;
2.411000000000000E+009;1.700552403926849E-001;-3.339383378624916E-002;2.685484942048788E-004;-2.825351664796472E-003;
2.411166666666667E+009;1.698062121868134E-001;-3.417766466736794E-002;2.075183583656326E-004;-2.749022794887424E-003;
2.411333333333334E+009;1.696135550737381E-001;-3.503105044364929E-002;1.931374135892838E-004;-2.798161003738642E-003;
2.411500000000000E+009;1.692783385515213E-001;-3.587417677044869E-002;1.479069178458303E-004;-2.918282058089972E-003;
2.411666666666667E+009;1.692444384098053E-001;-3.662293776869774E-002;1.814100542105734E-004;-2.964169718325138E-003;
2.411833333333334E+009;1.690727621316910E-001;-3.725150227546692E-002;1.957338099600747E-006;-3.011446446180344E-003;
2.412000000000000E+009;1.686579585075378E-001;-3.812343627214432E-002;-9.429419878870249E-005;-3.085716394707561E-003;
2.412166666666667E+009;1.681976616382599E-001;-3.915555030107498E-002;-2.021050459006801E-004;-3.076511435210705E-003;
2.412333333333334E+009;1.682975441217423E-001;-3.994657471776009E-002;-3.783282591030002E-004;-3.153965575620532E-003;
2.412500000000000E+009;1.675971299409866E-001;-4.083544388413429E-002;-6.828435580246151E-004;-3.066833363845944E-003;
2.412666666666667E+009;1.671315878629684E-001;-4.176238924264908E-002;-6.905849440954626E-004;-3.154922742396593E-003;
2.412833333333334E+009;1.666264683008194E-001;-4.284944757819176E-002;-8.906526491045952E-004;-2.987312851473689E-003;
2.413000000000000E+009;1.661652475595474E-001;-4.372187331318855E-002;-1.046815654262900E-003;-3.106821095570922E-003;
2.413166666666667E+009;1.657228320837021E-001;-4.459863901138306E-002;-1.081005786545575E-003;-2.930971560999751E-003;
2.413333333333334E+009;1.650076955556870E-001;-4.568445309996605E-002;-1.350359874777496E-003;-3.053410444408655E-003;
2.413500000000000E+009;1.646286994218826E-001;-4.657969623804092E-002;-1.355674932710826E-003;-2.879396779462695E-003;
2.413666666666667E+009;1.639316976070404E-001;-4.770821332931519E-002;-1.539570861496031E-003;-2.741897944360972E-003;
2.413833333333334E+009;1.634438335895538E-001;-4.870332404971123E-002;-1.507216249592602E-003;-2.684128237888217E-003;
2.414000000000000E+009;1.627277880907059E-001;-4.962443932890892E-002;-1.719665713608265E-003;-2.455261535942555E-003;
2.414166666666667E+009;1.625044196844101E-001;-5.064208433032036E-002;-1.552951405756176E-003;-2.449748339131475E-003;
2.414333333333334E+009;1.617619693279266E-001;-5.164661630988121E-002;-1.676429412327707E-003;-2.330954186618328E-003;
2.414500000000000E+009;1.616271585226059E-001;-5.273741483688355E-002;-1.660437323153019E-003;-2.212604740634561E-003;
2.414666666666667E+009;1.610800176858902E-001;-5.367939546704292E-002;-1.851249020546675E-003;-2.066654851660132E-003;
2.414833333333334E+009;1.606808304786682E-001;-5.474675446748734E-002;-1.626890036277473E-003;-2.134460490196943E-003;
2.415000000000000E+009;1.603213548660278E-001;-5.571091920137405E-002;-1.748056150972843E-003;-1.991186989471316E-003;
2.415166666666667E+009;1.601388603448868E-001;-5.689340084791184E-002;-1.893106615170836E-003;-1.877153757959604E-003;
2.415333333333334E+009;1.599892228841782E-001;-5.821340158581734E-002;-1.690156175754964E-003;-1.806916436180472E-003;
2.415500000000000E+009;1.597610712051392E-001;-5.927057936787605E-002;-1.725702895782888E-003;-1.738820574246347E-003;
2.415666666666667E+009;1.594837754964829E-001;-6.050492450594902E-002;-1.767470501363277E-003;-1.785354223102331E-003;
2.415833333333334E+009;1.593876332044601E-001;-6.188130378723145E-002;-1.878920011222363E-003;-1.630453160032630E-003;
2.416000000000000E+009;1.590249538421631E-001;-6.317593157291412E-002;-1.697100931778550E-003;-1.600593095645309E-003;
2.416166666666667E+009;1.590423434972763E-001;-6.437128782272339E-002;-1.475353026762605E-003;-1.479320926591754E-003;
2.416333333333334E+009;1.585881561040878E-001;-6.575273722410202E-002;-1.564316684380174E-003;-1.566915307193995E-003;
2.416500000000000E+009;1.585090905427933E-001;-6.710459291934967E-002;-1.390834338963032E-003;-1.593206543475390E-003;
2.416666666666667E+009;1.581923216581345E-001;-6.843612343072891E-002;-1.409513643011451E-003;-1.641852082684636E-003;
2.416833333333334E+009;1.579701751470566E-001;-6.980817019939423E-002;-1.326290075667203E-003;-1.788183115422726E-003;
2.417000000000000E+009;1.574782282114029E-001;-7.098350673913956E-002;-1.280162250623107E-003;-1.917354646138847E-003;
2.417166666666667E+009;1.573055237531662E-001;-7.197675108909607E-002;-1.508101355284452E-003;-2.081072889268398E-003;
2.417333333333334E+009;1.570135951042175E-001;-7.309683412313461E-002;-1.510786823928356E-003;-2.114001661539078E-003;
2.417500000000000E+009;1.567293703556061E-001;-7.435588538646698E-002;-1.580742304213345E-003;-2.261983696371317E-003;
2.417666666666667E+009;1.565184742212296E-001;-7.517611980438232E-002;-1.840994809754193E-003;-2.309819683432579E-003;
2.417833333333334E+009;1.563300788402557E-001;-7.630124688148499E-002;-1.957659376785159E-003;-2.500232774764299E-003;
2.418000000000000E+009;1.560531854629517E-001;-7.711014896631241E-002;-2.256166422739625E-003;-2.497249282896519E-003;
2.418166666666667E+009;1.558998078107834E-001;-7.803962379693985E-002;-2.528738463297486E-003;-2.626300556585193E-003;
2.418333333333334E+009;1.559691876173019E-001;-7.888508588075638E-002;-2.786773722618818E-003;-2.425650367513299E-003;
2.418500000000000E+009;1.555246114730835E-001;-7.971956580877304E-002;-2.899239305406809E-003;-2.307261573150754E-003;
2.418666666666667E+009;1.555404216051102E-001;-8.056316524744034E-002;-3.112755483016372E-003;-2.210961887612939E-003;
2.418833333333334E+009;1.550172120332718E-001;-8.136670291423798E-002;-3.419158980250359E-003;-2.010005759075284E-003;
2.419000000000000E+009;1.546621173620224E-001;-8.208543062210083E-002;-3.577957628294826E-003;-1.827373052947223E-003;
2.419166666666667E+009;1.545780450105667E-001;-8.278442919254303E-002;-3.735790261998773E-003;-1.560816192068160E-003;
2.419333333333334E+009;1.541513204574585E-001;-8.312046527862549E-002;-3.897821297869086E-003;-1.367405173368752E-003;
2.419500000000000E+009;1.540292948484421E-001;-8.398144692182541E-002;-3.701960202306509E-003;-1.209213980473578E-003;
2.419666666666667E+009;1.539609283208847E-001;-8.445698767900467E-002;-3.813619259744883E-003;-9.690771694295108E-004;
2.419833333333334E+009;1.533436030149460E-001;-8.496208488941193E-002;-3.979674540460110E-003;-7.789104129187763E-004;
2.420000000000000E+009;1.532447785139084E-001;-8.547487109899521E-002;-3.813591785728931E-003;-4.139839438721538E-004;
2.420166666666667E+009;1.528712362051010E-001;-8.597554266452789E-002;-3.950088284909725E-003;-4.124581755604595E-004;
2.420333333333334E+009;1.527570933103561E-001;-8.649451285600662E-002;-3.920306451618671E-003;-1.640564732952043E-004;
2.420500000000000E+009;1.523735225200653E-001;-8.681339025497437E-002;-4.009315744042397E-003;-1.676294195931405E-004;
2.420666666666667E+009;1.521207839250565E-001;-8.740412443876267E-002;-3.957754466682673E-003;2.618257894937415E-005;
2.420833333333334E+009;1.517917960882187E-001;-8.790472149848938E-002;-3.791227005422115E-003;2.174751862185076E-004;
2.421000000000000E+009;1.513344794511795E-001;-8.864636719226837E-002;-3.822289174422622E-003;2.897462982218713E-004;
2.421166666666667E+009;1.509217768907547E-001;-8.913228660821915E-002;-4.026305861771107E-003;3.959021123591811E-004;
2.421333333333334E+009;1.505780816078186E-001;-8.973772823810577E-002;-3.880040952935815E-003;6.316799554042518E-004;
2.421500000000000E+009;1.499638557434082E-001;-9.015496820211411E-002;-4.029921721667051E-003;7.164184935390949E-004;
2.421666666666667E+009;1.494923382997513E-001;-9.094857424497604E-002;-3.978663124144077E-003;8.584798779338598E-004;
2.421833333333334E+009;1.490091979503632E-001;-9.149362891912460E-002;-3.981225658208132E-003;1.227078610099852E-003;
2.422000000000000E+009;1.482443809509277E-001;-9.211727976799011E-002;-3.969903104007244E-003;1.260965829715133E-003;
2.422166666666667E+009;1.476043164730072E-001;-9.289420396089554E-002;-3.920531366020441E-003;1.402481575496495E-003;
2.422333333333334E+009;1.470627337694168E-001;-9.354790300130844E-002;-3.838208038359880E-003;1.813703798688948E-003;
2.422500000000000E+009;1.463171988725662E-001;-9.405837208032608E-002;-3.598717274144292E-003;1.793768140487373E-003;
2.422666666666667E+009;1.454875767230988E-001;-9.479639679193497E-002;-3.557790303602815E-003;2.030583797022700E-003;
2.422833333333334E+009;1.450123637914658E-001;-9.566418081521988E-002;-3.422192065045238E-003;2.396303694695234E-003;
2.423000000000000E+009;1.443234980106354E-001;-9.637153148651123E-002;-3.276838688179851E-003;2.424642210826278E-003;
2.423166666666667E+009;1.435951739549637E-001;-9.728062152862549E-002;-3.015608293935657E-003;2.554158912971616E-003;
2.423333333333334E+009;1.427357047796249E-001;-9.789503365755081E-002;-2.890236442908645E-003;2.566843293607235E-003;
2.423500000000000E+009;1.420488506555557E-001;-9.893625229597092E-002;-2.741344505921006E-003;2.656589727848768E-003;
2.423666666666667E+009;1.411177217960358E-001;-9.992102533578873E-002;-2.420714590698481E-003;2.620154758915305E-003;
2.423833333333334E+009;1.406538337469101E-001;-1.010263562202454E-001;-2.553969854488969E-003;2.835694001987577E-003;
2.424000000000000E+009;1.398107409477234E-001;-1.015597209334374E-001;-2.268308075144887E-003;2.885723020881414E-003;
2.424166666666667E+009;1.390336751937866E-001;-1.025731936097145E-001;-2.106895670294762E-003;2.836864208802581E-003;
2.424333333333334E+009;1.383969932794571E-001;-1.035042405128479E-001;-1.925160759128630E-003;2.843744819983840E-003;
2.424500000000000E+009;1.376737654209137E-001;-1.045606508851051E-001;-1.904992037452757E-003;2.935201395303011E-003;
2.424666666666667E+009;1.370380371809006E-001;-1.053490564227104E-001;-1.959336223080754E-003;2.856055507436395E-003;
2.424833333333334E+009;1.362323015928268E-001;-1.064104884862900E-001;-1.702110632322729E-003;2.894927281886339E-003;
2.425000000000000E+009;1.355353295803070E-001;-1.074527129530907E-001;-1.506934990175068E-003;2.894533798098564E-003;
2.425166666666667E+009;1.346787661314011E-001;-1.084767207503319E-001;-1.432478777132928E-003;2.997774397954345E-003;
2.425333333333334E+009;1.343320012092590E-001;-1.094649583101273E-001;-1.148796640336514E-003;2.927268855273724E-003;
2.425500000000000E+009;1.338344067335129E-001;-1.105237826704979E-001;-1.096507534384728E-003;3.061412833631039E-003;
2.425666666666667E+009;1.331838667392731E-001;-1.115837469696999E-001;-9.449065546505153E-004;2.864513779059053E-003;
2.425833333333334E+009;1.326178163290024E-001;-1.126608774065971E-001;-6.740452372469008E-004;3.023459576070309E-003;
2.426000000000000E+009;1.320645958185196E-001;-1.138135641813278E-001;-5.473099299706519E-004;2.737385220825672E-003;
2.426166666666667E+009;1.317387372255325E-001;-1.149254217743874E-001;-3.636045148596168E-004;2.769862767308950E-003;
2.426333333333334E+009;1.311705112457275E-001;-1.158173680305481E-001;-4.638550453819335E-004;2.828116295859218E-003;
2.426500000000000E+009;1.307800114154816E-001;-1.168568506836891E-001;-3.412068472243846E-004;2.783821197226644E-003;
2.426666666666667E+009;1.304845511913300E-001;-1.176771149039269E-001;-1.607486483408138E-004;2.369737951084971E-003;
2.426833333333334E+009;1.300450414419174E-001;-1.186883524060249E-001;-1.405377115588635E-004;2.256788779050112E-003;
2.427000000000000E+009;1.296001970767975E-001;-1.197418272495270E-001;-2.026299043791369E-004;2.226760378107429E-003;
2.427166666666667E+009;1.293250322341919E-001;-1.204407811164856E-001;-1.904346718220040E-004;2.113613532856107E-003;
2.427333333333334E+009;1.289490312337875E-001;-1.212346404790878E-001;-1.982122776098549E-004;2.091678092256188E-003;
2.427500000000000E+009;1.287838071584702E-001;-1.220714002847672E-001;-2.166900812881067E-004;2.056231722235680E-003;
2.427666666666667E+009;1.285528093576431E-001;-1.228469535708427E-001;-3.162437351420522E-004;1.875038840807974E-003;
