# Version 1.00
#
freq[Hz];re:Trc1_S11;im:Trc1_S11;re:Trc2_S21;im:Trc2_S21;
2.400000000000000E+009;1.736202985048294E-001;4.922022297978401E-002;1.749564427882433E-003;3.821074031293392E-003;
2.400166666666667E+009;1.739649325609207E-001;4.884298145771027E-002;1.672236132435501E-003;3.770784009248018E-003;
2.400333333333334E+009;1.743891835212708E-001;4.803496971726418E-002;1.581456046551466E-003;3.441791981458664E-003;
2.400500000000000E+009;1.747754961252213E-001;4.738487303256989E-002;1.546765677630901E-003;3.396498970687389E-003;
2.400666666666667E+009;1.750782132148743E-001;4.680260270833969E-002;1.368675963021815E-003;3.075947053730488E-003;
2.400833333333334E+009;1.753128170967102E-001;4.624577239155769E-002;1.412989106029272E-003;2.911650575697422E-003;
2.401000000000000E+009;1.754958033561707E-001;4.537547007203102E-002;1.196345547214150E-003;2.794051310047507E-003;
2.401166666666667E+009;1.756752133369446E-001;4.480205103754997E-002;1.170676667243242E-003;2.860087435692549E-003;
2.401333333333334E+009;1.755799800157547E-001;4.428250342607498E-002;9.949698578566313E-004;2.761662239208818E-003;
2.401500000000000E+009;1.758144348859787E-001;4.351571574807167E-002;8.673332049511373E-004;2.836698666214943E-003;
2.401666666666667E+009;1.755480766296387E-001;4.287796840071678E-002;8.008117438293994E-004;2.793228719383478E-003;
2.401833333333334E+009;1.754783689975739E-001;4.192617908120155E-002;7.005400839261711E-004;2.884272485971451E-003;
2.402000000000000E+009;1.751040667295456E-001;4.130151122808456E-002;6.012262892909348E-004;3.015519585460424E-003;
2.402166666666667E+009;1.749754548072815E-001;4.020786657929421E-002;6.543519557453692E-004;3.042148891836405E-003;
2.402333333333334E+009;1.746716946363449E-001;3.930766135454178E-002;6.310473545454443E-004;3.052076091989875E-003;
2.402500000000000E+009;1.746456772089005E-001;3.830171003937721E-002;5.512445932254195E-004;3.188767703250051E-003;
2.402666666666667E+009;1.743871271610260E-001;3.716683760285378E-002;6.030643708072603E-004;3.403079230338335E-003;
2.402833333333334E+009;1.740685403347015E-001;3.590618818998337E-002;5.766194080933929E-004;3.370803315192461E-003;
2.403000000000000E+009;1.737847775220871E-001;3.462828695774078E-002;8.002296672202647E-004;3.587657120078802E-003;
2.403166666666667E+009;1.735540479421616E-001;3.314001858234406E-002;7.016233867034316E-004;3.718706313520670E-003;
2.403333333333334E+009;1.731119304895401E-001;3.178711235523224E-002;8.314988226629794E-004;3.811596892774105E-003;
2.403500000000000E+009;1.726397871971130E-001;3.032172657549381E-002;8.345301030203700E-004;3.990429453551769E-003;
2.403666666666667E+009;1.722638309001923E-001;2.857470512390137E-002;7.661824929527938E-004;4.007470794022083E-003;
2.403833333333334E+009;1.719079911708832E-001;2.691030502319336E-002;8.684612112119794E-004;4.296105355024338E-003;
2.404000000000000E+009;1.715579479932785E-001;2.493661269545555E-002;1.278907409869134E-003;4.381419159471989E-003;
2.404166666666667E+009;1.711267530918121E-001;2.310196124017239E-002;1.337013556621969E-003;4.410905297845602E-003;
2.404333333333334E+009;1.707672774791718E-001;2.126748673617840E-002;1.512139104306698E-003;4.465074278414249E-003;
2.404500000000000E+009;1.705028861761093E-001;1.928430609405041E-002;1.747135771438479E-003;4.628089722245932E-003;
2.404666666666667E+009;1.702820807695389E-001;1.739907637238503E-002;1.841554185375571E-003;4.734215326607227E-003;
2.404833333333334E+009;1.700478047132492E-001;1.540163625031710E-002;1.998854335397482E-003;4.824276547878981E-003;
2.405000000000000E+009;1.700963675975800E-001;1.327734068036079E-002;2.504328964278102E-003;5.093875806778669E-003;
2.405166666666667E+009;1.698266565799713E-001;1.124392449855804E-002;2.729542553424835E-003;4.957615863531828E-003;
2.405333333333334E+009;1.699852198362351E-001;9.111384861171246E-003;2.968416316434741E-003;4.996273200958967E-003;
2.405500000000000E+009;1.699734926223755E-001;6.956533063203096E-003;3.271370893344283E-003;4.939666017889977E-003;
2.405666666666667E+009;1.702186018228531E-001;5.069538950920105E-003;3.540137317031622E-003;5.019586533308029E-003;
2.405833333333334E+009;1.701381057500839E-001;3.044972661882639E-003;3.874202957376838E-003;4.694402683526278E-003;
2.406000000000000E+009;1.706111282110214E-001;7.024831138551235E-004;4.019787069410086E-003;4.804946482181549E-003;
2.406166666666667E+009;1.707347035408020E-001;-1.172130927443504E-003;4.483844619244337E-003;4.531234037131071E-003;
2.406333333333334E+009;1.712533533573151E-001;-3.130712080746889E-003;4.792842548340559E-003;4.468888975679874E-003;
2.406500000000000E+009;1.717660725116730E-001;-5.281909368932247E-003;5.031482316553593E-003;4.177941475063562E-003;
2.406666666666667E+009;1.721064746379852E-001;-7.085749879479408E-003;5.310294218361378E-003;4.093424417078495E-003;
2.406833333333334E+009;1.728190332651138E-001;-9.142839349806309E-003;5.507929250597954E-003;3.910574596375227E-003;
2.407000000000000E+009;1.736136972904205E-001;-1.102986466139555E-002;5.719343200325966E-003;3.577662864699960E-003;
2.407166666666667E+009;1.742795854806900E-001;-1.270448230206966E-002;6.046260241419077E-003;3.441237146034837E-003;
2.407333333333334E+009;1.748619228601456E-001;-1.464286725968123E-002;6.336330436170101E-003;3.106715623289347E-003;
2.407500000000000E+009;1.757284700870514E-001;-1.633970811963081E-002;6.462752353399992E-003;2.658253302797675E-003;
2.407666666666667E+009;1.764454543590546E-001;-1.783626712858677E-002;6.676471792161465E-003;2.348184818401933E-003;
2.407833333333334E+009;1.771217435598373E-001;-1.953982561826706E-002;6.797653157263994E-003;2.018539700657129E-003;
2.408000000000000E+009;1.778006851673126E-001;-2.123594656586647E-002;6.835374049842358E-003;1.701572793535888E-003;
2.408166666666667E+009;1.786892861127853E-001;-2.253903821110725E-002;6.940217223018408E-003;1.246957457624376E-003;
2.408333333333334E+009;1.794555932283402E-001;-2.384186163544655E-002;7.109293248504400E-003;1.026183599606156E-003;
2.408500000000000E+009;1.801619231700897E-001;-2.521219663321972E-002;7.001372054219246E-003;5.667338264174759E-004;
2.408666666666667E+009;1.808112263679504E-001;-2.645938843488693E-002;7.156515028327704E-003;9.997714369092137E-005;
2.408833333333334E+009;1.812904626131058E-001;-2.776483260095120E-002;6.855652667582035E-003;-2.054529177257791E-004;
2.409000000000000E+009;1.817490607500076E-001;-2.866102755069733E-002;6.834052037447691E-003;-5.679366295225918E-004;
2.409166666666667E+009;1.823697984218597E-001;-2.949229069054127E-002;6.788739003241062E-003;-7.571475580334663E-004;
2.409333333333334E+009;1.827071458101273E-001;-3.045970015227795E-002;6.627205293625593E-003;-1.087340875528753E-003;
2.409500000000000E+009;1.830116212368012E-001;-3.120189905166626E-002;6.281014066189528E-003;-1.319852308370173E-003;
2.409666666666667E+009;1.832099705934525E-001;-3.181780874729157E-002;6.216545123606920E-003;-1.472636708058417E-003;
2.409833333333334E+009;1.834139674901962E-001;-3.206886351108551E-002;6.120696198195219E-003;-1.725168316625059E-003;
2.410000000000000E+009;1.837661564350128E-001;-3.262213245034218E-002;5.797197110950947E-003;-1.980976667255163E-003;
2.410166666666667E+009;1.838650852441788E-001;-3.304714709520340E-002;5.726472474634647E-003;-1.884706434793770E-003;
2.410333333333334E+009;1.838978230953217E-001;-3.333959728479385E-002;5.565370433032513E-003;-2.231592312455177E-003;
2.410500000000000E+009;1.839184463024139E-001;-3.365969657897949E-002;5.463027860969305E-003;-2.405593637377024E-003;
2.410666666666667E+009;1.837717741727829E-001;-3.404236957430840E-002;5.326301790773869E-003;-2.472827211022377E-003;
2.410833333333334E+009;1.836413592100143E-001;-3.408256918191910E-002;5.164934787899256E-003;-2.531466539949179E-003;
2.411000000000000E+009;1.834846735000610E-001;-3.451874107122421E-002;5.204008892178536E-003;-2.579201711341739E-003;
2.411166666666667E+009;1.830319464206696E-001;-3.480542823672295E-002;4.941806662827730E-003;-2.860722364857793E-003;
2.411333333333334E+009;1.827764213085175E-001;-3.508070856332779E-002;4.759619943797588E-003;-2.898253733292222E-003;
2.411500000000000E+009;1.820120513439179E-001;-3.565917164087296E-002;4.679818637669087E-003;-2.939801197499037E-003;
2.411666666666667E+009;1.816037893295288E-001;-3.580378368496895E-002;4.499257542192936E-003;-2.911949763074517E-003;
2.411833333333334E+009;1.808641850948334E-001;-3.638333827257156E-002;4.299968015402556E-003;-3.125693649053574E-003;
2.412000000000000E+009;1.801222413778305E-001;-3.680961951613426E-002;4.294650163501501E-003;-3.065732540562749E-003;
2.412166666666667E+009;1.790306568145752E-001;-3.718821704387665E-002;4.096439573913813E-003;-3.074789652600884E-003;
2.412333333333334E+009;1.781495809555054E-001;-3.774171695113182E-002;4.066641442477703E-003;-3.120488254353404E-003;
2.412500000000000E+009;1.770804971456528E-001;-3.828021511435509E-002;3.965800628066063E-003;-3.077024593949318E-003;
2.412666666666667E+009;1.761168986558914E-001;-3.905922546982765E-002;3.920617047697306E-003;-3.314921166747809E-003;
2.412833333333334E+009;1.748721748590469E-001;-3.973414748907089E-002;4.000155255198479E-003;-3.370082704350352E-003;
2.413000000000000E+009;1.735351085662842E-001;-4.049293696880341E-002;4.002685192972422E-003;-3.238128032535315E-003;
2.413166666666667E+009;1.721695959568024E-001;-4.156529158353806E-002;3.920540679246187E-003;-3.167830873280764E-003;
2.413333333333334E+009;1.708256602287293E-001;-4.240654036402702E-002;3.959256689995527E-003;-3.367477795109153E-003;
2.413500000000000E+009;1.694909483194351E-001;-4.336117208003998E-002;3.895077155902982E-003;-3.574390197172761E-003;
2.413666666666667E+009;1.682375371456146E-001;-4.453102126717567E-002;4.021573811769486E-003;-3.687806893140078E-003;
2.413833333333334E+009;1.669534146785736E-001;-4.575016722083092E-002;4.032324068248272E-003;-3.661668626591563E-003;
2.414000000000000E+009;1.655604690313339E-001;-4.684897884726524E-002;3.899529343470931E-003;-3.990198951214552E-003;
2.414166666666667E+009;1.642867177724838E-001;-4.830965027213097E-002;3.911944571882486E-003;-4.172086715698242E-003;
2.414333333333334E+009;1.630395203828812E-001;-4.971099272370338E-002;3.936298657208681E-003;-4.217745736241341E-003;
2.414500000000000E+009;1.619351208209992E-001;-5.101991444826126E-002;3.587457118555903E-003;-4.325601737946272E-003;
2.414666666666667E+009;1.608434170484543E-001;-5.267539620399475E-002;3.636690322309732E-003;-4.559638909995556E-003;
2.414833333333334E+009;1.597028672695160E-001;-5.421295389533043E-002;3.696886822581291E-003;-4.783301614224911E-003;
2.415000000000000E+009;1.586589664220810E-001;-5.584148317575455E-002;3.418121254071593E-003;-4.968486726284027E-003;
2.415166666666667E+009;1.577824205160141E-001;-5.778016149997711E-002;3.368349047377706E-003;-5.079322960227728E-003;
2.415333333333334E+009;1.569394171237946E-001;-5.953288078308106E-002;3.170309821143746E-003;-5.373509135097265E-003;
2.415500000000000E+009;1.559809744358063E-001;-6.131642311811447E-002;3.173141740262508E-003;-5.485622212290764E-003;
2.415666666666667E+009;1.554618477821350E-001;-6.322275847196579E-002;2.751599997282028E-003;-5.466189701110125E-003;
2.415833333333334E+009;1.547804772853851E-001;-6.505393981933594E-002;2.596953418105841E-003;-5.838958546519280E-003;
2.416000000000000E+009;1.540633887052536E-001;-6.711345165967941E-002;2.402928424999118E-003;-5.878588184714317E-003;
2.416166666666667E+009;1.537680327892304E-001;-6.902649998664856E-002;2.190441591665149E-003;-6.071482319384813E-003;
2.416333333333334E+009;1.531862765550613E-001;-7.103199511766434E-002;1.941801980137825E-003;-6.182752083986998E-003;
2.416500000000000E+009;1.528921574354172E-001;-7.306523621082306E-002;1.777742290869355E-003;-6.206899415701628E-003;
2.416666666666667E+009;1.526100784540176E-001;-7.485808432102203E-002;1.638187561184168E-003;-6.305814720690250E-003;
2.416833333333334E+009;1.525200605392456E-001;-7.688287645578384E-002;1.171651645563543E-003;-6.411542184650898E-003;
2.417000000000000E+009;1.519955098628998E-001;-7.881272584199905E-002;1.070040045306087E-003;-6.502939388155937E-003;
2.417166666666667E+009;1.520454734563828E-001;-8.058680593967438E-002;9.284144616685808E-004;-6.369415204972029E-003;
2.417333333333334E+009;1.519647836685181E-001;-8.236466348171234E-002;7.920750067569315E-004;-6.524849217385054E-003;
2.417500000000000E+009;1.518530100584030E-001;-8.412418514490128E-002;6.042435416020453E-004;-6.401647813618183E-003;
2.417666666666667E+009;1.520357578992844E-001;-8.560828119516373E-002;2.784624521154910E-004;-6.494727451354265E-003;
2.417833333333334E+009;1.521100550889969E-001;-8.720930665731430E-002;-7.203744462458417E-005;-6.523507647216320E-003;
2.418000000000000E+009;1.522359251976013E-001;-8.867739886045456E-002;-1.507085835328326E-004;-6.731422152370215E-003;
2.418166666666667E+009;1.522974371910095E-001;-9.002619981765747E-002;-2.881302498281002E-004;-6.693942937999964E-003;
2.418333333333334E+009;1.527746319770813E-001;-9.133285284042358E-002;-6.067737704142928E-004;-6.778676062822342E-003;
2.418500000000000E+009;1.528536230325699E-001;-9.249944984912872E-002;-9.665557299740613E-004;-6.762706674635410E-003;
2.418666666666667E+009;1.531253457069397E-001;-9.338018298149109E-002;-1.157593447715044E-003;-6.831983104348183E-003;
2.418833333333334E+009;1.532699465751648E-001;-9.433299303054810E-002;-1.373342936858535E-003;-6.870700046420097E-003;
2.419000000000000E+009;1.532666087150574E-001;-9.516035020351410E-002;-1.712357508949935E-003;-6.766148377209902E-003;
2.419166666666667E+009;1.536493748426437E-001;-9.581185877323151E-002;-1.894893473945558E-003;-6.672283634543419E-003;
2.419333333333334E+009;1.536712646484375E-001;-9.614878892898560E-002;-2.186559839174151E-003;-6.612582132220268E-003;
2.419500000000000E+009;1.540853083133698E-001;-9.688034653663635E-002;-2.517539542168379E-003;-6.529033649712801E-003;
2.419666666666667E+009;1.543912440538406E-001;-9.704273939132690E-002;-2.776834648102522E-003;-6.450250279158354E-003;
2.419833333333334E+009;1.543530672788620E-001;-9.718013554811478E-002;-3.099974244832993E-003;-6.386307533830404E-003;
2.420000000000000E+009;1.545379757881165E-001;-9.746655076742172E-002;-3.453900106251240E-003;-6.280214991420507E-003;
2.420166666666667E+009;1.543399691581726E-001;-9.747350215911865E-002;-3.704337868839502E-003;-6.056287325918675E-003;
2.420333333333334E+009;1.546379625797272E-001;-9.732542932033539E-002;-3.903595730662346E-003;-5.952628795057535E-003;
2.420500000000000E+009;1.546575725078583E-001;-9.707722812891007E-002;-4.045471549034119E-003;-5.801199004054070E-003;
2.420666666666667E+009;1.543668806552887E-001;-9.683061391115189E-002;-4.411072004586458E-003;-5.504258908331394E-003;
2.420833333333334E+009;1.543645858764648E-001;-9.660793840885162E-002;-4.406043794006109E-003;-5.234339740127325E-003;
2.421000000000000E+009;1.540956646203995E-001;-9.631875902414322E-002;-4.780273884534836E-003;-5.123147275298834E-003;
2.421166666666667E+009;1.538829654455185E-001;-9.604932367801666E-002;-4.914632067084312E-003;-5.005845334380865E-003;
2.421333333333334E+009;1.535683274269104E-001;-9.577706456184387E-002;-5.100990645587444E-003;-4.835322033613920E-003;
2.421500000000000E+009;1.531843245029450E-001;-9.527233988046646E-002;-5.405243020504713E-003;-4.475731868296862E-003;
2.421666666666667E+009;1.525743007659912E-001;-9.503757953643799E-002;-5.496161524206400E-003;-4.221329465508461E-003;
2.421833333333334E+009;1.520959734916687E-001;-9.478959441184998E-002;-5.753254517912865E-003;-4.047458060085774E-003;
2.422000000000000E+009;1.510646641254425E-001;-9.432417899370194E-002;-5.710755474865437E-003;-3.619907889515162E-003;
2.422166666666667E+009;1.504828631877899E-001;-9.425614029169083E-002;-6.016879342496395E-003;-3.394587663933635E-003;
2.422333333333334E+009;1.496761292219162E-001;-9.410294145345688E-002;-6.109502166509628E-003;-3.071003360673785E-003;
2.422500000000000E+009;1.486080884933472E-001;-9.357616305351257E-002;-6.090057082474232E-003;-2.761301351711154E-003;
2.422666666666667E+009;1.473647207021713E-001;-9.364461153745651E-002;-6.125788204371929E-003;-2.561046741902828E-003;
2.422833333333334E+009;1.463125497102737E-001;-9.355899691581726E-002;-6.163448095321655E-003;-2.348859561607242E-003;
2.423000000000000E+009;1.450615376234055E-001;-9.344051033258438E-002;-6.121549755334854E-003;-2.073462354019284E-003;
2.423166666666667E+009;1.436286717653275E-001;-9.319165349006653E-002;-6.151479203253985E-003;-1.592758810147643E-003;
2.423333333333334E+009;1.422609835863113E-001;-9.321895241737366E-002;-6.105009466409683E-003;-1.498134806752205E-003;
2.423500000000000E+009;1.407617032527924E-001;-9.352586418390274E-002;-6.119185592979193E-003;-1.123010064475238E-003;
2.423666666666667E+009;1.392180770635605E-001;-9.385754913091660E-002;-6.102676969021559E-003;-8.572260267101228E-004;
2.423833333333334E+009;1.378479897975922E-001;-9.401552379131317E-002;-5.776916630566120E-003;-6.726568681187928E-004;
2.424000000000000E+009;1.361563652753830E-001;-9.421685338020325E-002;-5.753615871071816E-003;-5.294471629895270E-004;
2.424166666666667E+009;1.345877200365067E-001;-9.469205141067505E-002;-5.778321996331215E-003;-1.636581873754039E-004;
2.424333333333334E+009;1.332776993513107E-001;-9.506154805421829E-002;-5.689438432455063E-003;2.430842641842901E-006;
2.424500000000000E+009;1.317473351955414E-001;-9.573415666818619E-002;-5.510378628969193E-003;4.302624438423663E-005;
2.424666666666667E+009;1.304152011871338E-001;-9.630228579044342E-002;-5.323498975485563E-003;1.355140557279810E-004;
2.424833333333334E+009;1.288692653179169E-001;-9.711302071809769E-002;-5.220819730311632E-003;3.478655999060720E-004;
2.425000000000000E+009;1.274714171886444E-001;-9.806432574987412E-002;-5.217064637690783E-003;5.299024051055312E-004;
2.425166666666667E+009;1.259230077266693E-001;-9.886329621076584E-002;-4.881193395704031E-003;5.679421010427177E-004;
2.425333333333334E+009;1.249393746256828E-001;-9.998580068349838E-002;-4.943681415170431E-003;6.769894389435649E-004;
2.425500000000000E+009;1.236909106373787E-001;-1.012455821037293E-001;-4.741001874208450E-003;8.599738939665258E-004;
2.425666666666667E+009;1.224018484354019E-001;-1.024196594953537E-001;-4.621558357030153E-003;7.830067188479006E-004;
2.425833333333334E+009;1.214523613452911E-001;-1.036365404725075E-001;-4.354355856776238E-003;8.755846065469086E-004;
2.426000000000000E+009;1.203537732362747E-001;-1.052567511796951E-001;-4.579543136060238E-003;8.993888041004539E-004;
2.426166666666667E+009;1.195745244622231E-001;-1.065831705927849E-001;-4.652019124478102E-003;9.904259350150824E-004;
2.426333333333334E+009;1.187876984477043E-001;-1.080479174852371E-001;-4.289552569389343E-003;1.178900478407741E-003;
2.426500000000000E+009;1.180623173713684E-001;-1.096539720892906E-001;-4.227289929986000E-003;1.228830660693348E-003;
2.426666666666667E+009;1.174304783344269E-001;-1.111241430044174E-001;-4.382319748401642E-003;1.154963742010295E-003;
2.426833333333334E+009;1.168396547436714E-001;-1.128733307123184E-001;-4.216019529849291E-003;1.059968606568873E-003;
2.427000000000000E+009;1.162639409303665E-001;-1.145530119538307E-001;-3.980702720582485E-003;1.247261767275631E-003;
2.427166666666667E+009;1.158505901694298E-001;-1.160232052206993E-001;-3.932589665055275E-003;1.304076518863440E-003;
2.427333333333334E+009;1.153960824012756E-001;-1.175503581762314E-001;-3.766167908906937E-003;1.478339429013431E-003;
2.427500000000000E+009;1.153442040085793E-001;-1.191881299018860E-001;-3.696917556226254E-003;1.457584206946194E-003;
2.427666666666667E+009;1.150614917278290E-001;-1.207722350955010E-001;-3.906956408172846E-003;1.492270734161139E-003;
