# Hz S RI R 
2400000000.0000000000 0.162756860256195096114950615629 0.052298828959465026855468750000 0.002570776036009192900416708838 0.001899618073366581959965371240 0 0 0 0 
2400166666.6666665077 0.162800610065460205078125000000 0.050810240209102630615234375000 0.002387245884165167808532714844 0.001887812046334148103829408960 0 0 0 0 
2400333333.3333334923 0.162435010075569208343182481258 0.048817582428455352783203125000 0.002437091898173093795776367188 0.001758314552716911055921245044 0 0 0 0 
2400500000.0000000000 0.162398964166641207595986884371 0.047145940363407141948659528907 0.002802126808091998100280761719 0.001769685535691678957698202979 0 0 0 0 
2400666666.6666665077 0.162308871746063204666299384371 0.045245330780744552612304687500 0.002537521999329328970668173682 0.001776664517819881005528115381 0 0 0 0 
2400833333.3333334923 0.162616357207298306564169365629 0.043420683592557907104492187500 0.002686694730073214010951376807 0.001655607018619775988935161060 0 0 0 0 
2401000000.0000000000 0.162529811263084411621093750000 0.041389077901840209960937500000 0.002882315311580895943882607568 0.001636618748307228088378906250 0 0 0 0 
2401166666.6666665077 0.162488445639610290527343750000 0.039351116865873336791992187500 0.002750540850684047178981161963 0.001588436542078853087184286963 0 0 0 0 
2401333333.3333334923 0.162560313940048190017861884371 0.037341963499784469604492187500 0.002864900045096873803379677881 0.001709840027615427970886230469 0 0 0 0 
2401500000.0000000000 0.162829637527465792556924384371 0.035298064351081848144531250000 0.002826676005497574806213378906 0.001458626589737832979914999854 0 0 0 0 
2401666666.6666665077 0.162933841347694396972656250000 0.033347949385643012309987653907 0.003043063217774033980128622900 0.001573631074279546954511332935 0 0 0 0 
2401833333.3333334923 0.163447901606559808929119981258 0.031343672424554831767995466407 0.003070391481742262840270996094 0.001478740130551158948185586084 0 0 0 0 
2402000000.0000000000 0.163384303450584411621093750000 0.029384126886725429189661795704 0.003409130498766899108886718750 0.001258287695236504077911376953 0 0 0 0 
2402166666.6666665077 0.163896590471267700195312500000 0.027370814234018329275111014454 0.003216800047084689140319824219 0.001375293708406388976453471606 0 0 0 0 
2402333333.3333334923 0.164203256368637112716513115629 0.025469543412327769887903983204 0.003382355207577348189112997900 0.001151409116573631980298686450 0 0 0 0 
2402500000.0000000000 0.165044009685516412933026231258 0.023677648976445201528528983204 0.003494092728942633108851767432 0.001207071705721318938611674731 0 0 0 0 
2402666666.6666665077 0.165385261178016690353231865629 0.021938895806670188903808593750 0.003595420625060797171351767432 0.001026242272928356907488178784 0 0 0 0 
2402833333.3333334923 0.165892496705055209060830634371 0.020222047343850139272669608204 0.003605626756325364112854003906 0.000942369573749601840972900391 0 0 0 0 
2403000000.0000000000 0.166638106107711791992187500000 0.018571579828858379018763358204 0.003818762721493839783909463037 0.000824543065391480922698974609 0 0 0 0 
2403166666.6666665077 0.167277634143829401214276231258 0.016905162483453750610351562500 0.003789670066908001899719238281 0.000549119198694825172424316406 0 0 0 0 
2403333333.3333334923 0.168135508894920404632244981258 0.015474126674234870565394217579 0.003890334861353040175196982275 0.000566489470656961202621459961 0 0 0 0 
2403500000.0000000000 0.168711334466934204101562500000 0.014106454327702520543108555273 0.004086737520992755889892578125 0.000289697054540738517611903058 0 0 0 0 
2403666666.6666665077 0.169580936431884793380575615629 0.012625290080904960632324218750 0.004060677252709865570068359375 0.000246226467425003702014368878 0 0 0 0 
2403833333.3333334923 0.170191720128059387207031250000 0.011190732941031459463099295704 0.004182186909019947052001953125 0.000003718248535733437165617943 0 0 0 0 
2404000000.0000000000 0.171078994870185907561932481258 0.010142073035240169870396798046 0.004227291792631149291992187500 -0.000328922818880528211593627930 0 0 0 0 
2404166666.6666665077 0.172101855278015108963174384371 0.008758245967328548431396484375 0.004140319768339396390433027051 -0.000416697585023939609527587891 0 0 0 0 
2404333333.3333334923 0.172778487205505398849325615629 0.007863219827413558959960937500 0.004166176542639732360839843750 -0.000875571044161915779113769531 0 0 0 0 
2404500000.0000000000 0.173447847366333007812500000000 0.006704409141093493375296308301 0.004041162785142660140991210938 -0.000893326941877603530883789062 0 0 0 0 
2404666666.6666665077 0.174224853515625000000000000000 0.005987239535897970199584960938 0.004071323666721582412719726562 -0.001106689916923641941667866284 0 0 0 0 
2404833333.3333334923 0.175241008400917108733807481258 0.005052717402577400207519531250 0.004083999432623386383056640625 -0.001416772953234612941741943359 0 0 0 0 
2405000000.0000000000 0.175846219062805203536825615629 0.004296995233744382858276367188 0.004029769916087388992309570312 -0.001610951148904860019683837891 0 0 0 0 
2405166666.6666665077 0.176469638943672207931356865629 0.003633526619523764090297079932 0.003943567164242267608642578125 -0.001787936198525130965589213794 0 0 0 0 
2405333333.3333334923 0.177296802401542691329794365629 0.002763598924502729935887002100 0.003905888181179761886596679688 -0.001962056383490562005283974756 0 0 0 0 
2405500000.0000000000 0.177779778838157709319744981258 0.002507520141080021858215332031 0.003736730199307202859165810693 -0.002046681474894285202026367188 0 0 0 0 
2405666666.6666665077 0.178388804197311401367187500000 0.001919159665703773932216025244 0.003688750555738807158229208838 -0.002255283994600176811218261719 0 0 0 0 
2405833333.3333334923 0.178750365972518893142861884371 0.001510841073468327955958701025 0.003517740406095982031581259619 -0.002486336044967174963710165869 0 0 0 0 
2406000000.0000000000 0.179427161812782287597656250000 0.001111662015318870978114462744 0.003429902251809835000279091943 -0.002497776178643106980564736475 0 0 0 0 
2406166666.6666665077 0.179682433605194091796875000000 0.000850313575938344001770019531 0.003230037400498985810520791162 -0.002575043821707367897033691406 0 0 0 0 
2406333333.3333334923 0.180115431547164889236611884371 0.000440243340563029105037134991 0.003076789202168583869934082031 -0.002622155239805579185485839844 0 0 0 0 
2406500000.0000000000 0.180359482765197809417401231258 0.000126756189274601611212053842 0.002789754653349519209620810400 -0.002931631170213222937342978369 0 0 0 0 
2406666666.6666665077 0.180385768413543701171875000000 -0.000099648001196328550577163696 0.002804119372740387916564941406 -0.002964224666357039971592568506 0 0 0 0 
2406833333.3333334923 0.180610135197639493087606865629 -0.000478627887787297422259730206 0.002539277775213121934178017725 -0.003105437383055686950683593750 0 0 0 0 
2407000000.0000000000 0.180712625384330805022869981258 -0.000781000475399196147918701172 0.002324205357581377029418945312 -0.003323851153254508972167968750 0 0 0 0 
2407166666.6666665077 0.180774524807929992675781250000 -0.000916701974347233772277832031 0.002330756979063152833225869287 -0.003290695138275622887852334131 0 0 0 0 
2407333333.3333334923 0.180620282888412503341513115629 -0.001525667845271527984021830981 0.002076078671962023215052939307 -0.003294996218755840821507119287 0 0 0 0 
2407500000.0000000000 0.180394127964973505218182481258 -0.001793851028196514086482382666 0.001935049425810575918910361182 -0.003398321801796555952784872900 0 0 0 0 
2407666666.6666665077 0.180279284715652493575888115629 -0.002095730975270270867588662256 0.001865093479864299080492329175 -0.003503379644826055006739951025 0 0 0 0 
2407833333.3333334923 0.179598331451415987869424384371 -0.002857019426301122145411826025 0.001658745924942194981815957178 -0.003637954825535417036769247900 0 0 0 0 
2408000000.0000000000 0.179381430149078396896200615629 -0.003304310375824571089503622900 0.001567474915646017031428671729 -0.003592526772990822792053222656 0 0 0 0 
2408166666.6666665077 0.178786262869834899902343750000 -0.003647397970780729813816689600 0.001293471315875650102730776148 -0.003481815801933407783508300781 0 0 0 0 
2408333333.3333334923 0.178541302680969210525674384371 -0.004440227989107370376586914062 0.001168606569990515925763774341 -0.003540693316608666939976357568 0 0 0 0 
2408500000.0000000000 0.177921116352081298828125000000 -0.005167908035218715667724609375 0.000922734034247696399688720703 -0.003814607160165905952453613281 0 0 0 0 
2408666666.6666665077 0.177205115556716891189736884371 -0.005904813297092914581298828125 0.000850308453664183616638183594 -0.003870842512696980996372841943 0 0 0 0 
2408833333.3333334923 0.176465600728988702972088731258 -0.006796427071094512939453125000 0.000730033731088042259216308594 -0.003603929188102484183070517432 0 0 0 0 
2409000000.0000000000 0.175742879509925786774005018742 -0.007594554685056210431570722363 0.000614126620348542928695678711 -0.003663284238427876992466591943 0 0 0 0 
2409166666.6666665077 0.175069734454154996017294365629 -0.008750535547733306884765625000 0.000270290009211748784214573993 -0.003661933587864040894749306787 0 0 0 0 
2409333333.3333334923 0.174580052495002802093182481258 -0.009834394790232181549072265625 0.000210336307645775404855451041 -0.003667732467874885039088583838 0 0 0 0 
2409500000.0000000000 0.173637211322784396072549384371 -0.011026185005903240549107735546 0.000015941668607410981576850278 -0.003537871176376938819885253906 0 0 0 0 
2409666666.6666665077 0.172865360975265502929687500000 -0.012296218425035480154017264454 -0.000263337802607566118240356445 -0.003690087236464024023768759619 0 0 0 0 
2409833333.3333334923 0.172101065516471890548544365629 -0.013466338627040389669398123829 -0.000286793423583731109469813214 -0.003415399231016635894775390625 0 0 0 0 
2410000000.0000000000 0.171457439661026000976562500000 -0.015039586462080480402936366602 -0.000473365595098584890365600586 -0.003475461388006805939915322412 0 0 0 0 
2410166666.6666665077 0.170829758048057611663494981258 -0.016650367528200149536132812500 -0.000322639825753867626190185547 -0.003389606950804591178894042969 0 0 0 0 
2410333333.3333334923 0.170121327042579706390057481258 -0.018029915168881419790247733204 -0.000704511476214975118637084961 -0.003230099100619554953334189307 0 0 0 0 
2410500000.0000000000 0.169478178024291992187500000000 -0.019619233906269070016881173046 -0.000913478492293506860733032227 -0.003243859857320785956141806494 0 0 0 0 
2410666666.6666665077 0.168698444962501498123330634371 -0.021526934579014781606653983204 -0.000752765859942883253097534180 -0.003100706730037928061244345557 0 0 0 0 
2410833333.3333334923 0.168399393558502197265625000000 -0.023231850937008861196497733204 -0.001001112861558794975280761719 -0.003004013327881693840026855469 0 0 0 0 
2411000000.0000000000 0.167806506156921386718750000000 -0.024939712136983871459960937500 -0.001022770768031477928161621094 -0.002982872072607278823852539062 0 0 0 0 
2411166666.6666665077 0.167197123169898986816406250000 -0.026850352063775059091588204296 -0.001215075841173530058619833838 -0.002877489197999238967895507812 0 0 0 0 
2411333333.3333334923 0.167009443044662503341513115629 -0.028726303949952129018763358204 -0.001292794826440512917162251050 -0.002773287240415811972377158057 0 0 0 0 
2411500000.0000000000 0.166567638516426086425781250000 -0.030958820134401321411132812500 -0.001306961523368955092189169775 -0.002614897442981601195094443213 0 0 0 0 
2411666666.6666665077 0.166465118527412386795205634371 -0.032558836042881011962890625000 -0.001443787245079874992370605469 -0.002775113331153988838195800781 0 0 0 0 
2411833333.3333334923 0.166100531816482488434161268742 -0.034410770982503890991210937500 -0.001436575665138662078260112231 -0.002515582600608468055725097656 0 0 0 0 
2412000000.0000000000 0.166179314255714388748330634371 -0.036438062787055969238281250000 -0.001497812569141387939453125000 -0.002523681148886681036708212744 0 0 0 0 
2412166666.6666665077 0.165850996971130398849325615629 -0.038521453738212592388112653907 -0.001631551305763423009159707178 -0.002371178008615971045253134619 0 0 0 0 
2412333333.3333334923 0.166147336363792391678018134371 -0.040487591177225112915039062500 -0.001703274319879711107966757666 -0.002229532226920127868652343750 0 0 0 0 
2412500000.0000000000 0.165786266326904296875000000000 -0.042176574468612670898437500000 -0.001716283150017261938807822119 -0.002125659957528113885166787256 0 0 0 0 
2412666666.6666665077 0.166095331311225891113281250000 -0.044319447129964828491210937500 -0.001945032970979809977887797778 -0.002022176980972290039062500000 0 0 0 0 
2412833333.3333334923 0.166482001543044988434161268742 -0.046276543289422988891601562500 -0.001874269684776663997052836841 -0.002146550221368670897242880713 0 0 0 0 
2413000000.0000000000 0.166747689247131403167401231258 -0.047949519008398062969167341407 -0.001856373623013495965244912256 -0.001997498096898198127746582031 0 0 0 0 
2413166666.6666665077 0.166956007480621310135049384371 -0.049751557409763343120534528907 -0.002038697712123394012451171875 -0.001905761542730032963993691553 0 0 0 0 
2413333333.3333334923 0.167035728693008395095986884371 -0.051515534520149230957031250000 -0.001941588940098881938337016528 -0.001779124955646693923352885669 0 0 0 0 
2413500000.0000000000 0.167672783136367797851562500000 -0.053313978016376502300222028907 -0.002076805103570222854614257812 -0.001725047826766967990277934497 0 0 0 0 
2413666666.6666665077 0.167924419045448303222656250000 -0.054926708340644843364675153907 -0.002229969948530197143554687500 -0.001581718563102185943006205981 0 0 0 0 
2413833333.3333334923 0.168319672346115112304687500000 -0.056410688906908042217214216407 -0.002104254672303795814514160156 -0.001411749282851815006853413159 0 0 0 0 
2414000000.0000000000 0.168631240725517300704794365629 -0.057712562382221221923828125000 -0.002156470902264118194580078125 -0.001319524249993264891980815356 0 0 0 0 
2414166666.6666665077 0.169243380427360506912393134371 -0.059094429016113281250000000000 -0.002121490659192204909083701025 -0.001326988916844129996058798682 0 0 0 0 
2414333333.3333334923 0.169746413826942388336505018742 -0.060406923294067382812500000000 -0.002225388539955019950866699219 -0.001202348154038191058515239185 0 0 0 0 
2414500000.0000000000 0.170458361506462097167968750000 -0.061641149222850799560546875000 -0.002387462183833121819737099756 -0.001197015750221908092498779297 0 0 0 0 
2414666666.6666665077 0.170810908079147311111611884371 -0.062721244990825653076171875000 -0.002203394193202257156372070312 -0.000846030365210026502609252930 0 0 0 0 
2414833333.3333334923 0.171202063560485812088174384371 -0.063805796205997467041015625000 -0.002226691693067551092860556494 -0.000754594977479428052902221680 0 0 0 0 
2415000000.0000000000 0.171718865633010892013388115629 -0.064723581075668334960937500000 -0.002222274197265505790710449219 -0.000720809854101389646530151367 0 0 0 0 
2415166666.6666665077 0.171992763876915005782919365629 -0.065475590527057647705078125000 -0.002280782209709287123439169775 -0.000768211786635220050811767578 0 0 0 0 
2415333333.3333334923 0.172493398189544705489950615629 -0.066400602459907531738281250000 -0.002291651442646979851963662256 -0.000629006943199783563613891602 0 0 0 0 
2415500000.0000000000 0.172771051526069613357705634371 -0.066951535642147064208984375000 -0.002379051409661769866943359375 -0.000578444683924317359924316406 0 0 0 0 
2415666666.6666665077 0.173103168606758089920205634371 -0.067526578903198242187500000000 -0.002282632514834403991699218750 -0.000377949763787910288006383075 0 0 0 0 
2415833333.3333334923 0.173390135169029208084268134371 -0.067998483777046203613281250000 -0.002126972423866391181945800781 -0.000330414623022079521983546124 0 0 0 0 
2416000000.0000000000 0.173374027013778686523437500000 -0.068488061428070068359375000000 -0.002148394240066409111022949219 -0.000290818628855049610137939453 0 0 0 0 
2416166666.6666665077 0.173591598868370111663494981258 -0.068885795772075653076171875000 -0.002096538431942462921142578125 -0.000211676902836188701078137808 0 0 0 0 
2416333333.3333334923 0.173618584871292086502236884371 -0.069052956998348236083984375000 -0.001984740374609827995300292969 -0.000049546521040610969066619873 0 0 0 0 
2416500000.0000000000 0.173536330461502102950888115629 -0.069458961486816406250000000000 -0.001964089693501592116114951025 0.000216349042602814706877031870 0 0 0 0 
2416666666.6666665077 0.173307836055755587478799384371 -0.069701477885246276855468750000 -0.002112077549099922180175781250 0.000070198620960582047700881958 0 0 0 0 
2416833333.3333334923 0.173277556896209689041299384371 -0.070029348134994506835937500000 -0.001928677433170377991319965894 0.000139068215503357405036372052 0 0 0 0 
2417000000.0000000000 0.172772273421287508865518134371 -0.070185124874114990234375000000 -0.001831708825193345980403281104 0.000196542619960382607862195425 0 0 0 0 
2417166666.6666665077 0.172448590397834805587606865629 -0.070247545838356018066406250000 -0.001860838267020880959154438550 0.000374033843399956822395324707 0 0 0 0 
2417333333.3333334923 0.171959653496742304046307481258 -0.070407219231128692626953125000 -0.001927674631588160991668701172 0.000499615096487104892730712891 0 0 0 0 
2417500000.0000000000 0.171431943774223299881143134371 -0.070742063224315643310546875000 -0.001776378485374153094050742041 0.000432429835200309807628077374 0 0 0 0 
2417666666.6666665077 0.170776277780532809158486884371 -0.070767559111118316650390625000 -0.001882384531199932098388671875 0.000585682224482297897338867188 0 0 0 0 
2417833333.3333334923 0.170109882950782803634481865629 -0.071007020771503448486328125000 -0.001674790401011704964878701318 0.000697925454005599021911621094 0 0 0 0 
2418000000.0000000000 0.169243112206459100921307481258 -0.071252122521400451660156250000 -0.001647048396989702961565327222 0.000851839431561529636383056641 0 0 0 0 
2418166666.6666665077 0.168219596147537203689736884371 -0.071309037506580352783203125000 -0.001483920379541813893559121240 0.000698484596796333789825439453 0 0 0 0 
2418333333.3333334923 0.167614504694938687423544365629 -0.071706220507621765136718750000 -0.001402877154760062911389995044 0.000843779416754841804504394531 0 0 0 0 
2418500000.0000000000 0.166504353284835787674111884371 -0.072092674672603607177734375000 -0.001229962450452148914337158203 0.000857592676766216754913330078 0 0 0 0 
2418666666.6666665077 0.165390461683273287674111884371 -0.072316527366638183593750000000 -0.001307987375184894041774130713 0.000948618457186967134475708008 0 0 0 0 
2418833333.3333334923 0.164065107703208895584268134371 -0.072820149362087249755859375000 -0.001056660898029804012895893628 0.000849764561280608177185058594 0 0 0 0 
2419000000.0000000000 0.162881895899772588531817518742 -0.073409184813499450683593750000 -0.001182753010652958913090371240 0.000913838041014969348907470703 0 0 0 0 
2419166666.6666665077 0.161873683333396911621093750000 -0.073918342590332031250000000000 -0.001089418423362076065660786206 0.000914008414838463068008422852 0 0 0 0 
2419333333.3333334923 0.160447612404823303222656250000 -0.074272900819778442382812500000 -0.000979636912234127521514892578 0.001003191922791301987291645581 0 0 0 0 
2419500000.0000000000 0.159171968698501586914062500000 -0.075108088552951812744140625000 -0.000849020667374134063720703125 0.001057914691045880100847553784 0 0 0 0 
2419666666.6666665077 0.158060759305954007247763115629 -0.075983650982379913330078125000 -0.000869622919708490371704101562 0.001067390083335340023040771484 0 0 0 0 
2419833333.3333334923 0.156715095043182400802450615629 -0.076654069125652313232421875000 -0.000766637851484119892120361328 0.000988437794148921966552734375 0 0 0 0 
