# Hz S RI R 50
2400000000.0000000000 0.168725177645683288574218750000 0.046998571604490280151367187500 -0.000418067851569503599971217023 0.004384383559226989746093750000 0 0 0 0 
2400166666.6666665077 0.169674530625343294998330634371 0.045861952006816857074777971093 -0.000194924796232953694745740347 0.004432573448866605758666992188 0 0 0 0 
2400333333.3333334923 0.170588538050651605804119981258 0.044902186840772628784179687500 -0.000228349046665243804454803467 0.004083918407559394836425781250 0 0 0 0 
2400500000.0000000000 0.171573832631111200530682481258 0.043735358864068991924245466407 -0.000003254141574871027842164040 0.003903324482962489128112792969 0 0 0 0 
2400666666.6666665077 0.172417864203453091720419365629 0.042888965457677841186523437500 -0.000140254400321282500594538556 0.003901413409039378166198730469 0 0 0 0 
2400833333.3333334923 0.173183768987655611892861884371 0.042109448462724692607839216407 -0.000066238681029062718152999878 0.003987142350524663925170898438 0 0 0 0 
2401000000.0000000000 0.173938632011413601974325615629 0.041366487741470336914062500000 -0.000046610803110525012016296387 0.003742391942068934006931923975 0 0 0 0 
2401166666.6666665077 0.174688488245010403732138115629 0.040561459958553307270090471093 -0.000136964386911131387383061542 0.003745885798707603974583291162 0 0 0 0 
2401333333.3333334923 0.175328835844993591308593750000 0.039789192378520972515065778907 -0.000098139054898638278245925903 0.003600161056965589956996298682 0 0 0 0 
2401500000.0000000000 0.176160603761673001388388115629 0.039223290979862213134765625000 -0.000144798992550931898042401724 0.003532281611114739938023232568 0 0 0 0 
2401666666.6666665077 0.176617667078971890548544365629 0.038725148886442177509348283593 -0.000100306395324878394603729248 0.003615722525864839987513876807 0 0 0 0 
2401833333.3333334923 0.177008882164955111404580634371 0.037933658808469772338867187500 -0.000232260717893950586945134296 0.003521598177030682997462607275 0 0 0 0 
2402000000.0000000000 0.177521258592605590820312500000 0.037513416260480880737304687500 -0.000388984015444293618202209473 0.003545360406860709190368652344 0 0 0 0 
2402166666.6666665077 0.178012236952781705001669365629 0.036614596843719482421875000000 -0.000515666964929550886154174805 0.003651363309472798867466591943 0 0 0 0 
2402333333.3333334923 0.178443253040313692947549384371 0.036186609417200088500976562500 -0.000358624296495690887600499286 0.003571562003344296975376748193 0 0 0 0 
2402500000.0000000000 0.178933739662170410156250000000 0.035596836358308792114257812500 -0.000491624872665852308273315430 0.003739888314157723946812295068 0 0 0 0 
2402666666.6666665077 0.178666949272155789474325615629 0.034813836216926581645925153907 -0.000503498071338981389999389648 0.003800428938120603995082236182 0 0 0 0 
2402833333.3333334923 0.179145961999893188476562500000 0.034277971833944320678710937500 -0.000528325792402029037475585938 0.003811896778643130822422646631 0 0 0 0 
2403000000.0000000000 0.178946271538734408279580634371 0.033466137945652008056640625000 -0.000608468311838805675506591797 0.004019265994429588317871093750 0 0 0 0 
2403166666.6666665077 0.179102271795272799392861884371 0.032697927206754677509348283593 -0.000712898501660674810409545898 0.004235700238496065139770507812 0 0 0 0 
2403333333.3333334923 0.178990498185157803634481865629 0.031883411109447479248046875000 -0.000716146081686019897460937500 0.004406440071761608123779296875 0 0 0 0 
2403500000.0000000000 0.178784757852554293533486884371 0.030721804127097129821777343750 -0.000608131696935743093490600586 0.004673756659030914306640625000 0 0 0 0 
2403666666.6666665077 0.178604438900947598556356865629 0.029639797285199168813685233204 -0.000637049728538841009140014648 0.004648564849048852920532226562 0 0 0 0 
2403833333.3333334923 0.178480356931686401367187500000 0.028586527332663539541224295704 -0.000528325908817350864410400391 0.005038368050009012222290039062 0 0 0 0 
2404000000.0000000000 0.178056493401527404785156250000 0.027464015409350398672083670704 -0.000304381392197683507769984113 0.005241285078227519989013671875 0 0 0 0 
2404166666.6666665077 0.177656278014182988922442518742 0.026167461648583408700963204296 -0.000153415065142326111167353497 0.005648543592542409896850585938 0 0 0 0 
2404333333.3333334923 0.177285000681877108474893134371 0.024964923039078708993931954296 0.000098681426607072353363037109 0.005876185372471809387207031250 0 0 0 0 
2404500000.0000000000 0.176806956529617309570312500000 0.023493664339184761047363281250 0.000335897988406941294670104980 0.006105390843003988265991210938 0 0 0 0 
2404666666.6666665077 0.176345914602279690841513115629 0.022011620923876758920689766796 0.000722699682228267192840576172 0.006488348357379437360281659863 0 0 0 0 
2404833333.3333334923 0.175771743059158297439736884371 0.020582713186740878713587576954 0.001183124259114265008213662256 0.006514930166304112348074628613 0 0 0 0 
2405000000.0000000000 0.175445631146430996993856865629 0.018933806568384170532226562500 0.001470154034905136065242148291 0.006731609348207712173461914062 0 0 0 0 
2405166666.6666665077 0.175042420625686701018963731258 0.017563540488481521606445312500 0.001818245509639381928684853662 0.006839951034635305404663085938 0 0 0 0 
2405333333.3333334923 0.174727901816368103027343750000 0.015701003372669219970703125000 0.002314656041562556786778115381 0.006805931217968463897705078125 0 0 0 0 
2405500000.0000000000 0.174432992935180691818075615629 0.014116884209215639287005039648 0.002838784363120793862583779443 0.006942330859601497650146484375 0 0 0 0 
2405666666.6666665077 0.174011021852493286132812500000 0.012438345700502400834053240430 0.003154712263494729995727539062 0.006785308942198753356933593750 0 0 0 0 
2405833333.3333334923 0.173512935638427706619424384371 0.010587800294160839426060860546 0.003459409577772020859959267725 0.006809203419834375381469726562 0 0 0 0 
2406000000.0000000000 0.173436164855957003494424384371 0.008525383658707141876220703125 0.004107284359633922576904296875 0.006596556864678859710693359375 0 0 0 0 
2406166666.6666665077 0.173065155744552612304687500000 0.006814128719270229339599609375 0.004503244999796152114868164062 0.006490335799753665924072265625 0 0 0 0 
2406333333.3333334923 0.173032075166702298263388115629 0.004875616636127234372610761426 0.004887951072305440902709960938 0.006106372922658920288085937500 0 0 0 0 
2406500000.0000000000 0.172822400927543612381143134371 0.002843029331415892081019736182 0.005336874164640904340262128613 0.006022892426699399948120117188 0 0 0 0 
2406666666.6666665077 0.172562628984451293945312500000 0.000809044868219643831253051758 0.005693253129720687866210937500 0.005705362185835838317871093750 0 0 0 0 
2406833333.3333334923 0.172707781195640591720419365629 -0.001294465153478085994720458984 0.006068998947739601135253906250 0.005406201351433992385864257812 0 0 0 0 
2407000000.0000000000 0.173024892807006808181924384371 -0.003367058699950575828552246094 0.006304554175585508346557617188 0.005071975290775299072265625000 0 0 0 0 
2407166666.6666665077 0.173108443617820711990518134371 -0.005363730248063802719116210938 0.006677911616861820220947265625 0.004752731416374444961547851562 0 0 0 0 
2407333333.3333334923 0.173267155885696411132812500000 -0.007638785988092423352713300488 0.006959815509617328643798828125 0.004488997161388397216796875000 0 0 0 0 
2407500000.0000000000 0.173438578844070406814736884371 -0.009429626166820526123046875000 0.007245896849781274795532226562 0.004082109313458204269409179688 0 0 0 0 
2407666666.6666665077 0.173778608441352788727130018742 -0.011562390252947810781458670704 0.007481460925191640853881835938 0.003590320935472846031188964844 0 0 0 0 
2407833333.3333334923 0.174014121294021606445312500000 -0.013659065589308740443219569727 0.007721867412328720092773437500 0.003134427824988960786106728662 0 0 0 0 
2408000000.0000000000 0.174462571740150507171307481258 -0.015842398628592491149902343750 0.007946697063744068145751953125 0.002765305340290070013758993994 0 0 0 0 
2408166666.6666665077 0.174796313047409113128338731258 -0.017515782266855239868164062500 0.007836798205971717834472656250 0.002380304969847201867344521631 0 0 0 0 
2408333333.3333334923 0.175414234399795504470986884371 -0.019529467448592189443568045704 0.007881392724812030792236328125 0.001732648350298404910443950122 0 0 0 0 
2408500000.0000000000 0.175812557339668301681356865629 -0.021422265097498890268346016796 0.007853979244828224182128906250 0.001274538924917578914045024341 0 0 0 0 
2408666666.6666665077 0.176214143633842496017294365629 -0.023253384977579120290736014454 0.007933237589895725250244140625 0.000828084710519760847091674805 0 0 0 0 
2408833333.3333334923 0.176544547080993707854901231258 -0.024933129549026489257812500000 0.007906144484877586364746093750 0.000421062955865636522143763409 0 0 0 0 
2409000000.0000000000 0.177008301019668606857138115629 -0.026636885479092601430872733204 0.007739260792732238769531250000 -0.000004940901817462872713804245 0 0 0 0 
2409166666.6666665077 0.177435010671615600585937500000 -0.028080377727746960031529610546 0.007685348391532897949218750000 -0.000359698286047205274731236591 0 0 0 0 
2409333333.3333334923 0.178030759096145602127236884371 -0.029507992789149280893346016796 0.007690554950386285781860351562 -0.000704189063981175422668457031 0 0 0 0 
2409500000.0000000000 0.178433626890182495117187500000 -0.030850460752844810485839843750 0.007501347921788693341726972363 -0.001075284439139067909838032300 0 0 0 0 
2409666666.6666665077 0.178856745362281799316406250000 -0.031935814768075942993164062500 0.007298045326024293899536132812 -0.001392444479279220104217529297 0 0 0 0 
2409833333.3333334923 0.179139733314514187911825615629 -0.032996825873851783061940778907 0.007116522639989852905273437500 -0.001641206326894461891771626050 0 0 0 0 
2410000000.0000000000 0.179753303527832003494424384371 -0.034085448831319808959960937500 0.006851534359157085418701171875 -0.001985738519579172134399414062 0 0 0 0 
2410166666.6666665077 0.180144667625427301604901231258 -0.034706514328718192363698591407 0.006696876138448715209960937500 -0.002163755707442760901210165869 0 0 0 0 
2410333333.3333334923 0.180601060390472412109375000000 -0.035605177283287048339843750000 0.006577970925718545913696289062 -0.002338323742151259942295693506 0 0 0 0 
2410500000.0000000000 0.181250303983688410003338731258 -0.036274604499340057373046875000 0.006284908857196568575387285449 -0.002745543606579304175135947119 0 0 0 0 
2410666666.6666665077 0.181327149271964999099893134371 -0.037180967628955841064453125000 0.006212482694536448392386152051 -0.003095888998359442190883017432 0 0 0 0 
2410833333.3333334923 0.181771725416183499435263115629 -0.037640906870365142822265625000 0.005772235337644814577584551074 -0.003096224507316946983337402344 0 0 0 0 
2411000000.0000000000 0.181938841938972500900106865629 -0.038232494145631790161132812500 0.005737906787544488906860351562 -0.003340038936585187911987304688 0 0 0 0 
2411166666.6666665077 0.182262599468231201171875000000 -0.038555908948183059692382812500 0.005517495330423116683959960938 -0.003555946983397006988525390625 0 0 0 0 
2411333333.3333334923 0.182447046041488702972088731258 -0.038903243839740753173828125000 0.005433516576886177062988281250 -0.003540958045050501823425292969 0 0 0 0 
2411500000.0000000000 0.182332828640937805175781250000 -0.039679359644651412963867187500 0.005122310016304255399222089551 -0.003846334293484687805175781250 0 0 0 0 
2411666666.6666665077 0.182405084371566800216513115629 -0.039898183196783072734792341407 0.004968779627233743667602539062 -0.004107833839952945709228515625 0 0 0 0 
2411833333.3333334923 0.182200118899345397949218750000 -0.040355823934078216552734375000 0.004756802227348089218139648438 -0.004311413969844579696655273438 0 0 0 0 
2412000000.0000000000 0.182103946805000305175781250000 -0.040789823979139328002929687500 0.004441798198968172073364257812 -0.004266954492777585983276367188 0 0 0 0 
2412166666.6666665077 0.181730553507804898361044365629 -0.041223712265491492534597028907 0.004082583822309970855712890625 -0.004490981344133616361136152051 0 0 0 0 
2412333333.3333334923 0.181523099541664095779580634371 -0.041625693440437316894531250000 0.003988386131823062896728515625 -0.004365810193121433258056640625 0 0 0 0 
2412500000.0000000000 0.180742517113685607910156250000 -0.041711356490850448608398437500 0.003793098498135805130004882812 -0.004605952184647321701049804688 0 0 0 0 
2412666666.6666665077 0.180230632424354608733807481258 -0.042273484170436859130859375000 0.003534740069881082014796591650 -0.004548468161374331387991620801 0 0 0 0 
2412833333.3333334923 0.179620921611785888671875000000 -0.042781870812177658081054687500 0.003348896279931067986729287256 -0.004642724059522151947021484375 0 0 0 0 
2413000000.0000000000 0.178771525621414212325888115629 -0.043079916387796401977539062500 0.003119396977126597924473427881 -0.004726438783109188079833984375 0 0 0 0 
2413166666.6666665077 0.177651017904281588455361884371 -0.043431676924228668212890625000 0.002877321094274520874023437500 -0.004808729980140925321097089551 0 0 0 0 
2413333333.3333334923 0.176747471094131497482138115629 -0.044145893305540091777761091407 0.002750037936493753953220986475 -0.004935549106448888778686523438 0 0 0 0 
2413500000.0000000000 0.175815880298614501953125000000 -0.044625364243984222412109375000 0.002358855446800589995143271338 -0.004867869429290294647216796875 0 0 0 0 
2413666666.6666665077 0.174699023365974398513955634371 -0.045228287577629089355468750000 0.002253699349239469008204794775 -0.004743027500808238983154296875 0 0 0 0 
2413833333.3333334923 0.173674300312995910644531250000 -0.045901123434305191040039062500 0.002155549824237823920008993994 -0.004752853419631719589233398438 0 0 0 0 
2414000000.0000000000 0.172317326068878201583700615629 -0.046604841947555541992187500000 0.001765562337823211929918598706 -0.004837766755372285842895507812 0 0 0 0 
2414166666.6666665077 0.171204447746276910979901231258 -0.047210369259119026874582658593 0.001460767351090908050537109375 -0.004855291452258825302124023438 0 0 0 0 
2414333333.3333334923 0.169997736811637906173544365629 -0.048146113753318786621093750000 0.001453504548408091068267822266 -0.004739764146506786346435546875 0 0 0 0 
2414500000.0000000000 0.168885096907615689376669365629 -0.048927482217550277709960937500 0.001093556755222379944444965894 -0.004810584709048271179199218750 0 0 0 0 
2414666666.6666665077 0.167509749531745910644531250000 -0.050005830824375152587890625000 0.001036701025441288948059082031 -0.004693455062806606292724609375 0 0 0 0 
2414833333.3333334923 0.166240528225898687164630018742 -0.051142845302820212627370466407 0.000777670473325997591018676758 -0.004682747647166252136230468750 0 0 0 0 
2415000000.0000000000 0.165101915597915704925213731258 -0.052351195365190512920339216407 0.000642394879832863807678222656 -0.004348000977188348770141601562 0 0 0 0 
2415166666.6666665077 0.163779407739639309982138115629 -0.053549967706203460693359375000 0.000356407050276175087124425067 -0.004420041572302579879760742188 0 0 0 0 
2415333333.3333334923 0.162788614630699213225994981258 -0.054884027689695358276367187500 0.000275287689873948693275451660 -0.004346057306975126266479492188 0 0 0 0 
2415500000.0000000000 0.161654204130172701736611884371 -0.056232921779155731201171875000 -0.000124379715998657101958674298 -0.004178162664175033569335937500 0 0 0 0 
2415666666.6666665077 0.160320162773132296463174384371 -0.057744827121496200561523437500 0.000129828418721444904804229736 -0.004149213898926973342895507812 0 0 0 0 
2415833333.3333334923 0.159346044063568087478799384371 -0.059476010501384742046315778907 -0.000105697785329539301708498544 -0.003789957845583558082580566406 0 0 0 0 
2416000000.0000000000 0.158253937959670992752236884371 -0.061126220971345901489257812500 0.000011116900168417490681613616 -0.003896817797794938087463378906 0 0 0 0 
2416166666.6666665077 0.157417893409729003906250000000 -0.062785178422927856445312500000 -0.000322458974551409482955932617 -0.003714602207764983177185058594 0 0 0 0 
2416333333.3333334923 0.156442314386367797851562500000 -0.064498722553253173828125000000 -0.000143032986670732498168945312 -0.003507205285131930871250771631 0 0 0 0 
2416500000.0000000000 0.155451238155364990234375000000 -0.066487476229667663574218750000 -0.000417068396927788907855433331 -0.003312898566946386857273720850 0 0 0 0 
2416666666.6666665077 0.154534548521041897872763115629 -0.068407915532588958740234375000 -0.000379693025024607777595520020 -0.003295928006991744041442871094 0 0 0 0 
2416833333.3333334923 0.153881207108497591873330634371 -0.070315279066562652587890625000 -0.000323075189953669905662536621 -0.003208463545888661904575966943 0 0 0 0 
2417000000.0000000000 0.152989968657493591308593750000 -0.072279818356037139892578125000 -0.000242380236159078803941449576 -0.003078757319599390029907226562 0 0 0 0 
2417166666.6666665077 0.152436494827270507812500000000 -0.074072763323783874511718750000 -0.000201449074666015803813934326 -0.002895342884585260911228798975 0 0 0 0 
2417333333.3333334923 0.151919037103653009612713731258 -0.076023623347282409667968750000 -0.000142421224154532009929102765 -0.002852566773071885108947753906 0 0 0 0 
2417500000.0000000000 0.151191741228103609939736884371 -0.078059896826744079589843750000 -0.000048319016059394932609011991 -0.002822853391990066008326865088 0 0 0 0 
2417666666.6666665077 0.151042312383651705642861884371 -0.079776175320148468017578125000 0.000011293729585304390639066696 -0.002882481086999177932739257812 0 0 0 0 
2417833333.3333334923 0.150572299957275390625000000000 -0.081680566072463989257812500000 -0.000177140129380859407499590463 -0.002817942528054118156433105469 0 0 0 0 
2418000000.0000000000 0.150123372673988286774005018742 -0.083593830466270446777343750000 0.000099248019978404045104980469 -0.002740110969170928001403808594 0 0 0 0 
2418166666.6666665077 0.149915277957916287521200615629 -0.085305735468864440917968750000 -0.000020087041775695979595184326 -0.002951354719698429107666015625 0 0 0 0 
2418333333.3333334923 0.150118008255958612640057481258 -0.086926244199275970458984375000 0.000042652802221709862351417542 -0.003091181162744760946986533057 0 0 0 0 
2418500000.0000000000 0.149789810180664090255575615629 -0.088488943874835968017578125000 -0.000060104270232841372489929199 -0.003059847513213754133937216650 0 0 0 0 
2418666666.6666665077 0.149845153093338012695312500000 -0.090092100203037261962890625000 0.000021879845007788389921188354 -0.003089409321546554999110556494 0 0 0 0 
2418833333.3333334923 0.149631962180137606521768134371 -0.091460220515727996826171875000 0.000074191142630297690629959106 -0.003252849914133549170253134619 0 0 0 0 
2419000000.0000000000 0.149776324629783602615518134371 -0.092884890735149383544921875000 -0.000081620979472063481807708740 -0.003240046789869666099548339844 0 0 0 0 
2419166666.6666665077 0.149891465902328491210937500000 -0.094040937721729278564453125000 -0.000054365667892852798104286194 -0.003406752832233905792236328125 0 0 0 0 
2419333333.3333334923 0.149969771504402188400106865629 -0.094940736889839172363281250000 -0.000195691536646336289957323618 -0.003414324019104241891148232568 0 0 0 0 
2419500000.0000000000 0.150219768285751287262286268742 -0.096217051148414611816406250000 -0.000463419128209352493286132812 -0.003577158320695161819458007812 0 0 0 0 
2419666666.6666665077 0.150562658905982998946981865629 -0.096995189785957336425781250000 -0.000558872357942163944244384766 -0.003533919807523488998413085938 0 0 0 0 
2419833333.3333334923 0.150615602731704711914062500000 -0.097706608474254608154296875000 -0.000457672809716314077377319336 -0.003629026468843222098109579932 0 0 0 0 
