# Hz S RI R 50
2400000000.0000000000 0.168669790029525812347088731258 0.046850372105836868286132812500 -0.000401170662371441721916198730 0.003911103587597609433645917676 0 0 0 0 
2400166666.6666665077 0.169563770294189508636151231258 0.045733176171779632568359375000 -0.000316844700137153322070521222 0.004039717372506856918334960938 0 0 0 0 
2400333333.3333334923 0.170592144131660489181356865629 0.044662546366453170776367187500 -0.000341868901159614324569702148 0.003820839338004589080810546875 0 0 0 0 
2400500000.0000000000 0.171482846140861511230468750000 0.043742533773183822631835937500 -0.000291198637569323182106018066 0.003608826315030456022975302588 0 0 0 0 
2400666666.6666665077 0.172323346138000488281250000000 0.042851038277149200439453125000 -0.000114684131403919295825143132 0.003549183020368217988255166162 0 0 0 0 
2400833333.3333334923 0.173191517591476412674111884371 0.042093176394700997089426408593 0.000015058969438541680574417114 0.003456145524978638128993368994 0 0 0 0 
2401000000.0000000000 0.173907339572906494140625000000 0.041317138820886611938476562500 -0.000032096431823447346687316895 0.003605617675930262045619345557 0 0 0 0 
2401166666.6666665077 0.174571424722671508789062500000 0.040607642382383346557617187500 -0.000357917248038575107425135480 0.003435496473684906959533691406 0 0 0 0 
2401333333.3333334923 0.175127595663070706466513115629 0.039712056517601013183593750000 -0.000301826512441039085388183594 0.003450323827564715905430459131 0 0 0 0 
2401500000.0000000000 0.176029086112976101974325615629 0.039321698248386383056640625000 -0.000376383832190185785293579102 0.003405839204788208007812500000 0 0 0 0 
2401666666.6666665077 0.176722422242164611816406250000 0.038784831762313842773437500000 -0.000389419670682400519221705304 0.003360995557159184975865029443 0 0 0 0 
2401833333.3333334923 0.177068665623664911468182481258 0.038086581975221626972238908593 -0.000412607187172398025363367902 0.003417883999645709991455078125 0 0 0 0 
2402000000.0000000000 0.177319735288619995117187500000 0.037273328751325607299804687500 -0.000571895565371960401535034180 0.003445044392719864845275878906 0 0 0 0 
2402166666.6666665077 0.177770793437957791427450615629 0.036686904728412628173828125000 -0.000534889986738562583923339844 0.003223396139219402833225869287 0 0 0 0 
2402333333.3333334923 0.178118228912353487869424384371 0.036267001181840896606445312500 -0.000606034591328352689743041992 0.003441291861236094994785927881 0 0 0 0 
2402500000.0000000000 0.178667858242988586425781250000 0.035695120692253112792968750000 -0.000652528309728950262069702148 0.003646467812359333038330078125 0 0 0 0 
2402666666.6666665077 0.178757697343826293945312500000 0.034922722727060317993164062500 -0.000733660475816577672958374023 0.003689234144985675811767578125 0 0 0 0 
2402833333.3333334923 0.178906112909316988845986884371 0.034190017729997641826589216407 -0.000713248096872121095657348633 0.003855592105537652969360351562 0 0 0 0 
2403000000.0000000000 0.179060623049735995193643134371 0.033397149294614791870117187500 -0.000957788142841309309005737305 0.003856847528368235068080283057 0 0 0 0 
2403166666.6666665077 0.179196000099182101150674384371 0.032617207616567611694335937500 -0.000837958359625190496444702148 0.004164386540651321411132812500 0 0 0 0 
2403333333.3333334923 0.179066002368927001953125000000 0.031868107616901397705078125000 -0.000717997318133711814880371094 0.004251377657055854797363281250 0 0 0 0 
2403500000.0000000000 0.178667530417442294021768134371 0.030849326401948928833007812500 -0.000734840927179902791976928711 0.004635563120245934400076581738 0 0 0 0 
2403666666.6666665077 0.178497374057769803146200615629 0.029834259301424029958704764454 -0.000793957791756838560104370117 0.004819260910153388977050781250 0 0 0 0 
2403833333.3333334923 0.178508371114730807205361884371 0.028675023466348651540736014454 -0.000706410850398242473602294922 0.005249537061899899569039629199 0 0 0 0 
2404000000.0000000000 0.178115025162696810623330634371 0.027520149946212768554687500000 -0.000532966689206659793853759766 0.005380508955568075180053710938 0 0 0 0 
2404166666.6666665077 0.177638620138168307205361884371 0.026206251233816150320032889454 -0.000395919691072776913642883301 0.005740861408412457379812909863 0 0 0 0 
2404333333.3333334923 0.177183538675308199783486884371 0.025153467431664470327357108204 -0.000183231415576301487997332162 0.005900221876800060272216796875 0 0 0 0 
2404500000.0000000000 0.176586225628852788727130018742 0.023582829162478450429896170704 0.000180632574483752304881495343 0.006231005769222974777221679688 0 0 0 0 
2404666666.6666665077 0.176478102803230313400106865629 0.022340808063745498657226562500 0.000483466661535203511088770734 0.006387704517692328366751386426 0 0 0 0 
2404833333.3333334923 0.175880730152130099197549384371 0.020671024918556209909459298046 0.000970509776379913091659545898 0.006600412074476481351370527051 0 0 0 0 
2405000000.0000000000 0.175465747714042691329794365629 0.019092006608843799936314766796 0.001377042732201517061946249854 0.006695949938148260116577148438 0 0 0 0 
2405166666.6666665077 0.175068706274032592773437500000 0.017459690570831298828125000000 0.001704132766462862925288535010 0.006963071878999471664428710938 0 0 0 0 
2405333333.3333334923 0.174752891063690213302450615629 0.015766344964504238473912423046 0.002171343658119440078735351562 0.006944471504539251327514648438 0 0 0 0 
2405500000.0000000000 0.174326166510581997970419365629 0.014100891537964340555211251171 0.002566055627539753913879394531 0.006960353814065456390380859375 0 0 0 0 
2405666666.6666665077 0.174071311950683593750000000000 0.012324552051722999918004219921 0.003087735502049326896667480469 0.006996279582381249341482831738 0 0 0 0 
2405833333.3333334923 0.173495694994926508147869981258 0.010762016288936139887799647852 0.003559608478099108175990439307 0.006688067689538002014160156250 0 0 0 0 
2406000000.0000000000 0.173405826091766412933026231258 0.008664745837450027465820312500 0.003992068581283093366141034863 0.006751605309545993804931640625 0 0 0 0 
2406166666.6666665077 0.173034563660621587555255018742 0.006834703497588635358328534863 0.004519133362919092178344726562 0.006439382210373879346365644238 0 0 0 0 
2406333333.3333334923 0.173170685768127413650674384371 0.004890286363661289215087890625 0.004796159453690052032470703125 0.006246501114219427108764648438 0 0 0 0 
2406500000.0000000000 0.172721728682518005371093750000 0.002720131073147058920619345557 0.005254020914435386657714843750 0.006088214926421642303466796875 0 0 0 0 
2406666666.6666665077 0.172611847519874600509481865629 0.000707528088241815567016601562 0.005551737267524003982543945312 0.005843539256602525711059570312 0 0 0 0 
2406833333.3333334923 0.172713920474052401443643134371 -0.001287081278860569000244140625 0.006005870644003152847290039062 0.005561019293963909149169921875 0 0 0 0 
2407000000.0000000000 0.172860696911811800857705634371 -0.003217811230570077896118164062 0.006277228705585002899169921875 0.005135961808264256391043378613 0 0 0 0 
2407166666.6666665077 0.173180162906646700760049384371 -0.005379552487283945083618164062 0.006630019284784793853759765625 0.004817235283553600311279296875 0 0 0 0 
2407333333.3333334923 0.173228621482849093338174384371 -0.007578540593385696411132812500 0.006816335953772068023681640625 0.004464184865355491638183593750 0 0 0 0 
2407500000.0000000000 0.173484280705451993087606865629 -0.009605091065168380737304687500 0.007119410671293736371512128613 0.003948168363422155380249023438 0 0 0 0 
2407666666.6666665077 0.173954606056213406661825615629 -0.011609964072704320389717302930 0.007208843249827623367309570312 0.003685764735564589934108115088 0 0 0 0 
2407833333.3333334923 0.174002930521964999099893134371 -0.013717485591769220179547694727 0.007638091687113046646118164062 0.003176633967086673216578818213 0 0 0 0 
2408000000.0000000000 0.174545139074325589279013115629 -0.015899850055575370788574218750 0.007525731809437274932861328125 0.002747450256720184846165322412 0 0 0 0 
2408166666.6666665077 0.174834117293357904632244981258 -0.017726415768265720712681954296 0.007733900099992752075195312500 0.002307296963408588929417275537 0 0 0 0 
2408333333.3333334923 0.175450906157493591308593750000 -0.019612872973084449768066406250 0.007710867095738649368286132812 0.001953073777258395931841206128 0 0 0 0 
2408500000.0000000000 0.175702989101409912109375000000 -0.021601142361760139465332031250 0.007724115159362555417532636426 0.001466118847019969983341836084 0 0 0 0 
2408666666.6666665077 0.176176279783248901367187500000 -0.023362891748547550546666329296 0.007811312098056077957153320312 0.000925545347854495048522949219 0 0 0 0 
2408833333.3333334923 0.176578104496002197265625000000 -0.024980761110782619821568673046 0.007756707724183797836303710938 0.000539690954610705375671386719 0 0 0 0 
2409000000.0000000000 0.176949456334114102462606865629 -0.026601763442158699035644531250 0.007593028247356414794921875000 0.000224681658437475589200696402 0 0 0 0 
2409166666.6666665077 0.177549749612808199783486884371 -0.028168113902211189270019531250 0.007494553923606873425955487988 -0.000166248384630307609408778058 0 0 0 0 
2409333333.3333334923 0.178042173385620089431924384371 -0.029739517718553539621373360546 0.007504333741962909698486328125 -0.000641965481918305158615112305 0 0 0 0 
2409500000.0000000000 0.178558692336082486251669365629 -0.030983649194240570068359375000 0.007112314458936452865600585938 -0.000856994651257991790771484375 0 0 0 0 
2409666666.6666665077 0.178828224539756802657919365629 -0.032057277858257286762277971093 0.007070824038237333297729492188 -0.001215668627992271943333291162 0 0 0 0 
2409833333.3333334923 0.179124370217323303222656250000 -0.033155310899019241333007812500 0.006937664933502674102783203125 -0.001409095129929482936859130859 0 0 0 0 
2410000000.0000000000 0.179796710610389709472656250000 -0.033925492316484451293945312500 0.006761003751307725906372070312 -0.001794637762941420078277587891 0 0 0 0 
2410166666.6666665077 0.180203348398208590408486884371 -0.034992672502994537353515625000 0.006585881579667329788208007812 -0.001991095952689648108241415869 0 0 0 0 
2410333333.3333334923 0.180522128939628601074218750000 -0.035693868994712829589843750000 0.006433359812945128354544355176 -0.002283771522343159155604697119 0 0 0 0 
2410500000.0000000000 0.180975377559661892989950615629 -0.036550171673297882080078125000 0.006231185048818588256835937500 -0.002527102129533886909484863281 0 0 0 0 
2410666666.6666665077 0.181245312094688387771768134371 -0.037111535668373107910156250000 0.006207064725458621978759765625 -0.002722922014072536988499306787 0 0 0 0 
2410833333.3333334923 0.181751459836959811111611884371 -0.037743899971246719360351562500 0.005900651216506958007812500000 -0.002961575053632258935215615381 0 0 0 0 
2411000000.0000000000 0.181866884231567410568075615629 -0.038135048002004623413085937500 0.005773261655122041702270507812 -0.003154341131448746161219931494 0 0 0 0 
2411166666.6666665077 0.182256117463111905196981865629 -0.038935150951147079467773437500 0.005426262039691209793090820312 -0.003195629920810461044311523438 0 0 0 0 
2411333333.3333334923 0.182250156998634310623330634371 -0.039195474237203598022460937500 0.005342199467122554779052734375 -0.003598479786887764930725097656 0 0 0 0 
2411500000.0000000000 0.182209908962249811370526231258 -0.039657838642597198486328125000 0.005095865111798048019409179688 -0.003680677153170108795166015625 0 0 0 0 
2411666666.6666665077 0.182386055588722201248330634371 -0.040107101202011108398437500000 0.004988671280443668365478515625 -0.003837210359051824049708701025 0 0 0 0 
2411833333.3333334923 0.182213678956031799316406250000 -0.040494471788406372070312500000 0.004728023428469896316528320312 -0.003963121678680182370657636426 0 0 0 0 
2412000000.0000000000 0.181997179985046386718750000000 -0.040865566581487662578542341407 0.004454945679754018783569335938 -0.003888612613081932067871093750 0 0 0 0 
2412166666.6666665077 0.181499242782592801193075615629 -0.041133951395750052715261091407 0.004256917629390954971313476562 -0.004168922081589698791503906250 0 0 0 0 
2412333333.3333334923 0.181430250406265286544638115629 -0.041592985391616821289062500000 0.004131169058382511138916015625 -0.004179901909083127975463867188 0 0 0 0 
2412500000.0000000000 0.180587068200111389160156250000 -0.041778918355703346942942033593 0.003800933947786688804626464844 -0.004247665870934724807739257812 0 0 0 0 
2412666666.6666665077 0.180287852883338900467080634371 -0.042379688471555709838867187500 0.003647121833637357191798544775 -0.004392766393721103668212890625 0 0 0 0 
2412833333.3333334923 0.179466873407363891601562500000 -0.042747858911752700805664062500 0.003322016214951872825622558594 -0.004490543622523546218872070312 0 0 0 0 
2413000000.0000000000 0.178610637784004211425781250000 -0.043127112090587622905690778907 0.003243398386985063986537314307 -0.004621420521289110183715820312 0 0 0 0 
2413166666.6666665077 0.177679285407066400725994981258 -0.043551664799451828002929687500 0.002940389327704906897303915869 -0.004523487295955420407767011426 0 0 0 0 
2413333333.3333334923 0.176513999700546292404013115629 -0.044123582541942603374440778907 0.002788270357996224923374795068 -0.004481462296098470687866210938 0 0 0 0 
2413500000.0000000000 0.175692722201347406585369981258 -0.044621266424655907367746721093 0.002461716998368502096888876807 -0.004517084453254938125610351562 0 0 0 0 
2413666666.6666665077 0.174606516957282992263955634371 -0.045134928077459342266042341407 0.002356039825826882882359170068 -0.004669809248298406600952148438 0 0 0 0 
2413833333.3333334923 0.173447683453559903243856865629 -0.045663636177778237079660783593 0.002108642132952808900120400537 -0.004650523420423269271850585938 0 0 0 0 
2414000000.0000000000 0.172306880354881286621093750000 -0.046545628458261489868164062500 0.001906503224745393016217875903 -0.004643203690648078918457031250 0 0 0 0 
2414166666.6666665077 0.171211346983909606933593750000 -0.047146979719400412822682966407 0.001860968419350683905957866138 -0.004607769660651683807373046875 0 0 0 0 
2414333333.3333334923 0.169917553663253811935263115629 -0.047954194247722632671315778907 0.001584073062986135916468954932 -0.004636448342353106412405683301 0 0 0 0 
2414500000.0000000000 0.168887957930564908126669365629 -0.048796344548463821411132812500 0.001320033799856900951982807690 -0.004593629855662584304809570312 0 0 0 0 
2414666666.6666665077 0.167594164609909113128338731258 -0.049845587462186813354492187500 0.001001312397420405907871865381 -0.004465669393539428710937500000 0 0 0 0 
2414833333.3333334923 0.166407853364944513518963731258 -0.051040571182966232299804687500 0.000902122876141220331192016602 -0.004353838041424751281738281250 0 0 0 0 
2415000000.0000000000 0.164899513125419588943643134371 -0.052239552140235900878906250000 0.000715786358341574668884277344 -0.004390634596347808837890625000 0 0 0 0 
2415166666.6666665077 0.163737878203392001053018134371 -0.053386598825454711914062500000 0.000752229650970548391342163086 -0.004159043077379465103149414062 0 0 0 0 
2415333333.3333334923 0.162797972559928894042968750000 -0.054693508893251419067382812500 0.000543137604836374521255493164 -0.004049913957715035352225019238 0 0 0 0 
2415500000.0000000000 0.161576300859451293945312500000 -0.056068584322929382324218750000 0.000481300114188343286514282227 -0.003995834384113550186157226562 0 0 0 0 
2415666666.6666665077 0.160436511039733886718750000000 -0.057528231292963027954101562500 0.000185936965863220393657684326 -0.003849509870633482933044433594 0 0 0 0 
2415833333.3333334923 0.159438893198967007736044365629 -0.059190534055233001708984375000 0.000164419630891643491670331412 -0.003753646742552518844604492188 0 0 0 0 
2416000000.0000000000 0.158131882548332186599893134371 -0.060993749648332602764089216407 0.000018011092834058221092427901 -0.003731949720531702041625976562 0 0 0 0 
2416166666.6666665077 0.157401964068412808517294365629 -0.062739349901676177978515625000 0.000156563226482830887466984882 -0.003712700447067617936375283350 0 0 0 0 
2416333333.3333334923 0.156318813562393188476562500000 -0.064399838447570800781250000000 0.000099822071206290274858474731 -0.003349288832396268844604492188 0 0 0 0 
2416500000.0000000000 0.155555739998817388336505018742 -0.066334955394268035888671875000 -0.000060522084822878241539001465 -0.003266443731263279914855957031 0 0 0 0 
2416666666.6666665077 0.154608249664306612869424384371 -0.068235546350479125976562500000 -0.000052310835599200800061225891 -0.003233216935768723921534872900 0 0 0 0 
2416833333.3333334923 0.153895288705825805664062500000 -0.070276707410812377929687500000 -0.000010516660950088409538370933 -0.003194486256688832803013466943 0 0 0 0 
2417000000.0000000000 0.153061151504516601562500000000 -0.072189852595329284667968750000 -0.000004300854470784543082118034 -0.002956917975097895102259970557 0 0 0 0 
2417166666.6666665077 0.152477577328682001311932481258 -0.073971696197986602783203125000 0.000099470838904380798339843750 -0.002926645334810018973109579932 0 0 0 0 
2417333333.3333334923 0.151973143219947787185830634371 -0.075956456363201141357421875000 -0.000073568626248743385076522827 -0.002880466869100927872898720850 0 0 0 0 
2417500000.0000000000 0.151391416788101196289062500000 -0.078092508018016815185546875000 -0.000019228977180318910291398696 -0.003027654252946376800537109375 0 0 0 0 
2417666666.6666665077 0.151035919785499600509481865629 -0.079761572182178497314453125000 0.000075557101808954030275344849 -0.002878510160371661186218261719 0 0 0 0 
2417833333.3333334923 0.150570720434188787262286268742 -0.081610731780529022216796875000 0.000170827188412658897325238638 -0.002851342316716908974888466943 0 0 0 0 
2418000000.0000000000 0.150124922394752502441406250000 -0.083545677363872528076171875000 0.000200400085304863805144709454 -0.002884185640141367912292480469 0 0 0 0 
2418166666.6666665077 0.149969279766082791427450615629 -0.085093446075916290283203125000 0.000216387488762848106309613638 -0.003022595308721065954921103369 0 0 0 0 
2418333333.3333334923 0.150032281875610407073651231258 -0.086801372468471527099609375000 0.000179363953066058511107844220 -0.003072835039347410202026367188 0 0 0 0 
2418500000.0000000000 0.149913221597671508789062500000 -0.088444910943508148193359375000 0.000361045589670538902282714844 -0.003142182715237141089198447119 0 0 0 0 
2418666666.6666665077 0.149966359138488797286825615629 -0.090049490332603454589843750000 0.000146071688504889607429504395 -0.003192528616636991934535361182 0 0 0 0 
2418833333.3333334923 0.149701729416847201248330634371 -0.091368705034255981445312500000 0.000131256965687498504489344464 -0.003335428191348909898045205225 0 0 0 0 
2419000000.0000000000 0.149715140461921691894531250000 -0.092732451856136322021484375000 0.000073314033215865492820739746 -0.003427939722314476966857910156 0 0 0 0 
2419166666.6666665077 0.149838507175445612151776231258 -0.094039253890514373779296875000 0.000106325300293974605485639029 -0.003562960308045148849487304688 0 0 0 0 
2419333333.3333334923 0.149934202432632501800213731258 -0.094884999096393585205078125000 -0.000041195431549567729234695435 -0.003465222660452127890345908057 0 0 0 0 
2419500000.0000000000 0.150173306465148898025674384371 -0.095934115350246429443359375000 -0.000175772947841323912143707275 -0.003693230217322707176208496094 0 0 0 0 
2419666666.6666665077 0.150472640991210909744424384371 -0.096972674131393432617187500000 -0.000324394379276782274246215820 -0.003722067223861813978907919775 0 0 0 0 
2419833333.3333334923 0.150605142116546603103799384371 -0.097571313381195068359375000000 -0.000572635675780475139617919922 -0.003766036592423915863037109375 0 0 0 0 
