# Hz S RI R 50
2400000000.0000000000 0.167449578642845209319744981258 0.041246846318244927143137346093 -0.000861971988342702388763427734 -0.003555565606802701950073242188 0 0 0 0 
2400166666.6666665077 0.168104499578476007659588731258 0.040383331477642059326171875000 -0.001025993959046900055528950269 -0.003595861140638589859008789062 0 0 0 0 
2400333333.3333334923 0.168653294444084195236044365629 0.039535429328680038452148437500 -0.001247297972440720038173056494 -0.003635575994849205017089843750 0 0 0 0 
2400500000.0000000000 0.169124141335487393478231865629 0.038683623075485229492187500000 -0.001332772430032491900800395435 -0.003609553910791873931884765625 0 0 0 0 
2400666666.6666665077 0.169292956590652493575888115629 0.037559203803539283061940778907 -0.001609709928743541023851704175 -0.003480064682662487030029296875 0 0 0 0 
2400833333.3333334923 0.169832885265350286285723768742 0.036811254918575286865234375000 -0.001784292398951947905896830981 -0.003372109960764646963832236182 0 0 0 0 
2401000000.0000000000 0.170057773590087890625000000000 0.035855036228895187377929687500 -0.002057318110018969015834189307 -0.003310441737994552092311240088 0 0 0 0 
2401166666.6666665077 0.170184955000877408126669365629 0.035093072801828377460520158593 -0.002177433343604207038879394531 -0.003077135654166340827941894531 0 0 0 0 
2401333333.3333334923 0.170303076505661010742187500000 0.033919867128133766864817033593 -0.002434385474771261215209960938 -0.002984022255986928939819335938 0 0 0 0 
2401500000.0000000000 0.170703753829002408126669365629 0.033003848046064376831054687500 -0.002471326617524027824401855469 -0.002793555147945880889892578125 0 0 0 0 
2401666666.6666665077 0.170861959457397488693075615629 0.032319299876689910888671875000 -0.002552823629230260848999023438 -0.002650095615535974936244345557 0 0 0 0 
2401833333.3333334923 0.170947819948196411132812500000 0.031227210536599159240722656250 -0.002796396613121033148524618994 -0.002471601823344827131984091650 0 0 0 0 
2402000000.0000000000 0.170716434717178289215411268742 0.030344659462571140634556954296 -0.002840617904439568953273154150 -0.002251970348879694938659667969 0 0 0 0 
2402166666.6666665077 0.170966103672981289962606865629 0.029262620955705639230748360546 -0.002899081213399767875671386719 -0.002034934470430016951320029150 0 0 0 0 
2402333333.3333334923 0.170911416411399813553018134371 0.028428116813302040100097656250 -0.002992729656398295922520302881 -0.001777674653567373969434428638 0 0 0 0 
2402500000.0000000000 0.171110287308692904373330634371 0.027358194813132289541224295704 -0.002927827183157206015345908057 -0.001625570119358598969103169019 0 0 0 0 
2402666666.6666665077 0.171127125620842007736044365629 0.026381343603134158742884451954 -0.002854336984455585913417197119 -0.001243063947185873985290527344 0 0 0 0 
2402833333.3333334923 0.171151831746101407150106865629 0.025416402146220210683802420704 -0.002818671520799397988560341943 -0.001305901329033076979993510669 0 0 0 0 
2403000000.0000000000 0.171039372682571411132812500000 0.024408306926488879812220389454 -0.002695884322747588157653808594 -0.001031314954161643981933593750 0 0 0 0 
2403166666.6666665077 0.171010956168174688141192518742 0.023186402395367618906041329296 -0.002718411851674317879917763818 -0.000771009072195738554000854492 0 0 0 0 
2403333333.3333334923 0.170988604426383999923544365629 0.022069033235311511648157889454 -0.002491394057869911193847656250 -0.000787741038948297500610351562 0 0 0 0 
2403500000.0000000000 0.170868262648582486251669365629 0.020928669720888141286829764454 -0.002477027475833892822265625000 -0.000657676544506102800369262695 0 0 0 0 
2403666666.6666665077 0.170813605189323397537393134371 0.019647615030407909048060233204 -0.002494991058483719825744628906 -0.000641321123111993074417114258 0 0 0 0 
2403833333.3333334923 0.170825690031051607986611884371 0.018224045634269710886021798046 -0.002280572894960641860961914062 -0.000567081384360790252685546875 0 0 0 0 
2404000000.0000000000 0.170782268047332791427450615629 0.017261832952499389648437500000 -0.001981580629944800896885537256 -0.000559012114536017179489135742 0 0 0 0 
2404166666.6666665077 0.170733451843261690994424384371 0.015670957043766978872278983204 -0.002148824976757169203517294775 -0.000400217541027814204066676007 0 0 0 0 
2404333333.3333334923 0.170589864253997802734375000000 0.014545313082635399209996407421 -0.002176157198846340179443359375 -0.000332249968778342008590698242 0 0 0 0 
2404500000.0000000000 0.170431420207023592849893134371 0.013004912994801999873151210352 -0.002091610804200171990635537256 -0.000461860443465411717265528546 0 0 0 0 
2404666666.6666665077 0.170475766062736511230468750000 0.011778363958001140249232108204 -0.001938168425112962939618754810 -0.000387978943763300776481628418 0 0 0 0 
2404833333.3333334923 0.170539200305938692947549384371 0.010333538055419920140276524023 -0.001839089556597172997118305737 -0.000511466874741017818450927734 0 0 0 0 
2405000000.0000000000 0.170487791299820001800213731258 0.008793102577328681945800781250 -0.001910115592181683020350790869 -0.000509517209138721227645874023 0 0 0 0 
2405166666.6666665077 0.170270934700965909103231865629 0.007334656082093715667724609375 -0.002103929407894610924961709131 -0.000569764757528901100158691406 0 0 0 0 
2405333333.3333334923 0.170506209135055486481036268742 0.005694296211004257202148437500 -0.001853227266110480048535991138 -0.000498934532515704631805419922 0 0 0 0 
2405500000.0000000000 0.170497193932533291915731865629 0.004355233162641525268554687500 -0.001826386316679418087005615234 -0.000510648125782608985900878906 0 0 0 0 
2405666666.6666665077 0.170428276062011690994424384371 0.002777884714305400848388671875 -0.002115076174959539933445595850 -0.000480350689031183719635009766 0 0 0 0 
2405833333.3333334923 0.170329973101615905761718750000 0.001160475774668157100677490234 -0.001858494593761861107469868237 -0.000352849689079448580741882324 0 0 0 0 
2406000000.0000000000 0.170381411910057095626669365629 -0.000456166570074856281280517578 -0.001975361490622162818908691406 -0.000457971182186156511306762695 0 0 0 0 
2406166666.6666665077 0.170152306556701687911825615629 -0.001895837951451539993286132812 -0.002021716209128499031066894531 -0.000399050040869042277336120605 0 0 0 0 
2406333333.3333334923 0.170286655426025390625000000000 -0.003325682831928133964538574219 -0.001944899791851639964460063403 -0.000250859506195411086082458496 0 0 0 0 
2406500000.0000000000 0.170104920864105196853799384371 -0.005037021357566118240356445312 -0.001766126602888107082964253003 -0.000277124083368107676506042480 0 0 0 0 
2406666666.6666665077 0.169898748397827203948651231258 -0.006509107071906328201293945312 -0.001998311374336481094360351562 -0.000270754157099872773319798602 0 0 0 0 
2406833333.3333334923 0.169660568237304687500000000000 -0.007869849912822246551513671875 -0.001623157295398413918138813550 -0.000128035651869140592500409537 0 0 0 0 
2407000000.0000000000 0.169639989733696011642294365629 -0.009388093836605548858642578125 -0.001779398997314274094225239331 -0.000127988576423376798629760742 0 0 0 0 
2407166666.6666665077 0.169566512107849093338174384371 -0.010776833631098270416259765625 -0.001717421808280050971387553638 -0.000158441456733271506711682730 0 0 0 0 
2407333333.3333334923 0.169250249862670898437500000000 -0.012112213298678399867047694727 -0.001757312333211302974103618091 -0.000321701198117807507514953613 0 0 0 0 
2407500000.0000000000 0.169141277670860290527343750000 -0.013348372653126720083216483204 -0.001670331577770411968231201172 -0.000212671700865030288696289062 0 0 0 0 
2407666666.6666665077 0.169003084301948602874432481258 -0.014461519196629520761510079296 -0.001645328244194387955906533350 -0.000361955957487225478321629657 0 0 0 0 
2407833333.3333334923 0.168626204133033807952557481258 -0.015746854245662689208984375000 -0.001756425132043659903882670825 -0.000488317571580410003662109375 0 0 0 0 
2408000000.0000000000 0.168551832437515286544638115629 -0.016895955428481098520299141796 -0.001823876053094863891601562500 -0.000545003102160990238189697266 0 0 0 0 
2408166666.6666665077 0.168495371937751797775106865629 -0.017615623772144321096400076954 -0.001799542107619344971300434644 -0.000536639941856265068054199219 0 0 0 0 
2408333333.3333334923 0.168625995516777010818643134371 -0.018701212480664249765416329296 -0.002001656219363213019130087744 -0.000577008700929582118988037109 0 0 0 0 
2408500000.0000000000 0.168422043323516901214276231258 -0.019708719104528430593470389454 -0.002014436060562729835510253906 -0.000704827252775430679321289062 0 0 0 0 
2408666666.6666665077 0.168448358774185208419638115629 -0.020516349002718928945521170704 -0.002369535155594348907470703125 -0.000676167896017432212829589844 0 0 0 0 
2408833333.3333334923 0.168383449316024808029013115629 -0.021547559648752209054967110546 -0.002341872779652475877049111475 -0.000657320604659616947174072266 0 0 0 0 
2409000000.0000000000 0.168487071990966796875000000000 -0.022254236042499538766881173046 -0.002298650797456502914428710938 -0.000577462255023419857025146484 0 0 0 0 
2409166666.6666665077 0.168790191411972101409588731258 -0.023118186742067340505579764454 -0.002535588573664426803588867188 -0.000563372450415045022964477539 0 0 0 0 
2409333333.3333334923 0.168821677565574701507244981258 -0.024068176746368411672571951954 -0.002636151621118187904357910156 -0.000395845854654908180236816406 0 0 0 0 
2409500000.0000000000 0.168782591819763211349325615629 -0.025061042979359630239466483204 -0.002651131246238946914672851562 -0.000217084190808236598968505859 0 0 0 0 
2409666666.6666665077 0.168824926018714904785156250000 -0.025835812091827389108678048046 -0.002891378244385122819187783350 -0.000245909439399838501780909406 0 0 0 0 
2409833333.3333334923 0.168892905116081210037393134371 -0.026637675240635868417760079296 -0.002946373773738741874694824219 0.000035864271922037012200763090 0 0 0 0 
2410000000.0000000000 0.168942704796791104415731865629 -0.027664350345730781555175781250 -0.002902285894379020170924521338 0.000160974610480479896068572998 0 0 0 0 
2410166666.6666665077 0.169135525822639493087606865629 -0.028640756383538249624232108204 -0.003080661641433835029602050781 0.000193529645912349196985521860 0 0 0 0 
2410333333.3333334923 0.168835148215293912032919365629 -0.029377177357673648488978201954 -0.003117204410955309867858886719 0.000415420043282210826873779297 0 0 0 0 
2410500000.0000000000 0.169057637453079195877236884371 -0.030306315049529079092005545704 -0.003128579352051020102259970557 0.000561967550311237573623657227 0 0 0 0 
2410666666.6666665077 0.168841138482093811035156250000 -0.031344749033451080322265625000 -0.003006586572155355973484658350 0.000657908618450164794921875000 0 0 0 0 
2410833333.3333334923 0.168570205569267300704794365629 -0.032154466956853866577148437500 -0.003026823746040463013889931787 0.000888317241333425153433644983 0 0 0 0 
2411000000.0000000000 0.168373927474021911621093750000 -0.032938603311777121807057966407 -0.003095151390880345864536904443 0.000917098775971680879592895508 0 0 0 0 
2411166666.6666665077 0.168359816074371310135049384371 -0.033835150301456451416015625000 -0.003158455248922110037562704932 0.001182142179459332986118935693 0 0 0 0 
2411333333.3333334923 0.168093875050544711013955634371 -0.034780152142047882080078125000 -0.003100699745118618011474609375 0.001150126801803708076477050781 0 0 0 0 
2411500000.0000000000 0.167778596282005310058593750000 -0.035786356776952736591379533593 -0.003037449205294251008274697412 0.001274165930226444981218647534 0 0 0 0 
2411666666.6666665077 0.167752221226692199707031250000 -0.036694239825010299682617187500 -0.003017239505425095991847372900 0.001421159016899764971492148291 0 0 0 0 
2411833333.3333334923 0.167378753423690795898437500000 -0.037478238344192511821706403907 -0.002959174569696187973022460938 0.001495610107667743942858051831 0 0 0 0 
2412000000.0000000000 0.167362973093986511230468750000 -0.038343671709299087524414062500 -0.002971053123474121093750000000 0.001645281561650336005567241138 0 0 0 0 
2412166666.6666665077 0.166910231113433810135049384371 -0.039400726556777947162668596093 -0.003032041946426033973693847656 0.001800821395590900941136025537 0 0 0 0 
2412333333.3333334923 0.166770279407501192947549384371 -0.040307931602001190185546875000 -0.003002848010510205788853310693 0.001843398553319274945500039209 0 0 0 0 
2412500000.0000000000 0.166359364986419705489950615629 -0.041241895407438278198242187500 -0.002937429118901491165161132812 0.002031226642429829077479697119 0 0 0 0 
2412666666.6666665077 0.166148275136947604080361884371 -0.042450543493032462383229841407 -0.002972486428916453881504677881 0.002165271434932947158813476562 0 0 0 0 
2412833333.3333334923 0.165673941373825100997763115629 -0.043281454592943191528320312500 -0.002929125213995575904846191406 0.002397580072283744812011718750 0 0 0 0 
2413000000.0000000000 0.165172889828682001311932481258 -0.044284060597419738769531250000 -0.002733699046075344085693359375 0.002609987976029514832737588037 0 0 0 0 
2413166666.6666665077 0.165042012929916409591513115629 -0.045380286872386932373046875000 -0.002635518088936806158778525244 0.002786818193271756172180175781 0 0 0 0 
2413333333.3333334923 0.164359167218208312988281250000 -0.046470496803522109985351562500 -0.002607931848615407943725585938 0.002913784235715866088867187500 0 0 0 0 
2413500000.0000000000 0.163938924670219393631143134371 -0.047435544431209557270090471093 -0.002534216037020086808445595850 0.002980805234983562989475869287 0 0 0 0 
2413666666.6666665077 0.163652524352073697189169365629 -0.048638861626386642456054687500 -0.002303399844095110893249511719 0.003106791758909821943995810400 0 0 0 0 
2413833333.3333334923 0.163062050938606289962606865629 -0.049562171101570129394531250000 -0.002209549536928534941432333838 0.003371085273101925849914550781 0 0 0 0 
2414000000.0000000000 0.162466973066330011565838731258 -0.050559323281049728393554687500 -0.001906449673697351975681923975 0.003536551492288709120509482275 0 0 0 0 
2414166666.6666665077 0.162352338433265713790731865629 -0.051596980541944496845285783593 -0.001879933290183543942095112378 0.003716052509844303131103515625 0 0 0 0 
2414333333.3333334923 0.161896958947181701660156250000 -0.052678026258945472026784528907 -0.001700824941508471965789794922 0.003857272444292902946472167969 0 0 0 0 
2414500000.0000000000 0.161781966686248807052450615629 -0.053438507020473480224609375000 -0.001238188473507761955261230469 0.003777879988774656815769814600 0 0 0 0 
2414666666.6666665077 0.161355853080749511718750000000 -0.054496772587299346923828125000 -0.001200088881887495951411581885 0.003911271225661039352416992188 0 0 0 0 
2414833333.3333334923 0.161114111542701693435830634371 -0.055713597685098648071289062500 -0.000985876191407442092895507812 0.003980255685746669769287109375 0 0 0 0 
2415000000.0000000000 0.161089912056922912597656250000 -0.056709446012973792339284528907 -0.000616019417066127061843872070 0.003909698687493801116943359375 0 0 0 0 
2415166666.6666665077 0.160708367824554387848223768742 -0.057830061763525009155273437500 -0.000393984460970386916964930402 0.003869436448439956145045615088 0 0 0 0 
2415333333.3333334923 0.160748109221458407303018134371 -0.059001117944717407226562500000 -0.000149515297380275997236528940 0.003777483711019157929661416162 0 0 0 0 
2415500000.0000000000 0.160602182149887112716513115629 -0.060058295726776123046875000000 0.000090840861957985907793045044 0.003678712761029601097106933594 0 0 0 0 
2415666666.6666665077 0.160353213548660306075888115629 -0.061116326600313186645507812500 0.000121545832371339201927185059 0.003635186702013016180751181494 0 0 0 0 
2415833333.3333334923 0.160267755389213589767294365629 -0.062434308230876922607421875000 0.000279091880656778812408447266 0.003692849306389689011814736475 0 0 0 0 
2416000000.0000000000 0.159922078251838711837606865629 -0.063608556985855102539062500000 0.000491146347485482692718505859 0.003513044212013483047485351562 0 0 0 0 
2416166666.6666665077 0.160018503665924100021200615629 -0.064794704318046569824218750000 0.000648238579742610454559326172 0.003344215685501695112941122900 0 0 0 0 
2416333333.3333334923 0.159813120961189297775106865629 -0.065853908658027648925781250000 0.000773515144828706979751586914 0.003169516799971460862400673975 0 0 0 0 
2416500000.0000000000 0.159454748034477206131143134371 -0.067101560533046722412109375000 0.000724159006495028734207153320 0.003206209512427448792698525537 0 0 0 0 
2416666666.6666665077 0.159192383289337213714276231258 -0.068287357687950134277343750000 0.000763164018280804157257080078 0.003037494141608477072474814307 0 0 0 0 
2416833333.3333334923 0.159124925732612609863281250000 -0.069521822035312652587890625000 0.000832182762678712606430053711 0.002946432214230298995971679688 0 0 0 0 
2417000000.0000000000 0.158488333225250188629473768742 -0.070591062307357788085937500000 0.001067463890649378082872700269 0.002706922823563218116760253906 0 0 0 0 
2417166666.6666665077 0.158316716551780700683593750000 -0.071504309773445129394531250000 0.000939207791816443204879760742 0.002753314329311252074000693213 0 0 0 0 
2417333333.3333334923 0.157948851585388211349325615629 -0.072495006024837493896484375000 0.001069574616849423105355287866 0.002511350903660058975219726562 0 0 0 0 
2417500000.0000000000 0.157682090997695895095986884371 -0.073637522757053375244140625000 0.001080245710909367041346884619 0.002552586840465664863586425781 0 0 0 0 
2417666666.6666665077 0.157416671514511108398437500000 -0.074388310313224792480468750000 0.001064831740222871086717915112 0.002335618482902646064758300781 0 0 0 0 
2417833333.3333334923 0.157212793827056912521200615629 -0.075211502611637115478515625000 0.001083885552361607985255576025 0.002312392462044953866245888818 0 0 0 0 
2418000000.0000000000 0.156686231493949890136718750000 -0.076227769255638122558593750000 0.001021308009512722925898886572 0.002164229284971952004673623193 0 0 0 0 
2418166666.6666665077 0.156531319022178705413494981258 -0.076896332204341888427734375000 0.000943201652262359857559204102 0.002139016287401318983790732275 0 0 0 0 
2418333333.3333334923 0.156450748443603487869424384371 -0.077629677951335906982421875000 0.001116736559197307066676474463 0.002067935420200229124781943213 0 0 0 0 
2418500000.0000000000 0.156041890382766695877236884371 -0.078543342649936676025390625000 0.000873893673997372388839721680 0.002124150749295949935913085938 0 0 0 0 
2418666666.6666665077 0.155900716781616210937500000000 -0.079258732497692108154296875000 0.000977089628577232360839843750 0.002101349877193570137023925781 0 0 0 0 
2418833333.3333334923 0.155341774225235013107138115629 -0.080056630074977874755859375000 0.000972731271758675575256347656 0.002167074941098690032958984375 0 0 0 0 
2419000000.0000000000 0.155060082674026489257812500000 -0.080766208469867706298828125000 0.000954218208789825439453125000 0.002022243337705730958225869287 0 0 0 0 
2419166666.6666665077 0.154674604535102788727130018742 -0.081505060195922851562500000000 0.000990818953141570091247558594 0.002240711357444525198695517432 0 0 0 0 
2419333333.3333334923 0.154125496745109613616619981258 -0.081862099468708038330078125000 0.001025335281156003908870077979 0.002201696857810020013096474756 0 0 0 0 
2419500000.0000000000 0.153976559638977106292401231258 -0.082714922726154327392578125000 0.001078057335689664103864360278 0.002244650619104505018946982275 0 0 0 0 
2419666666.6666665077 0.153600037097930908203125000000 -0.083373159170150756835937500000 0.001025773584842682101606059497 0.002232749480754137039184570312 0 0 0 0 
2419833333.3333334923 0.153090462088584899902343750000 -0.083788119256496429443359375000 0.001206868328154087066650390625 0.002286509377881885008571005713 0 0 0 0 
