# Hz S RI R 50
2400000000.0000000000 0.173725768923759488204794365629 0.049128480255603790283203125000 0.002311020158231257958653115381 0.006939211394637823104858398438 0 0 0 0 
2400166666.6666665077 0.174541473388671902755575615629 0.048515941947698593139648437500 0.002457567723467946052551269531 0.006789075210690498352050781250 0 0 0 0 
2400333333.3333334923 0.174961626529693603515625000000 0.047898102551698691631276716407 0.002815359272062778906581259619 0.006720950361341238021850585938 0 0 0 0 
2400500000.0000000000 0.175353392958641107757244981258 0.047076005488634109497070312500 0.002801690716296433968784951318 0.006702331826090812683105468750 0 0 0 0 
2400666666.6666665077 0.175770342350006103515625000000 0.046408623456954962993581403907 0.003115539206191896958592080225 0.006469136103987693786621093750 0 0 0 0 
2400833333.3333334923 0.176005095243454007247763115629 0.045863732695579528808593750000 0.003444482106715441183802939307 0.006226165220141410827636718750 0 0 0 0 
2401000000.0000000000 0.176255464553833007812500000000 0.045180857181549072265625000000 0.003513649804517627196071005713 0.006172480527311564359183027051 0 0 0 0 
2401166666.6666665077 0.176358357071876498123330634371 0.044595886021852493286132812500 0.003430913668125867843627929688 0.006093511823564767837524414062 0 0 0 0 
2401333333.3333334923 0.176389992237091092208700615629 0.043772846460342407226562500000 0.003771207761019467873814248193 0.006009402684867382049560546875 0 0 0 0 
2401500000.0000000000 0.176626801490783691406250000000 0.043024875223636627197265625000 0.003879042342305182976963662256 0.005849457345902919769287109375 0 0 0 0 
2401666666.6666665077 0.176588788628578213790731865629 0.042632080614566802978515625000 0.004137160256505013379568769238 0.005779872648417949676513671875 0 0 0 0 
2401833333.3333334923 0.176531046628951998611611884371 0.041762620210647583007812500000 0.004189580213278532028198242188 0.005478862673044204711914062500 0 0 0 0 
2402000000.0000000000 0.176341772079467801193075615629 0.040979526937007897113840471093 0.004464861936867237091064453125 0.005457413848489522933959960938 0 0 0 0 
2402166666.6666665077 0.176288902759552001953125000000 0.039938576519489288330078125000 0.004569830838590860366821289062 0.005044628400355578336233808301 0 0 0 0 
2402333333.3333334923 0.175930872559547396560830634371 0.039159502834081649780273437500 0.004827273078262805938720703125 0.005027509294450283050537109375 0 0 0 0 
2402500000.0000000000 0.175886839628219604492187500000 0.038061901926994316791574846093 0.004909384064376354217529296875 0.004865538328886032104492187500 0 0 0 0 
2402666666.6666665077 0.175436347723007202148437500000 0.037058256566524512554128278907 0.004886464681476354598999023438 0.004557256586849690351004316113 0 0 0 0 
2402833333.3333334923 0.175323382019996587555255018742 0.036045230925083160400390625000 0.005247492343187332153320312500 0.004426779225468636426443769238 0 0 0 0 
2403000000.0000000000 0.174903765320777893066406250000 0.034855082631111151958425153907 0.005114302970468997955322265625 0.004354079719632863998413085938 0 0 0 0 
2403166666.6666665077 0.174652695655822809417401231258 0.033477719873189933086354841407 0.005402111914008855819702148438 0.004346017725765705108642578125 0 0 0 0 
2403333333.3333334923 0.174166172742843600174111884371 0.032134104520082466815988908593 0.005449167452752590179443359375 0.004001076798886060714721679688 0 0 0 0 
2403500000.0000000000 0.173516571521759005447549384371 0.030649634078145030630091483204 0.005584423895925283432006835938 0.003753825090825558142421103369 0 0 0 0 
2403666666.6666665077 0.173293665051460293868856865629 0.028906807303428649902343750000 0.005682394374161958694458007812 0.003747034817934035821201943506 0 0 0 0 
2403833333.3333334923 0.172883629798889187911825615629 0.027424855157732960092564766796 0.005705343559384346008300781250 0.003335684305056930021998740088 0 0 0 0 
2404000000.0000000000 0.172510385513305691818075615629 0.025804691016674038278599923046 0.005826304201036691665649414062 0.003321135882288217978236533057 0 0 0 0 
2404166666.6666665077 0.172115758061408996582031250000 0.023964282125234600412388985546 0.005836556199938058853149414062 0.002960419049486517906188964844 0 0 0 0 
2404333333.3333334923 0.171589314937591608245526231258 0.022266758605837818491002266796 0.005867253988981246948242187500 0.002892189659178256988525390625 0 0 0 0 
2404500000.0000000000 0.171095311641693087478799384371 0.020202498883008960378626639454 0.005988627672195434570312500000 0.002703133504837750954868935693 0 0 0 0 
2404666666.6666665077 0.170819491147994995117187500000 0.018312688916921619070032889454 0.006064973771572113037109375000 0.002723728539422153992893838037 0 0 0 0 
2404833333.3333334923 0.170743167400360107421875000000 0.016283877193927768362025076954 0.006212090607732534408569335938 0.002542958827689290046691894531 0 0 0 0 
2405000000.0000000000 0.170478194952011108398437500000 0.014257031492888929194440272852 0.006171313114464282989501953125 0.002600925741717218919041298975 0 0 0 0 
2405166666.6666665077 0.170253977179527310470419365629 0.012273596599698070180872733204 0.006274178624153137207031250000 0.002287981100380421118495322119 0 0 0 0 
2405333333.3333334923 0.170266225934028597732705634371 0.010039161890745159494420235546 0.006343558896332979202270507812 0.001982566202059388160705566406 0 0 0 0 
2405500000.0000000000 0.170297309756278991699218750000 0.008241513743996620178222656250 0.006406478118151426315307617188 0.001740974374115467071533203125 0 0 0 0 
2405666666.6666665077 0.170155912637710599044638115629 0.006107517518103122711181640625 0.006546344608068466186523437500 0.001592546235769987106323242188 0 0 0 0 
2405833333.3333334923 0.170228391885757501800213731258 0.004067519214004278182983398438 0.006633522454649209976196289062 0.001466222456656395955326699365 0 0 0 0 
2406000000.0000000000 0.170514389872550992111044365629 0.001942268921993673064588237231 0.006754669360816478729248046875 0.001345835858955978913548134912 0 0 0 0 
2406166666.6666665077 0.170746982097625704666299384371 0.000030180750400177199730669328 0.006674192380160093307495117188 0.000897341291420161724090576172 0 0 0 0 
2406333333.3333334923 0.171209797263145502288494981258 -0.001962347887456417083740234375 0.006939698476344347000122070312 0.000743117590900510549545288086 0 0 0 0 
2406500000.0000000000 0.171552404761314392089843750000 -0.004005811642855405807495117188 0.006895408965647220611572265625 0.000466525845695286989212036133 0 0 0 0 
2406666666.6666665077 0.171895712614059503753338731258 -0.005914324428886175155639648438 0.007071469910442829132080078125 0.000343389692716300487518310547 0 0 0 0 
2406833333.3333334923 0.172530516982078607757244981258 -0.007902288809418678283691406250 0.006999579723924398422241210938 0.000060192480304976932030131681 0 0 0 0 
2407000000.0000000000 0.173291370272636413574218750000 -0.009865310974419116973876953125 0.007084641139954329404349042676 -0.000143691271659918102339068002 0 0 0 0 
2407166666.6666665077 0.173941016197204589843750000000 -0.011763188987970350438128086523 0.006983393803238868713378906250 -0.000505116593558341264724731445 0 0 0 0 
2407333333.3333334923 0.174616247415542602539062500000 -0.013610986061394219834297381055 0.006996533833444119367117597363 -0.000715332455001771450042724609 0 0 0 0 
2407500000.0000000000 0.175307288765907287597656250000 -0.015347219072282310831090157421 0.007115765474736691388601972363 -0.001099257613532244942308735425 0 0 0 0 
2407666666.6666665077 0.176084041595459012130575615629 -0.016989959403872489929199218750 0.007032582070678473386282636426 -0.001420688233338295979740761865 0 0 0 0 
2407833333.3333334923 0.176717430353164700607138115629 -0.018891181796789169311523437500 0.006843125913292169570922851562 -0.001580864074639976024627685547 0 0 0 0 
2408000000.0000000000 0.177550986409187289138955634371 -0.020579248666763309133509451954 0.006897253915667533874511718750 -0.001908591599203645966173481519 0 0 0 0 
2408166666.6666665077 0.178189471364021301269531250000 -0.021962536498904231679896170704 0.006807942409068346023559570312 -0.002262669149786233901977539062 0 0 0 0 
2408333333.3333334923 0.179245665669441195388955634371 -0.023572966456413269042968750000 0.006566619966179133328909589551 -0.002592181786894797845127724756 0 0 0 0 
2408500000.0000000000 0.179731100797653198242187500000 -0.025066502392292019235631173046 0.006321533117443323135375976562 -0.002812397899106144905090332031 0 0 0 0 
2408666666.6666665077 0.180430084466934204101562500000 -0.026337699964642531658132185157 0.006405764259397984418387128613 -0.002973415190353990034816122900 0 0 0 0 
2408833333.3333334923 0.180862650275230407714843750000 -0.027362644672393798828125000000 0.006126128137111663818359375000 -0.003387700300663710074183798682 0 0 0 0 
2409000000.0000000000 0.181449308991432189941406250000 -0.028444116935133930551549141796 0.005965372547507286071777343750 -0.003524760715663433074951171875 0 0 0 0 
2409166666.6666665077 0.181926026940345791915731865629 -0.029552731662988659250279610546 0.005694213788956403732299804688 -0.003642249852418899969813681494 0 0 0 0 
2409333333.3333334923 0.182448223233222989181356865629 -0.030506877228617671621302420704 0.005440373905003070831298828125 -0.003948586061596870422363281250 0 0 0 0 
2409500000.0000000000 0.182775169610977200607138115629 -0.031388558447360992431640625000 0.005337660200893878936767578125 -0.003813385264948010010960244287 0 0 0 0 
2409666666.6666665077 0.183000013232231112381143134371 -0.032022912055253982543945312500 0.005157797131687402725219726562 -0.004184221848845481872558593750 0 0 0 0 
2409833333.3333334923 0.183297827839851407150106865629 -0.032331325113773352886159528907 0.004962658509612082567696855762 -0.004274126607924699783325195312 0 0 0 0 
2410000000.0000000000 0.183577388525009210784588731258 -0.032989941537380218505859375000 0.004610970150679349899291992188 -0.004352012183517217636108398438 0 0 0 0 
2410166666.6666665077 0.183966636657714788238848768742 -0.033387988805770867084543596093 0.004410416353493928909301757812 -0.004457582719624043378348066113 0 0 0 0 
2410333333.3333334923 0.183811679482459994217080634371 -0.033655192703008651733398437500 0.004195143468677997589111328125 -0.004543963819742202758789062500 0 0 0 0 
2410500000.0000000000 0.183963552117347689529580634371 -0.034063570201396942138671875000 0.004121403209865093231201171875 -0.004642374347895383834838867188 0 0 0 0 
2410666666.6666665077 0.183927938342094393631143134371 -0.034526638686656951904296875000 0.004026534501463174819946289062 -0.004757239948958159360403730176 0 0 0 0 
2410833333.3333334923 0.183893635869026211837606865629 -0.034772574901580810546875000000 0.003777330974116920991184853662 -0.004891937598586083325857831738 0 0 0 0 
2411000000.0000000000 0.183695480227470397949218750000 -0.034867409616708762432057966407 0.003661519382148981094360351562 -0.004925000015646219253540039062 0 0 0 0 
2411166666.6666665077 0.183542817831039400955361884371 -0.035215958952903747558593750000 0.003428750904276967048645019531 -0.004868438933044672012329101562 0 0 0 0 
2411333333.3333334923 0.183039426803588894943075615629 -0.035549141466617577289621721093 0.003271027933806180953979492188 -0.005046278703957796096801757812 0 0 0 0 
2411500000.0000000000 0.182633861899375887771768134371 -0.035908456891775131225585937500 0.003168155439198017120361328125 -0.005151882302016019821166992188 0 0 0 0 
2411666666.6666665077 0.182300701737403897384481865629 -0.036170907318592071533203125000 0.002881492255255579948425292969 -0.005162294488400220870971679688 0 0 0 0 
2411833333.3333334923 0.181438803672790499588174384371 -0.036650642752647399902343750000 0.002773385494947433905360556494 -0.005230240989476442337036132812 0 0 0 0 
2412000000.0000000000 0.180963322520255986969317518742 -0.037055455148220062255859375000 0.002595349913462996916529990088 -0.005252871662378311157226562500 0 0 0 0 
2412166666.6666665077 0.179781660437583895584268134371 -0.037382684648036956787109375000 0.002449179999530314965489052881 -0.005276373121887444582467363574 0 0 0 0 
2412333333.3333334923 0.179179623723030090332031250000 -0.037709716707468032836914062500 0.002341211773455142974853515625 -0.005325539037585259351248456738 0 0 0 0 
2412500000.0000000000 0.177950620651245089431924384371 -0.038363717496395111083984375000 0.002135527553036808967590332031 -0.005301771219819784164428710938 0 0 0 0 
2412666666.6666665077 0.177067026495933504959268134371 -0.039186917245388031005859375000 0.001985706854611635208129882812 -0.005397708620876073837280273438 0 0 0 0 
2412833333.3333334923 0.176061615347862188141192518742 -0.039673555642366409301757812500 0.001792985131032764911651611328 -0.005459744483232498168945312500 0 0 0 0 
2413000000.0000000000 0.174743995070457486251669365629 -0.040397934615612030029296875000 0.001553503330796957015991210938 -0.005652386695146560668945312500 0 0 0 0 
2413166666.6666665077 0.173347398638725308517294365629 -0.041198968887329101562500000000 0.001449594972655176899553608472 -0.005436672829091548919677734375 0 0 0 0 
2413333333.3333334923 0.172175437211990411956463731258 -0.041931536048650741577148437500 0.001249456661753357107277895288 -0.005446114111691713333129882812 0 0 0 0 
2413500000.0000000000 0.171032816171646090408486884371 -0.043116573244333267211914062500 0.001055278582498430988909077222 -0.005318324547260999679565429688 0 0 0 0 
2413666666.6666665077 0.169544860720634488204794365629 -0.044094376266002661968190778907 0.000917122408282011747360229492 -0.005259709898382425308227539062 0 0 0 0 
2413833333.3333334923 0.168373227119445800781250000000 -0.045169435441493988037109375000 0.000814869650639593601226806641 -0.005243732128292322158813476562 0 0 0 0 
2414000000.0000000000 0.166822403669357299804687500000 -0.046395335346460342407226562500 0.000659843033645302057266235352 -0.005351079162210226058959960938 0 0 0 0 
2414166666.6666665077 0.165621936321258489410723768742 -0.047557882964611053466796875000 0.000329735892591997981071472168 -0.005206583067774772644042968750 0 0 0 0 
2414333333.3333334923 0.164397552609443692306356865629 -0.049051012843847281719167341407 0.000480970396893099004596155988 -0.005425530020147562026977539062 0 0 0 0 
2414500000.0000000000 0.163361430168151910979901231258 -0.050363250076770782470703125000 0.000212408413062803501456660138 -0.005113703198730945587158203125 0 0 0 0 
2414666666.6666665077 0.162229403853416387359942518742 -0.051840584725141532207448591407 0.000065940686909016221761703491 -0.005154110956937074661254882812 0 0 0 0 
2414833333.3333334923 0.160957500338554410079794365629 -0.053539719432592391967773437500 -0.000014943132555345069954191514 -0.005133016034960746765136718750 0 0 0 0 
2415000000.0000000000 0.159930869936943109710369981258 -0.055209413170814507221262346093 -0.000051533188525354489684104919 -0.005218821112066507339477539062 0 0 0 0 
2415166666.6666665077 0.158932581543922396560830634371 -0.056871231645345687866210937500 -0.000247827585553750395774841309 -0.005055717658251523971557617188 0 0 0 0 
2415333333.3333334923 0.158080101013183593750000000000 -0.058774780482053756713867187500 -0.000342983810696750879287719727 -0.004960643127560616406912519238 0 0 0 0 
2415500000.0000000000 0.157155692577362088302450615629 -0.060657497495412826538085937500 -0.000393639667890965884358006610 -0.005065162200480700406546308301 0 0 0 0 
2415666666.6666665077 0.156236559152603204925213731258 -0.062349475920200347900390625000 -0.000562101951800286769866943359 -0.005030773114413022994995117188 0 0 0 0 
2415833333.3333334923 0.155615895986557006835937500000 -0.064433604478836059570312500000 -0.000474568514619022607803344727 -0.005087014753371477127075195312 0 0 0 0 
2416000000.0000000000 0.154830113053321810623330634371 -0.066375754773616790771484375000 -0.000753939326386898756027221680 -0.004968750290572643280029296875 0 0 0 0 
2416166666.6666665077 0.154557064175605801681356865629 -0.068305879831314086914062500000 -0.000770972867030650377273559570 -0.004955095238983631134033203125 0 0 0 0 
2416333333.3333334923 0.153988823294639587402343750000 -0.070366650819778442382812500000 -0.000836843391880393028259277344 -0.005056886933743953704833984375 0 0 0 0 
2416500000.0000000000 0.153394237160682705978231865629 -0.072399467229843139648437500000 -0.000818027474451810121536254883 -0.004981806501746177673339843750 0 0 0 0 
2416666666.6666665077 0.152961596846580505371093750000 -0.074322380125522613525390625000 -0.001102535636164247989654541016 -0.004982612561434507369995117188 0 0 0 0 
2416833333.3333334923 0.152751922607421902755575615629 -0.076432593166828155517578125000 -0.001275169779546559073804545825 -0.005018787458539009094238281250 0 0 0 0 
2417000000.0000000000 0.152336046099662808517294365629 -0.078401222825050354003906250000 -0.001323507283814250989201211084 -0.004942170809954404830932617188 0 0 0 0 
2417166666.6666665077 0.152178883552551297286825615629 -0.080161847174167633056640625000 -0.001499362406320869922637939453 -0.004971667658537626266479492188 0 0 0 0 
2417333333.3333334923 0.152178332209587097167968750000 -0.082068584859371185302734375000 -0.001662670634686947085736918872 -0.004884959664195775985717773438 0 0 0 0 
2417500000.0000000000 0.151965260505676297286825615629 -0.083858743309974670410156250000 -0.001800376106984912915470742334 -0.004885220434516668319702148438 0 0 0 0 
2417666666.6666665077 0.152067482471466092208700615629 -0.085413083434104919433593750000 -0.001946980017237365028978657300 -0.004945314954966306686401367188 0 0 0 0 
2417833333.3333334923 0.152069047093391390701455634371 -0.087001509964466094970703125000 -0.002040809951722621917724609375 -0.004979251418262720108032226562 0 0 0 0 
2418000000.0000000000 0.152004718780517605880575615629 -0.088636353611946105957031250000 -0.002213536063209176063537597656 -0.004884447436779738339895917676 0 0 0 0 
2418166666.6666665077 0.152071177959442110916299384371 -0.089847505092620849609375000000 -0.002418800722807645797729492188 -0.004771257750689983367919921875 0 0 0 0 
2418333333.3333334923 0.152551755309104891678018134371 -0.091213122010231018066406250000 -0.002636397723108530044555664062 -0.004780435934662818908691406250 0 0 0 0 
2418500000.0000000000 0.152499780058860806564169365629 -0.092449024319648742675781250000 -0.002748767146840692000148154150 -0.004657797049731016159057617188 0 0 0 0 
2418666666.6666665077 0.152879253029823303222656250000 -0.093525297939777374267578125000 -0.003003355348482728004455566406 -0.004640525672584772109985351562 0 0 0 0 
2418833333.3333334923 0.152788385748863192459268134371 -0.094495169818401336669921875000 -0.003117325250059365792515420068 -0.004691794980317354202270507812 0 0 0 0 
2419000000.0000000000 0.153071254491806002517861884371 -0.095422670245170593261718750000 -0.003295551054179667992832802881 -0.004450127482414245605468750000 0 0 0 0 
2419166666.6666665077 0.153385803103446988204794365629 -0.096086174249649047851562500000 -0.003511631162837148146388388525 -0.004316390026360750198364257812 0 0 0 0 
2419333333.3333334923 0.153430476784706087967080634371 -0.096521869301795959472656250000 -0.003797540673986076874973916162 -0.004278534092009068402762128613 0 0 0 0 
2419500000.0000000000 0.153838068246841402908486884371 -0.097311146557331085205078125000 -0.003896459937095642089843750000 -0.003961617592722178372854902051 0 0 0 0 
2419666666.6666665077 0.154178902506828308105468750000 -0.097615316510200500488281250000 -0.004038014449179173383230878613 -0.003963775001466274261474609375 0 0 0 0 
2419833333.3333334923 0.154038235545158386230468750000 -0.097782276570796966552734375000 -0.004000507295131683349609375000 -0.003838857403025031089782714844 0 0 0 0 
