# Version 1.00
#
freq[Hz];re:Trc1_S11;im:Trc1_S11;re:Trc2_S21;im:Trc2_S21;
2.400000000000000E+009;1.561115235090256E-001;1.113663613796234E-001;-6.327462382614613E-003;4.023846704512835E-003;
2.400166666666667E+009;1.555614620447159E-001;1.090589463710785E-001;-6.213210988789797E-003;4.536291118711233E-003;
2.400333333333334E+009;1.552875339984894E-001;1.069304645061493E-001;-6.148767191916704E-003;4.854616243392229E-003;
2.400500000000000E+009;1.550302058458328E-001;1.041357815265656E-001;-6.008826661854982E-003;5.060663912445307E-003;
2.400666666666667E+009;1.547316014766693E-001;1.016707494854927E-001;-5.639288574457169E-003;5.435606930404902E-003;
2.400833333333334E+009;1.546299159526825E-001;9.856048971414566E-002;-5.482236854732037E-003;5.864475853741169E-003;
2.401000000000000E+009;1.544707119464874E-001;9.578374028205872E-002;-5.047016311436892E-003;6.018245127052069E-003;
2.401166666666667E+009;1.543001681566238E-001;9.276925027370453E-002;-4.829344805330038E-003;6.247594486922026E-003;
2.401333333333334E+009;1.544908434152603E-001;9.001666307449341E-002;-4.422042518854141E-003;6.524434313178062E-003;
2.401500000000000E+009;1.546767354011536E-001;8.686147630214691E-002;-4.102677106857300E-003;6.679131183773279E-003;
2.401666666666667E+009;1.546393334865570E-001;8.382110297679901E-002;-3.767368150874972E-003;6.669748574495316E-003;
2.401833333333334E+009;1.548358947038651E-001;8.080974966287613E-002;-3.400573506951332E-003;6.958735641092062E-003;
2.402000000000000E+009;1.556573659181595E-001;7.775860279798508E-002;-3.203679574653506E-003;6.795202847570181E-003;
2.402166666666667E+009;1.562885493040085E-001;7.510420680046082E-002;-2.962913597002626E-003;7.088019046932459E-003;
2.402333333333334E+009;1.570525765419006E-001;7.190459221601486E-002;-2.671658061444759E-003;7.108063437044621E-003;
2.402500000000000E+009;1.578869968652725E-001;6.919220089912415E-002;-2.361630555242300E-003;6.965397857129574E-003;
2.402666666666667E+009;1.589158624410629E-001;6.651074439287186E-002;-2.288392512127757E-003;7.868873886764050E-003;
2.402833333333334E+009;1.603660583496094E-001;6.390364468097687E-002;-2.510252641513944E-003;6.470675114542246E-003;
2.403000000000000E+009;1.615003496408463E-001;6.134765595197678E-002;-1.263726269826293E-003;6.728798616677523E-003;
2.403166666666667E+009;1.631508469581604E-001;5.889257788658142E-002;-7.669277256354690E-004;6.771644111722708E-003;
2.403333333333334E+009;1.648123711347580E-001;5.635428056120873E-002;-1.022275537252426E-003;7.056205533444881E-003;
2.403500000000000E+009;1.665090620517731E-001;5.409073829650879E-002;-1.330135855823755E-003;6.419023033231497E-003;
2.403666666666667E+009;1.683001369237900E-001;5.198475718498230E-002;-6.398673285730183E-004;6.295358296483755E-003;
2.403833333333334E+009;1.700185984373093E-001;4.976875707507134E-002;-3.666712145786732E-004;7.386010140180588E-003;
2.404000000000000E+009;1.716131120920181E-001;4.791688174009323E-002;-3.764655266422778E-004;6.573722232133150E-003;
2.404166666666667E+009;1.735924035310745E-001;4.616304486989975E-002;-4.424506551004015E-005;6.613350939005613E-003;
2.404333333333334E+009;1.752890497446060E-001;4.440557956695557E-002;2.474668144714087E-004;6.839617155492306E-003;
2.404500000000000E+009;1.769837290048599E-001;4.279734194278717E-002;3.796494565904141E-004;6.688866298645735E-003;
2.404666666666667E+009;1.789907366037369E-001;4.153082519769669E-002;6.252067978493869E-004;6.791588384658098E-003;
2.404833333333334E+009;1.808978021144867E-001;4.028895869851112E-002;7.302993326447904E-004;6.878467742353678E-003;
2.405000000000000E+009;1.822836399078369E-001;3.959881886839867E-002;1.146156108006835E-003;6.639628671109676E-003;
2.405166666666667E+009;1.839922666549683E-001;3.875811025500298E-002;1.271869405172765E-003;6.720928475260735E-003;
2.405333333333334E+009;1.858348399400711E-001;3.807019069790840E-002;1.715159858576953E-003;6.553309038281441E-003;
2.405500000000000E+009;1.872767359018326E-001;3.756390884518623E-002;1.745557761751115E-003;6.502256728708744E-003;
2.405666666666667E+009;1.887919902801514E-001;3.722890093922615E-002;1.992551842704415E-003;6.491045467555523E-003;
2.405833333333334E+009;1.902369111776352E-001;3.708486631512642E-002;2.294583944603801E-003;6.260685622692108E-003;
2.406000000000000E+009;1.915152966976166E-001;3.684213757514954E-002;2.532770857214928E-003;6.220490206032991E-003;
2.406166666666667E+009;1.928083598613739E-001;3.684449195861816E-002;2.667862689122558E-003;6.115673109889031E-003;
2.406333333333334E+009;1.939428895711899E-001;3.708935528993607E-002;2.953388495370746E-003;5.876255687326193E-003;
2.406500000000000E+009;1.949279904365540E-001;3.724231570959091E-002;3.204715903848410E-003;5.632716231048107E-003;
2.406666666666667E+009;1.957892030477524E-001;3.747585788369179E-002;3.206832334399223E-003;5.458362866193056E-003;
2.406833333333334E+009;1.965749710798264E-001;3.765708208084106E-002;3.366677090525627E-003;5.366558674722910E-003;
2.407000000000000E+009;1.970661133527756E-001;3.822508826851845E-002;3.516241442412138E-003;5.156647879630327E-003;
2.407166666666667E+009;1.976197361946106E-001;3.826567530632019E-002;3.668634686619043E-003;5.124285351485014E-003;
2.407333333333334E+009;1.978549808263779E-001;3.874759003520012E-002;3.810307942330837E-003;4.762335680425167E-003;
2.407500000000000E+009;1.980115175247192E-001;3.924983367323875E-002;3.808759618550539E-003;4.700824618339539E-003;
2.407666666666667E+009;1.981809437274933E-001;3.927082568407059E-002;3.781051374971867E-003;4.510377068072557E-003;
2.407833333333334E+009;1.978961676359177E-001;3.955258056521416E-002;4.039411433041096E-003;4.391171038150787E-003;
2.408000000000000E+009;1.979533880949020E-001;3.972699865698814E-002;3.979268949478865E-003;4.372156225144863E-003;
2.408166666666667E+009;1.974188536405563E-001;3.991981595754623E-002;4.006366245448589E-003;4.171615466475487E-003;
2.408333333333334E+009;1.971034258604050E-001;3.978531435132027E-002;4.258377943187952E-003;4.270097706466913E-003;
2.408500000000000E+009;1.963757127523422E-001;3.976500779390335E-002;4.338541999459267E-003;4.128527827560902E-003;
2.408666666666667E+009;1.958173215389252E-001;3.952280431985855E-002;4.217858426272869E-003;3.815382951870561E-003;
2.408833333333334E+009;1.951330602169037E-001;3.917997702956200E-002;4.318255465477705E-003;3.940422087907791E-003;
2.409000000000000E+009;1.943295449018478E-001;3.855485841631889E-002;4.402846563607454E-003;3.806303022429347E-003;
2.409166666666667E+009;1.932462751865387E-001;3.781532496213913E-002;4.382029641419649E-003;3.673770232126117E-003;
2.409333333333334E+009;1.923149228096008E-001;3.712861239910126E-002;4.434487316757441E-003;3.634609049186111E-003;
2.409500000000000E+009;1.911562532186508E-001;3.609903156757355E-002;4.476429894566536E-003;3.458083141595125E-003;
2.409666666666667E+009;1.899450123310089E-001;3.493804112076759E-002;4.531885031610727E-003;3.526509739458561E-003;
2.409833333333334E+009;1.887119263410568E-001;3.378525376319885E-002;4.699856974184513E-003;3.328640945255756E-003;
2.410000000000000E+009;1.875530779361725E-001;3.230354562401772E-002;4.724994301795960E-003;3.380361711606383E-003;
2.410166666666667E+009;1.865006983280182E-001;3.061799891293049E-002;4.905999172478914E-003;3.313987981528044E-003;
2.410333333333334E+009;1.852263659238815E-001;2.903321757912636E-002;4.999101627618074E-003;3.259221324697137E-003;
2.410500000000000E+009;1.841389536857605E-001;2.700429782271385E-002;5.169935990124941E-003;3.149796277284622E-003;
2.410666666666667E+009;1.828171908855438E-001;2.492683567106724E-002;5.330143030732870E-003;3.016809467226267E-003;
2.410833333333334E+009;1.819219589233398E-001;2.277146838605404E-002;5.396340973675251E-003;3.079118439927697E-003;
2.411000000000000E+009;1.809571981430054E-001;2.058190107345581E-002;5.595678929239512E-003;2.858635270968080E-003;
2.411166666666667E+009;1.800538748502731E-001;1.834544911980629E-002;5.506245419383049E-003;2.621517051011324E-003;
2.411333333333334E+009;1.793170273303986E-001;1.578564196825028E-002;5.768912378698587E-003;2.432999201118946E-003;
2.411500000000000E+009;1.786956489086151E-001;1.339888013899326E-002;5.817972123622894E-003;2.292390679940581E-003;
2.411666666666667E+009;1.780842989683151E-001;1.094506587833166E-002;5.944225471466780E-003;2.086978871375322E-003;
2.411833333333334E+009;1.776413321495056E-001;8.571014739573002E-003;5.911461077630520E-003;1.775798154994845E-003;
2.412000000000000E+009;1.774991154670715E-001;5.894109141081572E-003;6.135020405054092E-003;1.701061730273068E-003;
2.412166666666667E+009;1.775731295347214E-001;3.393843071535230E-003;6.165717728435993E-003;1.552248955704272E-003;
2.412333333333334E+009;1.775378137826920E-001;3.850834618788213E-004;6.145629566162825E-003;1.243399805389345E-003;
2.412500000000000E+009;1.780473887920380E-001;-2.173113636672497E-003;6.384134292602539E-003;1.087147276848555E-003;
2.412666666666667E+009;1.781171560287476E-001;-4.989285487681627E-003;6.471501663327217E-003;9.364516590721905E-004;
2.412833333333334E+009;1.788793951272965E-001;-7.404286880046129E-003;6.397977471351624E-003;6.941266474314034E-004;
2.413000000000000E+009;1.794461756944656E-001;-1.015608664602041E-002;6.447369232773781E-003;5.172762321308255E-004;
2.413166666666667E+009;1.802022904157639E-001;-1.246287673711777E-002;6.573683116585016E-003;2.221711765741929E-004;
2.413333333333334E+009;1.812903881072998E-001;-1.509879063814879E-002;6.671089213341475E-003;5.175637124921195E-005;
2.413500000000000E+009;1.821473985910416E-001;-1.782767474651337E-002;6.617967970669270E-003;-4.581644025165588E-004;
2.413666666666667E+009;1.833936423063278E-001;-2.021238021552563E-002;6.793847773224115E-003;-7.086636614985764E-004;
2.413833333333334E+009;1.845491975545883E-001;-2.243928797543049E-002;6.758110132068396E-003;-9.465191978961229E-004;
2.414000000000000E+009;1.856538802385330E-001;-2.465732954442501E-002;6.732553243637085E-003;-1.236440381035209E-003;
2.414166666666667E+009;1.870503872632980E-001;-2.675267308950424E-002;6.476073991507292E-003;-1.509737689048052E-003;
2.414333333333334E+009;1.882414221763611E-001;-2.904921583831310E-002;6.511900108307600E-003;-1.697334577329457E-003;
2.414500000000000E+009;1.897049546241760E-001;-3.073837235569954E-002;6.538934540003538E-003;-1.975237391889095E-003;
2.414666666666667E+009;1.909130662679672E-001;-3.242955356836319E-002;6.314049940556288E-003;-2.162722870707512E-003;
2.414833333333334E+009;1.923381388187408E-001;-3.395124897360802E-002;6.136740557849407E-003;-2.390343230217695E-003;
2.415000000000000E+009;1.936082243919373E-001;-3.563221544027329E-002;6.277325097471476E-003;-2.693047979846597E-003;
2.415166666666667E+009;1.950080543756485E-001;-3.690822795033455E-002;6.095935590565205E-003;-2.903865650296211E-003;
2.415333333333334E+009;1.963916569948196E-001;-3.799927979707718E-002;5.865741521120071E-003;-3.033271990716457E-003;
2.415500000000000E+009;1.976220756769180E-001;-3.891584649682045E-002;5.948463920503855E-003;-3.454388584941626E-003;
2.415666666666667E+009;1.989664435386658E-001;-3.989265114068985E-002;5.744273308664560E-003;-3.615450346842408E-003;
2.415833333333334E+009;2.001146376132965E-001;-4.059606045484543E-002;5.530527792870998E-003;-3.943440970033407E-003;
2.416000000000000E+009;2.011347264051437E-001;-4.119676724076271E-002;5.417121574282646E-003;-4.054568242281675E-003;
2.416166666666667E+009;2.020585387945175E-001;-4.191938415169716E-002;5.279328674077988E-003;-4.346694797277451E-003;
2.416333333333334E+009;2.030108422040939E-001;-4.222845658659935E-002;4.931573290377855E-003;-4.513867199420929E-003;
2.416500000000000E+009;2.036815285682678E-001;-4.251123592257500E-002;4.854497034102678E-003;-4.701368045061827E-003;
2.416666666666667E+009;2.042639404535294E-001;-4.278250783681870E-002;4.477230831980705E-003;-4.958033096045256E-003;
2.416833333333334E+009;2.047097682952881E-001;-4.284124076366425E-002;4.222661722451448E-003;-5.123294424265623E-003;
2.417000000000000E+009;2.052077651023865E-001;-4.282841086387634E-002;4.109976813197136E-003;-5.172308068722487E-003;
2.417166666666667E+009;2.051142752170563E-001;-4.271366447210312E-002;3.709245705977082E-003;-5.393901839852333E-003;
2.417333333333334E+009;2.051330953836441E-001;-4.234188422560692E-002;3.256782423704863E-003;-5.194987636059523E-003;
2.417500000000000E+009;2.050127536058426E-001;-4.231104999780655E-002;3.228974528610706E-003;-5.159134976565838E-003;
2.417666666666667E+009;2.046215683221817E-001;-4.189490899443626E-002;2.895784797146916E-003;-5.253691691905260E-003;
2.417833333333334E+009;2.044275104999542E-001;-4.156437888741493E-002;2.766124438494444E-003;-5.177741404622793E-003;
2.418000000000000E+009;2.038240879774094E-001;-4.110074043273926E-002;2.616662066429853E-003;-5.159836728125811E-003;
2.418166666666667E+009;2.032219171524048E-001;-4.085296764969826E-002;2.469403203576803E-003;-5.197001621127129E-003;
2.418333333333334E+009;2.024289816617966E-001;-4.043717682361603E-002;2.312810625880957E-003;-5.073592998087406E-003;
2.418500000000000E+009;2.014439851045609E-001;-4.036273062229157E-002;2.270249184221029E-003;-5.206759087741375E-003;
2.418666666666667E+009;2.006799578666687E-001;-3.998533636331558E-002;2.108892658725381E-003;-5.252441391348839E-003;
2.418833333333334E+009;1.993311941623688E-001;-3.995168581604958E-002;1.968500902876258E-003;-5.213370546698570E-003;
2.419000000000000E+009;1.981172263622284E-001;-3.983037546277046E-002;1.949462923221290E-003;-5.200151819735766E-003;
2.419166666666667E+009;1.967499107122421E-001;-3.993169218301773E-002;1.812697271816433E-003;-5.274235736578703E-003;
2.419333333333334E+009;1.952720582485199E-001;-4.024418070912361E-002;1.674367231316865E-003;-5.487530026584864E-003;
2.419500000000000E+009;1.938336342573166E-001;-4.029097780585289E-002;1.624397351406515E-003;-5.532034207135439E-003;
2.419666666666667E+009;1.920369416475296E-001;-4.100529849529266E-002;1.393188256770372E-003;-5.570656154304743E-003;
2.419833333333334E+009;1.902984082698822E-001;-4.133433103561401E-002;1.194976968690753E-003;-5.566569045186043E-003;
2.420000000000000E+009;1.886767596006393E-001;-4.208209738135338E-002;1.073099789209664E-003;-5.607512779533863E-003;
2.420166666666667E+009;1.869351416826248E-001;-4.274995252490044E-002;1.045498414896429E-003;-5.781840067356825E-003;
2.420333333333334E+009;1.851809918880463E-001;-4.381440952420235E-002;8.189695654436946E-004;-5.458216648548842E-003;
2.420500000000000E+009;1.832959353923798E-001;-4.496715962886810E-002;5.987578188069165E-004;-5.648822057992220E-003;
2.420666666666667E+009;1.813898831605911E-001;-4.590927064418793E-002;3.123462083749473E-004;-5.786451976746321E-003;
2.420833333333334E+009;1.794608384370804E-001;-4.745586216449738E-002;2.836236672010273E-004;-5.599621217697859E-003;
2.421000000000000E+009;1.778602302074432E-001;-4.877557232975960E-002;-1.182380437967368E-004;-5.615708883851767E-003;
2.421166666666667E+009;1.760807186365128E-001;-5.052670463919640E-002;-7.198287494247779E-005;-5.562288220971823E-003;
2.421333333333334E+009;1.742407381534576E-001;-5.189857631921768E-002;-2.778692287392914E-004;-5.571450572460890E-003;
2.421500000000000E+009;1.727547794580460E-001;-5.383153259754181E-002;-6.294496124610305E-004;-5.539922509342432E-003;
2.421666666666667E+009;1.714049130678177E-001;-5.550517514348030E-002;-6.439124699681997E-004;-5.425538402050734E-003;
2.421833333333334E+009;1.699630320072174E-001;-5.754109099507332E-002;-8.541899151168764E-004;-5.520280450582504E-003;
2.422000000000000E+009;1.686231940984726E-001;-5.958539247512817E-002;-9.605067898519337E-004;-5.389236379414797E-003;
2.422166666666667E+009;1.674605160951614E-001;-6.183344498276711E-002;-1.222165534272790E-003;-5.408098921179771E-003;
2.422333333333334E+009;1.662891358137131E-001;-6.372679024934769E-002;-1.238173223100603E-003;-5.356171168386936E-003;
2.422500000000000E+009;1.653552353382111E-001;-6.571730226278305E-002;-1.575243542902172E-003;-5.287826526910067E-003;
2.422666666666667E+009;1.646323949098587E-001;-6.797379255294800E-002;-1.722173066809773E-003;-5.325141362845898E-003;
2.422833333333334E+009;1.639799773693085E-001;-7.027576863765717E-002;-1.740832696668804E-003;-5.096400622278452E-003;
2.423000000000000E+009;1.633283793926239E-001;-7.244994491338730E-002;-2.045356202870607E-003;-4.961492028087378E-003;
2.423166666666667E+009;1.629357784986496E-001;-7.447188347578049E-002;-2.055908786132932E-003;-4.962829872965813E-003;
2.423333333333334E+009;1.626559048891068E-001;-7.678981125354767E-002;-2.084561157971621E-003;-4.848678596317768E-003;
2.423500000000000E+009;1.626136004924774E-001;-7.885366678237915E-002;-2.387578133493662E-003;-4.821734968572855E-003;
2.423666666666667E+009;1.625260412693024E-001;-8.090755343437195E-002;-2.524541690945625E-003;-4.697288386523724E-003;
2.423833333333334E+009;1.625704765319824E-001;-8.290401846170425E-002;-2.618302125483751E-003;-4.734667483717203E-003;
2.424000000000000E+009;1.627063900232315E-001;-8.504009246826172E-002;-2.616702346131206E-003;-4.488487262278795E-003;
2.424166666666667E+009;1.627752035856247E-001;-8.672425895929337E-002;-2.815458923578262E-003;-4.630853887647390E-003;
2.424333333333334E+009;1.631978750228882E-001;-8.871223777532578E-002;-3.087488934397697E-003;-4.574183374643326E-003;
2.424500000000000E+009;1.637457907199860E-001;-9.048745036125183E-002;-3.021294949576259E-003;-4.459968302398920E-003;
2.424666666666667E+009;1.641374528408051E-001;-9.208621829748154E-002;-3.317984752357006E-003;-4.454733338207007E-003;
2.424833333333334E+009;1.647523194551468E-001;-9.374451637268066E-002;-3.645180724561214E-003;-4.311002325266600E-003;
2.425000000000000E+009;1.653157323598862E-001;-9.504998475313187E-002;-3.709782846271992E-003;-4.162722267210484E-003;
2.425166666666667E+009;1.658585965633392E-001;-9.644406288862228E-002;-3.628201782703400E-003;-3.993219230324030E-003;
2.425333333333334E+009;1.664627343416214E-001;-9.754103422164917E-002;-4.018833860754967E-003;-3.820450743660331E-003;
2.425500000000000E+009;1.671279221773148E-001;-9.872700273990631E-002;-4.061009734869003E-003;-3.645745106041431E-003;
2.425666666666667E+009;1.677489429712296E-001;-9.956648945808411E-002;-4.115220159292221E-003;-3.443471156060696E-003;
2.425833333333334E+009;1.683957725763321E-001;-1.005724892020226E-001;-4.295687191188335E-003;-3.269347129389644E-003;
2.426000000000000E+009;1.689029633998871E-001;-1.010625883936882E-001;-4.261833615601063E-003;-3.007925581187010E-003;
2.426166666666667E+009;1.697480082511902E-001;-1.016612797975540E-001;-4.311784636229277E-003;-2.868189010769129E-003;
2.426333333333334E+009;1.699926406145096E-001;-1.023365929722786E-001;-4.373005591332912E-003;-2.716573886573315E-003;
2.426500000000000E+009;1.705938577651978E-001;-1.026459708809853E-001;-4.432364366948605E-003;-2.471943153068423E-003;
2.426666666666667E+009;1.711508929729462E-001;-1.029403507709503E-001;-4.378888756036758E-003;-2.541591180488467E-003;
2.426833333333334E+009;1.716889888048172E-001;-1.031903475522995E-001;-4.750335123389959E-003;-2.143711084499955E-003;
2.427000000000000E+009;1.719990223646164E-001;-1.034511476755142E-001;-4.366022534668446E-003;-1.999699044972658E-003;
2.427166666666667E+009;1.722380518913269E-001;-1.035445332527161E-001;-4.572289995849133E-003;-1.890832558274269E-003;
2.427333333333334E+009;1.724828779697418E-001;-1.037412211298943E-001;-4.615346901118755E-003;-1.810600515455008E-003;
2.427500000000000E+009;1.725635081529617E-001;-1.038388088345528E-001;-4.666722379624844E-003;-1.550008077174425E-003;
2.427666666666667E+009;1.723645627498627E-001;-1.037959977984428E-001;-4.595143254846335E-003;-1.414736965671182E-003;
2.427833333333334E+009;1.722971647977829E-001;-1.038342639803886E-001;-4.577986896038055E-003;-1.275169779546559E-003;
