# Hz S RI R 
2400000000.0000000000 0.157178118824958801269531250000 0.111868947744369506835937500000 0.003821124089881778197047568213 -0.001745709683746099905726767432 0 0 0 0 
2400166666.6666665077 0.156739130616188104827557481258 0.109646514058113098144531250000 0.003666096832603216171264648438 -0.001901376293972135023829794775 0 0 0 0 
2400333333.3333334923 0.156581044197082491775674384371 0.107602886855602306037660298443 0.003676658729091287092921591650 -0.002301838714629412131068564307 0 0 0 0 
2400500000.0000000000 0.156109049916267395019531250000 0.104967817664146395584268134371 0.003496539313346147970912314307 -0.002568910829722880883457802881 0 0 0 0 
2400666666.6666665077 0.155808910727500887771768134371 0.102554835379123701621928432814 0.003189503448083997206446982275 -0.002826534211635590033290243994 0 0 0 0 
2400833333.3333334923 0.155368536710739107986611884371 0.099613659083843231201171875000 0.003035717643797398047206259619 -0.003045245073735713958740234375 0 0 0 0 
2401000000.0000000000 0.155369371175765991210937500000 0.097025372087955474853515625000 0.002989987144246696992161416162 -0.003243200248107314109802246094 0 0 0 0 
2401166666.6666665077 0.155006647109985407073651231258 0.094056032598018646240234375000 0.002503269817680120901820517432 -0.003434036392718553976771689307 0 0 0 0 
2401333333.3333334923 0.154864042997360201736611884371 0.091175571084022521972656250000 0.002348017878830432891845703125 -0.003520075464621185822727822412 0 0 0 0 
2401500000.0000000000 0.154974251985549899002236884371 0.088001020252704620361328125000 0.002108964603394269943237304688 -0.003545619081705809073207236182 0 0 0 0 
2401666666.6666665077 0.154851272702217102050781250000 0.084963336586952209472656250000 0.001964529044926166968104697119 -0.003640186041593552069423056494 0 0 0 0 
2401833333.3333334923 0.155084043741226196289062500000 0.082171067595481872558593750000 0.001539473887532949013950966943 -0.003655882552266120910644531250 0 0 0 0 
2402000000.0000000000 0.155534848570823697189169365629 0.079257786273956298828125000000 0.001345244701951741955400776440 -0.003517697565257548852207802881 0 0 0 0 
2402166666.6666665077 0.156013369560241699218750000000 0.076389819383621215820312500000 0.001353316125459969043731689453 -0.003437901148572564125061035156 0 0 0 0 
2402333333.3333334923 0.156720653176307705978231865629 0.073428623378276824951171875000 0.001117444713599980094312358325 -0.003473270218819379806518554688 0 0 0 0 
2402500000.0000000000 0.157858788967132596114950615629 0.070692218840122222900390625000 0.001154835568740963935852050781 -0.003319129813462495803833007812 0 0 0 0 
2402666666.6666665077 0.158686399459838894943075615629 0.067997895181179046630859375000 0.000918586796615272760391235352 -0.003477881429716945128199911963 0 0 0 0 
2402833333.3333334923 0.159784182906150790115518134371 0.065270826220512390136718750000 0.000848015421070158481597900391 -0.003369241487234830856323242188 0 0 0 0 
2403000000.0000000000 0.161156833171844510177450615629 0.062427692115306847309152971093 0.000695348775479942560195922852 -0.003402696689590812163112021338 0 0 0 0 
2403166666.6666665077 0.162607297301292391678018134371 0.059987399727106087421457658593 0.000668894557747989892959594727 -0.003262415295466781096217490088 0 0 0 0 
2403333333.3333334923 0.163961276412010192871093750000 0.057391025125980377197265625000 0.000611090858001261949539184570 -0.003126797499135137037989951025 0 0 0 0 
2403500000.0000000000 0.165595054626464788238848768742 0.054899282753467559814453125000 0.000475876149721443707316798077 -0.003327497979626059965846396338 0 0 0 0 
2403666666.6666665077 0.167544603347778292556924384371 0.052686914801597602153737653907 0.000459934119135141426890772687 -0.003414326580241322951075888525 0 0 0 0 
2403833333.3333334923 0.169252678751945495605468750000 0.050530239939689643169362653907 0.000356164644472301006317138672 -0.003196039935573935942408896338 0 0 0 0 
2404000000.0000000000 0.170856744050979586502236884371 0.048250526189804077148437500000 0.000322103354847058708041590558 -0.003380710491910576820373535156 0 0 0 0 
2404166666.6666665077 0.172657072544097900390625000000 0.046682529151439666748046875000 0.000241882415139116401046198712 -0.003182851243764162063598632812 0 0 0 0 
2404333333.3333334923 0.174514070153236389160156250000 0.044666200876235961914062500000 -0.000009844339729170314967632294 -0.003320884425193070931675576318 0 0 0 0 
2404500000.0000000000 0.176379635930061312576455634371 0.042956631630659103393554687500 -0.000017140766431111839005743333 -0.003189840121194719834568642725 0 0 0 0 
2404666666.6666665077 0.178008630871772793868856865629 0.041468661278486251831054687500 0.000110438304545823498211722102 -0.003285551443696022033691406250 0 0 0 0 
2404833333.3333334923 0.180067211389541598220986884371 0.040163021534681320190429687500 -0.000305684981867671012878417969 -0.003358350135385990142822265625 0 0 0 0 
2405000000.0000000000 0.181608080863952608963174384371 0.039187852293252951885182966407 -0.000402576755732297897338867188 -0.003253051312640308900120400537 0 0 0 0 
2405166666.6666665077 0.183392673730850191970986884371 0.038214690983295440673828125000 -0.000398562347982078790664672852 -0.003405707655474544005153036963 0 0 0 0 
2405333333.3333334923 0.185003787279129000564736884371 0.037518929690122597431223283593 -0.000589782895985990762710571289 -0.003256196388974785804748535156 0 0 0 0 
2405500000.0000000000 0.186853542923927307128906250000 0.036865137517452239990234375000 -0.000733763736207038164138793945 -0.003398402361199260191676474463 0 0 0 0 
2405666666.6666665077 0.188392058014869689941406250000 0.036421380937099456787109375000 -0.000827285053674131631851196289 -0.003316044807434082031250000000 0 0 0 0 
2405833333.3333334923 0.190016075968742398361044365629 0.036249596625566482543945312500 -0.000924702791962772607803344727 -0.003166163805872201919555664062 0 0 0 0 
2406000000.0000000000 0.191321581602096613128338731258 0.035855345427989959716796875000 -0.001110059558413923003553080981 -0.003183411899954081015345908057 0 0 0 0 
2406166666.6666665077 0.192685097455978393554687500000 0.035724341869354248046875000000 -0.001395851024426520087598491138 -0.003162757260724902153015136719 0 0 0 0 
2406333333.3333334923 0.194030240178108187576455634371 0.035825818777084350585937500000 -0.001306372694671154022216796875 -0.003033399349078536033630371094 0 0 0 0 
2406500000.0000000000 0.195142596960067804534588731258 0.035868391394615173339843750000 -0.001356257940642535903333354419 -0.002970048924908041954040527344 0 0 0 0 
2406666666.6666665077 0.196107327938079806228799384371 0.035827718675136573101003278907 -0.001460093189962208054186176831 -0.002840772969648241996765136719 0 0 0 0 
2406833333.3333334923 0.196991115808486910720986884371 0.036133833229541778564453125000 -0.001614375854842365004895854419 -0.002677690936252474784851074219 0 0 0 0 
2407000000.0000000000 0.197647228837013189117755018742 0.036516927182674407958984375000 -0.001503894804045557975769042969 -0.002793065737932920889613486182 0 0 0 0 
2407166666.6666665077 0.198468133807182312011718750000 0.036606069654226303100585937500 -0.001674392726272345022914267432 -0.002523774048313498930690146338 0 0 0 0 
2407333333.3333334923 0.198757439851760892013388115629 0.037018418312072746967356096093 -0.001710794866085052923915243994 -0.002509956713765860037562704932 0 0 0 0 
2407500000.0000000000 0.199052989482879610916299384371 0.037441194057464599609375000000 -0.001622277428396045944811176831 -0.002499751048162579970118857275 0 0 0 0 
2407666666.6666665077 0.199449136853218106368856865629 0.037503156810998916625976562500 -0.001731196884065866904017783057 -0.002339308150112628936767578125 0 0 0 0 
2407833333.3333334923 0.199140742421150207519531250000 0.037843037396669387817382812500 -0.001729708630591630935668945312 -0.002356380457058548927307128906 0 0 0 0 
2408000000.0000000000 0.199218854308128412444744981258 0.037971254438161849975585937500 -0.001786234905011951923370361328 -0.002329940907657146887538290869 0 0 0 0 
2408166666.6666665077 0.198940619826316805740518134371 0.038089029490947723388671875000 -0.001789575908333062908769917065 -0.002167265396565198898315429688 0 0 0 0 
2408333333.3333334923 0.198646485805511502364950615629 0.038005441427230841899831403907 -0.001873441739007831053492880713 -0.002256928710266948179957724463 0 0 0 0 
2408500000.0000000000 0.198026180267334012130575615629 0.038063842803239822387695312500 -0.002004288602620362801792763818 -0.002146074315533041954040527344 0 0 0 0 
2408666666.6666665077 0.197395920753479003906250000000 0.037946894764900207519531250000 -0.001836471608839929103851318359 -0.001950909849256277084350585938 0 0 0 0 
2408833333.3333334923 0.196896165609359713455361884371 0.037541393190622329711914062500 -0.001812324393540621020673442310 -0.001986828632652759985682822119 0 0 0 0 
2409000000.0000000000 0.195929944515228299239950615629 0.037104234099388122558593750000 -0.002115090843290090994593954932 -0.001927139004692435047746967847 0 0 0 0 
2409166666.6666665077 0.194947451353073092361611884371 0.036545027047395713115651716407 -0.001830123015679419040679931641 -0.001741317100822926001307822119 0 0 0 0 
2409333333.3333334923 0.194076880812644986251669365629 0.035886637866497039794921875000 -0.001930953352712095000623393481 -0.001717387931421398899675678784 0 0 0 0 
2409500000.0000000000 0.192770108580589294433593750000 0.035018857568502433086354841407 -0.001858426025137305042864155347 -0.001867837505415081977844238281 0 0 0 0 
2409666666.6666665077 0.191732197999954195877236884371 0.034022841602563858032226562500 -0.001917932415381073951721191406 -0.001737261773087084076525044019 0 0 0 0 
2409833333.3333334923 0.190378606319427490234375000000 0.032915852963924407958984375000 -0.002064126776531339125392294775 -0.001835760544054209969164204175 0 0 0 0 
2410000000.0000000000 0.189320921897888211349325615629 0.031567089259624481201171875000 -0.002089697401970624923706054688 -0.001847775885835289955139160156 0 0 0 0 
2410166666.6666665077 0.187848955392837496658486884371 0.030037373304367068899134451954 -0.002075579017400742010829306494 -0.001867154031060636043548583984 0 0 0 0 
2410333333.3333334923 0.186947077512741088867187500000 0.028577283024787899362584298046 -0.002208976773545145988464355469 -0.001794598763808608055114746094 0 0 0 0 
2410500000.0000000000 0.185669973492622403243856865629 0.027022156864404678344726562500 -0.002206931822001934051513671875 -0.001897313515655695958378457178 0 0 0 0 
2410666666.6666665077 0.184588551521301297286825615629 0.024791589006781581533411795704 -0.002278408734127879142761230469 -0.001990877790376543998718261719 0 0 0 0 
2410833333.3333334923 0.183510646224021911621093750000 0.022920005023479461669921875000 -0.002555277431383728981018066406 -0.001847953884862362904789589990 0 0 0 0 
2411000000.0000000000 0.182551741600036593338174384371 0.020772250369191169738769531250 -0.002558357082307339148280478369 -0.001839190372265874905827187646 0 0 0 0 
2411166666.6666665077 0.181461706757545498946981865629 0.018697611987590789794921875000 -0.002635220531374216079711914062 -0.001647640485316514968872070312 0 0 0 0 
2411333333.3333334923 0.180656641721725491622763115629 0.016337502747774120676060860546 -0.002726657083258032798767089844 -0.001459104474633931896807026440 0 0 0 0 
2411500000.0000000000 0.179844498634338406661825615629 0.013929807581007480621337890625 -0.002879155101254581971409463037 -0.001446529990062118010279990088 0 0 0 0 
2411666666.6666665077 0.179398134350776700118856865629 0.011593906208872800309150896680 -0.002873324323445558981654501807 -0.001298586837947369055507040869 0 0 0 0 
2411833333.3333334923 0.178596422076225308517294365629 0.009187374264001846313476562500 -0.003099321620538831190821982275 -0.001271599903702735900878906250 0 0 0 0 
2412000000.0000000000 0.178526103496551513671875000000 0.006254389882087708386892987988 -0.003030683379620314078090048682 -0.001090005971491337039350200122 0 0 0 0 
2412166666.6666665077 0.178388580679893493652343750000 0.003860336262732743783238076318 -0.003134593134745955900904990088 -0.000979451695457100868225097656 0 0 0 0 
2412333333.3333334923 0.178253799676895113845986884371 0.001330206985585391955134726416 -0.003006498329341412024257040869 -0.000903910084161907434463500977 0 0 0 0 
2412500000.0000000000 0.178364738821983309646768134371 -0.001354474807158112959620810400 -0.003378647845238447189331054688 -0.000722142925951629877090454102 0 0 0 0 
2412666666.6666665077 0.178588435053825406173544365629 -0.003972082398831844329833984375 -0.003231428097933530807495117188 -0.000563519017305225133895874023 0 0 0 0 
2412833333.3333334923 0.179213970899581909179687500000 -0.006737359333783388137817382812 -0.003199458355084062056300497900 -0.000413829722674563472897130145 0 0 0 0 
2413000000.0000000000 0.179777354001998901367187500000 -0.009271338582038879394531250000 -0.003239170648157597021815634619 -0.000378075084881856983334141864 0 0 0 0 
2413166666.6666665077 0.180245250463485690017861884371 -0.011730466969311240804652030079 -0.003239879850298165841343545068 -0.000173477092175744501039227896 0 0 0 0 
2413333333.3333334923 0.181332424283027704436932481258 -0.014486652798950670414934727148 -0.003404070390388369993922568213 -0.000000443682750983498408459127 0 0 0 0 
2413500000.0000000000 0.181902423501014709472656250000 -0.017077751457691189157506173046 -0.003285232465714215798618935693 0.000091060603153891861438751221 0 0 0 0 
2413666666.6666665077 0.183235645294189508636151231258 -0.019445352256298068654993826954 -0.003223209641873836951014853369 0.000165383637067861909240168439 0 0 0 0 
2413833333.3333334923 0.184209942817687988281250000000 -0.021993303671479228628138358204 -0.003287005703896284103393554688 0.000250822107773274183273315430 0 0 0 0 
2414000000.0000000000 0.185361728072166387359942518742 -0.024314792826771739614466483204 -0.003056718502193688912632607568 0.000335975462803617119789123535 0 0 0 0 
2414166666.6666665077 0.186528474092483492752236884371 -0.026374561712145808828333670704 -0.003185831941664218902587890625 0.000228435936151072410031995230 0 0 0 0 
2414333333.3333334923 0.187850907444953890701455634371 -0.028812581673264500009556954296 -0.003091909456998109817504882812 0.000613879295997321605682373047 0 0 0 0 
2414500000.0000000000 0.189044117927551297286825615629 -0.030596924945712089538574218750 -0.003136866725981235937831259619 0.000622249383013695478439331055 0 0 0 0 
2414666666.6666665077 0.190324679017067011077557481258 -0.032385792583227157592773437500 -0.003134396625682712034938193213 0.000705911486875265836715698242 0 0 0 0 
2414833333.3333334923 0.191693603992462213714276231258 -0.034232124686241149902343750000 -0.003009563544765114784240722656 0.000838368141558021306991577148 0 0 0 0 
2415000000.0000000000 0.192905455827713012695312500000 -0.035845171660184860229492187500 -0.003008217317983508110046386719 0.000898606958799064159393310547 0 0 0 0 
2415166666.6666665077 0.194367140531539889236611884371 -0.037118989974260330200195312500 -0.002988471882417798042297363281 0.001018123002722858948948525537 0 0 0 0 
2415333333.3333334923 0.195800334215164212325888115629 -0.038262397050857537006418596093 -0.002989078639075160026550292969 0.001162233529612421989440917969 0 0 0 0 
2415500000.0000000000 0.197044447064399691482705634371 -0.039311192929744720458984375000 -0.002844885457307099862339638818 0.001268015126697719097137451172 0 0 0 0 
2415666666.6666665077 0.198488920927047701736611884371 -0.040396742522716522216796875000 -0.002915546298027039007899618994 0.001308935577981173992156982422 0 0 0 0 
2415833333.3333334923 0.199545055627822903732138115629 -0.041195437312126159667968750000 -0.002915786113590002059936523438 0.001376317231915890953661274487 0 0 0 0 
2416000000.0000000000 0.200583443045616205413494981258 -0.041916154325008392333984375000 -0.002744404133409262137172079932 0.001578983850777148983599018628 0 0 0 0 
2416166666.6666665077 0.201707690954208401779013115629 -0.042696882039308547973632812500 -0.002734872745350002808811806787 0.001636516652069986083387065356 0 0 0 0 
2416333333.3333334923 0.202723369002342196365518134371 -0.043061476200819022441823591407 -0.002750770887359977202174521338 0.001780881313607097105738974463 0 0 0 0 
2416500000.0000000000 0.203433707356452886383380018742 -0.043452870100736618041992187500 -0.002445937367156147956848144531 0.002040530322119594053981161963 0 0 0 0 
2416666666.6666665077 0.204087689518928500076455634371 -0.043838340789079673076589216407 -0.002344861160963774161097861182 0.002038735197857021851780556787 0 0 0 0 
2416833333.3333334923 0.204496070742607088943643134371 -0.043870739638805389404296875000 -0.002291199052706360816955566406 0.002247663913294672966003417969 0 0 0 0 
2417000000.0000000000 0.205112829804420498946981865629 -0.044066760689020156860351562500 -0.002053906442597507996800088037 0.002229758538305758996250771631 0 0 0 0 
2417166666.6666665077 0.205123394727706909179687500000 -0.043839115649461753154714216407 -0.001977855572476983070373535156 0.002324647037312387986424111475 0 0 0 0 
2417333333.3333334923 0.205275207757949801345986884371 -0.043591793626546859741210937500 -0.001816201140172779993769980322 0.002322181593626738028285361182 0 0 0 0 
2417500000.0000000000 0.205258443951606805999432481258 -0.043392255902290337299387346093 -0.001701900153420865969416952979 0.002114457078278065161464072119 0 0 0 0 
2417666666.6666665077 0.204930648207664489746093750000 -0.043123520910739898681640625000 -0.001583955483511090061785053784 0.002132251160219312147853232275 0 0 0 0 
2417833333.3333334923 0.204931184649467496017294365629 -0.042815502732992172241210937500 -0.001511906040832400105120014722 0.002036596648395061926600790869 0 0 0 0 
2418000000.0000000000 0.204525545239448602874432481258 -0.042365118861198432231862653907 -0.001392431324347854094264365088 0.002018665429204701943638466943 0 0 0 0 
2418166666.6666665077 0.203843444585800198654013115629 -0.042014133185148239135742187500 -0.001386422780342400074005126953 0.002049127826467155976536416162 0 0 0 0 
2418333333.3333334923 0.203219801187515286544638115629 -0.041585247963666922832448591407 -0.001581314252689480998395610278 0.001858634408563375906703329932 0 0 0 0 
2418500000.0000000000 0.202380493283271789550781250000 -0.041359614580869681621511091407 -0.001472401781938970088958740234 0.001973432255908846855163574219 0 0 0 0 
2418666666.6666665077 0.201573520898818997482138115629 -0.040922798216342932964284528907 -0.001471608411520719961879111182 0.001921872375532984950421977466 0 0 0 0 
2418833333.3333334923 0.200549438595771789550781250000 -0.040992401540279388427734375000 -0.001628076308406889004948281396 0.002222135663032532171962118994 0 0 0 0 
2419000000.0000000000 0.199197575449943486969317518742 -0.040857069194316857074777971093 -0.001723148394376039938685751807 0.002167279133573174910304404150 0 0 0 0 
2419166666.6666665077 0.198044165968894986251669365629 -0.040756043046712882305104841407 -0.001631866092793643908259726416 0.002281049266457558111903525244 0 0 0 0 
2419333333.3333334923 0.196711301803588894943075615629 -0.040984336286783218383789062500 -0.001648340257816017107722617041 0.002492883941158651871922158350 0 0 0 0 
2419500000.0000000000 0.195175424218177795410156250000 -0.041148304939270019531250000000 -0.001721842330880462906481098706 0.002525961492210627035853720557 0 0 0 0 
2419666666.6666665077 0.193414404988288907150106865629 -0.041547559201717376708984375000 -0.001478898921050131104112934644 0.002745994366705418066737509619 0 0 0 0 
2419833333.3333334923 0.191815510392188998123330634371 -0.042084533721208572387695312500 -0.001385693321935832934138632666 0.002814796753227711157557822119 0 0 0 0 
