# Hz S RI R 50
2400000000.0000000000 0.169357731938362093826455634371 0.045974012464284896850585937500 0.002042567357420920892002724756 -0.001660924754105507893803261865 0 0 0 0 
2400166666.6666665077 0.170478329062461908538494981258 0.044897418469190597534179687500 0.002232249826192855834960937500 -0.001885616686195134899736713940 0 0 0 0 
2400333333.3333334923 0.171458497643470791915731865629 0.043802604079246520996093750000 0.002203721785917878150939941406 -0.001941254828125237984898232568 0 0 0 0 
2400500000.0000000000 0.172411561012268094161825615629 0.042860932648181922222097028907 0.002201120601966977119445800781 -0.002179466886445879936218261719 0 0 0 0 
2400666666.6666665077 0.173264801502227810958700615629 0.041921522468328482891042341407 0.002311085816472768783569335938 -0.002129807602614163918736123193 0 0 0 0 
2400833333.3333334923 0.174255326390266390701455634371 0.041149072349071502685546875000 0.002409704029560089111328125000 -0.002474024659022688865661621094 0 0 0 0 
2401000000.0000000000 0.175201967358589200118856865629 0.040211066603660576557199846093 0.002430091844871640205383300781 -0.002665379084646701812744140625 0 0 0 0 
2401166666.6666665077 0.175837978720665005782919365629 0.039642527699470520019531250000 0.002348076086491345925572060693 -0.002831301651895045800449990381 0 0 0 0 
2401333333.3333334923 0.176457643508911105056924384371 0.038952048867940902709960937500 0.002131832065060735182521201025 -0.003164131660014390945434570312 0 0 0 0 
2401500000.0000000000 0.177304431796073913574218750000 0.038212105631828308105468750000 0.002279138192534447149989462744 -0.003388313110917807059047079932 0 0 0 0 
2401666666.6666665077 0.178006201982498196700888115629 0.037779211997985839843750000000 0.002307380083948373794555664062 -0.003546320600435138182399130713 0 0 0 0 
2401833333.3333334923 0.178463026881218012054119981258 0.037215340882539749145507812500 0.002147311344742774963378906250 -0.003587282495573163032531738281 0 0 0 0 
2402000000.0000000000 0.178813666105270413497763115629 0.036531671881675720214843750000 0.001673110760748385949375771631 -0.003895719535648822784423828125 0 0 0 0 
2402166666.6666665077 0.179183721542358398437500000000 0.036008663475513458251953125000 0.001595786772668362097499228369 -0.004048265982419252395629882812 0 0 0 0 
2402333333.3333334923 0.179508656263351412674111884371 0.035392694175243377685546875000 0.001508663641288876967189169775 -0.004400267731398344039916992188 0 0 0 0 
2402500000.0000000000 0.179935693740844698806924384371 0.034867264330387122417409528907 0.001379435416311026053187704932 -0.004534324631094933423514081738 0 0 0 0 
2402666666.6666665077 0.180065855383873013595419365629 0.034374475479125976562500000000 0.000975469418335705995559692383 -0.004696550779044628143310546875 0 0 0 0 
2402833333.3333334923 0.180128067731857299804687500000 0.033702824264764792705495466407 0.000775682681705802679061889648 -0.004767589271068572998046875000 0 0 0 0 
2403000000.0000000000 0.180202424526214599609375000000 0.032885119318962097167968750000 0.000642657862044870853424072266 -0.004837543237954378128051757812 0 0 0 0 
2403166666.6666665077 0.180054873228073092361611884371 0.032143503427505493164062500000 0.000241653702687472105026245117 -0.005072344560176134109497070312 0 0 0 0 
2403333333.3333334923 0.180090278387069702148437500000 0.031417246907949447631835937500 -0.000036223911592969670891761780 -0.005000405013561248779296875000 0 0 0 0 
2403500000.0000000000 0.179619148373603793045205634371 0.030503595247864719736119454296 -0.000369369692634791081577855243 -0.005073738750070334348196698926 0 0 0 0 
2403666666.6666665077 0.179545402526855496505575615629 0.029266910627484321594238281250 -0.000574233243241906166076660156 -0.004858059342950583371634198926 0 0 0 0 
2403833333.3333334923 0.179350271821022005935830634371 0.028433490544557571411132812500 -0.001000276883132755973218608325 -0.005010770168155431747436523438 0 0 0 0 
2404000000.0000000000 0.178817674517631503006143134371 0.027421845123171809804896170704 -0.001194483716972172043443989331 -0.004850036930292844772338867188 0 0 0 0 
2404166666.6666665077 0.178309038281440707107705634371 0.026050860062241550790806954296 -0.001524403109215199947357177734 -0.004813833627849817276000976562 0 0 0 0 
2404333333.3333334923 0.177677303552627591232138115629 0.025002328678965568542480468750 -0.001680119195953011946437216650 -0.004548663739114999771118164062 0 0 0 0 
2404500000.0000000000 0.177344799041748102386151231258 0.023509168997406959533691406250 -0.001896267640404402992845844800 -0.004708317574113607406616210938 0 0 0 0 
2404666666.6666665077 0.176687404513359097579794365629 0.022232251241803169250488281250 -0.002054527169093490080592490088 -0.004494203720241785049438476562 0 0 0 0 
2404833333.3333334923 0.176186457276344299316406250000 0.020706860348582271230677420704 -0.002288471441715956167933798682 -0.004159752279520034790039062500 0 0 0 0 
2405000000.0000000000 0.175621673464775113204794365629 0.019204894080758101726491560157 -0.002547997049987316131591796875 -0.004013002384454011917114257812 0 0 0 0 
2405166666.6666665077 0.175108462572097806075888115629 0.017737077549099918710728829296 -0.002592388773337007002589560400 -0.003852472873404622077941894531 0 0 0 0 
2405333333.3333334923 0.174934044480323791503906250000 0.015918325632810589181920235546 -0.002721571829169989065883017432 -0.003853195346891880035400390625 0 0 0 0 
2405500000.0000000000 0.174188196659088107010049384371 0.014263619668781760824183280079 -0.002872789744287728829624795068 -0.003565259044989943938014365088 0 0 0 0 
2405666666.6666665077 0.173915728926658602615518134371 0.012485220097005370748499686329 -0.002731576329097152189967490088 -0.003402958856895565986633300781 0 0 0 0 
2405833333.3333334923 0.173276558518409701248330634371 0.010866828262805940455426600977 -0.002782136434689164161682128906 -0.003299179952591658072230673682 0 0 0 0 
2406000000.0000000000 0.173098370432853698730468750000 0.008777322247624397277832031250 -0.002954055089503527121302939307 -0.003150493837893009185791015625 0 0 0 0 
2406166666.6666665077 0.172712162137031610686932481258 0.006990423891693353652954101562 -0.002897437661886215209960937500 -0.003148167161270976066589355469 0 0 0 0 
2406333333.3333334923 0.172692000865936307052450615629 0.004986661951988936337942792676 -0.002993303583934903144836425781 -0.003120068926364182992222451318 0 0 0 0 
2406500000.0000000000 0.172415673732757596114950615629 0.002859285101294517950770712744 -0.003287659259513020949122763525 -0.002986081875860691070556640625 0 0 0 0 
2406666666.6666665077 0.172181576490402193924111884371 0.000876955571584403514862060547 -0.003095637541264296011683798682 -0.002947340486571193175074911963 0 0 0 0 
2406833333.3333334923 0.172225072979927090743856865629 -0.001297376817092299895045615088 -0.003280320903286337852478027344 -0.002809923840686678886413574219 0 0 0 0 
2407000000.0000000000 0.172236248850822504241619981258 -0.003350565442815423011779785156 -0.003252228954806923866271972656 -0.002779092872515321211573935400 0 0 0 0 
2407166666.6666665077 0.172601521015167208572549384371 -0.005432484671473503112792968750 -0.003448009258136152787449502100 -0.002714235102757811980006552588 0 0 0 0 
2407333333.3333334923 0.172719657421112088302450615629 -0.007524013984948396682739257812 -0.003636552486568688912632607568 -0.002685920801013708114624023438 0 0 0 0 
2407500000.0000000000 0.172807604074478204925213731258 -0.009824473410844802856445312500 -0.003799814963713287873509072412 -0.002597111510112882094142294775 0 0 0 0 
2407666666.6666665077 0.173097252845764187911825615629 -0.011829950846731659280797188671 -0.003954214509576559066772460938 -0.002308096038177609009983681787 0 0 0 0 
2407833333.3333334923 0.173442989587783813476562500000 -0.014030286110937600571602068555 -0.004049072507768869400024414062 -0.002261950401589273972752236475 0 0 0 0 
2408000000.0000000000 0.173723891377449007888955634371 -0.016123894602060321462611014454 -0.004156257957220078382010175488 -0.002139508491382002830505371094 0 0 0 0 
2408166666.6666665077 0.174258723855018587967080634371 -0.018032170832157138479212576954 -0.004319584462791681289672851562 -0.001764741726219654083251953125 0 0 0 0 
2408333333.3333334923 0.174706503748893710037393134371 -0.020020559430122378957728201954 -0.004386677406728267669677734375 -0.001557370182126760916468954932 0 0 0 0 
2408500000.0000000000 0.175049811601638793945312500000 -0.022126728668808940542200858204 -0.004352393094450235366821289062 -0.001354538486339152076123881763 0 0 0 0 
2408666666.6666665077 0.175412982702255304534588731258 -0.023961944505572319030761718750 -0.004423745907843112945556640625 -0.001143684843555093028424907153 0 0 0 0 
2408833333.3333334923 0.175811886787414606292401231258 -0.025752261281013488769531250000 -0.004614548757672309875488281250 -0.000785783166065812110900878906 0 0 0 0 
2409000000.0000000000 0.176168039441108703613281250000 -0.027250492945313450204869454296 -0.004421907477080821990966796875 -0.000616349163465201854705810547 0 0 0 0 
2409166666.6666665077 0.176712855696678189376669365629 -0.028806921094655990600585937500 -0.004429848864674568176269531250 -0.000571355049032717943191528320 0 0 0 0 
2409333333.3333334923 0.177185088396072387695312500000 -0.030260033905506130563756173046 -0.004403297789394856366629316113 -0.000288510927930474281311035156 0 0 0 0 
2409500000.0000000000 0.177607968449592590332031250000 -0.031626764684915542602539062500 -0.004294520709663630399222089551 -0.000157001923071220490053453989 0 0 0 0 
2409666666.6666665077 0.178079515695571899414062500000 -0.032679922878742218017578125000 -0.004326719325035811337942792676 0.000147024795296602005332392560 0 0 0 0 
2409833333.3333334923 0.178441226482391412933026231258 -0.033838976174592971801757812500 -0.004111167974770069122314453125 0.000223236536839976906776428223 0 0 0 0 
2410000000.0000000000 0.179060488939285306075888115629 -0.034709371626377112651784528907 -0.004146238323301076889038085938 0.000225957701331935795858660287 0 0 0 0 
2410166666.6666665077 0.179440975189209012130575615629 -0.035633411258459091186523437500 -0.004140002653002738952636718750 0.000365927786333486383587437762 0 0 0 0 
2410333333.3333334923 0.180011317133903503417968750000 -0.036293547600507743144948591407 -0.003892342792823911146876669775 0.000543557049240916967391967773 0 0 0 0 
2410500000.0000000000 0.180539652705192593673544365629 -0.037091072648763656616210937500 -0.003891850821673870086669921875 0.000566204485949128866195678711 0 0 0 0 
2410666666.6666665077 0.180906340479850796798544365629 -0.038029298186302191997487653907 -0.003893765853717923164367675781 0.000691286113578826189041137695 0 0 0 0 
2410833333.3333334923 0.181267067790031405349893134371 -0.038271538913249969482421875000 -0.003818270750343800024745322119 0.000881400133948773254095876428 0 0 0 0 
2411000000.0000000000 0.181565046310424804687500000000 -0.038745164871215820312500000000 -0.003789320820942521095275878906 0.000875822501257061958312988281 0 0 0 0 
2411166666.6666665077 0.181923121213912991622763115629 -0.039464715868234627460520158593 -0.003729536663740872903111123193 0.000917692901566624641418457031 0 0 0 0 
2411333333.3333334923 0.182081058621406610686932481258 -0.039887066930532462383229841407 -0.003728078212589025931117392432 0.001096907886676490090013813550 0 0 0 0 
2411500000.0000000000 0.182049080729484613616619981258 -0.040250208228826522827148437500 -0.003595553804188967184779501807 0.001142977853305638053296733325 0 0 0 0 
2411666666.6666665077 0.182153567671775790115518134371 -0.040683705359697341918945312500 -0.003768035676330327987670898438 0.001132789300754665894749306787 0 0 0 0 
2411833333.3333334923 0.182049497961998013595419365629 -0.040870178490877151489257812500 -0.003574409987777471976039267432 0.001263505662791430950164794922 0 0 0 0 
2412000000.0000000000 0.182237640023231506347656250000 -0.041279103606939322734792341407 -0.003490488044917583899257040869 0.001542654237709939913508749854 0 0 0 0 
2412166666.6666665077 0.181745424866676302810830634371 -0.041677281260490417480468750000 -0.003366217948496342139003134619 0.001527457381598650975468300928 0 0 0 0 
2412333333.3333334923 0.181472212076187106033486884371 -0.041946776211261749267578125000 -0.003470195224508643150329589844 0.001693294034339487986323691260 0 0 0 0 
2412500000.0000000000 0.180967614054679898361044365629 -0.042141079902648932720143903907 -0.003224378218874334855320595850 0.001530782436020672104479145581 0 0 0 0 
2412666666.6666665077 0.180643111467361505706463731258 -0.042740434408187873149831403907 -0.003357755253091454939601279150 0.001677496125921607017517089844 0 0 0 0 
2412833333.3333334923 0.179708302021026611328125000000 -0.043047185987234122539479841407 -0.003316582180559635162353515625 0.001635669381357729001286172021 0 0 0 0 
2413000000.0000000000 0.179145693778991699218750000000 -0.043434079736471183086354841407 -0.003443586640059947967529296875 0.001903852564282715103746723706 0 0 0 0 
2413166666.6666665077 0.178199425339698791503906250000 -0.043771781027317047119140625000 -0.003148395800963044166564941406 0.001961266156286001205444335938 0 0 0 0 
2413333333.3333334923 0.177004039287567110916299384371 -0.044107686728239059448242187500 -0.003138429950922728018519736182 0.002105898456647992134094238281 0 0 0 0 
2413500000.0000000000 0.176185920834541293045205634371 -0.044586252421140670776367187500 -0.003079652087762951850891113281 0.002186613855883479118347167969 0 0 0 0 
2413666666.6666665077 0.175393804907798794845419365629 -0.045145940035581588745117187500 -0.003191020339727402167079306494 0.002191215986385941939112997900 0 0 0 0 
2413833333.3333334923 0.174147322773933410644531250000 -0.045659713447093956684152971093 -0.003030349733307958082911826025 0.002267274772748351097106933594 0 0 0 0 
2414000000.0000000000 0.172890514135360690017861884371 -0.046295128762722022319753278907 -0.002940233796834946112391806494 0.002295346930623054938075400244 0 0 0 0 
2414166666.6666665077 0.171913862228393610198651231258 -0.046875499188899986957590471093 -0.002970957895740867094752646338 0.002441637916490436033961630713 0 0 0 0 
2414333333.3333334923 0.170582264661788912674111884371 -0.047908749431371688842773437500 -0.003005252685397862954380654443 0.002408823929727077917811728369 0 0 0 0 
2414500000.0000000000 0.169398143887519808670205634371 -0.048651430755853652954101562500 -0.003003957914188503785374306787 0.002616756362840532822849892725 0 0 0 0 
2414666666.6666665077 0.168268322944641113281250000000 -0.049646377563476562500000000000 -0.002787078730762004852294921875 0.002580338856205344200134277344 0 0 0 0 
2414833333.3333334923 0.166982486844062805175781250000 -0.050738226622343063354492187500 -0.002828544471412897109985351562 0.002792136045172810988185263525 0 0 0 0 
2415000000.0000000000 0.165768042206764193435830634371 -0.051818322390317916870117187500 -0.002776947105303407149073935400 0.002803373849019407792332314600 0 0 0 0 
2415166666.6666665077 0.164386183023452786544638115629 -0.053067855536937706684152971093 -0.002725929254665970802307128906 0.002916430821642280058619833838 0 0 0 0 
2415333333.3333334923 0.163272768259048489669638115629 -0.054512448608875281597097028907 -0.002741657895967363877537392725 0.002984221791848539872410439600 0 0 0 0 
2415500000.0000000000 0.162137284874916104415731865629 -0.055953074246644966815988908593 -0.002695465693250298933741904150 0.003138002939522265954258584131 0 0 0 0 
2415666666.6666665077 0.160952195525169400314169365629 -0.057421401143074042583425153907 -0.002666681772097945213317871094 0.003210720373317598862888955225 0 0 0 0 
2415833333.3333334923 0.159853845834732111175213731258 -0.059002555906772606586496721093 -0.002515742322430015043971396338 0.003320361720398067994358681787 0 0 0 0 
2416000000.0000000000 0.158749967813491793533486884371 -0.060800366103649139404296875000 -0.002599658677354454994201660156 0.003480835817754269079921103369 0 0 0 0 
2416166666.6666665077 0.157736003398895291427450615629 -0.062553554773330688476562500000 -0.002496219007298349900486611475 0.003749296301975845856907509912 0 0 0 0 
2416333333.3333334923 0.156721308827400207519531250000 -0.064290344715118408203125000000 -0.002234525745734571976902627100 0.003783864667639135880711220850 0 0 0 0 
2416500000.0000000000 0.155752092599868802169638115629 -0.066204741597175598144531250000 -0.002253635087981820106506347656 0.003925477620214223861694335938 0 0 0 0 
2416666666.6666665077 0.154908567667007501800213731258 -0.068129837512969970703125000000 -0.002083803527057170867919921875 0.004109824076294898986816406250 0 0 0 0 
2416833333.3333334923 0.154132828116416903396768134371 -0.070140339434146881103515625000 -0.001935660024173557975171733325 0.004156933631747961044311523438 0 0 0 0 
2417000000.0000000000 0.153291225433349609375000000000 -0.072147116065025329589843750000 -0.001691936282441020011901855469 0.004340502433478832244873046875 0 0 0 0 
2417166666.6666665077 0.152650192379951504806356865629 -0.073942027986049652099609375000 -0.001663417671807110092760395581 0.004333059303462505340576171875 0 0 0 0 
2417333333.3333334923 0.151996463537216186523437500000 -0.075952932238578796386718750000 -0.001485937158577143929125141675 0.004482152406126260757446289062 0 0 0 0 
2417500000.0000000000 0.151410564780235290527343750000 -0.078021638095378875732421875000 -0.001441556029021739959716796875 0.004556748084723949432373046875 0 0 0 0 
2417666666.6666665077 0.151053637266159113128338731258 -0.079678319394588470458984375000 -0.001166433794423938014386821216 0.004778464324772357940673828125 0 0 0 0 
2417833333.3333334923 0.150626718997955294510049384371 -0.081637173891067504882812500000 -0.000816163665149360895156860352 0.004870103206485509872436523438 0 0 0 0 
2418000000.0000000000 0.150083273649215698242187500000 -0.083677172660827636718750000000 -0.000591884541790932416915893555 0.004911508411169052124023437500 0 0 0 0 
2418166666.6666665077 0.149928286671638488769531250000 -0.085235558450222015380859375000 -0.000550867756828665733337402344 0.004915357567369937896728515625 0 0 0 0 
2418333333.3333334923 0.149866744875907897949218750000 -0.087079942226409912109375000000 -0.000134362941025756299495697021 0.005038435105234385404104902051 0 0 0 0 
2418500000.0000000000 0.149801224470138605315838731258 -0.088662810623645782470703125000 0.000142488570418208810404100961 0.005124124232679606351370527051 0 0 0 0 
2418666666.6666665077 0.149824097752571105957031250000 -0.090064592659473419189453125000 0.000243527392740361392498016357 0.005111097823828458786010742188 0 0 0 0 
2418833333.3333334923 0.149697288870811490157919365629 -0.091615252196788787841796875000 0.000611560011748224496841430664 0.005044161807745695114135742188 0 0 0 0 
2419000000.0000000000 0.149665996432304410079794365629 -0.092943787574768066406250000000 0.000777037523221224546432495117 0.005031998734921216964721679688 0 0 0 0 
2419166666.6666665077 0.149873182177543612381143134371 -0.094194553792476654052734375000 0.000971642264630645513534545898 0.005042209289968013763427734375 0 0 0 0 
2419333333.3333334923 0.149956852197647094726562500000 -0.095264188945293426513671875000 0.001231164438650012016296386719 0.004772383254021406173706054688 0 0 0 0 
2419500000.0000000000 0.150079816579818697830361884371 -0.096527636051177978515625000000 0.001534509472548962073085165869 0.004929529502987861633300781250 0 0 0 0 
2419666666.6666665077 0.150354668498039301116619981258 -0.097295217216014862060546875000 0.001797775155864655971527099609 0.004898556973785161972045898438 0 0 0 0 
2419833333.3333334923 0.150606453418731689453125000000 -0.097957864403724670410156250000 0.002011722652241588072535849463 0.004702304024249315261840820312 0 0 0 0 
