# Hz S RI R 
2400000000.0000000000 0.158183410763740511795205634371 0.063037574291229248046875000000 -0.002010581316426395936253213037 -0.000054302443459164351224899292 0 0 0 0 
2400166666.6666665077 0.158128023147583007812500000000 0.061674091964960098266601562500 -0.002017137128859757943394326318 0.000184150034328922602251329965 0 0 0 0 
2400333333.3333334923 0.157878756523132296463174384371 0.059452485293149948120117187500 -0.001990728313103318214416503906 0.000304664892610162496566772461 0 0 0 0 
2400500000.0000000000 0.157810553908348111251669365629 0.057672407478094100952148437500 -0.001882062642835081057307577979 0.000449617713456973379284459247 0 0 0 0 
2400666666.6666665077 0.157851055264472989181356865629 0.055638801306486129760742187500 -0.001827035681344568946241069263 0.000396442541386932080418187274 0 0 0 0 
2400833333.3333334923 0.157946139574050903320312500000 0.053678013384342186664621721093 -0.001717708888463675975799560547 0.000410724547691643183857518329 0 0 0 0 
2401000000.0000000000 0.158078044652938787262286268742 0.051489062607288360595703125000 -0.001783896121196449019788432544 0.000603384862188249826431274414 0 0 0 0 
2401166666.6666665077 0.158131808042526300628338731258 0.049427267163991928100585937500 -0.001611200394108891920802451025 0.000528950477018952369689941406 0 0 0 0 
2401333333.3333334923 0.158261328935623196700888115629 0.047241907566785812377929687500 -0.001397184678353369019151997144 0.000623689207714051008224487305 0 0 0 0 
2401500000.0000000000 0.158552184700965909103231865629 0.045180633664131171489675153907 -0.001392524573020637035369873047 0.000721589953172951936721801758 0 0 0 0 
2401666666.6666665077 0.158858507871627807617187500000 0.043193019926547997211496721093 -0.001206899294629693031311035156 0.000750792853068560361862182617 0 0 0 0 
2401833333.3333334923 0.159196257591247586349325615629 0.040922906249761581420898437500 -0.001297503709793091037152934497 0.000681382312905043363571166992 0 0 0 0 
2402000000.0000000000 0.159631252288818387130575615629 0.038968726992607116699218750000 -0.001260574557818471951725625146 0.000842606707010418176651000977 0 0 0 0 
2402166666.6666665077 0.160175994038581903655682481258 0.036999121308326721191406250000 -0.001039636321365833065630268628 0.000906966452021151781082153320 0 0 0 0 
2402333333.3333334923 0.160631716251373291015625000000 0.035035587847232818603515625000 -0.000898588332347571849822998047 0.000762709358241409063339233398 0 0 0 0 
2402500000.0000000000 0.161400854587554903885049384371 0.033051233738660812377929687500 -0.000785234733484685420989990234 0.000988732441328465938568115234 0 0 0 0 
2402666666.6666665077 0.162085399031639099121093750000 0.031320203095674521709401716407 -0.000815279199741780757904052734 0.000888028531335294246673583984 0 0 0 0 
2402833333.3333334923 0.162721469998359707931356865629 0.029688959941267970693568045704 -0.000505905481986701488494873047 0.000819999258965253829956054688 0 0 0 0 
2403000000.0000000000 0.163596674799919100662393134371 0.027849666774272918701171875000 -0.000425562699092552120059412823 0.000726847385521978139877319336 0 0 0 0 
2403166666.6666665077 0.164439499378204401214276231258 0.026153130456805229187011718750 -0.000455562345450743978649693622 0.000689818640239536762237548828 0 0 0 0 
2403333333.3333334923 0.165438413619995089431924384371 0.024849336594343188894251639454 -0.000220816888031549805968684064 0.000624997366685420274734497070 0 0 0 0 
2403500000.0000000000 0.166309475898742703536825615629 0.023414390161633491516113281250 -0.000082923608715645968914031982 0.000739528390113264322280883789 0 0 0 0 
2403666666.6666665077 0.167228877544403103927450615629 0.021838467568159099924107735546 -0.000098144264484290033578872681 0.000693296082317829132080078125 0 0 0 0 
2403833333.3333334923 0.168121054768562289138955634371 0.020411238074302669870396798046 -0.000003899979219568194821476936 0.000315630895784124677807408466 0 0 0 0 
2404000000.0000000000 0.169233858585357693771200615629 0.019312595948576930654505545704 0.000207541321287863010734003888 0.000604943779762834310531616211 0 0 0 0 
2404166666.6666665077 0.170219719409942599197549384371 0.018113186582922938955286795704 0.000174004177097231203883570538 0.000396870484109968001216334210 0 0 0 0 
2404333333.3333334923 0.171100154519081087967080634371 0.017286617308855060232142264454 0.000277275656117126399844569073 0.000289611256448552012443542480 0 0 0 0 
2404500000.0000000000 0.172069936990737887283486884371 0.016060171648859981191614920704 0.000388694083085283582836705341 0.000269614596618339419364929199 0 0 0 0 
2404666666.6666665077 0.173257187008857699295205634371 0.015164048410952089482317539648 0.000431938940891996026039123535 0.000156775393406860503271380014 0 0 0 0 
2404833333.3333334923 0.174048796296119689941406250000 0.014425985515117650467842302930 0.000257511477684602087170201434 0.000070331429014913737773895264 0 0 0 0 
2405000000.0000000000 0.174952358007431002517861884371 0.013795014470815660304059413477 0.000352483941242098808288574219 -0.000176521585672162500306806021 0 0 0 0 
2405166666.6666665077 0.175743371248245211502236884371 0.012954000383615490304967110546 0.000153219734784215688705444336 -0.000239532106206752386972150259 0 0 0 0 
2405333333.3333334923 0.176624894142150906661825615629 0.012372202239930629730224609375 0.000364080973668023889690953387 -0.000337470934027805924415588379 0 0 0 0 
2405500000.0000000000 0.177426740527152987381143134371 0.012064618058502670633336251171 0.000404573365813121199607849121 -0.000543163449037820100784301758 0 0 0 0 
2405666666.6666665077 0.178149536252021789550781250000 0.011573045514523979532262032421 0.000288873590761795585781651630 -0.000713570276275277137756347656 0 0 0 0 
2405833333.3333334923 0.178610652685165405273437500000 0.011218626052141189575195312500 0.000304189132293686324923914777 -0.000592293392401188611984252930 0 0 0 0 
2406000000.0000000000 0.179253861308097811599893134371 0.010682670399546619760533516796 0.000210409649298526400893610822 -0.000801388639956712722778320312 0 0 0 0 
2406166666.6666665077 0.179611757397651700118856865629 0.010624499060213569295862967579 0.000004557661213766550645232201 -0.000792229257058352231979370117 0 0 0 0 
2406333333.3333334923 0.180185511708259610275106865629 0.010223426856100559234619140625 0.000074070398113690316677093506 -0.000950900372117757797241210938 0 0 0 0 
2406500000.0000000000 0.180541768670082092285156250000 0.009787638671696186065673828125 -0.000080757941759657114744186401 -0.001018076203763484954833984375 0 0 0 0 
2406666666.6666665077 0.180616661906242398361044365629 0.009632216766476631164550781250 -0.000135775422677397700861254282 -0.000803628878202289342880249023 0 0 0 0 
2406833333.3333334923 0.180878028273582486251669365629 0.009191860444843769073486328125 -0.000298333558021113276481628418 -0.000926187669392675161361694336 0 0 0 0 
2407000000.0000000000 0.181114658713340787032919365629 0.009011400863528251647949218750 -0.000295583304250612909167689191 -0.001124077010899781963945698315 0 0 0 0 
2407166666.6666665077 0.181091398000717190841513115629 0.008576272986829280853271484375 -0.000496842025313526391983032227 -0.001105904928408562920214008862 0 0 0 0 
2407333333.3333334923 0.180917873978614807128906250000 0.008252871222794055938720703125 -0.000503688992466777563095092773 -0.000979162170551717281341552734 0 0 0 0 
2407500000.0000000000 0.180859535932540893554687500000 0.008031150326132774353027343750 -0.000279601663351059014171046124 -0.001044128090143203952191996997 0 0 0 0 
2407666666.6666665077 0.180552273988723810393963731258 0.007615648675709962844848632812 -0.000664239458274096250534057617 -0.001254573347978293895721435547 0 0 0 0 
2407833333.3333334923 0.180204898118972806075888115629 0.007071558386087417602539062500 -0.000650472065899521112442016602 -0.001166455098427831909776997144 0 0 0 0 
2408000000.0000000000 0.179715931415557889083700615629 0.006463062949478626251220703125 -0.000788353208918124437332153320 -0.001197357778437436060664511572 0 0 0 0 
2408166666.6666665077 0.179338723421096801757812500000 0.005976750049740076065063476562 -0.000831502780783921480178833008 -0.001184587017633021094678569263 0 0 0 0 
2408333333.3333334923 0.178931251168251009842080634371 0.005340810865163803100585937500 -0.000839231244754046201705932617 -0.001116434112191200039507221753 0 0 0 0 
2408500000.0000000000 0.178235724568367004394531250000 0.004479604307562112808227539062 -0.000995476846583187580108642578 -0.001089395256713032939313579028 0 0 0 0 
2408666666.6666665077 0.177662178874015808105468750000 0.003561440855264664129969931494 -0.001019539777189492962480854565 -0.001006664475426078059552836841 0 0 0 0 
2408833333.3333334923 0.176948711276054410079794365629 0.002774256048724054856541298975 -0.001012201770208775997161865234 -0.001208608504384756088256835938 0 0 0 0 
2409000000.0000000000 0.176220789551734896560830634371 0.001867708051577209992649697412 -0.000991183333098888397216796875 -0.001048701233230530998827290112 0 0 0 0 
2409166666.6666665077 0.175682201981544494628906250000 0.000607271969784051179885864258 -0.001104456605389714024187397534 -0.001165867084637284062029194409 0 0 0 0 
2409333333.3333334923 0.175025880336761502364950615629 -0.000523834198247641324996948242 -0.001197844627313316085218120044 -0.001155322417616843960405659253 0 0 0 0 
2409500000.0000000000 0.174251675605773898025674384371 -0.001919476082548499107360839844 -0.001164005137979984066606831128 -0.001176731428131460926653217847 0 0 0 0 
2409666666.6666665077 0.173402041196823092361611884371 -0.003152170917019248008728027344 -0.001238490105606615977046347510 -0.001205607433803379969355917822 0 0 0 0 
2409833333.3333334923 0.172672048211097689529580634371 -0.004412060603499413403982831738 -0.001359126763418317057965922778 -0.001153083983808756091474223560 0 0 0 0 
2410000000.0000000000 0.172235757112503107268963731258 -0.005952087230980396270751953125 -0.001508525572717190005658793872 -0.001005505444481969096540141528 0 0 0 0 
2410166666.6666665077 0.171570897102356012542401231258 -0.007623434066772460937500000000 -0.001452132244594394943834614331 -0.001126463990658522085902548682 0 0 0 0 
2410333333.3333334923 0.170892506837844904143963731258 -0.009248139336705207824707031250 -0.001716903294436634020564413916 -0.000997192342765629291534423828 0 0 0 0 
2410500000.0000000000 0.170282185077667208572549384371 -0.010864091105759140359898751171 -0.001695387414656579928157187354 -0.001067180302925408103345561450 0 0 0 0 
2410666666.6666665077 0.169665455818176297286825615629 -0.012640334665775300806989100977 -0.001789173693396151065826416016 -0.001126781222410500049591064453 0 0 0 0 
2410833333.3333334923 0.169347286224365206619424384371 -0.014311110600829119246513165820 -0.001977554755285381837132119287 -0.000978994648903608322143554688 0 0 0 0 
2411000000.0000000000 0.168960720300674410720986884371 -0.016321478411555290222167968750 -0.001910309190861880996106791919 -0.001006587524898350021959614331 0 0 0 0 
2411166666.6666665077 0.168476343154907198806924384371 -0.018191220238804820669153983204 -0.002138092415407299995422363281 -0.000987364794127643108367919922 0 0 0 0 
2411333333.3333334923 0.168208956718444796463174384371 -0.020212883129715919494628906250 -0.002299213083460927009582519531 -0.000879187893588095903396606445 0 0 0 0 
2411500000.0000000000 0.168058693408966092208700615629 -0.022069578990340229379674141796 -0.002481936244294046921970986475 -0.000782546121627092361450195312 0 0 0 0 
2411666666.6666665077 0.167938292026519803146200615629 -0.024001047015190131450612653907 -0.002387744374573231177089072119 -0.000898126745596528053283691406 0 0 0 0 
2411833333.3333334923 0.167791217565536499023437500000 -0.025774247944355010986328125000 -0.002550129545852541923522949219 -0.000862697663251310586929321289 0 0 0 0 
2412000000.0000000000 0.168102249503135708907919365629 -0.028032518923282619821568673046 -0.002629696624353528022766113281 -0.000643802981358021497726440430 0 0 0 0 
2412166666.6666665077 0.167999550700187710861044365629 -0.029935911297798160207728201954 -0.002629345282912253899815224756 -0.000531961501110345125198364258 0 0 0 0 
2412333333.3333334923 0.168319508433342007736044365629 -0.031697720289230346679687500000 -0.002770841121673583984375000000 -0.000354224030161276513904017316 0 0 0 0 
2412500000.0000000000 0.168350890278816195388955634371 -0.033727202564477920532226562500 -0.002897992730140686035156250000 -0.000252751720836386084556579590 0 0 0 0 
2412666666.6666665077 0.168846726417541503906250000000 -0.035870060324668877338449846093 -0.002892206888645886941197060693 -0.000221675407374277710914611816 0 0 0 0 
2412833333.3333334923 0.169075682759285000900106865629 -0.037694696336984627460520158593 -0.003104016650468111038208007812 0.000181442563189193606376647949 0 0 0 0 
2413000000.0000000000 0.169473782181739807128906250000 -0.039454087615013122558593750000 -0.003120674286037683920619345557 0.000213314764550887102454584943 0 0 0 0 
2413166666.6666665077 0.169893220067024203201455634371 -0.041232977062463760375976562500 -0.003238647943362594084498740088 0.000269299198407679796218872070 0 0 0 0 
2413333333.3333334923 0.170432418584823608398437500000 -0.043072819709777832031250000000 -0.003185551846399902863743447412 0.000497884931974112987518310547 0 0 0 0 
2413500000.0000000000 0.171013191342353793045205634371 -0.044666856527328491210937500000 -0.003216042183339595794677734375 0.000666361127514392137527465820 0 0 0 0 
2413666666.6666665077 0.171653851866722106933593750000 -0.046339925378561019897460937500 -0.003317347960546613173243857275 0.000936116150114685297012329102 0 0 0 0 
2413833333.3333334923 0.172008737921714810470419365629 -0.047802574932575232768972028907 -0.003341710893437265916111611475 0.000918991165235638618469238281 0 0 0 0 
2414000000.0000000000 0.172421500086784390548544365629 -0.049264363944530487060546875000 -0.003238718025386333899257040869 0.001098314998671412901637411963 0 0 0 0 
2414166666.6666665077 0.173275813460350008865518134371 -0.050642132759094238281250000000 -0.003320413641631602807285927881 0.001260399702005087895634316553 0 0 0 0 
2414333333.3333334923 0.173582598567008999923544365629 -0.051865726709365851665456403907 -0.003334177425131202177760458838 0.001459928811527789072749472510 0 0 0 0 
2414500000.0000000000 0.174319520592689486404580634371 -0.053040746599435813213307966407 -0.003326255828142166137695312500 0.001682261354289948940277099609 0 0 0 0 
2414666666.6666665077 0.174876153469085693359375000000 -0.054085344076156623149831403907 -0.003218500409275292916538857568 0.001938570290803909084917378003 0 0 0 0 
2414833333.3333334923 0.175275161862373407561932481258 -0.055164255201816558837890625000 -0.003086408600211143927333212744 0.002047801157459617094752646338 0 0 0 0 
2415000000.0000000000 0.175822898745536804199218750000 -0.055921498686075210571289062500 -0.003135357052087783813476562500 0.002258254913613200187683105469 0 0 0 0 
2415166666.6666665077 0.176221832633018493652343750000 -0.056838762015104286884348283593 -0.003033622400835156007053994287 0.002552448771893978118896484375 0 0 0 0 
2415333333.3333334923 0.176633879542350796798544365629 -0.057532835751771926879882812500 -0.002883765147998929023742675781 0.002528101438656448884251259912 0 0 0 0 
2415500000.0000000000 0.177026435732841491699218750000 -0.058047156780958182598073591407 -0.002847720868885517120361328125 0.002771251834928988976719521631 0 0 0 0 
2415666666.6666665077 0.177308142185211209396200615629 -0.058679707348346710205078125000 -0.002785776974633336067199707031 0.002860886976122856140136718750 0 0 0 0 
2415833333.3333334923 0.177620157599449213225994981258 -0.059141546487808227539062500000 -0.002504229312762618064880371094 0.003192617557942866845371865381 0 0 0 0 
2416000000.0000000000 0.177619218826294000823651231258 -0.059648711234331130981445312500 -0.002494063461199402809143066406 0.003202637424692511992213583838 0 0 0 0 
2416166666.6666665077 0.177882328629493713378906250000 -0.060011204332113272930104841407 -0.002372245769947766824009560693 0.003437510691583157019374228369 0 0 0 0 
2416333333.3333334923 0.177773460745811490157919365629 -0.060340836644172668457031250000 -0.002159027848392724990844726562 0.003608282189816236929652548682 0 0 0 0 
2416500000.0000000000 0.177670374512672396560830634371 -0.060680881142616271972656250000 -0.002046046312898397011997841943 0.003865597303956747055053710938 0 0 0 0 
2416666666.6666665077 0.177466854453086908538494981258 -0.060768388211727142333984375000 -0.001908479956910013935686420972 0.003709410084411501884460449219 0 0 0 0 
2416833333.3333334923 0.177434712648391695877236884371 -0.061125870794057853008229841407 -0.001753084361553191921831440503 0.003842519829049706892726279150 0 0 0 0 
2417000000.0000000000 0.176802128553390502929687500000 -0.061340130865573883056640625000 -0.001466092537157237963435507666 0.004052064381539821624755859375 0 0 0 0 
2417166666.6666665077 0.176370114088058499435263115629 -0.061525590717792510986328125000 -0.001338539295829832987544394385 0.003995290026068686571603105762 0 0 0 0 
2417333333.3333334923 0.176014065742492703536825615629 -0.061689589172601699829101562500 -0.001087640179321170070050883716 0.004161370918154717359060956738 0 0 0 0 
2417500000.0000000000 0.175265192985534695724325615629 -0.061973080039024353027343750000 -0.000810542493127286434173583984 0.004059835337102413177490234375 0 0 0 0 
2417666666.6666665077 0.174788445234298706054687500000 -0.062098264694213867187500000000 -0.000591131858527660369873046875 0.004419044591486454010009765625 0 0 0 0 
2417833333.3333334923 0.173909977078437805175781250000 -0.062211252748966217041015625000 -0.000417918578023091012805384503 0.004195402842015027999877929688 0 0 0 0 
2418000000.0000000000 0.172967508435249300857705634371 -0.062679968774318695068359375000 -0.000300909305224195122718811035 0.004308605566620826721191406250 0 0 0 0 
2418166666.6666665077 0.172044470906257601638955634371 -0.062915816903114318847656250000 -0.000161304385983385199874323712 0.004481462761759757995605468750 0 0 0 0 
2418333333.3333334923 0.171361222863197298904580634371 -0.063226908445358276367187500000 0.000056895034504123032093048096 0.004402897320687770843505859375 0 0 0 0 
2418500000.0000000000 0.170179933309555109222088731258 -0.063547745347023010253906250000 0.000293202814646065180927830829 0.004343785345554351806640625000 0 0 0 0 
2418666666.6666665077 0.169165194034576388260049384371 -0.064084202051162719726562500000 0.000453444139566272497177124023 0.004245163407176733016967773438 0 0 0 0 
2418833333.3333334923 0.167784750461578396896200615629 -0.064670629799365997314453125000 0.000650605303235352039337158203 0.004241092596203088760375976562 0 0 0 0 
2419000000.0000000000 0.166616246104240389724893134371 -0.065113797783851623535156250000 0.000887186790350824594497680664 0.004048139322549104690551757812 0 0 0 0 
2419166666.6666665077 0.165577694773674011230468750000 -0.065817117691040039062500000000 0.001049022655934094949009560693 0.004060260951519013318533612988 0 0 0 0 
2419333333.3333334923 0.164150446653366088867187500000 -0.066300444304943084716796875000 0.001284007215872406959533691406 0.004083449020981788635253906250 0 0 0 0 
2419500000.0000000000 0.162924036383628900725994981258 -0.067335143685340881347656250000 0.001407202449627221064326620947 0.004089877009391784667968750000 0 0 0 0 
2419666666.6666665077 0.161754712462425204178018134371 -0.068281836807727813720703125000 0.001680782996118068911908793872 0.004031511954963207244873046875 0 0 0 0 
2419833333.3333334923 0.160448789596557589431924384371 -0.068995006382465362548828125000 0.001775471377186476967455219800 0.003933657892048358917236328125 0 0 0 0 
