# Version 1.00
#
freq[Hz];re:Trc1_S11;im:Trc1_S11;re:Trc2_S21;im:Trc2_S21;
2.400000000000000E+009;1.624963283538818E-001;5.228213220834732E-002;1.753010088577867E-003;3.491211216896772E-003;
2.400166666666667E+009;1.623289436101914E-001;5.086859688162804E-002;2.021800726652145E-003;3.514708718284965E-003;
2.400333333333334E+009;1.622024625539780E-001;4.898879304528236E-002;1.932732062414289E-003;3.433430800214410E-003;
2.400500000000000E+009;1.620560586452484E-001;4.717808589339256E-002;2.032238990068436E-003;3.224205458536744E-003;
2.400666666666667E+009;1.621993631124497E-001;4.487300291657448E-002;2.050915732979775E-003;3.211706876754761E-003;
2.400833333333334E+009;1.621539890766144E-001;4.317265376448631E-002;2.189068589359522E-003;3.001893870532513E-003;
2.401000000000000E+009;1.622379720211029E-001;4.125754907727242E-002;2.110232831910253E-003;3.047334495931864E-003;
2.401166666666667E+009;1.622369736433029E-001;3.901111334562302E-002;2.280690707266331E-003;2.924973610788584E-003;
2.401333333333334E+009;1.624411940574646E-001;3.698986396193504E-002;2.276343991979957E-003;2.725651720538735E-003;
2.401500000000000E+009;1.627481132745743E-001;3.486118465662003E-002;2.419615630060434E-003;2.585662296041846E-003;
2.401666666666667E+009;1.627784371376038E-001;3.309616073966026E-002;2.539209323003888E-003;2.700801007449627E-003;
2.401833333333334E+009;1.631785780191422E-001;3.105571493506432E-002;2.314801560714841E-003;2.401218283921480E-003;
2.402000000000000E+009;1.634066849946976E-001;2.894904837012291E-002;2.415681490674615E-003;2.344401553273201E-003;
2.402166666666667E+009;1.638785451650620E-001;2.690872922539711E-002;2.471093088388443E-003;2.407127525657415E-003;
2.402333333333334E+009;1.641484051942825E-001;2.516064979135990E-002;2.683867001906037E-003;2.150248037651181E-003;
2.402500000000000E+009;1.648126244544983E-001;2.327846176922321E-002;2.706260653212667E-003;2.092089271172881E-003;
2.402666666666667E+009;1.654729247093201E-001;2.148315124213696E-002;2.846542978659272E-003;2.120177028700709E-003;
2.402833333333334E+009;1.660104244947434E-001;1.987292431294918E-002;2.665115054696798E-003;1.858269330114126E-003;
2.403000000000000E+009;1.666056960821152E-001;1.819179765880108E-002;2.797755645588040E-003;1.817573211155832E-003;
2.403166666666667E+009;1.674112379550934E-001;1.654460467398167E-002;2.996741794049740E-003;1.742655877023935E-003;
2.403333333333334E+009;1.682555079460144E-001;1.516760699450970E-002;3.065198659896851E-003;1.566430437378585E-003;
2.403500000000000E+009;1.688878536224365E-001;1.357912458479404E-002;3.108882345259190E-003;1.566606457345188E-003;
2.403666666666667E+009;1.696666181087494E-001;1.221397798508406E-002;2.954205498099327E-003;1.210233313031495E-003;
2.403833333333334E+009;1.706189513206482E-001;1.087638270109892E-002;2.991912653669715E-003;1.111267716623843E-003;
2.404000000000000E+009;1.714584976434708E-001;9.597104974091053E-003;3.174267709255219E-003;1.022343873046339E-003;
2.404166666666667E+009;1.722150593996048E-001;8.406938984990120E-003;3.328087506815791E-003;1.025766716338694E-003;
2.404333333333334E+009;1.728890389204025E-001;7.470657583326101E-003;3.140519838780165E-003;6.645738030783832E-004;
2.404500000000000E+009;1.737878769636154E-001;6.411020644009113E-003;3.188295755535364E-003;4.698229313362390E-004;
2.404666666666667E+009;1.745271384716034E-001;5.601855926215649E-003;3.139555454254150E-003;2.362426021136344E-004;
2.404833333333334E+009;1.752000898122788E-001;4.838322754949331E-003;3.307407023385167E-003;1.900566421682015E-004;
2.405000000000000E+009;1.760277897119522E-001;3.982116002589464E-003;3.091939259320498E-003;-1.407806994393468E-004;
2.405166666666667E+009;1.767212152481079E-001;3.374132094904780E-003;3.107379656285048E-003;-2.993054222315550E-004;
2.405333333333334E+009;1.774715334177017E-001;2.677391981706023E-003;3.031080355867744E-003;-4.919309285469353E-004;
2.405500000000000E+009;1.781517267227173E-001;2.357270335778594E-003;2.796272048726678E-003;-6.827685865573585E-004;
2.405666666666667E+009;1.785939335823059E-001;1.873868401162326E-003;2.907708054408431E-003;-6.324418354779482E-004;
2.405833333333334E+009;1.789797097444534E-001;1.433350611478090E-003;2.807119162753224E-003;-9.562604827806354E-004;
2.406000000000000E+009;1.793699562549591E-001;1.077201566658914E-003;2.560404827818275E-003;-1.060012844391167E-003;
2.406166666666667E+009;1.798286885023117E-001;9.363769786432385E-004;2.620030194520950E-003;-1.144263893365860E-003;
2.406333333333334E+009;1.802449673414230E-001;5.761088104918599E-004;2.358451252803206E-003;-1.092254882678390E-003;
2.406500000000000E+009;1.804685294628143E-001;3.223487583454698E-004;2.199335023760796E-003;-1.169100636616349E-003;
2.406666666666667E+009;1.803890764713287E-001;3.816555181401782E-005;2.030250616371632E-003;-1.434997422620654E-003;
2.406833333333334E+009;1.806412190198898E-001;-2.549575292505324E-004;2.070094924420118E-003;-1.359184738248587E-003;
2.407000000000000E+009;1.806767433881760E-001;-4.887562827207148E-004;1.874218229204416E-003;-1.466034329496324E-003;
2.407166666666667E+009;1.808179318904877E-001;-6.806100718677044E-004;1.831073430366814E-003;-1.542171929031611E-003;
2.407333333333334E+009;1.804037094116211E-001;-1.174751901999116E-003;1.429793541319668E-003;-1.629511592909694E-003;
2.407500000000000E+009;1.802626252174377E-001;-1.422751694917679E-003;1.472488162107766E-003;-1.597636262886226E-003;
2.407666666666667E+009;1.800384968519211E-001;-1.748763024806976E-003;1.348270219750702E-003;-1.631708932109177E-003;
2.407833333333334E+009;1.795095950365067E-001;-2.283236244693399E-003;1.244844635948539E-003;-1.560077886097133E-003;
2.408000000000000E+009;1.792209744453430E-001;-2.816782565787435E-003;1.154885278083384E-003;-1.583820790983737E-003;
2.408166666666667E+009;1.787038743495941E-001;-3.258253680542111E-003;1.110167242586613E-003;-1.504491432569921E-003;
2.408333333333334E+009;1.783533096313477E-001;-3.855468472465873E-003;8.066624868661165E-004;-1.582186669111252E-003;
2.408500000000000E+009;1.777042448520660E-001;-4.645678214728832E-003;6.399163976311684E-004;-1.596798887476325E-003;
2.408666666666667E+009;1.769816577434540E-001;-5.631865002214909E-003;5.575376562774181E-004;-1.633900683373213E-003;
2.408833333333334E+009;1.762473136186600E-001;-6.285788491368294E-003;4.725206526927650E-004;-1.550470478832722E-003;
2.409000000000000E+009;1.754108965396881E-001;-7.266481872648001E-003;4.586133582051843E-004;-1.558578223921359E-003;
2.409166666666667E+009;1.748443692922592E-001;-8.337328210473061E-003;3.099281166214496E-004;-1.513420720584691E-003;
2.409333333333334E+009;1.741495132446289E-001;-9.521522559225559E-003;1.871776039479300E-004;-1.510790549218655E-003;
2.409500000000000E+009;1.733066290616989E-001;-1.084259711205959E-002;9.542215411784127E-005;-1.519152312539518E-003;
2.409666666666667E+009;1.724614202976227E-001;-1.207542419433594E-002;3.984348222729750E-005;-1.532179885543883E-003;
2.409833333333334E+009;1.716165393590927E-001;-1.340858917683363E-002;-1.355516724288464E-004;-1.177683472633362E-003;
2.410000000000000E+009;1.710340529680252E-001;-1.483127009123564E-002;-4.209723265375942E-004;-1.253070076927543E-003;
2.410166666666667E+009;1.702079623937607E-001;-1.623559184372425E-002;-4.492441366892308E-004;-1.011225045658648E-003;
2.410333333333334E+009;1.695162653923035E-001;-1.778726279735565E-002;-3.724425914697349E-004;-9.896085830405355E-004;
2.410500000000000E+009;1.689884066581726E-001;-1.954210735857487E-002;-6.025511538609862E-004;-8.927296730689704E-004;
2.410666666666667E+009;1.682806164026260E-001;-2.130353823304176E-002;-5.815210752189159E-004;-7.283866871148348E-004;
2.410833333333334E+009;1.678038090467453E-001;-2.302787639200687E-002;-6.627461989410222E-004;-6.005924078635871E-004;
2.411000000000000E+009;1.672530323266983E-001;-2.485346235334873E-002;-9.163224603980780E-004;-4.998873919248581E-004;
2.411166666666667E+009;1.668387800455093E-001;-2.674318104982376E-002;-7.333995890803635E-004;-5.065365112386644E-004;
2.411333333333334E+009;1.663834899663925E-001;-2.861181274056435E-002;-6.984615465626121E-004;-2.390782028669491E-004;
2.411500000000000E+009;1.660158932209015E-001;-3.070717491209507E-002;-7.543288520537317E-004;1.487343706685351E-005;
2.411666666666667E+009;1.658800542354584E-001;-3.255253657698631E-002;-7.787520298734307E-004;-1.354869018541649E-004;
2.411833333333334E+009;1.657003760337830E-001;-3.456260263919830E-002;-8.076669182628393E-004;6.819640111643821E-005;
2.412000000000000E+009;1.656817793846130E-001;-3.650595620274544E-002;-6.951311952434480E-004;3.133006102871150E-004;
2.412166666666667E+009;1.656642854213715E-001;-3.859436884522438E-002;-7.708561606705189E-004;5.430695600807667E-004;
2.412333333333334E+009;1.658124327659607E-001;-4.039442539215088E-002;-5.637877038680017E-004;5.391207523643971E-004;
2.412500000000000E+009;1.656161099672318E-001;-4.254269227385521E-002;-6.146000232547522E-004;5.744458176195622E-004;
2.412666666666667E+009;1.660135984420776E-001;-4.446542635560036E-002;-5.220348830334842E-004;8.162339800037444E-004;
2.412833333333334E+009;1.662447452545166E-001;-4.632860049605370E-002;-4.422033380251378E-004;6.769927567802370E-004;
2.413000000000000E+009;1.663953214883804E-001;-4.818367213010788E-002;-3.103838535025716E-004;8.422553655691445E-004;
2.413166666666667E+009;1.668171137571335E-001;-4.977021738886833E-002;-1.082626768038608E-004;1.075248117558658E-003;
2.413333333333334E+009;1.671121865510941E-001;-5.160111561417580E-002;-9.206437971442938E-005;1.154466881416738E-003;
2.413500000000000E+009;1.674969941377640E-001;-5.337518453598023E-002;7.677231769775972E-005;1.170311472378671E-003;
2.413666666666667E+009;1.680330187082291E-001;-5.498715862631798E-002;3.180153435096145E-004;1.239380449987948E-003;
2.413833333333334E+009;1.684069484472275E-001;-5.630630627274513E-002;5.260976031422615E-004;1.131278113462031E-003;
2.414000000000000E+009;1.689586341381073E-001;-5.794144049286842E-002;3.813880321104080E-004;1.165814348496497E-003;
2.414166666666667E+009;1.696381419897080E-001;-5.923180282115936E-002;5.524447187781334E-004;1.328190439380705E-003;
2.414333333333334E+009;1.700226366519928E-001;-6.070239469408989E-002;7.424443028867245E-004;1.238467404618859E-003;
2.414500000000000E+009;1.706571727991104E-001;-6.176829338073731E-002;9.582921047694981E-004;1.024147262796760E-003;
2.414666666666667E+009;1.710566133260727E-001;-6.285138428211212E-002;8.780111675150693E-004;1.078259781934321E-003;
2.414833333333334E+009;1.714721173048019E-001;-6.383845955133438E-002;1.116051105782390E-003;1.029459526762366E-003;
2.415000000000000E+009;1.719689071178436E-001;-6.480535864830017E-002;1.154890866018832E-003;9.835304226726294E-004;
2.415166666666667E+009;1.723365485668182E-001;-6.550581753253937E-002;1.170735689811409E-003;9.322903933934867E-004;
2.415333333333334E+009;1.728554368019104E-001;-6.633751839399338E-002;1.346286037005484E-003;7.580304518342018E-004;
2.415500000000000E+009;1.732483655214310E-001;-6.698748469352722E-002;1.412545097991824E-003;9.048914071172476E-004;
2.415666666666667E+009;1.734370887279511E-001;-6.748104840517044E-002;1.563834259286523E-003;6.469800719060004E-004;
2.415833333333334E+009;1.737424284219742E-001;-6.802181154489517E-002;1.605164725333452E-003;5.625790799967945E-004;
2.416000000000000E+009;1.736904233694077E-001;-6.843288987874985E-002;1.472631935030222E-003;5.069631151854992E-004;
2.416166666666667E+009;1.741181910037994E-001;-6.881765276193619E-002;1.570892054587603E-003;3.092934493906796E-004;
2.416333333333334E+009;1.739957481622696E-001;-6.902565807104111E-002;1.611548359505832E-003;3.716735227499157E-004;
2.416500000000000E+009;1.739877760410309E-001;-6.938984245061874E-002;1.771328039467335E-003;3.094947023782879E-004;
2.416666666666667E+009;1.736868768930435E-001;-6.948309391736984E-002;1.623603166081011E-003;1.730665971990675E-004;
2.416833333333334E+009;1.736017316579819E-001;-6.989856064319611E-002;1.625911914743483E-003;1.608010497875512E-004;
2.417000000000000E+009;1.730417311191559E-001;-7.008253782987595E-002;1.648987527005374E-003;-7.336831185966730E-005;
2.417166666666667E+009;1.726046055555344E-001;-7.008800655603409E-002;1.721429056487978E-003;-1.078832792700268E-005;
2.417333333333334E+009;1.722262054681778E-001;-7.022176682949066E-002;1.799659687094390E-003;-2.316044410690665E-004;
2.417500000000000E+009;1.714708805084229E-001;-7.055729627609253E-002;1.738740829750896E-003;-7.769443618599325E-005;
2.417666666666667E+009;1.710239797830582E-001;-7.066886126995087E-002;1.775310607627034E-003;-2.188468206441030E-004;
2.417833333333334E+009;1.702066808938980E-001;-7.081039249897003E-002;1.727140042930841E-003;-1.954213221324608E-004;
2.418000000000000E+009;1.692662090063095E-001;-7.103209197521210E-002;1.774522126652300E-003;-2.726688690017909E-004;
2.418166666666667E+009;1.683076471090317E-001;-7.117781788110733E-002;1.671242993324995E-003;-4.069882561452687E-004;
2.418333333333334E+009;1.675829142332077E-001;-7.153646647930145E-002;1.670931116677821E-003;-4.556819039862603E-004;
2.418500000000000E+009;1.663744300603867E-001;-7.186909765005112E-002;1.741024316288531E-003;-3.879158466588706E-004;
2.418666666666667E+009;1.653224229812622E-001;-7.225058227777481E-002;1.749861403368413E-003;-4.966826527379453E-004;
2.418833333333334E+009;1.640357673168182E-001;-7.276237010955811E-002;1.812714734114707E-003;-4.880895721726120E-004;
2.419000000000000E+009;1.627480089664459E-001;-7.314121723175049E-002;1.585290650837123E-003;-6.695055053569377E-004;
2.419166666666667E+009;1.615357697010040E-001;-7.373076677322388E-002;1.752120675519109E-003;-7.052759756334126E-004;
2.419333333333334E+009;1.601740270853043E-001;-7.421141117811203E-002;1.680672750808299E-003;-7.961697992868722E-004;
2.419500000000000E+009;1.588749587535858E-001;-7.493811100721359E-002;1.659332308918238E-003;-7.024510414339602E-004;
2.419666666666667E+009;1.576872915029526E-001;-7.584737986326218E-002;1.635373802855611E-003;-7.594914059154689E-004;
2.419833333333334E+009;1.562499552965164E-001;-7.657429575920105E-002;1.776305492967367E-003;-7.439120090566576E-004;
2.420000000000000E+009;1.552343368530273E-001;-7.758228480815888E-002;1.810906920582056E-003;-1.021737349219620E-003;
2.420166666666667E+009;1.539326459169388E-001;-7.862766832113266E-002;1.729035167954862E-003;-9.732502512633801E-004;
2.420333333333334E+009;1.525796800851822E-001;-7.988703250885010E-002;1.737161772325635E-003;-1.166470465250313E-003;
2.420500000000000E+009;1.516844779253006E-001;-8.075062930583954E-002;1.819538301788271E-003;-1.062763971276581E-003;
2.420666666666667E+009;1.502835303544998E-001;-8.210496604442596E-002;1.882089651189745E-003;-1.083016977645457E-003;
2.420833333333334E+009;1.494341939687729E-001;-8.344107866287231E-002;1.755531062372029E-003;-1.192432129755616E-003;
2.421000000000000E+009;1.481342166662216E-001;-8.490812033414841E-002;1.835997914895415E-003;-1.232486916705966E-003;
2.421166666666667E+009;1.473725140094757E-001;-8.633205294609070E-002;1.835184171795845E-003;-1.394246239215136E-003;
2.421333333333334E+009;1.466798484325409E-001;-8.792476356029511E-002;1.849077641963959E-003;-1.424127141945064E-003;
2.421500000000000E+009;1.457741260528565E-001;-8.961413800716400E-002;1.745304442010820E-003;-1.576639944687486E-003;
2.421666666666667E+009;1.450885981321335E-001;-9.106013923883438E-002;1.766157569363713E-003;-1.693727099336684E-003;
2.421833333333334E+009;1.444832235574722E-001;-9.277693182229996E-002;1.835305127315223E-003;-1.749315182678402E-003;
2.422000000000000E+009;1.438941061496735E-001;-9.444165974855423E-002;1.766524044796825E-003;-1.852147397585213E-003;
2.422166666666667E+009;1.435175985097885E-001;-9.638887643814087E-002;1.818716293200851E-003;-2.078723628073931E-003;
2.422333333333334E+009;1.431719809770584E-001;-9.790048003196716E-002;1.901163137517870E-003;-1.994721591472626E-003;
2.422500000000000E+009;1.428589671850205E-001;-9.949691593647003E-002;1.751899137161672E-003;-2.201854018494487E-003;
2.422666666666667E+009;1.425427049398422E-001;-1.014915853738785E-001;1.627394929528236E-003;-2.327264053747058E-003;
2.422833333333334E+009;1.426266729831696E-001;-1.032722741365433E-001;1.615265267901123E-003;-2.403202466666699E-003;
2.423000000000000E+009;1.426836252212524E-001;-1.051013022661209E-001;1.732500270009041E-003;-2.643120475113392E-003;
2.423166666666667E+009;1.427200287580490E-001;-1.068154722452164E-001;1.566794235259295E-003;-2.842008369043469E-003;
2.423333333333334E+009;1.429472565650940E-001;-1.082721874117851E-001;1.492781331762672E-003;-3.002974204719067E-003;
2.423500000000000E+009;1.429984122514725E-001;-1.099309474229813E-001;1.352748251520097E-003;-3.058629576116800E-003;
2.423666666666667E+009;1.432142108678818E-001;-1.115860342979431E-001;1.341608352959156E-003;-3.207879373803735E-003;
2.423833333333334E+009;1.436977237462997E-001;-1.131866723299027E-001;9.655482717789710E-004;-3.394928760826588E-003;
2.424000000000000E+009;1.439304351806641E-001;-1.144088953733444E-001;1.058926456607878E-003;-3.611781634390354E-003;
2.424166666666667E+009;1.442578732967377E-001;-1.158449724316597E-001;7.862527272664011E-004;-3.605846781283617E-003;
2.424333333333334E+009;1.447921991348267E-001;-1.172064542770386E-001;4.646693996619433E-004;-3.635516390204430E-003;
2.424500000000000E+009;1.452016979455948E-001;-1.184532269835472E-001;4.640692204702646E-004;-3.816074458882213E-003;
2.424666666666667E+009;1.456998884677887E-001;-1.194883137941361E-001;2.115112001774833E-004;-3.959940746426582E-003;
2.424833333333334E+009;1.460633724927902E-001;-1.203808560967445E-001;-7.082441152306274E-005;-3.965074662119150E-003;
2.425000000000000E+009;1.464989334344864E-001;-1.215894743800163E-001;-2.408271684544161E-004;-3.920068033039570E-003;
2.425166666666667E+009;1.468449980020523E-001;-1.224336847662926E-001;-5.300533957779408E-004;-4.023296758532524E-003;
2.425333333333334E+009;1.473840773105621E-001;-1.231975778937340E-001;-6.281460518948734E-004;-3.986716270446777E-003;
2.425500000000000E+009;1.477152556180954E-001;-1.239259243011475E-001;-9.319583186879754E-004;-4.107114858925343E-003;
2.425666666666667E+009;1.478904932737351E-001;-1.245808079838753E-001;-1.225333777256310E-003;-3.933441825211048E-003;
2.425833333333334E+009;1.481322050094605E-001;-1.251708567142487E-001;-1.434114412404597E-003;-3.810701193287969E-003;
2.426000000000000E+009;1.482858359813690E-001;-1.257018744945526E-001;-1.613346044905484E-003;-3.750462317839265E-003;
2.426166666666667E+009;1.486510783433914E-001;-1.259793788194656E-001;-1.849596737883985E-003;-3.690332174301148E-003;
2.426333333333334E+009;1.486563533544540E-001;-1.261638849973679E-001;-2.019316889345646E-003;-3.707134397700429E-003;
2.426500000000000E+009;1.487742364406586E-001;-1.265545487403870E-001;-2.205969067290425E-003;-3.514985786750913E-003;
2.426666666666667E+009;1.487150639295578E-001;-1.265137493610382E-001;-2.306604525074363E-003;-3.147793933749199E-003;
2.426833333333334E+009;1.485309749841690E-001;-1.265952885150909E-001;-2.416698262095451E-003;-3.259042976424098E-003;
2.427000000000000E+009;1.482586413621903E-001;-1.268052905797958E-001;-2.544261049479246E-003;-2.996095223352313E-003;
2.427166666666667E+009;1.479234695434570E-001;-1.265888214111328E-001;-2.644432941451669E-003;-2.831083722412586E-003;
2.427333333333334E+009;1.474158167839050E-001;-1.266956627368927E-001;-2.890183357521892E-003;-2.635599346831441E-003;
2.427500000000000E+009;1.470400094985962E-001;-1.265787929296494E-001;-2.965205814689398E-003;-2.717136871069670E-003;
2.427666666666667E+009;1.463509500026703E-001;-1.265738457441330E-001;-3.034734399989247E-003;-2.533615101128817E-003;
