# Version 1.00
#
freq[Hz];re:Trc1_S11;im:Trc1_S11;re:Trc2_S21;im:Trc2_S21;
2.400000000000000E+009;1.624996811151505E-001;5.229529738426209E-002;1.836041919887066E-003;3.641839837655425E-003;
2.400166666666667E+009;1.624917984008789E-001;5.086921155452728E-002;1.946316100656986E-003;3.494812641292810E-003;
2.400333333333334E+009;1.621693372726440E-001;4.885148629546166E-002;2.008633455261588E-003;3.429131582379341E-003;
2.400500000000000E+009;1.623807549476624E-001;4.691226780414581E-002;2.050236100330949E-003;3.168831812217832E-003;
2.400666666666667E+009;1.619894355535507E-001;4.514637589454651E-002;2.070115879178047E-003;3.119002562016249E-003;
2.400833333333334E+009;1.620881855487824E-001;4.321420937776566E-002;2.036940306425095E-003;3.068766556680203E-003;
2.401000000000000E+009;1.621648073196411E-001;4.122442007064819E-002;2.155253430828452E-003;2.989000407978892E-003;
2.401166666666667E+009;1.623359322547913E-001;3.892540559172630E-002;2.153437817469239E-003;2.880029613152146E-003;
2.401333333333334E+009;1.624364852905273E-001;3.704878687858582E-002;2.216849010437727E-003;2.882491098716855E-003;
2.401500000000000E+009;1.626622825860977E-001;3.511198237538338E-002;2.453703200444579E-003;2.757644047960639E-003;
2.401666666666667E+009;1.627297103404999E-001;3.318751603364945E-002;2.276337239891291E-003;2.617592923343182E-003;
2.401833333333334E+009;1.633436232805252E-001;3.092873655259609E-002;2.347178757190704E-003;2.569088945165277E-003;
2.402000000000000E+009;1.633403301239014E-001;2.894507534801960E-002;2.426833147183061E-003;2.434455323964357E-003;
2.402166666666667E+009;1.637629717588425E-001;2.701887674629688E-002;2.614365890622139E-003;2.418854273855686E-003;
2.402333333333334E+009;1.642574816942215E-001;2.519715763628483E-002;2.623944543302059E-003;2.161044627428055E-003;
2.402500000000000E+009;1.650588810443878E-001;2.327077277004719E-002;2.709556836634874E-003;2.259957138448954E-003;
2.402666666666667E+009;1.654498726129532E-001;2.160831727087498E-002;2.740927506238222E-003;2.094022231176496E-003;
2.402833333333334E+009;1.661075949668884E-001;1.990475133061409E-002;2.736633410677314E-003;1.990653341636062E-003;
2.403000000000000E+009;1.667164713144302E-001;1.804194971919060E-002;2.956160809844732E-003;1.742364256642759E-003;
2.403166666666667E+009;1.673677563667297E-001;1.662654429674149E-002;3.007328603416681E-003;1.685235416516662E-003;
2.403333333333334E+009;1.682722419500351E-001;1.512650027871132E-002;3.074000356718898E-003;1.521268626675010E-003;
2.403500000000000E+009;1.688381433486939E-001;1.372463256120682E-002;3.040954004973173E-003;1.519429381005466E-003;
2.403666666666667E+009;1.696905940771103E-001;1.229646243155003E-002;3.198438789695501E-003;1.345848548226059E-003;
2.403833333333334E+009;1.704883873462677E-001;1.097365748137236E-002;3.140027401968837E-003;1.013375702314079E-003;
2.404000000000000E+009;1.713086068630219E-001;9.714368730783463E-003;3.106278134509921E-003;1.019945601001382E-003;
2.404166666666667E+009;1.720193624496460E-001;8.566644974052906E-003;3.272074041888118E-003;8.688666857779026E-004;
2.404333333333334E+009;1.730527132749558E-001;7.622722536325455E-003;3.205648390576243E-003;8.015604107640684E-004;
2.404500000000000E+009;1.736829578876495E-001;6.498094182461500E-003;3.398169996216893E-003;5.936327506788075E-004;
2.404666666666667E+009;1.745506227016449E-001;5.533361807465553E-003;3.296980168670416E-003;2.417440555291250E-004;
2.404833333333334E+009;1.753306984901428E-001;4.852743353694677E-003;3.198214108124375E-003;7.686451135668904E-005;
2.405000000000000E+009;1.760723590850830E-001;4.109385889023542E-003;3.139421809464693E-003;-5.025224891141988E-005;
2.405166666666667E+009;1.767144799232483E-001;3.490017959848046E-003;2.914260141551495E-003;-2.730371197685599E-004;
2.405333333333334E+009;1.775138825178146E-001;2.730956068262458E-003;3.101044101640582E-003;-5.061748670414090E-004;
2.405500000000000E+009;1.781444847583771E-001;2.392268972471356E-003;2.932843752205372E-003;-5.962112918496132E-004;
2.405666666666667E+009;1.786168068647385E-001;1.859311130829155E-003;2.904082182794809E-003;-8.270408725365996E-004;
2.405833333333334E+009;1.790018081665039E-001;1.666264026425779E-003;2.856860635802150E-003;-9.378559770993888E-004;
2.406000000000000E+009;1.795969009399414E-001;1.083657494746149E-003;2.651215996593237E-003;-9.572197450324893E-004;
2.406166666666667E+009;1.797682493925095E-001;8.374287281185389E-004;2.467250917106867E-003;-1.011484768241644E-003;
2.406333333333334E+009;1.803292781114578E-001;6.782539421692491E-004;2.365660853683949E-003;-1.320789684541524E-003;
2.406500000000000E+009;1.803929358720779E-001;1.652989012654871E-004;2.161310985684395E-003;-1.220057718455792E-003;
2.406666666666667E+009;1.804332137107849E-001;3.504505730234087E-005;2.253290032967925E-003;-1.402505440637469E-003;
2.406833333333334E+009;1.805792450904846E-001;-2.016870275838301E-004;2.002057619392872E-003;-1.264806254766882E-003;
2.407000000000000E+009;1.807229965925217E-001;-5.737868486903608E-004;1.866912352852523E-003;-1.509161433205009E-003;
2.407166666666667E+009;1.807519644498825E-001;-7.776124402880669E-004;1.724562840536237E-003;-1.560866599902511E-003;
2.407333333333334E+009;1.805301010608673E-001;-1.158842002041638E-003;1.627171295695007E-003;-1.617289497517049E-003;
2.407500000000000E+009;1.803367584943771E-001;-1.477248733863235E-003;1.574628055095673E-003;-1.496406504884362E-003;
2.407666666666667E+009;1.800218969583511E-001;-1.748391077853739E-003;1.248288317583501E-003;-1.580418669618666E-003;
2.407833333333334E+009;1.795789301395416E-001;-2.277474151924253E-003;1.221051323227584E-003;-1.694195787422359E-003;
2.408000000000000E+009;1.791685372591019E-001;-2.922516781836748E-003;1.028722035698593E-003;-1.531111891381443E-003;
2.408166666666667E+009;1.787341833114624E-001;-3.247049404308200E-003;9.803560096770525E-004;-1.503244973719120E-003;
2.408333333333334E+009;1.782217621803284E-001;-3.980433102697134E-003;9.390457416884601E-004;-1.655652420595288E-003;
2.408500000000000E+009;1.776371002197266E-001;-4.768837243318558E-003;8.429308654740453E-004;-1.539432909339666E-003;
2.408666666666667E+009;1.770005077123642E-001;-5.438863765448332E-003;5.921419360674918E-004;-1.649353536777198E-003;
2.408833333333334E+009;1.761900186538696E-001;-6.374915596097708E-003;5.056965746916831E-004;-1.451508724130690E-003;
2.409000000000000E+009;1.753859966993332E-001;-7.287208456546068E-003;4.519541980698705E-004;-1.599452225491405E-003;
2.409166666666667E+009;1.747317761182785E-001;-8.370765484869480E-003;1.673329825280234E-004;-1.424578484147787E-003;
2.409333333333334E+009;1.742031574249268E-001;-9.436084888875485E-003;1.045171156874858E-004;-1.497676363214850E-003;
2.409500000000000E+009;1.732307225465775E-001;-1.071127597242594E-002;3.972688500653021E-005;-1.381265232339501E-003;
2.409666666666667E+009;1.724794059991837E-001;-1.191669330000877E-002;-1.859440671978518E-004;-1.510195783339441E-003;
2.409833333333334E+009;1.717579364776611E-001;-1.324458327144384E-002;-2.911093761213124E-004;-1.344797667115927E-003;
2.410000000000000E+009;1.711054593324661E-001;-1.457463577389717E-002;-2.156575937988237E-004;-1.313603017479181E-003;
2.410166666666667E+009;1.703674942255020E-001;-1.626701653003693E-002;-3.298728261142969E-004;-1.188076799735427E-003;
2.410333333333334E+009;1.695339828729630E-001;-1.778164878487587E-002;-4.699494747910649E-004;-9.652481530793011E-004;
2.410500000000000E+009;1.689653098583221E-001;-1.954053528606892E-002;-4.961908562108874E-004;-8.965388988144696E-004;
2.410666666666667E+009;1.683219075202942E-001;-2.130537293851376E-002;-6.020443397574127E-004;-9.015196119435132E-004;
2.410833333333334E+009;1.678759157657623E-001;-2.302984520792961E-002;-5.172191886231303E-004;-6.713765324093401E-004;
2.411000000000000E+009;1.672910600900650E-001;-2.480188012123108E-002;-7.774561527185142E-004;-6.351512274704874E-004;
2.411166666666667E+009;1.667225956916809E-001;-2.665671892464161E-002;-8.232906111516058E-004;-4.945633118040860E-004;
2.411333333333334E+009;1.664401292800903E-001;-2.864313125610352E-002;-7.449688855558634E-004;-3.181718348059803E-004;
2.411500000000000E+009;1.660183966159821E-001;-3.066814318299294E-002;-8.346471586264670E-004;-1.887624384835362E-004;
2.411666666666667E+009;1.659362912178040E-001;-3.260459750890732E-002;-9.386307210661471E-004;-6.907488568685949E-005;
2.411833333333334E+009;1.657515317201614E-001;-3.450049087405205E-002;-8.088789763860405E-004;1.277045521419495E-004;
2.412000000000000E+009;1.657322049140930E-001;-3.669372946023941E-002;-6.306325667537749E-004;3.217541961930692E-004;
2.412166666666667E+009;1.656555533409119E-001;-3.857305645942688E-002;-5.854539922438562E-004;3.707108262460679E-004;
2.412333333333334E+009;1.659677326679230E-001;-4.030181467533112E-002;-5.389527068473399E-004;5.180477746762335E-004;
2.412500000000000E+009;1.656940281391144E-001;-4.225704818964005E-002;-5.936205852776766E-004;5.050905747339129E-004;
2.412666666666667E+009;1.659901887178421E-001;-4.441883042454720E-002;-4.655550292227417E-004;6.532034021802247E-004;
2.412833333333334E+009;1.663971543312073E-001;-4.634831473231316E-002;-3.662383533082902E-004;7.526067201979458E-004;
2.413000000000000E+009;1.665376275777817E-001;-4.802225530147553E-002;-2.822960377670825E-004;9.015013929456472E-004;
2.413166666666667E+009;1.668497323989868E-001;-4.989853873848915E-002;-6.561798363691196E-005;9.210942662321031E-004;
2.413333333333334E+009;1.672510653734207E-001;-5.171358212828636E-002;-7.364296470768750E-005;9.905351325869560E-004;
2.413500000000000E+009;1.676318198442459E-001;-5.342621728777885E-002;6.973170093260706E-005;1.030812622047961E-003;
2.413666666666667E+009;1.681075990200043E-001;-5.506543815135956E-002;5.219942977419123E-005;1.122639048844576E-003;
2.413833333333334E+009;1.684657782316208E-001;-5.647395551204681E-002;3.318769449833781E-004;1.144935027696192E-003;
2.414000000000000E+009;1.689199209213257E-001;-5.787265300750732E-002;3.081967297475785E-004;1.317924587056041E-003;
2.414166666666667E+009;1.696216613054276E-001;-5.918815732002258E-002;5.526241147890687E-004;1.156125101260841E-003;
2.414333333333334E+009;1.702075153589249E-001;-6.076480448246002E-002;7.593921036459506E-004;1.235661096870899E-003;
2.414500000000000E+009;1.706818044185638E-001;-6.165653839707375E-002;9.537740843370557E-004;1.129305339418352E-003;
2.414666666666667E+009;1.710971146821976E-001;-6.291586905717850E-002;8.387274574488401E-004;9.323987760581076E-004;
2.414833333333334E+009;1.714324802160263E-001;-6.388187408447266E-002;9.904134785756469E-004;1.060655456967652E-003;
2.415000000000000E+009;1.719778776168823E-001;-6.465633213520050E-002;9.749124874360859E-004;1.003028941340745E-003;
2.415166666666667E+009;1.723698079586029E-001;-6.565038859844208E-002;1.177497790195048E-003;8.648828952573240E-004;
2.415333333333334E+009;1.728714853525162E-001;-6.643421947956085E-002;1.261368161067367E-003;7.488334667868912E-004;
2.415500000000000E+009;1.732318401336670E-001;-6.688544154167175E-002;1.541176345199347E-003;8.646546630188823E-004;
2.415666666666667E+009;1.735095381736755E-001;-6.749279797077179E-002;1.386091927997768E-003;5.266866646707058E-004;
2.415833333333334E+009;1.737234741449356E-001;-6.810393184423447E-002;1.539781456813216E-003;6.320855463854969E-004;
2.416000000000000E+009;1.738077402114868E-001;-6.844690442085266E-002;1.489654998295009E-003;5.476009682752192E-004;
2.416166666666667E+009;1.740115284919739E-001;-6.870327889919281E-002;1.621247385628521E-003;4.353215917944908E-004;
2.416333333333334E+009;1.741154789924622E-001;-6.901832669973373E-002;1.621526200324297E-003;3.788092872127891E-004;
2.416500000000000E+009;1.740162819623947E-001;-6.941865384578705E-002;1.641220995225012E-003;2.995320537593216E-004;
2.416666666666667E+009;1.738269180059433E-001;-6.950736045837402E-002;1.551575143821538E-003;2.389118308201432E-004;
2.416833333333334E+009;1.736139059066773E-001;-6.985996663570404E-002;1.658601104281843E-003;1.245063776877942E-005;
2.417000000000000E+009;1.730941236019135E-001;-6.996100395917893E-002;1.757090212777257E-003;-3.978431777795777E-005;
2.417166666666667E+009;1.727327555418015E-001;-7.007288932800293E-002;1.724560745060444E-003;-8.366599649889395E-005;
2.417333333333334E+009;1.721185743808746E-001;-7.019625604152679E-002;1.736563979648054E-003;-1.421362685505301E-004;
2.417500000000000E+009;1.716561913490295E-001;-7.045661658048630E-002;1.837909105233848E-003;-2.125806931871921E-004;
2.417666666666667E+009;1.710011363029480E-001;-7.052512466907501E-002;1.640180358663201E-003;-2.217908331658691E-004;
2.417833333333334E+009;1.701128482818604E-001;-7.072991132736206E-002;1.560698379762471E-003;-2.216523862443864E-004;
2.418000000000000E+009;1.693627685308456E-001;-7.105327397584915E-002;1.702058827504516E-003;-3.702317189890891E-004;
2.418166666666667E+009;1.683708578348160E-001;-7.116563618183136E-002;1.710020937025547E-003;-3.397682739887387E-004;
2.418333333333334E+009;1.674791872501373E-001;-7.141362130641937E-002;1.708111143670976E-003;-4.594466008711606E-004;
2.418500000000000E+009;1.662895232439041E-001;-7.178398221731186E-002;1.760579529218376E-003;-3.757688391488046E-004;
2.418666666666667E+009;1.653648614883423E-001;-7.212796807289124E-002;1.760398969054222E-003;-5.279456963762641E-004;
2.418833333333334E+009;1.640981286764145E-001;-7.260078191757202E-002;1.712807803414762E-003;-5.440143868327141E-004;
2.419000000000000E+009;1.627897322177887E-001;-7.302743941545487E-002;1.699568005278707E-003;-7.150723249651492E-004;
2.419166666666667E+009;1.616089940071106E-001;-7.362523674964905E-002;1.683925511315465E-003;-6.766582955606282E-004;
2.419333333333334E+009;1.601741760969162E-001;-7.415037602186203E-002;1.669166376814246E-003;-7.524178945459425E-004;
2.419500000000000E+009;1.589724868535996E-001;-7.484000921249390E-002;1.652611768804491E-003;-7.396591827273369E-004;
2.419666666666667E+009;1.576730310916901E-001;-7.577565312385559E-002;1.663891016505659E-003;-7.835257565602660E-004;
2.419833333333334E+009;1.564332097768784E-001;-7.644697278738022E-002;1.756513840518892E-003;-8.613228565081954E-004;
2.420000000000000E+009;1.552874147891998E-001;-7.771264761686325E-002;1.731458003632724E-003;-9.839675622060895E-004;
2.420166666666667E+009;1.540500670671463E-001;-7.854612916707993E-002;1.658177585341036E-003;-9.148304816335440E-004;
2.420333333333334E+009;1.527984440326691E-001;-7.966876775026321E-002;1.806580577977002E-003;-1.027525053359568E-003;
2.420500000000000E+009;1.516701728105545E-001;-8.088124543428421E-002;1.881669857539237E-003;-9.653878514654934E-004;
2.420666666666667E+009;1.504789292812347E-001;-8.198758214712143E-002;1.756065757945180E-003;-1.106424839235842E-003;
2.420833333333334E+009;1.494003683328629E-001;-8.337142318487167E-002;1.684818067587912E-003;-1.246790285222232E-003;
2.421000000000000E+009;1.484287381172180E-001;-8.496854454278946E-002;1.845986698754132E-003;-1.211718074046075E-003;
2.421166666666667E+009;1.475213319063187E-001;-8.619725704193115E-002;1.851073931902647E-003;-1.419338746927679E-003;
2.421333333333334E+009;1.466459780931473E-001;-8.801040053367615E-002;1.794041949324310E-003;-1.564672915264964E-003;
2.421500000000000E+009;1.457704752683640E-001;-8.926381170749664E-002;1.929079066030681E-003;-1.520628924481571E-003;
2.421666666666667E+009;1.452477425336838E-001;-9.121478348970413E-002;1.781660714186728E-003;-1.787157612852752E-003;
2.421833333333334E+009;1.446457952260971E-001;-9.275837987661362E-002;1.901799929328263E-003;-1.823180704377592E-003;
2.422000000000000E+009;1.439506113529205E-001;-9.442076832056046E-002;1.731273718178272E-003;-1.675587147474289E-003;
2.422166666666667E+009;1.435252875089645E-001;-9.632225334644318E-002;1.738373888656497E-003;-2.049476606771350E-003;
2.422333333333334E+009;1.433888077735901E-001;-9.802010655403137E-002;1.710427575744689E-003;-1.926045049913228E-003;
2.422500000000000E+009;1.429463326931000E-001;-9.960652142763138E-002;1.597450114786625E-003;-2.276302082464099E-003;
2.422666666666667E+009;1.426749825477600E-001;-1.014990359544754E-001;1.625634497031570E-003;-2.401925623416901E-003;
2.422833333333334E+009;1.426801085472107E-001;-1.032843738794327E-001;1.663463539443910E-003;-2.600396052002907E-003;
2.423000000000000E+009;1.427004337310791E-001;-1.050683036446571E-001;1.709706033580005E-003;-2.600403968244791E-003;
2.423166666666667E+009;1.428132057189941E-001;-1.066666319966316E-001;1.563049736432731E-003;-2.757471287623048E-003;
2.423333333333334E+009;1.430691331624985E-001;-1.082213968038559E-001;1.338142552413046E-003;-2.956608077511191E-003;
2.423500000000000E+009;1.430848538875580E-001;-1.098452806472778E-001;1.141418353654444E-003;-3.115508006885648E-003;
2.423666666666667E+009;1.432014107704163E-001;-1.116963848471642E-001;1.259105862118304E-003;-3.338188631460071E-003;
2.423833333333334E+009;1.436958163976669E-001;-1.131066530942917E-001;1.043422613292933E-003;-3.325666766613722E-003;
2.424000000000000E+009;1.438931524753571E-001;-1.144274920225143E-001;9.159879409708083E-004;-3.511600894853473E-003;
2.424166666666667E+009;1.442259997129440E-001;-1.159831061959267E-001;7.672602660022676E-004;-3.680390538647771E-003;
2.424333333333334E+009;1.448626220226288E-001;-1.171317622065544E-001;6.964768399484456E-004;-3.649469465017319E-003;
2.424500000000000E+009;1.452543288469315E-001;-1.185140833258629E-001;3.857406845781952E-004;-3.812676761299372E-003;
2.424666666666667E+009;1.457456648349762E-001;-1.194069236516953E-001;1.688980119070038E-004;-3.814741503447294E-003;
2.424833333333334E+009;1.460951864719391E-001;-1.206086874008179E-001;6.245398981263861E-005;-3.847535233944655E-003;
2.425000000000000E+009;1.464580297470093E-001;-1.215145289897919E-001;-3.399427223484963E-004;-3.947294782847166E-003;
2.425166666666667E+009;1.467169225215912E-001;-1.224373504519463E-001;-5.019051022827625E-004;-4.035985097289085E-003;
2.425333333333334E+009;1.471784561872482E-001;-1.231532618403435E-001;-8.048589807003737E-004;-3.999250940978527E-003;
2.425500000000000E+009;1.477295011281967E-001;-1.238633468747139E-001;-9.434855892322958E-004;-3.999397624284029E-003;
2.425666666666667E+009;1.478137820959091E-001;-1.244611814618111E-001;-1.127465860918164E-003;-4.001766443252564E-003;
2.425833333333334E+009;1.481237411499023E-001;-1.251309514045715E-001;-1.535622053779662E-003;-4.002179484814405E-003;
2.426000000000000E+009;1.483837366104126E-001;-1.255693584680557E-001;-1.682360190898180E-003;-3.812043694779277E-003;
2.426166666666667E+009;1.487210094928742E-001;-1.259173005819321E-001;-1.770697068423033E-003;-3.767476649954915E-003;
2.426333333333334E+009;1.486552953720093E-001;-1.262395381927490E-001;-1.925286720506847E-003;-3.618977731093764E-003;
2.426500000000000E+009;1.488319486379623E-001;-1.262834072113037E-001;-2.093410817906261E-003;-3.371539060026407E-003;
2.426666666666667E+009;1.488120853900909E-001;-1.264185607433319E-001;-2.486272482201457E-003;-3.249269211664796E-003;
2.426833333333334E+009;1.485403627157211E-001;-1.265285313129425E-001;-2.465941943228245E-003;-3.196751466020942E-003;
2.427000000000000E+009;1.483173370361328E-001;-1.266536265611649E-001;-2.700763056054711E-003;-3.099592868238688E-003;
2.427166666666667E+009;1.480563879013062E-001;-1.264993995428085E-001;-2.666364656761289E-003;-2.806589240208268E-003;
2.427333333333334E+009;1.474904268980026E-001;-1.265483796596527E-001;-2.733549335971475E-003;-2.751268213614821E-003;
2.427500000000000E+009;1.470961868762970E-001;-1.265545338392258E-001;-2.953755669295788E-003;-2.491694875061512E-003;
2.427666666666667E+009;1.464663892984390E-001;-1.265746653079987E-001;-3.072708612307906E-003;-2.538785105571151E-003;
