# Hz S RI R 
2400000000.0000000000 0.154980123043060302734375000000 0.106419794261455494255308451557 0.000485529773868620395660400391 -0.004999203141778708371634198926 0 0 0 0 
2400166666.6666665077 0.154684364795684786697549384371 0.104069866240024594405966240629 0.000408617866924032623141688214 -0.005026465747505426406860351562 0 0 0 0 
2400333333.3333334923 0.154885903000831604003906250000 0.101691454648971599250550923443 0.000344475120073184425204676495 -0.004955390002578496932983398438 0 0 0 0 
2400500000.0000000000 0.154823884367942810058593750000 0.099002145230770111083984375000 0.000334426818881183916896265851 -0.004745097365230321884155273438 0 0 0 0 
2400666666.6666665077 0.155003204941749600509481865629 0.096473239362239837646484375000 0.000283916335320100188255310059 -0.004755664151161909103393554688 0 0 0 0 
2400833333.3333334923 0.155080735683441189864950615629 0.093722350895404815673828125000 0.000341474980814382379681187762 -0.004783632233738899230957031250 0 0 0 0 
2401000000.0000000000 0.155273839831352206131143134371 0.090927824378013610839843750000 0.000104025668406393406078061514 -0.004556417465209960937500000000 0 0 0 0 
2401166666.6666665077 0.155388861894607488434161268742 0.088178001344203948974609375000 0.000287429778836667483479100360 -0.004747642669826745986938476562 0 0 0 0 
2401333333.3333334923 0.155967906117439297775106865629 0.085487335920333862304687500000 0.000195526503375731408596038818 -0.004746926017105579376220703125 0 0 0 0 
2401500000.0000000000 0.156147450208663912674111884371 0.082525417208671569824218750000 0.000234711988014169010237017221 -0.004639117978513240814208984375 0 0 0 0 
2401666666.6666665077 0.156691089272499112228231865629 0.079846434295177459716796875000 0.000064157873566728085279464722 -0.004726618528366088867187500000 0 0 0 0 
2401833333.3333334923 0.157126799225807189941406250000 0.077216722071170806884765625000 0.000182679868885316008895319806 -0.004791982006281614303588867188 0 0 0 0 
2402000000.0000000000 0.157976180315017700195312500000 0.074308633804321289062500000000 -0.000039607442886335782032420499 -0.004904716275632380571847246387 0 0 0 0 
2402166666.6666665077 0.158841013908386202713174384371 0.071907512843608856201171875000 -0.000173025924596004188060760498 -0.004958266858011484146118164062 0 0 0 0 
2402333333.3333334923 0.159893348813057001311932481258 0.069221541285514831542968750000 -0.000262488320004194974899291992 -0.005019618663936853408813476562 0 0 0 0 
2402500000.0000000000 0.161060050129890386383380018742 0.066858999431133270263671875000 -0.000380253506591543609469813214 -0.004920654464513063430786132812 0 0 0 0 
2402666666.6666665077 0.162171959877014187911825615629 0.064569652080535888671875000000 -0.000576941180042922496795654297 -0.005104884039610624313354492188 0 0 0 0 
2402833333.3333334923 0.163596749305725097656250000000 0.061991818249225623393972028907 -0.000749883416574448347091674805 -0.005041641183197498321533203125 0 0 0 0 
2403000000.0000000000 0.164876461029052706619424384371 0.059762172400951392436940778907 -0.000896713580004870891571044922 -0.005095745902508497238159179688 0 0 0 0 
2403166666.6666665077 0.166658580303192110916299384371 0.057519678026437759399414062500 -0.001097876578569412014604878003 -0.005011374596506357192993164062 0 0 0 0 
2403333333.3333334923 0.168359950184822110275106865629 0.055309161543846130371093750000 -0.001195136690512299971339560400 -0.004954581614583730697631835938 0 0 0 0 
2403500000.0000000000 0.169792398810386713225994981258 0.053397830575704581523854841407 -0.001579446485266089005711220850 -0.004813745617866516113281250000 0 0 0 0 
2403666666.6666665077 0.171618968248367309570312500000 0.051523920148611068725585937500 -0.001683395006693900065181113135 -0.004607548471540212631225585938 0 0 0 0 
2403833333.3333334923 0.173190400004386901855468750000 0.049623370170593261718750000000 -0.001751774922013282992719340747 -0.004495227709412574768066406250 0 0 0 0 
2404000000.0000000000 0.174694791436195401290731865629 0.047906607389450073242187500000 -0.001749600167386234023450541919 -0.004276983439922332763671875000 0 0 0 0 
2404166666.6666665077 0.176511034369468688964843750000 0.046350073069334030151367187500 -0.001894469722174108028411865234 -0.004052834585309028625488281250 0 0 0 0 
2404333333.3333334923 0.178141266107559204101562500000 0.044762790203094482421875000000 -0.001811695517972111918805766528 -0.003945382777601481351370527051 0 0 0 0 
2404500000.0000000000 0.179717734456062289138955634371 0.043525435030460357666015625000 -0.001981699373573064804077148438 -0.003979110624641180038452148438 0 0 0 0 
2404666666.6666665077 0.181388199329376192947549384371 0.042438391596078872680664062500 -0.001904149656184018091914511572 -0.003854914102703332901000976562 0 0 0 0 
2404833333.3333334923 0.182966589927673312088174384371 0.041417606174945831298828125000 -0.002100904472172259850742959131 -0.003829649183899164199829101562 0 0 0 0 
2405000000.0000000000 0.184328168630600003341513115629 0.040597967803478240966796875000 -0.002086895052343606948852539062 -0.003881227225065230889561318506 0 0 0 0 
2405166666.6666665077 0.185829654335975702483807481258 0.039979565888643271709401716407 -0.002072936389595270156860351562 -0.003891629399731754822971963037 0 0 0 0 
2405333333.3333334923 0.187091916799545288085937500000 0.039534270763397216796875000000 -0.002189660212025045914890908350 -0.003934330772608518600463867188 0 0 0 0 
2405500000.0000000000 0.188523456454277010818643134371 0.038968175649642937397043596093 -0.002227726392447948889491415869 -0.003920074086636304855346679688 0 0 0 0 
2405666666.6666665077 0.189753234386444091796875000000 0.038672700524330139160156250000 -0.002237851032987236976623535156 -0.003718241350725293159484863281 0 0 0 0 
2405833333.3333334923 0.190966069698333712478799384371 0.038260120898485176776926408593 -0.002550068777054547829868935693 -0.003780991770327090783360146631 0 0 0 0 
2406000000.0000000000 0.191990330815315302093182481258 0.038116477429866790771484375000 -0.002745000179857016043422079932 -0.003712758421897888183593750000 0 0 0 0 
2406166666.6666665077 0.192779570817947387695312500000 0.037934411317110061645507812500 -0.002848233561962842941284179688 -0.003676675958558917045593261719 0 0 0 0 
2406333333.3333334923 0.193806856870651300628338731258 0.038016453385353088378906250000 -0.002988044871017336845397949219 -0.003578702919185162024257040869 0 0 0 0 
2406500000.0000000000 0.194516077637672396560830634371 0.037858720868825912475585937500 -0.002923196414485574202296591650 -0.003200907027348875999450683594 0 0 0 0 
2406666666.6666665077 0.195043772459030206878338731258 0.037873759865760803222656250000 -0.002932180417701601982116699219 -0.003174592042341827912571572412 0 0 0 0 
2406833333.3333334923 0.195701822638511713225994981258 0.037824720144271850585937500000 -0.003044740064069629149196005713 -0.003050608327612280845642089844 0 0 0 0 
2407000000.0000000000 0.195799887180328396896200615629 0.037959892302751541137695312500 -0.003089280100539327101466513525 -0.002907239599153399901149130713 0 0 0 0 
2407166666.6666665077 0.196343943476676913162393134371 0.037791352719068527221679687500 -0.002973534399643539948704384912 -0.002968157641589642004725790869 0 0 0 0 
2407333333.3333334923 0.196164608001709012130575615629 0.037863649427890777587890625000 -0.003256727475672959847691201318 -0.002831206424161791801452636719 0 0 0 0 
2407500000.0000000000 0.196028187870979309082031250000 0.037931066006422042846679687500 -0.003153454512357711791992187500 -0.002765764016658068136927939307 0 0 0 0 
2407666666.6666665077 0.195930123329162597656250000000 0.037889555096626281738281250000 -0.003042022697627543969395302881 -0.002594941528514028029200888525 0 0 0 0 
2407833333.3333334923 0.195470735430717496017294365629 0.037649437785148620605468750000 -0.003110512392595409913303994287 -0.002554955659434198899510048975 0 0 0 0 
2408000000.0000000000 0.195391312241554288009481865629 0.037433534860610961914062500000 -0.003094377927482128143310546875 -0.002589397830888628959655761719 0 0 0 0 
2408166666.6666665077 0.194825857877731295486611884371 0.037100844085216522216796875000 -0.003165002912282944159266806494 -0.002568689640611410140991210938 0 0 0 0 
2408333333.3333334923 0.194279223680496188064736884371 0.036439932882785797119140625000 -0.003030981635674833817722939600 -0.002440873999148606820347451318 0 0 0 0 
2408500000.0000000000 0.193730935454368591308593750000 0.036069165915250778198242187500 -0.002982077421620488166809082031 -0.002343349158763885931727743994 0 0 0 0 
2408666666.6666665077 0.192982643842697088043536268742 0.035507943481206886982004533593 -0.003120545530691742897033691406 -0.002444901969283819198608398438 0 0 0 0 
2408833333.3333334923 0.192298963665962191482705634371 0.034759901463985443115234375000 -0.003030365332961082892176962744 -0.002499921945855021910426474463 0 0 0 0 
2409000000.0000000000 0.191224858164787292480468750000 0.033706124871969223022460937500 -0.003181134117767215208766318213 -0.002524021081626414819004677881 0 0 0 0 
2409166666.6666665077 0.190312668681144686599893134371 0.032755389809608459472656250000 -0.003191870171576737923863076318 -0.002426557708531618118286132812 0 0 0 0 
2409333333.3333334923 0.189398989081382806975994981258 0.031698741018772132183034528907 -0.003350504674017428918125771631 -0.002372822258621453805210732568 0 0 0 0 
2409500000.0000000000 0.188285663723945589920205634371 0.030449457466602328908900076954 -0.003448935691267251968383789062 -0.002572122961282730102539062500 0 0 0 0 
2409666666.6666665077 0.187402993440628107268963731258 0.029041675850749019277552420704 -0.003496100660413504080531454932 -0.002444057259708642959594726562 0 0 0 0 
2409833333.3333334923 0.186175897717475891113281250000 0.027420261874794960021972656250 -0.003422524081543087959289550781 -0.002374716568738222122192382812 0 0 0 0 
2410000000.0000000000 0.185328722000122098068075615629 0.026001393795013431203821951954 -0.003475051838904618783238076318 -0.002333321375772356986999511719 0 0 0 0 
2410166666.6666665077 0.184237554669380187988281250000 0.024013902992010120046595389454 -0.003611870808526874022242880713 -0.002374952426180243925807333838 0 0 0 0 
2410333333.3333334923 0.183285921812057495117187500000 0.022363515570759769784947579296 -0.003794572548940778212306357275 -0.002460427582263946966883993994 0 0 0 0 
2410500000.0000000000 0.182443633675575311858807481258 0.020274693146347999572753906250 -0.003811619943007826805114746094 -0.002293486380949615998509072412 0 0 0 0 
2410666666.6666665077 0.181395113468170193771200615629 0.017980501055717471731165701954 -0.004045375157147645950317382812 -0.002225552685558795928955078125 0 0 0 0 
2410833333.3333334923 0.180898889899253900725994981258 0.016065834090113639831542968750 -0.004041966050863265991210937500 -0.002218268578872085051295615088 0 0 0 0 
2411000000.0000000000 0.180186331272125188629473768742 0.013755166903138160705566406250 -0.004149423446506261825561523438 -0.002139038639143108887913369287 0 0 0 0 
2411166666.6666665077 0.179422125220298794845419365629 0.011607917025685310363769531250 -0.004281393252313137054443359375 -0.002101148944348096847534179688 0 0 0 0 
2411333333.3333334923 0.179108813405036898513955634371 0.009187557734549045562744140625 -0.004360585007816553115844726562 -0.001900336006656289100646972656 0 0 0 0 
2411500000.0000000000 0.178626120090484591385049384371 0.006847529206424952420706464551 -0.004328345414251089096069335938 -0.001931229257024825052974081885 0 0 0 0 
2411666666.6666665077 0.178414374589919988434161268742 0.004295163787901402387137128613 -0.004612261895090341567993164062 -0.001708450843580066940904926831 0 0 0 0 
2411833333.3333334923 0.178195521235466003417968750000 0.002154381014406681060791015625 -0.004591281525790691375732421875 -0.001599325099959969954249716650 0 0 0 0 
2412000000.0000000000 0.178285703063011197189169365629 -0.000439777708379551822513026105 -0.004675051197409629821777343750 -0.001486568711698055050493549878 0 0 0 0 
2412166666.6666665077 0.178280964493751498123330634371 -0.002666678046807647185084677588 -0.004827796481549739837646484375 -0.001457463135011493942858051831 0 0 0 0 
2412333333.3333334923 0.178622037172317504882812500000 -0.005136465188115835189819335938 -0.004919225815683603286743164062 -0.001319213071838021061540913159 0 0 0 0 
2412500000.0000000000 0.179006353020668002029580634371 -0.007538472302258014678955078125 -0.005084831267595291137695312500 -0.001251818146556616046308207935 0 0 0 0 
2412666666.6666665077 0.179469451308250399490518134371 -0.009897735901176929473876953125 -0.005008553620427846908569335938 -0.001153381075710057995439838940 0 0 0 0 
2412833333.3333334923 0.180260539054870605468750000000 -0.012360273860394959885566912305 -0.005238101817667484283447265625 -0.000957376032602041959762573242 0 0 0 0 
2413000000.0000000000 0.180932953953743008712606865629 -0.014614866115152839315394217579 -0.005292031448334456357474042676 -0.000881346233654767274856567383 0 0 0 0 
2413166666.6666665077 0.181594252586364801604901231258 -0.016747355461120608938196951954 -0.005433870479464530944824218750 -0.000632309354841709136962890625 0 0 0 0 
2413333333.3333334923 0.182810321450233487228231865629 -0.018999798223376270639439766796 -0.005605508573353291425223066113 -0.000326291134115308523178100586 0 0 0 0 
2413500000.0000000000 0.183715850114822387695312500000 -0.021275907754898071289062500000 -0.005722008645534515380859375000 -0.000085988016508053988218307495 0 0 0 0 
2413666666.6666665077 0.184900224208831787109375000000 -0.023353729397058490407923514454 -0.005869000684469938278198242188 0.000039720122003927826881408691 0 0 0 0 
2413833333.3333334923 0.185884326696395901779013115629 -0.025521544739603999746302420704 -0.005833175498992204666137695312 0.000362959632184356505244654523 0 0 0 0 
2414000000.0000000000 0.186981439590454101562500000000 -0.027233017608523368835449218750 -0.005867949221283197402954101562 0.000726782076526433229446411133 0 0 0 0 
2414166666.6666665077 0.188177615404129000564736884371 -0.028928201645612720144251639454 -0.005916117690503597259521484375 0.001051755622029304938075400244 0 0 0 0 
2414333333.3333334923 0.189253419637680109222088731258 -0.030909489840269088745117187500 -0.005680028814822435379028320312 0.001281661097891628959058452075 0 0 0 0 
2414500000.0000000000 0.190632417798042297363281250000 -0.032417893409728996967356096093 -0.005755867809057235717773437500 0.001588346203789114952087402344 0 0 0 0 
2414666666.6666665077 0.191822767257690401931924384371 -0.033804703503847122192382812500 -0.005440469365566968917846679688 0.001837362535297871069667197119 0 0 0 0 
2414833333.3333334923 0.192950338125228909591513115629 -0.035177644342184066772460937500 -0.005300265736877918243408203125 0.002065127715468407110926962744 0 0 0 0 
2415000000.0000000000 0.193983212113380404373330634371 -0.036431744694709777832031250000 -0.005165223032236099243164062500 0.002268384909257293181178427588 0 0 0 0 
2415166666.6666665077 0.195292875170707702636718750000 -0.037384457886219031597097028907 -0.005047529935836791992187500000 0.002383789513260126113891601562 0 0 0 0 
2415333333.3333334923 0.196280434727668789962606865629 -0.038420096039772026752512346093 -0.004914121236652135848999023438 0.002565997419878840012791298975 0 0 0 0 
2415500000.0000000000 0.197515979409217806717080634371 -0.038980774581432342529296875000 -0.004894413053989410400390625000 0.002838819054886699156520224463 0 0 0 0 
2415666666.6666665077 0.198495611548423794845419365629 -0.039901308715343482280690778907 -0.004613574128597974777221679688 0.003029109677299857139587402344 0 0 0 0 
2415833333.3333334923 0.199262186884880093673544365629 -0.040382035076618201518972028907 -0.004607760813087224960327148438 0.003175358055159450011012411963 0 0 0 0 
2416000000.0000000000 0.200113490223884610275106865629 -0.041020013391971588134765625000 -0.004264749586582183837890625000 0.003404798218980431990382529150 0 0 0 0 
2416166666.6666665077 0.200816661119461087325888115629 -0.041581500321626663208007812500 -0.004011611454188823699951171875 0.003548015840351582007167197119 0 0 0 0 
2416333333.3333334923 0.201399132609367398361044365629 -0.041833039373159408569335937500 -0.003920143004506826400756835938 0.003541520563885570006129599463 0 0 0 0 
2416500000.0000000000 0.201783612370491000076455634371 -0.042131587862968451763112653907 -0.003555798437446355819702148438 0.003719150088727474212646484375 0 0 0 0 
2416666666.6666665077 0.202088847756385803222656250000 -0.042377639561891562725026716407 -0.003404026851058005852940224756 0.003908157348632813367361737988 0 0 0 0 
2416833333.3333334923 0.202227637171745300292968750000 -0.042545266449451446533203125000 -0.003150589298456906838657998193 0.003833101131021976904628134619 0 0 0 0 
2417000000.0000000000 0.202230125665664700607138115629 -0.042638860642909996723215471093 -0.002912481548264623121974326025 0.003806310473009943962097167969 0 0 0 0 
2417166666.6666665077 0.202104017138481112381143134371 -0.042567670345306403423268903907 -0.002703388687223196029663085938 0.003891071304678916931152343750 0 0 0 0 
2417333333.3333334923 0.201801404356956509689169365629 -0.042479742318391799926757812500 -0.002547147683799266815185546875 0.003795841010287404060363769531 0 0 0 0 
2417500000.0000000000 0.201586693525314303299111884371 -0.042470738291740417480468750000 -0.002420943230390549139735556494 0.003726091934368013901951455225 0 0 0 0 
2417666666.6666665077 0.201014742255210904220419365629 -0.042253509163856513286550153907 -0.002152883447706698937657021631 0.003604368306696414947509765625 0 0 0 0 
2417833333.3333334923 0.200465977191925104339276231258 -0.042090408504009246826171875000 -0.001938685658387840010999370044 0.003510096808895469145533896338 0 0 0 0 
2418000000.0000000000 0.199774086475372286697549384371 -0.041880995035171508789062500000 -0.001846700208261609077453613281 0.003445717273280024962184286963 0 0 0 0 
2418166666.6666665077 0.199069976806640597244424384371 -0.041911162436008453369140625000 -0.001843687263317405960680317456 0.003365637967362999916076660156 0 0 0 0 
2418333333.3333334923 0.198102697730064392089843750000 -0.041700627654790878295898437500 -0.001756783807650208906886435400 0.003390597645193337960484170068 0 0 0 0 
2418500000.0000000000 0.197077333927154513260049384371 -0.041736930608749389648437500000 -0.001792569644749165014979697119 0.003193805227056146101710654150 0 0 0 0 
2418666666.6666665077 0.196122914552688598632812500000 -0.041607312858104712749440778907 -0.001919178524985909895655966650 0.003081258619204163985011435400 0 0 0 0 
2418833333.3333334923 0.194892346858978299239950615629 -0.041964843869209289550781250000 -0.001746691414155066013336181641 0.003089417237788438796997070312 0 0 0 0 
2419000000.0000000000 0.193556427955627413650674384371 -0.042121298611164093017578125000 -0.001688469783402978940251015771 0.003122081747278571128845214844 0 0 0 0 
2419166666.6666665077 0.192362189292907687088174384371 -0.042505044490098953247070312500 -0.001794621697627007961273193359 0.003122905036434531211853027344 0 0 0 0 
2419333333.3333334923 0.190871849656105013748330634371 -0.042985446751117713237722028907 -0.001844680751673877022386860425 0.002842610003426671028137207031 0 0 0 0 
2419500000.0000000000 0.189456477761268587967080634371 -0.043403271585702903057057966407 -0.001716214814223349094390869141 0.002833186415955423875095986475 0 0 0 0 
2419666666.6666665077 0.187812417745590209960937500000 -0.044245947152376181865651716407 -0.001841040211729704900028847803 0.002882544649764895005467080225 0 0 0 0 
2419833333.3333334923 0.186268821358680697342080634371 -0.044924292713403701782226562500 -0.001790940994396805980085063403 0.002831425052136182785034179688 0 0 0 0 
