# Version 1.00
#
freq[Hz];re:Trc1_S11;im:Trc1_S11;re:Trc2_S21;im:Trc2_S21;
2.400000000000000E+009;1.689727753400803E-001;4.563607275485992E-002;-5.572059191763401E-003;-1.399157801643014E-003;
2.400166666666667E+009;1.698186844587326E-001;4.463892430067062E-002;-5.659638904035091E-003;-1.304538338445127E-003;
2.400333333333334E+009;1.709482371807098E-001;4.342115297913551E-002;-5.551568232476711E-003;-1.003968762233853E-003;
2.400500000000000E+009;1.718485653400421E-001;4.235704243183136E-002;-5.715384613722563E-003;-7.342792814597487E-004;
2.400666666666667E+009;1.727106869220734E-001;4.146613925695419E-002;-5.805887747555971E-003;-7.209139876067638E-004;
2.400833333333334E+009;1.736604571342468E-001;4.069286212325096E-002;-5.707840435206890E-003;-3.081930917687714E-004;
2.401000000000000E+009;1.744056493043900E-001;3.997374698519707E-002;-5.750731565058231E-003;-5.052878259448335E-005;
2.401166666666667E+009;1.750229001045227E-001;3.911829367280006E-002;-5.774759687483311E-003;5.323268123902381E-005;
2.401333333333334E+009;1.758019030094147E-001;3.850837796926498E-002;-5.726910196244717E-003;2.238378947367892E-004;
2.401500000000000E+009;1.766167432069778E-001;3.791405633091927E-002;-5.901827476918697E-003;4.575543280225247E-004;
2.401666666666667E+009;1.773354709148407E-001;3.730844333767891E-002;-5.674798041582108E-003;7.089902064763010E-004;
2.401833333333334E+009;1.779173463582993E-001;3.670141845941544E-002;-5.681060720235109E-003;1.047898316755891E-003;
2.402000000000000E+009;1.780288517475128E-001;3.618194162845612E-002;-5.488045047968626E-003;1.297300797887147E-003;
2.402166666666667E+009;1.787280738353729E-001;3.562179207801819E-002;-5.458842497318983E-003;1.519175828434527E-003;
2.402333333333334E+009;1.787781119346619E-001;3.492423892021179E-002;-5.438651889562607E-003;1.843852456659079E-003;
2.402500000000000E+009;1.793962419033051E-001;3.452294319868088E-002;-5.308359861373901E-003;2.156336558982730E-003;
2.402666666666667E+009;1.795266121625900E-001;3.385078161954880E-002;-5.449398886412382E-003;2.047013258561492E-003;
2.402833333333334E+009;1.797807365655899E-001;3.331716731190682E-002;-5.186608992516995E-003;2.251248108223081E-003;
2.403000000000000E+009;1.797819733619690E-001;3.246469050645828E-002;-5.035018082708120E-003;2.620638580992818E-003;
2.403166666666667E+009;1.799368262290955E-001;3.191232681274414E-002;-5.003042053431273E-003;2.823738381266594E-003;
2.403333333333334E+009;1.799209862947464E-001;3.098923340439796E-002;-4.927197005599737E-003;3.000982571393251E-003;
2.403500000000000E+009;1.796002537012100E-001;3.016587533056736E-002;-4.849418532103300E-003;3.043983597308397E-003;
2.403666666666667E+009;1.793078929185867E-001;2.899342961609364E-002;-4.610220901668072E-003;3.241382539272308E-003;
2.403833333333334E+009;1.792407035827637E-001;2.791338227689266E-002;-4.359193146228790E-003;3.510263981297612E-003;
2.404000000000000E+009;1.787680536508560E-001;2.708347700536251E-002;-4.228909034281969E-003;3.676838008686900E-003;
2.404166666666667E+009;1.784181892871857E-001;2.570801228284836E-002;-4.158103372901678E-003;3.894614055752754E-003;
2.404333333333334E+009;1.780467182397842E-001;2.443990670144558E-002;-3.940013702958822E-003;3.912326879799366E-003;
2.404500000000000E+009;1.774467378854752E-001;2.311037294566631E-002;-3.832111135125160E-003;4.177635535597801E-003;
2.404666666666667E+009;1.768489032983780E-001;2.188265882432461E-002;-3.496756777167320E-003;4.318469669669867E-003;
2.404833333333334E+009;1.763410866260529E-001;2.018995955586433E-002;-3.368408186361194E-003;4.343369975686073E-003;
2.405000000000000E+009;1.760093718767166E-001;1.882892474532127E-002;-3.110790392383933E-003;4.591430537402630E-003;
2.405166666666667E+009;1.754414141178131E-001;1.735940389335156E-002;-2.797191264107823E-003;4.708692431449890E-003;
2.405333333333334E+009;1.750637143850327E-001;1.560079865157604E-002;-2.788676647469401E-003;4.569219890981913E-003;
2.405500000000000E+009;1.746534109115601E-001;1.409787405282259E-002;-2.346803667023778E-003;4.631191957741976E-003;
2.405666666666667E+009;1.742424815893173E-001;1.228006370365620E-002;-2.470496343448758E-003;4.661840852349997E-003;
2.405833333333334E+009;1.737295687198639E-001;1.047391537576914E-002;-2.147503895685077E-003;4.620425868779421E-003;
2.406000000000000E+009;1.735079735517502E-001;8.624293841421604E-003;-1.871011103503406E-003;4.688865039497614E-003;
2.406166666666667E+009;1.731078475713730E-001;6.816491484642029E-003;-1.701541477814317E-003;4.739189054816961E-003;
2.406333333333334E+009;1.730905175209045E-001;4.822178743779659E-003;-1.365874428302050E-003;4.852520767599344E-003;
2.406500000000000E+009;1.728146970272064E-001;2.738262061029673E-003;-1.354020670987666E-003;4.707575310021639E-003;
2.406666666666667E+009;1.726355254650116E-001;8.478981908410788E-004;-1.098809647373855E-003;4.704931750893593E-003;
2.406833333333334E+009;1.727406978607178E-001;-1.340768532827497E-003;-9.184852824546397E-004;4.733248148113489E-003;
2.407000000000000E+009;1.726529002189636E-001;-3.405448514968157E-003;-9.491984383203089E-004;4.630271345376968E-003;
2.407166666666667E+009;1.729692816734314E-001;-5.363973788917065E-003;-7.653378415852785E-004;4.855400417000055E-003;
2.407333333333334E+009;1.728857606649399E-001;-7.617699448019266E-003;-5.025609279982746E-004;4.585682880133390E-003;
2.407500000000000E+009;1.730335354804993E-001;-9.698900394141674E-003;-6.065478082746267E-004;4.610010888427496E-003;
2.407666666666667E+009;1.731895357370377E-001;-1.180548220872879E-002;-3.641136572696269E-004;4.593035206198692E-003;
2.407833333333334E+009;1.734459996223450E-001;-1.401896029710770E-002;-1.195283693959937E-004;4.591356962919235E-003;
2.408000000000000E+009;1.738863587379456E-001;-1.602973975241184E-002;3.502816252876073E-005;4.709941335022450E-003;
2.408166666666667E+009;1.741713881492615E-001;-1.788851805031300E-002;2.939243277069181E-004;4.455669783055782E-003;
2.408333333333334E+009;1.748184263706207E-001;-1.978796720504761E-002;3.942662151530385E-004;4.675247706472874E-003;
2.408500000000000E+009;1.750283092260361E-001;-2.186606079339981E-002;4.251904028933495E-004;4.562026821076870E-003;
2.408666666666667E+009;1.755411624908447E-001;-2.370620891451836E-002;4.967445274814963E-004;4.522350616753101E-003;
2.408833333333334E+009;1.758550554513931E-001;-2.545052953064442E-002;8.576123509556055E-004;4.371228627860546E-003;
2.409000000000000E+009;1.761371046304703E-001;-2.699291147291660E-002;8.937303209677339E-004;4.398758988827467E-003;
2.409166666666667E+009;1.767103224992752E-001;-2.865747176110745E-002;8.267607190646231E-004;4.315878730267286E-003;
2.409333333333334E+009;1.772254854440689E-001;-3.004123643040657E-002;1.097222208045423E-003;4.211969673633575E-003;
2.409500000000000E+009;1.777129620313644E-001;-3.164396435022354E-002;1.129571581259370E-003;4.305546637624502E-003;
2.409666666666667E+009;1.780107170343399E-001;-3.280182555317879E-002;1.244028331711888E-003;4.343532025814056E-003;
2.409833333333334E+009;1.783910244703293E-001;-3.388761729001999E-002;1.529532484710217E-003;4.209794569760561E-003;
2.410000000000000E+009;1.789346784353256E-001;-3.488198667764664E-002;1.451584044843912E-003;4.249241203069687E-003;
2.410166666666667E+009;1.793809235095978E-001;-3.581408411264420E-002;1.666344585828483E-003;4.091890063136816E-003;
2.410333333333334E+009;1.797975450754166E-001;-3.660231083631516E-002;1.901041483506560E-003;4.050679039210081E-003;
2.410500000000000E+009;1.802896410226822E-001;-3.747133910655975E-002;2.079979516565800E-003;4.132091999053955E-003;
2.410666666666667E+009;1.806499511003494E-001;-3.838477283716202E-002;2.148512052372098E-003;3.950782585889101E-003;
2.410833333333334E+009;1.811392009258270E-001;-3.892716765403748E-002;2.339321654289961E-003;3.917953465133905E-003;
2.411000000000000E+009;1.813407689332962E-001;-3.934334218502045E-002;2.356234472244978E-003;3.931952640414238E-003;
2.411166666666667E+009;1.816080808639526E-001;-3.978481143712997E-002;2.587692113593221E-003;3.712472971528769E-003;
2.411333333333334E+009;1.817476600408554E-001;-4.053192213177681E-002;2.638189354911447E-003;3.457683604210615E-003;
2.411500000000000E+009;1.817948371171951E-001;-4.099736735224724E-002;2.841413952410221E-003;3.510549664497376E-003;
2.411666666666667E+009;1.818679869174957E-001;-4.145104810595512E-002;3.002773504704237E-003;3.330774838104844E-003;
2.411833333333334E+009;1.818025559186935E-001;-4.173350706696510E-002;3.168615046888590E-003;3.144728252664208E-003;
2.412000000000000E+009;1.814381480216980E-001;-4.224096611142159E-002;3.235029056668282E-003;3.166395705193281E-003;
2.412166666666667E+009;1.812549531459808E-001;-4.251021519303322E-002;3.376231063157320E-003;2.816655905917287E-003;
2.412333333333334E+009;1.808925867080689E-001;-4.296259582042694E-002;3.423819784075022E-003;2.770464634522796E-003;
2.412500000000000E+009;1.803261190652847E-001;-4.315558075904846E-002;3.537122160196304E-003;2.470369217917323E-003;
2.412666666666667E+009;1.799552887678146E-001;-4.370659589767456E-002;3.516223281621933E-003;2.216714667156339E-003;
2.412833333333334E+009;1.792317330837250E-001;-4.390864074230194E-002;3.631414147093892E-003;1.905954442918301E-003;
2.413000000000000E+009;1.786491572856903E-001;-4.436825960874558E-002;3.439469030126929E-003;2.107802545651794E-003;
2.413166666666667E+009;1.775677204132080E-001;-4.468613117933273E-002;3.455491503700614E-003;1.785149215720594E-003;
2.413333333333334E+009;1.767361313104630E-001;-4.526262730360031E-002;3.651250153779984E-003;1.668084063567221E-003;
2.413500000000000E+009;1.759196221828461E-001;-4.572059586644173E-002;3.399508306756616E-003;1.550145098008215E-003;
2.413666666666667E+009;1.747951209545136E-001;-4.621339961886406E-002;3.333088709041476E-003;1.445454312488437E-003;
2.413833333333334E+009;1.736043691635132E-001;-4.688991233706474E-002;3.396088257431984E-003;1.312645268626511E-003;
2.414000000000000E+009;1.724339425563812E-001;-4.735379666090012E-002;3.258826211094856E-003;1.399054774083197E-003;
2.414166666666667E+009;1.713779419660568E-001;-4.814608767628670E-002;3.453263314440846E-003;1.351504470221698E-003;
2.414333333333334E+009;1.701287627220154E-001;-4.896121472120285E-002;3.316313493996859E-003;1.101491507142782E-003;
2.414500000000000E+009;1.690653562545776E-001;-4.986706748604775E-002;3.442618530243635E-003;1.116944593377411E-003;
2.414666666666667E+009;1.678953915834427E-001;-5.063669010996819E-002;3.402590285986662E-003;1.098029897548258E-003;
2.414833333333334E+009;1.665457040071487E-001;-5.171211436390877E-002;3.392676124349237E-003;1.018094480969012E-003;
2.415000000000000E+009;1.653092056512833E-001;-5.282208696007729E-002;3.248531837016344E-003;1.093458384275436E-003;
2.415166666666667E+009;1.641215533018112E-001;-5.391093716025353E-002;3.367648925632238E-003;8.667794172652066E-004;
2.415333333333334E+009;1.630188375711441E-001;-5.510785058140755E-002;3.543026512488723E-003;8.391127921640873E-004;
2.415500000000000E+009;1.619595587253571E-001;-5.652824044227600E-002;3.594882320612669E-003;7.744058384560049E-004;
2.415666666666667E+009;1.607641130685806E-001;-5.804355069994927E-002;3.630043473094702E-003;6.959406891837716E-004;
2.415833333333334E+009;1.597499996423721E-001;-5.952608212828636E-002;3.588004503399134E-003;5.998252891004086E-004;
2.416000000000000E+009;1.584580689668655E-001;-6.122860312461853E-002;3.693818813189864E-003;3.399937413632870E-004;
2.416166666666667E+009;1.576288342475891E-001;-6.284662336111069E-002;3.686934709548950E-003;4.467140824999660E-004;
2.416333333333334E+009;1.566659361124039E-001;-6.454487890005112E-002;3.657315857708454E-003;2.092482318403199E-004;
2.416500000000000E+009;1.557006686925888E-001;-6.649892777204514E-002;3.828615183010697E-003;2.425131679046899E-004;
2.416666666666667E+009;1.548881828784943E-001;-6.832630932331085E-002;3.808645065873861E-003;-1.610061553947162E-005;
2.416833333333334E+009;1.540756672620773E-001;-7.016763836145401E-002;3.721218556165695E-003;-2.251951664220542E-004;
2.417000000000000E+009;1.531378477811813E-001;-7.211204618215561E-002;3.662627190351486E-003;-3.879405558109283E-004;
2.417166666666667E+009;1.525965034961700E-001;-7.388728111982346E-002;3.546106861904264E-003;-5.416159983724356E-004;
2.417333333333334E+009;1.519411653280258E-001;-7.584731280803680E-002;3.636119654402137E-003;-5.197542486712337E-004;
2.417500000000000E+009;1.513708084821701E-001;-7.790210843086243E-002;3.621610114350915E-003;-6.142645142972469E-004;
2.417666666666667E+009;1.509995162487030E-001;-7.963877916336060E-002;3.351324936375022E-003;-8.153534145094454E-004;
2.417833333333334E+009;1.506220251321793E-001;-8.142425119876862E-002;3.419583896175027E-003;-8.957811514846981E-004;
2.418000000000000E+009;1.501014977693558E-001;-8.339849859476090E-002;3.488517366349697E-003;-9.932708926498890E-004;
2.418166666666667E+009;1.497444063425064E-001;-8.505045622587204E-002;3.317308612167835E-003;-1.123447553254664E-003;
2.418333333333334E+009;1.499039232730866E-001;-8.689487725496292E-002;3.061540191993117E-003;-1.320504816249013E-003;
2.418500000000000E+009;1.496144086122513E-001;-8.833350241184235E-002;2.960253506898880E-003;-1.279219402931631E-003;
2.418666666666667E+009;1.496897786855698E-001;-8.992961049079895E-002;2.978347474709153E-003;-1.305688172578812E-003;
2.418833333333334E+009;1.493542492389679E-001;-9.145729243755341E-002;2.953295130282641E-003;-1.331855659373105E-003;
2.419000000000000E+009;1.493272483348846E-001;-9.261734038591385E-002;2.684144768863916E-003;-1.482834108173847E-003;
2.419166666666667E+009;1.495019495487213E-001;-9.399317950010300E-002;2.611911389976740E-003;-1.441862201318145E-003;
2.419333333333334E+009;1.494531184434891E-001;-9.500287473201752E-002;2.649790141731501E-003;-1.426512026228011E-003;
2.419500000000000E+009;1.495523899793625E-001;-9.619297832250595E-002;2.690796507522464E-003;-1.486302935518324E-003;
2.419666666666667E+009;1.499526202678680E-001;-9.712287038564682E-002;2.599240280687809E-003;-1.569417654536665E-003;
2.419833333333334E+009;1.500480473041534E-001;-9.785551577806473E-002;2.619703998789191E-003;-1.434386940672994E-003;
2.420000000000000E+009;1.502569615840912E-001;-9.845697879791260E-002;2.437155460938811E-003;-1.579861389473081E-003;
2.420166666666667E+009;1.505706906318665E-001;-9.903977811336517E-002;2.582877175882459E-003;-1.565370475873351E-003;
2.420333333333334E+009;1.508402079343796E-001;-9.948194026947022E-002;2.416591392830014E-003;-1.522865961305797E-003;
2.420500000000000E+009;1.510222405195236E-001;-9.976501017808914E-002;2.534525934606791E-003;-1.614963635802269E-003;
2.420666666666667E+009;1.512911915779114E-001;-1.000407710671425E-001;2.479320624843240E-003;-1.606110716238618E-003;
2.420833333333334E+009;1.515640914440155E-001;-1.001849174499512E-001;2.672208240255714E-003;-1.479197293519974E-003;
2.421000000000000E+009;1.518192291259766E-001;-1.002912595868111E-001;2.497144974768162E-003;-1.527268788777292E-003;
2.421166666666667E+009;1.519911140203476E-001;-1.003058627247810E-001;2.618245314806700E-003;-1.577536575496197E-003;
2.421333333333334E+009;1.521111726760864E-001;-1.003445982933044E-001;2.680516336113215E-003;-1.625359756872058E-003;
2.421500000000000E+009;1.522072702646256E-001;-1.002213954925537E-001;2.765477402135730E-003;-1.756462850607932E-003;
2.421666666666667E+009;1.522578895092011E-001;-9.997020661830902E-002;2.878304105252028E-003;-1.963437767699361E-003;
2.421833333333334E+009;1.521741449832916E-001;-9.974785894155502E-002;2.796018496155739E-003;-1.998961204662919E-003;
2.422000000000000E+009;1.521075963973999E-001;-9.960530698299408E-002;2.784600481390953E-003;-2.048755530267954E-003;
2.422166666666667E+009;1.518574506044388E-001;-9.944792091846466E-002;2.884812187403441E-003;-2.423716476187110E-003;
2.422333333333334E+009;1.514950543642044E-001;-9.909106791019440E-002;2.953831804916263E-003;-2.580750035122037E-003;
2.422500000000000E+009;1.512342095375061E-001;-9.868191927671433E-002;2.910552779212594E-003;-2.789979334920645E-003;
2.422666666666667E+009;1.503829360008240E-001;-9.855955839157105E-002;2.490726299583912E-003;-2.930535934865475E-003;
2.422833333333334E+009;1.498622000217438E-001;-9.829467535018921E-002;2.646207343786955E-003;-3.175076562911272E-003;
2.423000000000000E+009;1.491188108921051E-001;-9.790429472923279E-002;2.644276479259133E-003;-3.358483780175448E-003;
2.423166666666667E+009;1.481377333402634E-001;-9.760428965091705E-002;2.438407856971026E-003;-3.576965071260929E-003;
2.423333333333334E+009;1.473639309406281E-001;-9.707907587289810E-002;2.250594785436988E-003;-3.696091938763857E-003;
2.423500000000000E+009;1.463737785816193E-001;-9.706114232540131E-002;2.017954830080271E-003;-3.918066155165434E-003;
2.423666666666667E+009;1.450853645801544E-001;-9.684167057275772E-002;2.011839300394058E-003;-4.032212309539318E-003;
2.423833333333334E+009;1.439892649650574E-001;-9.659773111343384E-002;1.517514465376735E-003;-4.102745559066534E-003;
2.424000000000000E+009;1.425285935401917E-001;-9.620326757431030E-002;1.192350056953728E-003;-4.298829473555088E-003;
2.424166666666667E+009;1.413124054670334E-001;-9.622418880462647E-002;1.024014083668590E-003;-4.286786075681448E-003;
2.424333333333334E+009;1.398648470640183E-001;-9.607947617769241E-002;8.914503850974143E-004;-4.283175338059664E-003;
2.424500000000000E+009;1.384408175945282E-001;-9.623484313488007E-002;4.926535184495151E-004;-4.336602520197630E-003;
2.424666666666667E+009;1.372264474630356E-001;-9.607637673616409E-002;4.277496482245624E-004;-4.412879701703787E-003;
2.424833333333334E+009;1.355095207691193E-001;-9.634084999561310E-002;2.619266160763800E-004;-4.371644463390112E-003;
2.425000000000000E+009;1.342016607522965E-001;-9.668785333633423E-002;-1.380870817229152E-004;-4.222145769745112E-003;
2.425166666666667E+009;1.325695365667343E-001;-9.714069962501526E-002;-1.589536841493100E-004;-4.114454612135887E-003;
2.425333333333334E+009;1.311819106340408E-001;-9.767871350049973E-002;-4.530799633357674E-004;-4.120114259421825E-003;
2.425500000000000E+009;1.297076046466827E-001;-9.837123751640320E-002;-8.322063949890435E-004;-4.010488279163837E-003;
2.425666666666667E+009;1.281282454729080E-001;-9.900116175413132E-002;-8.833038154989481E-004;-3.752243239432573E-003;
2.425833333333334E+009;1.267094612121582E-001;-9.993379563093185E-002;-9.649911662563682E-004;-3.642329946160317E-003;
2.426000000000000E+009;1.253148019313812E-001;-1.010103225708008E-001;-8.819792419672012E-004;-3.634702647104859E-003;
2.426166666666667E+009;1.241782680153847E-001;-1.020996943116188E-001;-1.262032892554998E-003;-3.248346736654639E-003;
2.426333333333334E+009;1.227993741631508E-001;-1.033063754439354E-001;-1.224716310389340E-003;-3.220030805096030E-003;
2.426500000000000E+009;1.216091141104698E-001;-1.044873520731926E-001;-1.324503798969090E-003;-3.064965363591909E-003;
2.426666666666667E+009;1.204873919487000E-001;-1.058193072676659E-001;-1.310454914346337E-003;-2.821973990648985E-003;
2.426833333333334E+009;1.192506477236748E-001;-1.072696000337601E-001;-1.318170921877027E-003;-2.781256102025509E-003;
2.427000000000000E+009;1.181818470358849E-001;-1.089243143796921E-001;-1.324856886640191E-003;-2.729286439716816E-003;
2.427166666666667E+009;1.172463521361351E-001;-1.103535741567612E-001;-1.225042855367065E-003;-2.652134047821164E-003;
2.427333333333334E+009;1.162938326597214E-001;-1.121609434485436E-001;-1.382315880618990E-003;-2.532513346523047E-003;
2.427500000000000E+009;1.155425012111664E-001;-1.137686595320702E-001;-1.277629984542728E-003;-2.482549054548144E-003;
2.427666666666667E+009;1.147497296333313E-001;-1.155108064413071E-001;-1.379596418701112E-003;-2.435277914628387E-003;
