# Hz S RI R 
2400000000.0000000000 0.155427604913711603362713731258 0.107048846781253800819477817186 -0.000561829307116568088531494141 0.004930807743221521377563476562 0 0 0 0 
2400166666.6666665077 0.155202314257621792892294365629 0.104589596390724196006694057814 -0.000638663535937666893005371094 0.004843533039093017578125000000 0 0 0 0 
2400333333.3333334923 0.155335098505020113845986884371 0.102280043065547901481870951557 -0.000350390298990532810061854230 0.004857531748712062835693359375 0 0 0 0 
2400500000.0000000000 0.155217394232749911209268134371 0.099482893943786621093750000000 -0.000258598796790465712547302246 0.004755844827741385373587323926 0 0 0 0 
2400666666.6666665077 0.155197590589523287674111884371 0.097037702798843383789062500000 -0.000359945144737139290005284442 0.004733308684080839157104492188 0 0 0 0 
2400833333.3333334923 0.155138939619064303299111884371 0.094123981893062591552734375000 -0.000361798767698928713798522949 0.004886371549218893051147460938 0 0 0 0 
2401000000.0000000000 0.155140206217765808105468750000 0.091345809400081634521484375000 -0.000262050918536260724067687988 0.004854389466345310211181640625 0 0 0 0 
2401166666.6666665077 0.155455082654953002929687500000 0.088340677320957183837890625000 -0.000150219668284989893436431885 0.004915889818221330642700195312 0 0 0 0 
2401333333.3333334923 0.155720397830009488204794365629 0.085437484085559844970703125000 0.000005007294021197594702243805 0.005038833711296319961547851562 0 0 0 0 
2401500000.0000000000 0.156096324324607904632244981258 0.082798995077610015869140625000 0.000238095570239238386780339374 0.005088507663458585739135742188 0 0 0 0 
2401666666.6666665077 0.156420633196830805022869981258 0.079824559390544891357421875000 0.000295060424832627177238464355 0.005081701092422009381766034863 0 0 0 0 
2401833333.3333334923 0.156770855188369806487713731258 0.077079802751541137695312500000 0.000629796879366040229797363281 0.004933769814670085906982421875 0 0 0 0 
2402000000.0000000000 0.157775133848190307617187500000 0.074372813105583190917968750000 0.000745859928429126739501953125 0.004975332412868738174438476562 0 0 0 0 
2402166666.6666665077 0.158411741256713894943075615629 0.071753844618797302246093750000 0.001046399818733334975001669775 0.004922537598758935928344726562 0 0 0 0 
2402333333.3333334923 0.159436449408531188964843750000 0.068855799734592437744140625000 0.001152314012870192961451865088 0.004745531827211380004882812500 0 0 0 0 
2402500000.0000000000 0.160498186945915194412393134371 0.066464528441429138183593750000 0.001468111877329647974727011572 0.004764893092215061187744140625 0 0 0 0 
2402666666.6666665077 0.161769807338714599609375000000 0.064120233058929443359375000000 0.001535916817374528104897524194 0.004681413527578116330618573926 0 0 0 0 
2402833333.3333334923 0.162895157933235196212606865629 0.061589788645505912090261091407 0.001608764985576272010803222656 0.004570071119815111160278320312 0 0 0 0 
2403000000.0000000000 0.164485797286033602615518134371 0.059173505753278732299804687500 0.001830480643548070950749062646 0.004411474335938692092895507812 0 0 0 0 
2403166666.6666665077 0.166122734546661404708700615629 0.056947939097881317138671875000 0.002046852139756083922145224463 0.004595439881086350354666425488 0 0 0 0 
2403333333.3333334923 0.167518064379692105392294365629 0.054863091558218002319335937500 0.001993102021515368981602334131 0.004210325889289379119873046875 0 0 0 0 
2403500000.0000000000 0.169349759817123413085937500000 0.052861344069242477416992187500 0.002178231487050652937648154150 0.004053869284689426422119140625 0 0 0 0 
2403666666.6666665077 0.171018391847610501388388115629 0.050909247249364852905273437500 0.002091424306854606108424521338 0.003988300450146198272705078125 0 0 0 0 
2403833333.3333334923 0.172535061836242703536825615629 0.049007579684257507324218750000 0.002151957713067532019374228369 0.003889160929247736930847167969 0 0 0 0 
2404000000.0000000000 0.174199432134628295898437500000 0.047381978482007980346679687500 0.002375643467530608177185058594 0.003849947825074195861816406250 0 0 0 0 
2404166666.6666665077 0.175940230488777188400106865629 0.045718654990196228027343750000 0.002268082927912474112269736182 0.003754286328330636024475097656 0 0 0 0 
2404333333.3333334923 0.177526175975799588302450615629 0.044316045939922332763671875000 0.002435440430417656898498535156 0.003748339600861072973964072119 0 0 0 0 
2404500000.0000000000 0.179231688380241394042968750000 0.042946349829435348510742187500 0.002428367501124740080592490088 0.003554611699655652046203613281 0 0 0 0 
2404666666.6666665077 0.180974707007408086578692518742 0.041945904493331909179687500000 0.002658800454810262160060263525 0.003543117316439747810363769531 0 0 0 0 
2404833333.3333334923 0.182563006877899197677450615629 0.040762517601251602172851562500 0.002509822137653828100917197119 0.003492000978440045876743935693 0 0 0 0 
2405000000.0000000000 0.183950141072273309905682481258 0.040264308452606201171875000000 0.002739178715273737907409667969 0.003336901310831307931187295068 0 0 0 0 
2405166666.6666665077 0.185435727238655090332031250000 0.039453279227018363262136091407 0.002744165249168872833251953125 0.003345572389662266211268759619 0 0 0 0 
2405333333.3333334923 0.186866119503974886795205634371 0.039013989269733428955078125000 0.002713246038183569908142089844 0.003142971312627195878269814600 0 0 0 0 
2405500000.0000000000 0.188404560089111300369424384371 0.038492251187562942504882812500 0.002937898505479096932652138818 0.003026143182069063186645507812 0 0 0 0 
2405666666.6666665077 0.189526289701461791992187500000 0.038046218454837799072265625000 0.002929707756265997886657714844 0.003038843395188450813293457031 0 0 0 0 
2405833333.3333334923 0.190896198153495788574218750000 0.037964280694723129272460937500 0.002968935528770089149475097656 0.002903233515098690986633300781 0 0 0 0 
2406000000.0000000000 0.191765144467353793045205634371 0.037705663591623313213307966407 0.002981031546369194984436035156 0.002853788202628492875340127100 0 0 0 0 
2406166666.6666665077 0.193049043416976900955361884371 0.037537064403295516967773437500 0.003134287428110837936401367188 0.002740982221439481215236044775 0 0 0 0 
2406333333.3333334923 0.193954661488532992263955634371 0.037608057260513312602956403907 0.003172809258103371100184775244 0.002554455306380987167358398438 0 0 0 0 
2406500000.0000000000 0.194610312581062289138955634371 0.037669412791728973388671875000 0.003285072045400739149806357275 0.002444606041535735130310058594 0 0 0 0 
2406666666.6666665077 0.195350110530853299239950615629 0.037714961916208267211914062500 0.003217440098524094061610556494 0.002380991354584693908691406250 0 0 0 0 
2406833333.3333334923 0.195811793208122308929119981258 0.037766851484775543212890625000 0.003202542895451188087463378906 0.002278553089126944975612021338 0 0 0 0 
2407000000.0000000000 0.196182399988174410720986884371 0.037880990654230117797851562500 0.003322690259665251211879111182 0.002174265915527939796447753906 0 0 0 0 
2407166666.6666665077 0.196722671389579800704794365629 0.037719495594501502300222028907 0.003182775806635618209838867188 0.001908971229568124034284282153 0 0 0 0 
2407333333.3333334923 0.196501746773719787597656250000 0.037871606647968292236328125000 0.003360663773491979079005576025 0.002153907669708133177516318213 0 0 0 0 
2407500000.0000000000 0.196541905403137207031250000000 0.037961546331644058227539062500 0.003325688652694224877598427881 0.001918706111609935977338481372 0 0 0 0 
2407666666.6666665077 0.196579977869987487792968750000 0.038021106272935867309570312500 0.003317149821668862862827920068 0.001879381015896796963335346753 0 0 0 0 
2407833333.3333334923 0.195974171161651611328125000000 0.037811260670423507690429687500 0.003321464173495769934413290869 0.001804888132028281905530620044 0 0 0 0 
2408000000.0000000000 0.195968180894851712325888115629 0.037669960409402847290039062500 0.003183741588145494894740439307 0.001761590945534408092498779297 0 0 0 0 
2408166666.6666665077 0.195384994149208096603231865629 0.037454616278409957885742187500 0.003305028192698955969569540869 0.001748020062223077037213969653 0 0 0 0 
2408333333.3333334923 0.194862589240074213225994981258 0.036881383508443832397460937500 0.003399162553250790076014853369 0.001657262095250189087511372144 0 0 0 0 
2408500000.0000000000 0.194266185164451599121093750000 0.036686632782220840454101562500 0.003344741882756351990940713037 0.001536844763904809951782226562 0 0 0 0 
2408666666.6666665077 0.193627715110778808593750000000 0.036159925162792212749440778907 0.003358313348144292831420898438 0.001474524964578449942945170825 0 0 0 0 
2408833333.3333334923 0.193044051527976989746093750000 0.035348173230886459350585937500 0.003412571037188171906712197412 0.001401282148435712077497172778 0 0 0 0 
2409000000.0000000000 0.191958352923393305022869981258 0.034420397132635116577148437500 0.003351031336933373971226357568 0.001363447983749211051343608325 0 0 0 0 
2409166666.6666665077 0.191140323877334594726562500000 0.033462591469287872314453125000 0.003467584261670709089991904150 0.001266965409740806059596396338 0 0 0 0 
2409333333.3333334923 0.190268963575363186935263115629 0.032634742558002471923828125000 0.003361320355907082991359091650 0.001385184936225414059282612378 0 0 0 0 
2409500000.0000000000 0.188988611102104187011718750000 0.031098682433366778982142264454 0.003341074567288159890415810693 0.001222149701789021925685263525 0 0 0 0 
2409666666.6666665077 0.188034102320671109298544365629 0.029592851176857948303222656250 0.003350023413076996803283691406 0.001202006125822663090349506909 0 0 0 0 
2409833333.3333334923 0.187023147940635708907919365629 0.028184516355395320547083670704 0.003362237708643078804016113281 0.001137704122811556079267192310 0 0 0 0 
2410000000.0000000000 0.186155080795288113693075615629 0.026539519429206851613978201954 0.003434880636632442908046103369 0.001147463801316916942596435547 0 0 0 0 
2410166666.6666665077 0.184926807880401611328125000000 0.024621570482850081706960310157 0.003255808493122458891627646338 0.001221394166350364901899028247 0 0 0 0 
2410333333.3333334923 0.184042900800705011565838731258 0.022875726222991939889928048046 0.003363916184753179983851767432 0.001126798102632164955139160156 0 0 0 0 
2410500000.0000000000 0.183115079998970003982705634371 0.020881937816739078866978829296 0.003333761123940349058863974463 0.001113619655370712063433003003 0 0 0 0 
2410666666.6666665077 0.182060033082962008377236884371 0.018610300496220588684082031250 0.003189224982634187178370810400 0.001277459901757538101793598706 0 0 0 0 
2410833333.3333334923 0.181364864110946710784588731258 0.016424888744950291025181954296 0.003361935028806329207179404150 0.001226140302605926990509033203 0 0 0 0 
2411000000.0000000000 0.180617734789848299881143134371 0.014236160553991799790352068555 0.003345056436955928802490234375 0.001268082298338413021684956128 0 0 0 0 
2411166666.6666665077 0.179962053894996587555255018742 0.011947331950068470346471016796 0.003442150307819246812107705225 0.001379128778353333906886435400 0 0 0 0 
2411333333.3333334923 0.179408222436904907226562500000 0.009469669312238693237304687500 0.003675987012684344811680459131 0.001283944933675229983088827979 0 0 0 0 
2411500000.0000000000 0.178923398256301907638388115629 0.006916427984833717346191406250 0.003625395242124795913696289062 0.001312845502980052991154336084 0 0 0 0 
2411666666.6666665077 0.178769484162330599685830634371 0.004722149111330509185791015625 0.003917595371603965759277343750 0.001316229230724274895311665112 0 0 0 0 
2411833333.3333334923 0.178416848182678194900674384371 0.002187576610594987869262695312 0.004068117123097181320190429688 0.001301859389059246020076132666 0 0 0 0 
2412000000.0000000000 0.178587928414344787597656250000 -0.000336146040353923981815892352 0.004247887991368770599365234375 0.001169002731330692984937358325 0 0 0 0 
2412166666.6666665077 0.178666844964027404785156250000 -0.002717082621529697938206338037 0.004443102050572633743286132812 0.000960911333095282316207885742 0 0 0 0 
2412333333.3333334923 0.178741618990898104568643134371 -0.005217699799686670303344726562 0.004504316486418247222900390625 0.000803624396212399005889892578 0 0 0 0 
2412500000.0000000000 0.179281711578369112869424384371 -0.007770205382257699966430664062 0.004588955547660589218139648438 0.000727456994354724884033203125 0 0 0 0 
2412666666.6666665077 0.179694667458534212967080634371 -0.010309158824384210759173008398 0.004797028377652168273925781250 0.000565207679755985736846923828 0 0 0 0 
2412833333.3333334923 0.180467575788497897049111884371 -0.012560461647808550053606602148 0.004932461306452751159667968750 0.000308886432321742177009582520 0 0 0 0 
2413000000.0000000000 0.181094452738761901855468750000 -0.014856028370559220749824724805 0.004898495972156524658203125000 -0.000010860190741368569433689117 0 0 0 0 
2413166666.6666665077 0.182029321789741488357705634371 -0.017171686515212059020996093750 0.004945142194628716382498456738 -0.000103248763480223701752801213 0 0 0 0 
2413333333.3333334923 0.183071196079254205901776231258 -0.019647706300020221364954764454 0.005169000942260026931762695312 -0.000543043250218033790588378906 0 0 0 0 
2413500000.0000000000 0.183811008930206298828125000000 -0.021968444809317588806152343750 0.004931283649057149887084960938 -0.000728782266378402709960937500 0 0 0 0 
2413666666.6666665077 0.185116976499557495117187500000 -0.024128064513206478464146798046 0.005054164212197065353393554688 -0.001024782191962003924726176685 0 0 0 0 
2413833333.3333334923 0.186304137110710088531817518742 -0.026108827441930770874023437500 0.005005998536944389343261718750 -0.001179143320769072012660361182 0 0 0 0 
2414000000.0000000000 0.187149062752723693847656250000 -0.028158022090792659414271170704 0.004772522952407599362845136426 -0.001486336928792298056958842700 0 0 0 0 
2414166666.6666665077 0.188575103878974886795205634371 -0.029869068413972861553151716407 0.004739204421639441576485918262 -0.001709925476461648941040039062 0 0 0 0 
2414333333.3333334923 0.189478471875190707107705634371 -0.031869795173406600952148437500 0.004690561909228563308715820312 -0.001832322450354695103288960034 0 0 0 0 
2414500000.0000000000 0.190827369689941406250000000000 -0.033364176750183112407643903907 0.004394688643515110015869140625 -0.001931559876538812897325825269 0 0 0 0 
2414666666.6666665077 0.192008882761001586914062500000 -0.034810300916433327411692033593 0.004431751091033220291137695312 -0.002017941093072295188903808594 0 0 0 0 
2414833333.3333334923 0.193148896098136901855468750000 -0.036307629197835922241210937500 0.004062137100845575332641601562 -0.002210978884249926047084189307 0 0 0 0 
2415000000.0000000000 0.194238528609275790115518134371 -0.037478674203157431865651716407 0.003929538186639547348022460938 -0.002513785613700747923610068213 0 0 0 0 
2415166666.6666665077 0.195488199591636713225994981258 -0.038658112287521362304687500000 0.003745178459212183952331542969 -0.002523730974644422964808798682 0 0 0 0 
2415333333.3333334923 0.196611151099204989334268134371 -0.039612524211406707763671875000 0.003764122258871794180629111182 -0.002683011349290608926060341943 0 0 0 0 
2415500000.0000000000 0.197760060429573086837606865629 -0.040338430553674697875976562500 0.003552759531885385946986533057 -0.002764538861811161041259765625 0 0 0 0 
2415666666.6666665077 0.198721870779991205413494981258 -0.041154641658067703247070312500 0.003451744792982935905456542969 -0.002915048506110907034633017432 0 0 0 0 
2415833333.3333334923 0.199520543217658996582031250000 -0.041634067893028259277343750000 0.003245201194658875899073935400 -0.003038524882867931885960244287 0 0 0 0 
2416000000.0000000000 0.200291559100151089767294365629 -0.042319647967815399169921875000 0.003234057454392313957214355469 -0.003142830217257142066955566406 0 0 0 0 
2416166666.6666665077 0.201083645224571200271768134371 -0.042886082082986831665039062500 0.003048207145184278921840048682 -0.003060213988646864891052246094 0 0 0 0 
2416333333.3333334923 0.201586991548538208007812500000 -0.043183334171772003173828125000 0.002858022926375269889831542969 -0.003099552122876048088073730469 0 0 0 0 
2416500000.0000000000 0.202075943350791903396768134371 -0.043422691524028778076171875000 0.002854961436241865158081054688 -0.003063826821744441986083984375 0 0 0 0 
2416666666.6666665077 0.202300548553466796875000000000 -0.043630324304103851318359375000 0.002616788027808070182800292969 -0.003308296203613280816319131006 0 0 0 0 
2416833333.3333334923 0.202421158552169799804687500000 -0.043676279485225677490234375000 0.002454766072332859039306640625 -0.003125147661194204850437783350 0 0 0 0 
2417000000.0000000000 0.202537968754768399337606865629 -0.043822381645441062236745466407 0.002416577422991394996643066406 -0.003308778628706932067871093750 0 0 0 0 
2417166666.6666665077 0.202147543430328396896200615629 -0.043588161468505859375000000000 0.002212226623669267134425497900 -0.003279484575614333152770996094 0 0 0 0 
2417333333.3333334923 0.202034190297126797775106865629 -0.043510053306818008422851562500 0.002169449348002672195434570312 -0.003200322622433304786682128906 0 0 0 0 
2417500000.0000000000 0.201746627688407897949218750000 -0.043459825217723853374440778907 0.001985958544537425041198730469 -0.003215954406186937852146767725 0 0 0 0 
2417666666.6666665077 0.201118156313896206954794365629 -0.043112576007843017578125000000 0.001971083227545022964477539062 -0.003041164949536323981044150244 0 0 0 0 
2417833333.3333334923 0.200683802366256713867187500000 -0.042960576713085181499440778907 0.001895168214105070070979452979 -0.003106579883024096922633505713 0 0 0 0 
2418000000.0000000000 0.199954986572265597244424384371 -0.042654793709516532207448591407 0.001828800188377500014064169775 -0.003305216087028384208679199219 0 0 0 0 
2418166666.6666665077 0.199287563562393188476562500000 -0.042492948472499847412109375000 0.001718060346320271925685263525 -0.003100623609498143196105957031 0 0 0 0 
2418333333.3333334923 0.198309764266014099121093750000 -0.042293369770050048828125000000 0.001527091604657470963121723706 -0.003151294309645891189575195312 0 0 0 0 
2418500000.0000000000 0.197115823626518305022869981258 -0.042381849139928817749023437500 0.001466118497774004936218261719 -0.002902360865846275849583291162 0 0 0 0 
2418666666.6666665077 0.196325913071632413009481865629 -0.042242251336574547504465471093 0.001506273169070482037187885815 -0.003168552881106733842137002100 0 0 0 0 
2418833333.3333334923 0.195033267140388488769531250000 -0.042344983667135238647460937500 0.001412741374224423928501748193 -0.003151308977976440949680947412 0 0 0 0 
2419000000.0000000000 0.193661272525787409026776231258 -0.042536407709121697162668596093 0.001309464336372911930084228516 -0.002968544838950037956237792969 0 0 0 0 
2419166666.6666665077 0.192346915602683993240518134371 -0.042892172932624816894531250000 0.001235058647580445029615092700 -0.003059593960642815069911337744 0 0 0 0 
2419333333.3333334923 0.190999686717987088302450615629 -0.043293371796607971191406250000 0.001199791091494262001634907300 -0.002920063678175210952758789062 0 0 0 0 
2419500000.0000000000 0.189404726028442410568075615629 -0.043774642050266272808034528907 0.000933145056478679180145263672 -0.002915908116847277121302939307 0 0 0 0 
2419666666.6666665077 0.187758699059486389160156250000 -0.044321540743112557148020158593 0.001048875041306019046186137622 -0.002854006830602883858921670068 0 0 0 0 
2419833333.3333334923 0.186219185590743990799111884371 -0.045164931565523147583007812500 0.001102501177228987000109028394 -0.002840915229171514944789267432 0 0 0 0 
2420000000.0000000000 0.184690728783607510665731865629 -0.045929372310638427734375000000 0.001026035402901471094844199072 -0.002761183073744177818298339844 0 0 0 0 
