# Hz S RI R 50
2400000000.0000000000 0.163728863000869806487713731258 0.051942363381385803222656250000 -0.000174473738297820091247558594 0.005274010356515645980834960938 0 0 0 0 
2400166666.6666665077 0.163782402873039301116619981258 0.050375632941722869873046875000 0.000062137361965142190456390381 0.005249232053756713867187500000 0 0 0 0 
2400333333.3333334923 0.163505822420120211502236884371 0.048700101673603057861328125000 0.000129752617795020287663060321 0.005451146047562360763549804688 0 0 0 0 
2400500000.0000000000 0.163595691323280306717080634371 0.046718459576368331909179687500 0.000251595076406374573707580566 0.005338267888873816403860761426 0 0 0 0 
2400666666.6666665077 0.163586959242820711990518134371 0.044829003512859337543527971093 0.000623873318545520305633544922 0.005389494355767965316772460938 0 0 0 0 
2400833333.3333334923 0.163673669099807711502236884371 0.043051112443208687519113908593 0.000572668039239943027496337891 0.005601096898317337036132812500 0 0 0 0 
2401000000.0000000000 0.163783058524131802657919365629 0.041029311716556549072265625000 0.000846132985316217054068410608 0.005696479231119155883789062500 0 0 0 0 
2401166666.6666665077 0.163749381899833706954794365629 0.039038859307765960693359375000 0.001207337947562336921691894531 0.005459626205265522003173828125 0 0 0 0 
2401333333.3333334923 0.163824588060379000564736884371 0.037019647657871253276784528907 0.001322787487879395918605185400 0.005666647572070360183715820312 0 0 0 0 
2401500000.0000000000 0.164059549570083590408486884371 0.035066302865743637084960937500 0.001585652003996073982836079175 0.005539849866181612014770507812 0 0 0 0 
2401666666.6666665077 0.164141789078712491134481865629 0.033050928264856338500976562500 0.001812583650462328953983925928 0.005568377207964658737182617188 0 0 0 0 
2401833333.3333334923 0.164404019713401794433593750000 0.031041828915476799011230468750 0.001947669894434512095210410010 0.005570105277001857757568359375 0 0 0 0 
2402000000.0000000000 0.164586037397384588043536268742 0.029147930443286899221400076954 0.002240450587123631997349404443 0.005535745527595281600952148438 0 0 0 0 
2402166666.6666665077 0.164884775876998901367187500000 0.027286015450954440725306326954 0.002472321735695004896876669775 0.005391218233853578567504882812 0 0 0 0 
2402333333.3333334923 0.165318578481674194335937500000 0.025352863594889640808105468750 0.002609329065307974815368652344 0.005305346101522445678710937500 0 0 0 0 
2402500000.0000000000 0.165895134210586603362713731258 0.023721477016806599008580391796 0.002952352166175841851475381006 0.005267007742077112197875976562 0 0 0 0 
2402666666.6666665077 0.166249364614486694335937500000 0.021851908415555950510045235546 0.003136127023026347160339355469 0.004886514507234097394461347363 0 0 0 0 
2402833333.3333334923 0.166738614439964294433593750000 0.020159158855676651000976562500 0.003210288938134909109828329932 0.004944010172039270401000976562 0 0 0 0 
2403000000.0000000000 0.167317986488342312911825615629 0.018586438149213790893554687500 0.003486056113615632057189941406 0.004644206725060939788818359375 0 0 0 0 
2403166666.6666665077 0.168103888630867004394531250000 0.017026694491505619394322579296 0.003591924905776977972743368994 0.004683609120547772321219159863 0 0 0 0 
2403333333.3333334923 0.168618515133857699295205634371 0.015417049638926979410191719921 0.003845832776278256936314248193 0.004472551867365837097167968750 0 0 0 0 
2403500000.0000000000 0.169418677687644986251669365629 0.014013479463756079237968243945 0.004074197262525559339041425488 0.004407231230288743972778320312 0 0 0 0 
2403666666.6666665077 0.169956952333450289627236884371 0.012487520463764669245709804102 0.004282347392290830612182617188 0.004163159057497978210449218750 0 0 0 0 
2403833333.3333334923 0.170887678861617986481036268742 0.011172525584697719919224923046 0.004228099249303340911865234375 0.003794039366766809983494423975 0 0 0 0 
2404000000.0000000000 0.171524465084075899978799384371 0.009978567250072956085205078125 0.004501673858612775802612304688 0.003748057875782250924351357568 0 0 0 0 
2404166666.6666665077 0.171994552016258211990518134371 0.008780580945312976837158203125 0.004620574414730072021484375000 0.003631149884313344955444335938 0 0 0 0 
2404333333.3333334923 0.172811403870582608321981865629 0.007908118888735771179199218750 0.004754304420202971372122480176 0.003327839775010942979099892725 0 0 0 0 
2404500000.0000000000 0.173537060618400601486044365629 0.006571837700903415679931640625 0.004851091187447310361380292676 0.003137162653729320006129599463 0 0 0 0 
2404666666.6666665077 0.174327075481414794921875000000 0.005757914856076241406912519238 0.004780881106853485107421875000 0.002937703626230359077453613281 0 0 0 0 
2404833333.3333334923 0.175044968724250793457031250000 0.004866958595812320709228515625 0.005171319004148244857788085938 0.002606838708743453025817871094 0 0 0 0 
2405000000.0000000000 0.175583466887474087814169365629 0.003974019084125757217407226562 0.005127436947077512741088867188 0.002620377345010637803318642725 0 0 0 0 
2405166666.6666665077 0.176280394196510287185830634371 0.003365439362823963165283203125 0.005054774694144725799560546875 0.002528142416849731965305947412 0 0 0 0 
2405333333.3333334923 0.176971420645713806152343750000 0.002522584749385714964625693213 0.005168266594409942626953125000 0.002191026462242006821873330225 0 0 0 0 
2405500000.0000000000 0.177563712000846890548544365629 0.002002228749915957884547568213 0.005174329970031976699829101562 0.001923295669257641055463481372 0 0 0 0 
2405666666.6666665077 0.178114607930183410644531250000 0.001467361580580472946166992188 0.005113577004522085189819335938 0.001753202290274203040479350513 0 0 0 0 
2405833333.3333334923 0.178524658083915710449218750000 0.001199229853227734999415732275 0.005328143481165170669555664062 0.001681962516158818981767963940 0 0 0 0 
2406000000.0000000000 0.178932890295982388595419365629 0.000581857690121978521347045898 0.005410593468695878982543945312 0.001336560817435384013532329028 0 0 0 0 
2406166666.6666665077 0.179164841771125793457031250000 0.000308752030832692980766296387 0.005351895000785589218139648438 0.001288002473302185969111777197 0 0 0 0 
2406333333.3333334923 0.179735153913497897049111884371 -0.000061945349443703889846801758 0.005319112446159124374389648438 0.000862721528392285108566284180 0 0 0 0 
2406500000.0000000000 0.179871290922164889236611884371 -0.000500332273077219724655151367 0.005183539353311061859130859375 0.000917590048629790544509887695 0 0 0 0 
2406666666.6666665077 0.179854631423950195312500000000 -0.000762503303121775388717651367 0.005281942896544933319091796875 0.000762584444601088762283325195 0 0 0 0 
2406833333.3333334923 0.179969698190689086914062500000 -0.001057853573001920960069965894 0.005277242977172136306762695312 0.000677257718052715063095092773 0 0 0 0 
2407000000.0000000000 0.180076852440834100921307481258 -0.001498353085480629964115761865 0.005239273887127637863159179688 0.000444830162450671195983886719 0 0 0 0 
2407166666.6666665077 0.180343076586723299881143134371 -0.001705766539089381911634135669 0.005297708790749310579781816699 0.000156817128299735486507415771 0 0 0 0 
2407333333.3333334923 0.179907470941543606857138115629 -0.002303947228938341140747070312 0.005181929562240839004516601562 0.000201220595045015188768663950 0 0 0 0 
2407500000.0000000000 0.179852396249771090408486884371 -0.002610602183267474174499511719 0.005300147458910942077636718750 0.000089961911726277321577072144 0 0 0 0 
2407666666.6666665077 0.179760336875915499588174384371 -0.002996532246470450921299599756 0.005083540454506874084472656250 -0.000236451698583550805419367657 0 0 0 0 
2407833333.3333334923 0.179285019636154202560263115629 -0.003737210528925060792210244287 0.005083638243377208709716796875 -0.000391791749279946088790893555 0 0 0 0 
2408000000.0000000000 0.178901225328445406814736884371 -0.004209129605442286405081464551 0.005046659149229527387137128613 -0.000538935360964387655258178711 0 0 0 0 
2408166666.6666665077 0.178400218486785888671875000000 -0.004599736072123050689697265625 0.005085278302431106567382812500 -0.000702158082276582717895507812 0 0 0 0 
2408333333.3333334923 0.178300589323043795486611884371 -0.005167420953512191772460937500 0.005116611253470182418823242188 -0.000795846921391785144805908203 0 0 0 0 
2408500000.0000000000 0.177599966526031494140625000000 -0.006085711531341075897216796875 0.004944989457726478576660156250 -0.000948928412981331348419189453 0 0 0 0 
2408666666.6666665077 0.177052989602088900467080634371 -0.006948603782802820205688476562 0.004855161998420953750610351562 -0.001140124280937016010284423828 0 0 0 0 
2408833333.3333334923 0.176255702972412109375000000000 -0.007618283387273550033569335938 0.004788193386048079404349042676 -0.001315953559242188930511474609 0 0 0 0 
2409000000.0000000000 0.175728559494018610198651231258 -0.008610533550381660461425781250 0.004681199789047241210937500000 -0.001536317635327578024623251807 0 0 0 0 
2409166666.6666665077 0.175073817372322110275106865629 -0.009538216516375541687011718750 0.004726235754787921905517578125 -0.001570673426613212065455771338 0 0 0 0 
2409333333.3333334923 0.174415394663810702224893134371 -0.010903605259954929351806640625 0.004540009424090384569649980762 -0.001609797007404268004773784106 0 0 0 0 
2409500000.0000000000 0.173742458224296597579794365629 -0.012084874324500560760498046875 0.004523250740021467208862304688 -0.001927481265738607103463198023 0 0 0 0 
2409666666.6666665077 0.172880366444587707519531250000 -0.013277151621878150594691092579 0.004401994403451681137084960938 -0.001763197942636907100677490234 0 0 0 0 
2409833333.3333334923 0.172142878174781799316406250000 -0.014470890164375310379951677930 0.004394110292196273803710937500 -0.001862849225290120081660605322 0 0 0 0 
2410000000.0000000000 0.171585500240325899978799384371 -0.015845105051994320261021798046 0.004277311731129884719848632812 -0.002102530328556894822361611475 0 0 0 0 
2410166666.6666665077 0.170981615781784113128338731258 -0.017225597053766250610351562500 0.004223768133670091629028320312 -0.002206382574513555006739951025 0 0 0 0 
2410333333.3333334923 0.170140936970710809905682481258 -0.018941463902592658996582031250 0.004186877049505710601806640625 -0.002188072307035326957702636719 0 0 0 0 
2410500000.0000000000 0.169704273343086187164630018742 -0.020454529672861099243164062500 0.004058934282511472702026367188 -0.002062379848212004141566611182 0 0 0 0 
2410666666.6666665077 0.169194519519805908203125000000 -0.022276824340224269521693045704 0.003941855393350124359130859375 -0.002244130009785294966456747900 0 0 0 0 
2410833333.3333334923 0.168625861406326293945312500000 -0.023889567703008651733398437500 0.003917351365089417371267987988 -0.002408860251307487921473837744 0 0 0 0 
2411000000.0000000000 0.168084233999252291580361884371 -0.025598671287298199045201485546 0.003851620713248848915100097656 -0.002608942333608866171595908057 0 0 0 0 
2411166666.6666665077 0.167687043547630310058593750000 -0.027606878429651260375976562500 0.003756006248295307159423828125 -0.002652576193213462829589843750 0 0 0 0 
2411333333.3333334923 0.167252972722053500076455634371 -0.029304403811693191528320312500 0.003658089088276029066798544775 -0.002793626161292194886448525537 0 0 0 0 
2411500000.0000000000 0.166791543364524813553018134371 -0.031235732138156890869140625000 0.003777909558266400857212685693 -0.002904901048168540000915527344 0 0 0 0 
2411666666.6666665077 0.166671067476272610763388115629 -0.033039461821317672729492187500 0.003712054807692766189575195312 -0.002963431412354112105128622900 0 0 0 0 
2411833333.3333334923 0.166492536664009094238281250000 -0.034817356616258621215820312500 0.003563832258805633024928427588 -0.002894387813284993171691894531 0 0 0 0 
2412000000.0000000000 0.166491016745567294021768134371 -0.036922302097082138061523437500 0.003487478941679000854492187500 -0.003146822331473230881931923975 0 0 0 0 
2412166666.6666665077 0.166176751255989102462606865629 -0.038796804845333099365234375000 0.003371029160916804833653115381 -0.003259222023189067840576171875 0 0 0 0 
2412333333.3333334923 0.166373506188392611404580634371 -0.040516994893550872802734375000 0.003474873024970293045043945312 -0.003380900248885155157801962744 0 0 0 0 
2412500000.0000000000 0.166322529315948486328125000000 -0.042522661387920379638671875000 0.003481089137494564056396484375 -0.003507168730720878081080771338 0 0 0 0 
2412666666.6666665077 0.166648894548416109939736884371 -0.044411282986402511596679687500 0.003379283007234334945678710938 -0.003693849081173539161682128906 0 0 0 0 
2412833333.3333334923 0.166804164648056002517861884371 -0.046409741044044501567800153907 0.003188624978065491156337118994 -0.003794964170083404021022177588 0 0 0 0 
2413000000.0000000000 0.166831269860267611404580634371 -0.048122413456439971923828125000 0.002879197476431726975681923975 -0.003947461955249310407156659863 0 0 0 0 
2413166666.6666665077 0.167202368378639193435830634371 -0.049800567328929901123046875000 0.002934101503342390060424804688 -0.004107940942049027356619550488 0 0 0 0 
2413333333.3333334923 0.167320951819419888595419365629 -0.051462251693010330200195312500 0.002782441210001707077026367188 -0.004056508187204599380493164062 0 0 0 0 
2413500000.0000000000 0.167711094021797207931356865629 -0.053217701613903052593190778907 0.002597219310700892968418740381 -0.004333124030381441116333007812 0 0 0 0 
2413666666.6666665077 0.168245553970336886306924384371 -0.054861765354871749877929687500 0.002616100944578648047206259619 -0.004409413319081068038940429688 0 0 0 0 
2413833333.3333334923 0.168692901730537386795205634371 -0.056290864944458007812500000000 0.002193426713347434997558593750 -0.004448886495083571347708417676 0 0 0 0 
2414000000.0000000000 0.168661803007125910003338731258 -0.057705461978912346576731096093 0.002109554363414645195007324219 -0.004668452311307191848754882812 0 0 0 0 
2414166666.6666665077 0.169336840510368402679119981258 -0.059054411947727203369140625000 0.001749949762597680091857910156 -0.004657380282878875732421875000 0 0 0 0 
2414333333.3333334923 0.169835895299911499023437500000 -0.060540959239006042480468750000 0.001634183689020574092864990234 -0.004960138816386461257934570312 0 0 0 0 
2414500000.0000000000 0.170382171869278009612713731258 -0.061606328934431082988698591407 0.001573103014379739978192973560 -0.004934283439069986343383789062 0 0 0 0 
2414666666.6666665077 0.170917257666587801834268134371 -0.062670148909091949462890625000 0.001227302360348404104348207788 -0.004800355527549982070922851562 0 0 0 0 
2414833333.3333334923 0.171066954731941195388955634371 -0.063802070915699005126953125000 0.001095554558560251972795795972 -0.004964089952409267425537109375 0 0 0 0 
2415000000.0000000000 0.171460598707199096679687500000 -0.064611449837684631347656250000 0.000991959474049508571624755859 -0.004787357524037361145019531250 0 0 0 0 
2415166666.6666665077 0.171884655952453613281250000000 -0.065488398075103759765625000000 0.000707669125404208898544311523 -0.004898746032267808914184570312 0 0 0 0 
2415333333.3333334923 0.172242790460586603362713731258 -0.066360428929328918457031250000 0.000476457003969699090153294696 -0.004897036124020814895629882812 0 0 0 0 
2415500000.0000000000 0.172706305980682400802450615629 -0.066996037960052490234375000000 0.000287464732537046074867248535 -0.004912881646305322647094726562 0 0 0 0 
2415666666.6666665077 0.172870203852653503417968750000 -0.067561082541942596435546875000 0.000154662935528904199600219727 -0.004843368194997310638427734375 0 0 0 0 
2415833333.3333334923 0.173137560486793490310830634371 -0.068159252405166625976562500000 0.000038819136534584692936351163 -0.004814778454601764678955078125 0 0 0 0 
2416000000.0000000000 0.173113748431205805022869981258 -0.068505123257637023925781250000 -0.000218206434510648304789942609 -0.004791299346834421157836914062 0 0 0 0 
2416166666.6666665077 0.173249900341033907791299384371 -0.069104224443435668945312500000 -0.000278911669738590717315673828 -0.004702060949057340621948242188 0 0 0 0 
2416333333.3333334923 0.173364490270614596267861884371 -0.069412149488925933837890625000 -0.000509880483150482177734375000 -0.004642857704311609268188476562 0 0 0 0 
2416500000.0000000000 0.173222556710243197342080634371 -0.069805912673473358154296875000 -0.000838567386381328105926513672 -0.004591500852257013320922851562 0 0 0 0 
2416666666.6666665077 0.173003852367401095291299384371 -0.070057407021522521972656250000 -0.001023010001517832062364887769 -0.004548155702650547027587890625 0 0 0 0 
2416833333.3333334923 0.172821506857872009277343750000 -0.070421852171421051025390625000 -0.001088334713131188912632607568 -0.004471268970519304275512695312 0 0 0 0 
2417000000.0000000000 0.172323003411293002029580634371 -0.070686399936676025390625000000 -0.001055285916663706085802387769 -0.004335196223109961423392011426 0 0 0 0 
2417166666.6666665077 0.172008037567138699630575615629 -0.070822194218635559082031250000 -0.001264642924070358059526753003 -0.004379694815725088119506835938 0 0 0 0 
2417333333.3333334923 0.171598196029663113693075615629 -0.070969469845294952392578125000 -0.001494540250860155062434531104 -0.004277790896594524383544921875 0 0 0 0 
2417500000.0000000000 0.171033933758735712249432481258 -0.071397721767425537109375000000 -0.001510536414571106000187539209 -0.004049040842801333341116620801 0 0 0 0 
2417666666.6666665077 0.170525386929511996170205634371 -0.071366943418979644775390625000 -0.001694599282927810928942036206 -0.004199244081974030408377362988 0 0 0 0 
2417833333.3333334923 0.169613331556320190429687500000 -0.071649596095085144042968750000 -0.001728564384393393993377685547 -0.004031349439173936843872070312 0 0 0 0 
2418000000.0000000000 0.168887779116630609710369981258 -0.071944892406463623046875000000 -0.001702799112536012909532856519 -0.003900063689798117117640829932 0 0 0 0 
2418166666.6666665077 0.167982697486877413650674384371 -0.072076447308063507080078125000 -0.001796518568880856037139892578 -0.003782717045396565957310341943 0 0 0 0 
2418333333.3333334923 0.167257249355316189864950615629 -0.072530888020992279052734375000 -0.001944680116139352104784321362 -0.003809233428910375075099326025 0 0 0 0 
2418500000.0000000000 0.166116639971733093261718750000 -0.072902575135231018066406250000 -0.002072830451652408079860068213 -0.003736045910045505003688193213 0 0 0 0 
2418666666.6666665077 0.165139555931091308593750000000 -0.073131807148456573486328125000 -0.002061760285869241194484091650 -0.003656862303614615960362099756 0 0 0 0 
2418833333.3333334923 0.163790896534919711013955634371 -0.073631152510643005371093750000 -0.002254665130749344825744628906 -0.003537443000823258919956826318 0 0 0 0 
2419000000.0000000000 0.162490919232368496993856865629 -0.074173331260681152343750000000 -0.002274406608194113211390829932 -0.003404474584385753111598349463 0 0 0 0 
2419166666.6666665077 0.161460041999816894531250000000 -0.074830144643783569335937500000 -0.002478439593687653975245810400 -0.003334970911964774131774902344 0 0 0 0 
2419333333.3333334923 0.160227000713348388671875000000 -0.075183503329753875732421875000 -0.002485715318471192879917763818 -0.003334181848913431167602539062 0 0 0 0 
2419500000.0000000000 0.159054636955261202713174384371 -0.076072722673416137695312500000 -0.002513917861506342887878417969 -0.003208172973245381875279091943 0 0 0 0 
2419666666.6666665077 0.157946839928626986404580634371 -0.076907798647880554199218750000 -0.002573795383796095848083496094 -0.003182339016348123984095908057 0 0 0 0 
2419833333.3333334923 0.156534507870674105545205634371 -0.077657654881477355957031250000 -0.002740396419540048079249716650 -0.003012310480698943138122558594 0 0 0 0 
