# Version 1.00
#
freq[Hz];re:Trc1_S11;im:Trc1_S11;re:Trc2_S21;im:Trc2_S21;
2.400000000000000E+009;1.686474829912186E-001;4.106494411826134E-002;-3.704083850607276E-003;-1.109723001718521E-003;
2.400166666666667E+009;1.690845936536789E-001;4.041130095720291E-002;-3.812719369307160E-003;-9.139053290709853E-004;
2.400333333333334E+009;1.696423441171646E-001;3.938356414437294E-002;-3.819765988737345E-003;-7.638586102984846E-004;
2.400500000000000E+009;1.700173169374466E-001;3.854048997163773E-002;-3.775805933400989E-003;-9.110561804845929E-004;
2.400666666666667E+009;1.703555583953857E-001;3.766320645809174E-002;-3.689702600240707E-003;-7.851054542697966E-004;
2.400833333333334E+009;1.708690077066422E-001;3.693700954318047E-002;-3.695542691275477E-003;-6.723327096551657E-004;
2.401000000000000E+009;1.710841655731201E-001;3.605702146887779E-002;-3.768407506868243E-003;-6.180865457281470E-004;
2.401166666666667E+009;1.713005453348160E-001;3.507517650723457E-002;-3.876667469739914E-003;-4.168665327597410E-004;
2.401333333333334E+009;1.713780164718628E-001;3.439746424555779E-002;-3.919187467545271E-003;-4.827645025216043E-004;
2.401500000000000E+009;1.717575490474701E-001;3.364041447639465E-002;-4.012691788375378E-003;-4.449749540071935E-004;
2.401666666666667E+009;1.716917157173157E-001;3.269446641206741E-002;-3.961115609854460E-003;-3.910537052433938E-004;
2.401833333333334E+009;1.717757880687714E-001;3.178302943706513E-002;-4.100866150110960E-003;-2.490458427928388E-004;
2.402000000000000E+009;1.715990751981735E-001;3.108618035912514E-002;-4.096140619367361E-003;-1.886669779196382E-004;
2.402166666666667E+009;1.719288676977158E-001;3.012855537235737E-002;-4.122904501855373E-003;7.825721695553511E-005;
2.402333333333334E+009;1.716069430112839E-001;2.909241057932377E-002;-4.296370316296816E-003;1.742136228131130E-004;
2.402500000000000E+009;1.717005372047424E-001;2.814828045666218E-002;-4.143576603382826E-003;4.610645410139114E-004;
2.402666666666667E+009;1.715884059667587E-001;2.724873460829258E-002;-4.170508123934269E-003;6.279259687289596E-004;
2.402833333333334E+009;1.715796738862991E-001;2.631528116762638E-002;-4.315703175961971E-003;9.132273262366653E-004;
2.403000000000000E+009;1.714869588613510E-001;2.512970007956028E-002;-4.271380137652159E-003;9.150996920652688E-004;
2.403166666666667E+009;1.713484823703766E-001;2.399382740259171E-002;-4.312786273658276E-003;1.019985531456769E-003;
2.403333333333334E+009;1.711668819189072E-001;2.281454578042030E-002;-4.077025223523378E-003;1.433359575457871E-003;
2.403500000000000E+009;1.709270328283310E-001;2.175744064152241E-002;-4.064201377332211E-003;1.426599221304059E-003;
2.403666666666667E+009;1.707673668861389E-001;2.047707885503769E-002;-3.977074287831783E-003;1.747699454426765E-003;
2.403833333333334E+009;1.707557290792465E-001;1.899981126189232E-002;-3.733531106263399E-003;1.860338845290244E-003;
2.404000000000000E+009;1.706483960151672E-001;1.781893707811832E-002;-3.674518084153533E-003;1.846993807703257E-003;
2.404166666666667E+009;1.703236550092697E-001;1.660819165408611E-002;-3.719964530318975E-003;2.032547490671277E-003;
2.404333333333334E+009;1.702456921339035E-001;1.509012468159199E-002;-3.632805543020368E-003;2.173245185986161E-003;
2.404500000000000E+009;1.699446141719818E-001;1.357255596667528E-002;-3.349047387018800E-003;2.305262023583055E-003;
2.404666666666667E+009;1.700178831815720E-001;1.234004460275173E-002;-3.239491255953908E-003;2.188430866226554E-003;
2.404833333333334E+009;1.699608266353607E-001;1.073682494461536E-002;-3.109203185886145E-003;2.288386924192309E-003;
2.405000000000000E+009;1.698189675807953E-001;9.270003996789455E-003;-3.023782977834344E-003;2.375426702201366E-003;
2.405166666666667E+009;1.698958575725555E-001;7.653095293790102E-003;-2.812201390042901E-003;2.379693090915680E-003;
2.405333333333334E+009;1.698541641235352E-001;5.881811026483774E-003;-2.887015230953693E-003;2.480132272467017E-003;
2.405500000000000E+009;1.698310524225235E-001;4.499509464949369E-003;-2.697755582630634E-003;2.496197121217847E-003;
2.405666666666667E+009;1.697625368833542E-001;2.873281016945839E-003;-2.787677571177483E-003;2.553523750975728E-003;
2.405833333333334E+009;1.695681214332581E-001;1.360696740448475E-003;-2.596313832327724E-003;2.463192911818624E-003;
2.406000000000000E+009;1.696145832538605E-001;-4.253588849678636E-004;-2.740952419117093E-003;2.643239218741655E-003;
2.406166666666667E+009;1.695170849561691E-001;-1.924433163367212E-003;-2.683308441191912E-003;2.497732406482101E-003;
2.406333333333334E+009;1.695212870836258E-001;-3.651949344202876E-003;-2.713159425184131E-003;2.659922000020742E-003;
2.406500000000000E+009;1.693268567323685E-001;-5.210195668041706E-003;-2.596652600914240E-003;2.769391518086195E-003;
2.406666666666667E+009;1.691525280475617E-001;-6.717143580317497E-003;-2.452643355354667E-003;2.934959484264255E-003;
2.406833333333334E+009;1.692496091127396E-001;-8.214459754526615E-003;-2.491287188604474E-003;2.794379601255059E-003;
2.407000000000000E+009;1.691158711910248E-001;-9.832771494984627E-003;-2.403356600552797E-003;2.973360242322087E-003;
2.407166666666667E+009;1.690333634614945E-001;-1.115230470895767E-002;-2.225748263299465E-003;3.065811702981591E-003;
2.407333333333334E+009;1.686539649963379E-001;-1.275704521685839E-002;-2.039847197011113E-003;3.272020723670721E-003;
2.407500000000000E+009;1.686143428087235E-001;-1.390147767961025E-002;-1.861361903138459E-003;3.319444600492716E-003;
2.407666666666667E+009;1.685224324464798E-001;-1.513780560344458E-002;-1.940898015163839E-003;3.431416582316160E-003;
2.407833333333334E+009;1.682901084423065E-001;-1.624145917594433E-002;-1.768078305758536E-003;3.442449262365699E-003;
2.408000000000000E+009;1.683196872472763E-001;-1.754349470138550E-002;-1.529194996692240E-003;3.670384176075459E-003;
2.408166666666667E+009;1.684524416923523E-001;-1.825000531971455E-002;-1.246911240741611E-003;3.668027231469750E-003;
2.408333333333334E+009;1.684717088937759E-001;-1.939172483980656E-002;-1.084743533283472E-003;3.501751460134983E-003;
2.408500000000000E+009;1.684473156929016E-001;-2.036573179066181E-002;-9.485514601692557E-004;3.461246145889163E-003;
2.408666666666667E+009;1.684583872556686E-001;-2.124212495982647E-002;-7.482322980649769E-004;3.405137220397592E-003;
2.408833333333334E+009;1.685297042131424E-001;-2.205105870962143E-002;-7.309740176424384E-004;3.243196057155728E-003;
2.409000000000000E+009;1.686896085739136E-001;-2.289012074470520E-002;-6.498565780930221E-004;3.049551974982023E-003;
2.409166666666667E+009;1.689506620168686E-001;-2.376527525484562E-002;-3.521551261655986E-004;3.164875088259578E-003;
2.409333333333334E+009;1.692102700471878E-001;-2.457991428673267E-002;-4.379041201900691E-004;3.095873165875673E-003;
2.409500000000000E+009;1.691742241382599E-001;-2.561549842357636E-002;-4.561276291497052E-004;2.841646084561944E-003;
2.409666666666667E+009;1.692781597375870E-001;-2.639859355986118E-002;-3.425310133025050E-004;2.950871363282204E-003;
2.409833333333334E+009;1.694614291191101E-001;-2.726664766669273E-002;-2.334735618205741E-004;2.792662708088756E-003;
2.410000000000000E+009;1.695311218500137E-001;-2.792078442871571E-002;-3.436973784118891E-004;2.784804673865438E-003;
2.410166666666667E+009;1.697254031896591E-001;-2.895395644009113E-002;-3.150105767417699E-004;2.672784961760044E-003;
2.410333333333334E+009;1.695225834846497E-001;-2.977253869175911E-002;-3.635564353317022E-004;2.479803515598178E-003;
2.410500000000000E+009;1.694721579551697E-001;-3.060049191117287E-002;-3.056889981962740E-004;2.554804552346468E-003;
2.410666666666667E+009;1.693682223558426E-001;-3.166512399911881E-002;-4.451865388546139E-004;2.511517377570272E-003;
2.410833333333334E+009;1.693205535411835E-001;-3.238052129745483E-002;-6.011449149809778E-004;2.510881051421166E-003;
2.411000000000000E+009;1.692157238721848E-001;-3.319374844431877E-002;-6.389124318957329E-004;2.476997207850218E-003;
2.411166666666667E+009;1.689124405384064E-001;-3.407244011759758E-002;-7.561425445601344E-004;2.423747442662716E-003;
2.411333333333334E+009;1.686108112335205E-001;-3.491694852709770E-002;-5.978780682198703E-004;2.514713676646352E-003;
2.411500000000000E+009;1.684720516204834E-001;-3.577008470892906E-002;-9.425850003026426E-004;2.619113307446241E-003;
2.411666666666667E+009;1.684292852878571E-001;-3.659370914101601E-002;-1.041659037582576E-003;2.651928458362818E-003;
2.411833333333334E+009;1.679471582174301E-001;-3.738310560584068E-002;-8.914452628232539E-004;2.929735230281949E-003;
2.412000000000000E+009;1.678195148706436E-001;-3.839573264122009E-002;-8.128945482894778E-004;3.018676070496440E-003;
2.412166666666667E+009;1.674254387617111E-001;-3.915307298302651E-002;-1.013701781630516E-003;3.222228959202766E-003;
2.412333333333334E+009;1.673611104488373E-001;-4.014815762639046E-002;-9.444854804314673E-004;3.406542353332043E-003;
2.412500000000000E+009;1.666159927845001E-001;-4.110260307788849E-002;-7.558270008303225E-004;3.562208963558078E-003;
2.412666666666667E+009;1.663891971111298E-001;-4.211862385272980E-002;-6.701349047943950E-004;3.839177079498768E-003;
2.412833333333334E+009;1.660612374544144E-001;-4.302862286567688E-002;-6.297691143117845E-004;3.904956160113215E-003;
2.413000000000000E+009;1.655369549989700E-001;-4.404944926500320E-002;-3.048731305170804E-004;4.173049237579107E-003;
2.413166666666667E+009;1.649486422538757E-001;-4.495172575116158E-002;-1.743412867654115E-004;4.390515852719545E-003;
2.413333333333334E+009;1.644901484251022E-001;-4.588374868035317E-002;-9.849534399108961E-005;4.302692599594593E-003;
2.413500000000000E+009;1.641353070735931E-001;-4.709648340940476E-002;2.233288396382704E-004;4.413178190588951E-003;
2.413666666666667E+009;1.636568903923035E-001;-4.803228750824928E-002;4.233129438944161E-004;4.602333065122366E-003;
2.413833333333334E+009;1.630870550870895E-001;-4.901068285107613E-002;6.474168621934950E-004;4.613708239048719E-003;
2.414000000000000E+009;1.625490039587021E-001;-5.011948198080063E-002;1.020122785121203E-003;4.578915890306234E-003;
2.414166666666667E+009;1.622183918952942E-001;-5.096717923879623E-002;1.163093140348792E-003;4.446932580322027E-003;
2.414333333333334E+009;1.617435812950134E-001;-5.210629478096962E-002;1.499950652942061E-003;4.383183550089598E-003;
2.414500000000000E+009;1.615994423627853E-001;-5.306626483798027E-002;1.815992640331388E-003;4.237795714288950E-003;
2.414666666666667E+009;1.611041724681854E-001;-5.398961529135704E-002;1.809066045098007E-003;4.360817838460207E-003;
2.414833333333334E+009;1.607568711042404E-001;-5.511381104588509E-002;2.181707415729761E-003;4.112740047276020E-003;
2.415000000000000E+009;1.605905145406723E-001;-5.608315020799637E-002;2.383087063208222E-003;3.836145158857107E-003;
2.415166666666667E+009;1.602402776479721E-001;-5.724893510341644E-002;2.457152586430311E-003;3.921612165868282E-003;
2.415333333333334E+009;1.602975279092789E-001;-5.851321294903755E-002;2.655797172337771E-003;3.771738149225712E-003;
2.415500000000000E+009;1.600569188594818E-001;-5.965328961610794E-002;2.756968606263399E-003;3.552198875695467E-003;
2.415666666666667E+009;1.597834974527359E-001;-6.084894388914108E-002;2.787757432088256E-003;3.466328838840127E-003;
2.415833333333334E+009;1.596865952014923E-001;-6.210664287209511E-002;2.915861783549190E-003;3.162749577313662E-003;
2.416000000000000E+009;1.594112515449524E-001;-6.330204755067825E-002;2.944059437140822E-003;3.193692769855261E-003;
2.416166666666667E+009;1.593605130910873E-001;-6.461963802576065E-002;3.014818066731095E-003;2.978199161589146E-003;
2.416333333333334E+009;1.590825170278549E-001;-6.575723737478256E-002;3.142564557492733E-003;2.876060083508492E-003;
2.416500000000000E+009;1.587771475315094E-001;-6.706091016530991E-002;3.254194976761937E-003;2.746894489973784E-003;
2.416666666666667E+009;1.585276722908020E-001;-6.821510940790176E-002;3.403622657060623E-003;2.690909197553992E-003;
2.416833333333334E+009;1.583268195390701E-001;-6.959845870733261E-002;3.293082816526294E-003;2.489220350980759E-003;
2.417000000000000E+009;1.578661054372788E-001;-7.069464772939682E-002;3.406691132113338E-003;2.345160814002156E-003;
2.417166666666667E+009;1.576383858919144E-001;-7.171130180358887E-002;3.373706480488181E-003;2.075375057756901E-003;
2.417333333333334E+009;1.572819352149963E-001;-7.267013192176819E-002;3.476647194474936E-003;2.156459260731936E-003;
2.417500000000000E+009;1.570037007331848E-001;-7.387039065361023E-002;3.436052007600665E-003;1.915187574923039E-003;
2.417666666666667E+009;1.568577736616135E-001;-7.469345629215241E-002;3.587857121601701E-003;1.814005896449089E-003;
2.417833333333334E+009;1.565947085618973E-001;-7.560165971517563E-002;3.478553611785173E-003;1.575898379087448E-003;
2.418000000000000E+009;1.562886983156204E-001;-7.659572362899780E-002;3.413367317989469E-003;1.366072101518512E-003;
2.418166666666667E+009;1.559700518846512E-001;-7.723028212785721E-002;3.319006646052003E-003;1.294891932047904E-003;
2.418333333333334E+009;1.559780091047287E-001;-7.802090048789978E-002;3.375508356839418E-003;1.217792392708361E-003;
2.418500000000000E+009;1.555864214897156E-001;-7.878086715936661E-002;3.242201870307326E-003;1.254809671081603E-003;
2.418666666666667E+009;1.555016785860062E-001;-7.966510951519013E-002;3.216893877834082E-003;1.157207181677222E-003;
2.418833333333334E+009;1.549695879220963E-001;-8.044772595167160E-002;3.154806792736054E-003;1.186097972095013E-003;
2.419000000000000E+009;1.546742171049118E-001;-8.099030703306198E-002;3.082966897636652E-003;1.190456328913570E-003;
2.419166666666667E+009;1.545284986495972E-001;-8.173669874668121E-002;3.099005902186036E-003;1.136730308644474E-003;
2.419333333333334E+009;1.541494876146317E-001;-8.217799663543701E-002;3.156925085932016E-003;1.201401581056416E-003;
2.419500000000000E+009;1.538094729185104E-001;-8.306635171175003E-002;3.297424409538508E-003;1.167271984741092E-003;
2.419666666666667E+009;1.537092328071594E-001;-8.363077044487000E-002;3.339152317494154E-003;1.203746302053332E-003;
2.419833333333334E+009;1.531641483306885E-001;-8.390194177627564E-002;3.363421186804771E-003;1.055029919371009E-003;
2.420000000000000E+009;1.529132276773453E-001;-8.462757617235184E-002;3.554729046300054E-003;1.062532188370824E-003;
2.420166666666667E+009;1.525932997465134E-001;-8.502824604511261E-002;3.632474923506379E-003;8.649661322124302E-004;
2.420333333333334E+009;1.521906703710556E-001;-8.574762195348740E-002;3.658617148175836E-003;7.921882788650692E-004;
2.420500000000000E+009;1.519672125577927E-001;-8.605788648128510E-002;3.800182836130261E-003;8.285298827104271E-004;
2.420666666666667E+009;1.514918804168701E-001;-8.659747987985611E-002;3.826078493148089E-003;6.493973196484149E-004;
2.420833333333334E+009;1.510517597198486E-001;-8.732049912214279E-002;3.822632832452655E-003;3.708073927555233E-004;
2.421000000000000E+009;1.505708694458008E-001;-8.773149549961090E-002;3.808876266703010E-003;2.746107056736946E-004;
2.421166666666667E+009;1.504425555467606E-001;-8.843898028135300E-002;3.809890709817410E-003;3.835195821011439E-005;
2.421333333333334E+009;1.499519348144531E-001;-8.911050111055374E-002;3.920823335647583E-003;-5.059912291471846E-005;
2.421500000000000E+009;1.493195444345474E-001;-8.965473622083664E-002;3.879570635035634E-003;-1.363574992865324E-004;
2.421666666666667E+009;1.488630771636963E-001;-9.046614915132523E-002;3.804921871051192E-003;-2.234017156297341E-004;
2.421833333333334E+009;1.482016146183014E-001;-9.108777344226837E-002;3.863264340907335E-003;-4.633499193005264E-004;
2.422000000000000E+009;1.476256251335144E-001;-9.157544374465942E-002;3.645230550318956E-003;-4.737621929962188E-004;
2.422166666666667E+009;1.470888257026672E-001;-9.260643273591995E-002;3.531795460730791E-003;-6.632875301875174E-004;
2.422333333333334E+009;1.463805586099625E-001;-9.323989599943161E-002;3.431878052651882E-003;-7.449035183526576E-004;
2.422500000000000E+009;1.457944661378861E-001;-9.391278028488159E-002;3.328896593302488E-003;-6.689840229228139E-004;
2.422666666666667E+009;1.450598239898682E-001;-9.471640735864639E-002;3.310247790068388E-003;-8.414294570684433E-004;
2.422833333333334E+009;1.444821804761887E-001;-9.584240615367889E-002;3.127075266093016E-003;-7.451673154719174E-004;
2.423000000000000E+009;1.438329219818115E-001;-9.645801037549973E-002;3.306707134470344E-003;-6.942459731362760E-004;
2.423166666666667E+009;1.431533992290497E-001;-9.727888554334641E-002;3.230026224628091E-003;-9.031289955601096E-004;
2.423333333333334E+009;1.425794064998627E-001;-9.822551161050797E-002;3.309603082016110E-003;-8.583675953559578E-004;
2.423500000000000E+009;1.419388949871063E-001;-9.925460815429688E-002;3.326786914840341E-003;-8.931065094657242E-004;
2.423666666666667E+009;1.408964991569519E-001;-1.001164317131043E-001;3.247494343668222E-003;-1.086178119294345E-003;
2.423833333333334E+009;1.403420120477676E-001;-1.011124849319458E-001;3.324902150779963E-003;-9.032548987306655E-004;
2.424000000000000E+009;1.394768357276917E-001;-1.019174307584763E-001;3.255324903875589E-003;-1.008720020763576E-003;
2.424166666666667E+009;1.387516707181931E-001;-1.028969138860703E-001;3.362551098689437E-003;-1.170164789073169E-003;
2.424333333333334E+009;1.381045728921890E-001;-1.039173007011414E-001;3.366966499015689E-003;-1.274981768801808E-003;
2.424500000000000E+009;1.375037133693695E-001;-1.048632487654686E-001;3.368028905242682E-003;-1.340062008239329E-003;
2.424666666666667E+009;1.370584368705750E-001;-1.058457270264626E-001;3.412226913496852E-003;-1.527185318991542E-003;
2.424833333333334E+009;1.362120211124420E-001;-1.069072037935257E-001;3.337489673867822E-003;-1.605435740202665E-003;
2.425000000000000E+009;1.356570124626160E-001;-1.078648492693901E-001;3.409195924177766E-003;-1.651677186600864E-003;
2.425166666666667E+009;1.349697560071945E-001;-1.089006662368774E-001;3.455397905781865E-003;-1.651924103498459E-003;
2.425333333333334E+009;1.345389783382416E-001;-1.098446920514107E-001;3.526165615767241E-003;-1.933213323354721E-003;
2.425500000000000E+009;1.342122554779053E-001;-1.110553219914436E-001;3.504927270114422E-003;-2.080637263134122E-003;
2.425666666666667E+009;1.334666758775711E-001;-1.119540259242058E-001;3.484860993921757E-003;-2.246108604595065E-003;
2.425833333333334E+009;1.331230849027634E-001;-1.129951924085617E-001;3.399880602955818E-003;-2.365116029977799E-003;
2.426000000000000E+009;1.325773745775223E-001;-1.139821261167526E-001;3.340171882882714E-003;-2.551325829699636E-003;
2.426166666666667E+009;1.322536766529083E-001;-1.150400564074516E-001;3.324337769299746E-003;-2.703295089304447E-003;
2.426333333333334E+009;1.316334456205368E-001;-1.160792857408524E-001;3.152585122734308E-003;-2.892746357247233E-003;
2.426500000000000E+009;1.313424557447434E-001;-1.169271245598793E-001;3.057842375710607E-003;-3.164326772093773E-003;
2.426666666666667E+009;1.310135424137116E-001;-1.177236512303352E-001;2.932287286967039E-003;-3.135443665087223E-003;
2.426833333333334E+009;1.305615603923798E-001;-1.186664402484894E-001;2.656661439687014E-003;-3.339429851621389E-003;
2.427000000000000E+009;1.302890926599503E-001;-1.195346787571907E-001;2.473564585670829E-003;-3.362291492521763E-003;
2.427166666666667E+009;1.298512220382690E-001;-1.202190294861794E-001;2.296893857419491E-003;-3.461031010374427E-003;
2.427333333333334E+009;1.295188963413239E-001;-1.211316138505936E-001;2.143342047929764E-003;-3.658491885289550E-003;
2.427500000000000E+009;1.294348686933518E-001;-1.218360736966133E-001;2.050922717899084E-003;-3.451966214925051E-003;
2.427666666666667E+009;1.289791315793991E-001;-1.226157844066620E-001;1.858200295828283E-003;-3.530554939061403E-003;
2.427833333333334E+009;1.285845637321472E-001;-1.232725307345390E-001;1.745987217873335E-003;-3.656122134998441E-003;
