# Hz S RI R 50
2400000000.0000000000 0.155707463622093200683593750000 0.106677725911140400261167826557 -0.001326355617493391036987304688 -0.002007358940318226814270019531 0 0 0 0 
2400166666.6666665077 0.155318900942802401443643134371 0.104250289499759701827841240629 -0.001308594015426933982251811450 -0.001773759722709655978559184497 0 0 0 0 
2400333333.3333334923 0.155351266264915494064169365629 0.101898074150085504729901231258 -0.001374368788674473979352641528 -0.001621823525056242942810058594 0 0 0 0 
2400500000.0000000000 0.155244171619415310958700615629 0.099120415747165679931640625000 -0.001354419044218956990482949365 -0.001256359042599797031999897534 0 0 0 0 
2400666666.6666665077 0.155428200960159301757812500000 0.096708349883556365966796875000 -0.001284844009205698966979980469 -0.001162093249149620966670370947 0 0 0 0 
2400833333.3333334923 0.155373692512512207031250000000 0.093742586672306060791015625000 -0.001203214400447905063629150391 -0.000829953874927014112472534180 0 0 0 0 
2401000000.0000000000 0.155540466308593805511151231258 0.090891115367412567138671875000 -0.000864715490024536848068237305 -0.000757285393774509429931640625 0 0 0 0 
2401166666.6666665077 0.155709043145179804046307481258 0.088098958134651184082031250000 -0.000573291094042360782623291016 -0.000558466184884309768676757812 0 0 0 0 
2401333333.3333334923 0.156132414937019403655682481258 0.085305877029895782470703125000 -0.000506314332596957683563232422 -0.000428540311986580491065979004 0 0 0 0 
2401500000.0000000000 0.156463846564292907714843750000 0.082280866801738739013671875000 -0.000242036141571588787153521127 -0.000321093364618718624114990234 0 0 0 0 
2401666666.6666665077 0.156930565834045410156250000000 0.079360581934452056884765625000 -0.000098842923762276768684387207 -0.000510773737914860248565673828 0 0 0 0 
2401833333.3333334923 0.157326996326446505447549384371 0.076560623943805694580078125000 0.000226291653234511586740770883 -0.000589928298722952604293823242 0 0 0 0 
2402000000.0000000000 0.158059641718864413162393134371 0.073595263063907623291015625000 0.000370763504179194623797816144 -0.000725375546608120203018188477 0 0 0 0 
2402166666.6666665077 0.159059345722198486328125000000 0.071241855621337890625000000000 0.000282843364402651786804199219 -0.000625996617600321769714355469 0 0 0 0 
2402333333.3333334923 0.159705296158790588378906250000 0.068342417478561401367187500000 0.000525645911693572998046875000 -0.000890831055585294961929321289 0 0 0 0 
2402500000.0000000000 0.160925269126892089843750000000 0.065899461507797241210937500000 0.000720684241969138383865356445 -0.001145506976172327995300292969 0 0 0 0 
2402666666.6666665077 0.161965608596801813323651231258 0.063627138733863830566406250000 0.000533496320713311433792114258 -0.001124958042055367989781045068 0 0 0 0 
2402833333.3333334923 0.163418248295783996582031250000 0.061039205640554428100585937500 0.000538611668162047863006591797 -0.001384976436384022019029926831 0 0 0 0 
2403000000.0000000000 0.164903193712234497070312500000 0.058519594371318817138671875000 0.000350064306985586881637573242 -0.001378386048600078062770224463 0 0 0 0 
2403166666.6666665077 0.166333004832267788986044365629 0.056350521743297576904296875000 0.000264744943706318681866246356 -0.001620300114154816107508993994 0 0 0 0 
2403333333.3333334923 0.167983293533325195312500000000 0.054086629301309592510182966407 0.000205108633963391211911878043 -0.001882236101664602973340678638 0 0 0 0 
2403500000.0000000000 0.169619932770729092696981865629 0.052161920815706253051757812500 0.000331205723341554403305053711 -0.001738398801535367965698242188 0 0 0 0 
2403666666.6666665077 0.171224072575569208343182481258 0.050250422209501273418386091407 0.000075797936005983501672744751 -0.001761275110766292052028036963 0 0 0 0 
2403833333.3333334923 0.172881484031677301604901231258 0.048268496990203857421875000000 0.000253688660450279712677001953 -0.001693005440756679014918661963 0 0 0 0 
2404000000.0000000000 0.174453705549240112304687500000 0.046588573604822158813476562500 -0.000039592010580236092209815979 -0.001735153258778155066846538013 0 0 0 0 
2404166666.6666665077 0.176263689994812011718750000000 0.045148842036724090576171875000 0.000190228704013861688688555307 -0.001768975518643856048583984375 0 0 0 0 
2404333333.3333334923 0.177929699420929010589276231258 0.043486446142196662212331403907 -0.000076694734161719679832458496 -0.001920248498208821036695170825 0 0 0 0 
2404500000.0000000000 0.179370164871215792556924384371 0.042098328471183776855468750000 -0.000039002869016258052807261808 -0.001811344875022768974304199219 0 0 0 0 
2404666666.6666665077 0.181034594774246188064736884371 0.041025187820196151733398437500 -0.000029934140911791470238958665 -0.001830402063205837986589741284 0 0 0 0 
2404833333.3333334923 0.182799264788627596756143134371 0.039898768067359917377512346093 0.000040706279833102598786354065 -0.001907106256112456104875874097 0 0 0 0 
2405000000.0000000000 0.183963358402252197265625000000 0.039140205830335617065429687500 -0.000072683673352003097534179688 -0.002023470588028430938720703125 0 0 0 0 
2405166666.6666665077 0.185433477163314791580361884371 0.038599595427513122558593750000 -0.000073317882197443395853042603 -0.001965878996998072104213095557 0 0 0 0 
2405333333.3333334923 0.186848327517509488204794365629 0.037948928773403167724609375000 0.000012058341781084889714615975 -0.002237381413578987121582031250 0 0 0 0 
2405500000.0000000000 0.188267648220062311370526231258 0.037508059293031692504882812500 -0.000209302495932206511497497559 -0.002294558566063642935511923682 0 0 0 0 
2405666666.6666665077 0.189395457506179809570312500000 0.037172839045524597167968750000 -0.000278611260000616312026977539 -0.002162624150514603094813681494 0 0 0 0 
2405833333.3333334923 0.190735414624214200118856865629 0.036917220801115042949636091407 -0.000388531712815165519714355469 -0.002437584567815064950230263818 0 0 0 0 
2406000000.0000000000 0.191630691289901705642861884371 0.036640726029872887348215471093 -0.000325119006447493975788670673 -0.002302135108038783073425292969 0 0 0 0 
2406166666.6666665077 0.192758217453956604003906250000 0.036506935954093933105468750000 -0.000475725973956286907196044922 -0.002497266978025435967686318506 0 0 0 0 
2406333333.3333334923 0.193616256117820711990518134371 0.036801803857088088989257812500 -0.000703730736859142780303955078 -0.002401965903118253187892294775 0 0 0 0 
2406500000.0000000000 0.194288507103920010665731865629 0.036626003682613372802734375000 -0.000800329784397035837173461914 -0.002468266524374485015869140625 0 0 0 0 
2406666666.6666665077 0.194738492369651794433593750000 0.036695685237646102905273437500 -0.000849667587317526340484619141 -0.002395599847659469084498740088 0 0 0 0 
2406833333.3333334923 0.195378959178924588302450615629 0.036779347807168960571289062500 -0.000877643877174705266952514648 -0.002480957191437482833862304688 0 0 0 0 
2407000000.0000000000 0.195704177021980313400106865629 0.036975841969251632690429687500 -0.001084096264094114086748432690 -0.002589404117316008047816611182 0 0 0 0 
2407166666.6666665077 0.195941373705864008147869981258 0.036827098578214652324636091407 -0.001100801629945636012433696216 -0.002433703280985354943516396631 0 0 0 0 
2407333333.3333334923 0.195902854204177911956463731258 0.037032220512628562236745466407 -0.001339991809800267002703022534 -0.002559001324698328971862792969 0 0 0 0 
2407500000.0000000000 0.195891171693801907638388115629 0.037124197930097579956054687500 -0.001360279158689082102534628760 -0.002550946781411767005920410156 0 0 0 0 
2407666666.6666665077 0.195842087268829401214276231258 0.037112027406692511821706403907 -0.001371251069940627054927206885 -0.002399778924882411956787109375 0 0 0 0 
2407833333.3333334923 0.195193499326705904861611884371 0.036987204104661941528320312500 -0.001414890983141958930371928638 -0.002400165889412165121791220557 0 0 0 0 
2408000000.0000000000 0.195097863674163790603799384371 0.036856014281511306762695312500 -0.001463894033804536082624125903 -0.002581360517069696946385048975 0 0 0 0 
2408166666.6666665077 0.194451794028282193282919365629 0.036634586751461029052734375000 -0.001524317543953656933428120190 -0.002484345808625220818760537256 0 0 0 0 
2408333333.3333334923 0.194025188684463500976562500000 0.036116972565650939941406250000 -0.001776362652890383980394672925 -0.002581318374723196029663085938 0 0 0 0 
2408500000.0000000000 0.193271830677986200530682481258 0.035904061049222953105886091407 -0.001816524541936815001844096606 -0.002573367441073060035705566406 0 0 0 0 
2408666666.6666665077 0.192511826753616305252236884371 0.035449843853712081909179687500 -0.001856251736171544031855917822 -0.002327862195670605139491415869 0 0 0 0 
2408833333.3333334923 0.191935136914253207107705634371 0.034543838351964950561523437500 -0.002080925507470964951756142725 -0.002379860263317822976353310693 0 0 0 0 
2409000000.0000000000 0.190940871834754888336505018742 0.033836230635643012309987653907 -0.002186013385653495788574218750 -0.002425260609015821976902627100 0 0 0 0 
2409166666.6666665077 0.189937084913253811935263115629 0.032929409295320510864257812500 -0.002137456089258193969726562500 -0.002370662987232207818272256006 0 0 0 0 
2409333333.3333334923 0.188968598842620905120526231258 0.032014809548854827880859375000 -0.002361280377954245047328329932 -0.002391141140833497047424316406 0 0 0 0 
2409500000.0000000000 0.187826454639434786697549384371 0.030636997893452640878697579296 -0.002627867506816982789280556787 -0.002240485511720180945155478369 0 0 0 0 
2409666666.6666665077 0.186892002820968600174111884371 0.029372302815318111074427420704 -0.002649353118613361878636025537 -0.002292980439960957007167197119 0 0 0 0 
2409833333.3333334923 0.185744583606719998458700615629 0.027899816632270809518834298046 -0.002815859625115991072413779150 -0.002197433728724718093872070312 0 0 0 0 
2410000000.0000000000 0.184897139668464688400106865629 0.026258084923028949392298514454 -0.002835438586771488189697265625 -0.002058317651972175078151083838 0 0 0 0 
2410166666.6666665077 0.183699369430541992187500000000 0.024386610835790630685826485546 -0.002949115354567766189575195312 -0.001939743757247925021527934497 0 0 0 0 
2410333333.3333334923 0.182798847556114196777343750000 0.022854575887322429311732108204 -0.003018063260242342948913574219 -0.001864097896032034917118691553 0 0 0 0 
2410500000.0000000000 0.181933417916297912597656250000 0.020769122987985610961914062500 -0.003044652054086327986476279150 -0.001760935294441879012464213794 0 0 0 0 
2410666666.6666665077 0.180908083915710504729901231258 0.018601823598146438598632812500 -0.003265493083745241165161132812 -0.001657371292822062969207763672 0 0 0 0 
2410833333.3333334923 0.180233538150787409026776231258 0.016343452036380771291712576954 -0.003224990563467144966125488281 -0.001535706571303308010101318359 0 0 0 0 
2411000000.0000000000 0.179551512002945001800213731258 0.014376684091985229146937186329 -0.003099061083048582077026367188 -0.001619580551050602956059121240 0 0 0 0 
2411166666.6666665077 0.178799644112587002853231865629 0.011985576711595060175885585352 -0.003250825917348266081569052588 -0.001398862339556216976763081128 0 0 0 0 
2411333333.3333334923 0.178241625428199795821981865629 0.009477413259446620941162109375 -0.003340572817251085801365517725 -0.001260864082723855972290039062 0 0 0 0 
2411500000.0000000000 0.177876725792884798904580634371 0.007262941449880599975585937500 -0.003401110647246242003199911963 -0.001082912553101778030395507812 0 0 0 0 
2411666666.6666665077 0.177614390850067110916299384371 0.004995891824364662170410156250 -0.003377157030627131895778036963 -0.001081485301256180026410746997 0 0 0 0 
2411833333.3333334923 0.177376866340637207031250000000 0.002284696092829107804539345850 -0.003302870318293571905848837744 -0.000975986244156956672668457031 0 0 0 0 
2412000000.0000000000 0.177545353770255986969317518742 -0.000222518152440898093298235483 -0.003273376962170004844665527344 -0.001007494865916668935063027490 0 0 0 0 
2412166666.6666665077 0.177704483270645113845986884371 -0.002336983801797031922581338037 -0.003435186110436915917637490381 -0.000890958064701408147811889648 0 0 0 0 
2412333333.3333334923 0.177650317549705505371093750000 -0.004864926449954509735107421875 -0.003584589343518019156215048682 -0.000847751274704933166503906250 0 0 0 0 
2412500000.0000000000 0.178305804729461697677450615629 -0.007432184182107448577880859375 -0.003594117471948266029357910156 -0.000845381699036806821823120117 0 0 0 0 
2412666666.6666665077 0.178805425763130187988281250000 -0.009895331226289272308349609375 -0.003838051343336700959446572412 -0.000749714905396103858947753906 0 0 0 0 
2412833333.3333334923 0.179397597908973693847656250000 -0.012169973924756050109863281250 -0.003878475399687885804417275537 -0.000649226421955972909927368164 0 0 0 0 
2413000000.0000000000 0.180255040526390103439169365629 -0.014417868107557300222376639454 -0.004012126475572586059570312500 -0.000484193820739165002673548566 0 0 0 0 
2413166666.6666665077 0.181205958127975491622763115629 -0.016779312863945960998535156250 -0.004154974129050970077514648438 -0.000273787911282852292060852051 0 0 0 0 
2413333333.3333334923 0.182057872414588900467080634371 -0.019089922308921810495396798046 -0.004142045043408870697021484375 -0.000104771374026313397005358286 0 0 0 0 
2413500000.0000000000 0.182969316840171786209268134371 -0.021282767876982688903808593750 -0.004331559408456087112426757812 -0.000017749722246662710199152299 0 0 0 0 
2413666666.6666665077 0.184309646487235995193643134371 -0.023318752646446231496790701954 -0.004282700363546609878540039062 0.000211179678444750607013702393 0 0 0 0 
2413833333.3333334923 0.185375183820724487304687500000 -0.025422740727663040161132812500 -0.004445886239409446716308593750 0.000455897621577605605125427246 0 0 0 0 
2414000000.0000000000 0.186579793691635104080361884371 -0.027398504316806789743443673046 -0.004591037984937429428100585938 0.000619721889961510896682739258 0 0 0 0 
2414166666.6666665077 0.187668070197105407714843750000 -0.029217842966318130493164062500 -0.004554939456284046173095703125 0.000989867141470313072204589844 0 0 0 0 
2414333333.3333334923 0.188931420445442199707031250000 -0.031082335859537131572682966407 -0.004502655938267707824707031250 0.001260065240785479979274130713 0 0 0 0 
2414500000.0000000000 0.190347984433174105545205634371 -0.032538395375013351440429687500 -0.004553224891424179077148437500 0.001461816602386533997179340894 0 0 0 0 
2414666666.6666665077 0.191433250904083307464276231258 -0.034102004021406166767160783593 -0.004478238057345151901245117188 0.001740657957270741896388388525 0 0 0 0 
2414833333.3333334923 0.192744478583335904220419365629 -0.035336859524250030517578125000 -0.004376783035695552825927734375 0.001991281053051352934596396338 0 0 0 0 
2415000000.0000000000 0.193806871771812411209268134371 -0.036744199693202972412109375000 -0.004261210560798645019531250000 0.002010125899687408967259072412 0 0 0 0 
2415166666.6666665077 0.195085704326629610916299384371 -0.037691451609134667133371721093 -0.004066343884915112581734941699 0.002412697998806833787205361475 0 0 0 0 
2415333333.3333334923 0.196226537227630587478799384371 -0.038768839091062552715261091407 -0.003894841531291604042053222656 0.002485625678673387007472372900 0 0 0 0 
2415500000.0000000000 0.197420910000801086425781250000 -0.039426106959581382060964216407 -0.003778153564780950979945517432 0.002760184230282903151271201025 0 0 0 0 
2415666666.6666665077 0.198477044701576205154580634371 -0.040349476039409637451171875000 -0.003672201186418532891514443506 0.002998344600200653076171875000 0 0 0 0 
2415833333.3333334923 0.199261903762817410568075615629 -0.040813688188791281963307966407 -0.003426920855417848067042685400 0.003108403878286480903625488281 0 0 0 0 
2416000000.0000000000 0.200142428278923006912393134371 -0.041524585336446762084960937500 -0.003182402346283196969273232568 0.003274945775046945051905966650 0 0 0 0 
2416166666.6666665077 0.200952827930450411697549384371 -0.041866611689329147338867187500 -0.002901243511587380929234170068 0.003373186336830257935764931787 0 0 0 0 
2416333333.3333334923 0.201525986194610595703125000000 -0.042268507182598107074777971093 -0.002707564504817128181457519531 0.003443291643634438948390341650 0 0 0 0 
2416500000.0000000000 0.201920822262764004806356865629 -0.042366527020931236957590471093 -0.002523863920941948890686035156 0.003412278136238456206080771338 0 0 0 0 
2416666666.6666665077 0.202297359704971313476562500000 -0.042823962867259979248046875000 -0.002527180360630155043361044775 0.003454694990068674087524414062 0 0 0 0 
2416833333.3333334923 0.202325314283370999435263115629 -0.042743146419525153423268903907 -0.002174108522012830214259482275 0.003402577480301260948181152344 0 0 0 0 
2417000000.0000000000 0.202509015798568697830361884371 -0.042808301746845252300222028907 -0.002046496141701937155482626807 0.003514218609780073165893554688 0 0 0 0 
2417166666.6666665077 0.202291548252105712890625000000 -0.042746886610984802246093750000 -0.001829399610869586901423788916 0.003579562297090888023376464844 0 0 0 0 
2417333333.3333334923 0.202154323458671597579794365629 -0.042484737932682037353515625000 -0.001749336021021008925196982275 0.003445956390351057052612304688 0 0 0 0 
2417500000.0000000000 0.201800629496574401855468750000 -0.042535856366157531738281250000 -0.001519028097391128973719931494 0.003532866248860954804661416162 0 0 0 0 
2417666666.6666665077 0.201289355754852294921875000000 -0.042216565459966659545898437500 -0.001407933188602328083635639722 0.003503355197608470916748046875 0 0 0 0 
2417833333.3333334923 0.200883805751800509353799384371 -0.042103596031665802001953125000 -0.001228509820066391988041543115 0.003512720111757516860961914062 0 0 0 0 
2418000000.0000000000 0.200294405221939086914062500000 -0.041800234466791152954101562500 -0.001096400083042681000353169019 0.003442078363150358200073242188 0 0 0 0 
2418166666.6666665077 0.199376314878463800628338731258 -0.041744451969861977314035783593 -0.000980716547928750514984130859 0.003305577673017979101893759619 0 0 0 0 
2418333333.3333334923 0.198575153946876498123330634371 -0.041486419737339019775390625000 -0.000933517934754490852355957031 0.003428763011470437049865722656 0 0 0 0 
2418500000.0000000000 0.197572961449623107910156250000 -0.041522476822137832641601562500 -0.000798897934146225452423095703 0.003268020227551459832432412256 0 0 0 0 
2418666666.6666665077 0.196648016571998596191406250000 -0.041403889656066901470143903907 -0.000633088871836662292480468750 0.003222794737666844887974404443 0 0 0 0 
2418833333.3333334923 0.195407614111900301834268134371 -0.041694730520248413085937500000 -0.000423179881181567907333374023 0.003188193077221512794494628906 0 0 0 0 
2419000000.0000000000 0.193998068571090698242187500000 -0.041800513863563537597656250000 -0.000260995555436238700717371808 0.002983879763633013205287314307 0 0 0 0 
2419166666.6666665077 0.192830681800842312911825615629 -0.042097579687833792949636091407 -0.000182124698767438503816881723 0.003004434285685420036315917969 0 0 0 0 
2419333333.3333334923 0.191408604383468600174111884371 -0.042554516345262527465820312500 -0.000117454248538706505864542828 0.002871267963200808005092001807 0 0 0 0 
2419500000.0000000000 0.189777761697769192794638115629 -0.043161086738109588623046875000 -0.000137073089717887287766057147 0.002713794354349375204799033057 0 0 0 0 
2419666666.6666665077 0.188342735171318109710369981258 -0.043932974338531487201731096093 -0.000051729224651353426951954501 0.002482237992808223204371786963 0 0 0 0 
2419833333.3333334923 0.186620965600013705154580634371 -0.044624570757150650024414062500 0.000046099376049824059009552002 0.002325115492567420005798339844 0 0 0 0 
