# Hz S RI R 50
2400000000.0000000000 0.160648748278617886642294365629 0.056842323392629623413085937500 0.001226304448209702968597412109 0.002932734787464141845703125000 0 0 0 0 
2400166666.6666665077 0.160805806517601013183593750000 0.055301751941442489624023437500 0.001482327585108577988268208081 0.003157663159072399139404296875 0 0 0 0 
2400333333.3333334923 0.160761043429374694824218750000 0.053476400673389441753347028907 0.001588946441188455061671591650 0.003212945070117712020874023438 0 0 0 0 
2400500000.0000000000 0.161019191145896911621093750000 0.051684189587831497192382812500 0.001504547544755042032954550635 0.003118552966043353080749511719 0 0 0 0 
2400666666.6666665077 0.161083549261093111892861884371 0.049832608550786972045898437500 0.001730503165163099982618022388 0.003273128531873226165771484375 0 0 0 0 
2400833333.3333334923 0.161310538649558993240518134371 0.048129905015230178833007812500 0.001952158752828836007359170068 0.003400167450308800177333212744 0 0 0 0 
2401000000.0000000000 0.161409378051757812500000000000 0.046234924346208572387695312500 0.002129619941115378899815224756 0.003506371285766363143920898438 0 0 0 0 
2401166666.6666665077 0.161622762680053710937500000000 0.044370744377374649047851562500 0.002312691882252693176269531250 0.003494928125292063193080283057 0 0 0 0 
2401333333.3333334923 0.161949783563613891601562500000 0.042396996170282356952707658593 0.002717051887884736061096191406 0.003499230602756143049952841650 0 0 0 0 
2401500000.0000000000 0.162374183535575894454794365629 0.040495134890079498291015625000 0.002900032559409738020655966650 0.003496796358376740975620888818 0 0 0 0 
2401666666.6666665077 0.162595748901367187500000000000 0.038841936737298972392995466407 0.003178673330694437026977539062 0.003522071754559874968287802588 0 0 0 0 
2401833333.3333334923 0.163099870085716303069744981258 0.036841366440057761455495466407 0.003474806202575563950779580225 0.003500964725390077070948935400 0 0 0 0 
2402000000.0000000000 0.163446694612503107268963731258 0.034865651279687881469726562500 0.003610299434512854056117392432 0.003285162849351764158961630713 0 0 0 0 
2402166666.6666665077 0.163786649703979492187500000000 0.033316645771265029907226562500 0.003747981507331132888793945312 0.003465455258265138106105185400 0 0 0 0 
2402333333.3333334923 0.164482012391090393066406250000 0.031596712768077850341796875000 0.004174219910055398941040039062 0.003051044885069131851196289062 0 0 0 0 
2402500000.0000000000 0.165235072374343899825888115629 0.029992254450917240488072579296 0.004361791536211968335623456738 0.002992721972987056212184286963 0 0 0 0 
2402666666.6666665077 0.165791228413581903655682481258 0.028561139479279521596888358204 0.004575601778924465179443359375 0.002865096786990762190577841650 0 0 0 0 
2402833333.3333334923 0.166136398911476107498330634371 0.027005322277545928955078125000 0.004761671647429466247558593750 0.002656785072758793830871582031 0 0 0 0 
2403000000.0000000000 0.166794598102569607833700615629 0.025493251159787181508997733204 0.005055214744061231613159179688 0.002522843889892100854160927881 0 0 0 0 
2403166666.6666665077 0.167809695005416897872763115629 0.024253541603684428823450858204 0.005288784857839345932006835938 0.002171536674723029136657714844 0 0 0 0 
2403333333.3333334923 0.168565616011619595626669365629 0.022822465747594829904576485546 0.005588456988334655761718750000 0.002135481219738721847534179688 0 0 0 0 
2403500000.0000000000 0.169180050492286709884481865629 0.021614871919155120849609375000 0.005509784910827875137329101562 0.001751289935782551982282329028 0 0 0 0 
2403666666.6666665077 0.169894650578498812576455634371 0.020160326734185218811035156250 0.005826709792017936706542968750 0.001416485174559056975721049731 0 0 0 0 
2403833333.3333334923 0.170788869261741610428018134371 0.019038613885641101491907889454 0.005750115960836411389822675488 0.001163072651252150969264365088 0 0 0 0 
2404000000.0000000000 0.171291977167129488845986884371 0.018030030652880668640136718750 0.006193900946527720365042402051 0.000863041321281343698501586914 0 0 0 0 
2404166666.6666665077 0.172188103199005099197549384371 0.017054431140422821044921875000 0.006147154606878758344168378613 0.000603235734160989522933959961 0 0 0 0 
2404333333.3333334923 0.172725573182105990310830634371 0.016190830618143081665039062500 0.006151525769382715225219726562 0.000199598565814085304737091064 0 0 0 0 
2404500000.0000000000 0.173403292894363403320312500000 0.015271998010575769597063633398 0.006145113147795200347900390625 -0.000190122067579068189293461932 0 0 0 0 
2404666666.6666665077 0.174062475562095586578692518742 0.014565218240022659301757812500 0.006241457071155309677124023438 -0.000336176541168242692947387695 0 0 0 0 
2404833333.3333334923 0.174847751855850191970986884371 0.013769252225756650406807146680 0.006241546943783760070800781250 -0.000641904887743294239044189453 0 0 0 0 
2405000000.0000000000 0.175441026687622098068075615629 0.013020636513829229527483555273 0.006093383766710758209228515625 -0.001135816914029418988468789209 0 0 0 0 
2405166666.6666665077 0.176066890358924893478231865629 0.012418585829436780756940272852 0.006107825785875319567208574512 -0.001452903728932142040849995190 0 0 0 0 
2405333333.3333334923 0.176547691226005609710369981258 0.011834717355668549973457537305 0.005836852826178073883056640625 -0.001443218206986784934997558594 0 0 0 0 
2405500000.0000000000 0.176962643861770602127236884371 0.011176424100995060312291329296 0.005710226483643054962158203125 -0.001768662361428142027613974463 0 0 0 0 
2405666666.6666665077 0.177392780780792208572549384371 0.011017140001058580225934413477 0.005624446086585521697998046875 -0.002110864734277129173278808594 0 0 0 0 
2405833333.3333334923 0.177680298686027499099893134371 0.010541315190494060516357421875 0.005692122969776391983032226562 -0.002369914203882216973545693506 0 0 0 0 
2406000000.0000000000 0.178109198808669988434161268742 0.009861330501735210418701171875 0.005304706282913684844970703125 -0.002585039241239428953883505713 0 0 0 0 
2406166666.6666665077 0.178178310394287109375000000000 0.009711342863738536834716796875 0.005289581138640642166137695312 -0.002852115081623197035548544775 0 0 0 0 
2406333333.3333334923 0.178433075547218294998330634371 0.009299431927502155303955078125 0.005063710268586874008178710938 -0.003068316262215375900268554688 0 0 0 0 
2406500000.0000000000 0.178621605038642911056356865629 0.008854736573994159698486328125 0.004923292901366949081420898438 -0.003218834986910223960876464844 0 0 0 0 
2406666666.6666665077 0.178486928343772888183593750000 0.008406024426221847534179687500 0.004793349653482437133789062500 -0.003484070533886551856994628906 0 0 0 0 
2406833333.3333334923 0.178523555397987393478231865629 0.008005139417946338653564453125 0.004560502711683511734008789062 -0.003689917270094155831577920068 0 0 0 0 
2407000000.0000000000 0.178505152463912991622763115629 0.007637119852006435394287109375 0.004373765084892511367797851562 -0.003811025992035865783691406250 0 0 0 0 
2407166666.6666665077 0.178559303283691406250000000000 0.007142711430788040161132812500 0.004260512068867683410644531250 -0.003805123502388596968409872900 0 0 0 0 
2407333333.3333334923 0.178296327590942410568075615629 0.006592427846044301986694335938 0.003911790437996388349051191113 -0.003883113386109470887425088037 0 0 0 0 
2407500000.0000000000 0.178022399544715909103231865629 0.006073672790080308914184570312 0.003868055762723087830784463037 -0.004057626705616712570190429688 0 0 0 0 
2407666666.6666665077 0.177685633301734896560830634371 0.005486033391207456588745117188 0.003691667690873146057128906250 -0.004208471160382032394409179688 0 0 0 0 
2407833333.3333334923 0.177276417613029507736044365629 0.004672874696552752581124590137 0.003431759309023619131800986182 -0.004262074828147888183593750000 0 0 0 0 
2408000000.0000000000 0.176967203617096002776776231258 0.003935919608920812606811523438 0.003346629207953811125514365088 -0.004455894231796264648437500000 0 0 0 0 
2408166666.6666665077 0.176382318139076205154580634371 0.003293371060863136811497353662 0.003162196837365626855137490381 -0.004495888017117977142333984375 0 0 0 0 
2408333333.3333334923 0.176122918725013705154580634371 0.002422235440462828116175986182 0.003004018217325211004969931494 -0.004680070560425519943237304688 0 0 0 0 
2408500000.0000000000 0.175556942820549011230468750000 0.001444307737983763001085590894 0.002702646190300583839416503906 -0.004489774815738201141357421875 0 0 0 0 
2408666666.6666665077 0.174994453787803705413494981258 0.000439521390944719314575195312 0.002450515516102313995361328125 -0.004629613365978003415579511426 0 0 0 0 
2408833333.3333334923 0.174245566129684503753338731258 -0.000676605850458145141601562500 0.002365778433158994154689169775 -0.004708415362983942031860351562 0 0 0 0 
2409000000.0000000000 0.173834428191184997558593750000 -0.001761205261573196107979799585 0.002166391117498279051539755713 -0.004645822104066610336303710938 0 0 0 0 
2409166666.6666665077 0.173226311802864102462606865629 -0.003150535747408866882324218750 0.001892267144285141988041543115 -0.004763212986290454864501953125 0 0 0 0 
2409333333.3333334923 0.172579810023307800292968750000 -0.004471069667488337430472089551 0.001768304733559489033342670972 -0.004647248890250921249389648438 0 0 0 0 
2409500000.0000000000 0.172055333852767888824786268742 -0.005872255656868219375610351562 0.001639452413655817942378378760 -0.004727606661617755889892578125 0 0 0 0 
2409666666.6666665077 0.171433448791503906250000000000 -0.007431806530803442001342773438 0.001418103347532450935961079175 -0.004612993914633989334106445312 0 0 0 0 
2409833333.3333334923 0.170918777585029602050781250000 -0.008829848840832710266113281250 0.001340939546935260079027485425 -0.004657486453652381896972656250 0 0 0 0 
2410000000.0000000000 0.170523345470428494552450615629 -0.010318694636225700378417968750 0.001015933463349937958958291162 -0.004708773922175168991088867188 0 0 0 0 
2410166666.6666665077 0.170040592551231412032919365629 -0.011854381300508979452112967579 0.001124329864978790066362690503 -0.004575796891003847122192382812 0 0 0 0 
2410333333.3333334923 0.169287189841270502288494981258 -0.013551595620810990769355974805 0.001033663051202893040300678784 -0.004563004709780216217041015625 0 0 0 0 
2410500000.0000000000 0.169058710336685208419638115629 -0.015235397033393379556676094921 0.000876559235621243715286254883 -0.004577285144478082656860351562 0 0 0 0 
2410666666.6666665077 0.168632462620735196212606865629 -0.017215643078088760375976562500 0.000673611124511808156967163086 -0.004528200719505549344534589551 0 0 0 0 
2410833333.3333334923 0.168360695242881802657919365629 -0.018956044688820838928222656250 0.000746811798308044672012329102 -0.004544624127447605133056640625 0 0 0 0 
2411000000.0000000000 0.168221279978752108474893134371 -0.020695015788078311574915701954 0.000733021297492086887359619141 -0.004707009531557559967041015625 0 0 0 0 
2411166666.6666665077 0.167853027582168606857138115629 -0.022697800770401961589772810157 0.000563698296900838613510131836 -0.004594312515109778317923261426 0 0 0 0 
2411333333.3333334923 0.167780846357345608810263115629 -0.024561794474720958364466483204 0.000589433475397527217864990234 -0.004486820194870234403128339551 0 0 0 0 
2411500000.0000000000 0.167690843343734713455361884371 -0.026408694684505459177037423046 0.000421540753450244719355982648 -0.004569172859191895398611737988 0 0 0 0 
2411666666.6666665077 0.167848184704780606368856865629 -0.028229905292391780508021170704 0.000373994058463722521632593976 -0.004582004621624946594238281250 0 0 0 0 
2411833333.3333334923 0.167799010872840909103231865629 -0.030102578923106190073033516796 0.000112841218651738004244942937 -0.004608444869518280029296875000 0 0 0 0 
2412000000.0000000000 0.168161556124687194824218750000 -0.032002076506614691997487653907 0.000042828469304367899894714355 -0.004649894777685403823852539062 0 0 0 0 
2412166666.6666665077 0.168052032589912386795205634371 -0.033906243741512298583984375000 0.000019391958630876619031633071 -0.004832204896956682205200195312 0 0 0 0 
2412333333.3333334923 0.168621480464935302734375000000 -0.035633325576782226562500000000 -0.000137316732434555888175964355 -0.004721493925899267196655273438 0 0 0 0 
2412500000.0000000000 0.168786779046058710296307481258 -0.037428252398967742919921875000 -0.000258343585301190614700317383 -0.004734687507152557373046875000 0 0 0 0 
2412666666.6666665077 0.169188946485519409179687500000 -0.039233371615409851074218750000 -0.000435017427662387490272521973 -0.004836339969187974929809570312 0 0 0 0 
2412833333.3333334923 0.169540494680404690841513115629 -0.041059345006942749023437500000 -0.000706005026586353778839111328 -0.004875991959124804410452558301 0 0 0 0 
2413000000.0000000000 0.169894665479660006424111884371 -0.042767535895109176635742187500 -0.000718836672604084014892578125 -0.004852155223488807678222656250 0 0 0 0 
2413166666.6666665077 0.170231014490127591232138115629 -0.044367171823978417133371721093 -0.000882057938724756240844726562 -0.004871102515608072280883789062 0 0 0 0 
2413333333.3333334923 0.170715972781181307693643134371 -0.045706700533628456806223283593 -0.001048594596795737960218120044 -0.004962385632097721099853515625 0 0 0 0 
2413500000.0000000000 0.171136111021041897872763115629 -0.047444429248571402812917341407 -0.001328449230641127066371298682 -0.004779584705829620361328125000 0 0 0 0 
2413666666.6666665077 0.171794965863227788727130018742 -0.048709169030189507221262346093 -0.001623670221306384043452597510 -0.004905897192656993865966796875 0 0 0 0 
2413833333.3333334923 0.172160997986793490310830634371 -0.050151027739047997211496721093 -0.001895678113214672045466757666 -0.004805183038115501403808593750 0 0 0 0 
2414000000.0000000000 0.172682374715805109222088731258 -0.051488537341356277465820312500 -0.001920179696753621101379394531 -0.004846164025366306304931640625 0 0 0 0 
2414166666.6666665077 0.173251032829284695724325615629 -0.052581753581762306903879533593 -0.002238837303593755202052451025 -0.004834666382521390914916992188 0 0 0 0 
2414333333.3333334923 0.173728719353675786774005018742 -0.053789395838975913310964216407 -0.002504804870113729996922158350 -0.004654424265027046203613281250 0 0 0 0 
2414500000.0000000000 0.174466043710708590408486884371 -0.054865743964910507202148437500 -0.002618168015033007101771689307 -0.004514339379966259002685546875 0 0 0 0 
2414666666.6666665077 0.174782171845436096191406250000 -0.055655818432569496845285783593 -0.002779442816972732977626181494 -0.004480421077460050582885742188 0 0 0 0 
2414833333.3333334923 0.175098329782485989669638115629 -0.056706000119447708129882812500 -0.002941792597994207902195595850 -0.004430471453815698623657226562 0 0 0 0 
2415000000.0000000000 0.175583854317665100097656250000 -0.057301048189401626586914062500 -0.003120937151834369139430380713 -0.004194715060293675336355878613 0 0 0 0 
2415166666.6666665077 0.175890311598777798751669365629 -0.057980597019195556640625000000 -0.003385368734598159790039062500 -0.004096864257007837295532226562 0 0 0 0 
2415333333.3333334923 0.176163703203201293945312500000 -0.058782126754522316669504533593 -0.003416652791202067895176552881 -0.003979842644184827804565429688 0 0 0 0 
2415500000.0000000000 0.176467463374137906173544365629 -0.059333182871341712261159528907 -0.003735256148502231077906943213 -0.003881290089339017868041992188 0 0 0 0 
2415666666.6666665077 0.176584258675575311858807481258 -0.059611555188894271850585937500 -0.003847319865599275068995810400 -0.003802218008786439895629882812 0 0 0 0 
2415833333.3333334923 0.176794245839119013030682481258 -0.060096040368080139160156250000 -0.004047999624162912368774414062 -0.003530815243721007867100381006 0 0 0 0 
2416000000.0000000000 0.176628842949867304046307481258 -0.060553956776857383037526716407 -0.004046610090881586074829101562 -0.003330877516418695016148232568 0 0 0 0 
2416166666.6666665077 0.176777362823486300369424384371 -0.060841910541057586669921875000 -0.004178745206445456418509198926 -0.003159757005050777955296181787 0 0 0 0 
2416333333.3333334923 0.176619797945022610763388115629 -0.061149079352617256855051408593 -0.004466393031179904937744140625 -0.002963066333904861970188759912 0 0 0 0 
2416500000.0000000000 0.176402270793914794921875000000 -0.061382304877042770385742187500 -0.004506046883761882781982421875 -0.002813865430653094811680459131 0 0 0 0 
2416666666.6666665077 0.176097109913825988769531250000 -0.061647169291973107074777971093 -0.004596492275595664978027343750 -0.002599090570583939985987997900 0 0 0 0 
2416833333.3333334923 0.175831511616706903655682481258 -0.061865400522947311401367187500 -0.004684856161475181579589843750 -0.002225830219686030907871865381 0 0 0 0 
2417000000.0000000000 0.175216674804687500000000000000 -0.062090273946523673320729841407 -0.004735752474516630172729492188 -0.002178326481953262849095009912 0 0 0 0 
2417166666.6666665077 0.174802377820015009124432481258 -0.062209155410528182983398437500 -0.004923416767269372940063476562 -0.001947970828041434071184467847 0 0 0 0 
2417333333.3333334923 0.174202173948287991622763115629 -0.062407653778791427612304687500 -0.004732158500701189041137695312 -0.001663742703385650894762348706 0 0 0 0 
2417500000.0000000000 0.173436835408210809905682481258 -0.062880821526050567626953125000 -0.004985485225915908813476562500 -0.001535865594632924036738730322 0 0 0 0 
2417666666.6666665077 0.172821059823036193847656250000 -0.062894612550735473632812500000 -0.004856426268815994262695312500 -0.001409800956025720076320029150 0 0 0 0 
2417833333.3333334923 0.171898230910301208496093750000 -0.063217118382453918457031250000 -0.005064090248197317123413085938 -0.001162945176474750041961669922 0 0 0 0 
2418000000.0000000000 0.170944258570671109298544365629 -0.063640311360359191894531250000 -0.004950851202011108398437500000 -0.000870897027198225259780883789 0 0 0 0 
2418166666.6666665077 0.169911429286003112792968750000 -0.063775300979614257812500000000 -0.004772854037582874298095703125 -0.000763554184231907129287719727 0 0 0 0 
2418333333.3333334923 0.169065147638320895095986884371 -0.064240433275699615478515625000 -0.004913786891847848892211914062 -0.000540815002750605344772338867 0 0 0 0 
2418500000.0000000000 0.167819589376449612716513115629 -0.064725272357463836669921875000 -0.004748785868287087354178144238 -0.000424617523094639182090759277 0 0 0 0 
2418666666.6666665077 0.166997015476226806640625000000 -0.065152592957019805908203125000 -0.004908275790512561798095703125 -0.000113982307084370404481887817 0 0 0 0 
2418833333.3333334923 0.165705993771553011795205634371 -0.065846756100654602050781250000 -0.004788902588188648223876953125 -0.000057651370298117399215698242 0 0 0 0 
2419000000.0000000000 0.164338707923889187911825615629 -0.066391825675964355468750000000 -0.004600781481713057431692792676 0.000384553190087899619906824933 0 0 0 0 
2419166666.6666665077 0.163347154855728204925213731258 -0.067093200981616973876953125000 -0.004807177931070327758789062500 0.000363088212907314300537109375 0 0 0 0 
2419333333.3333334923 0.161919608712196405608807481258 -0.067747004330158233642578125000 -0.004690238740295171737670898438 0.000442746735643595511287134991 0 0 0 0 
2419500000.0000000000 0.160690754652023287674111884371 -0.068595767021179199218750000000 -0.004656353499740362167358398438 0.000838639680296182632446289062 0 0 0 0 
2419666666.6666665077 0.159621730446815490722656250000 -0.069601692259311676025390625000 -0.004531715065240859985351562500 0.000826020259410142898559570312 0 0 0 0 
2419833333.3333334923 0.158444017171859713455361884371 -0.070363536477088928222656250000 -0.004472902975976467132568359375 0.001202490762807429053662944263 0 0 0 0 
