# Hz S RI R 50
2400000000.0000000000 0.168837353587150601486044365629 0.040216621011495590209960937500 0.003195316297933458848240517725 -0.001201528706587851047515869141 0 0 0 0 
2400166666.6666665077 0.169429406523704501053018134371 0.039652697741985321044921875000 0.003124212613329290910008095850 -0.001295771216973661942722939600 0 0 0 0 
2400333333.3333334923 0.170081645250320406814736884371 0.038776542991399771953542341407 0.003034350695088506178614951025 -0.001296939328312874057172465747 0 0 0 0 
2400500000.0000000000 0.170687809586524991134481865629 0.038037691265344619750976562500 0.002913318108767271041870117188 -0.001492345239967107989667582935 0 0 0 0 
2400666666.6666665077 0.171121358871459988693075615629 0.037021778523921966552734375000 0.002723751123994588851928710938 -0.001544688013382256031036376953 0 0 0 0 
2400833333.3333334923 0.171390324831008911132812500000 0.036390345543622970581054687500 0.002628569491207600073573447119 -0.001619197195395827076555561597 0 0 0 0 
2401000000.0000000000 0.171622097492217989822549384371 0.035706698894500732421875000000 0.002637780969962478117701865088 -0.001726560876704752011540078271 0 0 0 0 
2401166666.6666665077 0.172149538993835504729901231258 0.034893978387117392803151716407 0.002606959315016866163966513525 -0.001771040610037744045257568359 0 0 0 0 
2401333333.3333334923 0.172219499945640591720419365629 0.033922363072633743286132812500 0.002537551103159784837010048975 -0.001780917053110897974727011572 0 0 0 0 
2401500000.0000000000 0.172358661890029907226562500000 0.033481080085039138793945312500 0.002428306965157390074488974463 -0.001910842838697135014774941553 0 0 0 0 
2401666666.6666665077 0.172569364309310913085937500000 0.032731942832469940185546875000 0.002380868187174201011657714844 -0.001967435935512185096740722656 0 0 0 0 
2401833333.3333334923 0.172633424401283291915731865629 0.031867351382970809936523437500 0.002258460037410258813145302881 -0.002027517184615135192871093750 0 0 0 0 
2402000000.0000000000 0.172408193349838312347088731258 0.031251750886440277099609375000 0.002263227244839071793797158350 -0.001998360734432936148402548682 0 0 0 0 
2402166666.6666665077 0.172584503889083890060263115629 0.030192775651812549936314766796 0.002202006988227366967442177881 -0.002105283318087459044215536963 0 0 0 0 
2402333333.3333334923 0.172543704509735107421875000000 0.029411247000098228454589843750 0.002272362122312188148498535156 -0.002325298031792045073268271338 0 0 0 0 
2402500000.0000000000 0.172443553805351312835369981258 0.028478695079684260976771170704 0.002071500523015857176539755713 -0.002372517017647624015808105469 0 0 0 0 
2402666666.6666665077 0.172299847006797790527343750000 0.027602501213550571096400076954 0.002136787166818975968601845850 -0.002469539642333983941319131006 0 0 0 0 
2402833333.3333334923 0.172328174114227294921875000000 0.026834089308977130544642264454 0.001870913547463715076446533203 -0.002553176367655396895167685400 0 0 0 0 
2403000000.0000000000 0.172035217285156305511151231258 0.025715243071317669260045235546 0.001779627637006341977360390771 -0.002706410363316535949707031250 0 0 0 0 
2403166666.6666665077 0.171912074089050292968750000000 0.024693446233868598937988281250 0.001601344440132379965541220557 -0.002775490516796708106994628906 0 0 0 0 
2403333333.3333334923 0.171773135662078912933026231258 0.023684367537498470651646798046 0.001468811649829149029375385815 -0.002542273374274373054504394531 0 0 0 0 
2403500000.0000000000 0.171442344784736605545205634371 0.022562889382243159902552420704 0.001394843915477395057678222656 -0.002892008284106851057765341650 0 0 0 0 
2403666666.6666665077 0.171206504106521606445312500000 0.021325847133994099008580391796 0.001292001106776297092437744141 -0.002678897464647889137268066406 0 0 0 0 
2403833333.3333334923 0.171168372035026605804119981258 0.020089305937290191650390625000 0.001043769763782619996311806787 -0.002852559788152575926539755713 0 0 0 0 
2404000000.0000000000 0.170928999781608609298544365629 0.018782088533043861389160156250 0.000843670160975307226181030273 -0.002609399612993001937866210938 0 0 0 0 
2404166666.6666665077 0.170557141304016113281250000000 0.017456447705626491201380545704 0.000785318436101078987121582031 -0.002681785030290483994724892725 0 0 0 0 
2404333333.3333334923 0.170229032635688809493856865629 0.016093190759420398366907889454 0.000694461225066334009170532227 -0.002813081955537199974060058594 0 0 0 0 
2404500000.0000000000 0.170111805200576809982138115629 0.014584823511540889739990234375 0.000717516348231583833694458008 -0.002550520235672593116760253906 0 0 0 0 
2404666666.6666665077 0.169999957084655789474325615629 0.013295206241309639322301094921 0.000650924688670784235000610352 -0.002536424435675144195556640625 0 0 0 0 
2404833333.3333334923 0.169770389795303289215411268742 0.011775157414376739156702811329 0.000415068498114123886257725848 -0.002668366534635425047633505713 0 0 0 0 
2405000000.0000000000 0.169724866747856112381143134371 0.010091739706695079803466796875 0.000178062196937389698907575064 -0.002306018956005572839024209131 0 0 0 0 
2405166666.6666665077 0.169496089220046997070312500000 0.008683107793331146240234375000 0.000286198395770043080479222430 -0.002416075440123676820042275537 0 0 0 0 
2405333333.3333334923 0.169542998075485201736611884371 0.006960271392017602920532226562 0.000374980241758748888969421387 -0.002325909445062280134913779150 0 0 0 0 
2405500000.0000000000 0.169406890869140597244424384371 0.005377425346523523330688476562 0.000254606158705428188473302020 -0.002144243102520703835728310693 0 0 0 0 
2405666666.6666665077 0.169260397553443908691406250000 0.003730754600837827162501669775 0.000245863076997920924991053448 -0.002288683317601681189296103369 0 0 0 0 
2405833333.3333334923 0.169198706746101407150106865629 0.002089801244437694983241415869 0.000351503054844215512275695801 -0.002181894844397902922389365088 0 0 0 0 
2406000000.0000000000 0.169129535555839510818643134371 0.000250980083364993279606419696 0.000370727560948580503463745117 -0.002220291877165437178370810400 0 0 0 0 
2406166666.6666665077 0.168955996632575988769531250000 -0.001299442374147474982618022388 0.000262454123003408312797546387 -0.002213088329881430105922079932 0 0 0 0 
2406333333.3333334923 0.168863877654075594803018134371 -0.003118837717920542196986533057 0.000353507581166923100322169171 -0.002071511931717396216151572119 0 0 0 0 
2406500000.0000000000 0.168775349855423001388388115629 -0.004850634839385747909545898438 0.000453238870250061208575648175 -0.001970768207684158845188759912 0 0 0 0 
2406666666.6666665077 0.168476670980453491210937500000 -0.006356037687510251998901367188 0.000463228672742843573719578876 -0.002183519303798675970790243994 0 0 0 0 
2406833333.3333334923 0.168476477265357998946981865629 -0.008043903857469558715820312500 0.000459412956843152588039952411 -0.002345571527257562117335654150 0 0 0 0 
2407000000.0000000000 0.168481066823005704025106865629 -0.009666156023740768432617187500 0.000594159355387091636657714844 -0.002275751670822501182556152344 0 0 0 0 
2407166666.6666665077 0.168456792831420898437500000000 -0.011027533560991290700892264454 0.000312351214233785921901148663 -0.002367970766499638991114951025 0 0 0 0 
2407333333.3333334923 0.168055653572082491775674384371 -0.012802035547792909794817539648 0.000248645112151280099719447003 -0.002418697113171219825744628906 0 0 0 0 
2407500000.0000000000 0.168023347854614313323651231258 -0.014134310185909269505510899023 0.000247291376581415479809361591 -0.002594647463411093191859579932 0 0 0 0 
2407666666.6666665077 0.168179959058761596679687500000 -0.015334206633269790304163748829 0.000272752338787540793418884277 -0.002521301852539182142970419775 0 0 0 0 
2407833333.3333334923 0.167823776602745111663494981258 -0.016728682443499568593958670704 0.000172529413248412311077117920 -0.002672832226380705833435058594 0 0 0 0 
2408000000.0000000000 0.167833805084228487869424384371 -0.017965149134397510183314139454 0.000125035308883525404051104135 -0.002771093277260661125183105469 0 0 0 0 
2408166666.6666665077 0.167823344469070406814736884371 -0.018824977800250049936314766796 0.000013973432942293579264573557 -0.002625953173264861106872558594 0 0 0 0 
2408333333.3333334923 0.168135151267051696777343750000 -0.020012862980365749704381173046 -0.000072466136771254241466522217 -0.002970098983496427969691611182 0 0 0 0 
2408500000.0000000000 0.168150946497917203048544365629 -0.021172089502215388906458670704 -0.000089726047008298337459564209 -0.003039947943761945204493857275 0 0 0 0 
2408666666.6666665077 0.168330222368240411956463731258 -0.022123724222183231008509451954 -0.000227077704039402306079864502 -0.002969997469335794015171670068 0 0 0 0 
2408833333.3333334923 0.168390572071075411697549384371 -0.023034265264868739736536795704 -0.000492678605951368808746337891 -0.002951337024569510979893349756 0 0 0 0 
2409000000.0000000000 0.168457150459289606292401231258 -0.023811440914869308471679687500 -0.000464091630419716184765416278 -0.003040578914806247191188193213 0 0 0 0 
2409166666.6666665077 0.168871283531188992599325615629 -0.024711314588785171508789062500 -0.000512694416102021932601928711 -0.003061812138184905052185058594 0 0 0 0 
2409333333.3333334923 0.169111564755439813811932481258 -0.025597369298338890075683593750 -0.000692377623636275529861450195 -0.002992092631757258935215615381 0 0 0 0 
2409500000.0000000000 0.169288888573646600921307481258 -0.026472944766283038747767264454 -0.000814000086393207311630249023 -0.003208362497389316992518759619 0 0 0 0 
2409666666.6666665077 0.169458910822868402679119981258 -0.027431370690464969980260079296 -0.001029554288834332986118935693 -0.003121208632364869117736816406 0 0 0 0 
2409833333.3333334923 0.169666156172752408126669365629 -0.028120594099164009094238281250 -0.001028393162414432005641318213 -0.003228156827390193939208984375 0 0 0 0 
2410000000.0000000000 0.169961541891097994705361884371 -0.029013723134994510305384451954 -0.001323353149928152994868613135 -0.003146448405459523200988769531 0 0 0 0 
2410166666.6666665077 0.170007988810539301116619981258 -0.029934220016002658498743826954 -0.001493864343501627011540078271 -0.003032227046787738800048828125 0 0 0 0 
2410333333.3333334923 0.170008569955825805664062500000 -0.030626405030488971364954764454 -0.001594881061464547894121479565 -0.003055481007322669029235839844 0 0 0 0 
2410500000.0000000000 0.170029476284980801681356865629 -0.031599950045347206806223283593 -0.001790788257494569041608500903 -0.003073702100664377212524414062 0 0 0 0 
2410666666.6666665077 0.170266747474670410156250000000 -0.032337717711925506591796875000 -0.002035299316048622131347656250 -0.002965913387015461921691894531 0 0 0 0 
2410833333.3333334923 0.170171886682510403732138115629 -0.033002626150846481323242187500 -0.002302533481270074844360351562 -0.002878611208871006965637207031 0 0 0 0 
2411000000.0000000000 0.170063719153404208084268134371 -0.033668391406536102294921875000 -0.002166703110560774803161621094 -0.002714097034186124801635742188 0 0 0 0 
2411166666.6666665077 0.169840812683105496505575615629 -0.034526977688074111938476562500 -0.002299768850207328796386718750 -0.002667800756171346144435263525 0 0 0 0 
2411333333.3333334923 0.169900417327880887130575615629 -0.035304084420204162597656250000 -0.002320400904864072799682617188 -0.002461574506014585928675986182 0 0 0 0 
2411500000.0000000000 0.169610679149627713302450615629 -0.036172740161418921733815778907 -0.002479042625054717063903808594 -0.002279617357999085946324013818 0 0 0 0 
2411666666.6666665077 0.169528603553772000411825615629 -0.036835826933383941650390625000 -0.002664866624400020079371786963 -0.002302963053807615800144814600 0 0 0 0 
2411833333.3333334923 0.169136300683021600921307481258 -0.037617057561874389648437500000 -0.002699228003621100945713662256 -0.002058233134448527856114052881 0 0 0 0 
2412000000.0000000000 0.169174924492835998535156250000 -0.038391519337892532348632812500 -0.002589159877970815138575888525 -0.001993026817217469215393066406 0 0 0 0 
2412166666.6666665077 0.168697237968444796463174384371 -0.039262674748897552490234375000 -0.002593857469037175178527832031 -0.001809583511203528101082826929 0 0 0 0 
2412333333.3333334923 0.168536394834518404861611884371 -0.040071867406368262554128278907 -0.002576038241386414007899618994 -0.001879560761153697967529296875 0 0 0 0 
2412500000.0000000000 0.167885392904281588455361884371 -0.040969416499137878417968750000 -0.002644727937877178192138671875 -0.001912819803692401105996157007 0 0 0 0 
2412666666.6666665077 0.167626798152923611739950615629 -0.041866973042488098144531250000 -0.002777710556983948187587118994 -0.001746885245665908076642680591 0 0 0 0 
2412833333.3333334923 0.167203247547149713714276231258 -0.042698875069618232036550153907 -0.002747885650023818016052246094 -0.001691008219495415904401469653 0 0 0 0 
2413000000.0000000000 0.166609391570091303069744981258 -0.043677773326635360717773437500 -0.002883993554860353903529501807 -0.001728261471726000092150044019 0 0 0 0 
2413166666.6666665077 0.166068598628044100662393134371 -0.044674638658761978149414062500 -0.002978346077725290818455361475 -0.001635435735806822993634868091 0 0 0 0 
2413333333.3333334923 0.165471225976943997482138115629 -0.045560274273157119750976562500 -0.003078388283029199080226279150 -0.001592940418049693107604980469 0 0 0 0 
2413500000.0000000000 0.164835229516029413421307481258 -0.046507723629474639892578125000 -0.003149003954604268074035644531 -0.001527790678665041923522949219 0 0 0 0 
2413666666.6666665077 0.164473548531532287597656250000 -0.047404419630765921855886091407 -0.003223183564841746850254677881 -0.001449248171411454894422221606 0 0 0 0 
2413833333.3333334923 0.163710758090019198318643134371 -0.048345260322093956684152971093 -0.003315596608445047898533486475 -0.001378346700221299908281635815 0 0 0 0 
2414000000.0000000000 0.163141444325447110275106865629 -0.049325540661811828613281250000 -0.003626882564276456832885742188 -0.001154216588474809906603169019 0 0 0 0 
2414166666.6666665077 0.162643268704414395431356865629 -0.050398215651512152934987653907 -0.003558712778612970872166298975 -0.001128185889683664061902690356 0 0 0 0 
2414333333.3333334923 0.162167057394981412032919365629 -0.051216736435890197753906250000 -0.003794487332925200896022177588 -0.000863957859110087156295776367 0 0 0 0 
2414500000.0000000000 0.161881074309349087814169365629 -0.052104517817497253417968750000 -0.003741792170330882072448730469 -0.000569451018236577510833740234 0 0 0 0 
2414666666.6666665077 0.161211341619491604904013115629 -0.053268555551767349243164062500 -0.003712866222485899925231933594 -0.000298746279440820217132568359 0 0 0 0 
2414833333.3333334923 0.160904169082641601562500000000 -0.054364047944545752788503278907 -0.003824069630354642868041992188 -0.000249193486524745821952819824 0 0 0 0 
2415000000.0000000000 0.160572260618209811111611884371 -0.055448807775974266742746721093 -0.003739164443686604933497763525 -0.000011144212294311730022532310 0 0 0 0 
2415166666.6666665077 0.160201966762542696853799384371 -0.056484609842300421977956403907 -0.003764791646972299055812216650 0.000254855898674577474594116211 0 0 0 0 
2415333333.3333334923 0.160038158297538812835369981258 -0.057793974876403808593750000000 -0.003789195092394948005676269531 0.000283934612525627017021179199 0 0 0 0 
2415500000.0000000000 0.159781947731971712967080634371 -0.058899480849504470825195312500 -0.003677014494314790205714560400 0.000465141667518764680058079852 0 0 0 0 
2415666666.6666665077 0.159588903188705388824786268742 -0.059983368963003158569335937500 -0.003553214715793728828430175781 0.000531319412402808666229248047 0 0 0 0 
2415833333.3333334923 0.159355804324150113204794365629 -0.061345428228378302837331403907 -0.003610580693930387930629111182 0.000797313346993178129196166992 0 0 0 0 
2416000000.0000000000 0.158897489309310913085937500000 -0.062665164470672607421875000000 -0.003439788939431310133693076025 0.000885736604686826467514038086 0 0 0 0 
2416166666.6666665077 0.158849954605102511306924384371 -0.064149640500545501708984375000 -0.003437272505834699110743857275 0.001028923783451318957685161060 0 0 0 0 
2416333333.3333334923 0.158582791686057988922442518742 -0.065315902233123779296875000000 -0.003373824059963225884678506006 0.001191070652566849968553852612 0 0 0 0 
2416500000.0000000000 0.158350348472595187088174384371 -0.066635459661483764648437500000 -0.003195015247911214828491210938 0.001289982814341783957240439307 0 0 0 0 
2416666666.6666665077 0.157924413681030301193075615629 -0.067925274372100830078125000000 -0.003033739747479557991027832031 0.001467727823182940916774130713 0 0 0 0 
2416833333.3333334923 0.157744184136390713790731865629 -0.069366611540317535400390625000 -0.003099957481026649908778525244 0.001626579789444803974748920972 0 0 0 0 
2417000000.0000000000 0.157249972224235506912393134371 -0.070592835545539855957031250000 -0.002945356769487262205836630713 0.001528503722511231899261474609 0 0 0 0 
2417166666.6666665077 0.157033711671829195877236884371 -0.071640849113464355468750000000 -0.002731295535340905189514160156 0.001679117791354656002641987378 0 0 0 0 
2417333333.3333334923 0.156767040491104098220986884371 -0.072664417326450347900390625000 -0.002669843612238765196559286963 0.001835072180256247954127646338 0 0 0 0 
2417500000.0000000000 0.156422927975654602050781250000 -0.074055597186088562011718750000 -0.002555200131610035896301269531 0.001792449271306395964381552588 0 0 0 0 
2417666666.6666665077 0.156252354383468600174111884371 -0.074867404997348785400390625000 -0.002521489514037967161891318213 0.001933855237439275004743266528 0 0 0 0 
2417833333.3333334923 0.155990272760391207595986884371 -0.075953468680381774902343750000 -0.002330727409571408791782998193 0.002014040248468517823460244287 0 0 0 0 
2418000000.0000000000 0.155699267983436612228231865629 -0.076978102326393127441406250000 -0.002297763014212251143214560400 0.001809578388929367065429687500 0 0 0 0 
2418166666.6666665077 0.155524030327796908279580634371 -0.077741570770740509033203125000 -0.002158215502277017073390341650 0.001967739313840866088867187500 0 0 0 0 
2418333333.3333334923 0.155519351363182095626669365629 -0.078865334391593933105468750000 -0.002115373965352774100062704932 0.001966987270861864089965820312 0 0 0 0 
2418500000.0000000000 0.155267804861068697830361884371 -0.079641968011856079101562500000 -0.002018573228269815011265420068 0.001917231245897710106493305737 0 0 0 0 
2418666666.6666665077 0.155142292380333002288494981258 -0.080490432679653167724609375000 -0.002096213633194566206691122900 0.002079409547150135040283203125 0 0 0 0 
2418833333.3333334923 0.154883608222007806975994981258 -0.081294775009155273437500000000 -0.001992622157558798789978027344 0.002022256841883062882664345850 0 0 0 0 
2419000000.0000000000 0.154637232422828702071981865629 -0.082125373184680938720703125000 -0.001896215835586190006853413159 0.002178465016186236901524209131 0 0 0 0 
2419166666.6666665077 0.154484510421752901931924384371 -0.082877546548843383789062500000 -0.001842841506004333929774618994 0.002210213104262948036193847656 0 0 0 0 
2419333333.3333334923 0.154038831591606112381143134371 -0.083241187036037445068359375000 -0.001764290849678217931034707178 0.002179051749408245086669921875 0 0 0 0 
2419500000.0000000000 0.153998091816902188400106865629 -0.084036275744438171386718750000 -0.001616254798136651949641562354 0.002236596541479229927062988281 0 0 0 0 
2419666666.6666665077 0.153683230280876187423544365629 -0.084715075790882110595703125000 -0.001422253320924937941907573169 0.002330100396648048920872353662 0 0 0 0 
2419833333.3333334923 0.153414025902748107910156250000 -0.085322834551334381103515625000 -0.001386021845974027893663715894 0.002212410559877752824070595850 0 0 0 0 
