# Version 1.00
#
freq[Hz];re:Trc1_S11;im:Trc1_S11;re:Trc2_S21;im:Trc2_S21;
2.400000000000000E+009;1.542929857969284E-001;5.908172950148583E-002;-3.888132283464074E-003;-2.816455380525440E-004;
2.400166666666667E+009;1.544779241085053E-001;5.710994824767113E-002;-4.048908129334450E-003;-2.031045296462253E-004;
2.400333333333334E+009;1.546114832162857E-001;5.496360734105110E-002;-4.043069668114185E-003;-1.124401096603833E-004;
2.400500000000000E+009;1.549988538026810E-001;5.300996452569962E-002;-3.990413155406714E-003;1.124397022067569E-004;
2.400666666666667E+009;1.554479897022247E-001;5.082296580076218E-002;-3.897122107446194E-003;3.131785197183490E-004;
2.400833333333334E+009;1.558609306812286E-001;4.903301596641541E-002;-4.177886992692947E-003;3.914951521437615E-004;
2.401000000000000E+009;1.563946157693863E-001;4.671886190772057E-002;-4.048288334161043E-003;6.277014035731554E-004;
2.401166666666667E+009;1.569797247648239E-001;4.454416781663895E-002;-3.924492280930281E-003;6.073233671486378E-004;
2.401333333333334E+009;1.574988663196564E-001;4.255124926567078E-002;-4.040395375341177E-003;8.208189974538982E-004;
2.401500000000000E+009;1.584331244230270E-001;4.049186408519745E-002;-3.901893272995949E-003;1.066539203748107E-003;
2.401666666666667E+009;1.590313017368317E-001;3.852957487106323E-002;-4.019523039460182E-003;1.125679467804730E-003;
2.401833333333334E+009;1.600134074687958E-001;3.666628152132034E-002;-3.828794229775667E-003;1.293221605010331E-003;
2.402000000000000E+009;1.607501953840256E-001;3.483860567212105E-002;-3.837217343971133E-003;1.268260646611452E-003;
2.402166666666667E+009;1.615674048662186E-001;3.298468142747879E-002;-3.771417774260044E-003;1.565466984175146E-003;
2.402333333333334E+009;1.626095175743103E-001;3.141084685921669E-002;-3.632078412920237E-003;1.761291176080704E-003;
2.402500000000000E+009;1.637221276760101E-001;2.979436330497265E-002;-3.592488821595907E-003;1.676368177868426E-003;
2.402666666666667E+009;1.645781248807907E-001;2.830444648861885E-002;-3.541694488376379E-003;1.847955049015582E-003;
2.402833333333334E+009;1.657824069261551E-001;2.689497545361519E-002;-3.421789733693004E-003;1.958943204954267E-003;
2.403000000000000E+009;1.669096797704697E-001;2.567001245915890E-002;-3.316629910841584E-003;2.178493188694120E-003;
2.403166666666667E+009;1.679459512233734E-001;2.444314025342464E-002;-3.514101495966315E-003;2.268811920657754E-003;
2.403333333333334E+009;1.691839694976807E-001;2.332308888435364E-002;-3.209573449566960E-003;2.279038541018963E-003;
2.403500000000000E+009;1.702247560024262E-001;2.213377319276333E-002;-3.199049038812518E-003;2.523664152249694E-003;
2.403666666666667E+009;1.712739467620850E-001;2.122031152248383E-002;-3.296068869531155E-003;2.512326231226325E-003;
2.403833333333334E+009;1.724272966384888E-001;2.025586366653442E-002;-2.985118888318539E-003;2.724241930991411E-003;
2.404000000000000E+009;1.733972579240799E-001;1.953865773975849E-002;-2.989426255226135E-003;2.922644373029470E-003;
2.404166666666667E+009;1.742143481969833E-001;1.873092912137508E-002;-2.706767292693257E-003;3.040837822481990E-003;
2.404333333333334E+009;1.752482354640961E-001;1.814947836101055E-002;-2.696768613532186E-003;3.006143262609839E-003;
2.404500000000000E+009;1.759469956159592E-001;1.748123578727245E-002;-2.645957050845027E-003;3.160039894282818E-003;
2.404666666666667E+009;1.768779009580612E-001;1.700570061802864E-002;-2.573380479589105E-003;3.278878517448902E-003;
2.404833333333334E+009;1.776219755411148E-001;1.661196723580360E-002;-2.323711756616831E-003;3.315518377348781E-003;
2.405000000000000E+009;1.781793236732483E-001;1.609482802450657E-002;-2.167775528505445E-003;3.559485543519259E-003;
2.405166666666667E+009;1.788180619478226E-001;1.589585840702057E-002;-2.168069360777736E-003;3.412674646824598E-003;
2.405333333333334E+009;1.794325113296509E-001;1.541144587099552E-002;-2.095764270052314E-003;3.615841502323747E-003;
2.405500000000000E+009;1.798389106988907E-001;1.526297722011805E-002;-1.812376896850765E-003;3.605251666158438E-003;
2.405666666666667E+009;1.802560538053513E-001;1.505421847105026E-002;-1.505997381173074E-003;3.551711793988943E-003;
2.405833333333334E+009;1.802096962928772E-001;1.483430340886116E-002;-1.385556068271399E-003;3.760665655136108E-003;
2.406000000000000E+009;1.805285513401032E-001;1.453631278127432E-002;-1.358820125460625E-003;3.801267361268401E-003;
2.406166666666667E+009;1.803141683340073E-001;1.439737901091576E-002;-1.159103005193174E-003;3.826366970315576E-003;
2.406333333333334E+009;1.806617379188538E-001;1.408258359879255E-002;-1.036077272146940E-003;3.741108812391758E-003;
2.406500000000000E+009;1.804414093494415E-001;1.387334708124399E-002;-8.644057088531554E-004;4.018007311969996E-003;
2.406666666666667E+009;1.800666153430939E-001;1.366181857883930E-002;-5.493831122294068E-004;3.869046457111836E-003;
2.406833333333334E+009;1.799223124980927E-001;1.315744221210480E-002;-3.405020688660443E-004;3.901558229699731E-003;
2.407000000000000E+009;1.795563250780106E-001;1.281581446528435E-002;-3.107093507423997E-004;3.872470464557409E-003;
2.407166666666667E+009;1.791745275259018E-001;1.245926786214113E-002;-9.972093539545313E-005;3.830168396234512E-003;
2.407333333333334E+009;1.785439997911453E-001;1.174346823245287E-002;-9.517405851511285E-005;3.709220560267568E-003;
2.407500000000000E+009;1.780513375997543E-001;1.122221350669861E-002;-2.871630749723408E-005;3.745821304619312E-003;
2.407666666666667E+009;1.773951947689056E-001;1.067983917891979E-002;2.772132575046271E-004;3.727468429133296E-003;
2.407833333333334E+009;1.766468286514282E-001;9.678834117949009E-003;2.880464307963848E-004;3.735217731446028E-003;
2.408000000000000E+009;1.759943515062332E-001;8.862877264618874E-003;5.224997876212001E-004;3.702617483213544E-003;
2.408166666666667E+009;1.751515567302704E-001;8.000506088137627E-003;5.980950663797557E-004;3.592431545257568E-003;
2.408333333333334E+009;1.746544837951660E-001;7.012869231402874E-003;7.087153499014676E-004;3.513177856802940E-003;
2.408500000000000E+009;1.737418323755264E-001;5.616025999188423E-003;8.630014490336180E-004;3.340601455420256E-003;
2.408666666666667E+009;1.729031354188919E-001;4.547283984720707E-003;1.034706481732428E-003;3.198806894943118E-003;
2.408833333333334E+009;1.720699667930603E-001;3.098297631368041E-003;9.043657919391990E-004;3.265084698796272E-003;
2.409000000000000E+009;1.713100373744965E-001;1.720562810078263E-003;1.178705017082393E-003;3.082939656451345E-003;
2.409166666666667E+009;1.707085371017456E-001;2.684291976038367E-004;1.379847410134971E-003;2.984270919114351E-003;
2.409333333333334E+009;1.700215935707092E-001;-1.512670423835516E-003;1.333136809989810E-003;2.924239495769143E-003;
2.409500000000000E+009;1.692548394203186E-001;-3.179766237735748E-003;1.465376815758646E-003;2.955659525468946E-003;
2.409666666666667E+009;1.684238612651825E-001;-4.801494535058737E-003;1.379575696773827E-003;2.815149724483490E-003;
2.409833333333334E+009;1.678790897130966E-001;-6.543415598571301E-003;1.622339128516614E-003;2.720951801165938E-003;
2.410000000000000E+009;1.675637364387512E-001;-8.388051763176918E-003;1.653983839787543E-003;2.622016705572605E-003;
2.410166666666667E+009;1.671126484870911E-001;-1.035135053098202E-002;1.491154544055462E-003;2.613503020256758E-003;
2.410333333333334E+009;1.666153073310852E-001;-1.220258697867394E-002;1.690465142019093E-003;2.532206941395998E-003;
2.410500000000000E+009;1.662426888942719E-001;-1.418273523449898E-002;1.814893912523985E-003;2.420745324343443E-003;
2.410666666666667E+009;1.660197526216507E-001;-1.634508185088635E-002;1.958123641088605E-003;2.342543331906200E-003;
2.410833333333334E+009;1.659392863512039E-001;-1.807318069040775E-002;1.877097412943840E-003;2.325632842257619E-003;
2.411000000000000E+009;1.659006923437119E-001;-2.036326378583908E-002;1.896130503155291E-003;2.116380957886577E-003;
2.411166666666667E+009;1.659257411956787E-001;-2.225232310593128E-002;1.931748352944851E-003;2.068910282105207E-003;
2.411333333333334E+009;1.659254282712936E-001;-2.433010749518871E-002;1.988075906410813E-003;1.890547107905150E-003;
2.411500000000000E+009;1.660868674516678E-001;-2.630831860005856E-002;2.059662481769919E-003;1.832802547141910E-003;
2.411666666666667E+009;1.664178818464279E-001;-2.825792320072651E-002;2.263495698571205E-003;1.791678252629936E-003;
2.411833333333334E+009;1.669660806655884E-001;-3.026362508535385E-002;2.092826180160046E-003;1.579128904268146E-003;
2.412000000000000E+009;1.674402356147766E-001;-3.221170976758003E-002;2.335930010303855E-003;1.422320259734988E-003;
2.412166666666667E+009;1.677837222814560E-001;-3.396981582045555E-002;2.323468914255500E-003;1.532298745587468E-003;
2.412333333333334E+009;1.685925126075745E-001;-3.575703129172325E-002;2.302823355421424E-003;1.553818467073143E-003;
2.412500000000000E+009;1.690231114625931E-001;-3.734872117638588E-002;2.311241813004017E-003;1.417258055880666E-003;
2.412666666666667E+009;1.697204560041428E-001;-3.932181373238564E-002;2.211108105257154E-003;1.328408718109131E-003;
2.412833333333334E+009;1.704242229461670E-001;-4.089345410466194E-002;2.337607089430094E-003;9.668447310104966E-004;
2.413000000000000E+009;1.712341457605362E-001;-4.234356433153153E-002;2.291606739163399E-003;1.191988121718168E-003;
2.413166666666667E+009;1.717573553323746E-001;-4.387232661247253E-002;2.217298373579979E-003;9.702849783934653E-004;
2.413333333333334E+009;1.725686192512512E-001;-4.517068341374397E-002;2.215486485511065E-003;7.821400067768991E-004;
2.413500000000000E+009;1.733775585889816E-001;-4.658007994294167E-002;2.001024316996336E-003;9.459408465772867E-004;
2.413666666666667E+009;1.741776615381241E-001;-4.790488630533218E-002;2.151326043531299E-003;6.993546267040074E-004;
2.413833333333334E+009;1.749433130025864E-001;-4.881044477224350E-002;2.143934136256576E-003;6.211880827322602E-004;
2.414000000000000E+009;1.755717992782593E-001;-4.998263716697693E-002;2.074225572869182E-003;6.212889566086233E-004;
2.414166666666667E+009;1.763742417097092E-001;-5.085551366209984E-002;2.022754633799195E-003;3.766047302633524E-004;
2.414333333333334E+009;1.769621521234512E-001;-5.177485570311546E-002;2.004560315981507E-003;4.304719914216548E-004;
2.414500000000000E+009;1.777761727571487E-001;-5.249249562621117E-002;1.925757504068315E-003;3.615142777562141E-004;
2.414666666666667E+009;1.781971603631973E-001;-5.317480489611626E-002;1.823308761231601E-003;4.474258748814464E-004;
2.414833333333334E+009;1.786262392997742E-001;-5.387013405561447E-002;2.064983360469341E-003;1.879899646155536E-004;
2.415000000000000E+009;1.790305376052856E-001;-5.434148386120796E-002;1.787317101843655E-003;1.003293655230664E-004;
2.415166666666667E+009;1.794814318418503E-001;-5.473144352436066E-002;1.814804971218109E-003;2.207126963185147E-004;
2.415333333333334E+009;1.797142922878265E-001;-5.519409850239754E-002;1.647880184464157E-003;6.590980774490163E-005;
2.415500000000000E+009;1.799024194478989E-001;-5.545819178223610E-002;1.831574598327279E-003;1.126223723986186E-004;
2.415666666666667E+009;1.800176501274109E-001;-5.575633794069290E-002;1.842165016569197E-003;2.662643673829734E-004;
2.415833333333334E+009;1.800203919410706E-001;-5.600976571440697E-002;1.685144961811602E-003;6.339112587738782E-005;
2.416000000000000E+009;1.797138601541519E-001;-5.618266388773918E-002;1.620480441488326E-003;1.112150566768833E-004;
2.416166666666667E+009;1.797156333923340E-001;-5.644481256604195E-002;1.664048992097378E-003;-1.586532198416535E-005;
2.416333333333334E+009;1.794287413358688E-001;-5.660486966371536E-002;1.509987050667405E-003;3.594144436647184E-005;
2.416500000000000E+009;1.789125502109528E-001;-5.685527622699738E-002;1.592681743204594E-003;1.452630094718188E-004;
2.416666666666667E+009;1.784073859453201E-001;-5.693905055522919E-002;1.680604880675674E-003;4.916494799545035E-005;
2.416833333333334E+009;1.778729259967804E-001;-5.711307376623154E-002;1.527851913124323E-003;1.113432736019604E-004;
2.417000000000000E+009;1.768605411052704E-001;-5.733224377036095E-002;1.451846328563988E-003;-1.270238863071427E-004;
2.417166666666667E+009;1.761630922555924E-001;-5.758326873183250E-002;1.485709915868938E-003;5.057207999925595E-006;
2.417333333333334E+009;1.752542853355408E-001;-5.779673904180527E-002;1.572858076542616E-003;6.387037956301356E-007;
2.417500000000000E+009;1.742521375417709E-001;-5.820476636290550E-002;1.550709246657789E-003;2.817747008521110E-005;
2.417666666666667E+009;1.734173744916916E-001;-5.844407528638840E-002;1.547191408462822E-003;-8.790453307483404E-007;
2.417833333333334E+009;1.722323596477509E-001;-5.890504270792007E-002;1.579071860760450E-003;-1.476867601013510E-005;
2.418000000000000E+009;1.709704846143723E-001;-5.951101332902908E-002;1.599955139681697E-003;-1.349291269434616E-004;
2.418166666666667E+009;1.695358157157898E-001;-5.994856357574463E-002;1.547423307783902E-003;-1.533928152639419E-004;
2.418333333333334E+009;1.686490923166275E-001;-6.065564602613449E-002;1.493384363129735E-003;-1.248818734893575E-004;
2.418500000000000E+009;1.672046333551407E-001;-6.131441146135330E-002;1.600228832103312E-003;3.464793508101138E-006;
2.418666666666667E+009;1.659791618585587E-001;-6.210789456963539E-002;1.389311742968857E-003;-2.512393402867019E-004;
2.418833333333334E+009;1.643626987934113E-001;-6.313101947307587E-002;1.333995722234249E-003;-1.103177128243260E-004;
2.419000000000000E+009;1.629776358604431E-001;-6.403546035289764E-002;1.559381023980677E-003;-2.468307211529464E-004;
2.419166666666667E+009;1.617524176836014E-001;-6.504078954458237E-002;1.412151381373406E-003;-3.054470580536872E-004;
2.419333333333334E+009;1.601150631904602E-001;-6.600653380155563E-002;1.409061951562762E-003;-8.848223660606891E-005;
2.419500000000000E+009;1.590601652860642E-001;-6.740079075098038E-002;1.534559763967991E-003;-3.736388171091676E-004;
2.419666666666667E+009;1.578247696161270E-001;-6.866086274385452E-002;1.439834479242563E-003;-1.449005649192259E-004;
2.419833333333334E+009;1.565668433904648E-001;-6.970350444316864E-002;1.384881092235446E-003;-1.751318632159382E-004;
2.420000000000000E+009;1.554065793752670E-001;-7.125692069530487E-002;1.499950420111418E-003;-2.209094964200631E-004;
2.420166666666667E+009;1.543680876493454E-001;-7.275319844484329E-002;1.344614662230015E-003;-2.860806707758457E-004;
2.420333333333334E+009;1.534501165151596E-001;-7.437215745449066E-002;1.303350552916527E-003;-3.719201195053756E-004;
2.420500000000000E+009;1.524505168199539E-001;-7.565709948539734E-002;1.320331590250135E-003;-2.877724764402956E-004;
2.420666666666667E+009;1.515148133039475E-001;-7.732165604829788E-002;1.445237779989839E-003;-3.198631166014820E-004;
2.420833333333334E+009;1.508720070123673E-001;-7.895305752754211E-002;1.387084368616343E-003;-3.985325747635216E-004;
2.421000000000000E+009;1.500921547412872E-001;-8.070286363363266E-002;1.416935701854527E-003;-3.586475213523954E-004;
2.421166666666667E+009;1.495235264301300E-001;-8.228446543216705E-002;1.478277728892863E-003;-4.141800454817712E-004;
2.421333333333334E+009;1.492153704166412E-001;-8.423711359500885E-002;1.481544342823327E-003;-3.722594701685011E-004;
2.421500000000000E+009;1.488075405359268E-001;-8.563249558210373E-002;1.379428664222360E-003;-4.036701866425574E-004;
2.421666666666667E+009;1.485405862331390E-001;-8.756143599748612E-002;1.320317154750228E-003;-4.454813897609711E-004;
2.421833333333334E+009;1.483119130134583E-001;-8.940025418996811E-002;1.265839789994061E-003;-5.112815997563303E-004;
2.422000000000000E+009;1.481784433126450E-001;-9.095197170972824E-002;1.317803631536663E-003;-5.186679190956056E-004;
2.422166666666667E+009;1.483163982629776E-001;-9.288799762725830E-002;1.429691794328392E-003;-6.025775219313800E-004;
2.422333333333334E+009;1.484033763408661E-001;-9.439345449209213E-002;1.429933821782470E-003;-7.131684687919915E-004;
2.422500000000000E+009;1.485227346420288E-001;-9.574149549007416E-002;1.265846076421440E-003;-7.028591353446245E-004;
2.422666666666667E+009;1.488352119922638E-001;-9.756246954202652E-002;1.296895788982511E-003;-5.783447413705289E-004;
2.422833333333334E+009;1.492213010787964E-001;-9.908358007669449E-002;1.182716689072549E-003;-6.071790703572333E-004;
2.423000000000000E+009;1.496439725160599E-001;-1.006172448396683E-001;1.324134878814220E-003;-5.146177718415856E-004;
2.423166666666667E+009;1.501536518335342E-001;-1.020086780190468E-001;1.224911888130009E-003;-7.298808777704835E-004;
2.423333333333334E+009;1.507287770509720E-001;-1.031056791543961E-001;1.150208758190274E-003;-6.377989193424583E-004;
2.423500000000000E+009;1.511716097593308E-001;-1.045969873666763E-001;1.210225163958967E-003;-7.487629773095250E-004;
2.423666666666667E+009;1.516203731298447E-001;-1.059147492051125E-001;1.291329623199999E-003;-7.585320272482932E-004;
2.423833333333334E+009;1.525296568870544E-001;-1.070383936166763E-001;1.216501346789300E-003;-6.903754547238350E-004;
2.424000000000000E+009;1.530805528163910E-001;-1.080392226576805E-001;1.311092404648662E-003;-7.482959772460163E-004;
2.424166666666667E+009;1.535200029611588E-001;-1.089623197913170E-001;1.286556245759130E-003;-8.255231659859419E-004;
2.424333333333334E+009;1.543036848306656E-001;-1.096468567848206E-001;1.171567710116506E-003;-7.751249358989298E-004;
2.424500000000000E+009;1.548957824707031E-001;-1.105923801660538E-001;1.116798142902553E-003;-7.339150179177523E-004;
2.424666666666667E+009;1.556015908718109E-001;-1.110220924019814E-001;1.272714463993907E-003;-7.325038895942271E-004;
2.424833333333334E+009;1.559493392705917E-001;-1.119743734598160E-001;1.204327447339892E-003;-8.252075640484691E-004;
2.425000000000000E+009;1.565149575471878E-001;-1.125361174345017E-001;1.151287346147001E-003;-6.927250651642680E-004;
2.425166666666667E+009;1.567258089780808E-001;-1.129598319530487E-001;1.178365782834590E-003;-6.990918191149831E-004;
2.425333333333334E+009;1.571958512067795E-001;-1.133948341012001E-001;1.226179301738739E-003;-8.724996587261558E-004;
2.425500000000000E+009;1.576699316501617E-001;-1.138057261705399E-001;1.282318960875273E-003;-7.151383324526250E-004;
2.425666666666667E+009;1.577895879745483E-001;-1.141210496425629E-001;1.145263551734388E-003;-7.471951539628208E-004;
2.425833333333334E+009;1.578181982040405E-001;-1.143367588520050E-001;1.191149582155049E-003;-1.017247559502721E-003;
2.426000000000000E+009;1.578343808650971E-001;-1.145968884229660E-001;1.220777397975326E-003;-8.424270781688392E-004;
2.426166666666667E+009;1.579309701919556E-001;-1.147889867424965E-001;1.292141154408455E-003;-1.029928214848042E-003;
2.426333333333334E+009;1.577448844909668E-001;-1.148630008101463E-001;1.274365233257413E-003;-9.580297628417611E-004;
2.426500000000000E+009;1.575807332992554E-001;-1.149003580212593E-001;1.348419697023928E-003;-1.024613855406642E-003;
2.426666666666667E+009;1.573714315891266E-001;-1.148994043469429E-001;1.291442429646850E-003;-1.067798468284309E-003;
2.426833333333334E+009;1.569221615791321E-001;-1.150526031851769E-001;1.431446755304933E-003;-1.161012914963067E-003;
2.427000000000000E+009;1.562955379486084E-001;-1.151735335588455E-001;1.211334834806621E-003;-1.240933081135154E-003;
2.427166666666667E+009;1.554937362670898E-001;-1.150038242340088E-001;1.209258683957160E-003;-1.250438624992967E-003;
2.427333333333334E+009;1.548215448856354E-001;-1.151590421795845E-001;1.328418962657452E-003;-1.220421981997788E-003;
2.427500000000000E+009;1.540879905223846E-001;-1.153340637683868E-001;1.121251843869686E-003;-1.261884463019669E-003;
2.427666666666667E+009;1.531174182891846E-001;-1.155130788683891E-001;1.294067245908082E-003;-1.375714084133506E-003;
2.427833333333334E+009;1.518916785717011E-001;-1.157076805830002E-001;1.160556916147471E-003;-1.340770046226680E-003;
