# Version 1.00
#
freq[Hz];re:Trc1_S11;im:Trc1_S11;re:Trc2_S21;im:Trc2_S21;
2.400000000000000E+009;1.542740166187286E-001;5.910307168960571E-002;-3.968740813434124E-003;-4.454769441508688E-005;
2.400166666666667E+009;1.543281823396683E-001;5.735366418957710E-002;-4.136302042752504E-003;1.536637282697484E-004;
2.400333333333334E+009;1.545584946870804E-001;5.535013601183891E-002;-4.026789218187332E-003;2.290375996381044E-004;
2.400500000000000E+009;1.549473106861115E-001;5.316733941435814E-002;-4.115664865821600E-003;1.747546921251342E-004;
2.400666666666667E+009;1.553058475255966E-001;5.095726624131203E-002;-4.094136413186789E-003;3.753623168449849E-004;
2.400833333333334E+009;1.559710353612900E-001;4.891648888587952E-002;-4.193720407783985E-003;6.116488366387785E-004;
2.401000000000000E+009;1.562598198652268E-001;4.682601988315582E-002;-4.203209653496742E-003;6.078373990021646E-004;
2.401166666666667E+009;1.570924669504166E-001;4.490094259381294E-002;-4.082291852682829E-003;9.596244781278074E-004;
2.401333333333334E+009;1.575909107923508E-001;4.245909675955772E-002;-4.052407108247280E-003;9.541851468384266E-004;
2.401500000000000E+009;1.583505570888519E-001;4.062958806753159E-002;-4.047817550599575E-003;1.257371855899692E-003;
2.401666666666667E+009;1.591519415378571E-001;3.874525800347328E-002;-4.014818463474512E-003;1.240977318957448E-003;
2.401833333333334E+009;1.599242538213730E-001;3.671827539801598E-002;-4.072818439453840E-003;1.370514393784106E-003;
2.402000000000000E+009;1.607748121023178E-001;3.504201769828796E-002;-3.853295696899295E-003;1.656104112043977E-003;
2.402166666666667E+009;1.616182923316956E-001;3.301798179745674E-002;-3.766385605558753E-003;1.763403648510575E-003;
2.402333333333334E+009;1.625256091356278E-001;3.156852722167969E-002;-3.795883152633905E-003;1.848600688390434E-003;
2.402500000000000E+009;1.638114899396896E-001;2.989710867404938E-002;-3.589086933061481E-003;2.038484904915094E-003;
2.402666666666667E+009;1.648449897766113E-001;2.833802439272404E-002;-3.416735678911209E-003;2.036338904872537E-003;
2.402833333333334E+009;1.658901274204254E-001;2.701965905725956E-002;-3.455776954069734E-003;2.393281552940607E-003;
2.403000000000000E+009;1.669354736804962E-001;2.571095339953899E-002;-3.198391059413552E-003;2.284227404743433E-003;
2.403166666666667E+009;1.679672747850418E-001;2.429500222206116E-002;-3.216608427464962E-003;2.502619056031108E-003;
2.403333333333334E+009;1.691682785749435E-001;2.326514758169651E-002;-3.196694189682603E-003;2.556809922680259E-003;
2.403500000000000E+009;1.700922101736069E-001;2.230013720691204E-002;-3.055446315556765E-003;2.626234898343682E-003;
2.403666666666667E+009;1.714288294315338E-001;2.117088623344898E-002;-2.975899027660489E-003;2.793810563161969E-003;
2.403833333333334E+009;1.724189519882202E-001;2.026032470166683E-002;-2.949102781713009E-003;2.940992359071970E-003;
2.404000000000000E+009;1.733421832323074E-001;1.948538608849049E-002;-2.795395441353321E-003;3.076033666729927E-003;
2.404166666666667E+009;1.743104159832001E-001;1.879979483783245E-002;-2.561794826760888E-003;3.069308120757341E-003;
2.404333333333334E+009;1.752902120351791E-001;1.818684674799442E-002;-2.556527266278863E-003;3.084577852860093E-003;
2.404500000000000E+009;1.760101616382599E-001;1.750252395868301E-002;-2.279186621308327E-003;3.112673526629806E-003;
2.404666666666667E+009;1.769294887781143E-001;1.696063391864300E-002;-2.220750553533435E-003;3.385087242349982E-003;
2.404833333333334E+009;1.776205450296402E-001;1.647538132965565E-002;-2.014611614868045E-003;3.353048581629992E-003;
2.405000000000000E+009;1.783657371997833E-001;1.613527350127697E-002;-1.997978426516056E-003;3.480496350675821E-003;
2.405166666666667E+009;1.788560599088669E-001;1.576928421854973E-002;-1.802185317501426E-003;3.414834151044488E-003;
2.405333333333334E+009;1.793880462646484E-001;1.536094676703215E-002;-1.791381626389921E-003;3.681381233036518E-003;
2.405500000000000E+009;1.798105537891388E-001;1.518100965768099E-002;-1.721330336295068E-003;3.651091130450368E-003;
2.405666666666667E+009;1.801829338073731E-001;1.497199200093746E-002;-1.388340955600143E-003;3.721089800819755E-003;
2.405833333333334E+009;1.802199482917786E-001;1.470479648560286E-002;-1.178259961307049E-003;3.677596338093281E-003;
2.406000000000000E+009;1.805389523506165E-001;1.453626248985529E-002;-1.140224165283144E-003;3.789206268265843E-003;
2.406166666666667E+009;1.805012822151184E-001;1.439650729298592E-002;-9.131105616688728E-004;3.824977437034249E-003;
2.406333333333334E+009;1.806803941726685E-001;1.410178653895855E-002;-8.371070725843310E-004;3.888186300173402E-003;
2.406500000000000E+009;1.804039329290390E-001;1.372548099607229E-002;-6.337792729027569E-004;3.796353703364730E-003;
2.406666666666667E+009;1.800461858510971E-001;1.355965435504913E-002;-4.553038743324578E-004;3.814234398305416E-003;
2.406833333333334E+009;1.798800826072693E-001;1.319623831659555E-002;-3.482651372905821E-004;3.953770268708468E-003;
2.407000000000000E+009;1.794479489326477E-001;1.270612049847841E-002;-9.658946510171518E-005;3.798643127083778E-003;
2.407166666666667E+009;1.792194992303848E-001;1.244109496474266E-002;-2.741225398494862E-005;3.912778571248055E-003;
2.407333333333334E+009;1.786295473575592E-001;1.170609518885613E-002;9.840823622653261E-005;3.622517921030521E-003;
2.407500000000000E+009;1.779970824718475E-001;1.111086178570986E-002;2.958805707748979E-004;3.660001326352358E-003;
2.407666666666667E+009;1.773715168237686E-001;1.051268540322781E-002;5.246661021374166E-004;3.615874564275146E-003;
2.407833333333334E+009;1.765279173851013E-001;9.745532646775246E-003;5.436620558612049E-004;3.681581467390060E-003;
2.408000000000000E+009;1.759949326515198E-001;8.812255226075649E-003;6.173888687044382E-004;3.496148856356740E-003;
2.408166666666667E+009;1.752422004938126E-001;7.972037419676781E-003;7.020807825028896E-004;3.481148974969983E-003;
2.408333333333334E+009;1.745584905147553E-001;6.901975721120834E-003;8.543852600269020E-004;3.337811678647995E-003;
2.408500000000000E+009;1.737135052680969E-001;5.698182154446840E-003;1.091757440008223E-003;3.341806819662452E-003;
2.408666666666667E+009;1.730584949254990E-001;4.376371391117573E-003;1.055155880749226E-003;3.275065217167139E-003;
2.408833333333334E+009;1.720661073923111E-001;3.160078777000308E-003;1.244147075340152E-003;3.148800693452358E-003;
2.409000000000000E+009;1.712204068899155E-001;1.773169264197350E-003;1.307504018768668E-003;2.978373551741242E-003;
2.409166666666667E+009;1.704476326704025E-001;1.892605068860576E-004;1.261176425032318E-003;2.997456816956401E-003;
2.409333333333334E+009;1.699855476617813E-001;-1.482855528593063E-003;1.391837256960571E-003;2.801208756864071E-003;
2.409500000000000E+009;1.692829430103302E-001;-3.206195542588830E-003;1.567716244608164E-003;2.907082904130220E-003;
2.409666666666667E+009;1.684967428445816E-001;-4.697823897004128E-003;1.506224274635315E-003;2.770171500742436E-003;
2.409833333333334E+009;1.679434627294540E-001;-6.458964198827744E-003;1.552859321236610E-003;2.666629850864410E-003;
2.410000000000000E+009;1.676425933837891E-001;-8.357119746506214E-003;1.661491231061518E-003;2.554886974394321E-003;
2.410166666666667E+009;1.669650524854660E-001;-1.035509910434485E-002;1.739678205922246E-003;2.380081685259938E-003;
2.410333333333334E+009;1.665948927402496E-001;-1.232299208641052E-002;1.744340173900127E-003;2.525241347029805E-003;
2.410500000000000E+009;1.663405448198319E-001;-1.419766340404749E-002;1.736030331812799E-003;2.482975367456675E-003;
2.410666666666667E+009;1.660690903663635E-001;-1.635966636240482E-002;1.831053290516138E-003;2.246176358312368E-003;
2.410833333333334E+009;1.659525334835053E-001;-1.822996325790882E-002;1.837706193327904E-003;2.160115400329232E-003;
2.411000000000000E+009;1.658697575330734E-001;-2.018690109252930E-002;1.990056596696377E-003;2.020903397351503E-003;
2.411166666666667E+009;1.659103482961655E-001;-2.235798537731171E-002;1.959259156137705E-003;2.095150994136930E-003;
2.411333333333334E+009;1.660131514072418E-001;-2.428935281932354E-002;1.955791609361768E-003;1.966556767001748E-003;
2.411500000000000E+009;1.660769432783127E-001;-2.633431367576122E-002;2.047518966719508E-003;1.662519294768572E-003;
2.411666666666667E+009;1.666849851608276E-001;-2.825959585607052E-002;2.200955059379339E-003;1.607846934348345E-003;
2.411833333333334E+009;1.669172346591950E-001;-3.017609193921089E-002;2.240363508462906E-003;1.591592561453581E-003;
2.412000000000000E+009;1.674082130193710E-001;-3.220006823539734E-002;2.209920436143875E-003;1.528155989944935E-003;
2.412166666666667E+009;1.677734255790710E-001;-3.394173830747604E-002;2.119680633768439E-003;1.485142391175032E-003;
2.412333333333334E+009;1.684952378273010E-001;-3.580410033464432E-002;2.371448324993253E-003;1.369220204651356E-003;
2.412500000000000E+009;1.689838767051697E-001;-3.740918263792992E-002;2.243566326797009E-003;1.206174842081964E-003;
2.412666666666667E+009;1.695349365472794E-001;-3.928914666175842E-002;2.344032283872366E-003;1.165227266028523E-003;
2.412833333333334E+009;1.704238355159760E-001;-4.088758304715157E-002;2.266480354592204E-003;1.034144195728004E-003;
2.413000000000000E+009;1.712108254432678E-001;-4.239912703633308E-002;2.228501718491316E-003;8.674574200995266E-004;
2.413166666666667E+009;1.718432307243347E-001;-4.383315891027451E-002;2.050094306468964E-003;8.264156058430672E-004;
2.413333333333334E+009;1.726009696722031E-001;-4.525748267769814E-002;2.083935309201479E-003;8.896570070646703E-004;
2.413500000000000E+009;1.733956784009934E-001;-4.655015096068382E-002;2.192938001826406E-003;8.019235101528466E-004;
2.413666666666667E+009;1.743577420711517E-001;-4.770497977733612E-002;2.060344675555825E-003;5.652404506690800E-004;
2.413833333333334E+009;1.748904734849930E-001;-4.888423904776573E-002;1.988904317840934E-003;4.909512354061008E-004;
2.414000000000000E+009;1.754843443632126E-001;-4.994836449623108E-002;2.110411413013935E-003;4.535044135991484E-004;
2.414166666666667E+009;1.764005720615387E-001;-5.097857117652893E-002;2.077135257422924E-003;4.411074041854590E-004;
2.414333333333334E+009;1.770191937685013E-001;-5.177885293960571E-002;2.082284307107329E-003;4.456696042325348E-004;
2.414500000000000E+009;1.776972860097885E-001;-5.246861651539803E-002;1.986329909414053E-003;2.726115344557911E-004;
2.414666666666667E+009;1.781381815671921E-001;-5.323346331715584E-002;1.909106969833374E-003;1.749777584336698E-004;
2.414833333333334E+009;1.785981059074402E-001;-5.397075787186623E-002;1.854015747085214E-003;2.086393360514194E-004;
2.415000000000000E+009;1.789679080247879E-001;-5.438842996954918E-002;1.661782152950764E-003;1.964366529136896E-004;
2.415166666666667E+009;1.792818009853363E-001;-5.485954508185387E-002;1.664781710132957E-003;2.862866967916489E-004;
2.415333333333334E+009;1.797358542680740E-001;-5.523240193724632E-002;1.704168273136020E-003;1.474564778618515E-004;
2.415500000000000E+009;1.796990334987640E-001;-5.560323223471642E-002;1.729872194118798E-003;1.248702028533444E-004;
2.415666666666667E+009;1.799750179052353E-001;-5.588656663894653E-002;1.645314856432378E-003;7.664210716029629E-005;
2.415833333333334E+009;1.799885630607605E-001;-5.603936314582825E-002;1.588725601322949E-003;1.351117971353233E-004;
2.416000000000000E+009;1.796180903911591E-001;-5.631562322378159E-002;1.771223614923656E-003;-2.893388955271803E-005;
2.416166666666667E+009;1.796344220638275E-001;-5.645530670881271E-002;1.566177932545543E-003;-3.641262082965113E-005;
2.416333333333334E+009;1.792840808629990E-001;-5.658534169197083E-002;1.540251658298075E-003;9.057622810360044E-005;
2.416500000000000E+009;1.789066493511200E-001;-5.677691474556923E-002;1.642814138904214E-003;-3.709997690748423E-005;
2.416666666666667E+009;1.782834529876709E-001;-5.687560141086578E-002;1.678570290096104E-003;-7.702772563789040E-006;
2.416833333333334E+009;1.778103560209274E-001;-5.718122050166130E-002;1.535605639219284E-003;1.612961023056414E-005;
2.417000000000000E+009;1.769635379314423E-001;-5.744604393839836E-002;1.531757647171617E-003;-3.651619044831023E-005;
2.417166666666667E+009;1.761047393083572E-001;-5.748524516820908E-002;1.534994225949049E-003;-6.339673745969776E-006;
2.417333333333334E+009;1.752969771623612E-001;-5.776820331811905E-002;1.650077058002353E-003;-1.013332730508409E-004;
2.417500000000000E+009;1.742009967565537E-001;-5.834659188985825E-002;1.469859387725592E-003;-5.307984974933788E-005;
2.417666666666667E+009;1.733515262603760E-001;-5.855794250965118E-002;1.529774395748973E-003;-1.012105421978049E-004;
2.417833333333334E+009;1.721639335155487E-001;-5.894360691308975E-002;1.587765756994486E-003;4.667153461923590E-006;
2.418000000000000E+009;1.708323061466217E-001;-5.957717821002007E-002;1.588331186212599E-003;-1.748513313941658E-004;
2.418166666666667E+009;1.695758253335953E-001;-5.993430688977242E-002;1.400163746438921E-003;-3.041944000869989E-004;
2.418333333333334E+009;1.685756891965866E-001;-6.069473177194595E-002;1.470846123993397E-003;-6.843266601208597E-005;
2.418500000000000E+009;1.670441031455994E-001;-6.134674698114395E-002;1.469445531256497E-003;-1.135526545112953E-004;
2.418666666666667E+009;1.658868640661240E-001;-6.213925033807755E-002;1.327272970229387E-003;-9.224519453709945E-005;
2.418833333333334E+009;1.643064916133881E-001;-6.320056319236755E-002;1.531842863187194E-003;-1.019411356537603E-004;
2.419000000000000E+009;1.629640161991119E-001;-6.385527551174164E-002;1.500428421422839E-003;-1.990295568248257E-004;
2.419166666666667E+009;1.616256237030029E-001;-6.501198559999466E-002;1.504176645539701E-003;-1.666959724389017E-004;
2.419333333333334E+009;1.602565348148346E-001;-6.591866165399551E-002;1.436603837646544E-003;-2.706018276512623E-004;
2.419500000000000E+009;1.590326279401779E-001;-6.735474616289139E-002;1.429701223969460E-003;-2.435045025777072E-004;
2.419666666666667E+009;1.577092409133911E-001;-6.855702400207520E-002;1.422835397534072E-003;-3.289927262812853E-004;
2.419833333333334E+009;1.564910560846329E-001;-6.979430466890335E-002;1.369820442050695E-003;-1.892602449515835E-004;
2.420000000000000E+009;1.554201692342758E-001;-7.126021385192871E-002;1.348890014924109E-003;-2.975375682581216E-004;
2.420166666666667E+009;1.543467640876770E-001;-7.266749441623688E-002;1.382095157168806E-003;-2.311080461367965E-004;
2.420333333333334E+009;1.532822996377945E-001;-7.417580485343933E-002;1.352531253360212E-003;-3.029764047823846E-004;
2.420500000000000E+009;1.523881107568741E-001;-7.558277994394302E-002;1.276767929084599E-003;-4.144510021433234E-004;
2.420666666666667E+009;1.514911055564880E-001;-7.720284163951874E-002;1.219324418343604E-003;-3.013640525750816E-004;
2.420833333333334E+009;1.507658660411835E-001;-7.897228747606278E-002;1.378076151013374E-003;-3.659197827801108E-004;
2.421000000000000E+009;1.500537395477295E-001;-8.076853305101395E-002;1.476055127568543E-003;-3.676702326629311E-004;
2.421166666666667E+009;1.496099978685379E-001;-8.250235021114349E-002;1.343324081972241E-003;-2.906712761614472E-004;
2.421333333333334E+009;1.491705626249313E-001;-8.407825231552124E-002;1.284222700633109E-003;-3.485229390207678E-004;
2.421500000000000E+009;1.487677693367004E-001;-8.569709956645966E-002;1.341412193141878E-003;-4.859726759605110E-004;
2.421666666666667E+009;1.485016793012619E-001;-8.752203732728958E-002;1.295935711823404E-003;-4.791886021848768E-004;
2.421833333333334E+009;1.484305560588837E-001;-8.915849030017853E-002;1.333759515546262E-003;-5.431991303339601E-004;
2.422000000000000E+009;1.482050269842148E-001;-9.098127484321594E-002;1.237707561813295E-003;-3.998797037638724E-004;
2.422166666666667E+009;1.483537405729294E-001;-9.277235716581345E-002;1.307996339164674E-003;-5.748110124841332E-004;
2.422333333333334E+009;1.484545767307282E-001;-9.433248639106751E-002;1.187409157864749E-003;-5.992492078803480E-004;
2.422500000000000E+009;1.484358310699463E-001;-9.581853449344635E-002;1.180146704427898E-003;-5.180544685572386E-004;
2.422666666666667E+009;1.488738209009171E-001;-9.748874604701996E-002;1.111119403503835E-003;-5.752475117333233E-004;
2.422833333333334E+009;1.491945683956146E-001;-9.911617636680603E-002;1.099182176403701E-003;-5.353447631932795E-004;
2.423000000000000E+009;1.497207432985306E-001;-1.005350276827812E-001;1.242380938492715E-003;-4.859957844018936E-004;
2.423166666666667E+009;1.502520143985748E-001;-1.019566059112549E-001;1.171118812635541E-003;-7.132065948098898E-004;
2.423333333333334E+009;1.508292555809021E-001;-1.032363772392273E-001;1.389741781167686E-003;-5.240746540948749E-004;
2.423500000000000E+009;1.512390673160553E-001;-1.046098545193672E-001;1.196326455101371E-003;-5.869186716154218E-004;
2.423666666666667E+009;1.518235206604004E-001;-1.057656779885292E-001;1.219347934238613E-003;-7.503497763536871E-004;
2.423833333333334E+009;1.525509804487228E-001;-1.070954576134682E-001;1.062149531207979E-003;-6.043799221515656E-004;
2.424000000000000E+009;1.529769599437714E-001;-1.078052818775177E-001;1.042748219333589E-003;-8.084719884209335E-004;
2.424166666666667E+009;1.536514014005661E-001;-1.089628264307976E-001;1.241928199306130E-003;-5.633562686853111E-004;
2.424333333333334E+009;1.543218791484833E-001;-1.097101122140884E-001;1.187168876640499E-003;-6.582480273209512E-004;
2.424500000000000E+009;1.549749523401260E-001;-1.106868609786034E-001;1.119095133617520E-003;-7.825330831110477E-004;
2.424666666666667E+009;1.556146144866943E-001;-1.112284585833550E-001;1.145686721429229E-003;-7.061202777549624E-004;
2.424833333333334E+009;1.559803634881973E-001;-1.119573563337326E-001;1.150609459728003E-003;-8.042186382226646E-004;
2.425000000000000E+009;1.565810889005661E-001;-1.126021072268486E-001;1.091363141313195E-003;-8.072784403339028E-004;
2.425166666666667E+009;1.568295061588287E-001;-1.129883602261543E-001;1.116350060328841E-003;-7.831309922039509E-004;
2.425333333333334E+009;1.572256088256836E-001;-1.135116070508957E-001;1.043893164023757E-003;-7.927407277747989E-004;
2.425500000000000E+009;1.576199382543564E-001;-1.139197647571564E-001;1.220138510689139E-003;-8.419813821092248E-004;
2.425666666666667E+009;1.576931923627853E-001;-1.140989810228348E-001;1.222582533955574E-003;-8.923478308133781E-004;
2.425833333333334E+009;1.578054577112198E-001;-1.144233345985413E-001;1.136365812271833E-003;-8.990169735625386E-004;
2.426000000000000E+009;1.579013019800186E-001;-1.147362589836121E-001;1.153734163381159E-003;-8.536612731404603E-004;
2.426166666666667E+009;1.579703390598297E-001;-1.148308143019676E-001;1.083574024960399E-003;-9.628115221858025E-004;
2.426333333333334E+009;1.577833592891693E-001;-1.149031445384026E-001;1.096169813536108E-003;-1.043833210133016E-003;
2.426500000000000E+009;1.575981527566910E-001;-1.149971857666969E-001;1.097214175388217E-003;-9.567964589223266E-004;
2.426666666666667E+009;1.573681235313416E-001;-1.149104982614517E-001;1.075850566849113E-003;-1.116383704356849E-003;
2.426833333333334E+009;1.567966938018799E-001;-1.151381433010101E-001;1.011462765745819E-003;-1.147819100879133E-003;
2.427000000000000E+009;1.562237292528153E-001;-1.151844263076782E-001;1.043719239532948E-003;-1.144149340689182E-003;
2.427166666666667E+009;1.555823534727097E-001;-1.150258779525757E-001;1.131535856984556E-003;-1.177645055577159E-003;
2.427333333333334E+009;1.548619866371155E-001;-1.153071001172066E-001;1.077290857210755E-003;-1.163497334346175E-003;
2.427500000000000E+009;1.540437042713165E-001;-1.155034676194191E-001;9.354131761938334E-004;-1.293093664571643E-003;
2.427666666666667E+009;1.530599296092987E-001;-1.156007722020149E-001;1.191089744679630E-003;-1.233872957527638E-003;
2.427833333333334E+009;1.518949419260025E-001;-1.157869845628738E-001;9.998293826356530E-004;-1.166776171885431E-003;
