# Version 1.00
#
freq[Hz];re:Trc1_S11;im:Trc1_S11;re:Trc2_S21;im:Trc2_S21;
2.400000000000000E+009;1.507934480905533E-001;1.159621402621269E-001;7.379617309197784E-004;5.884604994207621E-003;
2.400166666666667E+009;1.506025940179825E-001;1.136255413293839E-001;1.242559286765754E-003;5.738450214266777E-003;
2.400333333333334E+009;1.505766957998276E-001;1.114564388990402E-001;1.517322030849755E-003;5.445296410471201E-003;
2.400500000000000E+009;1.503696143627167E-001;1.088476628065109E-001;1.566400518640876E-003;5.371711682528257E-003;
2.400666666666667E+009;1.504087448120117E-001;1.065030023455620E-001;1.783931511454284E-003;5.042920820415020E-003;
2.400833333333334E+009;1.502007693052292E-001;1.035731509327889E-001;1.860977034084499E-003;4.758561030030251E-003;
2.401000000000000E+009;1.504888981580734E-001;1.008620560169220E-001;1.976826926693320E-003;4.407435655593872E-003;
2.401166666666667E+009;1.503255218267441E-001;9.796369075775147E-002;1.871688640676439E-003;4.264892544597387E-003;
2.401333333333334E+009;1.506725847721100E-001;9.523466974496841E-002;2.031170297414064E-003;4.027904476970434E-003;
2.401500000000000E+009;1.510517001152039E-001;9.216766804456711E-002;1.952753867954016E-003;3.980488982051611E-003;
2.401666666666667E+009;1.513342261314392E-001;8.929250389337540E-002;1.856890507042408E-003;3.929351922124624E-003;
2.401833333333334E+009;1.516781598329544E-001;8.647274225950241E-002;1.813231501728296E-003;3.874489804729819E-003;
2.402000000000000E+009;1.524452269077301E-001;8.374171704053879E-002;1.654119230806828E-003;3.733691060915589E-003;
2.402166666666667E+009;1.534247547388077E-001;8.120478689670563E-002;1.679477514699101E-003;3.800677368417382E-003;
2.402333333333334E+009;1.543528437614441E-001;7.844495773315430E-002;1.784472609870136E-003;3.764330875128508E-003;
2.402500000000000E+009;1.556031256914139E-001;7.570862025022507E-002;1.981305424124003E-003;3.848000429570675E-003;
2.402666666666667E+009;1.568849235773087E-001;7.328227162361145E-002;1.976558240130544E-003;4.018463194370270E-003;
2.402833333333334E+009;1.583952009677887E-001;7.082995027303696E-002;2.286278875544667E-003;3.937931265681982E-003;
2.403000000000000E+009;1.597244441509247E-001;6.808309257030487E-002;2.511109923943877E-003;4.124523140490055E-003;
2.403166666666667E+009;1.617837101221085E-001;6.605391949415207E-002;2.608354436233640E-003;4.066002089530230E-003;
2.403333333333334E+009;1.634302139282227E-001;6.337536871433258E-002;2.765140496194363E-003;4.023336339741945E-003;
2.403500000000000E+009;1.652207970619202E-001;6.127389520406723E-002;3.082553856074810E-003;3.932918421924114E-003;
2.403666666666667E+009;1.673047393560410E-001;5.930369347333908E-002;3.379145637154579E-003;3.760576946660876E-003;
2.403833333333334E+009;1.692473292350769E-001;5.706448480486870E-002;3.359162481501699E-003;3.703971160575748E-003;
2.404000000000000E+009;1.709966659545898E-001;5.530088767409325E-002;3.724337555468082E-003;3.402937203645706E-003;
2.404166666666667E+009;1.730604320764542E-001;5.358997359871864E-002;3.910044673830271E-003;3.271319437772036E-003;
2.404333333333334E+009;1.750357449054718E-001;5.177776515483856E-002;4.014717880636454E-003;2.946229418739677E-003;
2.404500000000000E+009;1.767817437648773E-001;5.016448721289635E-002;4.149264190346003E-003;2.720641205087304E-003;
2.404666666666667E+009;1.787973940372467E-001;4.892337694764137E-002;4.223174881190062E-003;2.579970285296440E-003;
2.404833333333334E+009;1.807759255170822E-001;4.773910343647003E-002;4.106928594410420E-003;2.319160848855972E-003;
2.405000000000000E+009;1.824883371591568E-001;4.705335572361946E-002;4.341761581599712E-003;1.923699746839702E-003;
2.405166666666667E+009;1.843225061893463E-001;4.599990695714951E-002;4.257065709680319E-003;1.803324325010181E-003;
2.405333333333334E+009;1.859477311372757E-001;4.537151381373406E-002;4.233526531606913E-003;1.533877104520798E-003;
2.405500000000000E+009;1.877267211675644E-001;4.484663158655167E-002;4.200646188110113E-003;1.604143180884421E-003;
2.405666666666667E+009;1.893841624259949E-001;4.420018196105957E-002;3.961308393627405E-003;1.290546380914748E-003;
2.405833333333334E+009;1.908690035343170E-001;4.407799988985062E-002;4.093445371836424E-003;1.159835839644074E-003;
2.406000000000000E+009;1.923886239528656E-001;4.375468567013741E-002;3.969118464738131E-003;9.354228386655450E-004;
2.406166666666667E+009;1.937257200479507E-001;4.350565001368523E-002;3.994109574705362E-003;7.527492125518620E-004;
2.406333333333334E+009;1.949943900108337E-001;4.343608394265175E-002;3.812209703028202E-003;7.878820179030299E-004;
2.406500000000000E+009;1.959652900695801E-001;4.352545738220215E-002;3.741086227819324E-003;7.723187445662916E-004;
2.406666666666667E+009;1.969572752714157E-001;4.347571358084679E-002;3.681938862428069E-003;8.448497974313796E-004;
2.406833333333334E+009;1.975872367620468E-001;4.356130585074425E-002;3.609206993132830E-003;7.872092537581921E-004;
2.407000000000000E+009;1.983167678117752E-001;4.387385398149490E-002;3.754517063498497E-003;5.971571081317961E-004;
2.407166666666667E+009;1.990009248256683E-001;4.353166371583939E-002;3.832009155303240E-003;6.085896166041493E-004;
2.407333333333334E+009;1.991995424032211E-001;4.379063844680786E-002;3.707989817485213E-003;6.334501667879522E-004;
2.407500000000000E+009;1.993065178394318E-001;4.397910833358765E-002;3.807474160566926E-003;6.616046302951872E-004;
2.407666666666667E+009;1.994208097457886E-001;4.392210394144058E-002;3.576488001272082E-003;7.058645715005696E-004;
2.407833333333334E+009;1.991547942161560E-001;4.379876330494881E-002;3.990856930613518E-003;5.504227010533214E-004;
2.408000000000000E+009;1.992604434490204E-001;4.380240291357040E-002;4.017136059701443E-003;5.425963317975402E-004;
2.408166666666667E+009;1.985595673322678E-001;4.363805428147316E-002;4.075360950082541E-003;2.268451498821378E-004;
2.408333333333334E+009;1.981930434703827E-001;4.319677129387856E-002;3.913010004907847E-003;2.603091124910861E-004;
2.408500000000000E+009;1.975578665733337E-001;4.304531216621399E-002;4.142358433455229E-003;2.052992931567133E-004;
2.408666666666667E+009;1.969024538993835E-001;4.257469996809959E-002;4.160625860095024E-003;2.240557660115883E-004;
2.408833333333334E+009;1.962500959634781E-001;4.207085072994232E-002;4.351691808551550E-003;-4.114827970624901E-005;
2.409000000000000E+009;1.952560693025589E-001;4.135046154260635E-002;4.318797495216131E-003;-8.064819849096239E-005;
2.409166666666667E+009;1.941045373678207E-001;4.038269445300102E-002;4.415784496814013E-003;-3.732268523890525E-004;
2.409333333333334E+009;1.931467503309250E-001;3.963015973567963E-002;4.746909253299236E-003;-3.974840219598264E-004;
2.409500000000000E+009;1.919578462839127E-001;3.844030201435089E-002;4.653976298868656E-003;-5.839210934937000E-004;
2.409666666666667E+009;1.908347904682159E-001;3.715139999985695E-002;4.580823238939047E-003;-8.573385421186686E-004;
2.409833333333334E+009;1.895916163921356E-001;3.585168719291687E-002;4.647620022296906E-003;-1.027077669277787E-003;
2.410000000000000E+009;1.885610669851303E-001;3.414718061685562E-002;4.615490790456533E-003;-1.165534369647503E-003;
2.410166666666667E+009;1.872844845056534E-001;3.265581279993057E-002;4.542161244899035E-003;-1.407776144333184E-003;
2.410333333333334E+009;1.861799210309982E-001;3.093811683356762E-002;4.657238256186247E-003;-1.450302894227207E-003;
2.410500000000000E+009;1.848838776350021E-001;2.911118417978287E-002;4.571053665131331E-003;-1.733622397296131E-003;
2.410666666666667E+009;1.839261651039124E-001;2.694025076925755E-002;4.439472686499357E-003;-1.963927643373609E-003;
2.410833333333334E+009;1.828772276639938E-001;2.477079629898071E-002;4.452589433640242E-003;-2.064772415906191E-003;
2.411000000000000E+009;1.820745468139648E-001;2.270867303013802E-002;4.474248737096787E-003;-2.260375767946243E-003;
2.411166666666667E+009;1.811404973268509E-001;2.039027400314808E-002;4.350702743977308E-003;-2.562164328992367E-003;
2.411333333333334E+009;1.805444955825806E-001;1.790298148989677E-002;4.162590019404888E-003;-2.631642390042543E-003;
2.411500000000000E+009;1.799088865518570E-001;1.561591401696205E-002;4.022577777504921E-003;-2.850374672561884E-003;
2.411666666666667E+009;1.795620322227478E-001;1.313587743788958E-002;3.955280408263207E-003;-2.977952593937516E-003;
2.411833333333334E+009;1.788526922464371E-001;1.056720875203610E-002;3.887862199917436E-003;-3.006505779922009E-003;
2.412000000000000E+009;1.790135651826859E-001;8.000389672815800E-003;3.755801822990179E-003;-3.171303076669574E-003;
2.412166666666667E+009;1.787516027688980E-001;5.463346838951111E-003;3.623748896643519E-003;-3.316940041258931E-003;
2.412333333333334E+009;1.789768636226654E-001;2.815455896779895E-003;3.478576196357608E-003;-3.574963193386793E-003;
2.412500000000000E+009;1.792613416910172E-001;2.796394110191613E-004;3.328374819830060E-003;-3.559953067451716E-003;
2.412666666666667E+009;1.797949075698853E-001;-2.423556055873632E-003;3.360142931342125E-003;-3.709581680595875E-003;
2.412833333333334E+009;1.801715791225433E-001;-5.026102531701326E-003;3.148517338559032E-003;-3.882701741531491E-003;
2.413000000000000E+009;1.807150989770889E-001;-7.403146009892225E-003;2.949574962258339E-003;-3.883818862959743E-003;
2.413166666666667E+009;1.814618706703186E-001;-9.936464019119740E-003;2.888641087338328E-003;-4.065567627549171E-003;
2.413333333333334E+009;1.823145002126694E-001;-1.226306986063719E-002;2.836472587659955E-003;-4.099122714251280E-003;
2.413500000000000E+009;1.832930743694305E-001;-1.473817694932222E-002;2.534148050472140E-003;-4.249820485711098E-003;
2.413666666666667E+009;1.844567656517029E-001;-1.725455187261105E-002;2.485826611518860E-003;-4.412839654833078E-003;
2.413833333333334E+009;1.852850317955017E-001;-1.955114491283894E-002;2.307004760950804E-003;-4.454589448869228E-003;
2.414000000000000E+009;1.865149438381195E-001;-2.176563441753388E-002;2.178299706429243E-003;-4.538975190371275E-003;
2.414166666666667E+009;1.877703815698624E-001;-2.369016408920288E-002;2.032829448580742E-003;-4.548524040728807E-003;
2.414333333333334E+009;1.889518499374390E-001;-2.588544599711895E-002;1.731887459754944E-003;-4.754738882184029E-003;
2.414500000000000E+009;1.902825385332108E-001;-2.753369696438313E-002;1.763892360031605E-003;-4.651775583624840E-003;
2.414666666666667E+009;1.915840208530426E-001;-2.918203175067902E-002;1.419045496731997E-003;-4.970853216946125E-003;
2.414833333333334E+009;1.928594112396240E-001;-3.077447414398193E-002;1.190072856843472E-003;-5.162210669368506E-003;
2.415000000000000E+009;1.939670443534851E-001;-3.213268890976906E-002;1.071060192771256E-003;-5.212245509028435E-003;
2.415166666666667E+009;1.955148875713348E-001;-3.337367996573448E-002;8.240035385824740E-004;-5.366852972656488E-003;
2.415333333333334E+009;1.966860294342041E-001;-3.444947674870491E-002;4.728080821223557E-004;-5.146417766809464E-003;
2.415500000000000E+009;1.978871971368790E-001;-3.544565662741661E-002;2.400766679784283E-004;-5.437956191599369E-003;
2.415666666666667E+009;1.990047842264175E-001;-3.646169230341911E-002;-1.558271178510040E-004;-5.411352962255478E-003;
2.415833333333334E+009;2.000386714935303E-001;-3.699602559208870E-002;-4.977652570232749E-004;-5.314124748110771E-003;
2.416000000000000E+009;2.011010348796845E-001;-3.766760602593422E-002;-6.767839076928794E-004;-5.273088347166777E-003;
2.416166666666667E+009;2.020347565412521E-001;-3.834853693842888E-002;-9.901752928271890E-004;-5.188805982470512E-003;
2.416333333333334E+009;2.027710527181625E-001;-3.867026045918465E-002;-1.252608140930533E-003;-4.903654567897320E-003;
2.416500000000000E+009;2.033890038728714E-001;-3.896877169609070E-002;-1.457954989746213E-003;-4.846003837883472E-003;
2.416666666666667E+009;2.038869857788086E-001;-3.921075910329819E-002;-1.604281133040786E-003;-4.692396614700556E-003;
2.416833333333334E+009;2.041679471731186E-001;-3.922877088189125E-002;-1.822374993935227E-003;-4.502018447965384E-003;
2.417000000000000E+009;2.044231593608856E-001;-3.930572047829628E-002;-2.046847948804498E-003;-4.207938443869352E-003;
2.417166666666667E+009;2.043206691741943E-001;-3.915816545486450E-002;-2.038085600361228E-003;-4.023442044854164E-003;
2.417333333333334E+009;2.043149620294571E-001;-3.886000066995621E-002;-2.154457382857800E-003;-3.897597314789891E-003;
2.417500000000000E+009;2.042070031166077E-001;-3.876830264925957E-002;-2.229473320767283E-003;-3.766526933759451E-003;
2.417666666666667E+009;2.039325684309006E-001;-3.836355730891228E-002;-2.340751467272639E-003;-3.629062557592988E-003;
2.417833333333334E+009;2.036207169294357E-001;-3.803556784987450E-002;-2.412803005427122E-003;-3.514104057103396E-003;
2.418000000000000E+009;2.031590193510056E-001;-3.758578374981880E-002;-2.473218133673072E-003;-3.371208673343062E-003;
2.418166666666667E+009;2.023961246013641E-001;-3.735379129648209E-002;-2.485586097463965E-003;-3.337504342198372E-003;
2.418333333333334E+009;2.017897069454193E-001;-3.701273351907730E-002;-2.473565749824047E-003;-3.199679777026177E-003;
2.418500000000000E+009;2.008440792560577E-001;-3.696362674236298E-002;-2.509008627384901E-003;-3.073862753808498E-003;
2.418666666666667E+009;2.001577615737915E-001;-3.672632947564125E-002;-2.593301469460130E-003;-2.964916639029980E-003;
2.418833333333334E+009;1.990254372358322E-001;-3.665123879909515E-002;-2.717260271310806E-003;-2.918191021308303E-003;
2.419000000000000E+009;1.977459490299225E-001;-3.677593544125557E-002;-2.631296170875430E-003;-2.971619367599487E-003;
2.419166666666667E+009;1.964877694845200E-001;-3.690810874104500E-002;-2.721807220950723E-003;-2.927108667790890E-003;
2.419333333333334E+009;1.952182799577713E-001;-3.713906556367874E-002;-2.827704185619950E-003;-2.804149873554707E-003;
2.419500000000000E+009;1.937211602926254E-001;-3.752522170543671E-002;-2.886575879529119E-003;-2.752865664660931E-003;
2.419666666666667E+009;1.921493560075760E-001;-3.815269097685814E-002;-3.105135634541512E-003;-2.560398541390896E-003;
2.419833333333334E+009;1.905468404293060E-001;-3.863185271620750E-002;-3.196860896423459E-003;-2.312240656465292E-003;
2.420000000000000E+009;1.888653784990311E-001;-3.945389389991760E-002;-3.201007377356291E-003;-2.168824430555105E-003;
2.420166666666667E+009;1.872692257165909E-001;-4.019461572170258E-002;-3.457563696429133E-003;-1.992085715755820E-003;
2.420333333333334E+009;1.855812668800354E-001;-4.120667651295662E-002;-3.415664890781045E-003;-1.854705042205751E-003;
2.420500000000000E+009;1.837490051984787E-001;-4.261757060885429E-002;-3.366937628015876E-003;-1.814733375795186E-003;
2.420666666666667E+009;1.819314211606979E-001;-4.357905685901642E-002;-3.331735264509916E-003;-1.568316831253469E-003;
2.420833333333334E+009;1.802455484867096E-001;-4.498624429106712E-002;-3.252042457461357E-003;-1.170934177935123E-003;
2.421000000000000E+009;1.785062104463577E-001;-4.643917456269264E-002;-3.026511287316680E-003;-1.230231369845569E-003;
2.421166666666667E+009;1.768448501825333E-001;-4.813402891159058E-002;-2.953526331111789E-003;-1.082353759557009E-003;
2.421333333333334E+009;1.750895529985428E-001;-4.950533062219620E-002;-2.724634250625968E-003;-8.790909778326750E-004;
2.421500000000000E+009;1.736687272787094E-001;-5.118937790393829E-002;-2.624583663418889E-003;-7.957971538417041E-004;
2.421666666666667E+009;1.723057776689529E-001;-5.317080020904541E-002;-2.414585091173649E-003;-8.840081864036620E-004;
2.421833333333334E+009;1.707817614078522E-001;-5.487712100148201E-002;-2.289594616740942E-003;-8.555210661143065E-004;
2.422000000000000E+009;1.696754992008209E-001;-5.684896185994148E-002;-2.212980296462774E-003;-9.320357348769903E-004;
2.422166666666667E+009;1.684291064739227E-001;-5.885587260127068E-002;-2.277522115036845E-003;-1.243973267264664E-003;
2.422333333333334E+009;1.675469726324081E-001;-6.086298078298569E-002;-2.267140429466963E-003;-1.170682720839977E-003;
2.422500000000000E+009;1.666237115859985E-001;-6.271754950284958E-002;-2.158358460292220E-003;-1.310280989855528E-003;
2.422666666666667E+009;1.657545715570450E-001;-6.492477655410767E-002;-2.284721471369267E-003;-1.391090219840407E-003;
2.422833333333334E+009;1.652160435914993E-001;-6.692610681056976E-002;-2.405521925538778E-003;-1.386037096381187E-003;
2.423000000000000E+009;1.646035611629486E-001;-6.898862123489380E-002;-2.545338589698076E-003;-1.578255556523800E-003;
2.423166666666667E+009;1.641631424427033E-001;-7.111253589391708E-002;-2.804820658639073E-003;-1.576267532072961E-003;
2.423333333333334E+009;1.640295982360840E-001;-7.335110008716583E-002;-2.855591010302305E-003;-1.696631778031588E-003;
2.423500000000000E+009;1.637023091316223E-001;-7.514236867427826E-002;-2.984458813443780E-003;-1.654438441619277E-003;
2.423666666666667E+009;1.637520939111710E-001;-7.717044651508331E-002;-3.118896856904030E-003;-1.503825420513749E-003;
2.423833333333334E+009;1.637454479932785E-001;-7.896864414215088E-002;-3.142316825687885E-003;-1.417624182067812E-003;
2.424000000000000E+009;1.638509184122086E-001;-8.103179186582565E-002;-3.377412213012576E-003;-1.385777490213513E-003;
2.424166666666667E+009;1.640466749668121E-001;-8.282282203435898E-002;-3.458173247054219E-003;-1.060870010405779E-003;
2.424333333333334E+009;1.643320918083191E-001;-8.439289033412933E-002;-3.759188577532768E-003;-1.189845963381231E-003;
2.424500000000000E+009;1.647370457649231E-001;-8.637081086635590E-002;-3.661836963146925E-003;-8.778916089795530E-004;
2.424666666666667E+009;1.650341600179672E-001;-8.764535933732987E-002;-3.763225162401795E-003;-7.942030206322670E-004;
2.424833333333334E+009;1.656836271286011E-001;-8.920571953058243E-002;-3.750890726223588E-003;-7.268691551871598E-004;
2.425000000000000E+009;1.662959605455399E-001;-9.049521386623383E-002;-4.050663672387600E-003;-5.570877110585570E-004;
2.425166666666667E+009;1.667552739381790E-001;-9.169112890958786E-002;-3.990481141954660E-003;-3.386156749911606E-004;
2.425333333333334E+009;1.671489924192429E-001;-9.275074303150177E-002;-3.997934982180595E-003;-1.128367075580172E-004;
2.425500000000000E+009;1.678607910871506E-001;-9.388511627912521E-002;-3.997609019279480E-003;-1.078144341590814E-004;
2.425666666666667E+009;1.684070527553558E-001;-9.466808289289475E-002;-4.199262708425522E-003;1.763820764608681E-004;
2.425833333333334E+009;1.690188646316528E-001;-9.573267400264740E-002;-4.058694932609797E-003;1.957671775016934E-004;
2.426000000000000E+009;1.696680486202240E-001;-9.628268331289291E-002;-4.141594748944044E-003;4.467108228709549E-004;
2.426166666666667E+009;1.702773720026016E-001;-9.678883105516434E-002;-4.023042973130941E-003;5.866436404176056E-004;
2.426333333333334E+009;1.706569045782089E-001;-9.744513779878616E-002;-4.044272005558014E-003;8.965011802501977E-004;
2.426500000000000E+009;1.713038235902786E-001;-9.786835312843323E-002;-4.033039789646864E-003;1.024473924189806E-003;
2.426666666666667E+009;1.717821955680847E-001;-9.819847345352173E-002;-4.070337396115065E-003;1.182135078124702E-003;
2.426833333333334E+009;1.723154038190842E-001;-9.858527779579163E-002;-4.093201365321875E-003;1.211878494359553E-003;
2.427000000000000E+009;1.725715249776840E-001;-9.892596304416657E-002;-3.989250864833593E-003;1.435249694623053E-003;
2.427166666666667E+009;1.728651076555252E-001;-9.908255189657211E-002;-3.939993213862181E-003;1.460356754250825E-003;
2.427333333333334E+009;1.729337871074677E-001;-9.936692565679550E-002;-3.952547442167997E-003;1.512367627583444E-003;
2.427500000000000E+009;1.729936301708221E-001;-9.962386637926102E-002;-3.842979669570923E-003;1.692110323347151E-003;
2.427666666666667E+009;1.728941798210144E-001;-9.970133006572723E-002;-3.928375430405140E-003;2.028243849053979E-003;
