# Version 1.00
#
freq[Hz];re:Trc1_S11;im:Trc1_S11;re:Trc2_S21;im:Trc2_S21;
2.400000000000000E+009;1.687854528427124E-001;4.581518471240997E-002;-5.343052558600903E-003;8.290752884931862E-004;
2.400166666666667E+009;1.699955463409424E-001;4.489778354763985E-002;-5.070299841463566E-003;1.049468410201371E-003;
2.400333333333334E+009;1.707629710435867E-001;4.379000142216682E-002;-4.849663469940424E-003;1.074867672286928E-003;
2.400500000000000E+009;1.719367504119873E-001;4.268033057451248E-002;-4.764256998896599E-003;1.213053590618074E-003;
2.400666666666667E+009;1.726965308189392E-001;4.159655421972275E-002;-4.649190232157707E-003;1.198333222419024E-003;
2.400833333333334E+009;1.735984534025192E-001;4.100865498185158E-002;-4.575994797050953E-003;1.468425500206649E-003;
2.401000000000000E+009;1.743562817573547E-001;4.014831036329269E-002;-4.517805762588978E-003;1.565769314765930E-003;
2.401166666666667E+009;1.752544045448303E-001;3.940276056528091E-002;-4.330881871283054E-003;1.600331976078451E-003;
2.401333333333334E+009;1.758974790573120E-001;3.867682069540024E-002;-4.152285400778055E-003;1.593664754182100E-003;
2.401500000000000E+009;1.767121255397797E-001;3.808006644248962E-002;-4.371406510472298E-003;1.775338314473629E-003;
2.401666666666667E+009;1.773603409528732E-001;3.759660571813583E-002;-4.179734736680985E-003;1.839166041463614E-003;
2.401833333333334E+009;1.780825257301331E-001;3.675001859664917E-002;-4.033804871141911E-003;1.811398426070809E-003;
2.402000000000000E+009;1.784328669309616E-001;3.620650619268417E-002;-3.947609104216099E-003;1.856427639722824E-003;
2.402166666666667E+009;1.787316054105759E-001;3.544524684548378E-002;-3.792556701228023E-003;1.950823236256838E-003;
2.402333333333334E+009;1.792078167200089E-001;3.484693542122841E-002;-3.741149790585041E-003;2.109096851199865E-003;
2.402500000000000E+009;1.796978265047073E-001;3.436998277902603E-002;-3.834165399894118E-003;2.207132056355476E-003;
2.402666666666667E+009;1.798117309808731E-001;3.384653106331825E-002;-3.746875794604421E-003;2.223368966951966E-003;
2.402833333333334E+009;1.800461858510971E-001;3.312300145626068E-002;-3.649588208645582E-003;2.252033445984125E-003;
2.403000000000000E+009;1.800112724304199E-001;3.224608302116394E-002;-3.594552399590612E-003;2.382724080234766E-003;
2.403166666666667E+009;1.800237149000168E-001;3.150883689522743E-002;-3.296473994851112E-003;2.471045358106494E-003;
2.403333333333334E+009;1.798505038022995E-001;3.086636960506439E-002;-3.257155884057283E-003;2.442657249048352E-003;
2.403500000000000E+009;1.796130388975143E-001;2.983027510344982E-002;-3.446439979597926E-003;2.610798925161362E-003;
2.403666666666667E+009;1.793362051248550E-001;2.880603261291981E-002;-3.348050406202674E-003;2.681544981896877E-003;
2.403833333333334E+009;1.790790259838104E-001;2.773604169487953E-002;-3.186356741935015E-003;2.651907736435533E-003;
2.404000000000000E+009;1.786990463733673E-001;2.684040740132332E-002;-3.001979086548090E-003;2.909108297899365E-003;
2.404166666666667E+009;1.782794296741486E-001;2.563559822738171E-002;-3.085696836933494E-003;2.906985580921173E-003;
2.404333333333334E+009;1.777793616056442E-001;2.443134225904942E-002;-2.917967736721039E-003;2.927870955318213E-003;
2.404500000000000E+009;1.771714687347412E-001;2.313229627907276E-002;-2.726925536990166E-003;2.998027484863997E-003;
2.404666666666667E+009;1.769049912691116E-001;2.170008979737759E-002;-2.686384366825223E-003;3.270623972639442E-003;
2.404833333333334E+009;1.764535605907440E-001;2.036706171929836E-002;-2.739707008004189E-003;3.210017457604408E-003;
2.405000000000000E+009;1.758413761854172E-001;1.872447878122330E-002;-2.616059500724077E-003;3.077018540352583E-003;
2.405166666666667E+009;1.753286421298981E-001;1.734548062086105E-002;-2.509567886590958E-003;3.324052551761270E-003;
2.405333333333334E+009;1.749052554368973E-001;1.562620699405670E-002;-2.276611281558871E-003;3.258372889831662E-003;
2.405500000000000E+009;1.745745539665222E-001;1.409028843045235E-002;-2.267576521262527E-003;3.122136695310473E-003;
2.405666666666667E+009;1.741309165954590E-001;1.244980003684759E-002;-2.266025170683861E-003;3.559163073077798E-003;
2.405833333333334E+009;1.736631095409393E-001;1.072246953845024E-002;-2.136757131665945E-003;3.327710786834359E-003;
2.406000000000000E+009;1.732885688543320E-001;8.691359311342239E-003;-2.047100570052862E-003;3.404317423701286E-003;
2.406166666666667E+009;1.729525923728943E-001;6.944343447685242E-003;-1.910182880237699E-003;3.445914946496487E-003;
2.406333333333334E+009;1.729191690683365E-001;4.873482510447502E-003;-1.783095067366958E-003;3.526380984112620E-003;
2.406500000000000E+009;1.727630496025085E-001;2.986531704664230E-003;-1.747817383147776E-003;3.554441500455141E-003;
2.406666666666667E+009;1.724439114332199E-001;1.008820836432278E-003;-1.629945938475430E-003;3.392930608242750E-003;
2.406833333333334E+009;1.726233214139938E-001;-1.217824290506542E-003;-1.531600719317794E-003;3.580816788598895E-003;
2.407000000000000E+009;1.727102249860764E-001;-3.260586876422167E-003;-1.366572454571724E-003;3.652068786323071E-003;
2.407166666666667E+009;1.727368533611298E-001;-5.178370513021946E-003;-1.523857004940510E-003;3.577574854716659E-003;
2.407333333333334E+009;1.729374378919601E-001;-7.446539122611284E-003;-1.259727985598147E-003;3.757325001060963E-003;
2.407500000000000E+009;1.730590015649796E-001;-9.505345486104488E-003;-1.281751086935401E-003;3.644519485533238E-003;
2.407666666666667E+009;1.734655499458313E-001;-1.153545267879963E-002;-1.157459104433656E-003;3.789965296164155E-003;
2.407833333333334E+009;1.734810024499893E-001;-1.379613298922777E-002;-1.119538792409003E-003;3.862914862111211E-003;
2.408000000000000E+009;1.739002168178558E-001;-1.590742729604244E-002;-9.353010100312531E-004;3.838637378066778E-003;
2.408166666666667E+009;1.743029654026032E-001;-1.783780194818974E-002;-9.042563033290207E-004;3.964425530284643E-003;
2.408333333333334E+009;1.749467849731445E-001;-1.978060230612755E-002;-6.535216816700995E-004;4.066705703735352E-003;
2.408500000000000E+009;1.752429902553558E-001;-2.170532941818237E-002;-4.394201678223908E-004;3.974947612732649E-003;
2.408666666666667E+009;1.756236404180527E-001;-2.360496856272221E-002;-4.717386327683926E-004;3.992812708020210E-003;
2.408833333333334E+009;1.758999228477478E-001;-2.551632188260555E-002;-3.748598101083189E-004;3.913825843483210E-003;
2.409000000000000E+009;1.763133704662323E-001;-2.710299752652645E-002;-1.370051468256861E-004;4.001724068075419E-003;
2.409166666666667E+009;1.767755299806595E-001;-2.852770127356052E-002;-1.446177520847414E-005;3.875766182318330E-003;
2.409333333333334E+009;1.771943569183350E-001;-3.010592609643936E-002;2.334900273126550E-005;3.911279141902924E-003;
2.409500000000000E+009;1.777011901140213E-001;-3.148816153407097E-002;4.094730320503004E-005;3.979127854108810E-003;
2.409666666666667E+009;1.779449433088303E-001;-3.262386471033096E-002;1.751716190483421E-004;3.868976142257452E-003;
2.409833333333334E+009;1.784477829933167E-001;-3.376300632953644E-002;3.997363673988730E-004;3.880926175042987E-003;
2.410000000000000E+009;1.791184395551682E-001;-3.460329771041870E-002;4.244750889483839E-004;4.071786999702454E-003;
2.410166666666667E+009;1.795648783445358E-001;-3.570824488997459E-002;5.134788225404918E-004;3.856735769659281E-003;
2.410333333333334E+009;1.799197494983673E-001;-3.653807193040848E-002;6.674065953120589E-004;3.899935632944107E-003;
2.410500000000000E+009;1.802954524755478E-001;-3.729205951094627E-002;6.312503246590495E-004;3.926021978259087E-003;
2.410666666666667E+009;1.806785166263580E-001;-3.832064196467400E-002;8.781915530562401E-004;4.092750139534473E-003;
2.410833333333334E+009;1.811449974775314E-001;-3.865685313940048E-002;1.014371868222952E-003;3.855524118989706E-003;
2.411000000000000E+009;1.814545840024948E-001;-3.925997018814087E-002;1.139187719672918E-003;3.862460376694799E-003;
2.411166666666667E+009;1.814952045679092E-001;-3.990060091018677E-002;1.245878171175718E-003;3.808669280260801E-003;
2.411333333333334E+009;1.815763711929321E-001;-4.022300615906715E-002;1.299876254051924E-003;3.912817221134901E-003;
2.411500000000000E+009;1.816910058259964E-001;-4.092125222086906E-002;1.589995808899403E-003;3.839131444692612E-003;
2.411666666666667E+009;1.818998754024506E-001;-4.135232791304588E-002;1.623126794584096E-003;3.805575892329216E-003;
2.411833333333334E+009;1.818110942840576E-001;-4.145273938775063E-002;1.786565873771906E-003;3.824069164693356E-003;
2.412000000000000E+009;1.817804276943207E-001;-4.203748330473900E-002;1.784113235771656E-003;3.897331655025482E-003;
2.412166666666667E+009;1.813426166772842E-001;-4.251666367053986E-002;2.024384681135416E-003;3.672039601951838E-003;
2.412333333333334E+009;1.811737865209580E-001;-4.275957122445107E-002;2.147306688129902E-003;3.640220733359456E-003;
2.412500000000000E+009;1.805739849805832E-001;-4.311513155698776E-002;2.191707957535982E-003;3.373690182343125E-003;
2.412666666666667E+009;1.801209002733231E-001;-4.371590912342072E-002;2.524682786315680E-003;3.317465074360371E-003;
2.412833333333334E+009;1.794018745422363E-001;-4.392661154270172E-002;2.560007851570845E-003;3.430675016716123E-003;
2.413000000000000E+009;1.785472482442856E-001;-4.427903890609741E-002;2.637454308569431E-003;3.103731432929635E-003;
2.413166666666667E+009;1.777931004762650E-001;-4.453220218420029E-002;2.823696704581380E-003;3.186105052009225E-003;
2.413333333333334E+009;1.768620014190674E-001;-4.507071152329445E-002;2.900139894336462E-003;3.026047255843878E-003;
2.413500000000000E+009;1.759343445301056E-001;-4.556621238589287E-002;2.841463778167963E-003;2.938523190096021E-003;
2.413666666666667E+009;1.750131696462631E-001;-4.615579172968864E-002;3.022650955244899E-003;2.903557149693370E-003;
2.413833333333334E+009;1.737924367189407E-001;-4.667717218399048E-002;3.159968182444572E-003;2.478152047842741E-003;
2.414000000000000E+009;1.724791675806046E-001;-4.733563587069511E-002;3.171897726133466E-003;2.535829087719321E-003;
2.414166666666667E+009;1.714958548545837E-001;-4.802625253796578E-002;3.152367658913136E-003;2.387449145317078E-003;
2.414333333333334E+009;1.702587753534317E-001;-4.885100200772286E-002;3.198321675881743E-003;2.307987771928310E-003;
2.414500000000000E+009;1.693527996540070E-001;-4.966438934206963E-002;3.314394038170576E-003;2.091162139549851E-003;
2.414666666666667E+009;1.680064648389816E-001;-5.063641071319580E-002;3.267058636993170E-003;1.996006583794951E-003;
2.414833333333334E+009;1.667744368314743E-001;-5.169309303164482E-002;3.152497578412294E-003;1.946249511092901E-003;
2.415000000000000E+009;1.655790656805039E-001;-5.267743766307831E-002;3.182143205776811E-003;1.849322114139795E-003;
2.415166666666667E+009;1.643027514219284E-001;-5.393614247441292E-002;3.197578014805913E-003;1.746261492371559E-003;
2.415333333333334E+009;1.632538735866547E-001;-5.538807436823845E-002;3.180151106789708E-003;1.681214082054794E-003;
2.415500000000000E+009;1.621122807264328E-001;-5.662582814693451E-002;3.295211354270577E-003;1.828288543038070E-003;
2.415666666666667E+009;1.609662920236588E-001;-5.813027918338776E-002;3.306345315650106E-003;1.668340992182493E-003;
2.415833333333334E+009;1.598444283008575E-001;-5.971109867095947E-002;3.311528824269772E-003;1.472229487262666E-003;
2.416000000000000E+009;1.585969477891922E-001;-6.138711050152779E-002;3.349228529259563E-003;1.388815930113196E-003;
2.416166666666667E+009;1.577526926994324E-001;-6.298583000898361E-002;3.344106022268534E-003;1.391599304042757E-003;
2.416333333333334E+009;1.566871255636215E-001;-6.485226005315781E-002;3.379774047061801E-003;1.362012932077050E-003;
2.416500000000000E+009;1.558453142642975E-001;-6.672979146242142E-002;3.410590812563896E-003;1.381171634420753E-003;
2.416666666666667E+009;1.548343151807785E-001;-6.844270229339600E-002;3.545982763171196E-003;1.158759347163141E-003;
2.416833333333334E+009;1.541447490453720E-001;-7.047871500253677E-002;3.517472418025136E-003;1.127129769884050E-003;
2.417000000000000E+009;1.532555520534515E-001;-7.239153236150742E-002;3.590784966945648E-003;1.066855853423476E-003;
2.417166666666667E+009;1.525290310382843E-001;-7.418631017208099E-002;3.592487657442689E-003;1.038836315274239E-003;
2.417333333333334E+009;1.518969982862473E-001;-7.606847584247589E-002;3.691377583891153E-003;9.206918766722083E-004;
2.417500000000000E+009;1.513289958238602E-001;-7.817155122756958E-002;3.738158848136663E-003;1.116007682867348E-003;
2.417666666666667E+009;1.508322656154633E-001;-7.975035160779953E-002;3.773761214688420E-003;8.524747681804001E-004;
2.417833333333334E+009;1.504878103733063E-001;-8.173372596502304E-002;3.856345312669873E-003;7.058102055452764E-004;
2.418000000000000E+009;1.499317735433579E-001;-8.363728970289230E-002;3.810541238635778E-003;9.086331701837480E-004;
2.418166666666667E+009;1.496517062187195E-001;-8.522442728281021E-002;4.098974168300629E-003;5.617226124741137E-004;
2.418333333333334E+009;1.497950255870819E-001;-8.698339760303497E-002;4.190073814243078E-003;6.344321882352233E-004;
2.418500000000000E+009;1.495305746793747E-001;-8.850082755088806E-002;4.091004841029644E-003;3.960110188927501E-004;
2.418666666666667E+009;1.494559049606323E-001;-9.004236012697220E-002;4.189812112599611E-003;2.781886141747236E-004;
2.418833333333334E+009;1.492480039596558E-001;-9.143328666687012E-002;4.227494820952416E-003;1.479589409427717E-004;
2.419000000000000E+009;1.491527259349823E-001;-9.275467693805695E-002;4.326410591602325E-003;-3.183064836775884E-005;
2.419166666666667E+009;1.492682695388794E-001;-9.398848563432694E-002;4.293886478990316E-003;-1.074405881809071E-004;
2.419333333333334E+009;1.492945551872253E-001;-9.498456120491028E-002;4.345438908785582E-003;-3.020253498107195E-004;
2.419500000000000E+009;1.493741422891617E-001;-9.616111218929291E-002;4.411615896970034E-003;-4.159709496889263E-004;
2.419666666666667E+009;1.498128622770309E-001;-9.721547365188599E-002;4.226674325764179E-003;-6.265504052862525E-004;
2.419833333333334E+009;1.499270945787430E-001;-9.768535196781158E-002;4.401690792292357E-003;-6.048483774065971E-004;
2.420000000000000E+009;1.502312272787094E-001;-9.853555262088776E-002;4.287443123757839E-003;-8.412338793277741E-004;
2.420166666666667E+009;1.503703445196152E-001;-9.902100265026093E-002;4.333209246397018E-003;-9.323590202257037E-004;
2.420333333333334E+009;1.507435739040375E-001;-9.959921985864639E-002;4.423528444021940E-003;-1.171609386801720E-003;
2.420500000000000E+009;1.510538458824158E-001;-9.977632761001587E-002;4.562313668429852E-003;-1.292905188165605E-003;
2.420666666666667E+009;1.510979086160660E-001;-1.000408604741097E-001;4.476018249988556E-003;-1.500293379649520E-003;
2.420833333333334E+009;1.515470743179321E-001;-1.002210751175880E-001;4.592840094119310E-003;-1.596247660927475E-003;
2.421000000000000E+009;1.515514999628067E-001;-1.003247499465942E-001;4.568002652376890E-003;-1.724437111988664E-003;
2.421166666666667E+009;1.520264744758606E-001;-1.004233285784721E-001;4.596686456352472E-003;-1.999787287786603E-003;
2.421333333333334E+009;1.521818935871124E-001;-1.002722978591919E-001;4.720351658761501E-003;-2.307538175955415E-003;
2.421500000000000E+009;1.522343456745148E-001;-1.000816300511360E-001;4.705711267888546E-003;-2.525213407352567E-003;
2.421666666666667E+009;1.522500663995743E-001;-1.000696867704392E-001;4.638457205146551E-003;-2.549036405980587E-003;
2.421833333333334E+009;1.521275639533997E-001;-9.990661591291428E-002;4.675204865634441E-003;-2.925196196883917E-003;
2.422000000000000E+009;1.520549058914185E-001;-9.973119199275971E-002;4.574677906930447E-003;-3.268925473093987E-003;
2.422166666666667E+009;1.517636626958847E-001;-9.934876859188080E-002;4.434194415807724E-003;-3.504000371322036E-003;
2.422333333333334E+009;1.513837277889252E-001;-9.902282059192658E-002;4.361737519502640E-003;-3.742879722267389E-003;
2.422500000000000E+009;1.509321331977844E-001;-9.873998165130615E-002;4.230407066643238E-003;-4.037580452859402E-003;
2.422666666666667E+009;1.503287553787231E-001;-9.837713837623596E-002;4.093340598046780E-003;-4.328192677348852E-003;
2.422833333333334E+009;1.496725529432297E-001;-9.805458039045334E-002;3.871105844154954E-003;-4.687922075390816E-003;
2.423000000000000E+009;1.488495022058487E-001;-9.786476194858551E-002;3.602915676310659E-003;-4.809495061635971E-003;
2.423166666666667E+009;1.481194794178009E-001;-9.752738475799561E-002;3.495872020721436E-003;-5.149931646883488E-003;
2.423333333333334E+009;1.472638994455338E-001;-9.705571830272675E-002;3.103282535448670E-003;-5.423554684966803E-003;
2.423500000000000E+009;1.460802555084229E-001;-9.685527533292770E-002;2.757709007710218E-003;-5.518415477126837E-003;
2.423666666666667E+009;1.449317634105682E-001;-9.665506333112717E-002;2.488924423232675E-003;-5.682948976755142E-003;
2.423833333333334E+009;1.437536776065826E-001;-9.640973806381226E-002;2.080643083900213E-003;-5.781357642263174E-003;
2.424000000000000E+009;1.424037963151932E-001;-9.603968262672424E-002;1.679691020399332E-003;-5.984785035252571E-003;
2.424166666666667E+009;1.410888880491257E-001;-9.593222290277481E-002;1.322479103691876E-003;-5.952733103185892E-003;
2.424333333333334E+009;1.397959291934967E-001;-9.574980288743973E-002;8.367954869754612E-004;-5.894790403544903E-003;
2.424500000000000E+009;1.382674574851990E-001;-9.590958803892136E-002;6.080117309466004E-004;-5.992063321173191E-003;
2.424666666666667E+009;1.371656358242035E-001;-9.583580493927002E-002;1.736520789563656E-004;-5.991948768496513E-003;
2.424833333333334E+009;1.355543434619904E-001;-9.609994292259216E-002;1.012712382362224E-004;-5.766895599663258E-003;
2.425000000000000E+009;1.342490315437317E-001;-9.656481444835663E-002;-3.183732333127409E-004;-5.762845743447542E-003;
2.425166666666667E+009;1.325252354145050E-001;-9.688538312911987E-002;-6.821072893217206E-004;-5.741837434470654E-003;
2.425333333333334E+009;1.311739832162857E-001;-9.741143137216568E-002;-8.353738812729716E-004;-5.598749499768019E-003;
2.425500000000000E+009;1.299113929271698E-001;-9.801295399665833E-002;-1.197910518385470E-003;-5.488498136401177E-003;
2.425666666666667E+009;1.282184123992920E-001;-9.883239120244980E-002;-1.459911814890802E-003;-5.118931643664837E-003;
2.425833333333334E+009;1.268594115972519E-001;-9.975133836269379E-002;-1.709671923890710E-003;-5.117462947964668E-003;
2.426000000000000E+009;1.254236847162247E-001;-1.008363589644432E-001;-1.793808070942760E-003;-4.821005277335644E-003;
2.426166666666667E+009;1.242634952068329E-001;-1.019022390246391E-001;-1.885359873995185E-003;-4.563228227198124E-003;
2.426333333333334E+009;1.229228377342224E-001;-1.031070426106453E-001;-2.144294092431665E-003;-4.509299062192440E-003;
2.426500000000000E+009;1.216699182987213E-001;-1.043547317385674E-001;-2.232321770861745E-003;-4.087395034730434E-003;
2.426666666666667E+009;1.205427572131157E-001;-1.056814417243004E-001;-2.322524553164840E-003;-4.033325705677271E-003;
2.426833333333334E+009;1.193831413984299E-001;-1.071493029594421E-001;-2.352337352931500E-003;-3.830175148323178E-003;
2.427000000000000E+009;1.183124780654907E-001;-1.089174300432205E-001;-2.540182787925005E-003;-3.597584320232272E-003;
2.427166666666667E+009;1.173307523131371E-001;-1.102317348122597E-001;-2.557181287556887E-003;-3.464804729446769E-003;
2.427333333333334E+009;1.163533031940460E-001;-1.118920817971230E-001;-2.620572689920664E-003;-3.261041129007936E-003;
2.427500000000000E+009;1.157397851347923E-001;-1.136713847517967E-001;-2.657826989889145E-003;-3.028135281056166E-003;
2.427666666666667E+009;1.149483844637871E-001;-1.154248639941216E-001;-2.580504631623626E-003;-2.810050034895539E-003;
2.427833333333334E+009;1.141793280839920E-001;-1.171588227152824E-001;-2.642562845721841E-003;-2.807596465572715E-003;
