# Hz S RI R 50
2400000000.0000000000 0.155742585659027099609375000000 0.060291975736618041992187500000 -0.003062600502744317054748535156 -0.001860130112618207931518554688 0 0 0 0 
2400166666.6666665077 0.155952036380767794510049384371 0.058747421950101852416992187500 -0.003143736161291598840000771631 -0.001653714571148156902910542065 0 0 0 0 
2400333333.3333334923 0.155861541628837613204794365629 0.056519258767366409301757812500 -0.003193633630871773199794150244 -0.001817984390072524981257773291 0 0 0 0 
2400500000.0000000000 0.156282395124435397049111884371 0.054400041699409491802175153907 -0.003208270762115716934204101562 -0.001659985980950295925140380859 0 0 0 0 
2400666666.6666665077 0.156472876667976407150106865629 0.052239425480365753173828125000 -0.003358192741870880126953125000 -0.001549208187498152039171528394 0 0 0 0 
2400833333.3333334923 0.157013416290283203125000000000 0.050493083894252777099609375000 -0.003296631388366221947910927881 -0.001437719096429646015167236328 0 0 0 0 
2401000000.0000000000 0.157017260789871188064736884371 0.048184726387262337421457658593 -0.003418148262426257133483886719 -0.001362245297059416987775493091 0 0 0 0 
2401166666.6666665077 0.157707676291465787032919365629 0.046075396239757537841796875000 -0.003524913685396314100978232275 -0.001334688975475728945491171729 0 0 0 0 
2401333333.3333334923 0.158069878816604586502236884371 0.044144637882709503173828125000 -0.003605997888371347947361611475 -0.001192829338833689906476664966 0 0 0 0 
2401500000.0000000000 0.158863797783851595779580634371 0.042034834623336791992187500000 -0.003611027495935558839085244287 -0.001128049683757125897648476709 0 0 0 0 
2401666666.6666665077 0.159469589591026306152343750000 0.040221124887466430664062500000 -0.003651957027614117102382040869 -0.001065952819772064902661967700 0 0 0 0 
2401833333.3333334923 0.160047188401222201248330634371 0.038074895739555358886718750000 -0.003556154668331145806553506006 -0.001023461576551198959350585938 0 0 0 0 
2402000000.0000000000 0.160643428564071710784588731258 0.036303810775279998779296875000 -0.003633897285908461050746298682 -0.000751234823837876319885253906 0 0 0 0 
2402166666.6666665077 0.161381497979164095779580634371 0.034376770257949829101562500000 -0.003681432222947477860691689600 -0.000788633362390100955963134766 0 0 0 0 
2402333333.3333334923 0.162293598055839510818643134371 0.032713823020458221435546875000 -0.003862047335132956938502646338 -0.000703252910170704126358032227 0 0 0 0 
2402500000.0000000000 0.163318008184433011154013115629 0.031108690425753589975377266796 -0.003831885289400815963745117188 -0.000495361397042870521545410156 0 0 0 0 
2402666666.6666665077 0.164036139845848111251669365629 0.029537055641412738454798514454 -0.003850292414426804022548056494 -0.000473155698273330926895141602 0 0 0 0 
2402833333.3333334923 0.165054947137832613845986884371 0.028160206973552700387974923046 -0.004053621552884578704833984375 -0.000405078695621341521113795148 0 0 0 0 
2403000000.0000000000 0.166085049510002108474893134371 0.026596741750836368906041329296 -0.004221059381961823377127362988 -0.000124098980450071394443511963 0 0 0 0 
2403166666.6666665077 0.167030766606330899337606865629 0.025166004896163940429687500000 -0.004107364919036626815795898438 -0.000120327596960123601272860117 0 0 0 0 
2403333333.3333334923 0.168075725436210604568643134371 0.024048261344432830810546875000 -0.004150164779275655746459960938 0.000005062095624452923340252323 0 0 0 0 
2403500000.0000000000 0.169013515114784212967080634371 0.023003201931715011596679687500 -0.004119918216019868850708007812 0.000120746190077625201501031194 0 0 0 0 
2403666666.6666665077 0.170063510537147494217080634371 0.021689854562282558786412423046 -0.004206749610602855682373046875 0.000301311054499819874763488770 0 0 0 0 
2403833333.3333334923 0.171051710844039889236611884371 0.020770892500877380371093750000 -0.004221875220537185668945312500 0.000358029967173933982849121094 0 0 0 0 
2404000000.0000000000 0.171753495931625393966513115629 0.019802073016762729990025704296 -0.004263630136847496032714843750 0.000511319085489958524703979492 0 0 0 0 
2404166666.6666665077 0.172837570309639004806356865629 0.018752513453364368783971016796 -0.004277120810002089414114667676 0.000874402991030365228652954102 0 0 0 0 
2404333333.3333334923 0.173790737986564608474893134371 0.018245261162519458425501639454 -0.004201226867735385894775390625 0.000912690360564738512039184570 0 0 0 0 
2404500000.0000000000 0.174550965428352411468182481258 0.017337188124656680715540701954 -0.004373826086521148681640625000 0.001221459475345910029170370947 0 0 0 0 
2404666666.6666665077 0.175483375787735013107138115629 0.016844406723976138723353201954 -0.004236254375427961349487304688 0.001377062406390904946568154443 0 0 0 0 
2404833333.3333334923 0.176145508885383605957031250000 0.016220385208725929260253906250 -0.004196407739073038101196289062 0.001376841682940721945521689307 0 0 0 0 
2405000000.0000000000 0.176856413483619689941406250000 0.015737757086753848684290701954 -0.004268754273653030395507812500 0.001742303837090731100795126807 0 0 0 0 
2405166666.6666665077 0.177563816308975191970986884371 0.015227135270833970850934413477 -0.004143619444221258163452148438 0.001905237324535846927045512622 0 0 0 0 
2405333333.3333334923 0.178292423486709594726562500000 0.014833858236670490610142891796 -0.003970204386860132217407226562 0.002202630275860428810119628906 0 0 0 0 
2405500000.0000000000 0.178712949156761197189169365629 0.014518946409225460397740548046 -0.004029554314911366376394941113 0.002212101127952336831333779443 0 0 0 0 
2405666666.6666665077 0.179153278470039395431356865629 0.014248942956328390294085117773 -0.004088934045284987363333417676 0.002487128833308815956115722656 0 0 0 0 
2405833333.3333334923 0.179424107074737604339276231258 0.013893215917050840205182460352 -0.003708517877385019822361611475 0.002486100187525153160095214844 0 0 0 0 
2406000000.0000000000 0.179758116602897588531817518742 0.013551242649555209768275076954 -0.003687848569825292067286826025 0.002759182825684546990635537256 0 0 0 0 
2406166666.6666665077 0.179818183183669988434161268742 0.013477771542966369283655936329 -0.003360626753419638113734579932 0.003018110059201716943028115381 0 0 0 0 
2406333333.3333334923 0.180091798305511502364950615629 0.013142513111233709507952305273 -0.003391807666048407988307333838 0.003158574923872948126551962744 0 0 0 0 
2406500000.0000000000 0.179965719580650301834268134371 0.012822173535823820286760899023 -0.003238808130845427946803427588 0.003157765371724963188171386719 0 0 0 0 
2406666666.6666665077 0.179790571331977788727130018742 0.012589318677783010655413242773 -0.003202560124918818907496786963 0.003322490723803638978245400537 0 0 0 0 
2406833333.3333334923 0.179967507719993591308593750000 0.012302947230637070047398751171 -0.002865855349227786064147949219 0.003351967083290218873264931787 0 0 0 0 
2407000000.0000000000 0.179700568318367004394531250000 0.011897479183971880131731602148 -0.002858306746929883956909179688 0.003424254711717367172241210938 0 0 0 0 
2407166666.6666665077 0.179514244198799105545205634371 0.011370905674993990117083164648 -0.002613054122775793075561523438 0.003652323968708515167236328125 0 0 0 0 
2407333333.3333334923 0.179090544581413296798544365629 0.010698589496314530808418474805 -0.002450599800795317129847861182 0.003678040578961371941807412256 0 0 0 0 
2407500000.0000000000 0.178785204887390108963174384371 0.010281796567142009735107421875 -0.002350581344217061996459960938 0.003644568147137761116027832031 0 0 0 0 
2407666666.6666665077 0.178277760744094904143963731258 0.009748732671141624450683593750 -0.002212230814620852904078818213 0.003690238343551754951477050781 0 0 0 0 
2407833333.3333334923 0.177612274885177612304687500000 0.008829753845930099487304687500 -0.002023892942816019058227539062 0.003653818508610128922703408350 0 0 0 0 
2408000000.0000000000 0.177115797996520996093750000000 0.008125285618007183074951171875 -0.001777675817720592021942138672 0.003952578641474246978759765625 0 0 0 0 
2408166666.6666665077 0.176446080207824707031250000000 0.007346506696194410324096679688 -0.001794157898984850103493715601 0.003922624047845602035522460938 0 0 0 0 
2408333333.3333334923 0.175994217395782498458700615629 0.006354454439133405685424804688 -0.001476402278058231093763041919 0.003760243766009808020350790869 0 0 0 0 
2408500000.0000000000 0.175354853272438104827557481258 0.005268947687000036239624023438 -0.001534302718937397003173828125 0.003851390676572918891906738281 0 0 0 0 
2408666666.6666665077 0.174407660961151095291299384371 0.004071597009897232055664062500 -0.001287204097025095982792519678 0.003748273709788918928859091650 0 0 0 0 
2408833333.3333334923 0.173746183514595003982705634371 0.003003389341756701903102255713 -0.001163861365057528018951416016 0.003829463385045527978184365381 0 0 0 0 
2409000000.0000000000 0.173004865646362304687500000000 0.001522662932984530925750732422 -0.001068791141733526966692280347 0.003772653173655271963832236182 0 0 0 0 
2409166666.6666665077 0.172534301877021789550781250000 0.000158882263349369195386609488 -0.000965919112786650657653808594 0.003856952069327234788181923975 0 0 0 0 
2409333333.3333334923 0.171766147017478887359942518742 -0.001367922988720237991930317456 -0.000750488368794322013854980469 0.003809181507676839828491210938 0 0 0 0 
2409500000.0000000000 0.170932248234748812576455634371 -0.002948202425613998933079384912 -0.000683067832142114639282226562 0.003746255999431014060974121094 0 0 0 0 
2409666666.6666665077 0.170305982232093811035156250000 -0.004574630875140429410452558301 -0.000586218491662293672561645508 0.003825384192168713049647665869 0 0 0 0 
2409833333.3333334923 0.169672667980194091796875000000 -0.006055700127035379409790039062 -0.000514315674081444740295410156 0.003626224817708135084864951025 0 0 0 0 
2410000000.0000000000 0.169202670454978887359942518742 -0.007967656478285789489746093750 -0.000393099675420671701431274414 0.003808222943916916847229003906 0 0 0 0 
2410166666.6666665077 0.168629512190818786621093750000 -0.009543028660118579864501953125 -0.000234523700783029198646545410 0.003745716530829668045043945312 0 0 0 0 
2410333333.3333334923 0.168342217803001403808593750000 -0.011559700593352319544782069727 -0.000214079656871035695075988770 0.003540621837601066069362021338 0 0 0 0 
2410500000.0000000000 0.167961642146110506912393134371 -0.013469312340021129953404610546 -0.000179783601197414100170135498 0.003647855715826154188868857275 0 0 0 0 
2410666666.6666665077 0.167565792798995999435263115629 -0.015398825518786910665491873829 0.000046702309191459789872169495 0.003519556717947125001194619287 0 0 0 0 
2410833333.3333334923 0.167327538132667513748330634371 -0.017156193032860759389857108204 0.000150267500430345508173266000 0.003498072968795896010157919775 0 0 0 0 
2411000000.0000000000 0.167278930544853210449218750000 -0.019105082377791411663014997657 0.000174311440787278088644304819 0.003418816020712255997898720850 0 0 0 0 
2411166666.6666665077 0.167168974876403808593750000000 -0.021191259846091270446777343750 0.000321646599331870675086975098 0.003288415726274251937866210938 0 0 0 0 
2411333333.3333334923 0.167158141732215909103231865629 -0.023132788017392158508300781250 0.000347495893947780078083592548 0.003427852177992463111877441406 0 0 0 0 
2411500000.0000000000 0.166973233222961398025674384371 -0.025115326046943671489675153907 0.000226265590754337608814239502 0.003392321523278952078578329932 0 0 0 0 
2411666666.6666665077 0.167488485574722290039062500000 -0.027253547683358188974400704296 0.000503959076013416051864624023 0.003376658074557780785801552881 0 0 0 0 
2411833333.3333334923 0.167656674981117304046307481258 -0.028969028964638710021972656250 0.000456181442132219726413172589 0.003317567054182291030883789062 0 0 0 0 
2412000000.0000000000 0.168057650327682495117187500000 -0.030894001945853229867955391796 0.000448156381025910377502441406 0.003403255017474294142482138525 0 0 0 0 
2412166666.6666665077 0.168204277753830011565838731258 -0.032711632549762732768972028907 0.000671620131470263004302978516 0.003234377130866051153895712744 0 0 0 0 
2412333333.3333334923 0.168711826205253601074218750000 -0.034552279859781272197682966407 0.000840043940115720033645629883 0.003273892449215054945704794775 0 0 0 0 
2412500000.0000000000 0.169225946068763705154580634371 -0.036332454532384872436523437500 0.000781647628173232078552246094 0.003261346137151122093200683594 0 0 0 0 
2412666666.6666665077 0.169707968831062289138955634371 -0.038229249417781829833984375000 0.000910143542569130659103393555 0.003387933596968650817871093750 0 0 0 0 
2412833333.3333334923 0.170315176248550387283486884371 -0.039971865713596337055246721093 0.001014331006444991068599081885 0.003155583282932639122009277344 0 0 0 0 
2413000000.0000000000 0.170897260308265713790731865629 -0.041562080383300781250000000000 0.000912307761609554290771484375 0.002925860462710260911228798975 0 0 0 0 
2413166666.6666665077 0.171542555093765286544638115629 -0.043081816285848617553710937500 0.001158981933258474089978862231 0.003076278371736406846287392725 0 0 0 0 
2413333333.3333334923 0.172041028738021906097088731258 -0.044712815433740622783620466407 0.001254540751688181920292519678 0.002980465535074471993687295068 0 0 0 0 
2413500000.0000000000 0.172689333558082608321981865629 -0.046035073697566993022878278907 0.001533183269202708981157612378 0.003025161335244774818420410156 0 0 0 0 
2413666666.6666665077 0.173540756106376703460369981258 -0.047319594770669937133789062500 0.001325397752225399017333984375 0.003008633619174360795262002100 0 0 0 0 
2413833333.3333334923 0.174026384949684087555255018742 -0.048682309687137596820871721093 0.001488946960307657935498881763 0.002921522362157702012303017725 0 0 0 0 
2414000000.0000000000 0.174521669745445306975994981258 -0.049933977425098419189453125000 0.001539140939712523980381631006 0.002877166727557777924778603662 0 0 0 0 
2414166666.6666665077 0.175272032618522588531817518742 -0.051009874790906913066823591407 0.001563493162393569946289062500 0.002785791177302598953247070312 0 0 0 0 
2414333333.3333334923 0.175769507884979303558026231258 -0.052031878381967551494557966407 0.001574517693370581106898642432 0.002957161283120512962341308594 0 0 0 0 
2414500000.0000000000 0.176575779914856012542401231258 -0.052830774337053298950195312500 0.001626334735192358927485800635 0.002733065048232675032374716650 0 0 0 0 
2414666666.6666665077 0.176991924643516512771768134371 -0.053639702498912811279296875000 0.001734847668558358929277729565 0.002684945939108728928806923975 0 0 0 0 
2414833333.3333334923 0.177450075745582608321981865629 -0.054447416216135031963307966407 0.001853545662015676932093954932 0.002517087152227758927586220850 0 0 0 0 
2415000000.0000000000 0.177764743566513089279013115629 -0.054928757250308990478515625000 0.001872474909760057926177978516 0.002558128908276557922363281250 0 0 0 0 
2415166666.6666665077 0.178029641509056091308593750000 -0.055535830557346337055246721093 0.002103774808347225189208984375 0.002504557603970170021057128906 0 0 0 0 
2415333333.3333334923 0.178342685103416387359942518742 -0.056107942014932632446289062500 0.002124971244484186172485351562 0.002547790296375751929042197119 0 0 0 0 
2415500000.0000000000 0.178544551134109497070312500000 -0.056425251066684722900390625000 0.002238064538687468008754111182 0.002267378149554132981541298975 0 0 0 0 
2415666666.6666665077 0.178571507334709195236044365629 -0.056900773197412490844726562500 0.002155771013349295096156454932 0.002301628235727549032924033057 0 0 0 0 
2415833333.3333334923 0.178665220737457303146200615629 -0.057198915630579001689870466407 0.002294160192832351164576865088 0.002392406808212399916407919775 0 0 0 0 
2416000000.0000000000 0.178607165813445989410723768742 -0.057394932955503456806223283593 0.002299389801919459862949990381 0.002205842873081564903259277344 0 0 0 0 
2416166666.6666665077 0.178629621863365201095419365629 -0.057727325707674033428151716407 0.002358410507440567016601562500 0.002222229959443211989161826025 0 0 0 0 
2416333333.3333334923 0.178228303790092496017294365629 -0.057858761399984359741210937500 0.002395862946286797957179404150 0.002182906027883290810825966943 0 0 0 0 
2416500000.0000000000 0.177991688251495389083700615629 -0.058144040405750281597097028907 0.002390017965808511214015341650 0.002122769132256507873535156250 0 0 0 0 
2416666666.6666665077 0.177437990903854397872763115629 -0.058186683803796768188476562500 0.002571657299995421929600381006 0.002084281295537949042079306494 0 0 0 0 
2416833333.3333334923 0.177099823951721191406250000000 -0.058525361120700843120534528907 0.002669170266017318205592490088 0.002046273555606604056117392432 0 0 0 0 
2417000000.0000000000 0.176371648907661410232705634371 -0.058672286570072167133371721093 0.002682776656001805825474404443 0.001817494397982954978942871094 0 0 0 0 
2417166666.6666665077 0.175723850727081298828125000000 -0.058862343430519097065012346093 0.002752094063907862143275595557 0.001707880059257149913190532153 0 0 0 0 
2417333333.3333334923 0.174946501851081903655682481258 -0.058999769389629357074777971093 0.002755571855232119993922568213 0.001678201835602521896362304688 0 0 0 0 
2417500000.0000000000 0.173998698592186001876669365629 -0.059487983584403991699218750000 0.002829186851158738136291503906 0.001665805233642458915710449219 0 0 0 0 
2417666666.6666665077 0.173080340027809087555255018742 -0.059519402682781219482421875000 0.002789218910038470788242959131 0.001376471249386667988420795972 0 0 0 0 
2417833333.3333334923 0.172236770391464205642861884371 -0.059996075928211212158203125000 0.002859776373952627182006835938 0.001443067681975662925122905200 0 0 0 0 
2418000000.0000000000 0.171046495437622098068075615629 -0.060518097132444381713867187500 0.002833607373759150938746786963 0.001311296829953789927838969653 0 0 0 0 
2418166666.6666665077 0.169817566871643094161825615629 -0.060779917985200881958007812500 0.002809477271512151198146201025 0.001249062246643007018445659106 0 0 0 0 
2418333333.3333334923 0.169007271528243990799111884371 -0.061389066278934478759765625000 0.002853013342246412797215127100 0.001038925256580113930943154443 0 0 0 0 
2418500000.0000000000 0.167628958821296691894531250000 -0.061804901808500289916992187500 0.003017509588971734046936035156 0.001143391942605376026750874097 0 0 0 0 
2418666666.6666665077 0.166567176580429104904013115629 -0.062572695314884185791015625000 0.002843587193638085885288857568 0.000928638852201402187347412109 0 0 0 0 
2418833333.3333334923 0.165098875761032104492187500000 -0.063299879431724548339843750000 0.002858897438272833824157714844 0.001006777980364859104156494141 0 0 0 0 
2419000000.0000000000 0.163802936673164395431356865629 -0.064086697995662689208984375000 0.002994153648614882989170693506 0.000907126872334629297256469727 0 0 0 0 
2419166666.6666665077 0.162730693817138699630575615629 -0.064944870769977569580078125000 0.003000450087711215019226074219 0.000727373291738331317901611328 0 0 0 0 
2419333333.3333334923 0.161233693361282404143963731258 -0.065785929560661315917968750000 0.003049750812351704077479697119 0.000669741188175976276397705078 0 0 0 0 
2419500000.0000000000 0.160086914896964999099893134371 -0.066998250782489776611328125000 0.002878953469917178153991699219 0.000880737788975238800048828125 0 0 0 0 
2419666666.6666665077 0.158918067812919588943643134371 -0.068213649094104766845703125000 0.002825117437168955802917480469 0.000723024830222129821777343750 0 0 0 0 
2419833333.3333334923 0.157678574323654202560263115629 -0.069116234779357910156250000000 0.002902682404965161843540810693 0.000632354116532951593399047852 0 0 0 0 
