# Hz S RI R 
2400000000.0000000000 0.157675921916961697677450615629 0.112455479800701099724058451557 0.003974968101829290390014648438 -0.005594814196228981018066406250 0 0 0 0 
2400166666.6666665077 0.157271534204483004470986884371 0.110076062381267603118573106258 0.003041214076802134947535849463 -0.005963278003036975860595703125 0 0 0 0 
2400333333.3333334923 0.156777888536453302581463731258 0.107864990830421503265057481258 0.003205420682206749916076660156 -0.005863834172487258911132812500 0 0 0 0 
2400500000.0000000000 0.156087711453437805175781250000 0.104903012514114393760600307814 0.003825593274086713790893554688 -0.004796977620571851730346679688 0 0 0 0 
2400666666.6666665077 0.155990958213806207854901231258 0.102890446782112093826455634371 0.004241249989718198776245117188 -0.005956211593002080917358398438 0 0 0 0 
2400833333.3333334923 0.155649572610855102539062500000 0.099921643733978271484375000000 0.003039482282474637031555175781 -0.006234924308955669403076171875 0 0 0 0 
2401000000.0000000000 0.155589640140533502776776231258 0.096981242299079895019531250000 0.003371565137058496908900595557 -0.005893680267035961151123046875 0 0 0 0 
2401166666.6666665077 0.155275940895080594161825615629 0.094021171331405639648437500000 0.003028731793165206909179687500 -0.006169826723635196685791015625 0 0 0 0 
2401333333.3333334923 0.155215352773666409591513115629 0.091321662068367004394531250000 0.003154510399326682090759277344 -0.007081815041601657867431640625 0 0 0 0 
2401500000.0000000000 0.155363932251930209060830634371 0.088439352810382843017578125000 0.002961664460599422888514853369 -0.007431823294609785079956054688 0 0 0 0 
2401666666.6666665077 0.155483573675155611892861884371 0.085148237645626068115234375000 0.002715325448662043051478720557 -0.007646131329238414764404296875 0 0 0 0 
2401833333.3333334923 0.155570983886718805511151231258 0.082060754299163818359375000000 0.002269019372761249975917197119 -0.007917582057416439056396484375 0 0 0 0 
2402000000.0000000000 0.156107097864151000976562500000 0.079044587910175323486328125000 0.001927485223859549002406454932 -0.007953359745442867279052734375 0 0 0 0 
2402166666.6666665077 0.156664401292800903320312500000 0.076208427548408508300781250000 0.001392820733599364974378276294 -0.008045133203268051147460937500 0 0 0 0 
2402333333.3333334923 0.157312899827957208831463731258 0.073022395372390747070312500000 0.000880089530255645513534545898 -0.008343277499079704284667968750 0 0 0 0 
2402500000.0000000000 0.158394515514373807052450615629 0.070271991193294525146484375000 0.000574779231101274490356445312 -0.008396309800446033477783203125 0 0 0 0 
2402666666.6666665077 0.159075796604156494140625000000 0.067646317183971405029296875000 0.000011427999197621829807758331 -0.008438404649496078491210937500 0 0 0 0 
2402833333.3333334923 0.160348966717720003982705634371 0.064790993928909301757812500000 -0.000555678445380181074142456055 -0.008225400000810623168945312500 0 0 0 0 
2403000000.0000000000 0.161618605256080599685830634371 0.061940830200910568237304687500 -0.000985167222097516059875488281 -0.008131317794322967529296875000 0 0 0 0 
2403166666.6666665077 0.163135707378387506683026231258 0.059362955391407012939453125000 -0.001366963260807096958160400391 -0.008093019947409629821777343750 0 0 0 0 
2403333333.3333334923 0.164571151137351989746093750000 0.056644026190042502666432966407 -0.001838072203099728064296103369 -0.007846157997846603393554687500 0 0 0 0 
2403500000.0000000000 0.166294634342193603515625000000 0.054294593632221221923828125000 -0.002432345645502210097071982275 -0.007654261775314807891845703125 0 0 0 0 
2403666666.6666665077 0.167977467179298400878906250000 0.052126437425613403320312500000 -0.002565213944762945175170898438 -0.007200815249234437942504882812 0 0 0 0 
2403833333.3333334923 0.169537067413330105880575615629 0.049857251346111297607421875000 -0.002908586524426937103271484375 -0.006970535498112440109252929688 0 0 0 0 
2404000000.0000000000 0.171273246407508905608807481258 0.047662995755672461772878278907 -0.003259775927290319962742470850 -0.006651789881289005279541015625 0 0 0 0 
2404166666.6666665077 0.173186019062995910644531250000 0.045779652893543243408203125000 -0.003468962386250495910644531250 -0.006292903330177068710327148438 0 0 0 0 
2404333333.3333334923 0.174942418932914706131143134371 0.043953660875558853149414062500 -0.003570218803361057801487588037 -0.006068145390599966049194335938 0 0 0 0 
2404500000.0000000000 0.176871806383132906814736884371 0.042311321943998336791992187500 -0.003581042401492596106288290869 -0.005614928435534238815307617188 0 0 0 0 
2404666666.6666665077 0.178608953952789306640625000000 0.040916636586189270019531250000 -0.003698055865243076844456338037 -0.005326978396624326705932617188 0 0 0 0 
2404833333.3333334923 0.180552572011947604080361884371 0.039615802466869347309152971093 -0.003737800754606723785400390625 -0.004925240762531757354736328125 0 0 0 0 
2405000000.0000000000 0.182161748409271212478799384371 0.038675323128700263286550153907 -0.003723806235939263863804482568 -0.004851358942687510576730058887 0 0 0 0 
2405166666.6666665077 0.183921724557876586914062500000 0.037775833159685141826589216407 -0.003691072110086679892299033057 -0.004712745081633329391479492188 0 0 0 0 
2405333333.3333334923 0.185565993189811706542968750000 0.037012092769145972515065778907 -0.003714337712153791947605752100 -0.004413824528455734252929687500 0 0 0 0 
2405500000.0000000000 0.187315091490745488922442518742 0.036399628967046737670898437500 -0.003867713501676917076110839844 -0.004226817283779382705688476562 0 0 0 0 
2405666666.6666665077 0.188972622156143188476562500000 0.035868305712938308715820312500 -0.003841064404696226119995117188 -0.004053477663546800613403320312 0 0 0 0 
2405833333.3333334923 0.190382719039916992187500000000 0.035712167620658881450612653907 -0.003894696012139319939854287256 -0.003967409022152423858642578125 0 0 0 0 
2406000000.0000000000 0.191837012767791803558026231258 0.035572662949562072753906250000 -0.003823346691206098036525107275 -0.003844397608190774917602539062 0 0 0 0 
2406166666.6666665077 0.193137228488922091385049384371 0.035319928079843521118164062500 -0.003810707014054059982299804688 -0.003727507311850786209106445312 0 0 0 0 
2406333333.3333334923 0.194446861743927001953125000000 0.035438846796751022338867187500 -0.004000808577984572324270917676 -0.003485766472294927077052451025 0 0 0 0 
2406500000.0000000000 0.195767194032669095138388115629 0.035491615533828742290456403907 -0.003989988006651402387137128613 -0.003311566077172756195068359375 0 0 0 0 
2406666666.6666665077 0.196651294827461187164630018742 0.035586982965469360351562500000 -0.003736449172720313072204589844 -0.003208936192095280127284384619 0 0 0 0 
2406833333.3333334923 0.197502851486206110198651231258 0.035872127860784530639648437500 -0.004068059381097555160522460938 -0.003152024699375032944920205225 0 0 0 0 
2407000000.0000000000 0.198062270879745511154013115629 0.036172900348901748657226562500 -0.003951055463403463363647460938 -0.002920506987720727920532226562 0 0 0 0 
2407166666.6666665077 0.198796868324279812911825615629 0.036247618496417999267578125000 -0.004013316240161657333374023438 -0.002751732477918266816380166162 0 0 0 0 
2407333333.3333334923 0.199192062020301791092080634371 0.036631595343351357196848283593 -0.004048271570354700088500976562 -0.002647601766511797904968261719 0 0 0 0 
2407500000.0000000000 0.199274986982345608810263115629 0.037042971700429923320729841407 -0.004016133490949869155883789062 -0.002667884575203061103820800781 0 0 0 0 
2407666666.6666665077 0.199548512697219904143963731258 0.037242531776428222656250000000 -0.003965946845710278424734784863 -0.002617164980620145797729492188 0 0 0 0 
2407833333.3333334923 0.199400678277015713790731865629 0.037508267909288413310964216407 -0.003908456303179264068603515625 -0.002434597350656985802891396631 0 0 0 0 
2408000000.0000000000 0.199535235762596102615518134371 0.037575259804725646972656250000 -0.003752912161871790885925292969 -0.002259526867419480843784951318 0 0 0 0 
2408166666.6666665077 0.199028000235557611663494981258 0.037935130298137671733815778907 -0.003728845855221151871922158350 -0.002190955448895692825317382812 0 0 0 0 
2408333333.3333334923 0.198719799518585205078125000000 0.037681225687265403057057966407 -0.003687268588691949844360351562 -0.002000514883548020882847451318 0 0 0 0 
2408500000.0000000000 0.198114842176437405685263115629 0.037820748984813690185546875000 -0.003571798559278250174281454932 -0.002050985349342226982116699219 0 0 0 0 
2408666666.6666665077 0.197654619812965393066406250000 0.037694517523050308227539062500 -0.003531666705384850935695029150 -0.002055986318737268014195107568 0 0 0 0 
2408833333.3333334923 0.196894213557243402679119981258 0.037361316382884979248046875000 -0.003577376948669552803039550781 -0.001948796678334474997279501807 0 0 0 0 
2409000000.0000000000 0.195949047803878811935263115629 0.036783322691917419433593750000 -0.003499198937788606123683310400 -0.001940214075148106055018759619 0 0 0 0 
2409166666.6666665077 0.194958463311195401290731865629 0.036279678344726562500000000000 -0.003444657428190112113952636719 -0.001944378949701786041259765625 0 0 0 0 
2409333333.3333334923 0.193923264741897610763388115629 0.035576183348894119262695312500 -0.003454283811151980920078896631 -0.002002898603677750067469931494 0 0 0 0 
2409500000.0000000000 0.192577660083770807464276231258 0.034726683050394058227539062500 -0.003587687853723763985874795068 -0.001938590547069906971575092847 0 0 0 0 
2409666666.6666665077 0.191616356372833307464276231258 0.033682700246572501445729841407 -0.003401009598746895790100097656 -0.001956177409738301797154091943 0 0 0 0 
2409833333.3333334923 0.190215066075325012207031250000 0.032511848956346511840820312500 -0.003707126947119832038879394531 -0.001939741428941488049150776440 0 0 0 0 
2410000000.0000000000 0.189105451107025201995526231258 0.031279493123292922973632812500 -0.003443310270085930824279785156 -0.002033922122791409926173544775 0 0 0 0 
2410166666.6666665077 0.187781751155853299239950615629 0.029764255508780479431152343750 -0.003532931674271821975708007812 -0.002053949283435941176173544775 0 0 0 0 
2410333333.3333334923 0.186580136418342590332031250000 0.028195457533001899719238281250 -0.003498292760923504829406738281 -0.001982297282665967941284179688 0 0 0 0 
2410500000.0000000000 0.185386478900909396072549384371 0.026553690433502200735071951954 -0.003595586400479077859165810693 -0.002040333580225706100463867188 0 0 0 0 
2410666666.6666665077 0.184226378798484802246093750000 0.024358106777071949350377266796 -0.003729550633579493002650595557 -0.002030530711635946793797158350 0 0 0 0 
2410833333.3333334923 0.183100789785385104080361884371 0.022382047027349468576451485546 -0.003681850852444767951965332031 -0.002084016334265470938441611182 0 0 0 0 
2411000000.0000000000 0.182104513049125699142294365629 0.020144877955317500722864920704 -0.003704386297613381905796670068 -0.002053514122962952093837118994 0 0 0 0 
2411166666.6666665077 0.180913835763931302169638115629 0.018129898235201839101771170704 -0.003879903815686703161952353369 -0.002275901148095726966857910156 0 0 0 0 
2411333333.3333334923 0.180101394653320312500000000000 0.015581855550408359872838204296 -0.004057618789374828338623046875 -0.002361019840463995933532714844 0 0 0 0 
2411500000.0000000000 0.179434195160865811446981865629 0.013073896057903770101527030079 -0.004116744268685579299926757812 -0.002359767444431782202479697119 0 0 0 0 
2411666666.6666665077 0.178865537047386197189169365629 0.010878958739340310532539568555 -0.004365615081042051315307617188 -0.002336128614842892126796103369 0 0 0 0 
2411833333.3333334923 0.178060114383697509765625000000 0.008501470088958740234375000000 -0.004535429645329713821411132812 -0.002388694323599338965175009619 0 0 0 0 
2412000000.0000000000 0.178018599748611505706463731258 0.005632799118757247924804687500 -0.004761903081089258193969726562 -0.002310773124918342070338583838 0 0 0 0 
2412166666.6666665077 0.177695319056510897537393134371 0.003331949701532721953151083838 -0.004952808376401662826538085938 -0.002228974131867289976832724463 0 0 0 0 
2412333333.3333334923 0.177531272172927911956463731258 0.000595688296016305685043334961 -0.005167170427739620208740234375 -0.002083632629364728927612304688 0 0 0 0 
2412500000.0000000000 0.177803814411163302322549384371 -0.002103307051584124998805380713 -0.005513332784175872802734375000 -0.002013420453295112089869833838 0 0 0 0 
2412666666.6666665077 0.178164795041084289550781250000 -0.004903756547719240188598632812 -0.005691912956535816192626953125 -0.001755789853632450103759765625 0 0 0 0 
2412833333.3333334923 0.178603470325469998458700615629 -0.007418058346956968307495117188 -0.005995974410325288772583007812 -0.001646794262342154979705810547 0 0 0 0 
2413000000.0000000000 0.179159596562385586837606865629 -0.010035924613475799560546875000 -0.006235965527594090375418378613 -0.001433842116966844038722372900 0 0 0 0 
2413166666.6666665077 0.179574012756347711761151231258 -0.012605516240000729996650896680 -0.006424047984182834625244140625 -0.001100230612792074897168803638 0 0 0 0 
2413333333.3333334923 0.180553525686264010330361884371 -0.015348367393016820389717302930 -0.006671627517789602279663085938 -0.000929482863284647464752197266 0 0 0 0 
2413500000.0000000000 0.181550204753875704666299384371 -0.017723433673381808889368826954 -0.006828048266470432281494140625 -0.000404694786993786692619323730 0 0 0 0 
2413666666.6666665077 0.182529181241989107986611884371 -0.020261950790882110595703125000 -0.007035607006400823593139648438 -0.000104832666693255305290222168 0 0 0 0 
2413833333.3333334923 0.183575645089149502853231865629 -0.022498236969113349914550781250 -0.007030406966805458068847656250 0.000226827032747678512900751935 0 0 0 0 
2414000000.0000000000 0.184742078185081509689169365629 -0.024807482957839969289759451954 -0.007070352323353291425223066113 0.000628324341960251331329345703 0 0 0 0 
2414166666.6666665077 0.185925096273422213455361884371 -0.026980921626090999948521798046 -0.006923329085111618041992187500 0.001155495410785079002380371094 0 0 0 0 
2414333333.3333334923 0.187322765588760403732138115629 -0.029166735708713531494140625000 -0.006981281563639640808105468750 0.001427107956260442950605082935 0 0 0 0 
2414500000.0000000000 0.188657656311988802810830634371 -0.031044911593198779714564139454 -0.006681902799755334854125976562 0.001731323194690048911451030200 0 0 0 0 
2414666666.6666665077 0.189987808465957613845986884371 -0.032849669456481926654856096093 -0.006604894530028104782104492188 0.002160880947485566139221191406 0 0 0 0 
2414833333.3333334923 0.191333621740341186523437500000 -0.034483857452869422222097028907 -0.006415644660592079162597656250 0.002540575806051493124720908057 0 0 0 0 
2415000000.0000000000 0.192538589239120511154013115629 -0.036057721823453903198242187500 -0.006282754242420197400564862988 0.002705416409298778013942099463 0 0 0 0 
2415166666.6666665077 0.194097176194191006759481865629 -0.037416402250528342510182966407 -0.006171068176627159118652343750 0.002842253539711236953735351562 0 0 0 0 
2415333333.3333334923 0.195545971393585205078125000000 -0.038739018142223358154296875000 -0.005900783929973840713500976562 0.003049787366762756867649697412 0 0 0 0 
2415500000.0000000000 0.196849867701530512054119981258 -0.039472877979278557514231096093 -0.005743987858295440673828125000 0.003226881148293613953831338037 0 0 0 0 
2415666666.6666665077 0.198208212852477999588174384371 -0.040608130395412452007253278907 -0.005571346264332532882690429688 0.003469693241640924973728798975 0 0 0 0 
2415833333.3333334923 0.199445322155952509124432481258 -0.041397769004106521606445312500 -0.005417881067842245101928710938 0.003806876018643379211425781250 0 0 0 0 
2416000000.0000000000 0.200402438640594510177450615629 -0.042150311172008507465402971093 -0.005392121616750955581665039062 0.003831118810921906991245888818 0 0 0 0 
2416166666.6666665077 0.201523721218109103103799384371 -0.042833268642425537109375000000 -0.005155542399734258651733398438 0.004086489323526620864868164062 0 0 0 0 
2416333333.3333334923 0.202444702386856106857138115629 -0.043149359524250030517578125000 -0.004916012752801179885864257812 0.004305721260607242584228515625 0 0 0 0 
2416500000.0000000000 0.203236013650894192794638115629 -0.043458342552185058593750000000 -0.004792502149939537048339843750 0.004595857579261065396780683301 0 0 0 0 
2416666666.6666665077 0.203914090991020202636718750000 -0.043873187154531478881835937500 -0.004693276714533567428588867188 0.004669930785894393920898437500 0 0 0 0 
2416833333.3333334923 0.204442605376243591308593750000 -0.043810699135065078735351562500 -0.004351829178631305694580078125 0.004923042375594378385061933301 0 0 0 0 
2417000000.0000000000 0.204961776733398409744424384371 -0.043897330760955810546875000000 -0.004031321033835411071777343750 0.004932463169097900390625000000 0 0 0 0 
2417166666.6666665077 0.204907372593879699707031250000 -0.043629039078950881958007812500 -0.003778287442401051954982138525 0.005221827886998653411865234375 0 0 0 0 
2417333333.3333334923 0.205167457461357088943643134371 -0.043478980660438537597656250000 -0.003645985387265681786778115381 0.005200316663831472396850585938 0 0 0 0 
2417500000.0000000000 0.205109238624572809417401231258 -0.043286245316267006610910783593 -0.003200607141479849815368652344 0.005333548877388238906860351562 0 0 0 0 
2417666666.6666665077 0.204866826534271212478799384371 -0.042956795543432242656667341407 -0.002960431156679987907409667969 0.005421778652817010879516601562 0 0 0 0 
2417833333.3333334923 0.204676598310470608810263115629 -0.042539842426776892925222028907 -0.002715501002967358069178915869 0.005489508621394634246826171875 0 0 0 0 
2418000000.0000000000 0.204253673553466796875000000000 -0.042109157890081412578542341407 -0.002470981562510132789611816406 0.005331008695065975189208984375 0 0 0 0 
2418166666.6666665077 0.203624591231346102615518134371 -0.041753076016902916645090471093 -0.002181054325774312019348144531 0.005361665505915880203247070312 0 0 0 0 
2418333333.3333334923 0.202966496348380986969317518742 -0.041370332241058349609375000000 -0.002027100883424282073974609375 0.005389442201703786849975585938 0 0 0 0 
2418500000.0000000000 0.202116742730140713790731865629 -0.041119229048490517353098283593 -0.001677448279224335930467915112 0.005277003161609172821044921875 0 0 0 0 
2418666666.6666665077 0.201333254575729397872763115629 -0.040584396570920937274973283593 -0.001642972347326576926587748950 0.005221975501626729965209960938 0 0 0 0 
2418833333.3333334923 0.200093910098075894454794365629 -0.040493890643119812011718750000 -0.001373474253341556029078818213 0.005185297690331935882568359375 0 0 0 0 
2419000000.0000000000 0.199017077684402493575888115629 -0.040385350584983832622487653907 -0.001155340461991726918461464990 0.005069741513580083847045898438 0 0 0 0 
2419166666.6666665077 0.197612687945365905761718750000 -0.040370754897594451904296875000 -0.000996136688627302646636962891 0.005011713597923517227172851562 0 0 0 0 
2419333333.3333334923 0.196188613772392300704794365629 -0.040486399084329612041432966407 -0.000836315564811229705810546875 0.004822500515729188919067382812 0 0 0 0 
2419500000.0000000000 0.194696322083473205566406250000 -0.040594268590211868286132812500 -0.000809708784800022840499877930 0.004661931190639734268188476562 0 0 0 0 
2419666666.6666665077 0.193073198199272211272869981258 -0.041129678487777709960937500000 -0.000632495037280023097991943359 0.004802837502211332321166992188 0 0 0 0 
2419833333.3333334923 0.191172018647193908691406250000 -0.041442368179559707641601562500 -0.000628359848633408546447753906 0.004598392639309167861938476562 0 0 0 0 
