# Version 1.00
#
freq[Hz];re:Trc1_S11;im:Trc1_S11;re:Trc2_S21;im:Trc2_S21;
2.400000000000000E+009;1.573852300643921E-001;6.292200088500977E-002;-2.078441437333822E-003;-4.617908271029592E-004;
2.400166666666667E+009;1.573563069105148E-001;6.129416823387146E-002;-2.160795731469989E-003;-4.285353643354029E-004;
2.400333333333334E+009;1.572868674993515E-001;5.938935279846191E-002;-1.995663857087493E-003;-2.554240345489234E-004;
2.400500000000000E+009;1.571451425552368E-001;5.743938684463501E-002;-2.059547929093242E-003;-2.374556497670710E-004;
2.400666666666667E+009;1.571363210678101E-001;5.547712370753288E-002;-2.038688631728292E-003;-1.770385715644807E-004;
2.400833333333334E+009;1.571988612413406E-001;5.334548279643059E-002;-1.918743946589530E-003;-8.617862476967275E-005;
2.401000000000000E+009;1.573443561792374E-001;5.117059499025345E-002;-1.915545668452978E-003;-2.249812096124515E-004;
2.401166666666667E+009;1.576526314020157E-001;4.905884340405464E-002;-1.926545752212405E-003;-9.224123641615734E-005;
2.401333333333334E+009;1.576372683048248E-001;4.712127894163132E-002;-1.997422659769654E-003;-2.309792762389407E-005;
2.401500000000000E+009;1.580157428979874E-001;4.498909786343575E-002;-1.860560616478324E-003;1.242219332198147E-005;
2.401666666666667E+009;1.584004014730454E-001;4.323912039399147E-002;-1.889870734885335E-003;-6.305074202828109E-005;
2.401833333333334E+009;1.586472690105438E-001;4.084417596459389E-002;-1.938807428814471E-003;1.892694308480714E-005;
2.402000000000000E+009;1.590874046087265E-001;3.905513510107994E-002;-1.828538253903389E-003;3.688123979372904E-005;
2.402166666666667E+009;1.598556041717529E-001;3.700051829218864E-002;-1.807746826671064E-003;-9.630307613406330E-005;
2.402333333333334E+009;1.601926982402802E-001;3.511254116892815E-002;-1.761559164151549E-003;-1.976665771508124E-005;
2.402500000000000E+009;1.610928773880005E-001;3.346166759729385E-002;-1.717545557767153E-003;-2.036852310993709E-005;
2.402666666666667E+009;1.620306968688965E-001;3.147164732217789E-002;-1.677010790444911E-003;1.065392425516620E-004;
2.402833333333334E+009;1.627451032400131E-001;2.986444346606731E-002;-1.742570311762393E-003;1.638904650462791E-004;
2.403000000000000E+009;1.633828580379486E-001;2.808748558163643E-002;-1.794792595319450E-003;1.138228471972980E-004;
2.403166666666667E+009;1.644152849912643E-001;2.653810381889343E-002;-1.797450473532081E-003;9.360424883197993E-005;
2.403333333333334E+009;1.653552800416946E-001;2.515575848519802E-002;-1.869467669166625E-003;1.321546733379364E-004;
2.403500000000000E+009;1.660931110382080E-001;2.392083406448364E-002;-1.734479330480099E-003;2.494935470167548E-004;
2.403666666666667E+009;1.670510768890381E-001;2.227214537560940E-002;-1.760819461196661E-003;2.827126299962401E-004;
2.403833333333334E+009;1.682259887456894E-001;2.104492858052254E-002;-1.801233855076134E-003;4.172605695202947E-004;
2.404000000000000E+009;1.694283932447434E-001;2.007962577044964E-002;-1.678591477684677E-003;4.502606461755931E-004;
2.404166666666667E+009;1.702693402767181E-001;1.892228052020073E-002;-1.839389093220234E-003;6.175995804369450E-004;
2.404333333333334E+009;1.712503135204315E-001;1.786106266081333E-002;-1.887889346107841E-003;4.698296543210745E-004;
2.404500000000000E+009;1.721215695142746E-001;1.685334742069244E-002;-1.826653024181724E-003;5.232144612818956E-004;
2.404666666666667E+009;1.731231361627579E-001;1.611785590648651E-002;-1.727836672216654E-003;6.806261371821165E-004;
2.404833333333334E+009;1.741426140069962E-001;1.534794270992279E-002;-1.775935874320567E-003;6.081186584196985E-004;
2.405000000000000E+009;1.750287413597107E-001;1.471647433936596E-002;-1.611770014278591E-003;8.119976846501231E-004;
2.405166666666667E+009;1.758645027875900E-001;1.402864232659340E-002;-1.693975762464106E-003;8.147800108417869E-004;
2.405333333333334E+009;1.766967177391052E-001;1.343981828540564E-002;-1.571454806253314E-003;8.490647887811065E-004;
2.405500000000000E+009;1.773960143327713E-001;1.297900080680847E-002;-1.678554224781692E-003;9.669202845543623E-004;
2.405666666666667E+009;1.780619323253632E-001;1.251645851880312E-002;-1.641477225348353E-003;9.364581783302128E-004;
2.405833333333334E+009;1.784673035144806E-001;1.230260450392962E-002;-1.661610091105104E-003;1.117271836847067E-003;
2.406000000000000E+009;1.792384982109070E-001;1.175236329436302E-002;-1.484521431848407E-003;1.206035376526415E-003;
2.406166666666667E+009;1.795526295900345E-001;1.168501842767000E-002;-1.504397252574563E-003;1.215729396790266E-003;
2.406333333333334E+009;1.801498234272003E-001;1.137216109782457E-002;-1.202031504362822E-003;1.185501692816615E-003;
2.406500000000000E+009;1.803115755319595E-001;1.087862905114889E-002;-1.063280389644206E-003;1.253274385817349E-003;
2.406666666666667E+009;1.804615408182144E-001;1.075513754040003E-002;-1.090976991690695E-003;1.427069539204240E-003;
2.406833333333334E+009;1.807871609926224E-001;1.037555932998657E-002;-1.013868255540729E-003;1.515959505923092E-003;
2.407000000000000E+009;1.808314025402069E-001;9.919528849422932E-003;-9.072207612916827E-004;1.379340304993093E-003;
2.407166666666667E+009;1.808485835790634E-001;9.753256104886532E-003;-8.661049650982022E-004;1.408319687470794E-003;
2.407333333333334E+009;1.807060688734055E-001;9.391634725034237E-003;-8.884718990884721E-004;1.284098252654076E-003;
2.407500000000000E+009;1.804612874984741E-001;8.999880403280258E-003;-7.764594629406929E-004;1.350709004327655E-003;
2.407666666666667E+009;1.802263259887695E-001;8.585168980062008E-003;-7.379940361715853E-004;1.253993832506239E-003;
2.407833333333334E+009;1.798730194568634E-001;7.956388406455517E-003;-6.044274778105319E-004;1.127057010307908E-003;
2.408000000000000E+009;1.794840544462204E-001;7.224527187645435E-003;-6.605535745620728E-004;1.372696133330464E-003;
2.408166666666667E+009;1.790549755096436E-001;6.815038621425629E-003;-5.964707816019654E-004;1.142353401519358E-003;
2.408333333333334E+009;1.786702573299408E-001;6.153519731014967E-003;-5.898424424231052E-004;1.182591891847551E-003;
2.408500000000000E+009;1.780098974704742E-001;5.320029798895121E-003;-4.608723975252360E-004;1.258225762285292E-003;
2.408666666666667E+009;1.772554367780685E-001;4.395517054945231E-003;-4.713362141046673E-004;1.035909634083509E-003;
2.408833333333334E+009;1.767443269491196E-001;3.337627742439508E-003;-5.282016354613006E-004;1.058852649293840E-003;
2.409000000000000E+009;1.759582012891769E-001;2.333413111045957E-003;-3.943975898437202E-004;1.110766548663378E-003;
2.409166666666667E+009;1.753837466239929E-001;1.245275954715908E-003;-3.571186389308423E-004;9.036610135808587E-004;
2.409333333333334E+009;1.748923063278198E-001;-3.527637818478979E-005;-4.431131819728762E-004;9.574178839102387E-004;
2.409500000000000E+009;1.739993095397949E-001;-1.520790508948267E-003;-4.911640426144004E-004;9.772332850843668E-004;
2.409666666666667E+009;1.732380837202072E-001;-2.775047207251191E-003;-3.617572656366974E-004;9.937421418726444E-004;
2.409833333333334E+009;1.724207401275635E-001;-4.227592144161463E-003;-3.589979314710945E-004;1.057780813425779E-003;
2.410000000000000E+009;1.719514578580856E-001;-5.751278251409531E-003;-4.920735955238342E-004;9.998597670346499E-004;
2.410166666666667E+009;1.712670028209686E-001;-7.331800181418657E-003;-3.793689829763025E-004;9.477705461904407E-004;
2.410333333333334E+009;1.704845279455185E-001;-9.070865809917450E-003;-4.281346627976745E-004;1.029324834235013E-003;
2.410500000000000E+009;1.700414121150971E-001;-1.087848097085953E-002;-4.589608288370073E-004;1.116264029406011E-003;
2.410666666666667E+009;1.693168431520462E-001;-1.266605686396360E-002;-4.404935752972961E-004;1.048227306455374E-003;
2.410833333333334E+009;1.690842956304550E-001;-1.444380730390549E-002;-6.376034580171108E-004;1.078390050679445E-003;
2.411000000000000E+009;1.687660664319992E-001;-1.631692424416542E-002;-4.441596393007785E-004;1.000937772914767E-003;
2.411166666666667E+009;1.682523339986801E-001;-1.836626231670380E-002;-3.011038352269679E-004;9.729309240356088E-004;
2.411333333333334E+009;1.681242883205414E-001;-2.009279653429985E-002;-3.791059425566346E-004;9.236982441507280E-004;
2.411500000000000E+009;1.678640246391296E-001;-2.230179496109486E-002;-3.981956688221544E-004;1.106808660551906E-003;
2.411666666666667E+009;1.679338663816452E-001;-2.413502708077431E-002;-4.061898798681796E-004;8.927094750106335E-004;
2.411833333333334E+009;1.678709983825684E-001;-2.596035972237587E-002;-3.241070662625134E-004;9.916397975757718E-004;
2.412000000000000E+009;1.679704636335373E-001;-2.810084074735642E-002;-4.425172810442746E-004;9.873746894299984E-004;
2.412166666666667E+009;1.678444147109985E-001;-3.006184846162796E-002;-3.727554867509753E-004;1.100725843571127E-003;
2.412333333333334E+009;1.683613955974579E-001;-3.198988735675812E-002;-4.461061907932162E-004;1.266723498702049E-003;
2.412500000000000E+009;1.683358252048492E-001;-3.370893746614456E-002;-2.692725975066423E-004;1.072623766958714E-003;
2.412666666666667E+009;1.687153726816177E-001;-3.569067642092705E-002;-2.454908099025488E-004;1.045941491611302E-003;
2.412833333333334E+009;1.692246198654175E-001;-3.758263960480690E-002;-3.290599561296403E-004;1.199812744744122E-003;
2.413000000000000E+009;1.695309281349182E-001;-3.945866227149963E-002;-3.546283987816423E-004;1.213043113239110E-003;
2.413166666666667E+009;1.700076311826706E-001;-4.107901081442833E-002;-1.744365436024964E-004;1.267867628484964E-003;
2.413333333333334E+009;1.703999042510986E-001;-4.282890632748604E-002;-1.799214805942029E-004;1.139136496931315E-003;
2.413500000000000E+009;1.710654050111771E-001;-4.449485987424851E-002;-2.383043320151046E-004;1.223799306899309E-003;
2.413666666666667E+009;1.717256903648377E-001;-4.604915902018547E-002;-1.842647907324135E-004;9.968463564291596E-004;
2.413833333333334E+009;1.722007840871811E-001;-4.756598174571991E-002;-1.743303873809055E-004;1.071334001608193E-003;
2.414000000000000E+009;1.726851463317871E-001;-4.898838698863983E-002;-8.106984023470432E-005;9.455592953599989E-004;
2.414166666666667E+009;1.734418272972107E-001;-5.008952692151070E-002;-2.657348704815377E-005;1.190676004625857E-003;
2.414333333333334E+009;1.739305704832077E-001;-5.151539295911789E-002;-1.374745042994618E-004;1.066586002707481E-003;
2.414500000000000E+009;1.746111214160919E-001;-5.254159495234489E-002;-1.056754535966320E-005;1.068707555532455E-003;
2.414666666666667E+009;1.750950515270233E-001;-5.335740000009537E-002;1.312292006332427E-004;1.291655353270471E-003;
2.414833333333334E+009;1.754549443721771E-001;-5.456141754984856E-002;-1.809914247132838E-004;1.176880672574043E-003;
2.415000000000000E+009;1.759485900402069E-001;-5.541871860623360E-002;4.413993883645162E-005;1.121619716286659E-003;
2.415166666666667E+009;1.764405965805054E-001;-5.609449371695519E-002;1.016623209579848E-004;1.127094961702824E-003;
2.415333333333334E+009;1.769954264163971E-001;-5.680967867374420E-002;9.921314631355926E-005;1.200824510306120E-003;
2.415500000000000E+009;1.773594170808792E-001;-5.737083777785301E-002;6.862474401714280E-005;1.089232158847153E-003;
2.415666666666667E+009;1.774903684854507E-001;-5.792330205440521E-002;1.056338951457292E-004;1.079190638847649E-003;
2.415833333333334E+009;1.778729856014252E-001;-5.843622237443924E-002;1.951949961949140E-004;1.123304478824139E-003;
2.416000000000000E+009;1.777449846267700E-001;-5.882369726896286E-002;1.749924267642200E-004;1.062522875145078E-003;
2.416166666666667E+009;1.781247705221176E-001;-5.915540084242821E-002;1.290948857786134E-004;1.102430047467351E-003;
2.416333333333334E+009;1.779133081436157E-001;-5.955062806606293E-002;9.805318404687569E-005;9.452254162169993E-004;
2.416500000000000E+009;1.779295802116394E-001;-5.978533998131752E-002;2.878982922993600E-004;1.096448395401239E-003;
2.416666666666667E+009;1.776109486818314E-001;-6.001899018883705E-002;3.967571319662966E-005;1.036634319461882E-003;
2.416833333333334E+009;1.775263547897339E-001;-6.032682582736015E-002;1.556701463414356E-004;1.026736106723547E-003;
2.417000000000000E+009;1.769966781139374E-001;-6.065139919519424E-002;8.472533227177337E-005;9.490663651376963E-004;
2.417166666666667E+009;1.764074265956879E-001;-6.058268994092941E-002;7.151512545533478E-005;1.037672976963222E-003;
2.417333333333334E+009;1.760520786046982E-001;-6.081794202327728E-002;1.337559515377507E-004;1.059856847859919E-003;
2.417500000000000E+009;1.755087971687317E-001;-6.120058521628380E-002;2.008719893638045E-004;1.041620736941695E-003;
2.417666666666667E+009;1.747650355100632E-001;-6.126176193356514E-002;7.253499643411487E-005;1.049039303325117E-003;
2.417833333333334E+009;1.740063428878784E-001;-6.150924786925316E-002;2.215729473391548E-004;1.176420948468149E-003;
2.418000000000000E+009;1.729765832424164E-001;-6.199242919683456E-002;1.075925320037641E-004;1.036696135997772E-003;
2.418166666666667E+009;1.718763709068298E-001;-6.208111718297005E-002;2.380657242611051E-004;1.086396281607449E-003;
2.418333333333334E+009;1.712822765111923E-001;-6.257369369268417E-002;2.937976387329400E-004;1.090185134671629E-003;
2.418500000000000E+009;1.702187806367874E-001;-6.289323419332504E-002;1.839283213485032E-004;1.181450323201716E-003;
2.418666666666667E+009;1.691519469022751E-001;-6.341642886400223E-002;1.677855470916256E-004;1.243206905201078E-003;
2.418833333333334E+009;1.677808910608292E-001;-6.396195292472839E-002;1.146106660598889E-004;1.130125951021910E-003;
2.419000000000000E+009;1.666161417961121E-001;-6.446284800767899E-002;1.447829126846045E-004;1.265558879822493E-003;
2.419166666666667E+009;1.654753237962723E-001;-6.526991724967957E-002;2.048929600277916E-004;1.345197204500437E-003;
2.419333333333334E+009;1.639700531959534E-001;-6.572826951742172E-002;1.534112670924515E-004;1.197932288050652E-003;
2.419500000000000E+009;1.629488021135330E-001;-6.680291891098023E-002;4.187378799542785E-004;1.262309495359659E-003;
2.419666666666667E+009;1.617617309093475E-001;-6.762252002954483E-002;2.936999371740967E-004;1.443473855033517E-003;
2.419833333333334E+009;1.605348587036133E-001;-6.851430982351303E-002;3.361449053045362E-004;1.548648346215487E-003;
2.420000000000000E+009;1.594836413860321E-001;-6.973996013402939E-002;3.309818857815117E-004;1.673580496571958E-003;
2.420166666666667E+009;1.581581681966782E-001;-7.069104164838791E-002;3.743204579222947E-004;1.668829005211592E-003;
2.420333333333334E+009;1.572560518980026E-001;-7.181660830974579E-002;4.689116030931473E-004;1.635832828469575E-003;
2.420500000000000E+009;1.564066708087921E-001;-7.314283400774002E-002;5.683146882802248E-004;1.769857131876051E-003;
2.420666666666667E+009;1.552448868751526E-001;-7.439794391393662E-002;4.685216408688575E-004;1.617283793166280E-003;
2.420833333333334E+009;1.544128060340881E-001;-7.604282349348068E-002;6.428824854083359E-004;1.643774681724608E-003;
2.421000000000000E+009;1.536469310522080E-001;-7.741583883762360E-002;6.581465713679791E-004;1.811502967029810E-003;
2.421166666666667E+009;1.527903974056244E-001;-7.892416417598724E-002;8.959108963608742E-004;1.944954739883542E-003;
2.421333333333334E+009;1.522081941366196E-001;-8.048246800899506E-002;1.047331257723272E-003;1.719809137284756E-003;
2.421500000000000E+009;1.514211595058441E-001;-8.203586935997009E-002;1.039486494846642E-003;1.929353806190193E-003;
2.421666666666667E+009;1.510648876428604E-001;-8.369040489196777E-002;1.120792934671044E-003;1.733770477585495E-003;
2.421833333333334E+009;1.505973488092423E-001;-8.532960712909699E-002;1.368979108519852E-003;1.988954842090607E-003;
2.422000000000000E+009;1.502389311790466E-001;-8.711350709199905E-002;1.347777899354696E-003;1.745019690133631E-003;
2.422166666666667E+009;1.499666571617127E-001;-8.896063268184662E-002;1.418853295035660E-003;1.697419211268425E-003;
2.422333333333334E+009;1.497882455587387E-001;-9.049633890390396E-002;1.555842463858426E-003;1.877291477285326E-003;
2.422500000000000E+009;1.496204435825348E-001;-9.238696843385696E-002;1.735264318995178E-003;1.794885727576911E-003;
2.422666666666667E+009;1.494645178318024E-001;-9.395930916070938E-002;1.668831682763994E-003;1.666172174736857E-003;
2.422833333333334E+009;1.498208642005920E-001;-9.578543901443481E-002;1.969411969184876E-003;1.764000044204295E-003;
2.423000000000000E+009;1.497777402400971E-001;-9.740522503852844E-002;2.036085119470954E-003;1.564036123454571E-003;
2.423166666666667E+009;1.501158922910690E-001;-9.916787594556809E-002;2.118883887305856E-003;1.605950412340462E-003;
2.423333333333334E+009;1.504569202661514E-001;-1.006083339452744E-001;2.240707632154226E-003;1.395421102643013E-003;
2.423500000000000E+009;1.505172103643417E-001;-1.021250635385513E-001;2.251502126455307E-003;1.393597340211272E-003;
2.423666666666667E+009;1.508281230926514E-001;-1.037485525012016E-001;2.477708971127868E-003;1.226963475346565E-003;
2.423833333333334E+009;1.514838337898254E-001;-1.052303537726402E-001;2.462478354573250E-003;1.041954965330660E-003;
2.424000000000000E+009;1.517566442489624E-001;-1.064924299716950E-001;2.449649618938565E-003;9.360070689581335E-004;
2.424166666666667E+009;1.521805375814438E-001;-1.076815277338028E-001;2.418948570266366E-003;8.274090941995382E-004;
2.424333333333334E+009;1.527467817068100E-001;-1.088651791214943E-001;2.593126380816102E-003;7.750726072117686E-004;
2.424500000000000E+009;1.532090902328491E-001;-1.101891547441483E-001;2.498244401067495E-003;6.000329158268869E-004;
2.424666666666667E+009;1.537928581237793E-001;-1.110936999320984E-001;2.663977444171906E-003;4.854590224567801E-004;
2.424833333333334E+009;1.542275100946426E-001;-1.122028306126595E-001;2.612151205539703E-003;3.487594367470592E-004;
2.425000000000000E+009;1.547279059886932E-001;-1.130526140332222E-001;2.548765391111374E-003;1.297900598729029E-004;
2.425166666666667E+009;1.550076305866242E-001;-1.139786988496780E-001;2.642984269186854E-003;2.048985334113240E-004;
2.425333333333334E+009;1.555226445198059E-001;-1.146014183759689E-001;2.530435333028436E-003;5.853630864294246E-005;
2.425500000000000E+009;1.559845954179764E-001;-1.153620630502701E-001;2.635693410411477E-003;4.035020901937969E-005;
2.425666666666667E+009;1.560939401388168E-001;-1.158521398901939E-001;2.660645404830575E-003;-1.414630678482354E-004;
2.425833333333334E+009;1.563597768545151E-001;-1.164714992046356E-001;2.625965978950262E-003;-2.290554548380896E-004;
2.426000000000000E+009;1.564542055130005E-001;-1.170036569237709E-001;2.573599340394139E-003;-3.840458812192082E-004;
2.426166666666667E+009;1.568322777748108E-001;-1.174148544669151E-001;2.605534158647060E-003;-4.957700730301440E-004;
2.426333333333334E+009;1.567634642124176E-001;-1.176602989435196E-001;2.597505226731300E-003;-5.200422019697726E-004;
2.426500000000000E+009;1.568752527236939E-001;-1.178362220525742E-001;2.611162373796105E-003;-6.653954624198377E-004;
2.426666666666667E+009;1.568252593278885E-001;-1.180112883448601E-001;2.510734833776951E-003;-6.716689094901085E-004;
2.426833333333334E+009;1.565646827220917E-001;-1.182158738374710E-001;2.253862330690026E-003;-7.114180480130017E-004;
2.427000000000000E+009;1.562595814466476E-001;-1.184194087982178E-001;2.379997400566936E-003;-6.591173587366939E-004;
2.427166666666667E+009;1.558253765106201E-001;-1.183354929089546E-001;2.234436105936766E-003;-8.335461025126278E-004;
2.427333333333334E+009;1.552485376596451E-001;-1.184495463967323E-001;2.268538577482104E-003;-9.151067933999002E-004;
2.427500000000000E+009;1.547169685363770E-001;-1.186835318803787E-001;2.230013720691204E-003;-9.484966285526753E-004;
2.427666666666667E+009;1.540601700544357E-001;-1.187596693634987E-001;2.229844918474555E-003;-7.850524270907044E-004;
2.427833333333334E+009;1.532009840011597E-001;-1.188248395919800E-001;2.041832311078906E-003;-9.524294291622937E-004;
