# Hz S RI R 50
2400000000.0000000000 0.167935699224472101409588731258 0.041123200207948691631276716407 0.000980712473392486572265625000 -0.000833298778161406517028808594 0 0 0 0 
2400166666.6666665077 0.168655619025230407714843750000 0.040393993258476257324218750000 0.001025619683787226893781352466 -0.000722514232620596885681152344 0 0 0 0 
2400333333.3333334923 0.169055417180061312576455634371 0.039428412914276123046875000000 0.001223591738380491950391459888 -0.000733839522581547498703002930 0 0 0 0 
2400500000.0000000000 0.169545233249664306640625000000 0.038473188877105712890625000000 0.001228335197083652019500732422 -0.000674903742037713527679443359 0 0 0 0 
2400666666.6666665077 0.169940590858459500411825615629 0.037423316389322280883789062500 0.001425566733814775943756103516 -0.000607370515353977680206298828 0 0 0 0 
2400833333.3333334923 0.170283094048500088790731865629 0.036766275763511657714843750000 0.001599228358827530904057168115 -0.000637452292721718549728393555 0 0 0 0 
2401000000.0000000000 0.170484408736228887359942518742 0.035912469029426581645925153907 0.001522858045063913085340190356 -0.000551158620510250329971313477 0 0 0 0 
2401166666.6666665077 0.170758754014968899825888115629 0.034832991659641272808034528907 0.001689972123131155967712402344 -0.000608593749348074197769165039 0 0 0 0 
2401333333.3333334923 0.170985475182533291915731865629 0.033920761197805411601979841407 0.001786528737284243106842041016 -0.000676912255585193634033203125 0 0 0 0 
2401500000.0000000000 0.171197161078453091720419365629 0.033163383603096008300781250000 0.001920372364111244895337748950 -0.000787292374297976493835449219 0 0 0 0 
2401666666.6666665077 0.171171888709068298339843750000 0.032306723296642303466796875000 0.001873666653409600041033100659 -0.000744688382837921380996704102 0 0 0 0 
2401833333.3333334923 0.171400532126426696777343750000 0.031373128294944763183593750000 0.001972852041944860978367470850 -0.000973426911514252424240112305 0 0 0 0 
2402000000.0000000000 0.171248629689216613769531250000 0.030372116714715961111048514454 0.002078734803944826126098632812 -0.000983566860668361186981201172 0 0 0 0 
2402166666.6666665077 0.171232849359512301345986884371 0.029337547719478610647181326954 0.002352976705878973007202148438 -0.001062149414792656898498535156 0 0 0 0 
2402333333.3333334923 0.171250119805335998535156250000 0.028183024376630779611607735546 0.002432413166388868851902627100 -0.001150174764916300990461039966 0 0 0 0 
2402500000.0000000000 0.171367585659027099609375000000 0.027474133297801021230677420704 0.002268717624247074127197265625 -0.001276834751479327895520854419 0 0 0 0 
2402666666.6666665077 0.171183779835700988769531250000 0.026590041816234588623046875000 0.002560148946940898895263671875 -0.001413246965967118956922221606 0 0 0 0 
2402833333.3333334923 0.171243712306022588531817518742 0.025521799921989440917968750000 0.002542389789596199989318847656 -0.001522022415883838913561176831 0 0 0 0 
2403000000.0000000000 0.171210736036300686935263115629 0.024434257298707958566685860546 0.002681249519810080961940146338 -0.001687478506937623023986816406 0 0 0 0 
2403166666.6666665077 0.171286031603813199142294365629 0.023332938551902770996093750000 0.002553717000409961180446005713 -0.002127919811755419211146689307 0 0 0 0 
2403333333.3333334923 0.171194761991500910003338731258 0.022434720769524570810338204296 0.002532800193876028060913085938 -0.002217718400061130957362509619 0 0 0 0 
2403500000.0000000000 0.170840740203857394119424384371 0.020965976640582091594655622657 0.002576078986749053001403808594 -0.002294954378157854080200195312 0 0 0 0 
2403666666.6666665077 0.170712396502494812011718750000 0.019833536818623539316197579296 0.002536576939746737913844443213 -0.002513717394322156906127929688 0 0 0 0 
2403833333.3333334923 0.170817837119102505782919365629 0.018627958372235301626185233204 0.002342445077374577955958701025 -0.002526184311136602921726845850 0 0 0 0 
2404000000.0000000000 0.170788183808326693435830634371 0.017215758562088009225865548046 0.002272003330290317969081259619 -0.002826971467584372000453329932 0 0 0 0 
2404166666.6666665077 0.170457765460014287750567518742 0.015899647027254111553151716407 0.002266695024445652961730957031 -0.002854038262739777998683310400 0 0 0 0 
2404333333.3333334923 0.170438542962074307540731865629 0.014814504422247409820556640625 0.001846295432187617041944194263 -0.002999978605657815933227539062 0 0 0 0 
2404500000.0000000000 0.170203924179077203948651231258 0.013254175893962379800816719921 0.001970995916053653197047568213 -0.003175009274855256080627441406 0 0 0 0 
2404666666.6666665077 0.170267641544342013260049384371 0.011843349784612660843818865430 0.001878331298939883925794291919 -0.003259415039792656898498535156 0 0 0 0 
2404833333.3333334923 0.170307055115699795821981865629 0.010410959832370279484758945898 0.001815120340324938080431294019 -0.003317875089123845100402832031 0 0 0 0 
2405000000.0000000000 0.170266270637512207031250000000 0.008892774581909179687500000000 0.001690158154815434975865029443 -0.003625981276854873137233115088 0 0 0 0 
2405166666.6666665077 0.170199587941169711013955634371 0.007600868586450815200805664062 0.001544256927445531108258891528 -0.003736171638593078093287802588 0 0 0 0 
2405333333.3333334923 0.170250952243804903885049384371 0.006033527664840221405029296875 0.001498722936958075003383017432 -0.003978263586759567260742187500 0 0 0 0 
2405500000.0000000000 0.170335963368415804763955634371 0.004437802359461784362792968750 0.001361775910481811003444052588 -0.004033841192722321424002362988 0 0 0 0 
2405666666.6666665077 0.170233473181724603850994981258 0.002910598879680037932154990088 0.000984131591394543647766113281 -0.004118415992707014083862304688 0 0 0 0 
2405833333.3333334923 0.170049697160720797439736884371 0.001551262568682431957842182690 0.000797960674390196800231933594 -0.004260311834514141082763671875 0 0 0 0 
2406000000.0000000000 0.170159995555877713302450615629 -0.000417991774156689589649754657 0.000697788782417774200439453125 -0.004327221307903528213500976562 0 0 0 0 
2406166666.6666665077 0.169970616698265103439169365629 -0.001813106122426689104792929541 0.000456582114566117525100708008 -0.004230171907693147659301757812 0 0 0 0 
2406333333.3333334923 0.169987112283706692794638115629 -0.003530674614012240929844521631 0.000202782277483493089675903320 -0.004556681960821151733398437500 0 0 0 0 
2406500000.0000000000 0.169774055480957003494424384371 -0.005115207284688949584960937500 -0.000004392504251882201060652733 -0.004514435306191444396972656250 0 0 0 0 
2406666666.6666665077 0.169606402516365106780682481258 -0.006528852973133325576782226562 -0.000349826819729059880405980243 -0.004508627578616142272949218750 0 0 0 0 
2406833333.3333334923 0.169510543346405001541299384371 -0.008112079463899135589599609375 -0.000572829274460673332214355469 -0.004310681484639644622802734375 0 0 0 0 
2407000000.0000000000 0.169457092881202697753906250000 -0.009623477235436439514160156250 -0.000714461959432810544967651367 -0.004404774401336908340454101562 0 0 0 0 
2407166666.6666665077 0.169327378273010309417401231258 -0.010877078399062160146693045704 -0.000946320651564747095108032227 -0.004454094450920820236206054688 0 0 0 0 
2407333333.3333334923 0.169040188193321200271768134371 -0.012393257580697539937952811329 -0.001175351673737168095232319409 -0.004407155793160200119018554688 0 0 0 0 
2407500000.0000000000 0.168838351964950589279013115629 -0.013592422939836980647076991602 -0.001252176240086555914637900244 -0.004219483118504285812377929688 0 0 0 0 
2407666666.6666665077 0.168774276971816988845986884371 -0.014742354862391950434674647852 -0.001726416405290365002275776440 -0.004212899599224328994750976562 0 0 0 0 
2407833333.3333334923 0.168416395783424405196981865629 -0.016043256968259811401367187500 -0.001803408726118505001068115234 -0.004029025789350271224975585938 0 0 0 0 
2408000000.0000000000 0.168328642845153808593750000000 -0.017081165686249729501744454296 -0.001944477087818085930467915112 -0.003818193217739462852478027344 0 0 0 0 
2408166666.6666665077 0.168343320488929804046307481258 -0.018041377887129780160924141796 -0.002124933525919913811924599756 -0.003648024518042802810668945312 0 0 0 0 
2408333333.3333334923 0.168443799018859891036825615629 -0.018946664407849308359166329296 -0.002182540018111466927769326318 -0.003566063940525054931640625000 0 0 0 0 
2408500000.0000000000 0.168326646089553805252236884371 -0.020014343783259388315221016796 -0.002449807710945605798008584131 -0.003300881944596766991856240381 0 0 0 0 
2408666666.6666665077 0.168338298797607394119424384371 -0.020868517458438869821568673046 -0.002492028987035154862644814600 -0.003169281873852014975306845557 0 0 0 0 
2408833333.3333334923 0.168304115533828707595986884371 -0.021640101447701450693150704296 -0.002440766664221882820129394531 -0.003004340920597314834594726562 0 0 0 0 
2409000000.0000000000 0.168294116854667691329794365629 -0.022588377818465229379674141796 -0.002517267363145947890040732275 -0.002823506481945515112635947119 0 0 0 0 
2409166666.6666665077 0.168533012270927401443643134371 -0.023401321843266490591028983204 -0.002612549578770995140075683594 -0.002618445549160242080688476562 0 0 0 0 
2409333333.3333334923 0.168890282511711092849893134371 -0.024405252188444141042689139454 -0.002609715331345797018763876807 -0.002554215490818024115321493994 0 0 0 0 
2409500000.0000000000 0.168697148561477688888388115629 -0.025379288941621780395507812500 -0.002639927901327610015869140625 -0.002378580160439014001133584131 0 0 0 0 
2409666666.6666665077 0.169012829661369295974893134371 -0.026154214516282081604003906250 -0.002454641740769147872924804688 -0.002050501760095357894897460938 0 0 0 0 
2409833333.3333334923 0.168897047638893099685830634371 -0.027020957320928570138951485546 -0.002420373028144239945652627100 -0.002067297464236617088317871094 0 0 0 0 
2410000000.0000000000 0.168989300727844210525674384371 -0.027894014492630958557128906250 -0.002462909091264009909388876807 -0.002037436934188007874729775537 0 0 0 0 
2410166666.6666665077 0.169129952788352994064169365629 -0.028811888769268989562988281250 -0.002237292239442468123195029150 -0.001969266450032591819763183594 0 0 0 0 
2410333333.3333334923 0.169206932187080411056356865629 -0.029837617650628089904785156250 -0.002400503028184175925013876807 -0.001883218879811465957044291919 0 0 0 0 
2410500000.0000000000 0.169027626514434786697549384371 -0.030723989009857181203821951954 -0.002281029475852847099304199219 -0.001910600811243057034136128003 0 0 0 0 
2410666666.6666665077 0.168955907225608797928018134371 -0.031747817993164062500000000000 -0.002400409663096069855930947412 -0.001954761566594243049621582031 0 0 0 0 
2410833333.3333334923 0.168901920318603487869424384371 -0.032407861202955252910573591407 -0.002272342797368764877319335938 -0.001913091866299510002136230469 0 0 0 0 
2411000000.0000000000 0.168769091367721613128338731258 -0.033277604728937149047851562500 -0.002311979420483111901524209131 -0.001878334907814859910252236475 0 0 0 0 
2411166666.6666665077 0.168576315045356805999432481258 -0.034296385943889617919921875000 -0.002402965677902102904078818213 -0.001877479720860719897626567310 0 0 0 0 
2411333333.3333334923 0.168349117040634210784588731258 -0.035145953297615051269531250000 -0.002346216002479196028468466650 -0.001818338409066200039507221753 0 0 0 0 
2411500000.0000000000 0.167922839522361810882244981258 -0.035944335162639617919921875000 -0.002391554415225983099696493994 -0.001920706825330853895900107275 0 0 0 0 
2411666666.6666665077 0.167903840541839599609375000000 -0.036972198635339736938476562500 -0.002575340913608669800999306787 -0.001772487186826765970942831885 0 0 0 0 
2411833333.3333334923 0.167731866240501403808593750000 -0.037626482546329498291015625000 -0.002419864991679788069484091650 -0.001900612376630306027056049878 0 0 0 0 
2412000000.0000000000 0.167398348450660705566406250000 -0.038624718785285949707031250000 -0.002511483849957584901096963037 -0.001815716386772691986681294019 0 0 0 0 
2412166666.6666665077 0.166926875710487393478231865629 -0.039789754897356033325195312500 -0.002646834356710315184352255713 -0.001794058596715331077575683594 0 0 0 0 
2412333333.3333334923 0.166900590062141390701455634371 -0.040612187236547470092773437500 -0.002708996878936886787414550781 -0.001963528338819742202758789062 0 0 0 0 
2412500000.0000000000 0.166253507137298611739950615629 -0.041496939957141883159597028907 -0.002678297460079193115234375000 -0.001931902254000305912615131909 0 0 0 0 
2412666666.6666665077 0.166185334324836703201455634371 -0.042581334710121161724050153907 -0.002914607292041182951686240088 -0.001903956173919141075731586987 0 0 0 0 
2412833333.3333334923 0.165754690766334505935830634371 -0.043593365699052810668945312500 -0.002916341414675116972682333838 -0.001796107855625451044795370947 0 0 0 0 
2413000000.0000000000 0.165305614471435602386151231258 -0.044613994657993316650390625000 -0.003148246090859175162074423682 -0.001804202795028686957118368994 0 0 0 0 
2413166666.6666665077 0.164925724267959594726562500000 -0.045434549450874328613281250000 -0.003250288311392068862915039062 -0.001822263584472239017486572266 0 0 0 0 
2413333333.3333334923 0.164380893111228887359942518742 -0.046585768461227416992187500000 -0.003653887892141938209533691406 -0.001698854495771229050279926831 0 0 0 0 
2413500000.0000000000 0.163972854614257812500000000000 -0.047749701887369162822682966407 -0.003709124168381094932556152344 -0.001666148891672492027282714844 0 0 0 0 
2413666666.6666665077 0.163483798503875704666299384371 -0.048664592206478118896484375000 -0.003877794602885841889622353662 -0.001309150131419301033020019531 0 0 0 0 
2413833333.3333334923 0.162880361080169705489950615629 -0.049534298479557037353515625000 -0.003930637612938880920410156250 -0.001212450792081654071807861328 0 0 0 0 
2414000000.0000000000 0.162434667348861694335937500000 -0.050709407776594161987304687500 -0.003983092028647661209106445312 -0.000919450714718550443649291992 0 0 0 0 
2414166666.6666665077 0.162129983305931091308593750000 -0.051482256501913070678710937500 -0.004140265285968781384939862988 -0.000904124521184712648391723633 0 0 0 0 
2414333333.3333334923 0.161856517195701599121093750000 -0.052456796169281012798268903907 -0.004146247636526823043823242188 -0.000448450882686302120059412823 0 0 0 0 
2414500000.0000000000 0.161668822169303894042968750000 -0.053465109318494796752929687500 -0.004198592621833086013793945312 -0.000267605035332962924807947980 0 0 0 0 
2414666666.6666665077 0.161318063735961886306924384371 -0.054459016770124442363698591407 -0.004271342884749174118041992188 -0.000076766191341448575258255005 0 0 0 0 
2414833333.3333334923 0.160993039608001708984375000000 -0.055437110364437103271484375000 -0.004242653492838144302368164062 0.000152797656483016908168792725 0 0 0 0 
2415000000.0000000000 0.160841435194015502929687500000 -0.056426975876092910766601562500 -0.003975934349000453948974609375 0.000198932611965574297025957651 0 0 0 0 
2415166666.6666665077 0.160545244812965393066406250000 -0.057498183101415627216379533593 -0.004052366130053997039794921875 0.000540678738616406917572021484 0 0 0 0 
2415333333.3333334923 0.160542145371437100509481865629 -0.058703914284706122661550153907 -0.003848362714052199883701943506 0.000743676791898906230926513672 0 0 0 0 
2415500000.0000000000 0.160434514284133911132812500000 -0.059816531836986541748046875000 -0.003658145433291792869567871094 0.000755472283344715833663940430 0 0 0 0 
2415666666.6666665077 0.160183280706405611892861884371 -0.060844175517559051513671875000 -0.003665807424113153977635048975 0.000827761541586369276046752930 0 0 0 0 
2415833333.3333334923 0.160088509321212796310263115629 -0.062170997262001037597656250000 -0.003660398302599788145778036963 0.000959228433202952146530151367 0 0 0 0 
2416000000.0000000000 0.159808471798896789550781250000 -0.063283391296863555908203125000 -0.003348959609866141839268349756 0.000977673800662159919738769531 0 0 0 0 
2416166666.6666665077 0.159735113382339505294638115629 -0.064540721476078033447265625000 -0.003522782353684306144714355469 0.001148837502114474990247416919 0 0 0 0 
2416333333.3333334923 0.159440457820892306228799384371 -0.065707668662071228027343750000 -0.003378338180482387976405478369 0.001205228269100188992143940503 0 0 0 0 
2416500000.0000000000 0.159221172332763699630575615629 -0.067112468183040618896484375000 -0.003558254102244973182678222656 0.001243034726940094990971230615 0 0 0 0 
2416666666.6666665077 0.158858880400657709319744981258 -0.068142071366310119628906250000 -0.003392287995666265921351767432 0.001300289295613765933393168872 0 0 0 0 
2416833333.3333334923 0.158668473362922696212606865629 -0.069461300969123840332031250000 -0.003324398770928382873535156250 0.001538276439532638029811240088 0 0 0 0 
2417000000.0000000000 0.158109635114669799804687500000 -0.070620805025100708007812500000 -0.003232870018109678788426064600 0.001725209760479629039764404297 0 0 0 0 
2417166666.6666665077 0.157862678170204190353231865629 -0.071480207145214080810546875000 -0.003286357503384352164027548682 0.001815865747630595944048237378 0 0 0 0 
2417333333.3333334923 0.157468989491462707519531250000 -0.072424143552780151367187500000 -0.003180334111675620079040527344 0.002128053922206162972691201318 0 0 0 0 
2417500000.0000000000 0.157101675868034390548544365629 -0.073516160249710083007812500000 -0.002956825774163008169886923682 0.002398896496742963790893554688 0 0 0 0 
2417666666.6666665077 0.156848475337028503417968750000 -0.074303403496742248535156250000 -0.002895713318139315085170126807 0.002494287677109241919276572119 0 0 0 0 
2417833333.3333334923 0.156470090150833102127236884371 -0.075177043676376342773437500000 -0.002672731410712004141566611182 0.002619481878355145888087607275 0 0 0 0 
2418000000.0000000000 0.156184181571006802657919365629 -0.076102830469608306884765625000 -0.002217661589384078979492187500 0.002734393347054719924926757812 0 0 0 0 
2418166666.6666665077 0.155907347798347500900106865629 -0.076678678393363952636718750000 -0.002014622557908297018763876807 0.002709437161684035821201943506 0 0 0 0 
2418333333.3333334923 0.155892670154571505447549384371 -0.077551104128360748291015625000 -0.001933639287017286040662455981 0.002635857556015253067016601562 0 0 0 0 
2418500000.0000000000 0.155430763959884588043536268742 -0.078284412622451782226562500000 -0.001422983943484724001643515479 0.002686073305085300965550088037 0 0 0 0 
2418666666.6666665077 0.155379951000213595291299384371 -0.079093076288700103759765625000 -0.001325206249020993926404643481 0.002547770971432327790501259912 0 0 0 0 
2418833333.3333334923 0.154789865016937311370526231258 -0.079864330589771270751953125000 -0.001020903000608087019679404150 0.002365094842389225959777832031 0 0 0 0 
2419000000.0000000000 0.154573142528533907791299384371 -0.080574370920658111572265625000 -0.001134088728576899008509970557 0.002193494234234095053431845557 0 0 0 0 
2419166666.6666665077 0.154321074485778808593750000000 -0.081194557249546051025390625000 -0.001002845121547579982160258716 0.001995233120396732850315713037 0 0 0 0 
2419333333.3333334923 0.153806999325752313811932481258 -0.081712052226066589355468750000 -0.000849588890559971332550048828 0.001774467062205076000810932690 0 0 0 0 
2419500000.0000000000 0.153583407402038601974325615629 -0.082596369087696075439453125000 -0.000776245491579174995422363281 0.001736107980832457976100302588 0 0 0 0 
2419666666.6666665077 0.153234407305717496017294365629 -0.083258464932441711425781250000 -0.000817062449641525853812062952 0.001514843199402094104169536060 0 0 0 0 
2419833333.3333334923 0.152841255068778991699218750000 -0.083743773400783538818359375000 -0.000979082193225622177124023438 0.001482037943787873008130717700 0 0 0 0 
