# Hz S RI R 
2400000000.0000000000 0.155061066150665310958700615629 0.106513947248458903938050923443 -0.001719164662063122012494731372 0.004053727723658084869384765625 0 0 0 0 
2400166666.6666665077 0.154662862420082092285156250000 0.104226306080818204025106865629 -0.001667566131800412914873432690 0.004285417497158051404471112988 0 0 0 0 
2400333333.3333334923 0.154845580458641107757244981258 0.102102212607860606818910298443 -0.001804180326871573925018310547 0.004450809210538864135742187500 0 0 0 0 
2400500000.0000000000 0.154645189642906188964843750000 0.099246032536029815673828125000 -0.001455720979720354080200195312 0.004667075816541910171508789062 0 0 0 0 
2400666666.6666665077 0.154775574803352411468182481258 0.096802905201911926269531250000 -0.001537188189104198975803994287 0.004684730898588895797729492188 0 0 0 0 
2400833333.3333334923 0.154680415987968389313067518742 0.093823969364166259765625000000 -0.001348680700175463936449360425 0.004783842246979475021362304688 0 0 0 0 
2401000000.0000000000 0.155008435249328613281250000000 0.091013327240943908691406250000 -0.001297364244237541935564350659 0.004991552326828241348266601562 0 0 0 0 
2401166666.6666665077 0.154884457588195800781250000000 0.088324181735515594482421875000 -0.001088719232939183928846049731 0.005049317609518766403198242188 0 0 0 0 
2401333333.3333334923 0.155322447419166592696981865629 0.085309289395809173583984375000 -0.001013254397548734924913715894 0.005211469717323780059814453125 0 0 0 0 
2401500000.0000000000 0.155446350574493408203125000000 0.082479648292064666748046875000 -0.000832928752060979604721069336 0.005381111521273851394653320312 0 0 0 0 
2401666666.6666665077 0.156119450926780700683593750000 0.079778686165809631347656250000 -0.000851030694320797920227050781 0.005557163152843713760375976562 0 0 0 0 
2401833333.3333334923 0.156604409217834500411825615629 0.076948992908000946044921875000 -0.000590274517890065908432006836 0.005654445849359036359305097363 0 0 0 0 
2402000000.0000000000 0.157448872923851013183593750000 0.074162639677524566650390625000 -0.000537703861482441425323486328 0.005774020683020353317260742188 0 0 0 0 
2402166666.6666665077 0.158276513218879699707031250000 0.071799971163272857666015625000 -0.000171867635799571898862561636 0.005930389277637004852294921875 0 0 0 0 
2402333333.3333334923 0.159105926752090509612713731258 0.068968378007411956787109375000 0.000004906526555714663118124008 0.005928177386522293090820312500 0 0 0 0 
2402500000.0000000000 0.160208672285080011565838731258 0.066590905189514160156250000000 0.000105617698864079998292107854 0.006214810535311698913574218750 0 0 0 0 
2402666666.6666665077 0.161477208137512207031250000000 0.063993148505687713623046875000 0.000315422570565715377956944598 0.006323277950286865234375000000 0 0 0 0 
2402833333.3333334923 0.162802040576934786697549384371 0.061587054282426827167551408593 0.000563387700822204351425170898 0.006345181260257959365844726562 0 0 0 0 
2403000000.0000000000 0.164220273494720486739950615629 0.059255350381135940551757812500 0.001128562260419129891636513818 0.006565073505043984326834394238 0 0 0 0 
2403166666.6666665077 0.165899708867073086837606865629 0.057037916034460067749023437500 0.001331201056018471934674907153 0.006731066852807998657226562500 0 0 0 0 
2403333333.3333334923 0.167352989315986605545205634371 0.054826732724905007099192033593 0.001830540248192846991895366138 0.006704567465931177139282226562 0 0 0 0 
2403500000.0000000000 0.169035866856575012207031250000 0.052627850323915481567382812500 0.002247680677101016044616699219 0.006781654898077250394339277051 0 0 0 0 
2403666666.6666665077 0.170795023441314697265625000000 0.050872027873992919921875000000 0.002548807999119162993190146338 0.006606812588870525360107421875 0 0 0 0 
2403833333.3333334923 0.172486796975135803222656250000 0.048863172531127929687500000000 0.003057306865230203108546591650 0.006488127633929252624511718750 0 0 0 0 
2404000000.0000000000 0.173815116286277798751669365629 0.047211442142724990844726562500 0.003423444693908094926121377100 0.006536863744258880615234375000 0 0 0 0 
2404166666.6666665077 0.175737857818603487869424384371 0.045683793723583221435546875000 0.003749299794435501098632812500 0.006197892595082520571236894824 0 0 0 0 
2404333333.3333334923 0.177310198545455904861611884371 0.044136654585599899291992187500 0.004345209337770938873291015625 0.005812470801174640655517578125 0 0 0 0 
2404500000.0000000000 0.178854718804359408279580634371 0.042640939354896552349050153907 0.004652169533073902130126953125 0.005638912785798311233520507812 0 0 0 0 
2404666666.6666665077 0.180412605404853793045205634371 0.041785247623920440673828125000 0.004781336523592472076416015625 0.005256928037852048873901367188 0 0 0 0 
2404833333.3333334923 0.182142823934555109222088731258 0.040584150701761252666432966407 0.004989041946828365325927734375 0.005032263696193695068359375000 0 0 0 0 
2405000000.0000000000 0.183509424328803988357705634371 0.039923340082168579101562500000 0.005279203876852989196777343750 0.004683562554419040679931640625 0 0 0 0 
2405166666.6666665077 0.185018196702003506759481865629 0.039248704910278320312500000000 0.005437583662569522857666015625 0.004194718785583972930908203125 0 0 0 0 
2405333333.3333334923 0.186423346400260897537393134371 0.038878042250871658325195312500 0.005441725254058837890625000000 0.004084992222487927350516034863 0 0 0 0 
2405500000.0000000000 0.187816083431243896484375000000 0.038410216569900512695312500000 0.005381475202739238739013671875 0.003704969305545092062709189307 0 0 0 0 
2405666666.6666665077 0.189042925834655789474325615629 0.038047287613153457641601562500 0.005605735350400209426879882812 0.003424103371798992156982421875 0 0 0 0 
2405833333.3333334923 0.190383702516555786132812500000 0.037796031683683402324636091407 0.005536311771720647811889648438 0.003054482163861393928527832031 0 0 0 0 
2406000000.0000000000 0.191450700163841303069744981258 0.037715502083301537250559221093 0.005758154205977916717529296875 0.002798157744109631018397665869 0 0 0 0 
2406166666.6666665077 0.192429229617118807693643134371 0.037507586181163787841796875000 0.005652656313031911849975585938 0.002424500882625579833984375000 0 0 0 0 
2406333333.3333334923 0.193262606859207208831463731258 0.037614308297634131694753278907 0.005691259633749722567086504199 0.002337289508432149887084960938 0 0 0 0 
2406500000.0000000000 0.194086059927940396407919365629 0.037624318152666091918945312500 0.005655863787978888425345136426 0.002076596021652222113368368994 0 0 0 0 
2406666666.6666665077 0.194725021719932611663494981258 0.037793882191181182861328125000 0.005663931835442780581002519824 0.002044824184849857850315713037 0 0 0 0 
2406833333.3333334923 0.195245191454887390136718750000 0.037831857800483696674387346093 0.005576627794653177261352539062 0.001670685829594730897190713037 0 0 0 0 
2407000000.0000000000 0.195643633604049710372763115629 0.038110338151454932476003278907 0.005638572853058576583862304688 0.001398780965246259949327778394 0 0 0 0 
2407166666.6666665077 0.195943400263786288162393134371 0.037954721599817282939870466407 0.005459586624056100845336914062 0.001234158873558043999912881006 0 0 0 0 
2407333333.3333334923 0.196010529994964599609375000000 0.038118276745080947875976562500 0.005410842597484588623046875000 0.000953594048041850328445434570 0 0 0 0 
2407500000.0000000000 0.195887133479118402679119981258 0.038242299109697341918945312500 0.005412512924522162351126386426 0.000725135440006852149963378906 0 0 0 0 
2407666666.6666665077 0.196013569831848089020098768742 0.038214262574911117553710937500 0.005295067559927701950073242188 0.000617796089500188827514648438 0 0 0 0 
2407833333.3333334923 0.195639699697494506835937500000 0.038054671138525009155273437500 0.005361863877624273300170898438 0.000522343616466969251632690430 0 0 0 0 
2408000000.0000000000 0.195547744631767300704794365629 0.037924028933048248291015625000 0.005253186449408531188964843750 0.000385952327633276581764221191 0 0 0 0 
2408166666.6666665077 0.194851785898208590408486884371 0.037677541375160217285156250000 0.005177848972380161285400390625 0.000093587477749679237604141235 0 0 0 0 
2408333333.3333334923 0.194489553570747403243856865629 0.037261396646499626850168596093 0.004842250607907772064208984375 -0.000136258633574470904752454214 0 0 0 0 
2408500000.0000000000 0.193762168288230895996093750000 0.036899298429489142681081403907 0.004789247177541255950927734375 -0.000089618901256471872329711914 0 0 0 0 
2408666666.6666665077 0.193159610033035306075888115629 0.036407385021448142314870466407 0.004633614793419837951660156250 -0.000301275460515171289443969727 0 0 0 0 
2408833333.3333334923 0.192408293485641507247763115629 0.035571299493312842632253278907 0.004442824050784111022949218750 -0.000340983184287324601977747784 0 0 0 0 
2409000000.0000000000 0.191482499241828890701455634371 0.034714065492153167724609375000 0.004326821770519018173217773438 -0.000622571969870477914810180664 0 0 0 0 
2409166666.6666665077 0.190689578652381896972656250000 0.033757328987121582031250000000 0.004204335622489452362060546875 -0.000674775801599025726318359375 0 0 0 0 
2409333333.3333334923 0.189823016524314908126669365629 0.032783214002847671508789062500 0.004038230050355195999145507812 -0.000612686213571578264236450195 0 0 0 0 
2409500000.0000000000 0.188593700528144808670205634371 0.031536612659692757343332658593 0.003913309425115585327148437500 -0.000619522121269255876541137695 0 0 0 0 
2409666666.6666665077 0.187689930200576809982138115629 0.029948348179459568368931954296 0.003821018850430846214294433594 -0.000822344445623457431793212891 0 0 0 0 
2409833333.3333334923 0.186552435159683199783486884371 0.028598183766007419931431954296 0.003714337246492505073547363281 -0.000692886940669268369674682617 0 0 0 0 
2410000000.0000000000 0.185643762350082397460937500000 0.026992693543434139596959298046 0.003556238021701573891880654443 -0.000581307336688041687011718750 0 0 0 0 
2410166666.6666665077 0.184557154774665804763955634371 0.025084525346755981445312500000 0.003425802569836378097534179688 -0.000577227445319294929504394531 0 0 0 0 
2410333333.3333334923 0.183717668056488009353799384371 0.023407341912388801574707031250 0.003367027733474969863891601562 -0.000430138083174824714660644531 0 0 0 0 
2410500000.0000000000 0.182665467262268094161825615629 0.021325001493096351623535156250 0.003372794250026344819309853662 -0.000419319316279143095016479492 0 0 0 0 
2410666666.6666665077 0.181752339005470303634481865629 0.019012510776519778860071951954 0.003494127187877893014195107568 -0.000548252079170197248458862305 0 0 0 0 
2410833333.3333334923 0.181091651320457486251669365629 0.016920363530516620981236641796 0.003422979731112719015834189307 -0.000390925153624266386032104492 0 0 0 0 
2411000000.0000000000 0.180240437388420104980468750000 0.014729398302733899897565272852 0.003449227428063749833347939600 -0.000431064690928906202316284180 0 0 0 0 
2411166666.6666665077 0.179704263806343106368856865629 0.012629689648747440683385079296 0.003448967123404144807102822412 -0.000486546836327761411666870117 0 0 0 0 
2411333333.3333334923 0.179136022925376892089843750000 0.010089438408613210160225115430 0.003402267349883913993835449219 -0.000498068460728973150253295898 0 0 0 0 
2411500000.0000000000 0.178821265697479303558026231258 0.007676044013351202011108398438 0.003449841635301709175109863281 -0.000633476302027702331542968750 0 0 0 0 
2411666666.6666665077 0.178563058376312311370526231258 0.005430529359728097915649414062 0.003402744885534048080444335938 -0.000530970399267971515655517578 0 0 0 0 
2411833333.3333334923 0.178359404206275912185830634371 0.002934374613687396049499511719 0.003422605106607079939601279150 -0.000654302653856575489044189453 0 0 0 0 
2412000000.0000000000 0.178421735763549804687500000000 0.000290965341264382004737854004 0.003320832969620823860168457031 -0.000640675600152462720870971680 0 0 0 0 
2412166666.6666665077 0.178514346480369595626669365629 -0.002008659997954965071437216650 0.003472170094028114838841103662 -0.000665250292513519525527954102 0 0 0 0 
2412333333.3333334923 0.178645581007003811935263115629 -0.004643585998564958572387695312 0.003418810898438096046447753906 -0.000545871153008192777633666992 0 0 0 0 
2412500000.0000000000 0.179256409406661987304687500000 -0.007061379961669445037841796875 0.003375484142452477975132607568 -0.000656499643810093402862548828 0 0 0 0 
2412666666.6666665077 0.179658502340316800216513115629 -0.009397238492965698242187500000 0.003474619705229998068568564307 -0.000601139210630208253860473633 0 0 0 0 
2412833333.3333334923 0.180388763546943692306356865629 -0.011966181918978689366350742773 0.003540731966495513916015625000 -0.000616661913227289915084838867 0 0 0 0 
2413000000.0000000000 0.181173220276832608321981865629 -0.014325774274766450364082537305 0.003527891822159289880039834131 -0.000715305446647107601165771484 0 0 0 0 
2413166666.6666665077 0.181883007287979098220986884371 -0.016520349308848381042480468750 0.003543912665918468995335244287 -0.000747853715438395738601684570 0 0 0 0 
2413333333.3333334923 0.182925015687942504882812500000 -0.018946018069982528686523437500 0.003575930604711174964904785156 -0.000804110546596348285675048828 0 0 0 0 
2413500000.0000000000 0.183827683329582186599893134371 -0.021233053877949721599538435157 0.003609308740124105973484658350 -0.000761001836508512496948242188 0 0 0 0 
2413666666.6666665077 0.185029745101928710937500000000 -0.023513004183769229543665701954 0.003702914575114845795872353662 -0.000928146357182413339614868164 0 0 0 0 
2413833333.3333334923 0.186073750257492093185263115629 -0.025465298444032669067382812500 0.003723250469192862944362021338 -0.000881856714840978384017944336 0 0 0 0 
2414000000.0000000000 0.187274992465972900390625000000 -0.027362879365682598459263985546 0.003903536126017570929286337744 -0.001026903977617620988133095850 0 0 0 0 
2414166666.6666665077 0.188628703355789212325888115629 -0.029166009277105331420898437500 0.004091720562428236007690429688 -0.000998459174297749996185302734 0 0 0 0 
2414333333.3333334923 0.189663514494895907303018134371 -0.031385835260152816772460937500 0.003966604359447956085205078125 -0.001405053189955651976941752856 0 0 0 0 
2414500000.0000000000 0.190810039639472989181356865629 -0.032803975045680999755859375000 0.004127139225602149963378906250 -0.001547624822705983898760151440 0 0 0 0 
2414666666.6666665077 0.192211568355560302734375000000 -0.034227561205625527118723283593 0.004182651638984680175781250000 -0.001603822223842144012451171875 0 0 0 0 
2414833333.3333334923 0.193339809775352505782919365629 -0.035625293850898742675781250000 0.004065511282533407211303710938 -0.001813577488064765930175781250 0 0 0 0 
2415000000.0000000000 0.194361567497253390213174384371 -0.037063632160425193096120466407 0.003931918181478977203369140625 -0.001992435427382587952854775537 0 0 0 0 
2415166666.6666665077 0.195622518658638000488281250000 -0.038085822016000747680664062500 0.004098351113498210906982421875 -0.002096631564199924902675009619 0 0 0 0 
2415333333.3333334923 0.196929454803466796875000000000 -0.039135709404945366596262346093 0.003796273376792668862583779443 -0.002161958254873753027675009619 0 0 0 0 
2415500000.0000000000 0.197938859462738009353799384371 -0.039728391915559768676757812500 0.003860657569020986990687704932 -0.002400703029707074165344238281 0 0 0 0 
2415666666.6666665077 0.198953896760940607268963731258 -0.040549803525209426879882812500 0.003979276865720748901367187500 -0.002547501353546977043151855469 0 0 0 0 
2415833333.3333334923 0.199635818600654602050781250000 -0.041125494986772537231445312500 0.003757813479751348929164267432 -0.002595566678792237801792763818 0 0 0 0 
2416000000.0000000000 0.200664892792701693435830634371 -0.041711606085300452495534528907 0.003723424160853027863743447412 -0.002618699101731181144714355469 0 0 0 0 
2416166666.6666665077 0.201302722096443204025106865629 -0.042250413447618477558176408593 0.003783846041187644004821777344 -0.002853007754310965971705771338 0 0 0 0 
2416333333.3333334923 0.201995074748992892166299384371 -0.042537428438663482666015625000 0.003694671439006925062892294775 -0.002936797216534614996669150244 0 0 0 0 
2416500000.0000000000 0.202382922172546386718750000000 -0.042842783033847808837890625000 0.003682650625705718994140625000 -0.003055204404518007798435830225 0 0 0 0 
2416666666.6666665077 0.202623561024665804763955634371 -0.043095070868730551982839216407 0.003650354687124491171595908057 -0.003158594015985726876499795068 0 0 0 0 
2416833333.3333334923 0.202864035964012201507244981258 -0.043135039508342742919921875000 0.003605763893574475808384560693 -0.003254940966144204139709472656 0 0 0 0 
2417000000.0000000000 0.202996775507926913162393134371 -0.043128013610839836811106096093 0.003552854061126708984375000000 -0.003367197467014193968531943213 0 0 0 0 
2417166666.6666665077 0.202749878168106106857138115629 -0.043055780231952667236328125000 0.003539294004440308050868368994 -0.003702857997268437905552529443 0 0 0 0 
2417333333.3333334923 0.202500894665718106368856865629 -0.042810197919607162475585937500 0.003244346939027308984043740381 -0.003674917388707398934605263818 0 0 0 0 
2417500000.0000000000 0.202237516641616793533486884371 -0.042808506637811660766601562500 0.003268707543611526922938681494 -0.003775444347411394119262695312 0 0 0 0 
2417666666.6666665077 0.201681271195411709884481865629 -0.042660422623157501220703125000 0.003318961476907134056091308594 -0.003871154505759478049037314307 0 0 0 0 
2417833333.3333334923 0.201270952820777893066406250000 -0.042374145239591598510742187500 0.003032887121662497954127646338 -0.004054876044392585754394531250 0 0 0 0 
2418000000.0000000000 0.200710445642471313476562500000 -0.042152043431997299194335937500 0.003158258507028222084045410156 -0.004092765972018241882324218750 0 0 0 0 
2418166666.6666665077 0.199854254722595187088174384371 -0.042018249630928039550781250000 0.002998105715960264205932617188 -0.004242859780788421630859375000 0 0 0 0 
2418333333.3333334923 0.199012622237205505371093750000 -0.041855551302433006977121721093 0.003071124199777842001674033057 -0.004371704999357461929321289062 0 0 0 0 
2418500000.0000000000 0.197891071438789395431356865629 -0.041784934699535369873046875000 0.002891184529289602799656533350 -0.004700378980487585067749023438 0 0 0 0 
2418666666.6666665077 0.196992903947830200195312500000 -0.041899338364601142192800153907 0.002722921781241894201991415869 -0.004725141916424036026000976562 0 0 0 0 
2418833333.3333334923 0.195703566074371310135049384371 -0.041965864598751068115234375000 0.002564091002568602995631552588 -0.004966729320585727691650390625 0 0 0 0 
2419000000.0000000000 0.194308370351791409591513115629 -0.042151618748903281475026716407 0.002700300188735127015354775537 -0.005246665328741073608398437500 0 0 0 0 
2419166666.6666665077 0.193215399980544988434161268742 -0.042504314333200461650807966407 0.002300089690834283828735351562 -0.005270198453217744827270507812 0 0 0 0 
2419333333.3333334923 0.191745176911354092696981865629 -0.043102428317070007324218750000 0.002130574313923716978785849463 -0.005591181106865406036376953125 0 0 0 0 
2419500000.0000000000 0.190219879150390597244424384371 -0.043405331671237952495534528907 0.002018154598772525787353515625 -0.005603252444416285428518964551 0 0 0 0 
2419666666.6666665077 0.188644215464592007736044365629 -0.044325195252895362163503278907 0.001751904375851153893711709131 -0.005747890565544366836547851562 0 0 0 0 
2419833333.3333334923 0.187121391296386690994424384371 -0.044979471713304519653320312500 0.001535338582471013069152832031 -0.005887032020837069425100995801 0 0 0 0 
2420000000.0000000000 0.185435950756072998046875000000 -0.045871898531913757324218750000 0.001244137878529727892634726416 -0.005898643750697374343872070312 0 0 0 0 
