# Hz S RI R 50
2400000000.0000000000 0.155142873525619506835937500000 0.106711760163307203819194057814 -0.001677568070590496063232421875 0.003937623463571071624755859375 0 0 0 0 
2400166666.6666665077 0.154682427644729586502236884371 0.104293048381805406044087192186 -0.001635809545405209064483642578 0.004351657349616289138793945312 0 0 0 0 
2400333333.3333334923 0.154772192239761408050213731258 0.102038800716400201995526231258 -0.001621522242203355052350688403 0.004455639515072107315063476562 0 0 0 0 
2400500000.0000000000 0.154642686247825594803018134371 0.099263533949851989746093750000 -0.001513582305051385922672890771 0.004489576444029808044433593750 0 0 0 0 
2400666666.6666665077 0.154787436127662686446981865629 0.096828199923038482666015625000 -0.001523253973573446056963276440 0.004716179333627223968505859375 0 0 0 0 
2400833333.3333334923 0.154645204544067410568075615629 0.093888796865940093994140625000 -0.001481349463574588081957172925 0.004774536006152629852294921875 0 0 0 0 
2401000000.0000000000 0.154940828680992098709268134371 0.091002672910690307617187500000 -0.001186326146125794107552553491 0.004973276052623987197875976562 0 0 0 0 
2401166666.6666665077 0.154970198869705200195312500000 0.088283650577068328857421875000 -0.001175823970697819969774555737 0.005059444345533847808837890625 0 0 0 0 
2401333333.3333334923 0.155517205595970209319744981258 0.085421174764633178710937500000 -0.000994878238998353481292724609 0.005253984127193689346313476562 0 0 0 0 
2401500000.0000000000 0.155626282095909090896768134371 0.082453235983848571777343750000 -0.000887491973116993904113769531 0.005374690052121877670288085938 0 0 0 0 
2401666666.6666665077 0.156081900000572204589843750000 0.079595401883125305175781250000 -0.000913195079192519187927246094 0.005570130888372659683227539062 0 0 0 0 
2401833333.3333334923 0.156637102365493802169638115629 0.077106691896915435791015625000 -0.000688551866915076971054077148 0.005581018514931201934814453125 0 0 0 0 
2402000000.0000000000 0.157476887106895502288494981258 0.074113577604293823242187500000 -0.000515743973664939403533935547 0.005926637910306453704833984375 0 0 0 0 
2402166666.6666665077 0.158272340893745394607705634371 0.071624845266342163085937500000 -0.000140871037729084491729736328 0.005833737552165985107421875000 0 0 0 0 
2402333333.3333334923 0.159208938479423495193643134371 0.069165714085102081298828125000 -0.000083285332948435097932815552 0.006012164056301116943359375000 0 0 0 0 
2402500000.0000000000 0.160379037261009188553018134371 0.066357813775539398193359375000 0.000188085570698603987693786621 0.005981951020658016204833984375 0 0 0 0 
2402666666.6666665077 0.161427453160286005218182481258 0.063995882868766784667968750000 0.000446184101747348904609680176 0.006354973651468753814697265625 0 0 0 0 
2402833333.3333334923 0.162616550922393798828125000000 0.061541374772787087177317033593 0.000555213540792465209960937500 0.006389656104147434234619140625 0 0 0 0 
2403000000.0000000000 0.164340570569038391113281250000 0.059065993875265121459960937500 0.001031392370350658893585205078 0.006475208792835474014282226562 0 0 0 0 
2403166666.6666665077 0.165922179818153409103231865629 0.057039048522710800170898437500 0.001453950069844722964643168872 0.006595059763640165328979492188 0 0 0 0 
2403333333.3333334923 0.167375430464744595626669365629 0.054800547659397132183034528907 0.001775972195900977091548300635 0.006815052591264247894287109375 0 0 0 0 
2403500000.0000000000 0.169048398733139010330361884371 0.052765257656574249267578125000 0.002202507806941866874694824219 0.006894987542182207107543945312 0 0 0 0 
2403666666.6666665077 0.170908719301223810393963731258 0.050722323358058929443359375000 0.002567796735092997984645224463 0.006799452472478151321411132812 0 0 0 0 
2403833333.3333334923 0.172339633107185391525106865629 0.048861723393201828002929687500 0.002994913375005125999450683594 0.006566208787262439727783203125 0 0 0 0 
2404000000.0000000000 0.173954203724861200530682481258 0.046962827444076538085937500000 0.003411026671528815789463662256 0.006494258064776659011840820312 0 0 0 0 
2404166666.6666665077 0.175621747970581110198651231258 0.045623235404491431499440778907 0.003744918853044509887695312500 0.006127298809587956342215253613 0 0 0 0 
2404333333.3333334923 0.177324265241622897049111884371 0.044145420193672180175781250000 0.004184576217085123062133789062 0.005841673351824283599853515625 0 0 0 0 
2404500000.0000000000 0.178906247019767788986044365629 0.042847324162721626972238908593 0.004353286698460578918457031250 0.005474428646266460418701171875 0 0 0 0 
2404666666.6666665077 0.180641189217567388336505018742 0.041513677686452872539479841407 0.004635390825569629669189453125 0.005332399159669876098632812500 0 0 0 0 
2404833333.3333334923 0.182178884744644192794638115629 0.040574733167886727069895158593 0.004989170935004949569702148438 0.004924925509840250015258789062 0 0 0 0 
2405000000.0000000000 0.183556839823722811599893134371 0.039990872144699096679687500000 0.005132028833031654357910156250 0.004537126049399375915527343750 0 0 0 0 
2405166666.6666665077 0.184982612729072598556356865629 0.039337251335382461547851562500 0.005230045411735773086547851562 0.004312796983867883682250976562 0 0 0 0 
2405333333.3333334923 0.186427295207977294921875000000 0.038897484540939331054687500000 0.005381109192967414855957031250 0.003967897500842809677124023438 0 0 0 0 
2405500000.0000000000 0.188033014535903902908486884371 0.038352902978658683086354841407 0.005428110249340534210205078125 0.003672647755593061013462685693 0 0 0 0 
2405666666.6666665077 0.188956648111343411544638115629 0.038054026663303382183034528907 0.005560979247093200683593750000 0.003414712380617856979370117188 0 0 0 0 
2405833333.3333334923 0.190385252237320001800213731258 0.037887316197156913066823591407 0.005377105902880430221557617188 0.003077185712754725976231240381 0 0 0 0 
2406000000.0000000000 0.191396519541740389724893134371 0.037843219935894012451171875000 0.005667299963533878326416015625 0.002853535348549485206604003906 0 0 0 0 
2406166666.6666665077 0.192356169223785400390625000000 0.037507187575101852416992187500 0.005585237871855497360229492188 0.002635022625327109856846474756 0 0 0 0 
2406333333.3333334923 0.193351104855537386795205634371 0.037585873156785971904714216407 0.005571504589170218381399823926 0.002295473823323845863342285156 0 0 0 0 
2406500000.0000000000 0.194129317998886108398437500000 0.037688475102186203002929687500 0.005517667159438133239746093750 0.002120474353432654900791787256 0 0 0 0 
2406666666.6666665077 0.194644585251808194259481865629 0.037773307412862777709960937500 0.005514090880751609802246093750 0.001880608964711427905439067310 0 0 0 0 
2406833333.3333334923 0.195291861891746493240518134371 0.037873532623052597045898437500 0.005533403716981410980224609375 0.001659903558902443105813051538 0 0 0 0 
2407000000.0000000000 0.195566132664680508712606865629 0.038022376596927642822265625000 0.005540217272937297821044921875 0.001523018698208034038543701172 0 0 0 0 
2407166666.6666665077 0.196011170744895907303018134371 0.037967056035995483398437500000 0.005499171093106269836425781250 0.001236453535966574928881001050 0 0 0 0 
2407333333.3333334923 0.195929333567619295974893134371 0.038173593580722808837890625000 0.005293074063956738385672284863 0.000935031508561223853766286584 0 0 0 0 
2407500000.0000000000 0.196038171648979187011718750000 0.038257673382759087299387346093 0.005330965388566255569458007812 0.000891947245690971612930297852 0 0 0 0 
2407666666.6666665077 0.195944830775260897537393134371 0.038128402084112167358398437500 0.005246143788099288940429687500 0.000726782716810703277587890625 0 0 0 0 
2407833333.3333334923 0.195511162281036404708700615629 0.038064219057559967041015625000 0.005124273244291543960571289062 0.000526613264810293912887573242 0 0 0 0 
2408000000.0000000000 0.195498555898666409591513115629 0.037958610802888870239257812500 0.004941598512232303619384765625 0.000329884176608174985081273212 0 0 0 0 
2408166666.6666665077 0.194874376058578491210937500000 0.037686053663492202758789062500 0.004937272984534502029418945312 0.000099421660706866532564163208 0 0 0 0 
2408333333.3333334923 0.194499909877777099609375000000 0.037149608135223388671875000000 0.004758641589432954788208007812 0.000012800688637071290816170539 0 0 0 0 
2408500000.0000000000 0.193823218345642089843750000000 0.036868438124656677246093750000 0.004691156093031167984008789062 -0.000048754311137599870562553406 0 0 0 0 
2408666666.6666665077 0.193199798464775113204794365629 0.036396928131580352783203125000 0.004590238910168409347534179688 -0.000249231117777526378631591797 0 0 0 0 
2408833333.3333334923 0.192553162574768094161825615629 0.035556662827730178833007812500 0.004473693203181028366088867188 -0.000487426848849281722873133527 0 0 0 0 
2409000000.0000000000 0.191399753093719510177450615629 0.034747287631034851074218750000 0.004270185716450214385986328125 -0.000640118611045181751251220703 0 0 0 0 
2409166666.6666665077 0.190673634409904507736044365629 0.033788867294788360595703125000 0.004099146928638219833374023438 -0.000607465801294893026351928711 0 0 0 0 
2409333333.3333334923 0.189704686403274508377236884371 0.032752845436334609985351562500 0.003869885811582208113429404150 -0.000658692617435008287429809570 0 0 0 0 
2409500000.0000000000 0.188610970973968505859375000000 0.031493254005908973003347028907 0.003816352691501379013061523438 -0.000591110321693122386932373047 0 0 0 0 
2409666666.6666665077 0.187680438160896301269531250000 0.030063634738326069223424141796 0.003604160388931632041931152344 -0.000649070076178759336471557617 0 0 0 0 
2409833333.3333334923 0.186682090163230895996093750000 0.028706951066851619375208670704 0.003548201639205216927769326318 -0.000635461823549121618270874023 0 0 0 0 
2410000000.0000000000 0.185815781354904202560263115629 0.026894897222518920898437500000 0.003478662110865116119384765625 -0.000716775830369442701339721680 0 0 0 0 
2410166666.6666665077 0.184675171971321105957031250000 0.025157751515507701528528983204 0.003360717324540019035339355469 -0.000477497465908527374267578125 0 0 0 0 
2410333333.3333334923 0.183652788400649996658486884371 0.023121453821659091604212576954 0.003415817162021995024440146338 -0.000557447201572358608245849609 0 0 0 0 
2410500000.0000000000 0.182785317301750210861044365629 0.021302171051502231252650076954 0.003484173445031046867370605469 -0.000289631017949432080418187274 0 0 0 0 
2410666666.6666665077 0.181699350476265009124432481258 0.019044296815991401672363281250 0.003376317676156758828404091943 -0.000363842846127227002948206769 0 0 0 0 
2410833333.3333334923 0.181157454848289489746093750000 0.016869954764842990529993826954 0.003401144174858928160426474463 -0.000509391829837113618850708008 0 0 0 0 
2411000000.0000000000 0.180350616574287386795205634371 0.014760342426598070317278477148 0.003323299344629048867466591943 -0.000458117458038032109111231671 0 0 0 0 
2411166666.6666665077 0.179723158478736905196981865629 0.012596338987350460397740548046 0.003400680143386125998256064307 -0.000357403361704200506210327148 0 0 0 0 
2411333333.3333334923 0.179258599877357510665731865629 0.010044398717582229269007498829 0.003491391427814960913417197119 -0.000345302571076899821132105695 0 0 0 0 
2411500000.0000000000 0.178845509886741610428018134371 0.007570950314402580261230468750 0.003451428608968853950500488281 -0.000454702647402882575988769531 0 0 0 0 
2411666666.6666665077 0.178483113646507290939169365629 0.005374547559767962369436933301 0.003379563335329294204711914062 -0.000521374400705099105834960938 0 0 0 0 
2411833333.3333334923 0.178264170885086087325888115629 0.002979630371555685997009277344 0.003384420182555913925170898438 -0.000507622025907039642333984375 0 0 0 0 
2412000000.0000000000 0.178287521004676791092080634371 0.000281956337857991511195582257 0.003403794718906282944920205225 -0.000551427481696009635925292969 0 0 0 0 
2412166666.6666665077 0.178384229540824890136718750000 -0.002096707699820398850681923975 0.003416390391066669984104775537 -0.000650941336061805486679077148 0 0 0 0 
2412333333.3333334923 0.178678929805755587478799384371 -0.004591118078678846359252929688 0.003383168950676918029785156250 -0.000480549002531915903091430664 0 0 0 0 
2412500000.0000000000 0.179153218865394592285156250000 -0.007006516214460135373587323926 0.003378602676093577904942177881 -0.000533498881850391626358032227 0 0 0 0 
2412666666.6666665077 0.179683730006218012054119981258 -0.009504577144980430603027343750 0.003594700712710618972778320312 -0.000681075092870742082595825195 0 0 0 0 
2412833333.3333334923 0.180359393358230590820312500000 -0.011989309452474120748499686329 0.003421001136302947998046875000 -0.000632344454061239957809448242 0 0 0 0 
2413000000.0000000000 0.181264638900756808181924384371 -0.014277745969593530137031756055 0.003498339559882878823521279443 -0.000614476506598293781280517578 0 0 0 0 
2413166666.6666665077 0.181892573833465603927450615629 -0.016485018655657771718958670704 0.003480987390503286881687783350 -0.000629042857326567173004150391 0 0 0 0 
2413333333.3333334923 0.182996034622192410568075615629 -0.019029309973120689392089843750 0.003544202074408531188964843750 -0.000740115821827203035354614258 0 0 0 0 
2413500000.0000000000 0.183874428272247286697549384371 -0.021238811314105991018275076954 0.003697756212204695181605673682 -0.000821167312096804380416870117 0 0 0 0 
2413666666.6666665077 0.185089215636253412444744981258 -0.023455265909433368337611014454 0.003637673333287239074707031250 -0.000758259790018200874328613281 0 0 0 0 
2413833333.3333334923 0.186160221695899991134481865629 -0.025490459054708480834960937500 0.003837844589725137190577841650 -0.000924844644032418727874755859 0 0 0 0 
2414000000.0000000000 0.187298610806465204436932481258 -0.027442170307040221477468122657 0.003857373492792249159571982275 -0.001100825029425323009490966797 0 0 0 0 
2414166666.6666665077 0.188649028539657592773437500000 -0.029213039204478260385533516796 0.003925143275409936904907226562 -0.001014930079691112041473388672 0 0 0 0 
2414333333.3333334923 0.189756885170936612228231865629 -0.031302299350500106811523437500 0.004037577658891677856445312500 -0.001135474885813892104505229419 0 0 0 0 
2414500000.0000000000 0.190931603312492398361044365629 -0.032755039632320397113840471093 0.004053806886076927185058593750 -0.001408879295922816016553569263 0 0 0 0 
2414666666.6666665077 0.192135229706764193435830634371 -0.034192871302366256713867187500 0.004014967475086450576782226562 -0.001540878321975470022914267432 0 0 0 0 
2414833333.3333334923 0.193287953734397888183593750000 -0.035666726529598243022878278907 0.004142151679843664169311523438 -0.001691902521997689983965229565 0 0 0 0 
2415000000.0000000000 0.194340080022811889648437500000 -0.037012714892625808715820312500 0.004012907389551401138305664062 -0.001837180927395821051356650244 0 0 0 0 
2415166666.6666665077 0.195648401975631713867187500000 -0.038044404238462448120117187500 0.003916632384061813354492187500 -0.002026327187195419831516884912 0 0 0 0 
2415333333.3333334923 0.196823000907898004729901231258 -0.039008930325508117675781250000 0.004105843137949705123901367188 -0.002154942834749817848205566406 0 0 0 0 
2415500000.0000000000 0.197832062840461703201455634371 -0.039614424109458923339843750000 0.003893053857609630064723349463 -0.002370331669226288795471191406 0 0 0 0 
2415666666.6666665077 0.198942512273788507659588731258 -0.040557727217674262309987653907 0.003809927031397819952723837744 -0.002322998596355319023132324219 0 0 0 0 
2415833333.3333334923 0.199782609939575195312500000000 -0.041162922978401177143137346093 0.003818246070295571847202920068 -0.002458156784996389909031533350 0 0 0 0 
2416000000.0000000000 0.200537279248237609863281250000 -0.041696652770042419433593750000 0.003742371220141648812534951318 -0.002582561457529664039611816406 0 0 0 0 
2416166666.6666665077 0.201268449425697298904580634371 -0.042300287634134292602539062500 0.003750847419723867936375283350 -0.002799564274027944044825888525 0 0 0 0 
2416333333.3333334923 0.201953276991844205001669365629 -0.042539648711681372905690778907 0.003797129495069385008571005713 -0.002870253985747694969177246094 0 0 0 0 
2416500000.0000000000 0.202354058623313903808593750000 -0.042815651744604110717773437500 0.003729720134288073019740439307 -0.002963248873129487037658691406 0 0 0 0 
2416666666.6666665077 0.202682495117187500000000000000 -0.043080348521471016620676408593 0.003598939394578338103053427588 -0.003216239158064126968383789062 0 0 0 0 
2416833333.3333334923 0.202892735600471496582031250000 -0.042983710765838623046875000000 0.003605878213420509858372353662 -0.003217805642634630203247070312 0 0 0 0 
2417000000.0000000000 0.202970921993255587478799384371 -0.043117623776197426532785783593 0.003592924913391470909118652344 -0.003447551745921372933628701318 0 0 0 0 
2417166666.6666665077 0.202688798308372497558593750000 -0.043072789907455437397043596093 0.003528066677972673936131142725 -0.003547111060470343069789267432 0 0 0 0 
2417333333.3333334923 0.202461406588554410079794365629 -0.042878177016973502422292341407 0.003476605517789721922633505713 -0.003529257606714963912963867188 0 0 0 0 
2417500000.0000000000 0.202244445681571988204794365629 -0.042845074087381362915039062500 0.003247852437198162078857421875 -0.003685059258714317841770791162 0 0 0 0 
2417666666.6666665077 0.201725810766220092773437500000 -0.042570233345031738281250000000 0.003418409964069724082946777344 -0.004019658081233500566964433887 0 0 0 0 
2417833333.3333334923 0.201276510953903198242187500000 -0.042467251420021057128906250000 0.003187709255144000053405761719 -0.003996689803898335370535566113 0 0 0 0 
2418000000.0000000000 0.200585216283798190017861884371 -0.042100980877876281738281250000 0.003218936966732143922093056787 -0.004071614705026149749755859375 0 0 0 0 
2418166666.6666665077 0.199768409132957486251669365629 -0.041991285979747772216796875000 0.003232539165765047073364257812 -0.004295207094401121139526367188 0 0 0 0 
2418333333.3333334923 0.198932230472564697265625000000 -0.041806593537330627441406250000 0.003060036571696401076075888525 -0.004423449747264385223388671875 0 0 0 0 
2418500000.0000000000 0.197926804423332186599893134371 -0.041930794715881347656250000000 0.003069491125643252892735146631 -0.004668768495321273803710937500 0 0 0 0 
2418666666.6666665077 0.197029054164886502364950615629 -0.041752781718969352031667341407 0.002843802794814109802246093750 -0.004681307822465896606445312500 0 0 0 0 
2418833333.3333334923 0.195697724819183405120526231258 -0.041934881359338760375976562500 0.002821073867380619049072265625 -0.004986013285815715789794921875 0 0 0 0 
2419000000.0000000000 0.194427594542503412444744981258 -0.042200334370136260986328125000 0.002621782245114446120021201025 -0.005164264235645532608032226562 0 0 0 0 
2419166666.6666665077 0.193171292543411310393963731258 -0.042530979961156852031667341407 0.002608919050544499917271279443 -0.005474086850881577405447675488 0 0 0 0 
2419333333.3333334923 0.191752985119819613357705634371 -0.042979247868061072612722028907 0.002130497945472598075866699219 -0.005450226366519927978515625000 0 0 0 0 
2419500000.0000000000 0.190326839685440091232138115629 -0.043569318950176239013671875000 0.002114359987899661064147949219 -0.005592024419456720352172851562 0 0 0 0 
2419666666.6666665077 0.188615635037422207931356865629 -0.044298749417066567157785783593 0.001823125872761010906816792065 -0.005752678029239177703857421875 0 0 0 0 
2419833333.3333334923 0.186965197324752807617187500000 -0.045006975531578057025949846093 0.001544616185128689029096293872 -0.005819750484079123410696698926 0 0 0 0 
2420000000.0000000000 0.185518637299537686446981865629 -0.045880727469921112060546875000 0.001323203556239604949951171875 -0.005914679728448390960693359375 0 0 0 0 
