# Hz S RI R 50
2400000000.0000000000 0.155243977904319790939169365629 0.106847241520881694465394673443 0.002074334071949123902561806787 0.000610184157267212867736816406 0 0 0 0 
2400166666.6666665077 0.155032843351364107986611884371 0.104400098323821993728799384371 0.001954399282112718062159872900 0.000806414464022964239120483398 0 0 0 0 
2400333333.3333334923 0.155128613114356994628906250000 0.101932108402252197265625000000 0.002033267170190811157226562500 0.000869663606863468885421752930 0 0 0 0 
2400500000.0000000000 0.155086368322372408767861884371 0.099269852042198181152343750000 0.001920200069434941031812358325 0.000912786286789923906326293945 0 0 0 0 
2400666666.6666665077 0.155070498585700988769531250000 0.096879839897155761718750000000 0.002145846141502261161804199219 0.001092840335331856987596821362 0 0 0 0 
2400833333.3333334923 0.155071631073951693435830634371 0.093965277075767517089843750000 0.002105991821736096902134560693 0.001161084393970668099047016675 0 0 0 0 
2401000000.0000000000 0.155275180935859707931356865629 0.090998344123363494873046875000 0.002275048755109310150146484375 0.001243197242729366042493510669 0 0 0 0 
2401166666.6666665077 0.155482187867164611816406250000 0.088357426226139068603515625000 0.002406194107607007026672363281 0.001184263848699629089952778394 0 0 0 0 
2401333333.3333334923 0.155827566981315612792968750000 0.085320934653282165527343750000 0.002538346219807862801792763818 0.001219210331328212998033833081 0 0 0 0 
2401500000.0000000000 0.156331390142440795898437500000 0.082640655338764190673828125000 0.002547589363530278205871582031 0.001097466563805937983869243091 0 0 0 0 
2401666666.6666665077 0.156611025333404513260049384371 0.079680256545543670654296875000 0.002684306818991899924037314307 0.001188158756121993064880371094 0 0 0 0 
2401833333.3333334923 0.157426893711090087890625000000 0.077331408858299255371093750000 0.002903903368860483169555664062 0.001026659854687749905827187646 0 0 0 0 
2402000000.0000000000 0.158360153436660794357138115629 0.074196055531501770019531250000 0.002969415858387947082519531250 0.001104952068999409892438579028 0 0 0 0 
2402166666.6666665077 0.159071564674377413650674384371 0.071815438568592071533203125000 0.002935437485575675964355468750 0.000901977648027241230010986328 0 0 0 0 
2402333333.3333334923 0.159739449620246887207031250000 0.069329261779785156250000000000 0.003142504021525382995605468750 0.000839763728436082601547241211 0 0 0 0 
2402500000.0000000000 0.161026790738105801681356865629 0.066236346960067749023437500000 0.003173652337864040894749306787 0.000800346315372735261917114258 0 0 0 0 
2402666666.6666665077 0.162548094987869290450888115629 0.063922479748725891113281250000 0.003293358022347093062159872900 0.000638486468233168125152587891 0 0 0 0 
2402833333.3333334923 0.163825973868370111663494981258 0.061549365520477301860768903907 0.003196651581674813790562295068 0.000516129191964864730834960938 0 0 0 0 
2403000000.0000000000 0.165137514472007806975994981258 0.059488963335752487182617187500 0.003229359164834022955653525244 0.000401349476305767893791198730 0 0 0 0 
2403166666.6666665077 0.166702374815940912444744981258 0.057026337832212448120117187500 0.003189420094713569121119833838 0.000384417682653293013572692871 0 0 0 0 
2403333333.3333334923 0.168248698115348788162393134371 0.054992195218801498413085937500 0.003243344603106379942653036963 0.000198319583432748886659899301 0 0 0 0 
2403500000.0000000000 0.170065239071846008300781250000 0.052785251289606087421457658593 0.003150545991957188086268759619 0.000194541658856905996799468994 0 0 0 0 
2403666666.6666665077 0.171703919768333407303018134371 0.050892353057861328125000000000 0.003118850057944654984715127100 0.000053288669732864952903201444 0 0 0 0 
2403833333.3333334923 0.173353567719459505935830634371 0.049063242971897132183034528907 0.003130652708932756943943642725 0.000120765384053811403826036996 0 0 0 0 
2404000000.0000000000 0.175073370337486294845419365629 0.047131367027759552001953125000 0.003263618564233183860778808594 0.000197292727534659206867218018 0 0 0 0 
2404166666.6666665077 0.176687553524971008300781250000 0.045806448906660079956054687500 0.003394688945263624191284179688 0.000111643043055664802163523541 0 0 0 0 
2404333333.3333334923 0.178337961435317993164062500000 0.044189851731061942363698591407 0.003439191961660981178283691406 0.000295073492452502304881495343 0 0 0 0 
2404500000.0000000000 0.179903656244278009612713731258 0.042799979448318481445312500000 0.003525337902829051017761230469 0.000066898057411890476942062378 0 0 0 0 
2404666666.6666665077 0.181502878665924100021200615629 0.041682898998260498046875000000 0.003891203086823225021362304688 0.000083662125689443200826644897 0 0 0 0 
2404833333.3333334923 0.183129131793975802322549384371 0.040759813040494918823242187500 0.003865938168019055886509560693 0.000018587388694868419656549760 0 0 0 0 
2405000000.0000000000 0.184419706463813809493856865629 0.039909273386001586914062500000 0.004024589434266090393066406250 -0.000259995314991101622581481934 0 0 0 0 
2405166666.6666665077 0.185766741633415194412393134371 0.039227463304996490478515625000 0.004233928862959147366995527051 -0.000460056704469025080830174579 0 0 0 0 
2405333333.3333334923 0.187265694141387911697549384371 0.038693409413099288940429687500 0.004190915264189243316650390625 -0.000493514467962086200714111328 0 0 0 0 
2405500000.0000000000 0.188488528132438687423544365629 0.038377709686756127094309221093 0.004242469556629657745361328125 -0.000987004255875945091247558594 0 0 0 0 
2405666666.6666665077 0.189799502491950988769531250000 0.038070552051067352294921875000 0.004228264093399047851562500000 -0.001071438426151871898053813403 0 0 0 0 
2405833333.3333334923 0.190957412123680086990518134371 0.037652205675840377807617187500 0.004190766718238592147827148438 -0.001415800070390105030657124097 0 0 0 0 
2406000000.0000000000 0.192209631204605102539062500000 0.037501871585845947265625000000 0.004204762168228626251220703125 -0.001681467867456376986262656104 0 0 0 0 
2406166666.6666665077 0.192977800965309087555255018742 0.037283778190612792968750000000 0.004205776378512383374685956738 -0.001755163772031665065168071216 0 0 0 0 
2406333333.3333334923 0.193847998976707486251669365629 0.037517111748456961894948591407 0.004222687333822250366210937500 -0.001694239559583365917205810547 0 0 0 0 
2406500000.0000000000 0.194334313273429898361044365629 0.037222251296043402934987653907 0.003787667024880648092982626807 -0.001815392635762691931483603369 0 0 0 0 
2406666666.6666665077 0.194891214370727511306924384371 0.037599567323923110961914062500 0.003853630041703581809997558594 -0.001918053487315773963928222656 0 0 0 0 
2406833333.3333334923 0.195505544543266296386718750000 0.037827096879482269287109375000 0.004111269488930702209472656250 -0.001758060650900006077410053784 0 0 0 0 
2407000000.0000000000 0.195700600743293789962606865629 0.038004755973815917968750000000 0.004185257013887166976928710938 -0.001993414014577866034266806494 0 0 0 0 
2407166666.6666665077 0.196254372596740694900674384371 0.037375796586275100708007812500 0.003890153486281632943394326318 -0.002592466538771986961364746094 0 0 0 0 
2407333333.3333334923 0.196288675069808987716513115629 0.037680186331272132183034528907 0.004019019193947315216064453125 -0.002662796294316649003269814600 0 0 0 0 
2407500000.0000000000 0.196066215634346008300781250000 0.037890437990427017211914062500 0.003986599389463663101196289062 -0.002807709155604242844822548975 0 0 0 0 
2407666666.6666665077 0.196048870682716397384481865629 0.037773765623569488525390625000 0.003900264156982303099391318213 -0.002977902768179773850681923975 0 0 0 0 
2407833333.3333334923 0.195604264736175509353799384371 0.037696089595556259155273437500 0.003871124237775803045985556494 -0.003268307307735085921046591650 0 0 0 0 
2408000000.0000000000 0.195519447326660211761151231258 0.037437219172716140747070312500 0.003881152253597975210902548682 -0.003221875987946987152099609375 0 0 0 0 
2408166666.6666665077 0.194950848817825289627236884371 0.037110734730958938598632812500 0.003809873247519135908839560400 -0.003488304093480110168457031250 0 0 0 0 
2408333333.3333334923 0.194311663508415194412393134371 0.036602254956960678100585937500 0.003648501588031650023219443213 -0.003879518480971456007716513525 0 0 0 0 
2408500000.0000000000 0.193599924445152310470419365629 0.036309871822595603252370466407 0.003663425799459218978881835938 -0.003921943716704845428466796875 0 0 0 0 
2408666666.6666665077 0.192992269992828396896200615629 0.035626504570245742797851562500 0.003389611141756176948547363281 -0.004210045095533133420462323926 0 0 0 0 
2408833333.3333334923 0.192315831780433710296307481258 0.034925751388072967529296875000 0.003357584588229655785801552881 -0.004488626029342412948608398438 0 0 0 0 
2409000000.0000000000 0.191344454884529113769531250000 0.034105658531188971782643903907 0.003014721209183334870579384912 -0.004636064171791076660156250000 0 0 0 0 
2409166666.6666665077 0.190380185842514010330361884371 0.032988842576742172241210937500 0.002993198111653327941894531250 -0.004913568031042814254760742188 0 0 0 0 
2409333333.3333334923 0.189395070075988797286825615629 0.032115206122398383403737653907 0.002667167922481894926783896338 -0.005081964656710624694824218750 0 0 0 0 
2409500000.0000000000 0.188315376639366205413494981258 0.030618695542216300964355468750 0.002234955551102757887599326025 -0.005311639513820409774780273438 0 0 0 0 
2409666666.6666665077 0.187294527888298006912393134371 0.029271932318806651723841483204 0.002195147797465323968174599756 -0.005381286609917879104614257812 0 0 0 0 
2409833333.3333334923 0.186298534274101312835369981258 0.027914740145206451416015625000 0.001810172572731971957563090747 -0.005297895986586809158325195312 0 0 0 0 
2410000000.0000000000 0.185187891125678988357705634371 0.026270244270563129079798514454 0.001647420111112297014949179541 -0.005410553887486457824707031250 0 0 0 0 
2410166666.6666665077 0.184224471449851989746093750000 0.024343669414520260202428048046 0.001284284051507710976841591943 -0.005459057167172431945800781250 0 0 0 0 
2410333333.3333334923 0.183391585946083096603231865629 0.022563347592949870717982108204 0.000999080715700984001159667969 -0.005497595760971307754516601562 0 0 0 0 
2410500000.0000000000 0.182416394352912902832031250000 0.020559487864375110971471016796 0.000957880518399178981781005859 -0.005578062962740659713745117188 0 0 0 0 
2410666666.6666665077 0.181535109877586392501669365629 0.018423112109303470956822579296 0.000618491205386817455291748047 -0.005415359046310186386108398438 0 0 0 0 
2410833333.3333334923 0.180770397186279296875000000000 0.016195246949791911733607108204 0.000375192641513422077328282489 -0.005502319894731044769287109375 0 0 0 0 
2411000000.0000000000 0.180045023560523986816406250000 0.014051363803446289407750313671 0.000137893250212073299005785532 -0.005601174663752317428588867188 0 0 0 0 
2411166666.6666665077 0.179354384541511507888955634371 0.011824703775346279144287109375 -0.000105144819826819002628326416 -0.005587013438344001770019531250 0 0 0 0 
2411333333.3333334923 0.178827553987503107268963731258 0.009227237664163112640380859375 -0.000252528494456782882839757098 -0.005498703569173812866210937500 0 0 0 0 
2411500000.0000000000 0.178337007761001586914062500000 0.007022725883871316909790039062 -0.000477046356536448001861572266 -0.005487171933054924011230468750 0 0 0 0 
2411666666.6666665077 0.178270608186721801757812500000 0.004533257335424423217773437500 -0.000773913401644676923751831055 -0.005442099645733833312988281250 0 0 0 0 
2411833333.3333334923 0.178006514906883211990518134371 0.002321533160284162001368857275 -0.000904289539903402328491210938 -0.005301077850162982940673828125 0 0 0 0 
2412000000.0000000000 0.177989766001701410491619981258 -0.000415712944231927394866943359 -0.001118284300900995948194194263 -0.005346927791833878430838300488 0 0 0 0 
2412166666.6666665077 0.178248316049575805664062500000 -0.002677851356565951867344521631 -0.001189890434034168937085795825 -0.005351269617676734924316406250 0 0 0 0 
2412333333.3333334923 0.178429141640663202483807481258 -0.005183347035199403762817382812 -0.001404294394887984015821147388 -0.005140953697264195355887128613 0 0 0 0 
2412500000.0000000000 0.178852751851081903655682481258 -0.007560245692729949951171875000 -0.001757328282110393047332763672 -0.005232354160398244857788085938 0 0 0 0 
2412666666.6666665077 0.179497271776199313064736884371 -0.009999735280871391296386718750 -0.002081716898828744888305664062 -0.005246864166110754013061523438 0 0 0 0 
2412833333.3333334923 0.180083364248275812347088731258 -0.012522519566118720663050467579 -0.002447638195008039908168173682 -0.004929629154503346356863691113 0 0 0 0 
2413000000.0000000000 0.180840551853179903885049384371 -0.014691269956529140472412109375 -0.002695916686207056045532226562 -0.004877765197306871414184570312 0 0 0 0 
2413166666.6666665077 0.181512430310249300857705634371 -0.016874331980943679809570312500 -0.002822205424308776855468750000 -0.004807407502084971341604902051 0 0 0 0 
2413333333.3333334923 0.182580754160880986969317518742 -0.019197883084416389465332031250 -0.003139057429507375197169638525 -0.004522690083831548690795898438 0 0 0 0 
2413500000.0000000000 0.183511853218078613281250000000 -0.021575924009084701538085937500 -0.003488902235403656959533691406 -0.004311840049922466278076171875 0 0 0 0 
2413666666.6666665077 0.184536501765251187423544365629 -0.023530174046754840505579764454 -0.003661165013909339904785156250 -0.003969345707446336746215820312 0 0 0 0 
2413833333.3333334923 0.185649096965789794921875000000 -0.025460856035351749765416329296 -0.003811053466051816940307617188 -0.003617710433900355859043740381 0 0 0 0 
2414000000.0000000000 0.186858251690864590743856865629 -0.027541004121303558349609375000 -0.003934100735932588577270507812 -0.003347137942910193963291787256 0 0 0 0 
2414166666.6666665077 0.188139781355857904632244981258 -0.029269246384501460683802420704 -0.004093166906386613845825195312 -0.002886675065383315086364746094 0 0 0 0 
2414333333.3333334923 0.189067304134368896484375000000 -0.031097861006855971599538435157 -0.004041345790028572082519531250 -0.002574300393462181091308593750 0 0 0 0 
2414500000.0000000000 0.190421804785728510100994981258 -0.032603833824396133422851562500 -0.004161381162703037261962890625 -0.002387865679338573975803994287 0 0 0 0 
2414666666.6666665077 0.191598862409591702560263115629 -0.033986672759056091308593750000 -0.004032677039504051208496093750 -0.002010841621086000962498330225 0 0 0 0 
2414833333.3333334923 0.192831054329872103592080634371 -0.035254143178462982177734375000 -0.003954417537897825241088867188 -0.001640724483877419991734170068 0 0 0 0 
2415000000.0000000000 0.193875014781951904296875000000 -0.036574751138687126850168596093 -0.003854394191876053810119628906 -0.001336039393208920955657958984 0 0 0 0 
2415166666.6666665077 0.195191398262977600097656250000 -0.037577144801616668701171875000 -0.003726008813828229904174804688 -0.001230472815223037979723286206 0 0 0 0 
2415333333.3333334923 0.196201100945472689529580634371 -0.038551300764083862304687500000 -0.003600774100050330162048339844 -0.000978945987299084663391113281 0 0 0 0 
2415500000.0000000000 0.197356343269348089020098768742 -0.039192374795675277709960937500 -0.003390136873349546952488564600 -0.000798127846792340278625488281 0 0 0 0 
2415666666.6666665077 0.198371797800064086914062500000 -0.040097910910844802856445312500 -0.003236676333472133116481161963 -0.000714608293492347002029418945 0 0 0 0 
2415833333.3333334923 0.199250146746635409256143134371 -0.040606662631034851074218750000 -0.003142505651339889006373740088 -0.000683628313709050416946411133 0 0 0 0 
2416000000.0000000000 0.200046882033348111251669365629 -0.041128937155008322978932966407 -0.002864897949621080918553017725 -0.000550816359464079141616821289 0 0 0 0 
2416166666.6666665077 0.200728610157966613769531250000 -0.041722424328327178955078125000 -0.002918946556746960119960165869 -0.000288090755930170416831970215 0 0 0 0 
2416333333.3333334923 0.201439470052719088455361884371 -0.041890326887369162822682966407 -0.002691298956051468849182128906 -0.000304833316477015614509582520 0 0 0 0 
2416500000.0000000000 0.201867327094078091720419365629 -0.042150672525167472148854841407 -0.002490340732038021087646484375 -0.000340880738804116899341029034 0 0 0 0 
2416666666.6666665077 0.202130511403083801269531250000 -0.042510572820901870727539062500 -0.002346952445805072784423828125 -0.000214442159631289487511235370 0 0 0 0 
2416833333.3333334923 0.202279791235923794845419365629 -0.042478911578655242919921875000 -0.002113991184160112900974892725 -0.000174278902704827487468719482 0 0 0 0 
2417000000.0000000000 0.202410772442817687988281250000 -0.042624793946743011474609375000 -0.001985406503081322149989462744 -0.000144638644997030496597290039 0 0 0 0 
2417166666.6666665077 0.202165201306343106368856865629 -0.042497161775827407836914062500 -0.001724796253256499984143901294 -0.000293930788757279515266418457 0 0 0 0 
2417333333.3333334923 0.201961725950241088867187500000 -0.042290654033422470092773437500 -0.001806100830435753085492778247 -0.000352981063770130276679992676 0 0 0 0 
2417500000.0000000000 0.201690450310707092285156250000 -0.042422402650117867206613908593 -0.001571753062307835058925009619 -0.000386429543141275590092259540 0 0 0 0 
2417666666.6666665077 0.201071724295616205413494981258 -0.042164653539657592773437500000 -0.001464120112359523990033793872 -0.000398045172914862578541356219 0 0 0 0 
2417833333.3333334923 0.200673341751098605056924384371 -0.041976280510425567626953125000 -0.001443226821720599911333393628 -0.000584780704230070114135742188 0 0 0 0 
2418000000.0000000000 0.200052991509437588790731865629 -0.041776575148105621337890625000 -0.001450531301088630936266254956 -0.000790582795161753892898559570 0 0 0 0 
2418166666.6666665077 0.199268803000450106521768134371 -0.041674911975860602642018903907 -0.001283828984014689922332763672 -0.000843604037072509527206420898 0 0 0 0 
2418333333.3333334923 0.198304310441017206390057481258 -0.041523650288581848144531250000 -0.001237671123817563056945800781 -0.000848754425533115863800048828 0 0 0 0 
2418500000.0000000000 0.197280898690223693847656250000 -0.041543129831552512432057966407 -0.001281116390600800947902060400 -0.001170145580545068004010844653 0 0 0 0 
2418666666.6666665077 0.196356371045112609863281250000 -0.041573122143745422363281250000 -0.001226288848556577942491840894 -0.001305168727412820079206157153 0 0 0 0 
2418833333.3333334923 0.195164933800697298904580634371 -0.041669808328151702880859375000 -0.001330511760897934003117226709 -0.001423894776962697939631796729 0 0 0 0 
2419000000.0000000000 0.193843349814415005782919365629 -0.041875362396240227436106096093 -0.001357155852019787051557231372 -0.001562482560984790108324360425 0 0 0 0 
2419166666.6666665077 0.192477747797966003417968750000 -0.042203962802886962890625000000 -0.001365184900350868918775248950 -0.001711764489300549030303955078 0 0 0 0 
2419333333.3333334923 0.191174373030662508865518134371 -0.042770113795995712280273437500 -0.001503147999756037972093891675 -0.001643574913032352924346923828 0 0 0 0 
2419500000.0000000000 0.189761757850647000411825615629 -0.043135523796081542968750000000 -0.001740566920489073016523051685 -0.001947396085597574927686381763 0 0 0 0 
2419666666.6666665077 0.188244178891182001311932481258 -0.043978698551654822612722028907 -0.001764474087394773960113525391 -0.002006825525313615798950195312 0 0 0 0 
2419833333.3333334923 0.186576172709464999099893134371 -0.044729955494403839111328125000 -0.001841456512920559103127504663 -0.002065804088488221168518066406 0 0 0 0 
