# Hz S RI R 
2400000000.0000000000 0.166945889592170687576455634371 0.041528061032295227050781250000 0.002274934202432632012608193506 -0.002538596047088503837585449219 0 0 0 0 
2400166666.6666665077 0.167795225977897588531817518742 0.040615763515233986591379533593 0.002168476581573485894444131006 -0.002693185349926352934596396338 0 0 0 0 
2400333333.3333334923 0.168048024177551297286825615629 0.039597429335117340087890625000 0.002072913339361547990086220850 -0.002743370831012725830078125000 0 0 0 0 
2400500000.0000000000 0.168580591678619412521200615629 0.038595579564571380615234375000 0.002062605461105703873875283350 -0.002845738083124161200282431494 0 0 0 0 
2400666666.6666665077 0.168828457593917902190838731258 0.037591844797134399414062500000 0.001726799411699176051496196216 -0.002845932962372899055480957031 0 0 0 0 
2400833333.3333334923 0.169355452060699490646200615629 0.036636229604482650756835937500 0.001489241607487201907514262622 -0.002872612560167909102198935400 0 0 0 0 
2401000000.0000000000 0.169605746865272494217080634371 0.035655986517667770385742187500 0.001423469278961420059204101562 -0.002753747627139091925380087744 0 0 0 0 
2401166666.6666665077 0.169877737760543795486611884371 0.034679319709539413452148437500 0.001256664749234914996503520435 -0.002879691310226916833164834131 0 0 0 0 
2401333333.3333334923 0.170012712478637695312500000000 0.033679883927106857299804687500 0.001078761182725429968592978369 -0.002756120171397923989536904443 0 0 0 0 
2401500000.0000000000 0.170318365097045898437500000000 0.032807059586048133159597028907 0.001018559560179709954502724756 -0.002558758482336997985839843750 0 0 0 0 
2401666666.6666665077 0.170317962765693692306356865629 0.031879570335149771953542341407 0.000872310891281813383102416992 -0.002456567948684095902683877100 0 0 0 0 
2401833333.3333334923 0.170558065176010104080361884371 0.030689874663949009286900704296 0.000852027791552245616912841797 -0.002352926647290586991551064600 0 0 0 0 
2402000000.0000000000 0.170387357473373413085937500000 0.029915740713477141643483747657 0.000884199631400406360626220703 -0.002313470933586359024047851562 0 0 0 0 
2402166666.6666665077 0.170643925666809109786825615629 0.028872597962617870676060860546 0.001091292244382203058955527197 -0.002227609744295477867126464844 0 0 0 0 
2402333333.3333334923 0.170759946107864407638388115629 0.027961773797869678842564766796 0.000971664034295827150344848633 -0.002126339590176939964294433594 0 0 0 0 
2402500000.0000000000 0.171097591519355801681356865629 0.026995617896318439138392264454 0.001093878061510622935054160010 -0.002029326977208257155177451025 0 0 0 0 
2402666666.6666665077 0.171024933457374600509481865629 0.026041634380817409860631173046 0.001075297594070435003993368994 -0.002232373692095280127284384619 0 0 0 0 
2402833333.3333334923 0.170907407999038696289062500000 0.024891920387744900095006173046 0.001146792899817228100420307690 -0.002186671597883104844334267725 0 0 0 0 
2403000000.0000000000 0.171004459261894198318643134371 0.023849651217460628854771798046 0.001136786187998950915095663916 -0.002417825395241380171534872900 0 0 0 0 
2403166666.6666665077 0.170979142189025906661825615629 0.022640546783804890024205391796 0.001261381548829376914380717700 -0.002410690300166606903076171875 0 0 0 0 
2403333333.3333334923 0.171017602086067199707031250000 0.021666420623660091054896170704 0.001044408767484128908870077979 -0.002429993823170661926269531250 0 0 0 0 
2403500000.0000000000 0.170924186706542996505575615629 0.020535033196210861206054687500 0.001183074084110558032989501953 -0.002666816581040620803833007812 0 0 0 0 
2403666666.6666665077 0.170958951115608187576455634371 0.019139872863888740539550781250 0.001010731561109424071071005713 -0.002732864813879131837132119287 0 0 0 0 
2403833333.3333334923 0.170900672674179104904013115629 0.018095569685101509094238281250 0.001032265718095004992244101416 -0.002551961690187453789951943506 0 0 0 0 
2404000000.0000000000 0.170936018228530911544638115629 0.016842797398567199707031250000 0.000822438334580510854721069336 -0.002722095465287566184997558594 0 0 0 0 
2404166666.6666665077 0.170898631215095492263955634371 0.015512839891016479837437813671 0.000820983492303639650344848633 -0.002744106110185385184047079932 0 0 0 0 
2404333333.3333334923 0.170808911323547391036825615629 0.014372761361300950486152849805 0.001083019771613181071040488135 -0.002944936975836753845214843750 0 0 0 0 
2404500000.0000000000 0.170707941055297907073651231258 0.012846816331148149317731288477 0.000727896636817604303359985352 -0.002846199786290525956394814600 0 0 0 0 
2404666666.6666665077 0.170749470591545104980468750000 0.011662472039461139333704764454 0.000782154907938092947006225586 -0.002836970845237373872044228662 0 0 0 0 
2404833333.3333334923 0.170800879597663907150106865629 0.010261057876050470524798008398 0.000800537120085209608078002930 -0.002968902233988047079799033057 0 0 0 0 
2405000000.0000000000 0.170811310410499600509481865629 0.008899895474314689636230468750 0.000761805102229118347167968750 -0.003342687152326107025146484375 0 0 0 0 
2405166666.6666665077 0.170875683426856994628906250000 0.007310078479349613189697265625 0.000659118348266929388046264648 -0.003190633142367004914524697412 0 0 0 0 
2405333333.3333334923 0.170887172222137506683026231258 0.005818511825054883956909179688 0.000537445943336933851242065430 -0.003110161283984779877903603662 0 0 0 0 
2405500000.0000000000 0.170823976397514287750567518742 0.004480822011828423413748456738 0.000453812739579006975323277606 -0.003217646619305015043971396338 0 0 0 0 
2405666666.6666665077 0.170939728617668207366619981258 0.002960151061415671868565224756 0.000398650910938158577114659442 -0.003372852224856615066528320312 0 0 0 0 
2405833333.3333334923 0.170770883560180691818075615629 0.001528738415800034999847412109 0.000156015026732347905635833740 -0.003425815375521779060363769531 0 0 0 0 
2406000000.0000000000 0.170843794941902188400106865629 -0.000146364123793318894788464957 0.000132006869534961906358441763 -0.003528799163177609009983681787 0 0 0 0 
2406166666.6666665077 0.170537918806076105315838731258 -0.001557140960358083031297993237 -0.000053187508456176146864891052 -0.003497427329421042962315224756 0 0 0 0 
2406333333.3333334923 0.170715674757957486251669365629 -0.003065918572247027917149209131 -0.000108426531369332197025576181 -0.003439528634771705107447958838 0 0 0 0 
2406500000.0000000000 0.170460268855094909667968750000 -0.004590811207890511426443769238 -0.000207135744858533089787083759 -0.003625164972618221802952431787 0 0 0 0 
2406666666.6666665077 0.170282587409019497970419365629 -0.006070260424166917800903320312 -0.000345873588230460882186889648 -0.003668299177661538124084472656 0 0 0 0 
2406833333.3333334923 0.170178845524787902832031250000 -0.007548195309937000274658203125 -0.000563236651942133903503417969 -0.003745040856301784949061728369 0 0 0 0 
2407000000.0000000000 0.169969901442527798751669365629 -0.008860205300152301788330078125 -0.000566704024095088243484497070 -0.003781833918765186829807900537 0 0 0 0 
2407166666.6666665077 0.169932603836059598068075615629 -0.010297627188265320169469063671 -0.000815177627373486757278442383 -0.003834981005638837814331054688 0 0 0 0 
2407333333.3333334923 0.169526368379592895507812500000 -0.011655016802251340693463710352 -0.000943296065088361501693725586 -0.003801137441769241853001259912 0 0 0 0 
2407500000.0000000000 0.169219017028808593750000000000 -0.012878994457423690450648123829 -0.001172814285382628007176064600 -0.003629937535151838822605752100 0 0 0 0 
2407666666.6666665077 0.169074922800064086914062500000 -0.013939475640654560434361641796 -0.001301696291193366050720214844 -0.003604736877605319023132324219 0 0 0 0 
2407833333.3333334923 0.168873161077499389648437500000 -0.015219719149172309530237967579 -0.001548500149510801055310893481 -0.003650013590231537818908691406 0 0 0 0 
2408000000.0000000000 0.168740585446357699295205634371 -0.016330678015947338449498360546 -0.001804292318411171002628945459 -0.003518647281453012986424111475 0 0 0 0 
2408166666.6666665077 0.168566212058067294021768134371 -0.017198145389556891704518903907 -0.001979298191145062012913369287 -0.003506014589220284981968545068 0 0 0 0 
2408333333.3333334923 0.168468117713928194900674384371 -0.018178930506110191345214843750 -0.002064804546535015106201171875 -0.003339573508128523826599121094 0 0 0 0 
2408500000.0000000000 0.168369263410568209549111884371 -0.019149677827954288827916329296 -0.002016787417232989831211709131 -0.003199866740033030943629599463 0 0 0 0 
2408666666.6666665077 0.168202072381973294357138115629 -0.020027684047818180429478829296 -0.002305385889485477967503213037 -0.003081483067944645881652832031 0 0 0 0 
2408833333.3333334923 0.168256223201751708984375000000 -0.020846327766776088369349295704 -0.002335063647478818893432617188 -0.002982284873723984198329306494 0 0 0 0 
2409000000.0000000000 0.168252453207969693282919365629 -0.021783571690320968627929687500 -0.002451678970828651948216103662 -0.002886026166379452185389853369 0 0 0 0 
2409166666.6666665077 0.168361499905586187164630018742 -0.022640932351350780832310860546 -0.002230588346719741821289062500 -0.002699888078495860099792480469 0 0 0 0 
2409333333.3333334923 0.168510898947715787032919365629 -0.023604452610015869140625000000 -0.002407726831734180884120322119 -0.002629850758239626884460449219 0 0 0 0 
2409500000.0000000000 0.168508574366569491287393134371 -0.024584341794252399099329764454 -0.002243359806016087965724326025 -0.002597715239971876144409179688 0 0 0 0 
2409666666.6666665077 0.168523654341697692871093750000 -0.025341218337416648864746093750 -0.002444907091557980017421103369 -0.002440161304548383192775107275 0 0 0 0 
2409833333.3333334923 0.168563216924667386154013115629 -0.026408990845084190368652343750 -0.002325117820873856978175497900 -0.002443555742502212958094931494 0 0 0 0 
2410000000.0000000000 0.168720275163650512695312500000 -0.027201998978853229177454764454 -0.002356840297579764886143349756 -0.002444705227389932112452841650 0 0 0 0 
2410166666.6666665077 0.168742731213569613357705634371 -0.028371570631861690175989920704 -0.002328886650502682165858603369 -0.002473172964528203010559082031 0 0 0 0 
2410333333.3333334923 0.168589293956756591796875000000 -0.029267497360706329345703125000 -0.002285583177581429915187216650 -0.002361767925322055816650390625 0 0 0 0 
2410500000.0000000000 0.168531835079193087478799384371 -0.030265521258115768432617187500 -0.002421918092295527891871786963 -0.002490888582542539076564169775 0 0 0 0 
2410666666.6666665077 0.168469652533531188964843750000 -0.031333480030298233032226562500 -0.002448533894494175910949707031 -0.002423194469884037971496582031 0 0 0 0 
2410833333.3333334923 0.168439626693725613693075615629 -0.032203409820795059204101562500 -0.002645249478518962860107421875 -0.002428452018648386001586914062 0 0 0 0 
2411000000.0000000000 0.168207019567489596267861884371 -0.033210832625627517700195312500 -0.002628675196319818930384970557 -0.002678595250472425980808877100 0 0 0 0 
2411166666.6666665077 0.167994961142540005782919365629 -0.034283064305782318115234375000 -0.002769885817542672157287597656 -0.002465293509885669188258505713 0 0 0 0 
2411333333.3333334923 0.167878344655036898513955634371 -0.035087026655673980712890625000 -0.003058620495721697807312011719 -0.002645197324454783959629677881 0 0 0 0 
2411500000.0000000000 0.167462155222892788986044365629 -0.036129862070083618164062500000 -0.003382289549335836930515908350 -0.002474748529493809180018759619 0 0 0 0 
2411666666.6666665077 0.167361095547676086425781250000 -0.037049982696771621704101562500 -0.003469942603260279135463095557 -0.002716251416131854057312011719 0 0 0 0 
2411833333.3333334923 0.167244344949722290039062500000 -0.037908218801021582866628278907 -0.003728405339643359184265136719 -0.002520786132663487954380654443 0 0 0 0 
2412000000.0000000000 0.167008131742477389236611884371 -0.039157282561063773418386091407 -0.003780961269512772993800497900 -0.002368098590523004965541220557 0 0 0 0 
2412166666.6666665077 0.166600719094276400467080634371 -0.040033705532550811767578125000 -0.004081544931977987289428710938 -0.002146481536328793005702353369 0 0 0 0 
2412333333.3333334923 0.166555449366569491287393134371 -0.040877103805541992187500000000 -0.004362175241112709045410156250 -0.002184695331379770798924111475 0 0 0 0 
2412500000.0000000000 0.166006997227668789962606865629 -0.041826177388429641723632812500 -0.004479773808270692825317382812 -0.001950478414073586897609091650 0 0 0 0 
2412666666.6666665077 0.165777549147605895996093750000 -0.043012320995330810546875000000 -0.004536415915936231613159179688 -0.001736743608489633040187216650 0 0 0 0 
2412833333.3333334923 0.165410503745079012771768134371 -0.044073719531297676776926408593 -0.004755526781082153320312500000 -0.001441338565200567028642963940 0 0 0 0 
2413000000.0000000000 0.164972841739654513260049384371 -0.045071698725223541259765625000 -0.004959288518875837326049804688 -0.001150874071754514954210590894 0 0 0 0 
2413166666.6666665077 0.164482533931732205489950615629 -0.046176709234714508056640625000 -0.004976857919245958328247070312 -0.000819439534097909927368164062 0 0 0 0 
2413333333.3333334923 0.164028629660606412032919365629 -0.047063376754522316669504533593 -0.005122171249240636825561523438 -0.000615977216511964797973632812 0 0 0 0 
2413500000.0000000000 0.163793832063674899002236884371 -0.048217274248600013042409528907 -0.005032848101109266281127929688 -0.000336610100930556709140223370 0 0 0 0 
2413666666.6666665077 0.163541689515113802810830634371 -0.049224294722080230712890625000 -0.004978743847459554672241210938 0.000023854827304603528568540879 0 0 0 0 
2413833333.3333334923 0.162995979189872686188067518742 -0.050225351005792617797851562500 -0.005058411043137311935424804688 0.000253216596320271492004394531 0 0 0 0 
2414000000.0000000000 0.162505730986595209319744981258 -0.051215104758739471435546875000 -0.004965436644852161407470703125 0.000567195180337876081466674805 0 0 0 0 
2414166666.6666665077 0.162294670939445495605468750000 -0.052044592797756202007253278907 -0.004892915487289428710937500000 0.000905704044271260499954223633 0 0 0 0 
2414333333.3333334923 0.162073925137519808670205634371 -0.053044013679027557373046875000 -0.004572256468236446380615234375 0.001117639360018074946162558447 0 0 0 0 
2414500000.0000000000 0.161856517195701599121093750000 -0.053795266896486282348632812500 -0.004723712801933288574218750000 0.001246688887476921081542968750 0 0 0 0 
2414666666.6666665077 0.161410510540008489410723768742 -0.055069290101528167724609375000 -0.004606054164469242095947265625 0.001370004843920469067217182690 0 0 0 0 
2414833333.3333334923 0.161161348223686190506143134371 -0.055971380323171622539479841407 -0.004380604717880486574654863574 0.001613921369425952000858925928 0 0 0 0 
2415000000.0000000000 0.161106407642364501953125000000 -0.056879196316003799438476562500 -0.004174865782260894775390625000 0.001722873770631849982618022388 0 0 0 0 
2415166666.6666665077 0.161060765385627802093182481258 -0.057909399271011352539062500000 -0.004212945699691773328299237988 0.002015136415138841109034872900 0 0 0 0 
2415333333.3333334923 0.160880446434020996093750000000 -0.059124287217855446552317033593 -0.004073076881468296051025390625 0.002041977830231190161464072119 0 0 0 0 
2415500000.0000000000 0.160910621285438509842080634371 -0.060023751109838492656667341407 -0.003871700260788201852085732568 0.002193873049691319899318076025 0 0 0 0 
2415666666.6666665077 0.160685941576957702636718750000 -0.061098031699657440185546875000 -0.003556930925697087807896279443 0.002411319408565760092494345557 0 0 0 0 
2415833333.3333334923 0.160610422492027310470419365629 -0.062339052557945251464843750000 -0.003614914836362003846409463037 0.002474735025316476821899414062 0 0 0 0 
2416000000.0000000000 0.160279899835586603362713731258 -0.063532367348670959472656250000 -0.003394900588318705992457724463 0.002607055008411407904383993994 0 0 0 0 
2416166666.6666665077 0.160364568233489990234375000000 -0.064619988203048706054687500000 -0.003325369907543063163757324219 0.002599686617031693892237997900 0 0 0 0 
2416333333.3333334923 0.159986808896064813811932481258 -0.065772376954555511474609375000 -0.002918153535574675040004111182 0.002666453830897808074951171875 0 0 0 0 
2416500000.0000000000 0.159751743078231811523437500000 -0.066981568932533264160156250000 -0.002849765820428729057312011719 0.002713587833568453788757324219 0 0 0 0 
2416666666.6666665077 0.159317582845687893966513115629 -0.068050481379032135009765625000 -0.002605151617899537086486816406 0.002838958054780960083007812500 0 0 0 0 
2416833333.3333334923 0.159133434295654296875000000000 -0.069236956536769866943359375000 -0.002604673849418758912327431787 0.002778257243335247039794921875 0 0 0 0 
2417000000.0000000000 0.158590868115425109863281250000 -0.070281580090522766113281250000 -0.002435956615954637961146689307 0.002742105862125753922703408350 0 0 0 0 
2417166666.6666665077 0.158312141895294189453125000000 -0.071228340268135070800781250000 -0.002178556285798550085780478369 0.002808643737807869911193847656 0 0 0 0 
2417333333.3333334923 0.157923355698585510253906250000 -0.072022981941699981689453125000 -0.002064843894913793043849326025 0.002691141562536358833312988281 0 0 0 0 
2417500000.0000000000 0.157536029815673800369424384371 -0.073093973100185394287109375000 -0.001986728748306632041931152344 0.002741832518950105147120810400 0 0 0 0 
2417666666.6666665077 0.157370790839195306975994981258 -0.073738902807235717773437500000 -0.001914169522933661937713623047 0.002849961631000041961669921875 0 0 0 0 
2417833333.3333334923 0.156934216618537902832031250000 -0.074642501771450042724609375000 -0.001881532487459480979322123950 0.002720320597290993170497275244 0 0 0 0 
2418000000.0000000000 0.156521931290626498123330634371 -0.075601674616336822509765625000 -0.001710534328594804026960063403 0.002702373545616865158081054688 0 0 0 0 
2418166666.6666665077 0.156296297907829312423544365629 -0.076197274029254913330078125000 -0.001595035428181291060206747900 0.002815321553498506979701376807 0 0 0 0 
2418333333.3333334923 0.156115248799324007888955634371 -0.077054962515830993652343750000 -0.001597889466211199977277446216 0.002617453923448919816258095850 0 0 0 0 
2418500000.0000000000 0.155616059899330111404580634371 -0.077731214463710784912109375000 -0.001434004982002079920527792822 0.002891546813771129088160849463 0 0 0 0 
2418666666.6666665077 0.155471682548523004729901231258 -0.078666329383850097656250000000 -0.001297660870477556965471577222 0.002787948586046696142909384619 0 0 0 0 
2418833333.3333334923 0.154977962374687194824218750000 -0.079345047473907470703125000000 -0.001235588919371366934535361182 0.002642266685143113136291503906 0 0 0 0 
2419000000.0000000000 0.154581099748611505706463731258 -0.079953491687774658203125000000 -0.001098179491236805915832519531 0.002636360237374902205226279150 0 0 0 0 
2419166666.6666665077 0.154332682490348788162393134371 -0.080677732825279235839843750000 -0.001042175223119556903839111328 0.002511533675715326829197548975 0 0 0 0 
2419333333.3333334923 0.153805911540985107421875000000 -0.081266671419143676757812500000 -0.001032660948112607002258300781 0.002549345372244716124293661963 0 0 0 0 
2419500000.0000000000 0.153413534164428710937500000000 -0.082106806337833404541015625000 -0.000832930498290807008743286133 0.002533094491809606985804892432 0 0 0 0 
2419666666.6666665077 0.153125777840614291092080634371 -0.082677185535430908203125000000 -0.000813523482065647840499877930 0.002463998273015021844151162256 0 0 0 0 
2419833333.3333334923 0.152582317590713500976562500000 -0.083146221935749053955078125000 -0.000902380852494388818740844727 0.002328905509784818129298544775 0 0 0 0 
