# Hz S RI R 50
2400000000.0000000000 0.172976255416870089431924384371 0.048912689089775092388112653907 0.005480709485709667205810546875 -0.001798973535187542004826211084 0 0 0 0 
2400166666.6666665077 0.173631966114044189453125000000 0.048157040029764182353932966407 0.005513434763997793197631835938 -0.001893563661724328994750976562 0 0 0 0 
2400333333.3333334923 0.174136251211166409591513115629 0.047430105507373809814453125000 0.005404851399362087249755859375 -0.001998289022594689889195107568 0 0 0 0 
2400500000.0000000000 0.174684897065162686446981865629 0.046815905719995498657226562500 0.005199111998081207275390625000 -0.002240751171484590010402060400 0 0 0 0 
2400666666.6666665077 0.174794316291809109786825615629 0.046075455844402313232421875000 0.005211686249822378158569335938 -0.002218936569988728003260947119 0 0 0 0 
2400833333.3333334923 0.175383538007736206054687500000 0.045700017362833023071289062500 0.005427383817732334136962890625 -0.002235806547105311913731240381 0 0 0 0 
2401000000.0000000000 0.175621017813682611663494981258 0.044994529336690902709960937500 0.005345051642507314682006835938 -0.002258093096315861181971884619 0 0 0 0 
2401166666.6666665077 0.175673574209213312347088731258 0.044162083417177200317382812500 0.005256470758467912673950195312 -0.002430113265290855927708291162 0 0 0 0 
2401333333.3333334923 0.175875738263130187988281250000 0.043660122901201248168945312500 0.005128901451826095581054687500 -0.002504221862182021141052246094 0 0 0 0 
2401500000.0000000000 0.176173463463783291915731865629 0.042882401496171951293945312500 0.005232362076640129089355468750 -0.002630526199936867193934775244 0 0 0 0 
2401666666.6666665077 0.175879687070846613128338731258 0.042289078235626220703125000000 0.005127032753080129623413085938 -0.002656782511621714071986533057 0 0 0 0 
2401833333.3333334923 0.176075443625450106521768134371 0.041427638381719589233398437500 0.005170365329831838607788085938 -0.002598579507321118874790810693 0 0 0 0 
2402000000.0000000000 0.175685316324234008789062500000 0.040742680430412292480468750000 0.005219765007495880126953125000 -0.002823752816766500906703329932 0 0 0 0 
2402166666.6666665077 0.175818681716919000823651231258 0.039957378059625632549245466407 0.005349214654415845870971679688 -0.002820946509018539948704384912 0 0 0 0 
2402333333.3333334923 0.175455376505851801116619981258 0.039021216332912452007253278907 0.005252589471638202667236328125 -0.002950862050056457953212118994 0 0 0 0 
2402500000.0000000000 0.175277084112167386154013115629 0.037997554987668991088867187500 0.005284643732011318206787109375 -0.003091367427259684042689658057 0 0 0 0 
2402666666.6666665077 0.175223156809806795974893134371 0.037058386951684951782226562500 0.005257888231426477432250976562 -0.003280926961451768875122070312 0 0 0 0 
2402833333.3333334923 0.174852237105369595626669365629 0.035883422940969467163085937500 0.005373003426939249038696289062 -0.003355602035298943953273154150 0 0 0 0 
2403000000.0000000000 0.174510598182678194900674384371 0.034586545079946517944335937500 0.005386256147176027297973632812 -0.003606047714129089875462197412 0 0 0 0 
2403166666.6666665077 0.174188420176505986969317518742 0.033274840563535690307617187500 0.005357876420021057128906250000 -0.003658378729596734046936035156 0 0 0 0 
2403333333.3333334923 0.173975557088851900955361884371 0.032005038112401962280273437500 0.005501867737621068954467773438 -0.003701682668179274039027548682 0 0 0 0 
2403500000.0000000000 0.173413366079330388824786268742 0.030422318726778030395507812500 0.005527427420020104321951581738 -0.004096281249076128005981445312 0 0 0 0 
2403666666.6666665077 0.173121348023414611816406250000 0.028742276132106781005859375000 0.005423235706984996795654296875 -0.004258851055055856704711914062 0 0 0 0 
2403833333.3333334923 0.172735318541526794433593750000 0.027276501059532168996790701954 0.005372156389057636260986328125 -0.004668625537306070327758789062 0 0 0 0 
2404000000.0000000000 0.172409534454345703125000000000 0.025456469506025310861607735546 0.005499331280589103698730468750 -0.004763992968946695327758789062 0 0 0 0 
2404166666.6666665077 0.171976268291473388671875000000 0.023671349510550498962402343750 0.005247971508651971817016601562 -0.005258964840322732925415039062 0 0 0 0 
2404333333.3333334923 0.171543106436729403396768134371 0.021941816434264179574986641796 0.005290018860250710573678301074 -0.005587045568972826004028320312 0 0 0 0 
2404500000.0000000000 0.171315148472786005218182481258 0.020084142684936519968053048046 0.005240022204816341400146484375 -0.005817796569317579269409179688 0 0 0 0 
2404666666.6666665077 0.171193018555641202071981865629 0.018304994329810139047642891796 0.004941006191074848175048828125 -0.006101086270064116391653730176 0 0 0 0 
2404833333.3333334923 0.170970603823661804199218750000 0.016178131103515628469446951954 0.004865791648626328382010175488 -0.006380889099091291427612304688 0 0 0 0 
2405000000.0000000000 0.170753598213195800781250000000 0.014292174018919469660748866602 0.004695432260632514953613281250 -0.006711890920996665954589843750 0 0 0 0 
2405166666.6666665077 0.170566767454147311111611884371 0.012298209592700009781807146680 0.004404992796480655670166015625 -0.007011763285845518112182617188 0 0 0 0 
2405333333.3333334923 0.170661911368370111663494981258 0.010167516767978669947614100977 0.003946685232222080230712890625 -0.007237660698592662811279296875 0 0 0 0 
2405500000.0000000000 0.170673131942748995681924384371 0.008268021047115325927734375000 0.003843222977593541145324707031 -0.007535666693001986417288495801 0 0 0 0 
2405666666.6666665077 0.170772135257721002776776231258 0.006143702194094657897949218750 0.003426266368478537039515829932 -0.007859383709728717803955078125 0 0 0 0 
2405833333.3333334923 0.170961216092109707931356865629 0.004227128345519304275512695312 0.003070675069466232819798134912 -0.007912119850516319274902343750 0 0 0 0 
2406000000.0000000000 0.171171307563781710525674384371 0.001973812468349934057948447119 0.002661562990397214889526367188 -0.008073491044342517852783203125 0 0 0 0 
2406166666.6666665077 0.171332880854606600662393134371 0.000100447818113025304958066397 0.002303288551047443909886025537 -0.008076366968452930450439453125 0 0 0 0 
2406333333.3333334923 0.172135844826698303222656250000 -0.002161371521651744842529296875 0.001888363505713642077205038916 -0.008376029320061206817626953125 0 0 0 0 
2406500000.0000000000 0.172410786151885986328125000000 -0.004055439960211515426635742188 0.001510737231001257896423339844 -0.008324094116687774658203125000 0 0 0 0 
2406666666.6666665077 0.172783881425857488434161268742 -0.006065675057470799359793378613 0.001022637705318629958509135669 -0.008334714919328689575195312500 0 0 0 0 
2406833333.3333334923 0.173407465219497708419638115629 -0.008163550868630409240722656250 0.000715904927346855401992797852 -0.008430004119873046875000000000 0 0 0 0 
2407000000.0000000000 0.173878803849220303634481865629 -0.010063053108751770364781563671 0.000349095644196495413780212402 -0.008400429040193557739257812500 0 0 0 0 
2407166666.6666665077 0.174881517887115506271200615629 -0.011985306628048419952392578125 -0.000126117141917347908020019531 -0.008402516134083271026611328125 0 0 0 0 
2407333333.3333334923 0.175375506281852694412393134371 -0.013816640712320809800117693555 -0.000419391784816980416148585187 -0.008309309370815753936767578125 0 0 0 0 
2407500000.0000000000 0.176035821437835693359375000000 -0.015711434185504909860631173046 -0.000779456458985805511474609375 -0.008033112622797489166259765625 0 0 0 0 
2407666666.6666665077 0.176893219351768493652343750000 -0.017320698127150539052943045704 -0.001134714693762362003326416016 -0.007945084944367408752441406250 0 0 0 0 
2407833333.3333334923 0.177517861127853393554687500000 -0.019332913681864738464355468750 -0.001492399140261114077327109229 -0.007829372771084308624267578125 0 0 0 0 
2408000000.0000000000 0.178284242749214200118856865629 -0.021082462742924690246582031250 -0.001710592070594429969787597656 -0.007568116765469312667846679688 0 0 0 0 
2408166666.6666665077 0.178905740380287198165731865629 -0.022485628724098209035853201954 -0.002053417032584547996520996094 -0.007382035255432128906250000000 0 0 0 0 
2408333333.3333334923 0.179638519883155794998330634371 -0.024074133485555648803710937500 -0.002275545848533511161804199219 -0.007246671710163354873657226562 0 0 0 0 
2408500000.0000000000 0.180180653929710388183593750000 -0.025559812784194949758509451954 -0.002539413748309015794041298975 -0.007003908976912499341482831738 0 0 0 0 
2408666666.6666665077 0.180804476141929598709268134371 -0.026998681947588920593261718750 -0.002833383856341242790222167969 -0.006791142281144857406616210938 0 0 0 0 
2408833333.3333334923 0.181178212165832491775674384371 -0.028150377795100208627721016796 -0.002941733924672007994410849463 -0.006826872937381268414969159863 0 0 0 0 
2409000000.0000000000 0.181672096252441406250000000000 -0.029178429394960399972935860546 -0.003056083573028444810154580225 -0.006498734001070261001586914062 0 0 0 0 
2409166666.6666665077 0.182074010372161892989950615629 -0.030229400843381881713867187500 -0.003236256306990981101989746094 -0.006295706611126661300659179688 0 0 0 0 
2409333333.3333334923 0.182515889406204195877236884371 -0.031225545331835750234583670704 -0.003643919248133898215052939307 -0.005958034191280603408813476562 0 0 0 0 
2409500000.0000000000 0.182878836989402798751669365629 -0.032040052115917212749440778907 -0.003635680768638848824741982568 -0.005723414942622184753417968750 0 0 0 0 
2409666666.6666665077 0.182985335588455200195312500000 -0.032639548182487487792968750000 -0.003670576494187117056605673682 -0.005444688722491264343261718750 0 0 0 0 
2409833333.3333334923 0.183288753032684298416299384371 -0.033079538494348532939870466407 -0.003812351962551475004908896338 -0.005344969686120749387259198926 0 0 0 0 
2410000000.0000000000 0.183639049530029296875000000000 -0.033627785742282867431640625000 -0.003881457960233091874363564600 -0.005171505268663167953491210938 0 0 0 0 
2410166666.6666665077 0.183747261762618990799111884371 -0.034144613891839981079101562500 -0.003828089917078613801243447412 -0.005035404581576585769653320312 0 0 0 0 
2410333333.3333334923 0.183643087744712801834268134371 -0.034386493265628821636159528907 -0.004062064923346042633056640625 -0.004803507588803768157958984375 0 0 0 0 
2410500000.0000000000 0.183747798204421997070312500000 -0.034845862537622451782226562500 -0.003933885600417852401733398438 -0.004573982208967208862304687500 0 0 0 0 
2410666666.6666665077 0.183590635657310513595419365629 -0.035356730222702033306081403907 -0.004083642270416021347045898438 -0.004546219017356634140014648438 0 0 0 0 
2410833333.3333334923 0.183595612645149203201455634371 -0.035553310066461563110351562500 -0.004093084950000047683715820312 -0.004365877714008092880249023438 0 0 0 0 
2411000000.0000000000 0.183414459228515597244424384371 -0.035709004849195480346679687500 -0.004180324729532003402709960938 -0.004194485489279031753540039062 0 0 0 0 
2411166666.6666665077 0.183176636695861788650674384371 -0.036148421466350562358815778907 -0.004018223378807306289672851562 -0.004079398699104785919189453125 0 0 0 0 
2411333333.3333334923 0.182649612426757812500000000000 -0.036356497555971152568776716407 -0.003969114273786544799804687500 -0.004012648947536945343017578125 0 0 0 0 
2411500000.0000000000 0.182197496294975308517294365629 -0.036913461983203887939453125000 -0.004125088453292846679687500000 -0.003963921684771776199340820312 0 0 0 0 
2411666666.6666665077 0.181761115789413507659588731258 -0.036961860954761512065847028907 -0.004261469934135675430297851562 -0.003631162457168101830723427881 0 0 0 0 
2411833333.3333334923 0.181005775928497286697549384371 -0.037383273243904106830637346093 -0.004263071808964014053344726562 -0.003401989350095390839817666162 0 0 0 0 
2412000000.0000000000 0.180097818374633789062500000000 -0.038003493100404739379882812500 -0.004467770922929049405569745801 -0.003590411040931940078735351562 0 0 0 0 
2412166666.6666665077 0.179317101836204501053018134371 -0.038295410573482513427734375000 -0.004445546772330999374389648438 -0.003444911679252982139587402344 0 0 0 0 
2412333333.3333334923 0.178486168384552001953125000000 -0.038785260170698172832448591407 -0.004419280216097831726074218750 -0.003260609926655888991114951025 0 0 0 0 
2412500000.0000000000 0.177519381046295193771200615629 -0.039215587079524986957590471093 -0.004543993622064591321463300488 -0.003044152166694403128383017432 0 0 0 0 
2412666666.6666665077 0.176391109824180603027343750000 -0.040048785507678992534597028907 -0.004342275671660900115966796875 -0.002939620520919560952427529443 0 0 0 0 
2412833333.3333334923 0.175244882702827509124432481258 -0.040623888373374938964843750000 -0.004552217200398445129394531250 -0.002763096243143082098719931494 0 0 0 0 
2413000000.0000000000 0.174223974347114590743856865629 -0.041340809315443038940429687500 -0.004525847733020783338064862988 -0.002599623985588551001307822119 0 0 0 0 
2413166666.6666665077 0.172914102673530606368856865629 -0.042246755212545401836354841407 -0.004420982208102942380423261426 -0.002573500387370585961582802881 0 0 0 0 
2413333333.3333334923 0.171398803591728210449218750000 -0.043082054704427719116210937500 -0.004469189327210187911987304688 -0.002516243373975158171412802588 0 0 0 0 
2413500000.0000000000 0.170314922928810091873330634371 -0.043966472148895256732981096093 -0.004455600399523974332327558301 -0.002388063585385680198669433594 0 0 0 0 
2413666666.6666665077 0.169093444943428011795205634371 -0.044930201023817062377929687500 -0.004476999863982200622558593750 -0.002371319336816668944117880713 0 0 0 0 
2413833333.3333334923 0.167467057704925509353799384371 -0.046186704188585281372070312500 -0.004418889991939067840576171875 -0.002253533108159900145289755713 0 0 0 0 
2414000000.0000000000 0.166388869285583496093750000000 -0.047393061220645911479909528907 -0.004359608516097068786621093750 -0.002160382689908146858215332031 0 0 0 0 
2414166666.6666665077 0.165177762508392306228799384371 -0.048519846051931381225585937500 -0.004432639572769404325003339551 -0.002046399749815464019775390625 0 0 0 0 
2414333333.3333334923 0.163710877299308804611044365629 -0.049846813082695007324218750000 -0.004287974908947944641113281250 -0.001933036372065543911577534253 0 0 0 0 
2414500000.0000000000 0.162739142775535611251669365629 -0.051363680511713027954101562500 -0.004179025068879128369803144238 -0.001827019033953547911403036963 0 0 0 0 
2414666666.6666665077 0.161579161882400512695312500000 -0.052668258547782897949218750000 -0.004205554723739624023437500000 -0.001925480901263654015184711987 0 0 0 0 
2414833333.3333334923 0.160476639866828890701455634371 -0.054384347051382071758229841407 -0.004194703418761491775512695312 -0.001817801618017256043077778394 0 0 0 0 
2415000000.0000000000 0.159428477287292508224325615629 -0.055864680558443069458007812500 -0.004367257934063673019409179688 -0.001808229018934071063995361328 0 0 0 0 
2415166666.6666665077 0.158326461911201504806356865629 -0.057615578174591057514231096093 -0.004343835171312093734741210938 -0.001881695468910038904902792822 0 0 0 0 
2415333333.3333334923 0.157544597983360290527343750000 -0.059487588703632361675222028907 -0.004380496684461832046508789062 -0.001665212213993072943446493994 0 0 0 0 
2415500000.0000000000 0.156682223081588800628338731258 -0.061316531151533126831054687500 -0.004321494605392217636108398438 -0.001691687852144240899326943506 0 0 0 0 
2415666666.6666665077 0.155939668416976900955361884371 -0.063014425337314605712890625000 -0.004470241721719503402709960938 -0.001674315193668008067487407153 0 0 0 0 
2415833333.3333334923 0.155371487140655489822549384371 -0.065062992274761199951171875000 -0.004612270742654800415039062500 -0.001643205177970231013057089697 0 0 0 0 
2416000000.0000000000 0.154621869325637789627236884371 -0.066991709172725677490234375000 -0.004639520309865474700927734375 -0.001692439662292599894879985278 0 0 0 0 
2416166666.6666665077 0.154077872633933993240518134371 -0.069033898413181304931640625000 -0.004519716370850802335257245801 -0.001470162998884916088701557690 0 0 0 0 
2416333333.3333334923 0.153545975685119601150674384371 -0.070888325572013854980468750000 -0.004767131526023150357718183301 -0.001366395852528512911555624854 0 0 0 0 
2416500000.0000000000 0.153008207678794888595419365629 -0.072900153696537017822265625000 -0.004714426584541797637939453125 -0.001432087155990302996394492041 0 0 0 0 
2416666666.6666665077 0.152611076831817599197549384371 -0.074855983257293701171875000000 -0.004714148119091987609863281250 -0.001247150474227965094922709888 0 0 0 0 
2416833333.3333334923 0.152348250150680486481036268742 -0.076874837279319763183593750000 -0.004850793164223433408255292676 -0.001145064365118741989135742188 0 0 0 0 
2417000000.0000000000 0.151837900280952509124432481258 -0.078761763870716094970703125000 -0.004935321398079395294189453125 -0.000994397560134530067443847656 0 0 0 0 
2417166666.6666665077 0.151686027646064813811932481258 -0.080368600785732269287109375000 -0.004840330220758914947509765625 -0.000958928372710943222045898438 0 0 0 0 
2417333333.3333334923 0.151536971330642700195312500000 -0.082270510494709014892578125000 -0.004984542261809110641479492188 -0.000833979866001754999160766602 0 0 0 0 
2417500000.0000000000 0.151443451642990112304687500000 -0.084145203232765197753906250000 -0.004979980178177356719970703125 -0.000746486301068216562271118164 0 0 0 0 
2417666666.6666665077 0.151546582579612704178018134371 -0.085640951991081237792968750000 -0.004891340155154466629028320312 -0.000714256428182125091552734375 0 0 0 0 
2417833333.3333334923 0.151578143239021301269531250000 -0.087101273238658905029296875000 -0.004955755081027746200561523438 -0.000446613063104450702667236328 0 0 0 0 
2418000000.0000000000 0.151518955826759310623330634371 -0.088655076920986175537109375000 -0.004952350165694952011108398438 -0.000446899066446349024772644043 0 0 0 0 
2418166666.6666665077 0.151530593633651705642861884371 -0.089884318411350250244140625000 -0.005075669847428798675537109375 -0.000402371719246730208396911621 0 0 0 0 
2418333333.3333334923 0.152018889784812899490518134371 -0.091138623654842376708984375000 -0.004978466778993606567382812500 -0.000260209286352619474560338153 0 0 0 0 
2418500000.0000000000 0.151929244399070711990518134371 -0.092279195785522460937500000000 -0.005030483473092317581176757812 -0.000141204509418457800715845929 0 0 0 0 
2418666666.6666665077 0.152259409427642794510049384371 -0.093467764556407928466796875000 -0.004892603028565645217895507812 -0.000217932116356678307056427002 0 0 0 0 
2418833333.3333334923 0.152269929647445706466513115629 -0.094302132725715637207031250000 -0.005105924326926469802856445312 -0.000073044342570938169956207275 0 0 0 0 
2419000000.0000000000 0.152476370334625188629473768742 -0.095008559525012969970703125000 -0.005171308759599924087524414062 -0.000009311324902228079736232758 0 0 0 0 
2419166666.6666665077 0.152699127793312100509481865629 -0.095754675567150115966796875000 -0.005306712351739406585693359375 0.000074633913754951208829879761 0 0 0 0 
2419333333.3333334923 0.152754008769989013671875000000 -0.096134260296821594238281250000 -0.005265813320875167846679687500 0.000199760397663339999601087027 0 0 0 0 
2419500000.0000000000 0.152960747480392511565838731258 -0.096855476498603820800781250000 -0.005318651441484689712524414062 0.000308435381157323718070983887 0 0 0 0 
2419666666.6666665077 0.153513550758361788650674384371 -0.097228720784187316894531250000 -0.005284079816192389401907636426 0.000246676092501729726791381836 0 0 0 0 
2419833333.3333334923 0.153331086039543207366619981258 -0.097373493015766143798828125000 -0.005487632472068071365356445312 0.000552079523913562297821044922 0 0 0 0 
