# Version 1.00
#
freq[Hz];re:Trc1_S11;im:Trc1_S11;re:Trc2_S21;im:Trc2_S21;
2.400000000000000E+009;1.690024733543396E-001;4.577482119202614E-002;-6.026464514434338E-003;-3.360993228852749E-003;
2.400166666666667E+009;1.701485216617584E-001;4.485393688082695E-002;-6.132146343588829E-003;-3.195250639691949E-003;
2.400333333333334E+009;1.710630208253861E-001;4.351145401597023E-002;-6.366717163473368E-003;-3.095592837780714E-003;
2.400500000000000E+009;1.720062643289566E-001;4.261109977960587E-002;-6.633703131228685E-003;-2.903667744249106E-003;
2.400666666666667E+009;1.727428734302521E-001;4.173839837312698E-002;-6.707609631121159E-003;-2.697219373658299E-003;
2.400833333333334E+009;1.738580018281937E-001;4.101657867431641E-002;-7.058296818286181E-003;-2.423547441139817E-003;
2.401000000000000E+009;1.745473295450211E-001;4.011712968349457E-002;-7.346471305936575E-003;-2.085065469145775E-003;
2.401166666666667E+009;1.753862053155899E-001;3.931054100394249E-002;-7.491424214094877E-003;-1.732222153805196E-003;
2.401333333333334E+009;1.757917106151581E-001;3.853444010019302E-002;-7.698595058172941E-003;-1.442101434804499E-003;
2.401500000000000E+009;1.767810881137848E-001;3.799122571945190E-002;-7.955947890877724E-003;-9.185564704239368E-004;
2.401666666666667E+009;1.774083077907562E-001;3.750199452042580E-002;-7.973891682922840E-003;-6.582709029316902E-004;
2.401833333333334E+009;1.779047548770905E-001;3.685757145285606E-002;-8.242961019277573E-003;-2.911798655986786E-004;
2.402000000000000E+009;1.782378107309341E-001;3.608263283967972E-002;-8.255627937614918E-003;1.941565860761330E-004;
2.402166666666667E+009;1.786594241857529E-001;3.542605042457581E-002;-8.283628150820732E-003;7.447844254784286E-004;
2.402333333333334E+009;1.790435612201691E-001;3.494288772344589E-002;-8.313292637467384E-003;1.086014090105891E-003;
2.402500000000000E+009;1.796758621931076E-001;3.439818322658539E-002;-8.308556862175465E-003;1.523107406683266E-003;
2.402666666666667E+009;1.795619130134583E-001;3.385824337601662E-002;-8.133686147630215E-003;2.028807997703552E-003;
2.402833333333334E+009;1.797465831041336E-001;3.306461498141289E-002;-8.167250081896782E-003;2.513619838282466E-003;
2.403000000000000E+009;1.798544824123383E-001;3.225669637322426E-002;-7.833435200154781E-003;2.928040688857436E-003;
2.403166666666667E+009;1.798710972070694E-001;3.154442086815834E-002;-7.676834706217051E-003;3.382564987987280E-003;
2.403333333333334E+009;1.798658818006516E-001;3.092197887599468E-002;-7.631002459675074E-003;3.723765956237912E-003;
2.403500000000000E+009;1.795494854450226E-001;2.999070659279823E-002;-7.170710247009993E-003;4.007655661553145E-003;
2.403666666666667E+009;1.793297231197357E-001;2.890169806778431E-002;-7.174618542194367E-003;4.499527160078287E-003;
2.403833333333334E+009;1.790730655193329E-001;2.776575274765492E-002;-6.906650494784117E-003;4.584759939461947E-003;
2.404000000000000E+009;1.786506474018097E-001;2.674704603850842E-002;-6.531500723212957E-003;4.991966299712658E-003;
2.404166666666667E+009;1.781949549913406E-001;2.558942511677742E-002;-6.237337831407785E-003;5.255210679024458E-003;
2.404333333333334E+009;1.778905391693115E-001;2.444552443921566E-002;-6.029717158526182E-003;5.473385564982891E-003;
2.404500000000000E+009;1.770798563957214E-001;2.308265678584576E-002;-5.607898347079754E-003;5.740417633205652E-003;
2.404666666666667E+009;1.767746955156326E-001;2.192377857863903E-002;-5.244321189820766E-003;5.927826277911663E-003;
2.404833333333334E+009;1.764008700847626E-001;2.041308023035526E-002;-5.015715025365353E-003;6.092972122132778E-003;
2.405000000000000E+009;1.757627576589584E-001;1.889742538332939E-002;-4.704635124653578E-003;6.244627293199301E-003;
2.405166666666667E+009;1.754115670919418E-001;1.718003116548061E-002;-4.221803974360228E-003;6.450562272220850E-003;
2.405333333333334E+009;1.748491674661636E-001;1.564983651041985E-002;-4.000222310423851E-003;6.418674718588591E-003;
2.405500000000000E+009;1.744871437549591E-001;1.413947530090809E-002;-3.609202569350600E-003;6.408057175576687E-003;
2.405666666666667E+009;1.740144640207291E-001;1.246033329516649E-002;-3.376983106136322E-003;6.530532613396645E-003;
2.405833333333334E+009;1.736236512660980E-001;1.071778219193220E-002;-3.062384435907006E-003;6.554125342518091E-003;
2.406000000000000E+009;1.733225286006928E-001;8.633422665297985E-003;-2.810382051393390E-003;6.783377379179001E-003;
2.406166666666667E+009;1.730240136384964E-001;6.889160722494125E-003;-2.505523152649403E-003;6.576647982001305E-003;
2.406333333333334E+009;1.729272305965424E-001;5.011331755667925E-003;-2.299217041581869E-003;6.656183395534754E-003;
2.406500000000000E+009;1.727682948112488E-001;2.920570317655802E-003;-2.164837671443820E-003;6.805355660617352E-003;
2.406666666666667E+009;1.724289506673813E-001;9.306592983193696E-004;-1.823872327804565E-003;6.640019360929728E-003;
2.406833333333334E+009;1.724348813295364E-001;-1.032644067890942E-003;-1.692695077508688E-003;6.665415596216917E-003;
2.407000000000000E+009;1.726383864879608E-001;-3.165807342156768E-003;-1.259042299352586E-003;6.648812908679247E-003;
2.407166666666667E+009;1.728080362081528E-001;-5.205640103667975E-003;-1.118285115808249E-003;6.593458820134401E-003;
2.407333333333334E+009;1.728806942701340E-001;-7.442492991685867E-003;-7.620487594977021E-004;6.779620423913002E-003;
2.407500000000000E+009;1.730415374040604E-001;-9.386620484292507E-003;-5.144802853465080E-004;6.711954716593027E-003;
2.407666666666667E+009;1.734321415424347E-001;-1.148202270269394E-002;-2.701902994886041E-004;6.574983708560467E-003;
2.407833333333334E+009;1.736962199211121E-001;-1.373999752104282E-002;-8.406203414779156E-005;6.562795024365187E-003;
2.408000000000000E+009;1.741438657045364E-001;-1.590511389076710E-002;1.295333640882745E-004;6.422455422580242E-003;
2.408166666666667E+009;1.743815392255783E-001;-1.764105632901192E-002;4.798368609044701E-004;6.526271812617779E-003;
2.408333333333334E+009;1.750432550907135E-001;-1.978737488389015E-002;6.893531535752118E-004;6.396207027137280E-003;
2.408500000000000E+009;1.752592623233795E-001;-2.176825702190399E-002;8.347496041096747E-004;6.277710665017366E-003;
2.408666666666667E+009;1.757036298513413E-001;-2.359963208436966E-002;1.052469015121460E-003;6.016201339662075E-003;
2.408833333333334E+009;1.759871989488602E-001;-2.548103407025337E-002;1.229245564900339E-003;6.101884413510561E-003;
2.409000000000000E+009;1.763914674520493E-001;-2.699312381446362E-002;1.370989135466516E-003;5.898381117731333E-003;
2.409166666666667E+009;1.768075972795487E-001;-2.849969454109669E-002;1.700473716482520E-003;5.769514944404364E-003;
2.409333333333334E+009;1.773491501808167E-001;-3.010286763310432E-002;1.807110616937280E-003;5.797686986625195E-003;
2.409500000000000E+009;1.776826977729797E-001;-3.162181377410889E-002;2.105068182572722E-003;5.625253543257713E-003;
2.409666666666667E+009;1.779951751232147E-001;-3.263331949710846E-002;2.038199221715331E-003;5.624256562441587E-003;
2.409833333333334E+009;1.783527135848999E-001;-3.358173742890358E-002;2.159054391086102E-003;5.471852142363787E-003;
2.410000000000000E+009;1.791413277387619E-001;-3.458320349454880E-002;2.440691227093339E-003;5.228360183537006E-003;
2.410166666666667E+009;1.795190572738648E-001;-3.558792918920517E-002;2.530465601012111E-003;5.254503805190325E-003;
2.410333333333334E+009;1.799874901771545E-001;-3.646841645240784E-002;2.758518792688847E-003;5.009420216083527E-003;
2.410500000000000E+009;1.801868826150894E-001;-3.719428926706314E-002;2.964638173580170E-003;4.949480295181274E-003;
2.410666666666667E+009;1.805909425020218E-001;-3.807760402560234E-002;2.925717970356345E-003;4.760316573083401E-003;
2.410833333333334E+009;1.810798496007919E-001;-3.848959878087044E-002;3.128006588667631E-003;4.675476346164942E-003;
2.411000000000000E+009;1.813473701477051E-001;-3.920000046491623E-002;3.220462938770652E-003;4.528244491666555E-003;
2.411166666666667E+009;1.815485209226608E-001;-3.985311463475227E-002;3.276206320151687E-003;4.173658788204193E-003;
2.411333333333334E+009;1.815748661756516E-001;-4.003976285457611E-002;3.402650589123368E-003;4.329882562160492E-003;
2.411500000000000E+009;1.816287934780121E-001;-4.072529077529907E-002;3.524393774569035E-003;4.086028784513474E-003;
2.411666666666667E+009;1.818992793560028E-001;-4.103435948491097E-002;3.625381039455533E-003;3.806353779509664E-003;
2.411833333333334E+009;1.817497014999390E-001;-4.131498932838440E-002;3.737925784662366E-003;3.751957323402166E-003;
2.412000000000000E+009;1.818015277385712E-001;-4.179874807596207E-002;3.689765697345138E-003;3.404217073693872E-003;
2.412166666666667E+009;1.812459677457809E-001;-4.215127974748612E-002;3.840488614514470E-003;3.474216908216476E-003;
2.412333333333334E+009;1.810655742883682E-001;-4.237822443246841E-002;3.809052053838968E-003;3.293847199529409E-003;
2.412500000000000E+009;1.804408282041550E-001;-4.282065108418465E-002;3.893402172252536E-003;3.171188989654183E-003;
2.412666666666667E+009;1.800810992717743E-001;-4.323996976017952E-002;3.924559801816940E-003;3.104468109086156E-003;
2.412833333333334E+009;1.795548796653748E-001;-4.356166347861290E-002;3.785148961469531E-003;2.967149484902620E-003;
2.413000000000000E+009;1.785109341144562E-001;-4.392775520682335E-002;4.012212622910738E-003;2.742048585787416E-003;
2.413166666666667E+009;1.777508407831192E-001;-4.422144591808319E-002;3.996656741946936E-003;2.649720991030335E-003;
2.413333333333334E+009;1.769032180309296E-001;-4.477987810969353E-002;4.065840039402247E-003;2.410939428955317E-003;
2.413500000000000E+009;1.760489940643311E-001;-4.530647397041321E-002;4.040205851197243E-003;2.454318106174469E-003;
2.413666666666667E+009;1.750523895025253E-001;-4.587738960981369E-002;4.081415012478828E-003;2.458153991028667E-003;
2.413833333333334E+009;1.740093678236008E-001;-4.624990373849869E-002;4.102011676877737E-003;2.189278602600098E-003;
2.414000000000000E+009;1.727670133113861E-001;-4.696927219629288E-002;4.312894307076931E-003;2.156276255846024E-003;
2.414166666666667E+009;1.717901825904846E-001;-4.773669689893723E-002;4.305046517401934E-003;2.107869135215879E-003;
2.414333333333334E+009;1.706963181495667E-001;-4.839950799942017E-002;4.141794051975012E-003;1.939186127856374E-003;
2.414500000000000E+009;1.695632338523865E-001;-4.924994707107544E-002;4.145218525081873E-003;1.963393995538354E-003;
2.414666666666667E+009;1.683470457792282E-001;-5.025932565331459E-002;4.298406653106213E-003;1.853857771493495E-003;
2.414833333333334E+009;1.670624166727066E-001;-5.135419964790344E-002;4.327101632952690E-003;1.740481122396886E-003;
2.415000000000000E+009;1.657316535711289E-001;-5.244483426213265E-002;4.457155708223581E-003;1.621430506929755E-003;
2.415166666666667E+009;1.645270884037018E-001;-5.368947237730026E-002;4.414593800902367E-003;1.602414529770613E-003;
2.415333333333334E+009;1.636264771223068E-001;-5.507184937596321E-002;4.525780677795410E-003;1.461040927097201E-003;
2.415500000000000E+009;1.624698638916016E-001;-5.658379942178726E-002;4.590472206473351E-003;1.358324079774320E-003;
2.415666666666667E+009;1.613440960645676E-001;-5.793870240449905E-002;4.602321423590183E-003;1.228300156071782E-003;
2.415833333333334E+009;1.602917760610580E-001;-5.953185632824898E-002;4.658819641917944E-003;1.147952629253268E-003;
2.416000000000000E+009;1.589863747358322E-001;-6.120743602514267E-002;4.857855848968029E-003;1.037651323713362E-003;
2.416166666666667E+009;1.583542823791504E-001;-6.305756419897080E-002;4.678320605307818E-003;9.535712306387723E-004;
2.416333333333334E+009;1.572213023900986E-001;-6.472427397966385E-002;4.816226661205292E-003;7.838458404876292E-004;
2.416500000000000E+009;1.563271284103394E-001;-6.679280102252960E-002;4.927924834191799E-003;7.727672345936298E-004;
2.416666666666667E+009;1.553190946578980E-001;-6.842147558927536E-002;5.030842963606119E-003;5.972568178549409E-004;
2.416833333333334E+009;1.546935588121414E-001;-7.059979438781738E-002;4.883618559688330E-003;3.925360215362161E-004;
2.417000000000000E+009;1.536084860563278E-001;-7.252509146928787E-002;5.079054273664951E-003;3.928843361791223E-004;
2.417166666666667E+009;1.529498845338821E-001;-7.428258657455444E-002;5.067494697868824E-003;6.143256177892909E-005;
2.417333333333334E+009;1.524322479963303E-001;-7.622624188661575E-002;5.008316133171320E-003;6.815305096097291E-005;
2.417500000000000E+009;1.517357826232910E-001;-7.835093140602112E-002;5.053935572504997E-003;-1.890022540464997E-004;
2.417666666666667E+009;1.513024121522903E-001;-8.013448119163513E-002;5.110060330480337E-003;-2.136289986083284E-004;
2.417833333333334E+009;1.509155780076981E-001;-8.191701769828796E-002;5.193755961954594E-003;-6.545658688992262E-004;
2.418000000000000E+009;1.504068076610565E-001;-8.382423967123032E-002;5.087728612124920E-003;-7.649073377251625E-004;
2.418166666666667E+009;1.501739770174027E-001;-8.545316010713577E-002;5.034097004681826E-003;-8.731965208426118E-004;
2.418333333333334E+009;1.500564068555832E-001;-8.713550120592117E-002;5.012856330722570E-003;-1.024590455926955E-003;
2.418500000000000E+009;1.497866213321686E-001;-8.882020413875580E-002;4.868742078542709E-003;-1.195405260659754E-003;
2.418666666666667E+009;1.498703509569168E-001;-9.034357964992523E-002;4.948511254042387E-003;-1.459975028410554E-003;
2.418833333333334E+009;1.494369208812714E-001;-9.185263514518738E-002;4.865383263677359E-003;-1.533190719783306E-003;
2.419000000000000E+009;1.494284570217133E-001;-9.311461448669434E-002;4.759027156978846E-003;-1.650004414841533E-003;
2.419166666666667E+009;1.495625674724579E-001;-9.434106200933456E-002;4.673516377806664E-003;-2.017326653003693E-003;
2.419333333333334E+009;1.493743360042572E-001;-9.525793045759201E-002;4.568694625049830E-003;-2.045733621343970E-003;
2.419500000000000E+009;1.496054977178574E-001;-9.657512605190277E-002;4.548548720777035E-003;-2.207659184932709E-003;
2.419666666666667E+009;1.499385982751846E-001;-9.739112108945847E-002;4.376132972538471E-003;-2.316261874511838E-003;
2.419833333333334E+009;1.500760167837143E-001;-9.814475476741791E-002;4.392217844724655E-003;-2.407097723335028E-003;
2.420000000000000E+009;1.505248099565506E-001;-9.875291585922241E-002;4.252493847161531E-003;-2.382248407229781E-003;
2.420166666666667E+009;1.505587846040726E-001;-9.916742891073227E-002;4.053868819028139E-003;-2.595465164631605E-003;
2.420333333333334E+009;1.509667783975601E-001;-9.997920691967011E-002;3.885949729010463E-003;-2.613253425806761E-003;
2.420500000000000E+009;1.512474417686462E-001;-9.993451833724976E-002;3.914230037480593E-003;-2.770920749753714E-003;
2.420666666666667E+009;1.514309942722321E-001;-1.001855880022049E-001;3.820823971182108E-003;-2.742331242188811E-003;
2.420833333333334E+009;1.516112536191940E-001;-1.005871072411537E-001;3.749096766114235E-003;-2.722425619140267E-003;
2.421000000000000E+009;1.518443822860718E-001;-1.007382124662399E-001;3.718133084475994E-003;-2.867278642952442E-003;
2.421166666666667E+009;1.520290821790695E-001;-1.006523072719574E-001;3.726104740053415E-003;-2.980449935421348E-003;
2.421333333333334E+009;1.522431224584580E-001;-1.007135584950447E-001;3.615981433540583E-003;-2.981196856126189E-003;
2.421500000000000E+009;1.522287875413895E-001;-1.005646660923958E-001;3.825248219072819E-003;-3.175678895786405E-003;
2.421666666666667E+009;1.523455232381821E-001;-1.003480479121208E-001;3.627729136496782E-003;-3.144926857203245E-003;
2.421833333333334E+009;1.521706730127335E-001;-1.001630201935768E-001;3.602543845772743E-003;-3.290602704510093E-003;
2.422000000000000E+009;1.518744975328445E-001;-9.983643144369125E-002;3.629714017733932E-003;-3.389398334547877E-003;
2.422166666666667E+009;1.518041640520096E-001;-9.974350035190582E-002;3.668026067316532E-003;-3.583646146580577E-003;
2.422333333333334E+009;1.515279412269592E-001;-9.935667365789414E-002;3.604855621233583E-003;-3.642210969701409E-003;
2.422500000000000E+009;1.509855687618256E-001;-9.899514913558960E-002;3.541689831763506E-003;-3.889031708240509E-003;
2.422666666666667E+009;1.502079665660858E-001;-9.874745458364487E-002;3.464681329205632E-003;-4.093860741704702E-003;
2.422833333333334E+009;1.494377404451370E-001;-9.845889359712601E-002;3.402790054678917E-003;-4.241078626364470E-003;
2.423000000000000E+009;1.487349569797516E-001;-9.802325814962387E-002;3.445100737735629E-003;-4.389985464513302E-003;
2.423166666666667E+009;1.479554772377014E-001;-9.770835191011429E-002;3.258750541135669E-003;-4.666147753596306E-003;
2.423333333333334E+009;1.470983177423477E-001;-9.719561785459518E-002;3.172608558088541E-003;-4.967252258211374E-003;
2.423500000000000E+009;1.459874063730240E-001;-9.697811305522919E-002;3.004060825332999E-003;-4.960810299962759E-003;
2.423666666666667E+009;1.444708555936813E-001;-9.676288813352585E-002;2.841498702764511E-003;-5.237173754721880E-003;
2.423833333333334E+009;1.434875428676605E-001;-9.652828425168991E-002;2.847162541002035E-003;-5.434967111796141E-003;
2.424000000000000E+009;1.420851796865463E-001;-9.621925652027130E-002;2.457903465256095E-003;-5.437151063233614E-003;
2.424166666666667E+009;1.407326459884644E-001;-9.603274613618851E-002;2.256878418847919E-003;-5.822941195219755E-003;
2.424333333333334E+009;1.393982768058777E-001;-9.582754224538803E-002;2.124538645148277E-003;-5.947459954768419E-003;
2.424500000000000E+009;1.382342875003815E-001;-9.596972167491913E-002;1.862038159742951E-003;-6.026384886354208E-003;
2.424666666666667E+009;1.368333101272583E-001;-9.580213576555252E-002;1.503588515333831E-003;-6.056677550077438E-003;
2.424833333333334E+009;1.352793127298355E-001;-9.604837000370026E-002;1.298604765906930E-003;-6.287442985922098E-003;
2.425000000000000E+009;1.339197307825089E-001;-9.632362425327301E-002;9.710653685033321E-004;-6.387411616742611E-003;
2.425166666666667E+009;1.321572810411453E-001;-9.668590873479843E-002;8.339045452885330E-004;-6.524871103465557E-003;
2.425333333333334E+009;1.308688223361969E-001;-9.730745851993561E-002;3.738202503882349E-004;-6.436717230826616E-003;
2.425500000000000E+009;1.295326054096222E-001;-9.799270331859589E-002;1.369892415823415E-004;-6.562404800206423E-003;
2.425666666666667E+009;1.280040442943573E-001;-9.873451292514801E-002;-1.458318583900109E-004;-6.526341661810875E-003;
2.425833333333334E+009;1.265234351158142E-001;-9.952688962221146E-002;-5.219801096245647E-004;-6.466469261795282E-003;
2.426000000000000E+009;1.250540912151337E-001;-1.005022227764130E-001;-9.009568020701408E-004;-6.250576116144657E-003;
2.426166666666667E+009;1.240144670009613E-001;-1.017141714692116E-001;-1.072136685252190E-003;-6.247081793844700E-003;
2.426333333333334E+009;1.226718425750732E-001;-1.029397696256638E-001;-1.499266712926328E-003;-6.199905648827553E-003;
2.426500000000000E+009;1.214559450745583E-001;-1.041444018483162E-001;-1.569906366057694E-003;-5.940570961683989E-003;
2.426666666666667E+009;1.205219402909279E-001;-1.052995920181274E-001;-1.925053540617228E-003;-5.755428690463305E-003;
2.426833333333334E+009;1.192655712366104E-001;-1.068654805421829E-001;-2.103036502376199E-003;-5.637504160404205E-003;
2.427000000000000E+009;1.181459203362465E-001;-1.084944829344750E-001;-2.035717945545912E-003;-5.577944219112396E-003;
2.427166666666667E+009;1.171675845980644E-001;-1.099298819899559E-001;-2.226480282843113E-003;-5.283853039145470E-003;
2.427333333333334E+009;1.163582578301430E-001;-1.115357354283333E-001;-2.371136331930757E-003;-5.098062101751566E-003;
2.427500000000000E+009;1.156086176633835E-001;-1.133319437503815E-001;-2.441944088786840E-003;-4.985868930816650E-003;
2.427666666666667E+009;1.147677749395371E-001;-1.149660795927048E-001;-2.696120413020253E-003;-4.866708070039749E-003;
2.427833333333334E+009;1.142404377460480E-001;-1.166791394352913E-001;-2.605885500088334E-003;-4.762997850775719E-003;
