# Hz S RI R 50
2400000000.0000000000 0.162704810500144986251669365629 0.052187155932188027118723283593 0.003244479419663548903224326025 0.004586102906614542007446289062 0 0 0 0 
2400166666.6666665077 0.162811994552612304687500000000 0.050728417932987213134765625000 0.003363887313753366904017783057 0.004517386201769114408011152051 0 0 0 0 
2400333333.3333334923 0.162455692887306213378906250000 0.048729568719863891601562500000 0.003497653640806674957275390625 0.004261714871972799301147460938 0 0 0 0 
2400500000.0000000000 0.162421435117721613128338731258 0.047018662095069892192800153907 0.003674497827887535095214843750 0.004490745719522237777709960938 0 0 0 0 
2400666666.6666665077 0.162293240427970886230468750000 0.045024354010820388793945312500 0.003854309441521763801574707031 0.004353949334472417831420898438 0 0 0 0 
2400833333.3333334923 0.162365123629570007324218750000 0.043079882860183722759206403907 0.003964252769947052001953125000 0.004260902758687734603881835938 0 0 0 0 
2401000000.0000000000 0.162486195564269991775674384371 0.041274420917034149169921875000 0.004233248997479677200317382812 0.004143178928643465042114257812 0 0 0 0 
2401166666.6666665077 0.162469446659088107010049384371 0.039234880357980728149414062500 0.004398587625473737716674804688 0.004152277018874883651733398438 0 0 0 0 
2401333333.3333334923 0.162484407424926813323651231258 0.037175986915826797485351562500 0.004459864925593137741088867188 0.004020509775727987289428710938 0 0 0 0 
2401500000.0000000000 0.162749007344245910644531250000 0.035101007670164108276367187500 0.004837035667151212692260742188 0.003948570694774389266967773438 0 0 0 0 
2401666666.6666665077 0.162892594933509798904580634371 0.033222690224647521972656250000 0.004963659215718507766723632812 0.003845663275569676919224404443 0 0 0 0 
2401833333.3333334923 0.163059741258621188064736884371 0.031315498054027557373046875000 0.005188359413295984268188476562 0.003650146769359707832336425781 0 0 0 0 
2402000000.0000000000 0.163300022482872009277343750000 0.029212834313511848449707031250 0.005309797357767820358276367188 0.003394457278773189024684286963 0 0 0 0 
2402166666.6666665077 0.163750946521759005447549384371 0.027157953009009361267089843750 0.005535198841243982315063476562 0.003370468271896243095397949219 0 0 0 0 
2402333333.3333334923 0.164136052131652804275674384371 0.025385525077581409109095389454 0.005881362594664096832275390625 0.003193575190380216078517294775 0 0 0 0 
2402500000.0000000000 0.164816468954086303710937500000 0.023667328059673309326171875000 0.006029978860169649124145507812 0.002977736061438918113708496094 0 0 0 0 
2402666666.6666665077 0.165298253297805786132812500000 0.022053653374314311635950858204 0.006195270456373692426199628613 0.002724236343055963949916220557 0 0 0 0 
2402833333.3333334923 0.165871813893318204025106865629 0.020241376012563708913782889454 0.006382611580193042755126953125 0.002379653276875615119934082031 0 0 0 0 
2403000000.0000000000 0.166509345173835809905682481258 0.018500110134482380258580391796 0.006410572677850723266601562500 0.002155508846044539971592568506 0 0 0 0 
2403166666.6666665077 0.167252346873283386230468750000 0.017057761549949649465540701954 0.006673404946923255920410156250 0.001863969489932060024858784253 0 0 0 0 
2403333333.3333334923 0.167843416333198602874432481258 0.015651579946279529226282889454 0.006792597472667694091796875000 0.001465158304199575944187783350 0 0 0 0 
2403500000.0000000000 0.168644085526466397384481865629 0.014009190723299980163574218750 0.007034653797745704650878906250 0.001320908311754465103149414062 0 0 0 0 
2403666666.6666665077 0.169247955083847101409588731258 0.012596956454217430459996407421 0.007121914066374301910400390625 0.000932223454583436250686645508 0 0 0 0 
2403833333.3333334923 0.170229971408843994140625000000 0.011280956678092479705810546875 0.007285891566425561904907226562 0.000566459784749895334243774414 0 0 0 0 
2404000000.0000000000 0.171034216880798312088174384371 0.010142266750335689889928048046 0.007307662628591060638427734375 0.000142974953632801798268994742 0 0 0 0 
2404166666.6666665077 0.171866610646247891525106865629 0.008898679167032241821289062500 0.007248298265039920806884765625 -0.000258683779975399374961853027 0 0 0 0 
2404333333.3333334923 0.172674834728240994552450615629 0.007825136184692382812500000000 0.007288346067070960998535156250 -0.000432715198257937973171788348 0 0 0 0 
2404500000.0000000000 0.173244237899780301193075615629 0.006894574500620365142822265625 0.007404427975416184339041425488 -0.000976235198322683572769165039 0 0 0 0 
2404666666.6666665077 0.174238890409469604492187500000 0.006033460143953561782836914062 0.007092433515936136245727539062 -0.001202264684252440929412841797 0 0 0 0 
2404833333.3333334923 0.175025269389152499099893134371 0.005088091827929019927978515625 0.007161741610616446408743573926 -0.001606990816071629957911826025 0 0 0 0 
2405000000.0000000000 0.175779968500137301345986884371 0.004361795727163553237915039062 0.007041232660412788391113281250 -0.001976311672478913827183388818 0 0 0 0 
2405166666.6666665077 0.176325485110282897949218750000 0.003551635891199111938476562500 0.006731241475790739059448242188 -0.002319026505574584007263183594 0 0 0 0 
2405333333.3333334923 0.177133485674858093261718750000 0.002977856667712330818176269531 0.006687324028462172421927167676 -0.002518536290153861045837402344 0 0 0 0 
2405500000.0000000000 0.177794814109802301604901231258 0.002477280795574187798741006006 0.006515395361930131912231445312 -0.002799700479954481124877929688 0 0 0 0 
2405666666.6666665077 0.178424328565597506424111884371 0.002159635536372662024257040869 0.006219854112714529037475585938 -0.003305313875898718833923339844 0 0 0 0 
2405833333.3333334923 0.178764566779136713225994981258 0.001703139278106390996220254053 0.006184746511280536651611328125 -0.003489131573587656021118164062 0 0 0 0 
2406000000.0000000000 0.179369747638702392578125000000 0.001193780335597693920135498047 0.005926662590354681015014648438 -0.003600290510803461074829101562 0 0 0 0 
2406166666.6666665077 0.179444164037704495529013115629 0.001110867364332080104230571216 0.005794209893792867660522460938 -0.003888977924361824989318847656 0 0 0 0 
2406333333.3333334923 0.179981097579002408126669365629 0.000547260453458875417709350586 0.005684824660420417785644531250 -0.004128724802285432815551757812 0 0 0 0 
2406500000.0000000000 0.180249273777008112151776231258 0.000331671384628862088352757587 0.005280447192490100860595703125 -0.004471696913242340087890625000 0 0 0 0 
2406666666.6666665077 0.180362820625305203536825615629 0.000014158474186842800543613928 0.005001853220164775848388671875 -0.004455655347555875778198242188 0 0 0 0 
2406833333.3333334923 0.180522218346595791915731865629 -0.000244156282860785722732543945 0.004932992160320281982421875000 -0.004557927139103412628173828125 0 0 0 0 
2407000000.0000000000 0.180598869919776888748330634371 -0.000668533844873309135437011719 0.004696415737271308898925781250 -0.004663349129259586334228515625 0 0 0 0 
2407166666.6666665077 0.180823236703872708419638115629 -0.000764991738833487033843994141 0.004327525850385428342337323926 -0.004804778844118118286132812500 0 0 0 0 
2407333333.3333334923 0.180479183793067904373330634371 -0.001294571091420948939082480322 0.004114352632313966751098632812 -0.004942934028804302215576171875 0 0 0 0 
2407500000.0000000000 0.180316343903541592696981865629 -0.001686361385509371974347758716 0.003915331326425076398367597363 -0.005111210979521274566650390625 0 0 0 0 
2407666666.6666665077 0.180167362093925503829794365629 -0.002006811788305639786961220850 0.003699965775012969970703125000 -0.005061807110905647277832031250 0 0 0 0 
2407833333.3333334923 0.179749861359596307952557481258 -0.002499589230865240097045898438 0.003394539002329111099243164062 -0.005315243732184171676635742188 0 0 0 0 
2408000000.0000000000 0.179419621825218200683593750000 -0.002945502521470189094543457031 0.003307829611003398895263671875 -0.005315730348229408264160156250 0 0 0 0 
2408166666.6666665077 0.178945437073707608321981865629 -0.003553912509232759909388876807 0.003027905942872167067286826025 -0.005474587902426719665527343750 0 0 0 0 
2408333333.3333334923 0.178579241037368802169638115629 -0.004192861728370189666748046875 0.002841577166691422896144247900 -0.005429333541542291641235351562 0 0 0 0 
2408500000.0000000000 0.177907615900039700607138115629 -0.005013268440961837768554687500 0.002665290609002112908604287256 -0.005568285472691059112548828125 0 0 0 0 
2408666666.6666665077 0.177234187722206087967080634371 -0.005672631319612264633178710938 0.002314561745151876969578408350 -0.005645372904837132367605878613 0 0 0 0 
2408833333.3333334923 0.176709204912185696700888115629 -0.006643161643296480178833007812 0.002161441836506127877476357568 -0.005515966564416885375976562500 0 0 0 0 
2409000000.0000000000 0.176007837057113702972088731258 -0.007502874359488487243652343750 0.001972267869859933853149414062 -0.005420079454779624938964843750 0 0 0 0 
2409166666.6666665077 0.175225630402565002441406250000 -0.008587415330111980438232421875 0.001814632909372448921203613281 -0.005703459028154611587524414062 0 0 0 0 
2409333333.3333334923 0.174596473574638394454794365629 -0.009769720025360584259033203125 0.001523508806712925000431679834 -0.005706977099180222424978925488 0 0 0 0 
2409500000.0000000000 0.173928380012512207031250000000 -0.010952705517411230259905430273 0.001289714127779006958007812500 -0.005612447392195463180541992188 0 0 0 0 
2409666666.6666665077 0.173050403594970703125000000000 -0.012180992402136329305628592579 0.001341778668574989058850932544 -0.005572112742811441421508789062 0 0 0 0 
2409833333.3333334923 0.172205418348312405685263115629 -0.013410245999693870544433593750 0.001045142416842282035230327075 -0.005675715859979391098022460938 0 0 0 0 
2410000000.0000000000 0.171675696969032287597656250000 -0.014906913042068479710589024023 0.000836398336105048656463623047 -0.005528722889721393585205078125 0 0 0 0 
2410166666.6666665077 0.170975551009178189376669365629 -0.016378059983253479003906250000 0.000683189777191728353500366211 -0.005583444144576787948608398438 0 0 0 0 
2410333333.3333334923 0.170307144522666903396768134371 -0.017903320491313930856724923046 0.000396224699215963482856750488 -0.005344697274267674359793378613 0 0 0 0 
2410500000.0000000000 0.169611766934394808670205634371 -0.019610401242971420288085937500 0.000308062852127477526664733887 -0.005551314447075129422659589551 0 0 0 0 
2410666666.6666665077 0.168868094682693509200888115629 -0.021569000557065010070800781250 0.000188834368600510087892255240 -0.005394784733653069409842206738 0 0 0 0 
2410833333.3333334923 0.168395191431045504470986884371 -0.023173375055193901062011718750 0.000156532594701275202348986215 -0.005567433778196573257446289062 0 0 0 0 
2411000000.0000000000 0.167820811271667508224325615629 -0.024950435385107990610142891796 -0.000108458494651131304815569467 -0.005365701392292976379394531250 0 0 0 0 
2411166666.6666665077 0.167377129197120694259481865629 -0.026817541569471359252929687500 -0.000195499276742339107111254282 -0.005279934499412775039672851562 0 0 0 0 
2411333333.3333334923 0.167051419615745488922442518742 -0.028765702620148658752441406250 -0.000463894277345389073521214618 -0.005246413871645927429199218750 0 0 0 0 
2411500000.0000000000 0.166744098067283602615518134371 -0.030879737809300419199010079296 -0.000590236042626202106475830078 -0.005336090456694365415091230176 0 0 0 0 
2411666666.6666665077 0.166640475392341613769531250000 -0.032673787325620651245117187500 -0.000691085995640605688095092773 -0.005357584450393915176391601562 0 0 0 0 
2411833333.3333334923 0.166189283132553100585937500000 -0.034542582929134368896484375000 -0.000851419055834412574768066406 -0.005340559408068656921386718750 0 0 0 0 
2412000000.0000000000 0.166333466768264798263388115629 -0.036612439900636672973632812500 -0.000960753299295902252197265625 -0.005265607498586177825927734375 0 0 0 0 
2412166666.6666665077 0.166058063507080105880575615629 -0.038630414754152297973632812500 -0.001119535183534025929094624097 -0.005226956214755774411673261426 0 0 0 0 
2412333333.3333334923 0.166327923536300686935263115629 -0.040458653122186660766601562500 -0.001460349769331515052198100513 -0.005303809419274330139160156250 0 0 0 0 
2412500000.0000000000 0.166051745414733886718750000000 -0.042440138757228851318359375000 -0.001436297199688852050183940356 -0.005070612765848636627197265625 0 0 0 0 
2412666666.6666665077 0.166358381509780911544638115629 -0.044506520032882690429687500000 -0.001771742827259003899217915112 -0.005252308677881956100463867188 0 0 0 0 
2412833333.3333334923 0.166634321212768610198651231258 -0.046343732625246047973632812500 -0.002003768691793084144592285156 -0.005246122833341360092163085938 0 0 0 0 
2413000000.0000000000 0.166790917515754699707031250000 -0.048174429684877402568776716407 -0.002026966772973537011387490381 -0.005036683287471532821655273438 0 0 0 0 
2413166666.6666665077 0.166836157441139193435830634371 -0.049851823598146438598632812500 -0.002299447078257799148559570312 -0.004960240330547094345092773438 0 0 0 0 
2413333333.3333334923 0.167306482791900607010049384371 -0.051721978932619101787526716407 -0.002586335176602005958557128906 -0.004786710254848003387451171875 0 0 0 0 
2413500000.0000000000 0.167567297816276605804119981258 -0.053320944309234619140625000000 -0.002675986615940928892848349463 -0.004820813890546560287475585938 0 0 0 0 
2413666666.6666665077 0.168007016181945800781250000000 -0.055034492164850241924245466407 -0.002802006201818584962132119287 -0.004778018221259117126464843750 0 0 0 0 
2413833333.3333334923 0.168266817927360506912393134371 -0.056440550833940512920339216407 -0.003008235944434999985935830225 -0.004525662399828433990478515625 0 0 0 0 
2414000000.0000000000 0.168684363365173312088174384371 -0.058111503720283508300781250000 -0.003042605938389896912815713037 -0.004335442092269659042358398438 0 0 0 0 
2414166666.6666665077 0.169338524341583307464276231258 -0.059326559305191040039062500000 -0.003400043584406375885009765625 -0.004235615953803061571603105762 0 0 0 0 
2414333333.3333334923 0.169819623231887789627236884371 -0.060619130730628967285156250000 -0.003596763592213391824009560693 -0.004173295106738805770874023438 0 0 0 0 
2414500000.0000000000 0.170564442873001098632812500000 -0.061795745044946670532226562500 -0.003673966042697430090663290869 -0.004040831234306097030639648438 0 0 0 0 
2414666666.6666665077 0.170810133218765286544638115629 -0.062836430966854095458984375000 -0.003886871272698045210597372900 -0.003750277217477560043334960938 0 0 0 0 
2414833333.3333334923 0.171156823635101290603799384371 -0.063855640590190887451171875000 -0.004106520675122737884521484375 -0.003605788806453347206115722656 0 0 0 0 
2415000000.0000000000 0.171514689922332791427450615629 -0.064703986048698425292968750000 -0.004127516411244869232177734375 -0.003355371532961726188659667969 0 0 0 0 
2415166666.6666665077 0.171994566917419405838174384371 -0.065578676760196685791015625000 -0.004401321522891522321219159863 -0.003308788640424609184265136719 0 0 0 0 
2415333333.3333334923 0.172557845711708096603231865629 -0.066373556852340698242187500000 -0.004483909811824560165405273438 -0.003112605540081859068629599463 0 0 0 0 
2415500000.0000000000 0.172686144709587097167968750000 -0.066925577819347381591796875000 -0.004432013723999261856079101562 -0.002894837874919176101684570312 0 0 0 0 
2415666666.6666665077 0.172991335391998291015625000000 -0.067448288202285766601562500000 -0.004542967770248652371878339551 -0.002627573441714047951939248193 0 0 0 0 
2415833333.3333334923 0.173349276185035705566406250000 -0.068095706403255462646484375000 -0.004680881742388010025024414062 -0.002345948712900280952453613281 0 0 0 0 
2416000000.0000000000 0.173286750912666293045205634371 -0.068504266440868377685546875000 -0.004519652575254440307617187500 -0.002313509583473206000087118994 0 0 0 0 
2416166666.6666665077 0.173697903752326993087606865629 -0.068815030157566070556640625000 -0.004700199700891971588134765625 -0.002018125494942069053649902344 0 0 0 0 
2416333333.3333334923 0.173550039529800387283486884371 -0.069220237433910369873046875000 -0.004773396532982587814331054688 -0.001810421119444072029711079175 0 0 0 0 
2416500000.0000000000 0.173530459403991699218750000000 -0.069584839046001434326171875000 -0.004674730356782674789428710938 -0.001595106907188891930821084131 0 0 0 0 
2416666666.6666665077 0.173387572169303894042968750000 -0.069728754460811614990234375000 -0.004865651950240135192871093750 -0.001355937914922833009007119287 0 0 0 0 
2416833333.3333334923 0.173259884119033813476562500000 -0.070076793432235717773437500000 -0.004925834480673074722290039062 -0.001312093343585730032679892432 0 0 0 0 
2417000000.0000000000 0.172803238034248407561932481258 -0.070322498679161071777343750000 -0.004750796128064393997192382812 -0.000999259413219988346099853516 0 0 0 0 
2417166666.6666665077 0.172296732664108304122763115629 -0.070270739495754241943359375000 -0.004634165205061435699462890625 -0.000906962202861905097961425781 0 0 0 0 
2417333333.3333334923 0.171941190958023099044638115629 -0.070494323968887329101562500000 -0.004717737901955842971801757812 -0.000607153633609414100646972656 0 0 0 0 
2417500000.0000000000 0.171420082449912997146768134371 -0.070792049169540405273437500000 -0.004693888127803803357596112988 -0.000615085242316126823425292969 0 0 0 0 
2417666666.6666665077 0.170776337385177612304687500000 -0.070802852511405944824218750000 -0.004748831037431955337524414062 -0.000294034136459231376647949219 0 0 0 0 
2417833333.3333334923 0.170054391026496887207031250000 -0.070985622704029083251953125000 -0.004594564903527498245239257812 -0.000057477744121570140123367310 0 0 0 0 
2418000000.0000000000 0.169053092598915100097656250000 -0.071385756134986877441406250000 -0.004566355142742395401000976562 -0.000016644329662085510790348053 0 0 0 0 
2418166666.6666665077 0.168266206979751586914062500000 -0.071378499269485473632812500000 -0.004348590970039367675781250000 0.000072800525231286883354187012 0 0 0 0 
2418333333.3333334923 0.167540341615676907638388115629 -0.071743272244930267333984375000 -0.004344414453953505429739667676 0.000295242818538099473148900165 0 0 0 0 
2418500000.0000000000 0.166293412446975708007812500000 -0.072020530700683593750000000000 -0.004356183111667633056640625000 0.000499732268508523702621459961 0 0 0 0 
2418666666.6666665077 0.165315121412277193924111884371 -0.072418712079524993896484375000 -0.004249552264809609326834394238 0.000418128212913870811462402344 0 0 0 0 
2418833333.3333334923 0.164091452956199701507244981258 -0.072820678353309631347656250000 -0.004227341152727603912353515625 0.000730047991964966058731079102 0 0 0 0 
2419000000.0000000000 0.162816464900970486739950615629 -0.073317326605319976806640625000 -0.004117044620215892791748046875 0.000818190281279385089874267578 0 0 0 0 
2419166666.6666665077 0.161644324660301208496093750000 -0.073934309184551239013671875000 -0.004005548544228076934814453125 0.000767908757552504539489746094 0 0 0 0 
2419333333.3333334923 0.160352140665054293533486884371 -0.074347093701362609863281250000 -0.004023810848593711853027343750 0.000923627230804413557052612305 0 0 0 0 
2419500000.0000000000 0.159093797206878689864950615629 -0.075241938233375549316406250000 -0.003929010592401027679443359375 0.001123265479691327051875449072 0 0 0 0 
2419666666.6666665077 0.157961934804916409591513115629 -0.076008439064025878906250000000 -0.003752183634787797927856445312 0.001174427801743149974225688403 0 0 0 0 
2419833333.3333334923 0.156653508543968200683593750000 -0.076714254915714263916015625000 -0.003787077032029629187342978369 0.001245523919351398944854736328 0 0 0 0 
