# Hz S RI R 50
2400000000.0000000000 0.155775606632232693771200615629 0.111289948225021403938050923443 0.004594067577272653579711914062 0.002989450702443718910217285156 0 0 0 0 
2400166666.6666665077 0.155263438820838900467080634371 0.108979940414428697059712192186 0.004895744379609823226928710938 0.002853486221283673806431435693 0 0 0 0 
2400333333.3333334923 0.154985129833221407791299384371 0.106695242226123795936665317186 0.005099200177937746047973632812 0.002622611587867141203639365088 0 0 0 0 
2400500000.0000000000 0.154762670397758511642294365629 0.104230925440788296798544365629 0.005213394295424222946166992188 0.002339778933674097061157226562 0 0 0 0 
2400666666.6666665077 0.154508620500564602950888115629 0.101710170507431002517861884371 0.005278270691633225354666425488 0.002020809333771467208862304688 0 0 0 0 
2400833333.3333334923 0.154193431138992309570312500000 0.098702691495418548583984375000 0.005380420479923486709594726562 0.001792524126358330032945942456 0 0 0 0 
2401000000.0000000000 0.154065787792205810546875000000 0.096029222011566162109375000000 0.005448041483759880065917968750 0.001550842076539993069292378003 0 0 0 0 
2401166666.6666665077 0.153704807162284906585369981258 0.093134395778179168701171875000 0.005341393873095512390136718750 0.001105944975279272036311484229 0 0 0 0 
2401333333.3333334923 0.154050439596176202972088731258 0.090203866362571716308593750000 0.005416020285338163375854492188 0.001064416952431201934814453125 0 0 0 0 
2401500000.0000000000 0.154140204191207913497763115629 0.087137930095195770263671875000 0.005388499237596988677978515625 0.000656008080113679170608520508 0 0 0 0 
2401666666.6666665077 0.154430910944938687423544365629 0.084284931421279907226562500000 0.005311264656484127044677734375 0.000391348759876564199298304425 0 0 0 0 
2401833333.3333334923 0.154720515012741088867187500000 0.081269644200801849365234375000 0.005472577176988124847412109375 0.000178810994839295690685826434 0 0 0 0 
2402000000.0000000000 0.155257001519203213790731865629 0.078280642628669738769531250000 0.005215874873101711273193359375 0.000039910868508741259574890137 0 0 0 0 
2402166666.6666665077 0.156110197305679293533486884371 0.075695030391216278076171875000 0.005418677814304828643798828125 -0.000133549692691303789615631104 0 0 0 0 
2402333333.3333334923 0.156985282897949190994424384371 0.072607859969139099121093750000 0.005393255036324262619018554688 -0.000328567315591499209403991699 0 0 0 0 
2402500000.0000000000 0.157819569110870389083700615629 0.069997355341911315917968750000 0.005248649977147579193115234375 -0.000618045974988490343093872070 0 0 0 0 
2402666666.6666665077 0.159084916114807101150674384371 0.067171379923820495605468750000 0.005212109535932540893554687500 -0.001012420048937201933619833838 0 0 0 0 
2402833333.3333334923 0.160053372383117703536825615629 0.064616121351718902587890625000 0.005224280990660190582275390625 -0.001054760301485657908796000903 0 0 0 0 
2403000000.0000000000 0.161571174860000610351562500000 0.062016863375902182842214216407 0.005222498439252377423758222363 -0.001347713870927691893336630713 0 0 0 0 
2403166666.6666665077 0.163244962692260686676348768742 0.059687484055757522583007812500 0.005211343057453632354736328125 -0.001491948380134999968885112231 0 0 0 0 
2403333333.3333334923 0.164939180016517611404580634371 0.057157963514328002929687500000 0.005022075492888689041137695312 -0.001624840078875422911403036963 0 0 0 0 
2403500000.0000000000 0.166446536779403686523437500000 0.054832447320222861553151716407 0.005087202414870262145996093750 -0.002127380110323429107666015625 0 0 0 0 
2403666666.6666665077 0.168501719832420404632244981258 0.052629441022872931743581403907 0.004944756627082824707031250000 -0.002275466686114668846130371094 0 0 0 0 
2403833333.3333334923 0.170134320855140713790731865629 0.050402443856000900268554687500 0.004800049122422933578491210938 -0.002762319985777140097377158057 0 0 0 0 
2404000000.0000000000 0.171839162707328796386718750000 0.048351198434829711914062500000 0.004607184324413537979125976562 -0.002903505926951766014099121094 0 0 0 0 
2404166666.6666665077 0.173634186387062100509481865629 0.046705141663551330566406250000 0.004244934767484664916992187500 -0.003255245508626102967503213037 0 0 0 0 
2404333333.3333334923 0.175446525216102600097656250000 0.044939372688531882549245466407 0.004179975483566522598266601562 -0.003573952242732048034667968750 0 0 0 0 
2404500000.0000000000 0.177484467625618008712606865629 0.043348666280508041381835937500 0.003830302506685256958007812500 -0.003719922387972474098205566406 0 0 0 0 
2404666666.6666665077 0.179159283638000488281250000000 0.042257670313119888305664062500 0.003252816153690218925476074219 -0.003949292935431003570556640625 0 0 0 0 
2404833333.3333334923 0.181113526225089999099893134371 0.040757596492767327045481096093 0.003190509974956512884852743994 -0.004038965795189142227172851562 0 0 0 0 
2405000000.0000000000 0.182713314890861511230468750000 0.040092092007398612285573591407 0.002985443919897079901454306494 -0.004024568479508162412161542676 0 0 0 0 
2405166666.6666665077 0.184338539838790893554687500000 0.039220020174980156635324846093 0.002582594985142350196838378906 -0.004169492516666650772094726562 0 0 0 0 
2405333333.3333334923 0.185815989971160888671875000000 0.038780216127634048461914062500 0.002108044922351837158203125000 -0.005030239466577768325805664062 0 0 0 0 
2405500000.0000000000 0.187583640217781094650106865629 0.037702668458223342895507812500 0.002785652875900268988368368994 -0.004016675520688295364379882812 0 0 0 0 
2405666666.6666665077 0.189021885395050104339276231258 0.037789233028888702392578125000 0.001639159978367388031603169019 -0.005045734811574220657348632812 0 0 0 0 
2405833333.3333334923 0.190858468413352994064169365629 0.037582725286483771587331403907 0.000464666110929101705551147461 -0.004244497511535882949829101562 0 0 0 0 
2406000000.0000000000 0.191908404231071499923544365629 0.037366274744272232055664062500 0.001167572685517370917676616138 -0.004446891602128744125366210938 0 0 0 0 
2406166666.6666665077 0.193564549088478088378906250000 0.036924254149198532104492187500 0.000814737228211015462875366211 -0.003222965635359286828282021631 0 0 0 0 
2406333333.3333334923 0.194728583097457913497763115629 0.037377115339040763164479841407 0.000292283744784071987301427020 -0.003402609610930085182189941406 0 0 0 0 
2406500000.0000000000 0.195476934313774108886718750000 0.037754319608211517333984375000 -0.000166861151228658909171503888 -0.004214092157781124114990234375 0 0 0 0 
2406666666.6666665077 0.196264892816543606857138115629 0.037588384002447128295898437500 0.000341036065947264378696995868 -0.004198195878416299819946289062 0 0 0 0 
2406833333.3333334923 0.197114512324333190917968750000 0.037082090973854071880300153907 0.000322007312206551378399449481 -0.002147432416677474975585937500 0 0 0 0 
2407000000.0000000000 0.197633028030395507812500000000 0.038173235952854163433034528907 -0.000066402142692822962999343872 -0.003784215310588479042053222656 0 0 0 0 
2407166666.6666665077 0.198244020342826787750567518742 0.038124695420265197753906250000 -0.000335968099534511620372217999 -0.003575747832655907110926962744 0 0 0 0 
2407333333.3333334923 0.198425203561782809158486884371 0.038563974201679229736328125000 -0.000362992926966399008601588116 -0.003393314313143492178675986182 0 0 0 0 
2407500000.0000000000 0.198603898286819513518963731258 0.038921732455492019653320312500 -0.000483061623526737093925476074 -0.003286663442850112915039062500 0 0 0 0 
2407666666.6666665077 0.198696687817573602874432481258 0.039122492074966430664062500000 -0.000713780114892870187759399414 -0.003143150825053453011753701318 0 0 0 0 
2407833333.3333334923 0.198337465524673489669638115629 0.039407577365636832500417341407 -0.000785259355325251817703247070 -0.002900752238929272131678915869 0 0 0 0 
2408000000.0000000000 0.198461487889289911468182481258 0.039329007267951972270925153907 -0.000972157111391425132751464844 -0.002527926117181777954101562500 0 0 0 0 
2408166666.6666665077 0.197809502482414301116619981258 0.039378367364406592632253278907 -0.001082990784198045947431254810 -0.002542294794693589210510253906 0 0 0 0 
2408333333.3333334923 0.197355791926383999923544365629 0.038984999060630798339843750000 -0.001005477155558764934539794922 -0.002308337949216365814208984375 0 0 0 0 
2408500000.0000000000 0.196740418672561701018963731258 0.039273608475923538208007812500 -0.001037184149026870944379496997 -0.002059197984635829925537109375 0 0 0 0 
2408666666.6666665077 0.196024030447006197830361884371 0.038967024534940719604492187500 -0.001121317734941839954973530347 -0.001844579936005174896837544019 0 0 0 0 
2408833333.3333334923 0.195305541157722500900106865629 0.038571327924728386615793596093 -0.001032370841130614063860249097 -0.001566865248605608940124511719 0 0 0 0 
2409000000.0000000000 0.194243326783180209060830634371 0.037990927696228027343750000000 -0.000948600412812083959579467773 -0.001522829174064100005506205981 0 0 0 0 
2409166666.6666665077 0.193139448761940002441406250000 0.037339579313993447040598283593 -0.000848930096253752708435058594 -0.001335691194981337027308798682 0 0 0 0 
2409333333.3333334923 0.192174747586250305175781250000 0.036641180515289306640625000000 -0.000816559651866555213928222656 -0.001168914604932069995282817310 0 0 0 0 
2409500000.0000000000 0.190834417939186096191406250000 0.035648554563522338867187500000 -0.000522813352290540933609008789 -0.001027591410093009905574179541 0 0 0 0 
2409666666.6666665077 0.189620569348335293868856865629 0.034473281353712081909179687500 -0.000510173791553825139999389648 -0.001046127406880259947535849463 0 0 0 0 
2409833333.3333334923 0.188512608408927889724893134371 0.033189650624990463256835937500 -0.000230201621889136704519548959 -0.001017623348161577961565327222 0 0 0 0 
2410000000.0000000000 0.187256455421447809417401231258 0.031896993517875671386718750000 -0.000258068204857409000396728516 -0.000965644256211817264556884766 0 0 0 0 
2410166666.6666665077 0.186017096042633112151776231258 0.030256981030106541025181954296 -0.000122348705190233913346967154 -0.001029932987876236005070351709 0 0 0 0 
2410333333.3333334923 0.184728011488914489746093750000 0.028641270473599430429478829296 0.000105190971225965795203885489 -0.000999545329250395298004150391 0 0 0 0 
2410500000.0000000000 0.183626726269722012618856865629 0.026811625808477401733398437500 -0.000048317589971702552657534940 -0.001201438717544079043744731372 0 0 0 0 
2410666666.6666665077 0.182440042495727511306924384371 0.024853749200701710092564766796 0.000194586100406013402059832162 -0.001153054065071045918705605615 0 0 0 0 
2410833333.3333334923 0.181607097387313787262286268742 0.022820550948381420480748360546 0.000113290421722922501250943594 -0.001086236559785902933833456885 0 0 0 0 
2411000000.0000000000 0.180587053298950195312500000000 0.020699717104434970510462576954 0.000259199208812788074642735614 -0.001241546240635216019274067456 0 0 0 0 
2411166666.6666665077 0.179663240909576388260049384371 0.018369201570749279367467110546 0.000214347528526559499189099722 -0.001165127614513040022609091650 0 0 0 0 
2411333333.3333334923 0.178915470838546808440838731258 0.015930034220218658447265625000 0.000233275204664096209123888559 -0.001339227310381829955457377856 0 0 0 0 
2411500000.0000000000 0.178333684802055386642294365629 0.013474431820213799912422381055 0.000152139415149576989099225455 -0.001329649006947875022888183594 0 0 0 0 
2411666666.6666665077 0.177843883633613586425781250000 0.011129401624202730006207850977 0.000147817438119091093540191650 -0.001317795831710099957109760815 0 0 0 0 
2411833333.3333334923 0.177270501852035494705361884371 0.008764808997511863708496093750 0.000361751270247623324394226074 -0.001328588812611996910692524487 0 0 0 0 
2412000000.0000000000 0.177431747317314203460369981258 0.005775769706815481185913085938 0.000235807776334695490911760873 -0.001388143631629646041272807544 0 0 0 0 
2412166666.6666665077 0.177196115255355807205361884371 0.003400140907615423202514648438 0.000247303163632750511169433594 -0.001272049732506274960161518628 0 0 0 0 
2412333333.3333334923 0.177255839109420804122763115629 0.000791497295722365379333496094 0.000191145969438366591930389404 -0.001457852078601717948913574219 0 0 0 0 
2412500000.0000000000 0.177473723888397189041299384371 -0.001762903993949294090270996094 0.000285659945802763104438781738 -0.001338034984655678055406879956 0 0 0 0 
2412666666.6666665077 0.177861735224723788162393134371 -0.004482964053750038146972656250 0.000421521661337465102046412335 -0.001376153668388723893406533350 0 0 0 0 
2412833333.3333334923 0.178619563579559298416299384371 -0.007067799102514982223510742188 0.000353589071892201900482177734 -0.001519323792308568954467773438 0 0 0 0 
2413000000.0000000000 0.179089367389679010589276231258 -0.009770464152097702026367187500 0.000417493050917983109324854718 -0.001441945089027286009547568213 0 0 0 0 
2413166666.6666665077 0.179786533117294311523437500000 -0.012176690623164180410364920704 0.000584500841796398162841796875 -0.001732777804136276028276753003 0 0 0 0 
2413333333.3333334923 0.180887207388877896407919365629 -0.014853438362479209899902343750 0.000607681518886238336563110352 -0.001718133571557701067683554541 0 0 0 0 
2413500000.0000000000 0.181670069694518987457598768742 -0.017385980114340778696080391796 0.000611745694186538457870483398 -0.001847036997787653966190957178 0 0 0 0 
2413666666.6666665077 0.182759448885917691329794365629 -0.019622270017862319946289062500 0.000660524470731616020202636719 -0.002040335210040212111232138525 0 0 0 0 
2413833333.3333334923 0.184085801243781987945880018742 -0.022001445293426510202428048046 0.000803551520220935344696044922 -0.002095229458063840866088867188 0 0 0 0 
2414000000.0000000000 0.185295954346656799316406250000 -0.024179609492421150207519531250 0.000767080869991332292556762695 -0.002289762254804372787475585938 0 0 0 0 
2414166666.6666665077 0.186586782336235101897869981258 -0.026251185685396190988560860546 0.000629294605460017919540405273 -0.002603593980893493132350302588 0 0 0 0 
2414333333.3333334923 0.187735542654991205413494981258 -0.028407836332917209970494454296 0.000452743843197822625010889874 -0.002803713548928498788120888818 0 0 0 0 
2414500000.0000000000 0.189164385199546786209268134371 -0.030131969600915908813476562500 0.000546455616131424903869628906 -0.003061047056689858002903603662 0 0 0 0 
2414666666.6666665077 0.190591618418693486969317518742 -0.031939759850502007221262346093 0.000187037017894908812925061636 -0.003195123048499227003810263525 0 0 0 0 
2414833333.3333334923 0.191812053322792108733807481258 -0.033375289291143417358398437500 0.000082007361925207078456878662 -0.003381602000445127920863486182 0 0 0 0 
2415000000.0000000000 0.193161636590957613845986884371 -0.034781560301780700683593750000 -0.000210966434678994092062273569 -0.003475996199995278878452920068 0 0 0 0 
2415166666.6666665077 0.194562509655952509124432481258 -0.036117568612098686908762346093 -0.000517087173648178577423095703 -0.003626493969932198958155966650 0 0 0 0 
2415333333.3333334923 0.195973947644233703613281250000 -0.037255074828863136982004533593 -0.000816601386759430170059204102 -0.003748552408069372177124023438 0 0 0 0 
2415500000.0000000000 0.197326987981796292404013115629 -0.038017395883798599243164062500 -0.000975743285380303859710693359 -0.003590732812881470160243368994 0 0 0 0 
2415666666.6666665077 0.198654934763908386230468750000 -0.039126448333263397216796875000 -0.001233899733051657893537211841 -0.003726382739841938018798828125 0 0 0 0 
2415833333.3333334923 0.199689179658889798263388115629 -0.039750870317220687866210937500 -0.001622352981939912059186625903 -0.003669427009299397902247763525 0 0 0 0 
2416000000.0000000000 0.200856298208236694335937500000 -0.040444154292345046997070312500 -0.001827255822718143896815634619 -0.003739751409739255905151367188 0 0 0 0 
2416166666.6666665077 0.201858028769493103027343750000 -0.040965829044580459594726562500 -0.002224582014605402946472167969 -0.003475049510598183111903525244 0 0 0 0 
2416333333.3333334923 0.202794343233108492752236884371 -0.041237846016883850097656250000 -0.002470020204782485961914062500 -0.003274969290941954092738486182 0 0 0 0 
2416500000.0000000000 0.203495413064956692794638115629 -0.041584692895412452007253278907 -0.002673903945833445029017783057 -0.003189258044585586027858115088 0 0 0 0 
2416666666.6666665077 0.204170942306518610198651231258 -0.041884675621986389160156250000 -0.002846266375854610963108681787 -0.003149284748360515074488974463 0 0 0 0 
2416833333.3333334923 0.204657673835754394531250000000 -0.041923053562641136859934221093 -0.003166054375469685034510947119 -0.002875422127544879913330078125 0 0 0 0 
2417000000.0000000000 0.205044344067573602874432481258 -0.041981369256973266601562500000 -0.003241436323150991959812783350 -0.002851680153980851173400878906 0 0 0 0 
2417166666.6666665077 0.205092877149581909179687500000 -0.041716583073139190673828125000 -0.003367281518876553015467978369 -0.002669788897037506103515625000 0 0 0 0 
2417333333.3333334923 0.205097928643226595779580634371 -0.041569255292415618896484375000 -0.003638416063040494918823242188 -0.002295950194820762114283896338 0 0 0 0 
2417500000.0000000000 0.205014377832412691970986884371 -0.041445948183536529541015625000 -0.003686176147311925888061523438 -0.002131753368303180174586630713 0 0 0 0 
2417666666.6666665077 0.204716026782989501953125000000 -0.040988665074110031127929687500 -0.003707491094246507124659872900 -0.001842068624682724909541464697 0 0 0 0 
2417833333.3333334923 0.204530864953994806487713731258 -0.040599565953016281127929687500 -0.003846213687211275100708007812 -0.001554106944240630106685019385 0 0 0 0 
2418000000.0000000000 0.204129427671432495117187500000 -0.040191676467657089233398437500 -0.004030132666230201721191406250 -0.001461061299778521060943603516 0 0 0 0 
2418166666.6666665077 0.203367084264755304534588731258 -0.039836321026086807250976562500 -0.004026657436043024063110351562 -0.001267295330762862942339253003 0 0 0 0 
2418333333.3333334923 0.202659651637077303787393134371 -0.039564967155456542968750000000 -0.004066844470798969268798828125 -0.001096788095310329957249306787 0 0 0 0 
2418500000.0000000000 0.201885089278221102615518134371 -0.039222583174705512309987653907 -0.004073927644640207290649414062 -0.000780313857831060886383056641 0 0 0 0 
2418666666.6666665077 0.201011404395103510100994981258 -0.038988698273897171020507812500 -0.004188860766589641571044921875 -0.000650659843813627958297729492 0 0 0 0 
2418833333.3333334923 0.199792921543121310135049384371 -0.038976896554231636737863908593 -0.004258919041603803634643554688 -0.000390241824788972681194859637 0 0 0 0 
2419000000.0000000000 0.198527157306671087066973768742 -0.038874741643667221069335937500 -0.004212492145597934722900390625 -0.000137526963953860104084014893 0 0 0 0 
2419166666.6666665077 0.197377815842628506759481865629 -0.038896389305591583251953125000 -0.004121427424252033233642578125 0.000057916928199119872670581205 0 0 0 0 
2419333333.3333334923 0.195934727787971496582031250000 -0.039274096488952636718750000000 -0.004089122638106346130371093750 0.000399378564907237887382507324 0 0 0 0 
2419500000.0000000000 0.194349154829978887359942518742 -0.039436917752027511596679687500 -0.004079536069184541702270507812 0.000539290078449994325637817383 0 0 0 0 
2419666666.6666665077 0.192881941795349093338174384371 -0.039925735443830490112304687500 -0.003982069902122020721435546875 0.000921179831493645906448364258 0 0 0 0 
2419833333.3333334923 0.191117614507675198654013115629 -0.040233049541711807250976562500 -0.003929700702428817749023437500 0.001067664125002921061274863135 0 0 0 0 
