# Hz S RI R 
2400000000.0000000000 0.173376858234405489822549384371 0.049396596848964691162109375000 0.003787604160606861114501953125 -0.000453547370852902477413731708 0 0 0 0 
2400166666.6666665077 0.173956573009490994552450615629 0.048767171800136573101003278907 0.003736992599442601203918457031 -0.000444753415649756789207458496 0 0 0 0 
2400333333.3333334923 0.174328461289405794998330634371 0.048172969371080398559570312500 0.003640676615759729905369423975 -0.000662463775370270013809204102 0 0 0 0 
2400500000.0000000000 0.174669459462165804763955634371 0.047483786940574652934987653907 0.003468967741355299949645996094 -0.000725146848708391189575195312 0 0 0 0 
2400666666.6666665077 0.174924150109291104415731865629 0.046856563538312911987304687500 0.003334034234285355047938681494 -0.000929145200643688440322875977 0 0 0 0 
2400833333.3333334923 0.175256609916687011718750000000 0.046314723789691931987722028907 0.003078494686633348898646689307 -0.001169177470728754997253417969 0 0 0 0 
2401000000.0000000000 0.175418794155120905120526231258 0.045764017850160598754882812500 0.003013499081134796142578125000 -0.001120741362683475017547607422 0 0 0 0 
2401166666.6666665077 0.175406321883201599121093750000 0.044890366494655609130859375000 0.002831453224644064903259277344 -0.001218278543092309994938515771 0 0 0 0 
2401333333.3333334923 0.175505712628364590743856865629 0.044475268572568893432617187500 0.002845642389729619026184082031 -0.001111172954551876024958945166 0 0 0 0 
2401500000.0000000000 0.175441741943359402755575615629 0.043688956648111343383789062500 0.002763882279396057128906250000 -0.001187394489534199020983051831 0 0 0 0 
2401666666.6666665077 0.175392493605613708496093750000 0.043211415410041809082031250000 0.002483386779204010963439941406 -0.001358009758405386967899941553 0 0 0 0 
2401833333.3333334923 0.175188377499580411056356865629 0.042202398180961608886718750000 0.002356621203944087028503417969 -0.001272685243748127980473183740 0 0 0 0 
2402000000.0000000000 0.175034373998641995529013115629 0.041120190173387527465820312500 0.002291956450790166854858398438 -0.001301372889429331042646098560 0 0 0 0 
2402166666.6666665077 0.174832507967948913574218750000 0.040349904447793960571289062500 0.002178910654038190841674804688 -0.001230447203852236054064106519 0 0 0 0 
2402333333.3333334923 0.174551069736480712890625000000 0.039521042257547378540039062500 0.001920788432471453926683735425 -0.001109827775508164925816201318 0 0 0 0 
2402500000.0000000000 0.174701064825058011154013115629 0.038529217243194580078125000000 0.002007159404456615014317177881 -0.001144220819696784019470214844 0 0 0 0 
2402666666.6666665077 0.174218058586120605468750000000 0.037421625107526779174804687500 0.002040936378762125968933105469 -0.001201243489049375057220458984 0 0 0 0 
2402833333.3333334923 0.173914253711700411697549384371 0.036112826317548751831054687500 0.001786271459423006014582968604 -0.000798883789684623479843139648 0 0 0 0 
2403000000.0000000000 0.173402398824691800216513115629 0.034916263073682791973073591407 0.001823219587095082023023295825 -0.000988212996162474155426025391 0 0 0 0 
2403166666.6666665077 0.173376679420471191406250000000 0.033481799066066741943359375000 0.001628101919777690930607461084 -0.000977716059423983097076416016 0 0 0 0 
2403333333.3333334923 0.172821298241615295410156250000 0.032140828669071197509765625000 0.001746074412949383041979145581 -0.000751825398765504360198974609 0 0 0 0 
2403500000.0000000000 0.172367453575134305099325615629 0.030589083209633830678919608204 0.001798449666239321015001606519 -0.000754607957787811756134033203 0 0 0 0 
2403666666.6666665077 0.172095909714698791503906250000 0.028845975175499919546107108204 0.001958414912223815917968750000 -0.000660667137708514928817749023 0 0 0 0 
2403833333.3333334923 0.171859726309776306152343750000 0.027060654014348980295201485546 0.001852204208262264945386577075 -0.000615945085883140563964843750 0 0 0 0 
2404000000.0000000000 0.171374991536140386383380018742 0.025257771834731098520299141796 0.002071816474199295043945312500 -0.000479498354252427816390991211 0 0 0 0 
2404166666.6666665077 0.170882031321525601486044365629 0.023402975872159000741978829296 0.001994422171264886856079101562 -0.000439986732089891975552159442 0 0 0 0 
2404333333.3333334923 0.170823827385902404785156250000 0.021529847756028178823450858204 0.002160619944334030151367187500 -0.000654644856695085763931274414 0 0 0 0 
2404500000.0000000000 0.170319885015487698654013115629 0.019524712115526199340820312500 0.002220254857093096213099814307 -0.000539914530236274003982543945 0 0 0 0 
2404666666.6666665077 0.170247495174407986739950615629 0.017571084201335910451868826954 0.002300115302205086188075400244 -0.000694413727615028619766235352 0 0 0 0 
2404833333.3333334923 0.170099943876266507247763115629 0.015629341825842860830286795704 0.002272630110383034186122275244 -0.000579138577450066804885864258 0 0 0 0 
2405000000.0000000000 0.169856950640678405761718750000 0.013335751369595529383649257227 0.002532851882278918786289834131 -0.000715515692718327153860891077 0 0 0 0 
2405166666.6666665077 0.169813886284828213790731865629 0.011459232307970520364781563671 0.002590017160400747819187783350 -0.000891771807800978422164916992 0 0 0 0 
2405333333.3333334923 0.169918298721313504318075615629 0.009312824346125125885009765625 0.002546703908592462973353720557 -0.000838980660773813724517822266 0 0 0 0 
2405500000.0000000000 0.170011714100837707519531250000 0.007415338885039091110229492188 0.002695325529202818870544433594 -0.000916266173589974641799926758 0 0 0 0 
2405666666.6666665077 0.170118138194084195236044365629 0.005199469625949859619140625000 0.002571664517745376066920615088 -0.001180626917630434036254882812 0 0 0 0 
2405833333.3333334923 0.170145064592361505706463731258 0.003377389628440142111537314307 0.002754902234300971031188964844 -0.001076733809895813898799277197 0 0 0 0 
2406000000.0000000000 0.170690640807151794433593750000 0.001177236554212867996813129956 0.002641314640641212897059775244 -0.001209879294037818908691406250 0 0 0 0 
2406166666.6666665077 0.170859113335609408279580634371 -0.000759752758312970399856567383 0.002705970546230673789978027344 -0.001253310940228403048274374854 0 0 0 0 
2406333333.3333334923 0.171458810567855807205361884371 -0.002862593159079552130458212744 0.002572990721091628074645996094 -0.001420418033376336097717285156 0 0 0 0 
2406500000.0000000000 0.171849489212036105056924384371 -0.004988634493201971054077148438 0.002714356407523155212402343750 -0.001795658026821910901310586084 0 0 0 0 
2406666666.6666665077 0.172113016247749300857705634371 -0.007000897079706192016601562500 0.002838873071596025986912392725 -0.001687359181232749982121132959 0 0 0 0 
2406833333.3333334923 0.173047482967376708984375000000 -0.008991404436528682708740234375 0.002841197885572909875157021631 -0.001671977574005722999572753906 0 0 0 0 
2407000000.0000000000 0.173578396439552307128906250000 -0.010778306983411310368548008398 0.002710446482524276213404990088 -0.001880616997368633963941264575 0 0 0 0 
2407166666.6666665077 0.174463197588920593261718750000 -0.012564419768750669306744960352 0.002743608085438609123229980469 -0.001954304054379463195800781250 0 0 0 0 
2407333333.3333334923 0.174935832619667108733807481258 -0.014310023747384549921979335352 0.002626522909849882125854492188 -0.002050568815320730209350585938 0 0 0 0 
2407500000.0000000000 0.175724148750305203536825615629 -0.016088567674160000192662423046 0.002782480325549840927124023438 -0.002123281359672545953037881006 0 0 0 0 
2407666666.6666665077 0.176534935832023592849893134371 -0.017678612843155860900878906250 0.002810233272612094879150390625 -0.002211921382695436911342001807 0 0 0 0 
2407833333.3333334923 0.177024379372596712967080634371 -0.019355561584234241140345389454 0.002618496539071201844456338037 -0.002364094369113444848301552881 0 0 0 0 
2408000000.0000000000 0.178024038672447204589843750000 -0.021009055897593501699427420704 0.002629524096846580939051962744 -0.002524700947105884985682822119 0 0 0 0 
2408166666.6666665077 0.178788468241691589355468750000 -0.022332489490509029733678048046 0.002655399497598410086390829932 -0.002603438682854176001307822119 0 0 0 0 
2408333333.3333334923 0.179605394601821899414062500000 -0.023602155968546870840052420704 0.002565077506005764007568359375 -0.002868996001780033111572265625 0 0 0 0 
2408500000.0000000000 0.180114716291427612304687500000 -0.025137985125184059143066406250 0.002522013848647474808933877100 -0.002954759169369935989379882812 0 0 0 0 
2408666666.6666665077 0.180773228406906100174111884371 -0.026393167674541469919224923046 0.002605766290798782868626259912 -0.003184607252478599982020712744 0 0 0 0 
2408833333.3333334923 0.181264594197273309905682481258 -0.027377139776945110666295235546 0.002461686031892896132228232275 -0.003242786740884184837341308594 0 0 0 0 
2409000000.0000000000 0.181721389293670709808026231258 -0.028460012748837471008300781250 0.002358100842684506936314248193 -0.003469524206593633131739951025 0 0 0 0 
2409166666.6666665077 0.182195633649826105315838731258 -0.029166668653488159179687500000 0.002254063729196786880493164062 -0.003549920395016669793369912256 0 0 0 0 
2409333333.3333334923 0.182806223630905206878338731258 -0.030108926817774769174596016796 0.002091582398861647085902548682 -0.003707860596477984948399209131 0 0 0 0 
2409500000.0000000000 0.183174759149551391601562500000 -0.030931724235415458679199218750 0.002016718033701180978062295068 -0.003963368013501167297363281250 0 0 0 0 
2409666666.6666665077 0.183322101831436212737713731258 -0.031457889825105667114257812500 0.001872668159194291071650839697 -0.003897034563124179840087890625 0 0 0 0 
2409833333.3333334923 0.183619931340217590332031250000 -0.031928341835737228393554687500 0.001717426697723567919490195166 -0.003905871883034706115722656250 0 0 0 0 
2410000000.0000000000 0.184026911854744013030682481258 -0.032394688576459891582448591407 0.001697458210401237010955810547 -0.004193592816591262817382812500 0 0 0 0 
2410166666.6666665077 0.183954209089279202560263115629 -0.032756440341472632671315778907 0.001352283987216651005985879053 -0.004249046556651592254638671875 0 0 0 0 
2410333333.3333334923 0.184096425771713312347088731258 -0.033187646418809890747070312500 0.001358354929834604046465229565 -0.004280772525817155838012695312 0 0 0 0 
2410500000.0000000000 0.184247300028800992111044365629 -0.033518426120281219482421875000 0.001162547385320066972019814600 -0.004445969127118588361258222363 0 0 0 0 
2410666666.6666665077 0.184020325541496304611044365629 -0.033855766057968139648437500000 0.001039444585330784103990864331 -0.004484063480049371719360351562 0 0 0 0 
2410833333.3333334923 0.183831274509429903885049384371 -0.034138694405555732036550153907 0.000943353981710970401763916016 -0.004569195210933685302734375000 0 0 0 0 
2411000000.0000000000 0.183558359742164611816406250000 -0.034422431141138076782226562500 0.000719316361937671899795532227 -0.004604359623044729232788085938 0 0 0 0 
2411166666.6666665077 0.183102145791053799728231865629 -0.034749951213598251342773437500 0.000596174679230898618698120117 -0.004816724453121423721313476562 0 0 0 0 
2411333333.3333334923 0.182804271578788812835369981258 -0.035023242235183722759206403907 0.000343683816026896184116917743 -0.004753196146339178085327148438 0 0 0 0 
2411500000.0000000000 0.181981861591339111328125000000 -0.035491269081830978393554687500 0.000221882190089672803878784180 -0.004571528639644384384155273438 0 0 0 0 
2411666666.6666665077 0.181669756770133999923544365629 -0.035774372518062591552734375000 0.000105086452094837996080675668 -0.004867340903729200363159179688 0 0 0 0 
2411833333.3333334923 0.180874854326248196700888115629 -0.036057982593774802471120466407 -0.000186193035915493992253980093 -0.004917783197015523910522460938 0 0 0 0 
2412000000.0000000000 0.180187240242958096603231865629 -0.036644008010625839233398437500 -0.000319577287882566506236475812 -0.004782665986567735671997070312 0 0 0 0 
2412166666.6666665077 0.178894728422164889236611884371 -0.037160944193601608276367187500 -0.000532707199454307556152343750 -0.004945228807628154754638671875 0 0 0 0 
2412333333.3333334923 0.178193926811218289474325615629 -0.037669386714696877216379533593 -0.000753976404666900634765625000 -0.004864193499088287353515625000 0 0 0 0 
2412500000.0000000000 0.176931127905845586578692518742 -0.038223039358854286884348283593 -0.000887656293343752622604370117 -0.004797126632183790206909179688 0 0 0 0 
2412666666.6666665077 0.175933465361595209319744981258 -0.039035987108945846557617187500 -0.001085397670976818041560507666 -0.004885153379291296005249023438 0 0 0 0 
2412833333.3333334923 0.174898013472557095626669365629 -0.039651773869991302490234375000 -0.001148463226854800961138081128 -0.004950351547449827194213867188 0 0 0 0 
2413000000.0000000000 0.173673659563064602950888115629 -0.040311075747013092041015625000 -0.001490700175054370923283242334 -0.004959002602845430374145507812 0 0 0 0 
2413166666.6666665077 0.172083750367164611816406250000 -0.041300397366285317157785783593 -0.001548059633933007933973002856 -0.004970901645720005035400390625 0 0 0 0 
2413333333.3333334923 0.170767426490783691406250000000 -0.042310617864131927490234375000 -0.001635171589441597895381308447 -0.004887830466032028198242187500 0 0 0 0 
2413500000.0000000000 0.169423893094062805175781250000 -0.043384820222854607318918596093 -0.002076064702123403982875204932 -0.004722340498119592666625976562 0 0 0 0 
2413666666.6666665077 0.168386518955230712890625000000 -0.044351581484079360961914062500 -0.002127849031239748001098632812 -0.004906639456748962402343750000 0 0 0 0 
2413833333.3333334923 0.166910469532012911697549384371 -0.045556731522083282470703125000 -0.002334953751415013833286904443 -0.004907850641757249832153320312 0 0 0 0 
2414000000.0000000000 0.165604859590530395507812500000 -0.046853750944137573242187500000 -0.002496593631803988976719521631 -0.004600419662892819318289472363 0 0 0 0 
2414166666.6666665077 0.164386838674545288085937500000 -0.048205547034740447998046875000 -0.002821906702592968940734863281 -0.004519194364547730359549237988 0 0 0 0 
2414333333.3333334923 0.163110226392745999435263115629 -0.049718420952558517456054687500 -0.002968688029795885086059570312 -0.004521356429904699325561523438 0 0 0 0 
2414500000.0000000000 0.162019595503807095626669365629 -0.051048055291175842285156250000 -0.003109558951109648184535361182 -0.004447545856237412366385175488 0 0 0 0 
2414666666.6666665077 0.160783708095550509353799384371 -0.052516538649797439575195312500 -0.003485776484012604193446493994 -0.004259499721229076385498046875 0 0 0 0 
2414833333.3333334923 0.159738406538963290115518134371 -0.054257243871688842773437500000 -0.003585817292332648797276162256 -0.004061447922140359878540039062 0 0 0 0 
2415000000.0000000000 0.158755153417587308029013115629 -0.055818684399127960205078125000 -0.003965909592807292938232421875 -0.003946418873965740203857421875 0 0 0 0 
2415166666.6666665077 0.157602399587631197830361884371 -0.057594124227762222290039062500 -0.004098942968994379043579101562 -0.003823273349553347067592001807 0 0 0 0 
2415333333.3333334923 0.156932309269905090332031250000 -0.059592355042695999145507812500 -0.004173612222075462341308593750 -0.003488275688141583962681435693 0 0 0 0 
2415500000.0000000000 0.156249284744262695312500000000 -0.061242170631885528564453125000 -0.004235850181430578231811523438 -0.003192081348970531983616494287 0 0 0 0 
2415666666.6666665077 0.155391871929168701171875000000 -0.063151225447654724121093750000 -0.004599251784384250640869140625 -0.003049814142286777930018759619 0 0 0 0 
2415833333.3333334923 0.154871925711631802657919365629 -0.065050899982452392578125000000 -0.004612456541508436203002929688 -0.002776032080873847007751464844 0 0 0 0 
2416000000.0000000000 0.154009386897087097167968750000 -0.067076981067657470703125000000 -0.004651160445064306259155273438 -0.002600778825581074194667197119 0 0 0 0 
2416166666.6666665077 0.153721630573272705078125000000 -0.069017708301544189453125000000 -0.004600064828991889953613281250 -0.002430598484352231025695800781 0 0 0 0 
2416333333.3333334923 0.153268873691558810135049384371 -0.070831462740898132324218750000 -0.004836023785173892974853515625 -0.002070968970656394958496093750 0 0 0 0 
2416500000.0000000000 0.152971610426902798751669365629 -0.072889298200607299804687500000 -0.004665186628699302673339843750 -0.001698903506621717972996377100 0 0 0 0 
2416666666.6666665077 0.152641206979751586914062500000 -0.074820220470428466796875000000 -0.004701913334429264068603515625 -0.001573831075802444978001259912 0 0 0 0 
2416833333.3333334923 0.152539238333702087402343750000 -0.076829098165035247802734375000 -0.004573034122586250305175781250 -0.001353716361336410045623779297 0 0 0 0 
2417000000.0000000000 0.152162611484527587890625000000 -0.078783929347991943359375000000 -0.004554858896881341934204101562 -0.001209443202242254994036030347 0 0 0 0 
2417166666.6666665077 0.152175694704055786132812500000 -0.080493129789829254150390625000 -0.004406095016747713088989257812 -0.000984200858511030673980712891 0 0 0 0 
2417333333.3333334923 0.152011483907699612716513115629 -0.082171663641929626464843750000 -0.004422251135110855102539062500 -0.000848363444674760103225708008 0 0 0 0 
2417500000.0000000000 0.152041420340537997146768134371 -0.084062710404396057128906250000 -0.004334191791713237762451171875 -0.000806828262284398078918457031 0 0 0 0 
2417666666.6666665077 0.152162879705429104904013115629 -0.085535183548927307128906250000 -0.004364954773336648941040039062 -0.000512432539835572242736816406 0 0 0 0 
2417833333.3333334923 0.152243524789810208419638115629 -0.087111458182334899902343750000 -0.004273483995348215103149414062 -0.000564544403459876775741577148 0 0 0 0 
2418000000.0000000000 0.152266085147857693771200615629 -0.088686212897300720214843750000 -0.004087588749825953569894121387 -0.000543856876902282238006591797 0 0 0 0 
2418166666.6666665077 0.152354210615158108810263115629 -0.089781932532787322998046875000 -0.004265398718416690826416015625 -0.000425878708483651280403137207 0 0 0 0 
2418333333.3333334923 0.152821004390716608245526231258 -0.091154918074607849121093750000 -0.004176082555204629898071289062 -0.000286237656837329322665613995 0 0 0 0 
2418500000.0000000000 0.152873545885086087325888115629 -0.092228740453720092773437500000 -0.004179328680038452148437500000 -0.000317277328576892614364624023 0 0 0 0 
2418666666.6666665077 0.153230115771293612381143134371 -0.093343406915664672851562500000 -0.004037195350974798202514648438 -0.000271578785032033920288085938 0 0 0 0 
2418833333.3333334923 0.153262704610824612716513115629 -0.094250276684761047363281250000 -0.004113612696528434753417968750 -0.000143211960676126209184369498 0 0 0 0 
2419000000.0000000000 0.153482303023338290115518134371 -0.094981752336025238037109375000 -0.004197411239147186279296875000 -0.000045555065298685797233173983 0 0 0 0 
2419166666.6666665077 0.153758659958839388748330634371 -0.095629192888736724853515625000 -0.004184790421277284622192382812 -0.000094906965387053787708282471 0 0 0 0 
2419333333.3333334923 0.153823301196098299881143134371 -0.095944792032241821289062500000 -0.004159205127507448196411132812 0.000172496409504674402162274771 0 0 0 0 
2419500000.0000000000 0.154059275984764099121093750000 -0.096605859696865081787109375000 -0.004396235104650259017944335938 0.000264210335444658994674682617 0 0 0 0 
2419666666.6666665077 0.154369205236434908767861884371 -0.096993766725063323974609375000 -0.004304591100662946701049804688 0.000382424390409141778945922852 0 0 0 0 
2419833333.3333334923 0.154370680451393099685830634371 -0.097025789320468902587890625000 -0.004272647667676210403442382812 0.000504939234815537929534912109 0 0 0 0 
