# Version 1.00
#
freq[Hz];re:Trc1_S11;im:Trc1_S11;re:Trc2_S21;im:Trc2_S21;
2.400000000000000E+009;1.732233315706253E-001;4.911178722977638E-002;5.145709961652756E-003;-4.186209291219711E-003;
2.400166666666667E+009;1.738788485527039E-001;4.842735081911087E-002;5.203095730394125E-003;-4.215693566948175E-003;
2.400333333333334E+009;1.744086742401123E-001;4.758216813206673E-002;5.307136569172144E-003;-4.224408417940140E-003;
2.400500000000000E+009;1.748928278684616E-001;4.683085530996323E-002;5.196326877921820E-003;-4.631448537111282E-003;
2.400666666666667E+009;1.752431392669678E-001;4.629708081483841E-002;4.935671109706163E-003;-4.883025307208300E-003;
2.400833333333334E+009;1.755273938179016E-001;4.567407444119453E-002;4.992994945496321E-003;-5.006454419344664E-003;
2.401000000000000E+009;1.757464557886124E-001;4.498947039246559E-002;4.702283535152674E-003;-5.327317863702774E-003;
2.401166666666667E+009;1.758465617895126E-001;4.442984610795975E-002;4.610288888216019E-003;-5.424164235591888E-003;
2.401333333333334E+009;1.759613156318665E-001;4.374731332063675E-002;4.466801881790161E-003;-5.571833346039057E-003;
2.401500000000000E+009;1.763370037078857E-001;4.306711256504059E-002;4.405552055686712E-003;-5.946768447756767E-003;
2.401666666666667E+009;1.762632727622986E-001;4.254162684082985E-002;4.235515836626291E-003;-6.140911485999823E-003;
2.401833333333334E+009;1.762443780899048E-001;4.164817929267883E-002;4.003546200692654E-003;-6.290802266448736E-003;
2.402000000000000E+009;1.759496629238129E-001;4.082413017749786E-002;3.924861550331116E-003;-6.419001147150993E-003;
2.402166666666667E+009;1.758499294519424E-001;3.988160938024521E-002;3.657480468973517E-003;-6.657050456851721E-003;
2.402333333333334E+009;1.757619827985764E-001;3.895459696650505E-002;3.604447934776545E-003;-6.767564918845892E-003;
2.402500000000000E+009;1.757359057664871E-001;3.807453066110611E-002;3.108154283836484E-003;-6.907357368618250E-003;
2.402666666666667E+009;1.753639280796051E-001;3.700243681669235E-002;2.818320179358125E-003;-7.062013726681471E-003;
2.402833333333334E+009;1.750312000513077E-001;3.581831976771355E-002;2.763420110568404E-003;-7.130869664251804E-003;
2.403000000000000E+009;1.747865378856659E-001;3.467507287859917E-002;2.449677325785160E-003;-7.309185806661844E-003;
2.403166666666667E+009;1.745469719171524E-001;3.327687829732895E-002;2.192685147747397E-003;-7.420411799103022E-003;
2.403333333333334E+009;1.743113398551941E-001;3.207667171955109E-002;2.027588197961450E-003;-7.404199801385403E-003;
2.403500000000000E+009;1.736596673727036E-001;3.069849684834480E-002;1.789657399058342E-003;-7.476624101400375E-003;
2.403666666666667E+009;1.732973456382752E-001;2.888864278793335E-002;1.789603149518371E-003;-7.390859071165323E-003;
2.403833333333334E+009;1.731961816549301E-001;2.730802819132805E-002;1.398685039021075E-003;-7.761393673717976E-003;
2.404000000000000E+009;1.726818084716797E-001;2.568072825670242E-002;1.171114738099277E-003;-7.683644536882639E-003;
2.404166666666667E+009;1.722145676612854E-001;2.392643317580223E-002;9.740539826452732E-004;-7.790284696966410E-003;
2.404333333333334E+009;1.718793362379074E-001;2.194537781178951E-002;7.353580440394580E-004;-7.823016494512558E-003;
2.404500000000000E+009;1.715325415134430E-001;1.993486844003201E-002;4.362470062915236E-004;-7.778013125061989E-003;
2.404666666666667E+009;1.713718175888062E-001;1.819876767694950E-002;6.628479604842141E-005;-7.922621443867683E-003;
2.404833333333334E+009;1.712221950292587E-001;1.617564819753170E-002;-1.748063732520677E-005;-7.807115092873573E-003;
2.405000000000000E+009;1.710664331912994E-001;1.417370140552521E-002;-2.208608057117090E-004;-8.119444362819195E-003;
2.405166666666667E+009;1.708662658929825E-001;1.218677964061499E-002;-6.506356294266880E-004;-7.884242571890354E-003;
2.405333333333334E+009;1.708147674798966E-001;1.003870461136103E-002;-9.089536615647376E-004;-8.112045004963875E-003;
2.405500000000000E+009;1.709953993558884E-001;8.112396113574505E-003;-1.179224462248385E-003;-7.997030392289162E-003;
2.405666666666667E+009;1.710433661937714E-001;6.167733576148748E-003;-1.440234947949648E-003;-8.106579072773457E-003;
2.405833333333334E+009;1.711451858282089E-001;4.142737016081810E-003;-1.648314413614571E-003;-7.869021967053413E-003;
2.406000000000000E+009;1.713518649339676E-001;1.827515079639852E-003;-1.997840823605657E-003;-7.965014316141605E-003;
2.406166666666667E+009;1.715482026338577E-001;-3.576176095521078E-005;-2.166847232729197E-003;-8.031764999032021E-003;
2.406333333333334E+009;1.721002459526062E-001;-2.149771898984909E-003;-2.524076262488961E-003;-8.020255714654923E-003;
2.406500000000000E+009;1.723267883062363E-001;-4.317685496062040E-003;-2.879248000681400E-003;-7.740280125290155E-003;
2.406666666666667E+009;1.728802323341370E-001;-6.283192895352840E-003;-3.297562012448907E-003;-7.703757844865322E-003;
2.406833333333334E+009;1.734620034694672E-001;-8.274029009044170E-003;-3.342428710311651E-003;-7.536247838288546E-003;
2.407000000000000E+009;1.741155683994293E-001;-1.027265377342701E-002;-3.724731737747788E-003;-7.460808381438255E-003;
2.407166666666667E+009;1.748680919408798E-001;-1.214544381946325E-002;-4.044904373586178E-003;-7.401022128760815E-003;
2.407333333333334E+009;1.754138618707657E-001;-1.406638417392969E-002;-4.343699198216200E-003;-7.143063005059958E-003;
2.407500000000000E+009;1.761388480663300E-001;-1.595893502235413E-002;-4.553209990262985E-003;-7.036228664219379E-003;
2.407666666666667E+009;1.768780797719955E-001;-1.768708787858486E-002;-4.756278824061155E-003;-6.869842298328877E-003;
2.407833333333334E+009;1.775618195533752E-001;-1.951702311635017E-002;-4.946635570377111E-003;-6.450098473578692E-003;
2.408000000000000E+009;1.781992912292481E-001;-2.121070027351379E-002;-5.203732755035162E-003;-6.343151908367872E-003;
2.408166666666667E+009;1.788031011819840E-001;-2.263648621737957E-002;-5.386818666011095E-003;-6.172879133373499E-003;
2.408333333333334E+009;1.796426326036453E-001;-2.408981695771217E-002;-5.568861495703459E-003;-5.919326096773148E-003;
2.408500000000000E+009;1.801928728818893E-001;-2.577012591063976E-002;-5.701504647731781E-003;-5.559839308261871E-003;
2.408666666666667E+009;1.806478202342987E-001;-2.700698748230934E-002;-5.772374104708433E-003;-5.416674073785543E-003;
2.408833333333334E+009;1.809865087270737E-001;-2.820565178990364E-002;-6.020760163664818E-003;-5.257444456219673E-003;
2.409000000000000E+009;1.816033869981766E-001;-2.941487543284893E-002;-6.055367179214954E-003;-5.069202743470669E-003;
2.409166666666667E+009;1.821083277463913E-001;-3.040105849504471E-002;-6.001314148306847E-003;-4.863329697400332E-003;
2.409333333333334E+009;1.824356317520142E-001;-3.139090910553932E-002;-6.347096990793943E-003;-4.681129939854145E-003;
2.409500000000000E+009;1.825863420963287E-001;-3.225079551339150E-002;-6.373635027557612E-003;-4.620823543518782E-003;
2.409666666666667E+009;1.829382032155991E-001;-3.285052627325058E-002;-6.490104366093874E-003;-4.274858627468348E-003;
2.409833333333334E+009;1.830849051475525E-001;-3.340148925781250E-002;-6.596927531063557E-003;-4.173669498413801E-003;
2.410000000000000E+009;1.833985596895218E-001;-3.386487066745758E-002;-6.690961308777332E-003;-3.923998679965735E-003;
2.410166666666667E+009;1.835088431835175E-001;-3.414945676922798E-002;-6.828712299466133E-003;-3.864994971081615E-003;
2.410333333333334E+009;1.835094094276428E-001;-3.464129567146301E-002;-6.983803585171700E-003;-3.613626817241311E-003;
2.410500000000000E+009;1.835772395133972E-001;-3.491584584116936E-002;-6.978513672947884E-003;-3.451967379078269E-003;
2.410666666666667E+009;1.832978278398514E-001;-3.532629832625389E-002;-7.210441865026951E-003;-3.292483743280172E-003;
2.410833333333334E+009;1.834408640861511E-001;-3.547588363289833E-002;-7.479830645024777E-003;-3.070571925491095E-003;
2.411000000000000E+009;1.831393092870712E-001;-3.568123653531075E-002;-7.371621206402779E-003;-2.861431101337075E-003;
2.411166666666667E+009;1.829096078872681E-001;-3.633963689208031E-002;-7.589070126414299E-003;-2.603744389489293E-003;
2.411333333333334E+009;1.823254078626633E-001;-3.648430854082108E-002;-7.663892116397619E-003;-2.406411571428180E-003;
2.411500000000000E+009;1.817724853754044E-001;-3.695360198616982E-002;-7.676824927330017E-003;-2.144546946510673E-003;
2.411666666666667E+009;1.813902705907822E-001;-3.724685683846474E-002;-7.871857844293118E-003;-1.894613495096564E-003;
2.411833333333334E+009;1.807641237974167E-001;-3.739786148071289E-002;-7.866601459681988E-003;-1.685695722699165E-003;
2.412000000000000E+009;1.799108684062958E-001;-3.783503174781799E-002;-7.929797284305096E-003;-1.385524868965149E-003;
2.412166666666667E+009;1.790316849946976E-001;-3.818836063146591E-002;-8.214455097913742E-003;-1.318893628194928E-003;
2.412333333333334E+009;1.782590746879578E-001;-3.858045488595963E-002;-8.197815157473087E-003;-9.451731457374990E-004;
2.412500000000000E+009;1.771330535411835E-001;-3.921848908066750E-002;-8.160538971424103E-003;-6.597262690775096E-004;
2.412666666666667E+009;1.761510819196701E-001;-3.982058912515640E-002;-8.205898106098175E-003;-4.015417362097651E-004;
2.412833333333334E+009;1.749717593193054E-001;-4.041077196598053E-002;-8.188842795789242E-003;-2.462622069288045E-004;
2.413000000000000E+009;1.736648976802826E-001;-4.125727340579033E-002;-8.243651129305363E-003;1.703040034044534E-004;
2.413166666666667E+009;1.724727898836136E-001;-4.197499901056290E-002;-8.127211593091488E-003;3.696907369885594E-004;
2.413333333333334E+009;1.711384803056717E-001;-4.264220595359802E-002;-8.188689127564430E-003;7.243425352498889E-004;
2.413500000000000E+009;1.699696779251099E-001;-4.358234256505966E-002;-8.377471938729286E-003;1.051098108291626E-003;
2.413666666666667E+009;1.686517000198364E-001;-4.480509459972382E-002;-8.111679926514626E-003;1.258433330804110E-003;
2.413833333333334E+009;1.673742830753326E-001;-4.564297199249268E-002;-8.251766674220562E-003;1.497072982601821E-003;
2.414000000000000E+009;1.659671813249588E-001;-4.685189947485924E-002;-8.192724548280239E-003;1.759349484927952E-003;
2.414166666666667E+009;1.649234294891357E-001;-4.815291613340378E-002;-8.030937053263187E-003;2.069294918328524E-003;
2.414333333333334E+009;1.637575626373291E-001;-4.944320023059845E-002;-7.769047748297453E-003;2.274899045005441E-003;
2.414500000000000E+009;1.626216918230057E-001;-5.081926286220551E-002;-7.793870754539967E-003;2.691010711714625E-003;
2.414666666666667E+009;1.615258902311325E-001;-5.214180424809456E-002;-7.693786174058914E-003;2.904188586398959E-003;
2.414833333333334E+009;1.603007614612579E-001;-5.369441211223602E-002;-7.507208269089460E-003;3.169694449752569E-003;
2.415000000000000E+009;1.592701822519302E-001;-5.529817938804627E-002;-7.546422071754932E-003;3.247193293645978E-003;
2.415166666666667E+009;1.583480089902878E-001;-5.701140686869621E-002;-7.394002750515938E-003;3.600949887186289E-003;
2.415333333333334E+009;1.575270593166351E-001;-5.883408710360527E-002;-7.023270707577467E-003;3.868053900077939E-003;
2.415500000000000E+009;1.567504554986954E-001;-6.050965562462807E-002;-7.071216125041246E-003;4.126552026718855E-003;
2.415666666666667E+009;1.559006720781326E-001;-6.240587309002876E-002;-6.918675731867552E-003;4.343373235315085E-003;
2.415833333333334E+009;1.553526818752289E-001;-6.433270126581192E-002;-6.402321625500917E-003;4.443106241524220E-003;
2.416000000000000E+009;1.545912325382233E-001;-6.627308577299118E-002;-6.521393079310656E-003;4.610212985426188E-003;
2.416166666666667E+009;1.541814804077148E-001;-6.822945922613144E-002;-6.226213183254004E-003;4.909378942102194E-003;
2.416333333333334E+009;1.536967456340790E-001;-7.022544741630554E-002;-5.901117343455553E-003;5.134847015142441E-003;
2.416500000000000E+009;1.533095836639404E-001;-7.222115993499756E-002;-5.637643393129110E-003;5.277116782963276E-003;
2.416666666666667E+009;1.528597176074982E-001;-7.417695969343185E-002;-5.539026577025652E-003;5.468138959258795E-003;
2.416833333333334E+009;1.526119261980057E-001;-7.619050145149231E-002;-5.258363671600819E-003;5.522161722183228E-003;
2.417000000000000E+009;1.522241979837418E-001;-7.814761996269226E-002;-5.056401249021292E-003;5.734392907470465E-003;
2.417166666666667E+009;1.521536856889725E-001;-7.989277690649033E-002;-4.894732963293791E-003;5.829382687807083E-003;
2.417333333333334E+009;1.520762294530869E-001;-8.161148428916931E-002;-4.536827560514212E-003;6.081725005060434E-003;
2.417500000000000E+009;1.519034206867218E-001;-8.359102904796600E-002;-4.327973350882530E-003;6.026538554579020E-003;
2.417666666666667E+009;1.520634889602661E-001;-8.506037294864655E-002;-3.956934902817011E-003;6.075991317629814E-003;
2.417833333333334E+009;1.520069837570190E-001;-8.671457320451737E-002;-3.731610951945186E-003;6.094153970479965E-003;
2.418000000000000E+009;1.520767360925674E-001;-8.817265927791596E-002;-3.588448511436582E-003;6.156479008495808E-003;
2.418166666666667E+009;1.520280241966248E-001;-8.947322517633438E-002;-3.269372275099158E-003;6.260947789996862E-003;
2.418333333333334E+009;1.525593549013138E-001;-9.084525704383850E-002;-3.108124947175384E-003;6.289653480052948E-003;
2.418500000000000E+009;1.525581628084183E-001;-9.203987568616867E-002;-2.776414388790727E-003;6.163166370242834E-003;
2.418666666666667E+009;1.527312844991684E-001;-9.321858733892441E-002;-2.569495933130384E-003;6.287533324211836E-003;
2.418833333333334E+009;1.529261618852615E-001;-9.412802755832672E-002;-2.338700694963336E-003;6.165891885757446E-003;
2.419000000000000E+009;1.530238538980484E-001;-9.509246051311493E-002;-2.062627347186208E-003;6.180703639984131E-003;
2.419166666666667E+009;1.533451676368713E-001;-9.572481364011765E-002;-2.005519811064005E-003;6.076524034142494E-003;
2.419333333333334E+009;1.532917171716690E-001;-9.622584283351898E-002;-1.834650174714625E-003;6.082956213504076E-003;
2.419500000000000E+009;1.536623090505600E-001;-9.690530598163605E-002;-1.640826347284019E-003;5.995135754346848E-003;
2.419666666666667E+009;1.538798958063126E-001;-9.732702374458313E-002;-1.354173989966512E-003;6.101990118622780E-003;
2.419833333333334E+009;1.539579331874847E-001;-9.741003066301346E-002;-1.328883343376219E-003;5.899073556065559E-003;
2.420000000000000E+009;1.542477160692215E-001;-9.765749424695969E-002;-1.219958998262882E-003;5.876314360648394E-003;
2.420166666666667E+009;1.543937325477600E-001;-9.776360541582108E-002;-1.182722742669284E-003;5.599537398666143E-003;
2.420333333333334E+009;1.544585376977921E-001;-9.782566130161285E-002;-1.026839716359973E-003;5.683113820850849E-003;
2.420500000000000E+009;1.544095277786255E-001;-9.765458106994629E-002;-1.011783722788096E-003;5.689973942935467E-003;
2.420666666666667E+009;1.543791294097900E-001;-9.727889299392700E-002;-9.612062713131309E-004;5.477819126099348E-003;
2.420833333333334E+009;1.542322188615799E-001;-9.722621738910675E-002;-8.095927187241614E-004;5.616238806396723E-003;
2.421000000000000E+009;1.541660875082016E-001;-9.711757302284241E-002;-8.744079386815429E-004;5.669698119163513E-003;
2.421166666666667E+009;1.542292535305023E-001;-9.675287455320358E-002;-7.997674983926117E-004;5.551467649638653E-003;
2.421333333333334E+009;1.538631618022919E-001;-9.667721390724182E-002;-7.341318996623159E-004;5.632409825921059E-003;
2.421500000000000E+009;1.533835828304291E-001;-9.624989330768585E-002;-8.202828466892242E-004;5.800017621368170E-003;
2.421666666666667E+009;1.530505567789078E-001;-9.594005346298218E-002;-7.177131483331323E-004;5.603582598268986E-003;
2.421833333333334E+009;1.525219529867172E-001;-9.563969820737839E-002;-6.462369929067791E-004;5.850986111909151E-003;
2.422000000000000E+009;1.517568826675415E-001;-9.539764374494553E-002;-6.201186333782971E-004;5.984526127576828E-003;
2.422166666666667E+009;1.510914266109467E-001;-9.519195556640625E-002;-5.718279280699790E-004;6.146033760160208E-003;
2.422333333333334E+009;1.502236276865006E-001;-9.481180459260941E-002;-4.511965962592512E-004;6.300230044871569E-003;
2.422500000000000E+009;1.491357088088989E-001;-9.451768547296524E-002;-1.991819881368429E-004;6.395449396222830E-003;
2.422666666666667E+009;1.481357365846634E-001;-9.447298943996429E-002;-1.213536452269182E-004;6.433958187699318E-003;
2.422833333333334E+009;1.468950062990189E-001;-9.445378929376602E-002;1.770367234712467E-004;6.731193512678146E-003;
2.423000000000000E+009;1.459302008152008E-001;-9.442742913961411E-002;5.265098880045116E-004;6.685023196041584E-003;
2.423166666666667E+009;1.445001959800720E-001;-9.437893331050873E-002;5.584156024269760E-004;6.925847847014666E-003;
2.423333333333334E+009;1.430745869874954E-001;-9.424254298210144E-002;9.829844348132610E-004;6.893468089401722E-003;
2.423500000000000E+009;1.416155844926834E-001;-9.439663589000702E-002;1.074495492503047E-003;7.163638714700937E-003;
2.423666666666667E+009;1.399902999401093E-001;-9.454880654811859E-002;1.469690934754908E-003;7.132238708436489E-003;
2.423833333333334E+009;1.387073248624802E-001;-9.473261982202530E-002;1.763435779139400E-003;7.102052681148052E-003;
2.424000000000000E+009;1.370515376329422E-001;-9.495149552822113E-002;2.123403130099177E-003;6.898294202983379E-003;
2.424166666666667E+009;1.355312019586563E-001;-9.535631537437439E-002;2.440811367705464E-003;6.985565647482872E-003;
2.424333333333334E+009;1.340671926736832E-001;-9.582238644361496E-002;2.791275270283222E-003;6.735728122293949E-003;
2.424500000000000E+009;1.324697583913803E-001;-9.617858380079269E-002;2.964807907119393E-003;6.653138902038336E-003;
2.424666666666667E+009;1.311823576688767E-001;-9.675373882055283E-002;3.383784089237452E-003;6.725594401359558E-003;
2.424833333333334E+009;1.297227293252945E-001;-9.749864041805267E-002;3.695735475048423E-003;6.487635429948568E-003;
2.425000000000000E+009;1.281779855489731E-001;-9.847654402256012E-002;3.836272051557899E-003;6.368835456669331E-003;
2.425166666666667E+009;1.266031563282013E-001;-9.924019873142242E-002;4.187790676951408E-003;6.120610516518354E-003;
2.425333333333334E+009;1.255877315998077E-001;-1.001995503902435E-001;4.541463684290648E-003;5.927108228206635E-003;
2.425500000000000E+009;1.242388188838959E-001;-1.013822481036186E-001;4.645318724215031E-003;5.776868201792240E-003;
2.425666666666667E+009;1.229436695575714E-001;-1.025287657976151E-001;4.995655268430710E-003;5.302333738654852E-003;
2.425833333333334E+009;1.218838170170784E-001;-1.038609892129898E-001;5.082109943032265E-003;5.085898097604513E-003;
2.426000000000000E+009;1.207237243652344E-001;-1.052350625395775E-001;5.241626873612404E-003;4.888983443379402E-003;
2.426166666666667E+009;1.199752613902092E-001;-1.067153364419937E-001;5.473869387060404E-003;4.580399952828884E-003;
2.426333333333334E+009;1.189178600907326E-001;-1.080778837203980E-001;5.549862515181303E-003;4.398088902235031E-003;
2.426500000000000E+009;1.182110384106636E-001;-1.094855889678001E-001;5.688249133527279E-003;3.799323691055179E-003;
2.426666666666667E+009;1.175846830010414E-001;-1.109755858778954E-001;5.732328165322542E-003;3.642847761511803E-003;
2.426833333333334E+009;1.167337596416473E-001;-1.126559823751450E-001;5.754780955612660E-003;3.411231795325875E-003;
2.427000000000000E+009;1.161704137921333E-001;-1.142378002405167E-001;5.704316776245832E-003;3.178187413141131E-003;
2.427166666666667E+009;1.156914457678795E-001;-1.157626137137413E-001;5.861881189048290E-003;2.722391160205007E-003;
2.427333333333334E+009;1.152329519391060E-001;-1.174407303333283E-001;5.790173541754484E-003;2.383857499808073E-003;
2.427500000000000E+009;1.150920316576958E-001;-1.189423650503159E-001;5.779886618256569E-003;2.152953529730439E-003;
2.427666666666667E+009;1.147206127643585E-001;-1.205801516771317E-001;5.736511200666428E-003;1.954595325514674E-003;
