# Hz S RI R 50
2400000000.0000000000 0.168816998600959805587606865629 0.047139510512351989746093750000 0.003615604713559151129481650244 -0.001544969971291721083997416919 0 0 0 0 
2400166666.6666665077 0.169765010476112393478231865629 0.046343665570020682598073591407 0.003398915287107228799107216943 -0.001746774534694850011112832178 0 0 0 0 
2400333333.3333334923 0.170736715197563199142294365629 0.045183222740888602519948591407 0.003275231458246707916259765625 -0.001873717759735882065416645581 0 0 0 0 
2400500000.0000000000 0.171734258532524108886718750000 0.043934710323810577392578125000 0.003050175029784440994262695312 -0.001923632691614330031751323169 0 0 0 0 
2400666666.6666665077 0.172499775886535589020098768742 0.043082799762487411499023437500 0.002696099225431681113002158057 -0.001941297785378992991206503760 0 0 0 0 
2400833333.3333334923 0.173356011509895296951455634371 0.042224090546369552612304687500 0.002656357362866402106044150244 -0.002059566089883447127101279150 0 0 0 0 
2401000000.0000000000 0.174042448401451110839843750000 0.041429553180932998657226562500 0.002389926929026842117309570312 -0.002162829972803593115565634619 0 0 0 0 
2401166666.6666665077 0.174855470657348605056924384371 0.040633823722600936889648437500 0.002150627784430981116053915869 -0.002133286092430353164672851562 0 0 0 0 
2401333333.3333334923 0.175576224923133905608807481258 0.039806481450796127319335937500 0.002103065373376011848449707031 -0.002119479468092321915867470850 0 0 0 0 
2401500000.0000000000 0.176303803920745905120526231258 0.039157513529062271118164062500 0.001856315531767904975293803638 -0.002165593905374408201930380713 0 0 0 0 
2401666666.6666665077 0.176718026399612399002236884371 0.038589030504226691509206403907 0.001716929255053400993347167969 -0.002126121660694479942321777344 0 0 0 0 
2401833333.3333334923 0.177474394440650912185830634371 0.037609294056892401958425153907 0.001482163672335446097730327075 -0.002090177964419126944300986182 0 0 0 0 
2402000000.0000000000 0.177811235189437893966513115629 0.037380322813987731933593750000 0.001335103181190788962720561450 -0.001927186967805027961730957031 0 0 0 0 
2402166666.6666665077 0.177927017211914090255575615629 0.036314878612756729125976562500 0.001254394184798002026201557690 -0.001892766100354493098018027197 0 0 0 0 
2402333333.3333334923 0.179364189505577087402343750000 0.035847216844558722759206403907 0.001257451134733855941175151294 -0.001890080049633980014203715747 0 0 0 0 
2402500000.0000000000 0.177995711565017700195312500000 0.035144817084074020385742187500 0.000998260569758713245391845703 -0.001897685811854898929595947266 0 0 0 0 
2402666666.6666665077 0.178442642092704800704794365629 0.034591495990753166889231096093 0.000743141979910433292388916016 -0.001739948056638241031049418872 0 0 0 0 
2402833333.3333334923 0.178790226578712491134481865629 0.034288227558135993267018903907 0.000697327544912695884704589844 -0.001712878700345755057093954932 0 0 0 0 
2403000000.0000000000 0.179391756653785705566406250000 0.033945847302675247192382812500 0.000529763347003608942031860352 -0.001387372962199151949641562354 0 0 0 0 
2403166666.6666665077 0.179995089769363403320312500000 0.032259412109851837158203125000 0.000511631486006081104278564453 -0.001264774939045310020446777344 0 0 0 0 
2403333333.3333334923 0.180214136838912991622763115629 0.030672041699290279043177420704 0.000280140957329422181278782977 -0.001004580291919410011888813550 0 0 0 0 
2403500000.0000000000 0.177023425698280306717080634371 0.030516279861330989492396170704 0.000333792733727023005485534668 -0.001387245720252394893048930591 0 0 0 0 
2403666666.6666665077 0.178909212350845309158486884371 0.029016446322202679025670235546 0.000218409273657016510337275372 -0.000574903271626681089401245117 0 0 0 0 
2403833333.3333334923 0.178508222103118896484375000000 0.027633832767605781555175781250 0.000463172211311757618754786359 -0.000468881684355437809794825421 0 0 0 0 
2404000000.0000000000 0.178747832775115994552450615629 0.027508324012160301208496093750 0.000310816161800175905227661133 -0.000225329509703442508548182355 0 0 0 0 
2404166666.6666665077 0.177475899457931490799111884371 0.026229275390505790710449218750 0.000397436204366385882526951923 -0.000490215199533849954605102539 0 0 0 0 
2404333333.3333334923 0.177674025297164889236611884371 0.024130862206220630300501639454 0.000608087517321109771728515625 0.000150821724673733088091173715 0 0 0 0 
2404500000.0000000000 0.176475867629051208496093750000 0.023880433291196819650670235546 0.000595443765632808208465576172 -0.000120123804663308005459369798 0 0 0 0 
2404666666.6666665077 0.176123693585395812988281250000 0.021272772923111919057825858204 0.001042716321535408930537558447 0.000282719352981075590282994403 0 0 0 0 
2404833333.3333334923 0.176096931099891690353231865629 0.020325189456343650817871093750 0.001029050908982753970502543872 0.000445929501438513398170471191 0 0 0 0 
2405000000.0000000000 0.175693660974502591232138115629 0.018945740535855289804478829296 0.001316005596891046004054404150 0.000379416858777403777271824969 0 0 0 0 
2405166666.6666665077 0.175277158617973299881143134371 0.017315827310085300100306326954 0.001227667671628295941593789209 0.000372708571376278996467590332 0 0 0 0 
2405333333.3333334923 0.174769967794418307205361884371 0.015540120191872119903564453125 0.001506929984316230037091899341 0.000346112617990001981884556903 0 0 0 0 
2405500000.0000000000 0.174404084682464599609375000000 0.013868406414985660207728201954 0.001721758628264069990870810400 0.000347365072229877114295959473 0 0 0 0 
2405666666.6666665077 0.174098432064056396484375000000 0.012178068049252029764195626171 0.001853434485383331992505717700 0.000492092629428952932357788086 0 0 0 0 
2405833333.3333334923 0.173664852976799011230468750000 0.010475990362465379887590977148 0.001865143422037363052368164062 0.000336602388415485620498657227 0 0 0 0 
2406000000.0000000000 0.173601776361465509612713731258 0.008401776663959026336669921875 0.002255116356536746025085449219 0.000284220033790916204452514648 0 0 0 0 
2406166666.6666665077 0.173160582780838012695312500000 0.006622282322496175765991210938 0.002273673191666603088378906250 0.000090532645117491483688354492 0 0 0 0 
2406333333.3333334923 0.173168361186981201171875000000 0.004662750754505395889282226562 0.002519041532650589942932128906 0.000037463680200744420289993286 0 0 0 0 
2406500000.0000000000 0.172937497496604891678018134371 0.002562221139669417901280068506 0.002656838158145546913146972656 -0.000138840783620253205299377441 0 0 0 0 
2406666666.6666665077 0.172812908887863186935263115629 0.000709512678440660238265991211 0.002533758291974664168116904150 -0.000218593268073163899496355600 0 0 0 0 
2406833333.3333334923 0.172950118780136108398437500000 -0.001419922336935997009277343750 0.002720624208450316949131631006 -0.000328692694893106818199157715 0 0 0 0 
2407000000.0000000000 0.172976419329643305022869981258 -0.003504794090986251831054687500 0.002846112474799156188964843750 -0.000453135027782991474300938739 0 0 0 0 
2407166666.6666665077 0.173137918114662198165731865629 -0.005536551587283611297607421875 0.002992269117385149002075195312 -0.000580144696868956089019775391 0 0 0 0 
2407333333.3333334923 0.173280924558639498611611884371 -0.007708208635449410352225019238 0.003138890722766519026515341650 -0.000733488239347934722900390625 0 0 0 0 
2407500000.0000000000 0.173585116863250704666299384371 -0.009625989943742752075195312500 0.003168092807754873795750283350 -0.000849080854095518589019775391 0 0 0 0 
2407666666.6666665077 0.173863992094993591308593750000 -0.011691673658788200723668282421 0.003115477040410041809082031250 -0.001089681521989404938341450269 0 0 0 0 
2407833333.3333334923 0.174085691571235712249432481258 -0.013846760615706440317174141796 0.003322045085951685905456542969 -0.001312353182584047100664448315 0 0 0 0 
2408000000.0000000000 0.174473658204078702071981865629 -0.015851739794015880929967110546 0.003278767224401236014125204932 -0.001558518735691905021667480469 0 0 0 0 
2408166666.6666665077 0.174740076065063504318075615629 -0.017672657966613769531250000000 0.003236170392483472824096679688 -0.001740863430313766002655029297 0 0 0 0 
2408333333.3333334923 0.175358504056930486481036268742 -0.019566031172871589660644531250 0.003293839516118168830871582031 -0.001915242755785584016087197412 0 0 0 0 
2408500000.0000000000 0.175766468048095703125000000000 -0.021451728418469429016113281250 0.003260031575337051911595009912 -0.002109030261635779900791787256 0 0 0 0 
2408666666.6666665077 0.176063567399978609939736884371 -0.023207500576972961425781250000 0.003190133487805724143981933594 -0.002261562040075660185572958838 0 0 0 0 
2408833333.3333334923 0.176457241177558898925781250000 -0.024929482489824298513392264454 0.003063443116843699975254677881 -0.002420775359496473832371377100 0 0 0 0 
2409000000.0000000000 0.176811501383781405349893134371 -0.026589980348944660532017891796 0.002881913911551237106323242188 -0.002608999377116560935974121094 0 0 0 0 
2409166666.6666665077 0.177290037274360712249432481258 -0.028021981939673420297642891796 0.002998978830873965783360146631 -0.002707828301936388015747070312 0 0 0 0 
2409333333.3333334923 0.177802860736846896072549384371 -0.029401883482933040964146798046 0.002782039809972047805786132812 -0.002930205315351486206054687500 0 0 0 0 
2409500000.0000000000 0.178338289260864313323651231258 -0.030740233138203620910644531250 0.002634835196658968925476074219 -0.003026959951967000961303710938 0 0 0 0 
2409666666.6666665077 0.178756251931190490722656250000 -0.031929925084114081645925153907 0.002582501387223600907566689600 -0.003402144880965352058410644531 0 0 0 0 
2409833333.3333334923 0.179168984293937710861044365629 -0.032966177910566329956054687500 0.002386471489444375038146972656 -0.003334761830046772956848144531 0 0 0 0 
2410000000.0000000000 0.179711163043975802322549384371 -0.033917702734470367431640625000 0.002542250324040650887730263818 -0.003542600665241479873657226562 0 0 0 0 
2410166666.6666665077 0.180226936936378506759481865629 -0.034859925508499152446706403907 0.002339752856642007827758789062 -0.003690754529088736014125204932 0 0 0 0 
2410333333.3333334923 0.180485561490058898925781250000 -0.035523388534784317016601562500 0.002021706663072108788731240381 -0.003884471487253903908970498193 0 0 0 0 
2410500000.0000000000 0.180949434638023404220419365629 -0.036370702087879180908203125000 0.001985655864700675010681152344 -0.003980274777859449386596679688 0 0 0 0 
2410666666.6666665077 0.181284174323081997970419365629 -0.037155035883188247680664062500 0.001803886960260570049285888672 -0.004067148081958293914794921875 0 0 0 0 
2410833333.3333334923 0.181636407971382113357705634371 -0.037661671638488769531250000000 0.001771944342181086973903036963 -0.004201689269393683347220136426 0 0 0 0 
2411000000.0000000000 0.181850746273994501311932481258 -0.038221813738346099853515625000 0.001604444812983274893519736182 -0.004241694696247577667236328125 0 0 0 0 
2411166666.6666665077 0.181953385472297696212606865629 -0.038716368377208709716796875000 0.001292825210839509963989257812 -0.004332835786044597625732421875 0 0 0 0 
2411333333.3333334923 0.182152435183525113204794365629 -0.039274331182241439819335937500 0.001195238786749541976331401294 -0.004609958268702030181884765625 0 0 0 0 
2411500000.0000000000 0.182027220726013211349325615629 -0.039766211062669747089426408593 0.000884335488080978393554687500 -0.004509180318564177426809980176 0 0 0 0 
2411666666.6666665077 0.182029634714126586914062500000 -0.040170952677726752544362653907 0.000762831885367631912231445312 -0.004619316197931767377371503613 0 0 0 0 
2411833333.3333334923 0.182182177901268005371093750000 -0.040452044457197189331054687500 0.000655014533549547195434570312 -0.004641752224415540695190429688 0 0 0 0 
2412000000.0000000000 0.181983858346939086914062500000 -0.040923282504081733013112653907 0.000494943873491138219833374023 -0.004648802801966667175292968750 0 0 0 0 
2412166666.6666665077 0.181526973843574496170205634371 -0.041386701166629791259765625000 0.000369446875993162393569946289 -0.004816377535462380322928144238 0 0 0 0 
2412333333.3333334923 0.181188240647316006759481865629 -0.041655927896499626850168596093 -0.000190609673154540387078961783 -0.004795639775693416595458984375 0 0 0 0 
2412500000.0000000000 0.180594816803932189941406250000 -0.042026732116937637329101562500 -0.000268803734797984415858668195 -0.004691218491643667221069335938 0 0 0 0 
2412666666.6666665077 0.179938480257988003829794365629 -0.042519126087427139282226562500 -0.000452589301858097314834594727 -0.004675770178437232971191406250 0 0 0 0 
2412833333.3333334923 0.179351344704627990722656250000 -0.042848907411098480224609375000 -0.000586654758080840110778808594 -0.004570794291794300079345703125 0 0 0 0 
2413000000.0000000000 0.178572028875351007659588731258 -0.043221656233072280883789062500 -0.000769030244555324316024780273 -0.004699072334915400418753339551 0 0 0 0 
2413166666.6666665077 0.177600130438804598709268134371 -0.043665833771228790283203125000 -0.000900040089618414640426635742 -0.004652904812246561050415039062 0 0 0 0 
2413333333.3333334923 0.176523700356483487228231865629 -0.044046111404895782470703125000 -0.000989315216429531574249267578 -0.004592995624989271163940429688 0 0 0 0 
2413500000.0000000000 0.175826102495193509200888115629 -0.044853083789348602294921875000 -0.001155595062300563075421977466 -0.004536403808742761611938476562 0 0 0 0 
2413666666.6666665077 0.174693301320075988769531250000 -0.045403324067592620849609375000 -0.001391986501403152942657470703 -0.004496430978178977966308593750 0 0 0 0 
2413833333.3333334923 0.173554077744484003265057481258 -0.045831970870494842529296875000 -0.001499913283623754978179931641 -0.004492694512009620666503906250 0 0 0 0 
2414000000.0000000000 0.172297850251197787185830634371 -0.046703200787305831909179687500 -0.001543600461445749022840190356 -0.004418740049004554748535156250 0 0 0 0 
2414166666.6666665077 0.171191141009330805022869981258 -0.047270536422729492187500000000 -0.001733701443299650929094624097 -0.004227795172482728958129882812 0 0 0 0 
2414333333.3333334923 0.169897183775901794433593750000 -0.048282712697982788085937500000 -0.002041800180450081825256347656 -0.004322096239775419235229492188 0 0 0 0 
2414500000.0000000000 0.168888494372367886642294365629 -0.049008537083864212036132812500 -0.001978496788069605827331542969 -0.004261899273842573165893554688 0 0 0 0 
2414666666.6666665077 0.167582392692565890213174384371 -0.049905661493539810180664062500 -0.002128024119883776144740439307 -0.004095077514648438367361737988 0 0 0 0 
2414833333.3333334923 0.166282981634139986892861884371 -0.051059003919363021850585937500 -0.002219913294538855986354208838 -0.004129658453166484832763671875 0 0 0 0 
2415000000.0000000000 0.165066644549369812011718750000 -0.052162133157253272319753278907 -0.002323856810107827186584472656 -0.004020835738629102706909179688 0 0 0 0 
2415166666.6666665077 0.163795784115791293045205634371 -0.053418986499309539794921875000 -0.002499988302588462829589843750 -0.003958952613174915313720703125 0 0 0 0 
2415333333.3333334923 0.162698239088058499435263115629 -0.054878149181604392314870466407 -0.002562419977039099173304892432 -0.003954398911446332931518554688 0 0 0 0 
2415500000.0000000000 0.161545649170875604827557481258 -0.056256171315908432006835937500 -0.002580313244834541840794228662 -0.003794679418206214904785156250 0 0 0 0 
2415666666.6666665077 0.160494804382324190994424384371 -0.057689946144819259643554687500 -0.002860464388504623933079384912 -0.003753670956939458847045898438 0 0 0 0 
2415833333.3333334923 0.159342303872108487228231865629 -0.059344939887523651123046875000 -0.002861762885004281997680664062 -0.003711645491421223120448447119 0 0 0 0 
2416000000.0000000000 0.158241733908653287032919365629 -0.060955289751291281963307966407 -0.003198089078068733215332031250 -0.003611569292843341827392578125 0 0 0 0 
2416166666.6666665077 0.157495722174644497970419365629 -0.062616676092147827148437500000 -0.003114306833595037894008017432 -0.003627324011176825003383017432 0 0 0 0 
2416333333.3333334923 0.156403586268424987792968750000 -0.064410299062728881835937500000 -0.003130598692223430113551474463 -0.003440797794610261917114257812 0 0 0 0 
2416500000.0000000000 0.155614316463470486739950615629 -0.066400587558746337890625000000 -0.003465411486104131178614951025 -0.003378910478204489187953329932 0 0 0 0 
2416666666.6666665077 0.154621005058288601974325615629 -0.068169444799423217773437500000 -0.003422815818339585824253701318 -0.003234118921682239012477255713 0 0 0 0 
2416833333.3333334923 0.154039189219474792480468750000 -0.070224270224571228027343750000 -0.003361473092809319929835654150 -0.003323236247524619102478027344 0 0 0 0 
2417000000.0000000000 0.153151750564575195312500000000 -0.072079204022884368896484375000 -0.003514756681397556824925088037 -0.003164998721331357955932617188 0 0 0 0 
2417166666.6666665077 0.152518019080162103850994981258 -0.073901750147342681884765625000 -0.003448714967817068099975585938 -0.003044770797714591026306152344 0 0 0 0 
2417333333.3333334923 0.152147799730300903320312500000 -0.075754627585411071777343750000 -0.003864600323140621185302734375 -0.002949071582406758828404091943 0 0 0 0 
2417500000.0000000000 0.151507750153541592696981865629 -0.077911332249641418457031250000 -0.003723436733707786040065146338 -0.002820644993335009054896689307 0 0 0 0 
2417666666.6666665077 0.151169762015342712402343750000 -0.079706512391567230224609375000 -0.003846421372145413918736123193 -0.002775093307718635039088583838 0 0 0 0 
2417833333.3333334923 0.150676995515823392013388115629 -0.081454560160636901855468750000 -0.003950975369662046432495117188 -0.002906822366639972166774130713 0 0 0 0 
2418000000.0000000000 0.150441586971282986739950615629 -0.083432257175445556640625000000 -0.004072610754519701004028320312 -0.002919058548286557197570800781 0 0 0 0 
2418166666.6666665077 0.150094062089919988434161268742 -0.085011139512062072753906250000 -0.004036389291286469373221112988 -0.002771236002445220947265625000 0 0 0 0 
2418333333.3333334923 0.150160938501358004470986884371 -0.086714275181293487548828125000 -0.004235908854752779006958007812 -0.002867356874048709869384765625 0 0 0 0 
2418500000.0000000000 0.149975448846816988845986884371 -0.088354684412479400634765625000 -0.004387773107737302780151367188 -0.002813135506585239930393838037 0 0 0 0 
2418666666.6666665077 0.149969741702079800704794365629 -0.089879401028156280517578125000 -0.004647562745958566665649414062 -0.002700214274227619171142578125 0 0 0 0 
2418833333.3333334923 0.149782687425613403320312500000 -0.091400697827339172363281250000 -0.004689621273428201675415039062 -0.002709277672693132920506142725 0 0 0 0 
2419000000.0000000000 0.149768188595771789550781250000 -0.092729203402996063232421875000 -0.005027483217418193817138671875 -0.002610347932204604148864746094 0 0 0 0 
2419166666.6666665077 0.149932190775871304611044365629 -0.094032682478427886962890625000 -0.005152346100658178329467773438 -0.002441336400806903839111328125 0 0 0 0 
2419333333.3333334923 0.150005310773849487304687500000 -0.094912596046924591064453125000 -0.005353949032723903656005859375 -0.002431473461911081834080361475 0 0 0 0 
2419500000.0000000000 0.150101244449615506271200615629 -0.096064612269401550292968750000 -0.005741910077631474408621503613 -0.002265508752316236929652548682 0 0 0 0 
2419666666.6666665077 0.150448918342590304275674384371 -0.096963465213775634765625000000 -0.005951021332293748855590820312 -0.002171532949432731108424521338 0 0 0 0 
2419833333.3333334923 0.150603517889976501464843750000 -0.097616881132125854492187500000 -0.006186322309076786041259765625 -0.002049836097285151915309286963 0 0 0 0 
