# Version 1.00
#
freq[Hz];re:Trc1_S11;im:Trc1_S11;re:Trc2_S21;im:Trc2_S21;
2.400000000000000E+009;1.724264919757843E-001;4.918048530817032E-002;8.415908552706242E-003;-1.773464842699468E-003;
2.400166666666667E+009;1.731311082839966E-001;4.870349913835526E-002;8.056278340518475E-003;-2.050943439826369E-003;
2.400333333333334E+009;1.735101342201233E-001;4.796524718403816E-002;8.165793493390083E-003;-2.384218387305737E-003;
2.400500000000000E+009;1.741178482770920E-001;4.733270779252052E-002;8.279205299913883E-003;-2.791703678667545E-003;
2.400666666666667E+009;1.742950826883316E-001;4.661648347973824E-002;7.976332679390907E-003;-2.972703427076340E-003;
2.400833333333334E+009;1.746890842914581E-001;4.612197354435921E-002;7.956232875585556E-003;-3.405434079468250E-003;
2.401000000000000E+009;1.749566644430161E-001;4.546915367245674E-002;7.734638173133135E-003;-3.842803416773677E-003;
2.401166666666667E+009;1.752315163612366E-001;4.481867700815201E-002;7.593703921884298E-003;-3.831260604783893E-003;
2.401333333333334E+009;1.752257794141769E-001;4.427434876561165E-002;7.523572538048029E-003;-4.353290423750877E-003;
2.401500000000000E+009;1.755862385034561E-001;4.340722784399986E-002;7.300727069377899E-003;-4.554437939077616E-003;
2.401666666666667E+009;1.755816042423248E-001;4.305313155055046E-002;7.317529059946537E-003;-4.927028901875019E-003;
2.401833333333334E+009;1.757361590862274E-001;4.204293340444565E-002;6.863698363304138E-003;-5.314060021191835E-003;
2.402000000000000E+009;1.754084080457687E-001;4.146166145801544E-002;6.731593515723944E-003;-5.329227074980736E-003;
2.402166666666667E+009;1.754540205001831E-001;4.035314545035362E-002;6.518959533423185E-003;-5.548449233174324E-003;
2.402333333333334E+009;1.753009855747223E-001;3.939445689320564E-002;6.320518907159567E-003;-5.813393741846085E-003;
2.402500000000000E+009;1.753157377243042E-001;3.847953677177429E-002;6.131245288997889E-003;-5.972242448478937E-003;
2.402666666666667E+009;1.750296801328659E-001;3.757254034280777E-002;5.772429518401623E-003;-6.242594216018915E-003;
2.402833333333334E+009;1.749219596385956E-001;3.633831813931465E-002;5.585559178143740E-003;-6.568434648215771E-003;
2.403000000000000E+009;1.744325757026672E-001;3.512458503246307E-002;5.220271646976471E-003;-6.670731585472822E-003;
2.403166666666667E+009;1.741623878479004E-001;3.369558975100517E-002;5.102993454784155E-003;-6.925858091562986E-003;
2.403333333333334E+009;1.740445792675018E-001;3.253022208809853E-002;4.832541570067406E-003;-7.090008817613125E-003;
2.403500000000000E+009;1.735803186893463E-001;3.101907856762409E-002;4.389205016195774E-003;-7.035279180854559E-003;
2.403666666666667E+009;1.731535047292709E-001;2.919087372720242E-002;4.276118241250515E-003;-7.242439314723015E-003;
2.403833333333334E+009;1.729969382286072E-001;2.783314697444439E-002;3.788254223763943E-003;-7.242230232805014E-003;
2.404000000000000E+009;1.727566272020340E-001;2.587533183395863E-002;3.446729620918632E-003;-7.309336215257645E-003;
2.404166666666667E+009;1.723214834928513E-001;2.405489608645439E-002;3.293192945420742E-003;-7.558885961771011E-003;
2.404333333333334E+009;1.720119416713715E-001;2.225313708186150E-002;3.091604914516211E-003;-7.444158196449280E-003;
2.404500000000000E+009;1.716687977313995E-001;2.029912173748016E-002;2.849110402166843E-003;-7.347862701863051E-003;
2.404666666666667E+009;1.715322136878967E-001;1.835229620337486E-002;2.361851278692484E-003;-7.403720170259476E-003;
2.404833333333334E+009;1.710674464702606E-001;1.649614050984383E-002;2.195260953158140E-003;-7.272598333656788E-003;
2.405000000000000E+009;1.709613949060440E-001;1.433903910219669E-002;2.039405284449458E-003;-7.322494871914387E-003;
2.405166666666667E+009;1.709360629320145E-001;1.233495865017176E-002;1.560142962262034E-003;-7.506459485739470E-003;
2.405333333333334E+009;1.710319072008133E-001;1.021710410714150E-002;1.548358821310103E-003;-7.415432017296553E-003;
2.405500000000000E+009;1.709131002426148E-001;8.045893162488937E-003;1.382624846883118E-003;-7.198388222604990E-003;
2.405666666666667E+009;1.710556149482727E-001;6.160230375826359E-003;1.300649018958211E-003;-7.196593564003706E-003;
2.405833333333334E+009;1.710868775844574E-001;4.154200665652752E-003;1.016643596813083E-003;-7.182848639786243E-003;
2.406000000000000E+009;1.713917404413223E-001;1.972708851099014E-003;1.000015414319933E-003;-7.151560392230749E-003;
2.406166666666667E+009;1.715946644544601E-001;-5.411316669778898E-005;7.019723416306078E-004;-6.966006476432085E-003;
2.406333333333334E+009;1.720869094133377E-001;-2.080954611301422E-003;6.746469880454242E-004;-7.117412984371185E-003;
2.406500000000000E+009;1.724824011325836E-001;-4.062975291162729E-003;4.332232929300517E-004;-7.089080754667521E-003;
2.406666666666667E+009;1.727938503026962E-001;-6.058666855096817E-003;4.483483207877725E-004;-7.177748717367649E-003;
2.406833333333334E+009;1.733749210834503E-001;-8.111101575195789E-003;1.662907161517069E-004;-7.104446645826101E-003;
2.407000000000000E+009;1.739679276943207E-001;-1.003471203148365E-002;1.359084999421611E-004;-7.108196150511503E-003;
2.407166666666667E+009;1.748726516962051E-001;-1.190824247896671E-002;-5.570248686126433E-005;-7.327594794332981E-003;
2.407333333333334E+009;1.754094064235687E-001;-1.391053851693869E-002;-1.309502258663997E-004;-7.218025624752045E-003;
2.407500000000000E+009;1.760481894016266E-001;-1.558446511626244E-002;-1.691552024567500E-004;-7.330531254410744E-003;
2.407666666666667E+009;1.768840402364731E-001;-1.730414293706417E-002;-4.644658474717289E-004;-7.261692546308041E-003;
2.407833333333334E+009;1.774123013019562E-001;-1.916758343577385E-002;-6.956764846108854E-004;-7.491029333323240E-003;
2.408000000000000E+009;1.781043261289597E-001;-2.084502950310707E-002;-7.820598548278213E-004;-7.506404072046280E-003;
2.408166666666667E+009;1.789201498031616E-001;-2.220502495765686E-002;-9.704314870759845E-004;-7.591493893414736E-003;
2.408333333333334E+009;1.797364801168442E-001;-2.380233444273472E-002;-1.296705449931324E-003;-7.715421263128519E-003;
2.408500000000000E+009;1.803744733333588E-001;-2.524426579475403E-002;-1.415860373526812E-003;-7.731988560408354E-003;
2.408666666666667E+009;1.808396428823471E-001;-2.669444866478443E-002;-1.875350018963218E-003;-7.770538795739412E-003;
2.408833333333334E+009;1.814409494400024E-001;-2.783761546015739E-002;-2.006045775488019E-003;-7.840245030820370E-003;
2.409000000000000E+009;1.819459199905396E-001;-2.897179499268532E-002;-2.386821201071143E-003;-7.910260930657387E-003;
2.409166666666667E+009;1.823601424694061E-001;-3.015848621726036E-002;-2.785949734970927E-003;-7.920292206108570E-003;
2.409333333333334E+009;1.828387379646301E-001;-3.104557096958160E-002;-3.002260345965624E-003;-7.777166552841663E-003;
2.409500000000000E+009;1.831327378749847E-001;-3.192969784140587E-002;-3.514685202389956E-003;-7.983491756021977E-003;
2.409666666666667E+009;1.832954883575440E-001;-3.262470290064812E-002;-3.714759135618806E-003;-7.940088398754597E-003;
2.409833333333334E+009;1.835473179817200E-001;-3.333343565464020E-002;-4.255811218172312E-003;-7.595471106469631E-003;
2.410000000000000E+009;1.838252842426300E-001;-3.391289338469505E-002;-4.520229063928127E-003;-7.656177971512079E-003;
2.410166666666667E+009;1.839876621961594E-001;-3.441136702895165E-002;-4.767002072185278E-003;-7.331402972340584E-003;
2.410333333333334E+009;1.839802265167236E-001;-3.475027531385422E-002;-5.254231858998537E-003;-7.247499655932188E-003;
2.410500000000000E+009;1.838804632425308E-001;-3.520958870649338E-002;-5.713473074138165E-003;-7.227534893900156E-003;
2.410666666666667E+009;1.837350279092789E-001;-3.567156568169594E-002;-5.928474944084883E-003;-6.826269906014204E-003;
2.410833333333334E+009;1.835726499557495E-001;-3.578316420316696E-002;-6.361386738717556E-003;-6.578482687473297E-003;
2.411000000000000E+009;1.834251135587692E-001;-3.622078150510788E-002;-6.699693854898214E-003;-6.450214423239231E-003;
2.411166666666667E+009;1.831032633781433E-001;-3.647073358297348E-002;-6.875705905258656E-003;-6.052983924746513E-003;
2.411333333333334E+009;1.826428174972534E-001;-3.687039762735367E-002;-7.301099132746458E-003;-5.787080619484186E-003;
2.411500000000000E+009;1.819619536399841E-001;-3.731429576873779E-002;-7.578764110803604E-003;-5.345153622329235E-003;
2.411666666666667E+009;1.815977096557617E-001;-3.774013742804527E-002;-7.835229858756065E-003;-5.001486279070377E-003;
2.411833333333334E+009;1.807027310132980E-001;-3.784620389342308E-002;-8.042680099606514E-003;-4.655082244426012E-003;
2.412000000000000E+009;1.799734830856323E-001;-3.846521303057671E-002;-8.234388194978237E-003;-4.310825373977423E-003;
2.412166666666667E+009;1.789522320032120E-001;-3.884398192167282E-002;-8.460525423288345E-003;-3.725214162841439E-003;
2.412333333333334E+009;1.782835274934769E-001;-3.933464735746384E-002;-8.592320606112480E-003;-3.452193224802613E-003;
2.412500000000000E+009;1.771892160177231E-001;-3.975995630025864E-002;-8.571984246373177E-003;-3.004952566698194E-003;
2.412666666666667E+009;1.760320216417313E-001;-4.052817448973656E-002;-8.771574124693871E-003;-2.508864272385836E-003;
2.412833333333334E+009;1.748850047588348E-001;-4.133016616106033E-002;-8.770009502768517E-003;-2.102568047121167E-003;
2.413000000000000E+009;1.736041158437729E-001;-4.179625585675240E-002;-8.712173439562321E-003;-1.582663157023490E-003;
2.413166666666667E+009;1.722624450922012E-001;-4.245598241686821E-002;-8.636267855763435E-003;-1.266402658075094E-003;
2.413333333333334E+009;1.709534376859665E-001;-4.350391775369644E-002;-8.481411263346672E-003;-7.208791794255376E-004;
2.413500000000000E+009;1.697179377079010E-001;-4.434859007596970E-002;-8.492435328662396E-003;-3.645282704383135E-004;
2.413666666666667E+009;1.684358268976212E-001;-4.526351019740105E-002;-8.300684392452240E-003;5.606777267530561E-005;
2.413833333333334E+009;1.669248938560486E-001;-4.633069410920143E-002;-8.294568397104740E-003;4.131014575250447E-004;
2.414000000000000E+009;1.656680703163147E-001;-4.757177457213402E-002;-7.972626946866512E-003;8.246404468081892E-004;
2.414166666666667E+009;1.645363867282867E-001;-4.867554083466530E-002;-7.641190662980080E-003;9.841751307249069E-004;
2.414333333333334E+009;1.630462110042572E-001;-4.984738305211067E-002;-7.591470144689083E-003;1.443790271878243E-003;
2.414500000000000E+009;1.623085141181946E-001;-5.134980753064156E-002;-7.287402637302876E-003;1.652650185860694E-003;
2.414666666666667E+009;1.608039736747742E-001;-5.283938348293304E-002;-6.994965020567179E-003;1.937784836627543E-003;
2.414833333333334E+009;1.597775667905808E-001;-5.426638945937157E-002;-7.024773862212896E-003;2.225958043709397E-003;
2.415000000000000E+009;1.587501913309097E-001;-5.581057444214821E-002;-6.417623721063137E-003;2.272320678457618E-003;
2.415166666666667E+009;1.576829105615616E-001;-5.759340897202492E-002;-6.224727723747492E-003;2.564120106399059E-003;
2.415333333333334E+009;1.570257246494293E-001;-5.934819206595421E-002;-6.104118656367064E-003;2.709585474804044E-003;
2.415500000000000E+009;1.559549421072006E-001;-6.115600839257240E-002;-5.682734306901693E-003;2.656910801306367E-003;
2.415666666666667E+009;1.552959680557251E-001;-6.284588575363159E-002;-5.526483058929443E-003;2.925075823441148E-003;
2.415833333333334E+009;1.546685099601746E-001;-6.458687037229538E-002;-5.353014450520277E-003;3.016676288098097E-003;
2.416000000000000E+009;1.538343727588654E-001;-6.654100120067596E-002;-5.017699208110571E-003;3.001304343342781E-003;
2.416166666666667E+009;1.535786837339401E-001;-6.853208690881729E-002;-4.844614304602146E-003;3.120045410469174E-003;
2.416333333333334E+009;1.529346853494644E-001;-7.036338746547699E-002;-4.729141481220722E-003;3.172386903315783E-003;
2.416500000000000E+009;1.525518894195557E-001;-7.241636514663696E-002;-4.366763867437840E-003;3.192760748788714E-003;
2.416666666666667E+009;1.522034555673599E-001;-7.414672523736954E-002;-4.332774318754673E-003;3.194990102201700E-003;
2.416833333333334E+009;1.519090384244919E-001;-7.633309066295624E-002;-3.996157553046942E-003;3.296451643109322E-003;
2.417000000000000E+009;1.515970528125763E-001;-7.815876603126526E-002;-3.820469602942467E-003;3.307062666863203E-003;
2.417166666666667E+009;1.515148729085922E-001;-7.979267090559006E-002;-3.598643699660897E-003;3.342871787026525E-003;
2.417333333333334E+009;1.513453572988510E-001;-8.153706789016724E-002;-3.489096648991108E-003;3.189809853211045E-003;
2.417500000000000E+009;1.512659639120102E-001;-8.334814012050629E-002;-3.162998473271728E-003;3.209653776139021E-003;
2.417666666666667E+009;1.513875275850296E-001;-8.485718816518784E-002;-2.986980834975839E-003;3.278455929830670E-003;
2.417833333333334E+009;1.514038443565369E-001;-8.643901348114014E-002;-2.903549233451486E-003;3.042916767299175E-003;
2.418000000000000E+009;1.514591574668884E-001;-8.806041628122330E-002;-2.806440694257617E-003;2.873006043955684E-003;
2.418166666666667E+009;1.515389531850815E-001;-8.916875720024109E-002;-2.504349686205387E-003;2.910503419116139E-003;
2.418333333333334E+009;1.518726497888565E-001;-9.054829925298691E-002;-2.541833557188511E-003;2.798951463773847E-003;
2.418500000000000E+009;1.519368737936020E-001;-9.176690876483917E-002;-2.540371147915721E-003;2.647632034495473E-003;
2.418666666666667E+009;1.522913575172424E-001;-9.272895008325577E-002;-2.460895339027047E-003;2.642916748300195E-003;
2.418833333333334E+009;1.524181365966797E-001;-9.379851073026657E-002;-2.514850348234177E-003;2.451023086905479E-003;
2.419000000000000E+009;1.525121778249741E-001;-9.457126259803772E-002;-2.238573972135782E-003;2.478370442986488E-003;
2.419166666666667E+009;1.529219895601273E-001;-9.528334438800812E-002;-2.387738320976496E-003;2.324392553418875E-003;
2.419333333333334E+009;1.529130637645721E-001;-9.576104581356049E-002;-2.540478715673089E-003;2.320989267900586E-003;
2.419500000000000E+009;1.531812995672226E-001;-9.633914381265640E-002;-2.515267115086317E-003;2.155863679945469E-003;
2.419666666666667E+009;1.534145772457123E-001;-9.669861942529678E-002;-2.607553964480758E-003;2.251247642561793E-003;
2.419833333333334E+009;1.535367965698242E-001;-9.692848473787308E-002;-2.668421948328614E-003;2.331239171326160E-003;
2.420000000000000E+009;1.537798792123795E-001;-9.720642864704132E-002;-2.719677286222577E-003;2.344688866287470E-003;
2.420166666666667E+009;1.538506150245667E-001;-9.720218926668167E-002;-2.810421166941524E-003;2.445501508191228E-003;
2.420333333333334E+009;1.539449989795685E-001;-9.732105582952499E-002;-2.777097513899207E-003;2.303271554410458E-003;
2.420500000000000E+009;1.540804803371429E-001;-9.695408493280411E-002;-2.866128226742148E-003;2.409291686490178E-003;
2.420666666666667E+009;1.540511995553970E-001;-9.699673950672150E-002;-2.968277782201767E-003;2.520590089261532E-003;
2.420833333333334E+009;1.541409343481064E-001;-9.653282910585403E-002;-2.977313240990043E-003;2.766007091850042E-003;
2.421000000000000E+009;1.537918299436569E-001;-9.656377136707306E-002;-2.853977493941784E-003;2.761403797194362E-003;
2.421166666666667E+009;1.537981033325195E-001;-9.615688025951386E-002;-2.997272415086627E-003;2.894016914069653E-003;
2.421333333333334E+009;1.534990519285202E-001;-9.597060829401016E-002;-2.980696968734264E-003;2.926903776824474E-003;
2.421500000000000E+009;1.530711799860001E-001;-9.548111259937286E-002;-2.895852085202932E-003;3.131591016426683E-003;
2.421666666666667E+009;1.527847498655319E-001;-9.522840380668640E-002;-3.043800825253129E-003;3.346419660374522E-003;
2.421833333333334E+009;1.522067487239838E-001;-9.485709667205811E-002;-3.100294386968017E-003;3.461335087195039E-003;
2.422000000000000E+009;1.515084505081177E-001;-9.465626627206802E-002;-2.892642980441451E-003;3.684889758005738E-003;
2.422166666666667E+009;1.509314477443695E-001;-9.466238319873810E-002;-2.795474370941520E-003;3.787490772083402E-003;
2.422333333333334E+009;1.501904726028442E-001;-9.418885409832001E-002;-2.859694650396705E-003;3.983465954661369E-003;
2.422500000000000E+009;1.490752846002579E-001;-9.394727647304535E-002;-2.690266584977508E-003;4.132478963583708E-003;
2.422666666666667E+009;1.479949057102203E-001;-9.387657791376114E-002;-2.608408918604255E-003;4.325907211750746E-003;
2.422833333333334E+009;1.470546126365662E-001;-9.384175390005112E-002;-2.358163474127650E-003;4.666092339903116E-003;
2.423000000000000E+009;1.457500457763672E-001;-9.357655793428421E-002;-2.183951670303941E-003;4.676400683820248E-003;
2.423166666666667E+009;1.445727199316025E-001;-9.376198053359985E-002;-1.831336645409465E-003;4.925393033772707E-003;
2.423333333333334E+009;1.432853490114212E-001;-9.355421364307404E-002;-1.823734026402235E-003;5.004073958843947E-003;
2.423500000000000E+009;1.418032646179199E-001;-9.368995577096939E-002;-1.502933795563877E-003;5.098490975797176E-003;
2.423666666666667E+009;1.402158141136169E-001;-9.397993981838226E-002;-1.110532088205218E-003;5.065071396529675E-003;
2.423833333333334E+009;1.389939337968826E-001;-9.428755939006805E-002;-8.712539565749466E-004;4.973226226866245E-003;
2.424000000000000E+009;1.371813267469406E-001;-9.453237801790237E-002;-6.495232810266316E-004;4.992288071662188E-003;
2.424166666666667E+009;1.357133090496063E-001;-9.500642865896225E-002;-5.207565845921636E-004;4.878263920545578E-003;
2.424333333333334E+009;1.343276798725128E-001;-9.528776258230209E-002;-2.560781431384385E-004;5.018620751798153E-003;
2.424500000000000E+009;1.327882856130600E-001;-9.603064507246018E-002;2.747842518147081E-005;4.837380256503820E-003;
2.424666666666667E+009;1.313845962285996E-001;-9.646391868591309E-002;1.446348760509864E-004;4.668463021516800E-003;
2.424833333333334E+009;1.298900991678238E-001;-9.717880189418793E-002;3.486185159999877E-004;4.625086672604084E-003;
2.425000000000000E+009;1.283551454544067E-001;-9.812426567077637E-002;4.359389131423086E-004;4.397267010062933E-003;
2.425166666666667E+009;1.269795447587967E-001;-9.899878501892090E-002;5.515504162758589E-004;4.359762184321880E-003;
2.425333333333334E+009;1.257341653108597E-001;-1.000003814697266E-001;6.985968793742359E-004;4.293838981539011E-003;
2.425500000000000E+009;1.244559958577156E-001;-1.010808572173119E-001;8.228260558098555E-004;4.035904072225094E-003;
2.425666666666667E+009;1.232472732663155E-001;-1.023134142160416E-001;8.621664601378143E-004;3.941737581044436E-003;
2.425833333333334E+009;1.221083924174309E-001;-1.035439521074295E-001;1.031697727739811E-003;3.926565870642662E-003;
2.426000000000000E+009;1.211445629596710E-001;-1.050623804330826E-001;1.152462675236166E-003;3.690344281494618E-003;
2.426166666666667E+009;1.203239634633064E-001;-1.064689159393311E-001;1.095234416425228E-003;3.500105114653707E-003;
2.426333333333334E+009;1.192959770560265E-001;-1.077977269887924E-001;1.134262070991099E-003;3.637432353571057E-003;
2.426500000000000E+009;1.185092702507973E-001;-1.092788949608803E-001;1.206900924444199E-003;3.300648182630539E-003;
2.426666666666667E+009;1.178866326808929E-001;-1.108247414231300E-001;1.277951058000326E-003;3.125412389636040E-003;
2.426833333333334E+009;1.172454506158829E-001;-1.124824509024620E-001;1.080458518117666E-003;3.107668133452535E-003;
2.427000000000000E+009;1.166506931185722E-001;-1.141059845685959E-001;1.121187699027360E-003;2.995165996253490E-003;
2.427166666666667E+009;1.161877438426018E-001;-1.156159490346909E-001;1.353993080556393E-003;3.074189648032188E-003;
2.427333333333334E+009;1.156753152608872E-001;-1.173067092895508E-001;1.357736648060381E-003;2.929436042904854E-003;
2.427500000000000E+009;1.155334264039993E-001;-1.189061179757118E-001;1.204411266371608E-003;2.892814110964537E-003;
2.427666666666667E+009;1.151816770434380E-001;-1.205141022801399E-001;1.098745269700885E-003;2.880561165511608E-003;
