# Hz S RI R 50
2400000000.0000000000 0.161548763513565091232138115629 0.058375742286443710327148437500 0.004449455998837947845458984375 0.004451098386198282241821289062 0 0 0 0 
2400166666.6666665077 0.161602005362510708907919365629 0.056881457567214972759206403907 0.004559811204671859741210937500 0.004365575034171342849731445312 0 0 0 0 
2400333333.3333334923 0.161589428782463101486044365629 0.055105112493038177490234375000 0.004668961279094219207763671875 0.004187029786407948407644941113 0 0 0 0 
2400500000.0000000000 0.161605373024940490722656250000 0.053284157067537307739257812500 0.004791425075381994247436523438 0.004255282692611218366141034863 0 0 0 0 
2400666666.6666665077 0.161635041236877413650674384371 0.051522996276617050170898437500 0.004837897140532732009887695312 0.003883225610479712919947958838 0 0 0 0 
2400833333.3333334923 0.161843419075012207031250000000 0.049772772938013076782226562500 0.004966947250068187713623046875 0.003811168717220426039454794775 0 0 0 0 
2401000000.0000000000 0.161654323339462308029013115629 0.047600463032722473144531250000 0.005061145871877670288085937500 0.003830497385933994813206338037 0 0 0 0 
2401166666.6666665077 0.161969572305679293533486884371 0.045668195933103561401367187500 0.005245036445558071136474609375 0.003481990890577435927150107275 0 0 0 0 
2401333333.3333334923 0.162135183811187688629473768742 0.043660264462232589721679687500 0.005291246809065341949462890625 0.003191114636138081984279013525 0 0 0 0 
2401500000.0000000000 0.162420570850372286697549384371 0.041923444718122482299804687500 0.005478099454194307327270507812 0.003092586528509854836704873193 0 0 0 0 
2401666666.6666665077 0.162739768624305697342080634371 0.040058474987745291973073591407 0.005566156469285488128662109375 0.002958857687190175056457519531 0 0 0 0 
2401833333.3333334923 0.162966072559356689453125000000 0.037990629673004150390625000000 0.005447148345410823822021484375 0.002542641246691346168518066406 0 0 0 0 
2402000000.0000000000 0.163261562585830688476562500000 0.036199565976858139038085937500 0.005601522978395223617553710938 0.002496790606528521017787314307 0 0 0 0 
2402166666.6666665077 0.163673758506774902343750000000 0.034486480057239532470703125000 0.005705740302801132202148437500 0.002210261067375541167018271338 0 0 0 0 
2402333333.3333334923 0.163869723677635192871093750000 0.032559704035520546649973283593 0.005800357554107903566842363574 0.002205966506153345108032226562 0 0 0 0 
2402500000.0000000000 0.164739772677421597579794365629 0.030891923233866691589355468750 0.005673499312251806259155273438 0.001914351247251033999799418872 0 0 0 0 
2402666666.6666665077 0.165114864706993103027343750000 0.029192071408033370971679687500 0.005735451355576515197753906250 0.001573796616867185072657919775 0 0 0 0 
2402833333.3333334923 0.165619716048240689376669365629 0.027682002633810039865513985546 0.005832390859723091125488281250 0.001374057144857943058013916016 0 0 0 0 
2403000000.0000000000 0.166249260306358309646768134371 0.026060810312628749502161795704 0.005728850606828927993774414062 0.001372802653349936008453369141 0 0 0 0 
2403166666.6666665077 0.167100980877876309493856865629 0.024499140679836269723912423046 0.005697830580174922943115234375 0.001094871200621128082275390625 0 0 0 0 
2403333333.3333334923 0.167745023965835599044638115629 0.023050777614116668701171875000 0.005712224636226893338675214551 0.001061084680259227969525981372 0 0 0 0 
2403500000.0000000000 0.168356910347938509842080634371 0.021628106012940410268763358204 0.005746120586991310119628906250 0.000776850502006709575653076172 0 0 0 0 
2403666666.6666665077 0.169063270092010498046875000000 0.020253527909517291677454764454 0.005698030348867177963256835938 0.000549425312783569097518920898 0 0 0 0 
2403833333.3333334923 0.169947162270545987228231865629 0.019106345251202579843541329296 0.005708244629204273223876953125 0.000406352046411484479904174805 0 0 0 0 
2404000000.0000000000 0.170729935169219998458700615629 0.017834059894084930419921875000 0.005623775534331799420828534863 0.000391024281270802021026611328 0 0 0 0 
2404166666.6666665077 0.171342134475708007812500000000 0.016707049682736400258997733204 0.005601957906037569046020507812 0.000158260867465287501185816632 0 0 0 0 
2404333333.3333334923 0.171986475586891202071981865629 0.015810864046216011047363281250 0.005535482894629240036010742188 -0.000055411299399565912108828886 0 0 0 0 
2404500000.0000000000 0.172752201557159396072549384371 0.014783503487706179183036603320 0.005408313591033220291137695312 -0.000034296379453735432844569547 0 0 0 0 
2404666666.6666665077 0.173538371920585604568643134371 0.013979447074234490830391131055 0.005529561080038548383230878613 -0.000265695620328187888294774188 0 0 0 0 
2404833333.3333334923 0.174219533801078796386718750000 0.013127768412232400721539882227 0.005455330479890108108520507812 -0.000452809326816350221633911133 0 0 0 0 
2405000000.0000000000 0.174848452210426302810830634371 0.012308160774409769230852695898 0.005358262453228235244750976562 -0.000614683900494128465652465820 0 0 0 0 
2405166666.6666665077 0.175506576895713806152343750000 0.011526418849825860804547694727 0.005308693274855613708496093750 -0.000578724837396293878555297852 0 0 0 0 
2405333333.3333334923 0.176143184304237393478231865629 0.010855724103748800105084804102 0.005386564414948225021362304688 -0.000795431493315845727920532227 0 0 0 0 
2405500000.0000000000 0.176623597741126986404580634371 0.010435762815177440643310546875 0.005255287513136863708496093750 -0.000818963453639298677444458008 0 0 0 0 
2405666666.6666665077 0.177091792225837707519531250000 0.010016700252890590322474295704 0.005316407419741153717041015625 -0.000929555331822484731674194336 0 0 0 0 
2405833333.3333334923 0.177593484520912198165731865629 0.009658160619437694549560546875 0.005155894905328750610351562500 -0.001160907791927457072614360278 0 0 0 0 
2406000000.0000000000 0.178092181682586697677450615629 0.008995024487376213073730468750 0.005239618476480245590209960938 -0.001157922553829848983167338794 0 0 0 0 
2406166666.6666665077 0.178233742713928194900674384371 0.008688494563102722167968750000 0.005145422182977200421805097363 -0.001257326221093534989597939600 0 0 0 0 
2406333333.3333334923 0.178701207041740389724893134371 0.008262415416538715362548828125 0.005048922728747128572945879199 -0.001563002355396748022792197119 0 0 0 0 
2406500000.0000000000 0.178893998265266390701455634371 0.007978748530149459838867187500 0.005123118869960308074951171875 -0.001570474589243531010271381909 0 0 0 0 
2406666666.6666665077 0.178821802139282198806924384371 0.007548481691628695401663495801 0.004919461440294981002807617188 -0.001729253795929253101348876953 0 0 0 0 
2406833333.3333334923 0.179053112864494295974893134371 0.007049660664051771163940429688 0.004928726237267255783081054688 -0.001819961820729077079175639575 0 0 0 0 
2407000000.0000000000 0.179030701518058804611044365629 0.006667020265012980374808027051 0.004900146275758743286132812500 -0.001893827109597622914555214990 0 0 0 0 
2407166666.6666665077 0.179272904992103604415731865629 0.006301068235188722610473632812 0.004759253468364477157592773438 -0.002143922261893748803379677881 0 0 0 0 
2407333333.3333334923 0.178906738758087213714276231258 0.005759189836680889129638671875 0.004746767226606606569772051074 -0.002083047525957227186915732275 0 0 0 0 
2407500000.0000000000 0.178743422031402587890625000000 0.005390117410570383071899414062 0.004619378596544265747070312500 -0.002363245701417326927185058594 0 0 0 0 
2407666666.6666665077 0.178519204258918789962606865629 0.005011296831071376800537109375 0.004534238018095493316650390625 -0.002302581910043954849243164062 0 0 0 0 
2407833333.3333334923 0.177965104579925509353799384371 0.004115179181098937988281250000 0.004428564570844173431396484375 -0.002539937617257237000706338037 0 0 0 0 
2408000000.0000000000 0.177805960178375188629473768742 0.003540629521012306213378906250 0.004421335645020008087158203125 -0.002614930272102355957031250000 0 0 0 0 
2408166666.6666665077 0.177324756979942294021768134371 0.003013128181919455961940146338 0.004360304214060307416434003613 -0.002883470384404062791111611475 0 0 0 0 
2408333333.3333334923 0.177073910832405090332031250000 0.002186512108892201943638466943 0.004268392454832792282104492188 -0.002899235580116509957554482568 0 0 0 0 
2408500000.0000000000 0.176597595214843805511151231258 0.001231734058819710991503071362 0.004078380297869443893432617188 -0.002862674184143542809727334131 0 0 0 0 
2408666666.6666665077 0.175982281565666198730468750000 0.000313880358589813113212585449 0.003964473959058523178100585938 -0.003034570021554828123805380713 0 0 0 0 
2408833333.3333334923 0.175439789891243008712606865629 -0.000426797836553305387496948242 0.003957439213991165161132812500 -0.003113381331786512894871377100 0 0 0 0 
2409000000.0000000000 0.174846872687339810470419365629 -0.001556684728711843924281454932 0.003865566570311785177943564307 -0.003314492525532842116114951025 0 0 0 0 
2409166666.6666665077 0.174180358648300198654013115629 -0.002782905241474508805515908350 0.003631669329479337172267294775 -0.003306814702227712111232138525 0 0 0 0 
2409333333.3333334923 0.173702687025070190429687500000 -0.003898909781128168106079101562 0.003611173247918487028834677588 -0.003528880188241600990295410156 0 0 0 0 
2409500000.0000000000 0.173120275139808710296307481258 -0.005284605547785758972167968750 0.003540871897712349891662597656 -0.003499376121908425851109170068 0 0 0 0 
2409666666.6666665077 0.172491282224655206878338731258 -0.006580776534974575042724609375 0.003479012520983815193176269531 -0.003539601340889931158778525244 0 0 0 0 
2409833333.3333334923 0.171773120760917691329794365629 -0.007915561087429523468017578125 0.003274146001785994009730673682 -0.003638761118054389953613281250 0 0 0 0 
2410000000.0000000000 0.171369016170501708984375000000 -0.009365288540720939636230468750 0.003090678248554468154907226562 -0.003686715150251985029933310400 0 0 0 0 
2410166666.6666665077 0.170667514204978887359942518742 -0.010992034338414670771588710352 0.003195280907675623893737792969 -0.003626087913289666175842285156 0 0 0 0 
2410333333.3333334923 0.170198276638984707931356865629 -0.012575191445648670196533203125 0.003074016654863954024073935400 -0.003781075589358807043788290869 0 0 0 0 
2410500000.0000000000 0.169567137956619290450888115629 -0.014228959567844869441022304102 0.002740939613431692123413085938 -0.003822913160547614097595214844 0 0 0 0 
2410666666.6666665077 0.169212639331817599197549384371 -0.016070714220404628408411795704 0.002707273233681917190551757812 -0.003830752801150083975550986182 0 0 0 0 
2410833333.3333334923 0.168875947594642611404580634371 -0.017640374600887298583984375000 0.002729463158175348801853798975 -0.003848691238090395927429199219 0 0 0 0 
2411000000.0000000000 0.168471783399581909179687500000 -0.019569277763366699218750000000 0.002572097582742571830749511719 -0.004022764042019844055175781250 0 0 0 0 
2411166666.6666665077 0.168104112148284912109375000000 -0.021346319466829299926757812500 0.002520415466278790993931435693 -0.003952416125684976577758789062 0 0 0 0 
2411333333.3333334923 0.167850986123084994217080634371 -0.023149557411670688283900076954 0.002352913375943899154663085938 -0.004067953675985336303710937500 0 0 0 0 
2411500000.0000000000 0.167702198028564508636151231258 -0.025209151208400729787806326954 0.002227532444521785216090536963 -0.004042078275233507156372070312 0 0 0 0 
2411666666.6666665077 0.167906761169433593750000000000 -0.027132609859108928335169608204 0.002261352492496370835545205225 -0.004150012973695993423461914062 0 0 0 0 
2411833333.3333334923 0.167585209012031610686932481258 -0.028807949274778369558314139454 0.002239167923107742829563759912 -0.004018375184386968612670898438 0 0 0 0 
2412000000.0000000000 0.167705610394477788727130018742 -0.030695080757141109811803048046 0.002090202178806066946742392432 -0.004151816945523023605346679688 0 0 0 0 
2412166666.6666665077 0.167652294039726312835369981258 -0.032565046101808547973632812500 0.001979332417249679999110556494 -0.004224985837936401367187500000 0 0 0 0 
2412333333.3333334923 0.168205708265304593185263115629 -0.034534689038991928100585937500 0.001850318280048667950871132959 -0.004271119832992553710937500000 0 0 0 0 
2412500000.0000000000 0.167986020445823697189169365629 -0.036346279084682471538503278907 0.001699144835583866076228476416 -0.004278445616364479064941406250 0 0 0 0 
2412666666.6666665077 0.168584182858467102050781250000 -0.038178477436304092407226562500 0.001744755543768405914306640625 -0.004295121412724257382864667676 0 0 0 0 
2412833333.3333334923 0.168960928916931207854901231258 -0.040065433830022811889648437500 0.001627766992896795055986713940 -0.004464963451027870178222656250 0 0 0 0 
2413000000.0000000000 0.169281706213951110839843750000 -0.041803400963544852519948591407 0.001573837711475789980647421729 -0.004515998531132937345022870801 0 0 0 0 
2413166666.6666665077 0.169499158859252901931924384371 -0.043523080646991729736328125000 0.001416866783984006101723696069 -0.004626182373613119125366210938 0 0 0 0 
2413333333.3333334923 0.170009404420852688888388115629 -0.045175217092037200927734375000 0.001152389682829380035400390625 -0.004611267242580652236938476562 0 0 0 0 
2413500000.0000000000 0.170361891388893099685830634371 -0.046830691397190087055246721093 0.001157819293439388058306049878 -0.004601988475769758224487304688 0 0 0 0 
2413666666.6666665077 0.170864462852477999588174384371 -0.048231765627861022949218750000 0.001049671322107315063476562500 -0.004647741094231606397146894238 0 0 0 0 
2413833333.3333334923 0.171399176120758112151776231258 -0.049644973129034042358398437500 0.000888992624823004007339477539 -0.004669220652431249618530273438 0 0 0 0 
2414000000.0000000000 0.171738743782043512542401231258 -0.051088482141494750976562500000 0.000762460753321647644042968750 -0.004794308915734291076660156250 0 0 0 0 
2414166666.6666665077 0.172448232769966097732705634371 -0.052429825067520141601562500000 0.000699451775290071964263916016 -0.004746356979012489318847656250 0 0 0 0 
2414333333.3333334923 0.172947585582733209808026231258 -0.053567148745059967041015625000 0.000485640397528186386257725848 -0.004856892395764589309692382812 0 0 0 0 
2414500000.0000000000 0.173618972301483209808026231258 -0.054645195603370673442800153907 0.000391646753996610587269383563 -0.004831476602703332901000976562 0 0 0 0 
2414666666.6666665077 0.173902168869972201248330634371 -0.055671688169240951538085937500 0.000158632930833846303537645883 -0.004818283487111330032348632812 0 0 0 0 
2414833333.3333334923 0.174288585782051086425781250000 -0.056606624275445938110351562500 0.000017638023564359169790541002 -0.004832434002310037612915039062 0 0 0 0 
2415000000.0000000000 0.174779549241066006759481865629 -0.057495504617691040039062500000 -0.000136664355522953000947675162 -0.004743411205708981427664472363 0 0 0 0 
2415166666.6666665077 0.175190404057502802093182481258 -0.058295667171478271484375000000 -0.000091364403488114476203918457 -0.004795814398676156997680664062 0 0 0 0 
2415333333.3333334923 0.175726115703582791427450615629 -0.059120327234268188476562500000 -0.000218776258407160612657824106 -0.004770997446030378341674804688 0 0 0 0 
2415500000.0000000000 0.175926983356475802322549384371 -0.059539608657360076904296875000 -0.000472776475362479686737060547 -0.004785354249179363250732421875 0 0 0 0 
2415666666.6666665077 0.176186069846153287032919365629 -0.060075934976339340209960937500 -0.000517333741299808025360107422 -0.004744290839880704879760742188 0 0 0 0 
2415833333.3333334923 0.176389008760452298263388115629 -0.060636404901742942119557966407 -0.000694888469297438859939575195 -0.004794362466782332334036542676 0 0 0 0 
2416000000.0000000000 0.176360309123992892166299384371 -0.061106514185667037963867187500 -0.000662690144963562488555908203 -0.004774095490574836730957031250 0 0 0 0 
2416166666.6666665077 0.176646918058395413497763115629 -0.061486996710300452495534528907 -0.000867029186338186264038085938 -0.004886745009571313858032226562 0 0 0 0 
2416333333.3333334923 0.176486879587173489669638115629 -0.061698921024799346923828125000 -0.001136037404648960070369101416 -0.004743128083646298322195722363 0 0 0 0 
2416500000.0000000000 0.176515921950340298751669365629 -0.062046475708484649658203125000 -0.001066491706296802000758505713 -0.004631867166608572006225585938 0 0 0 0 
2416666666.6666665077 0.176237031817436190506143134371 -0.062216162681579589843750000000 -0.001316618290729820945142436450 -0.004532683175057172775268554688 0 0 0 0 
2416833333.3333334923 0.176186084747314508636151231258 -0.062547996640205383300781250000 -0.001480219652876257896423339844 -0.004640101455152034759521484375 0 0 0 0 
2417000000.0000000000 0.175639554858207702636718750000 -0.062700755894184112548828125000 -0.001552122528664767958997416919 -0.004629152826964855194091796875 0 0 0 0 
2417166666.6666665077 0.175193861126899691482705634371 -0.062852732837200164794921875000 -0.001579433330334722995758056641 -0.004535670857876539230346679688 0 0 0 0 
2417333333.3333334923 0.174743488430976895431356865629 -0.063082374632358551025390625000 -0.001845352933742105960845947266 -0.004531014710664749145507812500 0 0 0 0 
2417500000.0000000000 0.174059540033340509612713731258 -0.063316836953163146972656250000 -0.001863255281932651996612548828 -0.004409675020724534988403320312 0 0 0 0 
2417666666.6666665077 0.173483043909072903732138115629 -0.063417010009288787841796875000 -0.002006591996178030967712402344 -0.004425075370818377408499433301 0 0 0 0 
2417833333.3333334923 0.172765806317329406738281250000 -0.063599944114685058593750000000 -0.002140786731615663008448935400 -0.004240804351866245269775390625 0 0 0 0 
2418000000.0000000000 0.171770781278610201736611884371 -0.064033955335617065429687500000 -0.002274416154250503020045615088 -0.004147431813180446624755859375 0 0 0 0 
2418166666.6666665077 0.171000123023986788650674384371 -0.064132057130336761474609375000 -0.002357686171308159828186035156 -0.004070876166224479675292968750 0 0 0 0 
2418333333.3333334923 0.170044511556625393966513115629 -0.064558587968349456787109375000 -0.002538661705330013795139931787 -0.003986608237028121948242187500 0 0 0 0 
2418500000.0000000000 0.169036984443664606292401231258 -0.064867563545703887939453125000 -0.002514536026865243911743164062 -0.003954191226512193679809570312 0 0 0 0 
2418666666.6666665077 0.168054953217506408691406250000 -0.065262801945209503173828125000 -0.002709685591980814933776855469 -0.003934747073799371719360351562 0 0 0 0 
2418833333.3333334923 0.166719973087310791015625000000 -0.065734669566154479980468750000 -0.002843716647475957870483398438 -0.003834452247247099876403808594 0 0 0 0 
2419000000.0000000000 0.165527775883674593826455634371 -0.066256828606128692626953125000 -0.002918254351243377165553427588 -0.003805227810516953902003622900 0 0 0 0 
2419166666.6666665077 0.164453923702239990234375000000 -0.066754244267940521240234375000 -0.003051574574783443970921181787 -0.003701707581058145003077841650 0 0 0 0 
2419333333.3333334923 0.163025870919227600097656250000 -0.067416131496429443359375000000 -0.003162029199302196936366415869 -0.003660339629277586936950683594 0 0 0 0 
2419500000.0000000000 0.161918193101882906814736884371 -0.068372309207916259765625000000 -0.003220719750970602035522460938 -0.003529793582856655120849609375 0 0 0 0 
2419666666.6666665077 0.160853594541549710372763115629 -0.069200284779071807861328125000 -0.003271574154496192932128906250 -0.003426194423809647993800497900 0 0 0 0 
2419833333.3333334923 0.159552708268165588378906250000 -0.070005260407924652099609375000 -0.003285374958068131966831826318 -0.003406936768442391915562295068 0 0 0 0 
