# Hz S RI R 50
2400000000.0000000000 0.168894484639167813400106865629 0.045573517680168151855468750000 -0.002529641613364220099208212744 -0.001733798068016767935511923682 0 0 0 0 
2400166666.6666665077 0.169986724853515597244424384371 0.044735331088304519653320312500 -0.002514127641916275024414062500 -0.001692356658168137073516845703 0 0 0 0 
2400333333.3333334923 0.170839503407478304763955634371 0.043478440493345260620117187500 -0.002835131250321865081787109375 -0.001710832468234003023860312354 0 0 0 0 
2400500000.0000000000 0.171894833445549011230468750000 0.042567357420921332622487653907 -0.002937270561233162879943847656 -0.001681659254245460033416748047 0 0 0 0 
2400666666.6666665077 0.172555506229400607010049384371 0.041515991091728210449218750000 -0.002955837408080697059631347656 -0.001642626244574785015703510815 0 0 0 0 
2400833333.3333334923 0.173587799072265597244424384371 0.041000280529260642314870466407 -0.003175222314894198937657021631 -0.001646816497668623924255371094 0 0 0 0 
2401000000.0000000000 0.174292311072349603850994981258 0.040026620030403137207031250000 -0.003215655451640487150904990088 -0.001452890923246741078020405347 0 0 0 0 
2401166666.6666665077 0.175093650817871093750000000000 0.039362601935863501811940778907 -0.003417890286073089079615927588 -0.001355751650407909913303994287 0 0 0 0 
2401333333.3333334923 0.176018178462982205489950615629 0.038643281906843192363698591407 -0.003566805971786379814147949219 -0.001235806499607861042022705078 0 0 0 0 
2401500000.0000000000 0.176694676280021695236044365629 0.037780586630105972290039062500 -0.003704629139974712891819619287 -0.001376276486553251960157084888 0 0 0 0 
2401666666.6666665077 0.177114427089691189864950615629 0.037509452551603317260742187500 -0.003816928481683135032653808594 -0.000999272335320711135864257812 0 0 0 0 
2401833333.3333334923 0.177671074867248507400674384371 0.036752868443727493286132812500 -0.003986010793596506118774414062 -0.000900467101018875837326049805 0 0 0 0 
2402000000.0000000000 0.178275913000106811523437500000 0.036380145698785781860351562500 -0.004047963768243789672851562500 -0.000616879493463784456253051758 0 0 0 0 
2402166666.6666665077 0.178655043244361905196981865629 0.035564333200454711914062500000 -0.004428140353411436080932617188 -0.000504811643622815608978271484 0 0 0 0 
2402333333.3333334923 0.178756669163703890701455634371 0.034977547824382781982421875000 -0.004341160412877798080444335938 -0.000344151572789996916621607648 0 0 0 0 
2402500000.0000000000 0.179298162460327203948651231258 0.034434571862220757221262346093 -0.004487823694944381713867187500 -0.000064297884819097816944122314 0 0 0 0 
2402666666.6666665077 0.179557725787162808517294365629 0.033905886113643653179128278907 -0.004462432116270065307617187500 0.000099178621894679963588714600 0 0 0 0 
2402833333.3333334923 0.179738983511924688141192518742 0.033188443630933761596679687500 -0.004513761959969997406005859375 0.000467482488602399826049804688 0 0 0 0 
2403000000.0000000000 0.179788351058959988693075615629 0.032440550625324249267578125000 -0.004620211198925971984863281250 0.000722424010746181011199951172 0 0 0 0 
2403166666.6666665077 0.179814845323562594314736884371 0.031750787049531936645507812500 -0.004797016736119985580444335938 0.000981193967163562774658203125 0 0 0 0 
2403333333.3333334923 0.179819032549858093261718750000 0.030994018539786338806152343750 -0.004673720803111791610717773438 0.001127859111875296072718954932 0 0 0 0 
2403500000.0000000000 0.179317757487297113616619981258 0.030132370069622989999791329296 -0.004664057865738868713378906250 0.001341798575595021031023335034 0 0 0 0 
2403666666.6666665077 0.179280713200569208343182481258 0.029282487928867340087890625000 -0.004909508861601352691650390625 0.001658831955865025954005576025 0 0 0 0 
2403833333.3333334923 0.179107785224914606292401231258 0.028163066133856769907017891796 -0.004806855693459510803222656250 0.001961002591997385025024414062 0 0 0 0 
2404000000.0000000000 0.178501009941101101974325615629 0.027048554271459579467773437500 -0.004836321342736482620239257812 0.002345427405089139938354492188 0 0 0 0 
2404166666.6666665077 0.178283914923667907714843750000 0.025882618501782420766810233204 -0.004627072717994452390188886426 0.002613887656480073928833007812 0 0 0 0 
2404333333.3333334923 0.177936807274818392654580634371 0.024777263402938839303990548046 -0.004570463672280311584472656250 0.002902981592342257933375693213 0 0 0 0 
2404500000.0000000000 0.177493751049041803558026231258 0.023391501978039741516113281250 -0.004383759573101997375488281250 0.003041106276214123205897665869 0 0 0 0 
2404666666.6666665077 0.176922738552093505859375000000 0.021983629092574119567871093750 -0.004356059245765209197998046875 0.003481850260868668989894247900 0 0 0 0 
2404833333.3333334923 0.176339447498321505447549384371 0.020664503797888759267786795704 -0.004207008518278598785400390625 0.003455572063103318214416503906 0 0 0 0 
2405000000.0000000000 0.175936147570610101897869981258 0.019070234149694439279576485546 -0.003935327287763357162475585938 0.003771941643208264870884560693 0 0 0 0 
2405166666.6666665077 0.175443902611732510665731865629 0.017555134370923038827916329296 -0.003746465314179658889770507812 0.003959623631089925765991210938 0 0 0 0 
2405333333.3333334923 0.174996420741081210037393134371 0.015860283747315410268763358204 -0.003523434745147823853733681787 0.004347541835159063339233398438 0 0 0 0 
2405500000.0000000000 0.174725115299224909026776231258 0.014317459426820279902448085352 -0.003538360353559256033656454932 0.004383309278637170791625976562 0 0 0 0 
2405666666.6666665077 0.174292296171188410003338731258 0.012509159743785859889020350977 -0.003269407199695705933811806787 0.004737893119454383850097656250 0 0 0 0 
2405833333.3333334923 0.173741400241851806640625000000 0.010827024467289449519147304102 -0.002972106914967298941371298682 0.004745586309581995010375976562 0 0 0 0 
2406000000.0000000000 0.173656955361366299728231865629 0.008809968829154968261718750000 -0.002807620912790298895594931494 0.004992220085114240646362304688 0 0 0 0 
2406166666.6666665077 0.173145398497581509689169365629 0.006986035499721766385550214551 -0.002486017765477300123927451025 0.005188341252505779266357421875 0 0 0 0 
2406333333.3333334923 0.173176929354667691329794365629 0.005146117880940437316894531250 -0.002285292837768793106079101562 0.005296507384628058347220136426 0 0 0 0 
2406500000.0000000000 0.172999843955040005782919365629 0.003154032630845903916599892725 -0.002045666333287953896763466943 0.005507302936166524887084960938 0 0 0 0 
2406666666.6666665077 0.172800466418266296386718750000 0.001085747382603585936902690356 -0.001576032256707549095153808594 0.005387568846344947814941406250 0 0 0 0 
2406833333.3333334923 0.172825142741203308105468750000 -0.001130796852521597905399941553 -0.001361474394798279025434184497 0.005522077437490224838256835938 0 0 0 0 
2407000000.0000000000 0.172942206263542203048544365629 -0.003119054250419139862060546875 -0.001031471299938857989070273291 0.005794773809611797332763671875 0 0 0 0 
2407166666.6666665077 0.173079803586006192306356865629 -0.005167802330106496810913085938 -0.000743194075766950954138601038 0.005846664309501647949218750000 0 0 0 0 
2407333333.3333334923 0.173202708363532992263955634371 -0.007440633606165648374075605176 -0.000284583744360134005546569824 0.005742546170949935913085937500 0 0 0 0 
2407500000.0000000000 0.173453569412231500823651231258 -0.009498699568212032318115234375 -0.000141266253194771707057952881 0.005751598626375198364257812500 0 0 0 0 
2407666666.6666665077 0.173649504780769403655682481258 -0.011634856462478639430035975977 0.000161330041009932810634058820 0.005682819988578557968139648438 0 0 0 0 
2407833333.3333334923 0.173941120505333002288494981258 -0.013884735293686389923095703125 0.000499386107549071311950683594 0.005750447977334260940551757812 0 0 0 0 
2408000000.0000000000 0.174382820725441006759481865629 -0.015982603654265400278111641796 0.000760133145377039909362792969 0.005497725214809179306030273438 0 0 0 0 
2408166666.6666665077 0.174656897783279391189736884371 -0.017818197607994079589843750000 0.001102976617403327985050820459 0.005580998957157135009765625000 0 0 0 0 
2408333333.3333334923 0.175170436501502990722656250000 -0.019876640290021899831751639454 0.001637718756683171012281108325 0.005497774109244346618652343750 0 0 0 0 
2408500000.0000000000 0.175447121262550409515057481258 -0.021945245563983920705775076954 0.001752353738993406078935932690 0.005302015226334333419799804688 0 0 0 0 
2408666666.6666665077 0.175808608531951904296875000000 -0.023926233872771259653111641796 0.001940802671015263037440634619 0.005191323813050985336303710938 0 0 0 0 
2408833333.3333334923 0.176197752356529208084268134371 -0.025642462074756618845006173046 0.002240147208794951005222939600 0.005142114590853452682495117188 0 0 0 0 
2409000000.0000000000 0.176520079374313410003338731258 -0.027442198246717449533482735546 0.002398849464952946142909384619 0.005135366227477788925170898438 0 0 0 0 
2409166666.6666665077 0.177045315504074096679687500000 -0.028914185240864750253697579296 0.002437001792714000181910849463 0.004832190927118062973022460938 0 0 0 0 
2409333333.3333334923 0.177389517426490811446981865629 -0.030228555202484130859375000000 0.002752041444182395935058593750 0.004503633361309766769409179688 0 0 0 0 
2409500000.0000000000 0.177582308650016812423544365629 -0.031771305948495871807057966407 0.003074246691539884047267294775 0.004509008955210447311401367188 0 0 0 0 
2409666666.6666665077 0.178159609436988802810830634371 -0.032842088490724556659738908593 0.003162250155583024024963378906 0.004455889575183391571044921875 0 0 0 0 
2409833333.3333334923 0.178567141294479397872763115629 -0.033911891281604766845703125000 0.003362765302881598906276083838 0.004192590247839689254760742188 0 0 0 0 
2410000000.0000000000 0.179023995995521600921307481258 -0.034968342632055282592773437500 0.003507652785629034042358398438 0.004018630832433701428885175488 0 0 0 0 
2410166666.6666665077 0.179567784070968600174111884371 -0.035666052252054207538645158593 0.003630952909588814215419150244 0.003954521380364894866943359375 0 0 0 0 
2410333333.3333334923 0.179841086268424987792968750000 -0.036579255014657967304270158593 0.003858748124912381172180175781 0.003702380228787661032435751807 0 0 0 0 
2410500000.0000000000 0.180373102426528902908486884371 -0.037242867052555077289621721093 0.004017882980406284332275390625 0.003511675400659441947937011719 0 0 0 0 
2410666666.6666665077 0.180541664361953707595986884371 -0.038347672671079642559011091407 0.004179629497230052947998046875 0.003361451439559460119960165869 0 0 0 0 
2410833333.3333334923 0.181079879403114291092080634371 -0.038844544440507888793945312500 0.004438186530023813247680664062 0.003120642155408858819248818506 0 0 0 0 
2411000000.0000000000 0.181365430355071993728799384371 -0.039309933781623840332031250000 0.004683487117290496826171875000 0.002844763454049826102015829932 0 0 0 0 
2411166666.6666665077 0.181471765041351290603799384371 -0.039842452853918082500417341407 0.004785830620676279067993164062 0.002691679866984487013575888525 0 0 0 0 
2411333333.3333334923 0.181532740592956487457598768742 -0.040385238826274871826171875000 0.004949715454131364822387695312 0.002306117676198482947108603369 0 0 0 0 
2411500000.0000000000 0.181597590446472195724325615629 -0.040901791304349899291992187500 0.004856671672314404573922441699 0.002058036625385283990147256006 0 0 0 0 
2411666666.6666665077 0.181818500161170987228231865629 -0.041427262127399451518972028907 0.005000346340239048004150390625 0.001706852461211382909062050928 0 0 0 0 
2411833333.3333334923 0.181645676493644686599893134371 -0.041544504463672637939453125000 0.005240852944552898406982421875 0.001432848395779729106305766528 0 0 0 0 
2412000000.0000000000 0.181647330522537203689736884371 -0.041926756501197821880300153907 0.005130473524332047376150800488 0.001273542293347418091417622144 0 0 0 0 
2412166666.6666665077 0.181087747216224698165731865629 -0.042300615459680557250976562500 0.005222351290285587310791015625 0.000881154497619718313217163086 0 0 0 0 
2412333333.3333334923 0.181195363402366610428018134371 -0.042552065104246139526367187500 0.005236608907580375671386718750 0.000518167216796427965164184570 0 0 0 0 
2412500000.0000000000 0.180351823568344088455361884371 -0.042974542826414108276367187500 0.005150703713297843933105468750 0.000193964253412559601381578989 0 0 0 0 
2412666666.6666665077 0.179894253611564608474893134371 -0.043410480022430419921875000000 0.005234281066805124282836914062 -0.000176984554855152991697034293 0 0 0 0 
2412833333.3333334923 0.179301679134368896484375000000 -0.043722376227378852153737653907 0.005293311085551977157592773438 -0.000433190260082483291625976562 0 0 0 0 
2413000000.0000000000 0.178640663623809786697549384371 -0.044134061783552169799804687500 0.004996833857148885726928710938 -0.000823962502181529998779296875 0 0 0 0 
2413166666.6666665077 0.177860304713249206542968750000 -0.044405445456504821777343750000 0.004779453389346599578857421875 -0.001215824158862232945085835034 0 0 0 0 
2413333333.3333334923 0.176639109849929809570312500000 -0.044832963496446609497070312500 0.004634017124772071838378906250 -0.001391384284943341992021870190 0 0 0 0 
2413500000.0000000000 0.175862744450569208343182481258 -0.045482434332370758056640625000 0.004312360659241676330566406250 -0.001694131875410676002502441406 0 0 0 0 
2413666666.6666665077 0.174972832202911404708700615629 -0.045821778476238250732421875000 0.004372656345367431640625000000 -0.001824818318709731101989746094 0 0 0 0 
2413833333.3333334923 0.173934295773506192306356865629 -0.046340350061655051494557966407 0.003986038267612457275390625000 -0.002045137807726860046386718750 0 0 0 0 
2414000000.0000000000 0.172611683607101412674111884371 -0.047185346484184272075612653907 0.003749075112864375114440917969 -0.002247359137982130050659179688 0 0 0 0 
2414166666.6666665077 0.171433165669441195388955634371 -0.047887373715639107440988908593 0.003404388437047601179835654150 -0.002416483592242002920863486182 0 0 0 0 
2414333333.3333334923 0.170351371169090298751669365629 -0.048502869904041290283203125000 0.003351866034790873961207724463 -0.002490204991772770881652832031 0 0 0 0 
2414500000.0000000000 0.169407963752746609786825615629 -0.049376893788576133037526716407 0.002820886205881834030151367188 -0.002578963292762637138366699219 0 0 0 0 
2414666666.6666665077 0.168073236942291287521200615629 -0.050310563296079642559011091407 0.002699004719033836884739541162 -0.002629305468872189955470419775 0 0 0 0 
2414833333.3333334923 0.166866436600685091873330634371 -0.051470220088958740234375000000 0.002474446780979632897617959131 -0.002646389184519648985621786963 0 0 0 0 
2415000000.0000000000 0.165735423564910888671875000000 -0.052465572953224182128906250000 0.002239997731521726088282919775 -0.002573741134256124930140829932 0 0 0 0 
2415166666.6666665077 0.164449483156204195877236884371 -0.053737618029117577289621721093 0.002045144326984881921055459131 -0.002716459566727281050441122900 0 0 0 0 
2415333333.3333334923 0.163467720150947598556356865629 -0.055110428482294082641601562500 0.001792664057575166008592915112 -0.002554492559283971786499023438 0 0 0 0 
2415500000.0000000000 0.162257447838783291915731865629 -0.056330114603042602539062500000 0.001574032939970493099809956128 -0.002524761483073234991786337744 0 0 0 0 
2415666666.6666665077 0.161112278699874905685263115629 -0.058016128838062293315847028907 0.001328152720816432996037148584 -0.002366489032283424897434853662 0 0 0 0 
2415833333.3333334923 0.160027533769607488434161268742 -0.059459380805492401123046875000 0.001141751767136156992671347510 -0.002378544537350534959080361475 0 0 0 0 
2416000000.0000000000 0.158884882926940890213174384371 -0.061083346605300903320312500000 0.001169462339021265940425253760 -0.002204161603003739876988076318 0 0 0 0 
2416166666.6666665077 0.158094644546508789062500000000 -0.062812976539134979248046875000 0.001008549472317100004908896338 -0.002083773026242852210998535156 0 0 0 0 
2416333333.3333334923 0.157156884670257596114950615629 -0.064655363559722900390625000000 0.001016500173136591911315917969 -0.002042229287326335906982421875 0 0 0 0 
2416500000.0000000000 0.156100511550903292556924384371 -0.066539622843265533447265625000 0.000863714842125773429870605469 -0.001922118128277360959293984521 0 0 0 0 
2416666666.6666665077 0.155224263668060302734375000000 -0.068353712558746337890625000000 0.000589522649534046649932861328 -0.001892926637083292007446289062 0 0 0 0 
2416833333.3333334923 0.154498577117919894119424384371 -0.070372894406318664550781250000 0.000671535264700651168823242188 -0.001773709431290626959559775244 0 0 0 0 
2417000000.0000000000 0.153478547930717496017294365629 -0.072309501469135284423828125000 0.000478799542179331183433532715 -0.001523581682704389095306396484 0 0 0 0 
2417166666.6666665077 0.152858227491378811935263115629 -0.074165098369121551513671875000 0.000635264033917337656021118164 -0.001438273815438150925877236475 0 0 0 0 
2417333333.3333334923 0.152341321110725402832031250000 -0.076112605631351470947265625000 0.000616284552961587905883789062 -0.001286812825128436088562011719 0 0 0 0 
2417500000.0000000000 0.151703462004661587814169365629 -0.078135415911674499511718750000 0.000574871490243822336196899414 -0.001346174511127173900604248047 0 0 0 0 
2417666666.6666665077 0.151285663247108487228231865629 -0.079847469925880432128906250000 0.000650517817120999097824096680 -0.001337729976512491919873881763 0 0 0 0 
2417833333.3333334923 0.150737985968589810470419365629 -0.081743620336055755615234375000 0.000674492039252072572708129883 -0.001228275476023555018781352466 0 0 0 0 
2418000000.0000000000 0.150380998849868802169638115629 -0.083755083382129669189453125000 0.000670132576487958431243896484 -0.001043089432641864039777446216 0 0 0 0 
2418166666.6666665077 0.150022193789482088943643134371 -0.085131473839282989501953125000 0.000687853200361132621765136719 -0.001206862041726707978489541162 0 0 0 0 
2418333333.3333334923 0.150050118565559387207031250000 -0.087143726646900177001953125000 0.000693714711815118789672851562 -0.001208654954098165035247802734 0 0 0 0 
2418500000.0000000000 0.149732932448387201507244981258 -0.088621258735656738281250000000 0.000909777067136019468307495117 -0.001154735218733548901201557690 0 0 0 0 
2418666666.6666665077 0.149754568934440612792968750000 -0.090221285820007324218750000000 0.000749686732888221740722656250 -0.001311127794906497001647949219 0 0 0 0 
2418833333.3333334923 0.149435698986053494552450615629 -0.091644942760467529296875000000 0.000939623452723026275634765625 -0.001316085690632462935206747900 0 0 0 0 
2419000000.0000000000 0.149551779031753512283486884371 -0.092853710055351257324218750000 0.000951770052779465913772583008 -0.001364419702440500042558979565 0 0 0 0 
2419166666.6666665077 0.149620637297630310058593750000 -0.094089090824127197265625000000 0.000959861732553690671920776367 -0.001342413946986197991612099756 0 0 0 0 
2419333333.3333334923 0.149470180273056002517861884371 -0.095073878765106201171875000000 0.000870366697199642658233642578 -0.001382749178446829102159809644 0 0 0 0 
2419500000.0000000000 0.149755194783210809905682481258 -0.096223533153533935546875000000 0.000913897762075066566467285156 -0.001374481944367289976832724463 0 0 0 0 
2419666666.6666665077 0.150091677904129000564736884371 -0.097348585724830627441406250000 0.000839289161376655101776123047 -0.001456698984839021942735981519 0 0 0 0 
2419833333.3333334923 0.150117725133895901779013115629 -0.097819805145263671875000000000 0.000744501536246389150619506836 -0.001485408749431371905683207935 0 0 0 0 
