# Version 1.00
#
freq[Hz];re:Trc1_S11;im:Trc1_S11;re:Trc2_S21;im:Trc2_S21;
2.400000000000000E+009;1.553658992052078E-001;1.064923629164696E-001;3.410338191315532E-003;-7.568138185888529E-003;
2.400166666666667E+009;1.551075279712677E-001;1.040097698569298E-001;3.293892368674278E-003;-7.773053366690874E-003;
2.400333333333334E+009;1.552077233791351E-001;1.016063615679741E-001;3.054838394746184E-003;-8.075205609202385E-003;
2.400500000000000E+009;1.553024500608444E-001;9.895530343055725E-002;2.740289317443967E-003;-8.234304375946522E-003;
2.400666666666667E+009;1.551013737916946E-001;9.642849862575531E-002;2.573749981820583E-003;-8.393397554755211E-003;
2.400833333333334E+009;1.552947461605072E-001;9.324716031551361E-002;2.193705644458532E-003;-8.500497788190842E-003;
2.401000000000000E+009;1.554666459560394E-001;9.063878655433655E-002;1.879037590697408E-003;-8.688736706972122E-003;
2.401166666666667E+009;1.554824560880661E-001;8.779841661453247E-002;1.635033288039267E-003;-8.903190493583679E-003;
2.401333333333334E+009;1.558392494916916E-001;8.504419028759003E-002;1.063448842614889E-003;-8.954735472798348E-003;
2.401500000000000E+009;1.562530547380447E-001;8.230686187744141E-002;8.922994020394981E-004;-9.170365519821644E-003;
2.401666666666667E+009;1.564243584871292E-001;7.931995391845703E-002;5.133135709911585E-004;-9.208876639604569E-003;
2.401833333333334E+009;1.571204066276550E-001;7.670412957668304E-002;2.156200353056192E-004;-9.354122914373875E-003;
2.402000000000000E+009;1.581605523824692E-001;7.393694669008255E-002;-5.021558990847552E-006;-9.376256726682186E-003;
2.402166666666667E+009;1.589542329311371E-001;7.144454866647720E-002;-4.294846439734101E-004;-9.374417364597321E-003;
2.402333333333334E+009;1.597115099430084E-001;6.871047616004944E-002;-9.301438112743199E-004;-9.290264919400215E-003;
2.402500000000000E+009;1.610388159751892E-001;6.657947599887848E-002;-1.265041995793581E-003;-9.442569687962532E-003;
2.402666666666667E+009;1.621118187904358E-001;6.419384479522705E-002;-1.434678211808205E-003;-9.444700554013252E-003;
2.402833333333334E+009;1.634456664323807E-001;6.153073534369469E-002;-1.948824385181069E-003;-9.202216751873493E-003;
2.403000000000000E+009;1.647980958223343E-001;5.936761945486069E-002;-2.216957043856382E-003;-9.322095662355423E-003;
2.403166666666667E+009;1.666635125875473E-001;5.731231719255447E-002;-2.462049247696996E-003;-9.256772696971893E-003;
2.403333333333334E+009;1.678995490074158E-001;5.510077998042107E-002;-3.031698986887932E-003;-9.072261862456799E-003;
2.403500000000000E+009;1.696747243404388E-001;5.314571410417557E-002;-3.227035747841001E-003;-8.931491523981094E-003;
2.403666666666667E+009;1.714333742856979E-001;5.119436234235764E-002;-3.658840199932456E-003;-8.844192139804363E-003;
2.403833333333334E+009;1.730270981788635E-001;4.946155473589897E-002;-3.976522944867611E-003;-8.654949255287647E-003;
2.404000000000000E+009;1.745750755071640E-001;4.774660989642143E-002;-4.350897390395403E-003;-8.628895506262779E-003;
2.404166666666667E+009;1.762927025556564E-001;4.623861983418465E-002;-4.563460592180491E-003;-8.549889549612999E-003;
2.404333333333334E+009;1.778965741395950E-001;4.475496709346771E-002;-4.912473261356354E-003;-8.279998786747456E-003;
2.404500000000000E+009;1.794503331184387E-001;4.326271265745163E-002;-5.177525337785482E-003;-8.187434636056423E-003;
2.404666666666667E+009;1.811825931072235E-001;4.224751144647598E-002;-5.618186667561531E-003;-8.028715848922730E-003;
2.404833333333334E+009;1.828587502241135E-001;4.118571057915688E-002;-6.050786469131708E-003;-7.768510840833187E-003;
2.405000000000000E+009;1.839868873357773E-001;4.053670912981033E-002;-6.365344393998385E-003;-7.505021523684263E-003;
2.405166666666667E+009;1.856679469347000E-001;3.987987712025642E-002;-6.667183246463537E-003;-7.168810814619064E-003;
2.405333333333334E+009;1.870336383581162E-001;3.937372192740440E-002;-7.074501365423203E-003;-6.941082421690226E-003;
2.405500000000000E+009;1.882829517126083E-001;3.892480954527855E-002;-7.384908385574818E-003;-6.531511899083853E-003;
2.405666666666667E+009;1.894885152578354E-001;3.860482200980187E-002;-7.612551562488079E-003;-6.181398872286081E-003;
2.405833333333334E+009;1.907519996166229E-001;3.831309080123901E-002;-7.710689678788185E-003;-5.726838018745184E-003;
2.406000000000000E+009;1.916140913963318E-001;3.823380917310715E-002;-8.060303516685963E-003;-5.375391338020563E-003;
2.406166666666667E+009;1.926900744438171E-001;3.811943531036377E-002;-8.303853683173657E-003;-4.961939528584480E-003;
2.406333333333334E+009;1.934619843959808E-001;3.806152567267418E-002;-8.345981128513813E-003;-4.639194346964359E-003;
2.406500000000000E+009;1.941055059432983E-001;3.804390132427216E-002;-8.407667279243469E-003;-4.218979738652706E-003;
2.406666666666667E+009;1.947424262762070E-001;3.800959512591362E-002;-8.522633463144302E-003;-3.813977818936110E-003;
2.406833333333334E+009;1.953561156988144E-001;3.798256814479828E-002;-8.572451770305634E-003;-3.498273901641369E-003;
2.407000000000000E+009;1.955916732549667E-001;3.818541765213013E-002;-8.532946929335594E-003;-3.180391155183315E-003;
2.407166666666667E+009;1.960330754518509E-001;3.792268782854080E-002;-8.560745976865292E-003;-2.690412104129791E-003;
2.407333333333334E+009;1.959709078073502E-001;3.818345442414284E-002;-8.377224206924439E-003;-2.405056497082114E-003;
2.407500000000000E+009;1.958235204219818E-001;3.817528113722801E-002;-8.644566871225834E-003;-2.090220106765628E-003;
2.407666666666667E+009;1.958331465721130E-001;3.802986443042755E-002;-8.378144353628159E-003;-1.717719831503928E-003;
2.407833333333334E+009;1.953267455101013E-001;3.781892359256744E-002;-8.349252864718437E-003;-1.492060953751206E-003;
2.408000000000000E+009;1.953191757202148E-001;3.770582750439644E-002;-8.393960073590279E-003;-1.362210023216903E-003;
2.408166666666667E+009;1.946882307529450E-001;3.734067827463150E-002;-8.297942578792572E-003;-9.031302761286497E-004;
2.408333333333334E+009;1.943446099758148E-001;3.696475178003311E-002;-8.225126191973686E-003;-5.799860227853060E-004;
2.408500000000000E+009;1.935286223888397E-001;3.644194453954697E-002;-8.138433098793030E-003;-3.721425891853869E-004;
2.408666666666667E+009;1.928714364767075E-001;3.593900427222252E-002;-7.898636162281036E-003;-4.727555278805085E-005;
2.408833333333334E+009;1.923246085643768E-001;3.507570177316666E-002;-8.016876876354218E-003;2.452610060572624E-004;
2.409000000000000E+009;1.912578940391541E-001;3.414743766188622E-002;-7.709051016718149E-003;4.423318314366043E-004;
2.409166666666667E+009;1.904419958591461E-001;3.317251056432724E-002;-7.650356739759445E-003;6.364946602843702E-004;
2.409333333333334E+009;1.894923150539398E-001;3.221072629094124E-002;-7.553434930741787E-003;8.616140694357455E-004;
2.409500000000000E+009;1.883846223354340E-001;3.075965493917465E-002;-7.303407881408930E-003;9.249745635315776E-004;
2.409666666666667E+009;1.874698400497437E-001;2.942408993840218E-002;-7.263376843184233E-003;1.069917925633490E-003;
2.409833333333334E+009;1.863198131322861E-001;2.790142782032490E-002;-7.032069843262434E-003;1.269983709789813E-003;
2.410000000000000E+009;1.854529082775116E-001;2.625009976327419E-002;-6.877838168293238E-003;1.408835174515843E-003;
2.410166666666667E+009;1.844919770956039E-001;2.440115064382553E-002;-6.719998549669981E-003;1.509847934357822E-003;
2.410333333333334E+009;1.834432929754257E-001;2.275556884706020E-002;-6.635145284235477E-003;1.567878876812756E-003;
2.410500000000000E+009;1.826896816492081E-001;2.073935046792030E-002;-6.460880395025015E-003;1.651184400543571E-003;
2.410666666666667E+009;1.817167997360230E-001;1.849756017327309E-002;-6.434516515582800E-003;1.883317716419697E-003;
2.410833333333334E+009;1.811933517456055E-001;1.618948951363564E-002;-6.293740589171648E-003;1.778539735823870E-003;
2.411000000000000E+009;1.805653870105743E-001;1.413920521736145E-002;-6.056946702301502E-003;2.051620976999402E-003;
2.411166666666667E+009;1.797675043344498E-001;1.199146360158920E-002;-6.210351828485727E-003;2.135437214747071E-003;
2.411333333333334E+009;1.792075484991074E-001;9.365372359752655E-003;-5.975025705993176E-003;2.193787135183811E-003;
2.411500000000000E+009;1.787118613719940E-001;6.919400766491890E-003;-5.885062273591757E-003;2.312617842108011E-003;
2.411666666666667E+009;1.787384003400803E-001;4.808545112609863E-003;-5.823037121444941E-003;2.329803537577391E-003;
2.411833333333334E+009;1.784649193286896E-001;2.207661746069789E-003;-5.668141413480043E-003;2.418169984593988E-003;
2.412000000000000E+009;1.787781864404678E-001;-2.959831908810884E-004;-5.606858059763908E-003;2.339547965675592E-003;
2.412166666666667E+009;1.788286864757538E-001;-2.556998515501618E-003;-5.442797672003508E-003;2.539534587413073E-003;
2.412333333333334E+009;1.790971457958221E-001;-5.074768327176571E-003;-5.401796195656061E-003;2.525560092180967E-003;
2.412500000000000E+009;1.795288622379303E-001;-7.504754699766636E-003;-5.342525895684958E-003;2.626060508191586E-003;
2.412666666666667E+009;1.800995469093323E-001;-1.002081017941237E-002;-5.417916923761368E-003;2.616769401356578E-003;
2.412833333333334E+009;1.808693706989288E-001;-1.239555235952139E-002;-5.307228304445744E-003;2.666275482624769E-003;
2.413000000000000E+009;1.814230680465698E-001;-1.459613442420960E-002;-5.439413711428642E-003;2.648008754476905E-003;
2.413166666666667E+009;1.822065114974976E-001;-1.682122424244881E-002;-5.281962454319000E-003;2.855142578482628E-003;
2.413333333333334E+009;1.833508759737015E-001;-1.918241381645203E-002;-5.335035733878613E-003;3.124953014776111E-003;
2.413500000000000E+009;1.841293275356293E-001;-2.149818465113640E-002;-5.319629330188036E-003;3.232057206332684E-003;
2.413666666666667E+009;1.852356195449829E-001;-2.361740544438362E-002;-5.245287902653217E-003;3.149820491671562E-003;
2.413833333333334E+009;1.863987594842911E-001;-2.549807168543339E-002;-5.336611531674862E-003;3.430694108828902E-003;
2.414000000000000E+009;1.875563561916351E-001;-2.743258513510227E-002;-5.412848200649023E-003;3.504313761368394E-003;
2.414166666666667E+009;1.886833757162094E-001;-2.916706167161465E-002;-5.225646775215864E-003;3.858879674226046E-003;
2.414333333333334E+009;1.898063123226166E-001;-3.125316649675369E-002;-5.259305704385042E-003;3.919436596333981E-003;
2.414500000000000E+009;1.911286860704422E-001;-3.256106004118919E-002;-5.138379987329245E-003;4.190718289464712E-003;
2.414666666666667E+009;1.922146081924439E-001;-3.408509492874146E-002;-4.962520673871040E-003;4.313998389989138E-003;
2.414833333333334E+009;1.934542357921600E-001;-3.542831540107727E-002;-4.963880870491266E-003;4.463228397071362E-003;
2.415000000000000E+009;1.944686472415924E-001;-3.667787089943886E-002;-4.856825806200504E-003;4.457546863704920E-003;
2.415166666666667E+009;1.956991553306580E-001;-3.767171874642372E-002;-4.792174790054560E-003;4.726030863821507E-003;
2.415333333333334E+009;1.967886090278626E-001;-3.860570862889290E-002;-4.692160990089178E-003;4.779215436428785E-003;
2.415500000000000E+009;1.978598684072495E-001;-3.926715999841690E-002;-4.473201464861631E-003;4.989380948245525E-003;
2.415666666666667E+009;1.988557279109955E-001;-4.013375192880631E-002;-4.377696663141251E-003;5.168463569134474E-003;
2.415833333333334E+009;1.995952427387238E-001;-4.070705547928810E-002;-4.394460469484329E-003;5.329838022589684E-003;
2.416000000000000E+009;2.002983540296555E-001;-4.128883406519890E-002;-4.280915949493647E-003;5.580206401646137E-003;
2.416166666666667E+009;2.010297775268555E-001;-4.194008186459541E-002;-4.076565615832806E-003;5.794126074761152E-003;
2.416333333333334E+009;2.016129642724991E-001;-4.217935353517532E-002;-3.913947381079197E-003;5.885616876184940E-003;
2.416500000000000E+009;2.019671499729157E-001;-4.243187233805656E-002;-3.829683875665069E-003;6.134513765573502E-003;
2.416666666666667E+009;2.023178935050964E-001;-4.281908273696899E-002;-3.632900537922978E-003;6.335099693387747E-003;
2.416833333333334E+009;2.025019973516464E-001;-4.284538701176643E-002;-3.481327788904309E-003;6.481439806520939E-003;
2.417000000000000E+009;2.025505602359772E-001;-4.303271323442459E-002;-3.291921457275748E-003;6.763214711099863E-003;
2.417166666666667E+009;2.022131681442261E-001;-4.284051805734634E-002;-2.954554744064808E-003;6.857283879071474E-003;
2.417333333333334E+009;2.019926309585571E-001;-4.284506291151047E-002;-2.722167642787099E-003;6.941175088286400E-003;
2.417500000000000E+009;2.017046064138413E-001;-4.286367818713188E-002;-2.529605757445097E-003;6.904345937073231E-003;
2.417666666666667E+009;2.010470479726791E-001;-4.278937727212906E-002;-2.256046514958143E-003;7.141410838812590E-003;
2.417833333333334E+009;2.005807757377625E-001;-4.253910109400749E-002;-1.930331578478217E-003;7.122734561562538E-003;
2.418000000000000E+009;1.998663544654846E-001;-4.224850237369537E-002;-1.792366383597255E-003;7.282680366188288E-003;
2.418166666666667E+009;1.990661770105362E-001;-4.226969927549362E-002;-1.520011457614601E-003;7.208889350295067E-003;
2.418333333333334E+009;1.981156915426254E-001;-4.222161695361137E-002;-1.270811539143324E-003;7.455535233020783E-003;
2.418500000000000E+009;1.970226913690567E-001;-4.219674691557884E-002;-1.240377780050039E-003;7.482350803911686E-003;
2.418666666666667E+009;1.960976570844650E-001;-4.214487224817276E-002;-6.236551562324166E-004;7.481745444238186E-003;
2.418833333333334E+009;1.947849988937378E-001;-4.239094629883766E-002;-6.526972283609211E-004;7.384876720607281E-003;
2.419000000000000E+009;1.935575455427170E-001;-4.260228201746941E-002;-3.211991861462593E-004;7.573798298835754E-003;
2.419166666666667E+009;1.922815442085266E-001;-4.286456853151321E-002;-9.049567597685382E-005;7.426546420902014E-003;
2.419333333333334E+009;1.908226311206818E-001;-4.348274692893028E-002;2.473692002240568E-004;7.446115836501122E-003;
2.419500000000000E+009;1.893038600683212E-001;-4.382021352648735E-002;3.290016611572355E-004;7.543717510998249E-003;
2.419666666666667E+009;1.877278387546539E-001;-4.488950595259666E-002;6.609881529584527E-004;7.479562424123287E-003;
2.419833333333334E+009;1.861155182123184E-001;-4.547139629721642E-002;8.622012101113796E-004;7.494972553104162E-003;
2.420000000000000E+009;1.846568584442139E-001;-4.638049378991127E-002;1.164630171842873E-003;7.408116478472948E-003;
2.420166666666667E+009;1.830361187458038E-001;-4.720726236701012E-002;1.400215085595846E-003;7.581672631204128E-003;
2.420333333333334E+009;1.813678741455078E-001;-4.843653738498688E-002;1.697484520263970E-003;7.392806466668844E-003;
2.420500000000000E+009;1.795862317085266E-001;-4.984259232878685E-002;1.994885737076402E-003;7.265125401318073E-003;
2.420666666666667E+009;1.780518591403961E-001;-5.074094980955124E-002;2.348475856706500E-003;7.306348532438278E-003;
2.420833333333334E+009;1.764171570539475E-001;-5.234371870756149E-002;2.517053857445717E-003;7.200907915830612E-003;
2.421000000000000E+009;1.750478148460388E-001;-5.402334779500961E-002;2.730767475441098E-003;7.108682766556740E-003;
2.421166666666667E+009;1.736308783292770E-001;-5.566891655325890E-002;2.981059951707721E-003;6.801828742027283E-003;
2.421333333333334E+009;1.720337569713593E-001;-5.710198357701302E-002;3.287705127149820E-003;6.700464058667421E-003;
2.421500000000000E+009;1.706616729497910E-001;-5.903227254748344E-002;3.455864265561104E-003;6.577720865607262E-003;
2.421666666666667E+009;1.695189625024796E-001;-6.068649515509605E-002;3.742685541510582E-003;6.451277062296867E-003;
2.421833333333334E+009;1.683792769908905E-001;-6.267635524272919E-002;3.871344262734056E-003;6.238061003386974E-003;
2.422000000000000E+009;1.672895848751068E-001;-6.447576731443405E-002;3.960904199630022E-003;5.927065853029490E-003;
2.422166666666667E+009;1.665545403957367E-001;-6.649324297904968E-002;4.286658950150013E-003;5.721112247556448E-003;
2.422333333333334E+009;1.656615883111954E-001;-6.849069893360138E-002;4.293581470847130E-003;5.546566098928452E-003;
2.422500000000000E+009;1.648297905921936E-001;-7.037331163883209E-002;4.449327476322651E-003;5.316264461725950E-003;
2.422666666666667E+009;1.642527580261231E-001;-7.241818308830261E-002;4.480127245187759E-003;5.032588262110949E-003;
2.422833333333334E+009;1.637528091669083E-001;-7.451948523521423E-002;4.805460106581450E-003;4.921459127217531E-003;
2.423000000000000E+009;1.632322221994400E-001;-7.636856287717819E-002;4.761477932333946E-003;4.817714449018240E-003;
2.423166666666667E+009;1.628371626138687E-001;-7.813943177461624E-002;4.836099222302437E-003;4.724990576505661E-003;
2.423333333333334E+009;1.626883000135422E-001;-8.034332841634750E-002;4.887174814939499E-003;4.417608492076397E-003;
2.423500000000000E+009;1.625735014677048E-001;-8.205330371856690E-002;5.012844223529100E-003;4.202707670629025E-003;
2.423666666666667E+009;1.627582609653473E-001;-8.388461172580719E-002;5.187108181416988E-003;4.213468637317419E-003;
2.423833333333334E+009;1.625448167324066E-001;-8.566149324178696E-002;5.047645885497332E-003;3.941906616091728E-003;
2.424000000000000E+009;1.627460271120071E-001;-8.735246956348419E-002;5.182741675525904E-003;3.938023932278156E-003;
2.424166666666667E+009;1.626169234514237E-001;-8.879603445529938E-002;5.260459613054991E-003;3.783389460295439E-003;
2.424333333333334E+009;1.631060242652893E-001;-9.021467715501785E-002;5.318417679518461E-003;3.467542584985495E-003;
2.424500000000000E+009;1.634487211704254E-001;-9.200853854417801E-002;5.601814948022366E-003;3.127238480374217E-003;
2.424666666666667E+009;1.637105494737625E-001;-9.336166083812714E-002;5.597788374871016E-003;3.162158653140068E-003;
2.424833333333334E+009;1.640181988477707E-001;-9.454768151044846E-002;5.742194596678019E-003;2.766406396403909E-003;
2.425000000000000E+009;1.645236611366272E-001;-9.572111070156097E-002;5.687180440872908E-003;2.554300241172314E-003;
2.425166666666667E+009;1.650077253580093E-001;-9.673938900232315E-002;5.665477830916643E-003;2.437096787616611E-003;
2.425333333333334E+009;1.651179045438767E-001;-9.753290563821793E-002;5.646064877510071E-003;2.105116611346602E-003;
2.425500000000000E+009;1.656319946050644E-001;-9.856083989143372E-002;5.713148042559624E-003;2.034553792327642E-003;
2.425666666666667E+009;1.661115586757660E-001;-9.923031926155090E-002;5.840253084897995E-003;1.869890256784856E-003;
2.425833333333334E+009;1.662639826536179E-001;-1.000324785709381E-001;5.646429955959320E-003;1.635988825000823E-003;
2.426000000000000E+009;1.667191237211227E-001;-1.004791706800461E-001;5.646452307701111E-003;1.396203297190368E-003;
2.426166666666667E+009;1.671441197395325E-001;-1.008474528789520E-001;5.635309033095837E-003;1.152200973592699E-003;
2.426333333333334E+009;1.671671420335770E-001;-1.014005988836289E-001;5.436567123979330E-003;1.125236041843891E-003;
2.426500000000000E+009;1.675675809383392E-001;-1.016471534967423E-001;5.431626923382282E-003;1.084102666936815E-003;
2.426666666666667E+009;1.678503602743149E-001;-1.019626408815384E-001;5.359311588108540E-003;8.610158693045378E-004;
2.426833333333334E+009;1.680810749530792E-001;-1.022801175713539E-001;5.417473614215851E-003;6.872054655104876E-004;
2.427000000000000E+009;1.679430454969406E-001;-1.023004651069641E-001;5.510476883500814E-003;6.576225277967751E-004;
2.427166666666667E+009;1.680222600698471E-001;-1.024704426527023E-001;5.321481730788946E-003;3.766760637518019E-004;
2.427333333333334E+009;1.679078787565231E-001;-1.027076393365860E-001;5.253260955214500E-003;3.153708239551634E-004;
2.427500000000000E+009;1.676315069198608E-001;-1.029466316103935E-001;5.244656931608915E-003;2.364280808251351E-004;
2.427666666666667E+009;1.673063933849335E-001;-1.029444038867950E-001;5.267510190606117E-003;1.980184606509283E-004;
2.427833333333334E+009;1.669326871633530E-001;-1.030755639076233E-001;5.218307487666607E-003;1.043825031956658E-004;
