# Version 1.00
#
freq[Hz];re:Trc1_S11;im:Trc1_S11;re:Trc2_S21;im:Trc2_S21;
2.400000000000000E+009;1.552815288305283E-001;1.064660325646401E-001;3.458482213318348E-003;-7.504946552217007E-003;
2.400166666666667E+009;1.549670249223709E-001;1.039472818374634E-001;3.286502556875348E-003;-7.724008988589048E-003;
2.400333333333334E+009;1.551457047462463E-001;1.015604361891747E-001;2.971092239022255E-003;-8.004331029951572E-003;
2.400500000000000E+009;1.550488620996475E-001;9.884334355592728E-002;2.780826296657324E-003;-8.282473310828209E-003;
2.400666666666667E+009;1.551759243011475E-001;9.629205614328384E-002;2.533789491280913E-003;-8.452385663986206E-003;
2.400833333333334E+009;1.552394628524780E-001;9.349162131547928E-002;2.100299345329404E-003;-8.532259613275528E-003;
2.401000000000000E+009;1.554395854473114E-001;9.046974778175354E-002;1.824559178203344E-003;-8.821026422083378E-003;
2.401166666666667E+009;1.554471999406815E-001;8.783167600631714E-002;1.577769056893885E-003;-8.820886723697186E-003;
2.401333333333334E+009;1.558725535869598E-001;8.500748127698898E-002;1.374049577862024E-003;-9.128539822995663E-003;
2.401500000000000E+009;1.563112139701843E-001;8.212769031524658E-002;9.155006264336407E-004;-9.173154830932617E-003;
2.401666666666667E+009;1.567222625017166E-001;7.926084101200104E-002;5.502392305061221E-004;-9.099327027797699E-003;
2.401833333333334E+009;1.571390926837921E-001;7.663440704345703E-002;2.281530323671177E-004;-9.276232682168484E-003;
2.402000000000000E+009;1.581875085830689E-001;7.400659471750259E-002;-9.360533294966444E-005;-9.229892864823341E-003;
2.402166666666667E+009;1.588769555091858E-001;7.150012254714966E-002;-4.694051167462021E-004;-9.328410960733891E-003;
2.402333333333334E+009;1.597885489463806E-001;6.886691600084305E-002;-9.306934080086649E-004;-9.369080886244774E-003;
2.402500000000000E+009;1.611067950725555E-001;6.620766222476959E-002;-1.238745520822704E-003;-9.359956718981266E-003;
2.402666666666667E+009;1.621592491865158E-001;6.395790725946426E-002;-1.459285500459373E-003;-9.401916526257992E-003;
2.402833333333334E+009;1.635878682136536E-001;6.163858249783516E-002;-1.830442110076547E-003;-9.202445857226849E-003;
2.403000000000000E+009;1.648736149072647E-001;5.943989008665085E-002;-2.121642697602511E-003;-9.133545681834221E-003;
2.403166666666667E+009;1.666267365217209E-001;5.719811841845512E-002;-2.703963313251734E-003;-9.131902828812599E-003;
2.403333333333334E+009;1.680401414632797E-001;5.495437979698181E-002;-2.901473082602024E-003;-8.982982486486435E-003;
2.403500000000000E+009;1.697165071964264E-001;5.312474444508553E-002;-3.226259956136346E-003;-8.883865550160408E-003;
2.403666666666667E+009;1.715625226497650E-001;5.110960826277733E-002;-3.683817805722356E-003;-8.570794016122818E-003;
2.403833333333334E+009;1.731166094541550E-001;4.927450418472290E-002;-3.905744990333915E-003;-8.691868744790554E-003;
2.404000000000000E+009;1.747499853372574E-001;4.767134785652161E-002;-4.318425431847572E-003;-8.573000319302082E-003;
2.404166666666667E+009;1.764770448207855E-001;4.615287482738495E-002;-4.659718833863735E-003;-8.419397287070751E-003;
2.404333333333334E+009;1.779700964689255E-001;4.476947709918022E-002;-4.949987865984440E-003;-8.230963721871376E-003;
2.404500000000000E+009;1.796707063913345E-001;4.334356263279915E-002;-5.278797820210457E-003;-8.110656403005123E-003;
2.404666666666667E+009;1.813016533851624E-001;4.223454743623734E-002;-5.750728771090508E-003;-7.982964627444744E-003;
2.404833333333334E+009;1.828347593545914E-001;4.141343012452126E-002;-6.021402310580015E-003;-7.685959339141846E-003;
2.405000000000000E+009;1.840817779302597E-001;4.071211814880371E-002;-6.461495999246836E-003;-7.426726166158915E-003;
2.405166666666667E+009;1.855151504278183E-001;3.977303579449654E-002;-6.791281048208475E-003;-7.282032165676355E-003;
2.405333333333334E+009;1.869400143623352E-001;3.938747942447662E-002;-7.053037639707327E-003;-6.990886759012938E-003;
2.405500000000000E+009;1.882289797067642E-001;3.892235457897186E-002;-7.269196677953005E-003;-6.539733614772558E-003;
2.405666666666667E+009;1.894771754741669E-001;3.857445344328880E-002;-7.721037138253450E-003;-6.051546428352594E-003;
2.405833333333334E+009;1.906493306159973E-001;3.835109248757362E-002;-7.934599183499813E-003;-5.803889594972134E-003;
2.406000000000000E+009;1.916151940822601E-001;3.805048391222954E-002;-8.126224391162396E-003;-5.384626798331738E-003;
2.406166666666667E+009;1.925525665283203E-001;3.800975531339645E-002;-8.290220983326435E-003;-4.926592111587524E-003;
2.406333333333334E+009;1.935372203588486E-001;3.796764090657234E-002;-8.337203413248062E-003;-4.562572576105595E-003;
2.406500000000000E+009;1.941175907850266E-001;3.799179941415787E-002;-8.444747887551785E-003;-4.201855976134539E-003;
2.406666666666667E+009;1.947443634271622E-001;3.813862055540085E-002;-8.545128628611565E-003;-3.813406452536583E-003;
2.406833333333334E+009;1.952977031469345E-001;3.801339864730835E-002;-8.525142446160317E-003;-3.233041847124696E-003;
2.407000000000000E+009;1.955960541963577E-001;3.832815960049629E-002;-8.496699854731560E-003;-3.027130849659443E-003;
2.407166666666667E+009;1.959297209978104E-001;3.807683661580086E-002;-8.515783585608006E-003;-2.530736383050680E-003;
2.407333333333334E+009;1.957787424325943E-001;3.821286186575890E-002;-8.446939289569855E-003;-2.437918912619352E-003;
2.407500000000000E+009;1.959037929773331E-001;3.819427639245987E-002;-8.462570607662201E-003;-2.064806409180164E-003;
2.407666666666667E+009;1.957298070192337E-001;3.821152821183205E-002;-8.457592688500881E-003;-1.726453076116741E-003;
2.407833333333334E+009;1.954114437103272E-001;3.794709965586662E-002;-8.478664793074131E-003;-1.494808238931000E-003;
2.408000000000000E+009;1.951457262039185E-001;3.775940090417862E-002;-8.276401087641716E-003;-1.156529178842902E-003;
2.408166666666667E+009;1.945969760417938E-001;3.746396303176880E-002;-8.257910609245300E-003;-8.887347648851574E-004;
2.408333333333334E+009;1.942300200462341E-001;3.698284924030304E-002;-8.308344520628452E-003;-4.871745477430522E-004;
2.408500000000000E+009;1.934605091810226E-001;3.651090711355209E-002;-8.168367668986321E-003;-3.524760832078755E-004;
2.408666666666667E+009;1.928546130657196E-001;3.593420982360840E-002;-7.991902530193329E-003;6.329661118797958E-005;
2.408833333333334E+009;1.923290193080902E-001;3.504912182688713E-002;-7.920402102172375E-003;2.144943573512137E-004;
2.409000000000000E+009;1.913425773382187E-001;3.417661413550377E-002;-7.721179630607367E-003;4.816518339794129E-004;
2.409166666666667E+009;1.903806179761887E-001;3.309711441397667E-002;-7.607338950037956E-003;6.383252912200987E-004;
2.409333333333334E+009;1.895128935575485E-001;3.221051022410393E-002;-7.289434783160687E-003;9.035088587552309E-004;
2.409500000000000E+009;1.882955133914948E-001;3.074183873832226E-002;-7.279946003109217E-003;9.805023437365890E-004;
2.409666666666667E+009;1.872721761465073E-001;2.951603569090366E-002;-7.127453573048115E-003;1.137870596721768E-003;
2.409833333333334E+009;1.864581108093262E-001;2.796909585595131E-002;-6.903673056513071E-003;1.298499759286642E-003;
2.410000000000000E+009;1.854193508625031E-001;2.619643881917000E-002;-6.817587185651064E-003;1.480040955357254E-003;
2.410166666666667E+009;1.844058483839035E-001;2.431215159595013E-002;-6.728451699018478E-003;1.519061275757849E-003;
2.410333333333334E+009;1.835406720638275E-001;2.252686955034733E-002;-6.694098468869925E-003;1.687944517470896E-003;
2.410500000000000E+009;1.825375854969025E-001;2.061825431883335E-002;-6.581566762179136E-003;1.669256947934628E-003;
2.410666666666667E+009;1.816116869449616E-001;1.827042177319527E-002;-6.259286776185036E-003;1.727301743812859E-003;
2.410833333333334E+009;1.810966581106186E-001;1.608176343142986E-002;-6.399980280548334E-003;1.971650635823607E-003;
2.411000000000000E+009;1.802828460931778E-001;1.400094479322434E-002;-6.261628586798906E-003;1.974274637177587E-003;
2.411166666666667E+009;1.798064112663269E-001;1.187376584857702E-002;-6.189357489347458E-003;2.124653896316886E-003;
2.411333333333334E+009;1.792563199996948E-001;9.314497932791710E-003;-6.098710000514984E-003;2.214056206867099E-003;
2.411500000000000E+009;1.787731647491455E-001;6.911088712513447E-003;-5.960167385637760E-003;2.295892452821136E-003;
2.411666666666667E+009;1.788215637207031E-001;4.492273554205895E-003;-5.761723034083843E-003;2.325338777154684E-003;
2.411833333333334E+009;1.783692985773087E-001;2.158972667530179E-003;-5.762828048318625E-003;2.488498575985432E-003;
2.412000000000000E+009;1.786363273859024E-001;-2.478438545949757E-004;-5.589451175183058E-003;2.429186832159758E-003;
2.412166666666667E+009;1.789299398660660E-001;-2.689605811610818E-003;-5.355907138437033E-003;2.498836023733020E-003;
2.412333333333334E+009;1.788746565580368E-001;-5.115407984703779E-003;-5.422032438218594E-003;2.477254951372743E-003;
2.412500000000000E+009;1.794497221708298E-001;-7.644704543054104E-003;-5.514847114682198E-003;2.637194469571114E-003;
2.412666666666667E+009;1.799241006374359E-001;-1.014400646090508E-002;-5.386077798902988E-003;2.596961800009012E-003;
2.412833333333334E+009;1.807686090469360E-001;-1.248918753117323E-002;-5.337742622941732E-003;2.696935553103685E-003;
2.413000000000000E+009;1.813775599002838E-001;-1.451100409030914E-002;-5.332408472895622E-003;2.752811415120959E-003;
2.413166666666667E+009;1.821728497743607E-001;-1.694338582456112E-002;-5.423971451818943E-003;2.923423191532493E-003;
2.413333333333334E+009;1.832436770200729E-001;-1.918385550379753E-002;-5.341575015336275E-003;3.021826967597008E-003;
2.413500000000000E+009;1.840178668498993E-001;-2.148686349391937E-002;-5.396896041929722E-003;3.028996987268329E-003;
2.413666666666667E+009;1.852622330188751E-001;-2.352016977965832E-002;-5.345548037439585E-003;3.235821612179279E-003;
2.413833333333334E+009;1.863445639610291E-001;-2.543864026665688E-002;-5.523637868463993E-003;3.325422527268529E-003;
2.414000000000000E+009;1.874011904001236E-001;-2.733255364000797E-002;-5.391295533627272E-003;3.669390454888344E-003;
2.414166666666667E+009;1.888087540864945E-001;-2.920803055167198E-002;-5.215107463300228E-003;3.845743369311094E-003;
2.414333333333334E+009;1.897645443677902E-001;-3.115864843130112E-002;-5.114829633384943E-003;4.072253592312336E-003;
2.414500000000000E+009;1.909906417131424E-001;-3.259288519620895E-002;-5.104755982756615E-003;4.213442560285330E-003;
2.414666666666667E+009;1.921195834875107E-001;-3.414125740528107E-002;-5.020499695092440E-003;4.147501662373543E-003;
2.414833333333334E+009;1.933629065752029E-001;-3.542038053274155E-002;-5.039875395596027E-003;4.405833780765533E-003;
2.415000000000000E+009;1.944453418254852E-001;-3.672394156455994E-002;-4.796437453478575E-003;4.573097918182612E-003;
2.415166666666667E+009;1.956745088100433E-001;-3.781836852431297E-002;-4.721090197563171E-003;4.646517802029848E-003;
2.415333333333334E+009;1.967114210128784E-001;-3.864438459277153E-002;-4.692482296377420E-003;4.919532686471939E-003;
2.415500000000000E+009;1.978172510862351E-001;-3.933080285787582E-002;-4.422650206834078E-003;5.092189647257328E-003;
2.415666666666667E+009;1.987345665693283E-001;-4.023589566349983E-002;-4.456336610019207E-003;5.211526993662119E-003;
2.415833333333334E+009;1.995501965284348E-001;-4.080178961157799E-002;-4.313053563237190E-003;5.395747255533934E-003;
2.416000000000000E+009;2.003453522920609E-001;-4.133361205458641E-002;-4.267704207450151E-003;5.567704793065786E-003;
2.416166666666667E+009;2.009581774473190E-001;-4.191165417432785E-002;-4.147182218730450E-003;5.683181341737509E-003;
2.416333333333334E+009;2.016605585813522E-001;-4.213204607367516E-002;-3.971969243139029E-003;6.019866559654474E-003;
2.416500000000000E+009;2.020154297351837E-001;-4.244617372751236E-002;-3.825079882517457E-003;6.039292551577091E-003;
2.416666666666667E+009;2.022586911916733E-001;-4.283407330513001E-002;-3.598945215344429E-003;6.405219435691834E-003;
2.416833333333334E+009;2.024020999670029E-001;-4.277583211660385E-002;-3.502806182950735E-003;6.539547815918922E-003;
2.417000000000000E+009;2.025283277034760E-001;-4.303786531090736E-002;-3.312417306005955E-003;6.553599610924721E-003;
2.417166666666667E+009;2.022818773984909E-001;-4.292660206556320E-002;-2.963521517813206E-003;6.800368893891573E-003;
2.417333333333334E+009;2.019835859537125E-001;-4.275222122669220E-002;-2.647560322657228E-003;6.815496832132340E-003;
2.417500000000000E+009;2.016692608594894E-001;-4.279047995805740E-002;-2.486042445525527E-003;7.051215972751379E-003;
2.417666666666667E+009;2.010563015937805E-001;-4.266084358096123E-002;-2.127266954630613E-003;7.198949810117483E-003;
2.417833333333334E+009;2.005349248647690E-001;-4.250483214855194E-002;-2.103874227032065E-003;7.216767873615027E-003;
2.418000000000000E+009;1.998849958181381E-001;-4.231793433427811E-002;-1.894891611300409E-003;7.334822323173285E-003;
2.418166666666667E+009;1.991170793771744E-001;-4.222419112920761E-002;-1.478575752116740E-003;7.250469177961350E-003;
2.418333333333334E+009;1.980666518211365E-001;-4.210302233695984E-002;-1.233019749633968E-003;7.296926807612181E-003;
2.418500000000000E+009;1.971506476402283E-001;-4.220150411128998E-002;-1.058469642885029E-003;7.294514216482639E-003;
2.418666666666667E+009;1.961044669151306E-001;-4.219595342874527E-002;-8.547297329641879E-004;7.411826867610216E-003;
2.418833333333334E+009;1.948732584714890E-001;-4.233018308877945E-002;-5.375392502173781E-004;7.428074721246958E-003;
2.419000000000000E+009;1.935850828886032E-001;-4.257566481828690E-002;-3.566843806765974E-004;7.403165102005005E-003;
2.419166666666667E+009;1.921572387218475E-001;-4.282167181372643E-002;-4.308630741434172E-005;7.398447953164578E-003;
2.419333333333334E+009;1.908809393644333E-001;-4.337868839502335E-002;1.563736150274053E-004;7.543450221419334E-003;
2.419500000000000E+009;1.893254816532135E-001;-4.385202005505562E-002;3.479071892797947E-004;7.457622792571783E-003;
2.419666666666667E+009;1.877184510231018E-001;-4.467948526144028E-002;5.995142855681479E-004;7.648243568837643E-003;
2.419833333333334E+009;1.862371265888214E-001;-4.545646160840988E-002;1.007594401016831E-003;7.471197284758091E-003;
2.420000000000000E+009;1.846394091844559E-001;-4.631524160504341E-002;1.150046475231648E-003;7.522075437009335E-003;
2.420166666666667E+009;1.829226911067963E-001;-4.734934493899345E-002;1.195536926388741E-003;7.312157656997442E-003;
2.420333333333334E+009;1.813683062791824E-001;-4.846689850091934E-002;1.804814906790853E-003;7.464594207704067E-003;
2.420500000000000E+009;1.796453148126602E-001;-4.981556534767151E-002;2.161033684387803E-003;7.362370379269123E-003;
2.420666666666667E+009;1.780029982328415E-001;-5.098519846796989E-002;2.141211181879044E-003;7.313710171729326E-003;
2.420833333333334E+009;1.764802038669586E-001;-5.231448262929916E-002;2.482781186699867E-003;7.148723583668470E-003;
2.421000000000000E+009;1.750969886779785E-001;-5.384998768568039E-002;2.851934637874365E-003;7.105966564267874E-003;
2.421166666666667E+009;1.736260801553726E-001;-5.563606694340706E-002;3.115072380751371E-003;6.947383284568787E-003;
2.421333333333334E+009;1.719785034656525E-001;-5.712811276316643E-002;3.255856921896339E-003;6.803520489484072E-003;
2.421500000000000E+009;1.707462519407272E-001;-5.893876403570175E-002;3.512388328090310E-003;6.603957153856754E-003;
2.421666666666667E+009;1.696771234273911E-001;-6.078148260712624E-002;3.617317881435156E-003;6.421972531825304E-003;
2.421833333333334E+009;1.683410257101059E-001;-6.261792033910751E-002;3.881637705489993E-003;6.193567998707295E-003;
2.422000000000000E+009;1.674263775348663E-001;-6.434024125337601E-002;4.011213313788176E-003;5.918613635003567E-003;
2.422166666666667E+009;1.666211038827896E-001;-6.655552983283997E-002;4.283209331333637E-003;5.750175099819899E-003;
2.422333333333334E+009;1.655297577381134E-001;-6.863396614789963E-002;4.422191996127367E-003;5.597422830760479E-003;
2.422500000000000E+009;1.648344248533249E-001;-7.046439498662949E-002;4.532981198281050E-003;5.217868369072676E-003;
2.422666666666667E+009;1.642336398363113E-001;-7.231987267732620E-002;4.650169052183628E-003;5.162572488188744E-003;
2.422833333333334E+009;1.638354212045670E-001;-7.445267587900162E-002;4.682998638600111E-003;4.863908514380455E-003;
2.423000000000000E+009;1.633946150541306E-001;-7.642300426959992E-002;4.704162012785673E-003;4.837237298488617E-003;
2.423166666666667E+009;1.628235876560211E-001;-7.820940762758255E-002;4.917348735034466E-003;4.740172997117043E-003;
2.423333333333334E+009;1.626339554786682E-001;-8.023432642221451E-002;4.903524648398161E-003;4.405408632010222E-003;
2.423500000000000E+009;1.626080721616745E-001;-8.205121755599976E-002;4.990017041563988E-003;4.356400575488806E-003;
2.423666666666667E+009;1.625674664974213E-001;-8.393909037113190E-002;5.058783106505871E-003;4.207938443869352E-003;
2.423833333333334E+009;1.624865382909775E-001;-8.555500209331513E-002;5.161406937986612E-003;3.954594489187002E-003;
2.424000000000000E+009;1.626904457807541E-001;-8.725319057703018E-002;5.285082384943962E-003;3.730111755430698E-003;
2.424166666666667E+009;1.627104282379150E-001;-8.887977153062820E-002;5.381186958402395E-003;3.576784161850810E-003;
2.424333333333334E+009;1.632151454687119E-001;-9.030596911907196E-002;5.394683219492436E-003;3.454434685409069E-003;
2.424500000000000E+009;1.633701920509338E-001;-9.200590848922730E-002;5.520376376807690E-003;3.420945024117827E-003;
2.424666666666667E+009;1.635927706956863E-001;-9.325709939002991E-002;5.506497807800770E-003;3.116988344117999E-003;
2.424833333333334E+009;1.640789359807968E-001;-9.449147433042526E-002;5.542748142033815E-003;2.921929117292166E-003;
2.425000000000000E+009;1.646357029676437E-001;-9.560800343751907E-002;5.783287808299065E-003;2.623815555125475E-003;
2.425166666666667E+009;1.648166924715042E-001;-9.673576802015305E-002;5.780159495770931E-003;2.335422439500690E-003;
2.425333333333334E+009;1.651688963174820E-001;-9.758627414703369E-002;5.629657767713070E-003;2.152513479813933E-003;
2.425500000000000E+009;1.656456887722015E-001;-9.857548773288727E-002;5.818254314363003E-003;1.968046650290489E-003;
2.425666666666667E+009;1.660138666629791E-001;-9.917624294757843E-002;5.703506059944630E-003;1.763645792379975E-003;
2.425833333333334E+009;1.662149876356125E-001;-9.992062300443649E-002;5.663632880896330E-003;1.570556079968810E-003;
2.426000000000000E+009;1.667562574148178E-001;-1.003612726926804E-001;5.582776851952076E-003;1.524813706055284E-003;
2.426166666666667E+009;1.670948714017868E-001;-1.008650362491608E-001;5.501587875187397E-003;1.277907984331250E-003;
2.426333333333334E+009;1.671422421932221E-001;-1.013635769486427E-001;5.424829665571451E-003;1.151646953076124E-003;
2.426500000000000E+009;1.675473451614380E-001;-1.015713587403297E-001;5.476321559399366E-003;1.071550301276147E-003;
2.426666666666667E+009;1.677397638559341E-001;-1.018246188759804E-001;5.408349446952343E-003;8.846904383972287E-004;
2.426833333333334E+009;1.680324524641037E-001;-1.021384820342064E-001;5.384280811995268E-003;9.740630630403757E-004;
2.427000000000000E+009;1.679456681013107E-001;-1.024215742945671E-001;5.323722027242184E-003;6.143020000308752E-004;
2.427166666666667E+009;1.679500341415405E-001;-1.025586649775505E-001;5.335657857358456E-003;6.171022541821003E-004;
2.427333333333334E+009;1.678824424743652E-001;-1.026588082313538E-001;5.291761830449104E-003;4.409582179505378E-004;
2.427500000000000E+009;1.676888465881348E-001;-1.029145047068596E-001;5.315493326634169E-003;3.069619706366211E-004;
2.427666666666667E+009;1.672861576080322E-001;-1.030080765485764E-001;5.227152258157730E-003;2.639216545503587E-004;
2.427833333333334E+009;1.670015752315521E-001;-1.030867546796799E-001;5.106768570840359E-003;1.048141639330424E-004;
