# Version 1.00
#
freq[Hz];re:Trc1_S11;im:Trc1_S11;re:Trc2_S21;im:Trc2_S21;
2.400000000000000E+009;1.551437675952911E-001;1.064811497926712E-001;3.465561196208000E-003;-7.384351920336485E-003;
2.400166666666667E+009;1.548904627561569E-001;1.038359552621841E-001;3.214513417333365E-003;-7.718201261013746E-003;
2.400333333333334E+009;1.549765020608902E-001;1.015367209911346E-001;2.977641765028238E-003;-8.043752983212471E-003;
2.400500000000000E+009;1.551431715488434E-001;9.879198670387268E-002;2.623766660690308E-003;-8.105920627713203E-003;
2.400666666666667E+009;1.553050279617310E-001;9.626030921936035E-002;2.466337988153100E-003;-8.282004855573177E-003;
2.400833333333334E+009;1.552695035934448E-001;9.345372766256332E-002;2.153591252863407E-003;-8.593217469751835E-003;
2.401000000000000E+009;1.555076986551285E-001;9.055371582508087E-002;1.889532664790750E-003;-8.801329880952835E-003;
2.401166666666667E+009;1.553938239812851E-001;8.788905292749405E-002;1.615218818187714E-003;-8.813660591840744E-003;
2.401333333333334E+009;1.557900160551071E-001;8.514497429132462E-002;1.335763372480869E-003;-9.020579978823662E-003;
2.401500000000000E+009;1.563646197319031E-001;8.213933557271957E-002;8.314120932482183E-004;-9.099903516471386E-003;
2.401666666666667E+009;1.565445363521576E-001;7.950041443109512E-002;5.370475701056421E-004;-9.261750616133213E-003;
2.401833333333334E+009;1.571958512067795E-001;7.670208066701889E-002;4.131247624172829E-005;-9.334285743534565E-003;
2.402000000000000E+009;1.579777747392654E-001;7.390701770782471E-002;-1.602105621714145E-004;-9.281588718295097E-003;
2.402166666666667E+009;1.587236374616623E-001;7.143577933311462E-002;-5.362099036574364E-004;-9.356858208775520E-003;
2.402333333333334E+009;1.598636955022812E-001;6.896746158599854E-002;-7.491926080547273E-004;-9.404054842889309E-003;
2.402500000000000E+009;1.609260588884354E-001;6.633762270212174E-002;-1.083539333194494E-003;-9.352611377835274E-003;
2.402666666666667E+009;1.620567142963409E-001;6.412143260240555E-002;-1.543710590340197E-003;-9.402223862707615E-003;
2.402833333333334E+009;1.634624004364014E-001;6.157323345541954E-002;-1.967849209904671E-003;-9.299923665821552E-003;
2.403000000000000E+009;1.648522317409515E-001;5.940328538417816E-002;-2.344549167901278E-003;-9.231206960976124E-003;
2.403166666666667E+009;1.666360497474670E-001;5.718320980668068E-002;-2.593582030385733E-003;-9.165299125015736E-003;
2.403333333333334E+009;1.678874939680100E-001;5.499912053346634E-002;-2.912108786404133E-003;-9.015921503305435E-003;
2.403500000000000E+009;1.697048842906952E-001;5.299414321780205E-002;-3.273866372182965E-003;-8.912162855267525E-003;
2.403666666666667E+009;1.715404689311981E-001;5.132794752717018E-002;-3.691477468237281E-003;-8.896647952497006E-003;
2.403833333333334E+009;1.730263233184815E-001;4.938387125730515E-002;-4.013046156615019E-003;-8.706586435437203E-003;
2.404000000000000E+009;1.745371520519257E-001;4.773122444748879E-002;-4.414884373545647E-003;-8.650853298604488E-003;
2.404166666666667E+009;1.763180643320084E-001;4.620547592639923E-002;-4.653671756386757E-003;-8.656410500407219E-003;
2.404333333333334E+009;1.779443621635437E-001;4.462505877017975E-002;-4.864596761763096E-003;-8.309674449265003E-003;
2.404500000000000E+009;1.796368360519409E-001;4.337518662214279E-002;-5.318142939358950E-003;-8.202617056667805E-003;
2.404666666666667E+009;1.812663674354553E-001;4.235775768756867E-002;-5.590812303125858E-003;-7.944793440401554E-003;
2.404833333333334E+009;1.827671229839325E-001;4.111178964376450E-002;-6.157137919217348E-003;-7.634209003299475E-003;
2.405000000000000E+009;1.841257214546204E-001;4.051351547241211E-002;-6.468734703958035E-003;-7.505788933485746E-003;
2.405166666666667E+009;1.854980140924454E-001;3.993203863501549E-002;-6.673870608210564E-003;-7.278552278876305E-003;
2.405333333333334E+009;1.868669092655182E-001;3.939988464117050E-002;-7.026495411992073E-003;-6.837574765086174E-003;
2.405500000000000E+009;1.883845180273056E-001;3.879808634519577E-002;-7.318194955587387E-003;-6.445273756980896E-003;
2.405666666666667E+009;1.895166337490082E-001;3.848727419972420E-002;-7.548305671662092E-003;-6.054797675460577E-003;
2.405833333333334E+009;1.908124685287476E-001;3.818836808204651E-002;-7.816530764102936E-003;-5.762340035289526E-003;
2.406000000000000E+009;1.917710900306702E-001;3.810227289795876E-002;-8.086967281997204E-003;-5.409638397395611E-003;
2.406166666666667E+009;1.925329715013504E-001;3.789370134472847E-002;-8.186885155737400E-003;-5.136401392519474E-003;
2.406333333333334E+009;1.936066299676895E-001;3.792650997638702E-002;-8.267561905086041E-003;-4.614635370671749E-003;
2.406500000000000E+009;1.943277567625046E-001;3.803200274705887E-002;-8.443848229944706E-003;-4.217976238578558E-003;
2.406666666666667E+009;1.948103457689285E-001;3.806449100375176E-002;-8.423276245594025E-003;-3.785783657804132E-003;
2.406833333333334E+009;1.954177767038345E-001;3.795814514160156E-002;-8.576751686632633E-003;-3.304803976789117E-003;
2.407000000000000E+009;1.956437230110169E-001;3.832150250673294E-002;-8.578726090490818E-003;-3.149175317957997E-003;
2.407166666666667E+009;1.958464980125427E-001;3.795216977596283E-002;-8.493522182106972E-003;-2.717468654736877E-003;
2.407333333333334E+009;1.959489732980728E-001;3.819257020950317E-002;-8.461432531476021E-003;-2.399185439571738E-003;
2.407500000000000E+009;1.959423869848251E-001;3.825334087014198E-002;-8.308384567499161E-003;-2.108510583639145E-003;
2.407666666666667E+009;1.958951801061630E-001;3.815789520740509E-002;-8.365978486835957E-003;-1.804230036213994E-003;
2.407833333333334E+009;1.953766942024231E-001;3.809311240911484E-002;-8.368707261979580E-003;-1.501882681623101E-003;
2.408000000000000E+009;1.952793747186661E-001;3.782745450735092E-002;-8.340017870068550E-003;-1.263511949218810E-003;
2.408166666666667E+009;1.947120428085327E-001;3.741273656487465E-002;-8.334298618137837E-003;-8.256339351646602E-004;
2.408333333333334E+009;1.942631155252457E-001;3.683051094412804E-002;-8.229222148656845E-003;-5.721055786125362E-004;
2.408500000000000E+009;1.935965120792389E-001;3.641637787222862E-002;-8.094131015241146E-003;-3.762853448279202E-004;
2.408666666666667E+009;1.929833143949509E-001;3.595770150423050E-002;-8.114386349916458E-003;-1.222046830662293E-005;
2.408833333333334E+009;1.923202872276306E-001;3.513530641794205E-002;-7.893467321991921E-003;1.554933842271566E-004;
2.409000000000000E+009;1.912264376878738E-001;3.413526713848114E-002;-7.716845721006393E-003;4.705514293164015E-004;
2.409166666666667E+009;1.903549730777741E-001;3.323748707771301E-002;-7.631963584572077E-003;6.478285649791360E-004;
2.409333333333334E+009;1.895663142204285E-001;3.217640146613121E-002;-7.387731224298477E-003;7.790023228153586E-004;
2.409500000000000E+009;1.882274299860001E-001;3.082844428718090E-002;-7.220324128866196E-003;9.652180015109479E-004;
2.409666666666667E+009;1.874639093875885E-001;2.941934950649738E-002;-7.252589799463749E-003;1.208430388942361E-003;
2.409833333333334E+009;1.863966286182404E-001;2.783604338765144E-002;-7.112900260835886E-003;1.240963349118829E-003;
2.410000000000000E+009;1.854092180728912E-001;2.617289870977402E-002;-6.837024353444576E-003;1.443305169232190E-003;
2.410166666666667E+009;1.844838708639145E-001;2.429782040417194E-002;-6.750791799277067E-003;1.519067562185228E-003;
2.410333333333334E+009;1.835329234600067E-001;2.251916378736496E-002;-6.471625529229641E-003;1.669183839112520E-003;
2.410500000000000E+009;1.825496405363083E-001;2.070934511721134E-002;-6.557207554578781E-003;1.637293957173824E-003;
2.410666666666667E+009;1.817737221717835E-001;1.838970556855202E-002;-6.464024074375629E-003;1.739522907882929E-003;
2.410833333333334E+009;1.811476200819016E-001;1.630482450127602E-002;-6.291090976446867E-003;1.988622359931469E-003;
2.411000000000000E+009;1.805695146322250E-001;1.402466930449009E-002;-6.135046947747469E-003;2.015854232013226E-003;
2.411166666666667E+009;1.797154694795609E-001;1.183609850704670E-002;-6.018855608999729E-003;2.074790187180042E-003;
2.411333333333334E+009;1.793190389871597E-001;9.217655286192894E-003;-5.944649688899517E-003;2.222514944151044E-003;
2.411500000000000E+009;1.788985133171082E-001;7.022068370133638E-003;-5.727233830839396E-003;2.260113600641489E-003;
2.411666666666667E+009;1.786634325981140E-001;4.658601712435484E-003;-5.748998839408159E-003;2.336030593141913E-003;
2.411833333333334E+009;1.786230355501175E-001;2.261701272800565E-003;-5.669837817549706E-003;2.466462086886168E-003;
2.412000000000000E+009;1.786300390958786E-001;-2.648072550073266E-004;-5.670446902513504E-003;2.557333093136549E-003;
2.412166666666667E+009;1.787355393171310E-001;-2.490737242624164E-003;-5.525175947695971E-003;2.439649309962988E-003;
2.412333333333334E+009;1.787704229354858E-001;-5.080676637589932E-003;-5.363645032048225E-003;2.575677819550037E-003;
2.412500000000000E+009;1.792667061090469E-001;-7.494559045881033E-003;-5.385751836001873E-003;2.610299270600081E-003;
2.412666666666667E+009;1.799664348363876E-001;-9.843541309237480E-003;-5.281188990920782E-003;2.560532884672284E-003;
2.412833333333334E+009;1.807425022125244E-001;-1.236853469163179E-002;-5.537030752748251E-003;2.611139789223671E-003;
2.413000000000000E+009;1.815070807933807E-001;-1.466788724064827E-002;-5.441313143819571E-003;2.767223399132490E-003;
2.413166666666667E+009;1.821198016405106E-001;-1.687433384358883E-002;-5.329259205609560E-003;2.858409192413092E-003;
2.413333333333334E+009;1.832320839166641E-001;-1.924784481525421E-002;-5.405920557677746E-003;3.008526749908924E-003;
2.413500000000000E+009;1.840863376855850E-001;-2.144380472600460E-002;-5.456829909235239E-003;3.233596915379167E-003;
2.413666666666667E+009;1.853299587965012E-001;-2.354284562170506E-002;-5.211450625211000E-003;3.325173398479819E-003;
2.413833333333334E+009;1.862794458866119E-001;-2.555855177342892E-002;-5.489032715559006E-003;3.382051130756736E-003;
2.414000000000000E+009;1.874538958072662E-001;-2.757660485804081E-002;-5.332528147846460E-003;3.651833627372980E-003;
2.414166666666667E+009;1.886572837829590E-001;-2.922507189214230E-002;-5.387105513364077E-003;3.932623658329248E-003;
2.414333333333334E+009;1.898421794176102E-001;-3.111705183982849E-002;-5.172568839043379E-003;3.908837679773569E-003;
2.414500000000000E+009;1.911427825689316E-001;-3.254258260130882E-002;-5.196435377001762E-003;4.297470208257437E-003;
2.414666666666667E+009;1.921252310276032E-001;-3.399043157696724E-002;-5.124618299305439E-003;4.304489586502314E-003;
2.414833333333334E+009;1.933266818523407E-001;-3.536149486899376E-002;-4.998925607651472E-003;4.351060837507248E-003;
2.415000000000000E+009;1.944714337587357E-001;-3.656555339694023E-002;-4.944801796227694E-003;4.636121913790703E-003;
2.415166666666667E+009;1.956805139780045E-001;-3.778254985809326E-002;-4.840339999645948E-003;4.821659531444311E-003;
2.415333333333334E+009;1.967762261629105E-001;-3.870920464396477E-002;-4.693845752626658E-003;5.027000326663256E-003;
2.415500000000000E+009;1.978478282690048E-001;-3.945383429527283E-002;-4.495998378843069E-003;5.115429405122995E-003;
2.415666666666667E+009;1.987401843070984E-001;-4.013444855809212E-002;-4.437367897480726E-003;5.116168409585953E-003;
2.415833333333334E+009;1.995684951543808E-001;-4.076062515377998E-002;-4.498263821005821E-003;5.171252880245447E-003;
2.416000000000000E+009;2.002659440040588E-001;-4.129374772310257E-002;-4.237974993884563E-003;5.549933295696974E-003;
2.416166666666667E+009;2.010403424501419E-001;-4.187158495187759E-002;-4.141720477491617E-003;5.816418211907148E-003;
2.416333333333334E+009;2.016156315803528E-001;-4.216020181775093E-002;-4.047539085149765E-003;6.015259772539139E-003;
2.416500000000000E+009;2.020865082740784E-001;-4.246666654944420E-002;-3.833262016996741E-003;6.183204706758261E-003;
2.416666666666667E+009;2.022795379161835E-001;-4.286308959126473E-002;-3.578905714675784E-003;6.383886560797691E-003;
2.416833333333334E+009;2.024445384740830E-001;-4.277662187814713E-002;-3.262310288846493E-003;6.491092965006828E-003;
2.417000000000000E+009;2.025074362754822E-001;-4.306807368993759E-002;-3.148899646475911E-003;6.719300989061594E-003;
2.417166666666667E+009;2.022334039211273E-001;-4.286207631230354E-002;-2.963177859783173E-003;6.836615037173033E-003;
2.417333333333334E+009;2.019110172986984E-001;-4.277785494923592E-002;-2.690728520974517E-003;6.831889506429434E-003;
2.417500000000000E+009;2.017468959093094E-001;-4.279756173491478E-002;-2.616670681163669E-003;7.020523771643639E-003;
2.417666666666667E+009;2.011293619871140E-001;-4.272257909178734E-002;-2.218572190031409E-003;7.072376087307930E-003;
2.417833333333334E+009;2.006009072065353E-001;-4.250963404774666E-002;-2.141383709385991E-003;7.260898593813181E-003;
2.418000000000000E+009;1.999381929636002E-001;-4.227883368730545E-002;-1.866184757091105E-003;7.251166272908449E-003;
2.418166666666667E+009;1.990183740854263E-001;-4.229921102523804E-002;-1.635559019632638E-003;7.350616157054901E-003;
2.418333333333334E+009;1.981311291456223E-001;-4.213970899581909E-002;-1.304184319451451E-003;7.369179744273424E-003;
2.418500000000000E+009;1.970680952072144E-001;-4.220614209771156E-002;-1.036635017953813E-003;7.434358820319176E-003;
2.418666666666667E+009;1.961338371038437E-001;-4.218322411179543E-002;-7.345954072661698E-004;7.499010302126408E-003;
2.418833333333334E+009;1.948352307081223E-001;-4.231568053364754E-002;-6.106523214839399E-004;7.413287181407213E-003;
2.419000000000000E+009;1.935681849718094E-001;-4.262109473347664E-002;-3.685145056806505E-004;7.553060073405504E-003;
2.419166666666667E+009;1.922235190868378E-001;-4.302531480789185E-002;-1.878923794720322E-004;7.471991237252951E-003;
2.419333333333334E+009;1.908966749906540E-001;-4.344859346747398E-002;1.362830516882241E-004;7.497445680201054E-003;
2.419500000000000E+009;1.893293559551239E-001;-4.382059723138809E-002;4.008213873021305E-004;7.490854710340500E-003;
2.419666666666667E+009;1.877269893884659E-001;-4.462793841958046E-002;6.086595822125673E-004;7.600976619869471E-003;
2.419833333333334E+009;1.861814111471176E-001;-4.534797370433807E-002;9.740890236571431E-004;7.587241940200329E-003;
2.420000000000000E+009;1.845681965351105E-001;-4.634262248873711E-002;1.093703438527882E-003;7.505003362894058E-003;
2.420166666666667E+009;1.828990131616592E-001;-4.723101854324341E-002;1.374028855934739E-003;7.521755527704954E-003;
2.420333333333334E+009;1.814606785774231E-001;-4.847114533185959E-002;1.707789255306125E-003;7.521053776144981E-003;
2.420500000000000E+009;1.797710508108139E-001;-4.976111650466919E-002;2.008004812523723E-003;7.494699675589800E-003;
2.420666666666667E+009;1.780145466327667E-001;-5.084549635648727E-002;2.251348458230496E-003;7.357737049460411E-003;
2.420833333333334E+009;1.765984445810318E-001;-5.253175273537636E-002;2.468351507559419E-003;7.247197441756725E-003;
2.421000000000000E+009;1.749938130378723E-001;-5.393148586153984E-002;2.732137916609645E-003;7.152900099754334E-003;
2.421166666666667E+009;1.737631112337112E-001;-5.572745949029923E-002;3.003665013238788E-003;6.885629147291184E-003;
2.421333333333334E+009;1.719716638326645E-001;-5.710913240909576E-002;3.216465935111046E-003;6.625996902585030E-003;
2.421500000000000E+009;1.707597821950913E-001;-5.899220332503319E-002;3.453811397776008E-003;6.576830055564642E-003;
2.421666666666667E+009;1.695737540721893E-001;-6.069236993789673E-002;3.754461882635951E-003;6.300811655819416E-003;
2.421833333333334E+009;1.685791313648224E-001;-6.276601552963257E-002;3.779437392950058E-003;6.093800067901611E-003;
2.422000000000000E+009;1.672642529010773E-001;-6.433724611997604E-002;4.098255187273026E-003;6.063599605113268E-003;
2.422166666666667E+009;1.665595620870590E-001;-6.668123602867127E-002;4.168548155575991E-003;5.801667459309101E-003;
2.422333333333334E+009;1.655294001102448E-001;-6.852171570062637E-002;4.270785953849554E-003;5.645651835948229E-003;
2.422500000000000E+009;1.649180799722672E-001;-7.035767287015915E-002;4.541399888694286E-003;5.341863725334406E-003;
2.422666666666667E+009;1.642074137926102E-001;-7.250630110502243E-002;4.388791508972645E-003;5.088157486170530E-003;
2.422833333333334E+009;1.637562215328217E-001;-7.440584152936935E-002;4.571676254272461E-003;4.854173399507999E-003;
2.423000000000000E+009;1.630411297082901E-001;-7.634385675191879E-002;4.709522705525160E-003;4.719831515103579E-003;
2.423166666666667E+009;1.629725694656372E-001;-7.830515503883362E-002;4.826792981475592E-003;4.543388262391090E-003;
2.423333333333334E+009;1.626406908035278E-001;-8.030192553997040E-002;4.951453767716885E-003;4.428247455507517E-003;
2.423500000000000E+009;1.625876873731613E-001;-8.193806558847427E-002;4.889013245701790E-003;4.123979713767767E-003;
2.423666666666667E+009;1.625526100397110E-001;-8.389846235513687E-002;5.027974024415016E-003;4.020001739263535E-003;
2.423833333333334E+009;1.625721603631973E-001;-8.550626039505005E-002;5.170431919395924E-003;3.935455810278654E-003;
2.424000000000000E+009;1.627024561166763E-001;-8.714763820171356E-002;5.175672937184572E-003;3.855623304843903E-003;
2.424166666666667E+009;1.628562659025192E-001;-8.886631578207016E-002;5.269259214401245E-003;3.586585400626063E-003;
2.424333333333334E+009;1.631456315517426E-001;-9.025178104639053E-002;5.458183120936155E-003;3.439062274992466E-003;
2.424500000000000E+009;1.633790135383606E-001;-9.187158197164536E-002;5.455362144857645E-003;3.245841013267636E-003;
2.424666666666667E+009;1.637210994958878E-001;-9.322118759155273E-002;5.716602783650160E-003;2.931819297373295E-003;
2.424833333333334E+009;1.642356365919113E-001;-9.441313147544861E-002;5.739652551710606E-003;2.776784123852849E-003;
2.425000000000000E+009;1.646035313606262E-001;-9.565337747335434E-002;5.789334420114756E-003;2.657193457707763E-003;
2.425166666666667E+009;1.648389995098114E-001;-9.665958583354950E-002;5.792253185063601E-003;2.334572141990066E-003;
2.425333333333334E+009;1.652683913707733E-001;-9.761787950992584E-002;5.758448503911495E-003;2.250894671306014E-003;
2.425500000000000E+009;1.657147258520126E-001;-9.857048839330673E-002;5.704034585505724E-003;2.087631728500128E-003;
2.425666666666667E+009;1.660426706075668E-001;-9.912030398845673E-002;5.609575659036636E-003;1.843490055762231E-003;
2.425833333333334E+009;1.663489341735840E-001;-1.000029742717743E-001;5.515778902918100E-003;1.716948696412146E-003;
2.426000000000000E+009;1.667844355106354E-001;-1.003393828868866E-001;5.487153306603432E-003;1.406977418810129E-003;
2.426166666666667E+009;1.670253723859787E-001;-1.009182408452034E-001;5.592423025518656E-003;1.152366981841624E-003;
2.426333333333334E+009;1.672461181879044E-001;-1.014304012060165E-001;5.449305754154921E-003;1.193224685266614E-003;
2.426500000000000E+009;1.675903797149658E-001;-1.016413792967796E-001;5.508806556463242E-003;1.097162836231291E-003;
2.426666666666667E+009;1.677231937646866E-001;-1.018715053796768E-001;5.474507343024015E-003;8.409567526541650E-004;
2.426833333333334E+009;1.680478900671005E-001;-1.020351797342300E-001;5.347586236894131E-003;8.016721694730222E-004;
2.427000000000000E+009;1.679154485464096E-001;-1.023675128817558E-001;5.353515036404133E-003;5.808766582049429E-004;
2.427166666666667E+009;1.680826693773270E-001;-1.024432927370071E-001;5.178647581487894E-003;4.566411662381142E-004;
2.427333333333334E+009;1.678902953863144E-001;-1.027072295546532E-001;5.355036817491055E-003;4.890589043498039E-004;
2.427500000000000E+009;1.676306575536728E-001;-1.028915122151375E-001;5.167085677385330E-003;2.588979259599000E-004;
2.427666666666667E+009;1.672763228416443E-001;-1.029406264424324E-001;5.132720805704594E-003;2.072433271678165E-004;
2.427833333333334E+009;1.669932752847672E-001;-1.030688583850861E-001;5.252449307590723E-003;3.796982855419628E-005;
