# Hz S RI R 
2400000000.0000000000 0.173373550176620511154013115629 0.050043039023876190185546875000 -0.000538152526132762432098388672 0.004388683941215276718139648438 0 0 0 0 
2400166666.6666665077 0.173963189125061007400674384371 0.049365483224391937255859375000 -0.000631490489467978477478027344 0.004367880988866090774536132812 0 0 0 0 
2400333333.3333334923 0.174410164356231689453125000000 0.048682291060686111450195312500 -0.000781829177867621183395385742 0.004214852117002010345458984375 0 0 0 0 
2400500000.0000000000 0.174702838063240106780682481258 0.047929558902978897094726562500 -0.000778513902332633733749389648 0.004266294650733470916748046875 0 0 0 0 
2400666666.6666665077 0.174983009696006802657919365629 0.047212786972522742534597028907 -0.000885490968357771635055541992 0.004175015725195407867431640625 0 0 0 0 
2400833333.3333334923 0.175308153033256503006143134371 0.046704821288585662841796875000 -0.001079635228961705944658588940 0.004358499776571989059448242188 0 0 0 0 
2401000000.0000000000 0.175355106592178289215411268742 0.046055253595113747333567033593 -0.001035448163747787909266806494 0.004463686142116785049438476562 0 0 0 0 
2401166666.6666665077 0.175630480051040704925213731258 0.045390218496322631835937500000 -0.001033794367685914039611816406 0.004492910113185644149780273438 0 0 0 0 
2401333333.3333334923 0.175615385174751309493856865629 0.044776022434234619140625000000 -0.001213974668644369082209921729 0.004544849041849374771118164062 0 0 0 0 
2401500000.0000000000 0.175625398755073602874432481258 0.044042076915502548217773437500 -0.001174897304736078002332377856 0.004896314814686775207519531250 0 0 0 0 
2401666666.6666665077 0.175590023398399408538494981258 0.043263133615255362773854841407 -0.001289470586925745010375976562 0.004931539297103881835937500000 0 0 0 0 
2401833333.3333334923 0.175497621297836303710937500000 0.042421001940965652465820312500 -0.001154569792561233043670654297 0.005093297455459833145141601562 0 0 0 0 
2402000000.0000000000 0.175298601388931302169638115629 0.041671946644783020019531250000 -0.001165061956271528980852436597 0.005188889801502227783203125000 0 0 0 0 
2402166666.6666665077 0.175427287817001287262286268742 0.040471535176038742065429687500 -0.001069434569217265085933066260 0.005449722986668348312377929688 0 0 0 0 
2402333333.3333334923 0.174844563007354708572549384371 0.039563465863466262817382812500 -0.000758345646318048238754272461 0.005630592349916697415823652051 0 0 0 0 
2402500000.0000000000 0.174779742956161499023437500000 0.038673020899295806884765625000 -0.000888418173417448997497558594 0.005767275113612413406372070312 0 0 0 0 
2402666666.6666665077 0.174596846103668212890625000000 0.037477400153875350952148437500 -0.000460608920548111200332641602 0.006033452693372964859008789062 0 0 0 0 
2402833333.3333334923 0.174201399087905911544638115629 0.036197032779455191875417341407 -0.000412575609516352415084838867 0.006120056379586458206176757812 0 0 0 0 
2403000000.0000000000 0.173690363764762906173544365629 0.034916579723358147357981096093 -0.000184610238648019703939714975 0.006247053854167461395263671875 0 0 0 0 
2403166666.6666665077 0.173433214426040704925213731258 0.033493567258119583129882812500 -0.000076691721915267407894134521 0.006238494068384171399588300488 0 0 0 0 
2403333333.3333334923 0.173241645097732488434161268742 0.031973797827959060668945312500 0.000418090989114716703265589581 0.006402629427611827850341796875 0 0 0 0 
2403500000.0000000000 0.172748595476150512695312500000 0.030506944283843040466308593750 0.000543494417797774076461791992 0.006638226099312306317801191113 0 0 0 0 
2403666666.6666665077 0.172414377331733703613281250000 0.028696512803435329092005545704 0.000938211742322891950607299805 0.006512507330626249313354492188 0 0 0 0 
2403833333.3333334923 0.172085210680961608886718750000 0.026871724054217338562011718750 0.001139110652729869105695414966 0.006478526163846254348754882812 0 0 0 0 
2404000000.0000000000 0.171814739704132107833700615629 0.025270149111747741699218750000 0.001321837422437966086743998950 0.006502449512481690320486737988 0 0 0 0 
2404166666.6666665077 0.171512395143508911132812500000 0.023299902677536010742187500000 0.001617347821593285040614462744 0.006375259254127740859985351562 0 0 0 0 
2404333333.3333334923 0.171011328697204589843750000000 0.021502139046788219106653983204 0.001960127148777246908900595557 0.006593173369765281677246093750 0 0 0 0 
2404500000.0000000000 0.170683220028877313811932481258 0.019428255036473270761510079296 0.002154486486688255830052041162 0.006415913812816143035888671875 0 0 0 0 
2404666666.6666665077 0.170412987470626803299111884371 0.017463717609643939626673514454 0.002275388455018401145935058594 0.006499508861452341079711914062 0 0 0 0 
2404833333.3333334923 0.170294135808944702148437500000 0.015430760569870470219622227148 0.002745022065937519073486328125 0.006216171197593212127685546875 0 0 0 0 
2405000000.0000000000 0.170052096247673006912393134371 0.013316077180206779134730155079 0.002782350638881326155421591650 0.006244103889912366867065429688 0 0 0 0 
2405166666.6666665077 0.169925808906555203536825615629 0.011303990148007869720458984375 0.002867733594030141830444335938 0.006145610008388757705688476562 0 0 0 0 
2405333333.3333334923 0.170046791434287997146768134371 0.009260553866624832153320312500 0.003278042422607541084289550781 0.006042887922376394271850585938 0 0 0 0 
2405500000.0000000000 0.170205727219581604003906250000 0.007020389661192893981933593750 0.003248107619583607153651572119 0.005846194922924041748046875000 0 0 0 0 
2405666666.6666665077 0.170406922698020907303018134371 0.005161226261407136917114257812 0.003564087441191076798679970850 0.005767666734755039215087890625 0 0 0 0 
2405833333.3333334923 0.170365810394287109375000000000 0.003136144019663333892822265625 0.003653918858617544174194335938 0.005712060723453760147094726562 0 0 0 0 
2406000000.0000000000 0.170766770839691189864950615629 0.000970763328950852155685424805 0.003862022887915372848510742188 0.005686372518539428710937500000 0 0 0 0 
2406166666.6666665077 0.170994669198989895919638115629 -0.001030523329973221042035746997 0.003952695522457361221313476562 0.005450872704386711120605468750 0 0 0 0 
2406333333.3333334923 0.171537235379219110686932481258 -0.003071021521463990211486816406 0.004154170397669076919555664062 0.005385890603065490722656250000 0 0 0 0 
2406500000.0000000000 0.172002300620079012771768134371 -0.005160721950232982635498046875 0.004336158279329538345336914062 0.005447231233119964599609375000 0 0 0 0 
2406666666.6666665077 0.172354921698570306975994981258 -0.006999851204454898834228515625 0.004595994018018245697021484375 0.005308277439326047897338867188 0 0 0 0 
2406833333.3333334923 0.172992214560508700271768134371 -0.008976828306913375854492187500 0.004702743142843247327322675488 0.005268864333629608154296875000 0 0 0 0 
2407000000.0000000000 0.173669323325157193282919365629 -0.010837197303771969186803048046 0.004913495853543282422537519238 0.005183325614780187606811523438 0 0 0 0 
2407166666.6666665077 0.174346640706062289138955634371 -0.012701329775154590606689453125 0.004945383407175540924072265625 0.005075115244835615158081054688 0 0 0 0 
2407333333.3333334923 0.174940511584281893631143134371 -0.014561157673597339284876639454 0.005398403853178024291992187500 0.004985960200428962707519531250 0 0 0 0 
2407500000.0000000000 0.175776615738868713378906250000 -0.016163945198059078561803048046 0.005563665181398391723632812500 0.004802917595952749252319335938 0 0 0 0 
2407666666.6666665077 0.176535785198211697677450615629 -0.018003778532147411001185233204 0.005705754272639750566964433887 0.004531411919742822647094726562 0 0 0 0 
2407833333.3333334923 0.177203148603439303299111884371 -0.019581880420446399343470389454 0.005853740964084863662719726562 0.004423993173986673355102539062 0 0 0 0 
2408000000.0000000000 0.177853986620902987381143134371 -0.021227205172181129455566406250 0.006028580944985151290893554688 0.004210830666124820709228515625 0 0 0 0 
2408166666.6666665077 0.178710088133812006194744981258 -0.022581357508897781372070312500 0.006269799079746007919311523438 0.004221350885927677154541015625 0 0 0 0 
2408333333.3333334923 0.179574191570282010177450615629 -0.024000959470868110656738281250 0.006421892438083887100219726562 0.003950909245759248733520507812 0 0 0 0 
2408500000.0000000000 0.180163249373436001876669365629 -0.025414064526557918893834298046 0.006707337684929370880126953125 0.003619590075686573982238769531 0 0 0 0 
2408666666.6666665077 0.180662825703620910644531250000 -0.026469361037015918386439139454 0.006899942643940448760986328125 0.003458306659013032913208007812 0 0 0 0 
2408833333.3333334923 0.181175366044044494628906250000 -0.027809385210275650024414062500 0.006857478525489568710327148438 0.003199482103809713883640908350 0 0 0 0 
2409000000.0000000000 0.181622594594955388824786268742 -0.028701569885015491140345389454 0.007136303931474685668945312500 0.002856364008039236068725585938 0 0 0 0 
2409166666.6666665077 0.181932836771011408050213731258 -0.029546920210123058664342110546 0.006986264139413833618164062500 0.002683330560103058815002441406 0 0 0 0 
2409333333.3333334923 0.182477980852127102950888115629 -0.030497357249259948730468750000 0.007245463319122791290283203125 0.002470855135470629172084189307 0 0 0 0 
2409500000.0000000000 0.182690829038619995117187500000 -0.031313985586166381835937500000 0.007318120915442705154418945312 0.002109557623043655915501259912 0 0 0 0 
2409666666.6666665077 0.183023452758789090255575615629 -0.031782254576683037494699846093 0.007332620210945606231689453125 0.001938586006872355937957763672 0 0 0 0 
2409833333.3333334923 0.183154463768005398849325615629 -0.032174430787563317035715471093 0.007481812033802270889282226562 0.001783530926331877925275493091 0 0 0 0 
2410000000.0000000000 0.183405891060829190353231865629 -0.032554622739553451538085937500 0.007390028797090054425711347363 0.001308761769905685944798134912 0 0 0 0 
2410166666.6666665077 0.183460637927055386642294365629 -0.033026602119207382202148437500 0.007647285703569650650024414062 0.001135701895691453976872109521 0 0 0 0 
2410333333.3333334923 0.183530360460281399825888115629 -0.033314943313598632812500000000 0.007711098529398441314697265625 0.000999479438178241252899169922 0 0 0 0 
2410500000.0000000000 0.183580696582794189453125000000 -0.033667650073766708374023437500 0.007827270776033401489257812500 0.000725003133993595838546752930 0 0 0 0 
2410666666.6666665077 0.183363497257232693771200615629 -0.034075476229190833354909528907 0.007934329099953174591064453125 0.000470651575597003102302551270 0 0 0 0 
2410833333.3333334923 0.183218300342559786697549384371 -0.034201387315988540649414062500 0.007945084944367408752441406250 0.000191780811292119297102251596 0 0 0 0 
2411000000.0000000000 0.182885527610778808593750000000 -0.034372471272945397113840471093 0.007845403626561164855957031250 0.000010418453712190970441306762 0 0 0 0 
2411166666.6666665077 0.182716935873031588455361884371 -0.034696899354457862163503278907 0.008032895624637603759765625000 -0.000179760652827098992749890738 0 0 0 0 
2411333333.3333334923 0.182186961174011202713174384371 -0.034952089190483093261718750000 0.008002968505024909973144531250 -0.000506463926285505294799804688 0 0 0 0 
2411500000.0000000000 0.181467935442924499511718750000 -0.035477552562952041625976562500 0.007888056337833404541015625000 -0.000853836769238114356994628906 0 0 0 0 
2411666666.6666665077 0.181069061160087613204794365629 -0.035616498440504067157785783593 0.007917481474578380584716796875 -0.001083350856788456006291054834 0 0 0 0 
2411833333.3333334923 0.180343404412269592285156250000 -0.035952091217041022563893903907 0.007787871174514293670654296875 -0.001321471994742750904680561597 0 0 0 0 
2412000000.0000000000 0.179564505815506009200888115629 -0.036436423659324652934987653907 0.007665517739951611432547284863 -0.001551158959046005985857319409 0 0 0 0 
2412166666.6666665077 0.178552061319351196289062500000 -0.036978852003812789916992187500 0.007729888893663883209228515625 -0.001961063127964735031127929688 0 0 0 0 
2412333333.3333334923 0.177689969539642306228799384371 -0.037351638078689582134206403907 0.007758074905723333358764648438 -0.001937539898790419101715087891 0 0 0 0 
2412500000.0000000000 0.176607921719551086425781250000 -0.038028910756111151958425153907 0.007733936421573162078857421875 -0.002314777346327900886535644531 0 0 0 0 
2412666666.6666665077 0.175466194748878506759481865629 -0.038638051599264151836354841407 0.007525470573455095291137695312 -0.002525350544601678848266601562 0 0 0 0 
2412833333.3333334923 0.174420446157455388824786268742 -0.039489008486270911479909528907 0.007377559319138526916503906250 -0.002669265726581215858459472656 0 0 0 0 
2413000000.0000000000 0.173067897558212308029013115629 -0.040133029222488403320312500000 0.007247630506753922376150800488 -0.002945752814412117004394531250 0 0 0 0 
2413166666.6666665077 0.171924710273742703536825615629 -0.040872685611248023296315778907 0.007082673721015453338623046875 -0.003151171375066041946411132812 0 0 0 0 
2413333333.3333334923 0.170639231801032992263955634371 -0.041835237294435501098632812500 0.007204483728855848312377929688 -0.003371214261278510093688964844 0 0 0 0 
2413500000.0000000000 0.169382601976394708831463731258 -0.042843874543905258178710937500 0.006902627181261777877807617188 -0.003596278140321373939514160156 0 0 0 0 
2413666666.6666665077 0.167976334691047696212606865629 -0.043850898742675781250000000000 0.006912144832313060760498046875 -0.003655510488897562026977539062 0 0 0 0 
2413833333.3333334923 0.166555136442184503753338731258 -0.045060742646455771709401716407 0.006711849942803382873535156250 -0.004038285464048385620117187500 0 0 0 0 
2414000000.0000000000 0.165262922644615201095419365629 -0.046209022402763366699218750000 0.006834983825683593750000000000 -0.004087598063051700592041015625 0 0 0 0 
2414166666.6666665077 0.164293497800826998611611884371 -0.047603484243154532695729841407 0.006602525711059570312500000000 -0.004330307245254516601562500000 0 0 0 0 
2414333333.3333334923 0.162955611944198608398437500000 -0.049057029187679290771484375000 0.006517395377159118652343750000 -0.004423189908266068372244550488 0 0 0 0 
2414500000.0000000000 0.161872088909149197677450615629 -0.050424691289663321758229841407 0.006418900564312934875488281250 -0.004571092780679464340209960938 0 0 0 0 
2414666666.6666665077 0.160738378763198908050213731258 -0.051787897944450378417968750000 0.006359198130667209625244140625 -0.004766914993524551391601562500 0 0 0 0 
2414833333.3333334923 0.159742310643196105957031250000 -0.053547419607639312744140625000 0.006337614730000495910644531250 -0.005075964145362377166748046875 0 0 0 0 
2415000000.0000000000 0.158755391836166409591513115629 -0.055167295038700096820871721093 0.006277630571275950345511152051 -0.005359633825719357404226972363 0 0 0 0 
2415166666.6666665077 0.157857805490493802169638115629 -0.056880157440900802612304687500 0.006077088881283999356741620801 -0.005502776242792606353759765625 0 0 0 0 
2415333333.3333334923 0.157147094607353210449218750000 -0.058840047568082809448242187500 0.005941228475421667098999023438 -0.005799762438982725143432617188 0 0 0 0 
2415500000.0000000000 0.156412914395332308670205634371 -0.060490000993013381958007812500 0.005944483913481236371512128613 -0.006018768530339002609252929688 0 0 0 0 
2415666666.6666665077 0.155697673559188787262286268742 -0.062406137585639946674387346093 0.005708003416657447814941406250 -0.006237964611500501632690429688 0 0 0 0 
2415833333.3333334923 0.155237913131713894943075615629 -0.064337201416492462158203125000 0.005517769604921340942382812500 -0.006544288247823715209960937500 0 0 0 0 
2416000000.0000000000 0.154527500271797207931356865629 -0.066427126526832580566406250000 0.005295309703797101974487304688 -0.006793001201003789901733398438 0 0 0 0 
2416166666.6666665077 0.154277011752128601074218750000 -0.068311609327793121337890625000 0.005046125501394271850585937500 -0.007011963054537773132324218750 0 0 0 0 
2416333333.3333334923 0.153813570737838800628338731258 -0.070388093590736389160156250000 0.004903414752334356307983398438 -0.007235986646264792356009198926 0 0 0 0 
2416500000.0000000000 0.153493449091911288162393134371 -0.072289906442165374755859375000 0.004542660433799028396606445312 -0.007304110098630189895629882812 0 0 0 0 
2416666666.6666665077 0.153111755847930908203125000000 -0.074294492602348327636718750000 0.004252579528838396072387695312 -0.007563746999949216842651367188 0 0 0 0 
2416833333.3333334923 0.153059929609298706054687500000 -0.076281942427158355712890625000 0.004058931022882462415213300488 -0.007867001928389072418212890625 0 0 0 0 
2417000000.0000000000 0.152618438005447387695312500000 -0.078191772103309631347656250000 0.003703908063471316857578896631 -0.007870457135140895843505859375 0 0 0 0 
2417166666.6666665077 0.152598068118095397949218750000 -0.079971916973590850830078125000 0.003443751484155654907226562500 -0.008023782633244991302490234375 0 0 0 0 
2417333333.3333334923 0.152646288275718688964843750000 -0.081677533686161041259765625000 0.003287708386778831915614462744 -0.008262491784989833831787109375 0 0 0 0 
2417500000.0000000000 0.152578175067901611328125000000 -0.083652049303054809570312500000 0.002708260435611010031459189307 -0.008333320729434490203857421875 0 0 0 0 
2417666666.6666665077 0.152820616960525512695312500000 -0.085219487547874450683593750000 0.002607861533761024908778525244 -0.008509899489581584930419921875 0 0 0 0 
2417833333.3333334923 0.152827590703964205642861884371 -0.086683548986911773681640625000 0.002268248703330754800083779443 -0.008337623439729213714599609375 0 0 0 0 
2418000000.0000000000 0.152803182601928710937500000000 -0.088321439921855926513671875000 0.001961961854249238967895507812 -0.008659101091325283050537109375 0 0 0 0 
2418166666.6666665077 0.152937695384025601486044365629 -0.089560195803642272949218750000 0.001660889014601707892176962744 -0.008679185993969440460205078125 0 0 0 0 
2418333333.3333334923 0.153503343462944003006143134371 -0.090918406844139099121093750000 0.001558595802634955103035951929 -0.008725119754672050476074218750 0 0 0 0 
2418500000.0000000000 0.153454184532165499588174384371 -0.092024035751819610595703125000 0.001099632587283849933026957935 -0.008608777076005935668945312500 0 0 0 0 
2418666666.6666665077 0.153773099184036310393963731258 -0.093155995011329650878906250000 0.000745362893212586641311645508 -0.008850470185279846191406250000 0 0 0 0 
2418833333.3333334923 0.153757140040397588531817518742 -0.094099879264831542968750000000 0.000433761131716892123222351074 -0.008813061751425266265869140625 0 0 0 0 
2419000000.0000000000 0.153924152255058288574218750000 -0.094924956560134887695312500000 0.000117163886898197206571856088 -0.008858456276357173919677734375 0 0 0 0 
2419166666.6666665077 0.154137864708900507171307481258 -0.095649436116218566894531250000 -0.000148285864270292195394793100 -0.008862530812621116638183593750 0 0 0 0 
2419333333.3333334923 0.154249742627143887618856865629 -0.095970571041107177734375000000 -0.000442313583334907889366149902 -0.008845351636409759521484375000 0 0 0 0 
2419500000.0000000000 0.154584228992462213714276231258 -0.096717432141304016113281250000 -0.000689158157911151647567749023 -0.008768280036747455596923828125 0 0 0 0 
2419666666.6666665077 0.154672190546989413162393134371 -0.097027838230133056640625000000 -0.001054281834512948989868164062 -0.008846707642078399658203125000 0 0 0 0 
2419833333.3333334923 0.154766693711280794998330634371 -0.097141750156879425048828125000 -0.001530149718746542930603027344 -0.008812838234007358551025390625 0 0 0 0 
