# Hz S RI R 
2400000000.0000000000 0.168495446443557711502236884371 0.041015267372131347656250000000 -0.003926232457160949707031250000 -0.001050712424330412907841347803 0 0 0 0 
2400166666.6666665077 0.169155418872833307464276231258 0.040376968681812293315847028907 -0.003864819649606943130493164062 -0.000766458339057862758636474609 0 0 0 0 
2400333333.3333334923 0.169673874974250793457031250000 0.039497178047895431518554687500 -0.003673519939184188842773437500 -0.000897966267075389623641967773 0 0 0 0 
2400500000.0000000000 0.170003294944763211349325615629 0.038521181792020797729492187500 -0.003645760938525199890136718750 -0.000839445798192173242568969727 0 0 0 0 
2400666666.6666665077 0.170401439070701599121093750000 0.037683628499507897113840471093 -0.003679689951241015954258584131 -0.000697504961863160133361816406 0 0 0 0 
2400833333.3333334923 0.170888647437095586578692518742 0.037023957818746566772460937500 -0.003601942444220184846165322412 -0.000611987488809973001480102539 0 0 0 0 
2401000000.0000000000 0.171134695410728510100994981258 0.036152768880128860473632812500 -0.003738118102774024009704589844 -0.000561616325285285711288452148 0 0 0 0 
2401166666.6666665077 0.171277120709419305999432481258 0.035221926867961876606027971093 -0.003809160087257624106166220557 -0.000568136398214846849441528320 0 0 0 0 
2401333333.3333334923 0.171452462673187311370526231258 0.034473039209842681884765625000 -0.003784527536481618881225585938 -0.000545070681255310773849487305 0 0 0 0 
2401500000.0000000000 0.171500921249389703948651231258 0.033569667488336563110351562500 -0.003872514702379703955409384619 -0.000473235704703256487846374512 0 0 0 0 
2401666666.6666665077 0.171768397092819213867187500000 0.032912358641624450683593750000 -0.004004540853202342987060546875 -0.000397728814277797883183079852 0 0 0 0 
2401833333.3333334923 0.171747997403144808670205634371 0.031854841858148581767995466407 -0.004163600038737058639526367188 -0.000215888896491378599971217023 0 0 0 0 
2402000000.0000000000 0.171759963035583496093750000000 0.030964734032750129699707031250 -0.004201868548989295959472656250 -0.000132831468363292488172808237 0 0 0 0 
2402166666.6666665077 0.171770408749580411056356865629 0.030105721205472949636439139454 -0.004244697745889425277709960938 -0.000040153085137717432599475248 0 0 0 0 
2402333333.3333334923 0.171719431877136202713174384371 0.029141442850232120859166329296 -0.004200709052383899688720703125 0.000316865218337625319331568585 0 0 0 0 
2402500000.0000000000 0.171872258186340304275674384371 0.028212320059537891042689139454 -0.004153172951191663742065429688 0.000409945962019264698028564453 0 0 0 0 
2402666666.6666665077 0.171657577157020596603231865629 0.027108635753393169748326485546 -0.004283251240849494934082031250 0.000748722406569868326187133789 0 0 0 0 
2402833333.3333334923 0.171602204442024203201455634371 0.026148222386837009084681326954 -0.004320898558944463729858398438 0.000708756735548377037048339844 0 0 0 0 
2403000000.0000000000 0.171455785632133511642294365629 0.025083461776375770568847656250 -0.004222962073981761932373046875 0.001057179877534508921979594653 0 0 0 0 
2403166666.6666665077 0.171463042497634887695312500000 0.024025073274970061565358747657 -0.004190820269286633405203534863 0.001155988313257694027544331128 0 0 0 0 
2403333333.3333334923 0.171386331319808987716513115629 0.022815890610218051565150076954 -0.004184505436569452285766601562 0.001294677145779133059858012622 0 0 0 0 
2403500000.0000000000 0.170936301350593594650106865629 0.021699557080864909780482108204 -0.004055210389196872711181640625 0.001604110468178987936732626807 0 0 0 0 
2403666666.6666665077 0.170931905508041409591513115629 0.020319690927863121032714843750 -0.004057256970554590225219726562 0.001645428943447768905042338794 0 0 0 0 
2403833333.3333334923 0.170758709311485290527343750000 0.019039249047636989248255545704 -0.003788099857047200202941894531 0.001852271729148923917057656396 0 0 0 0 
2404000000.0000000000 0.170578062534332303146200615629 0.017733538523316379892369454296 -0.003641078248620032830479287256 0.001949291792698204951045370947 0 0 0 0 
2404166666.6666665077 0.170465171337127713302450615629 0.016371864825487140310267264454 -0.003793225856497883796691894531 0.002070881193503737015965127100 0 0 0 0 
2404333333.3333334923 0.170240581035614013671875000000 0.015116943977773189544677734375 -0.003520692465826869010925292969 0.002123443409800529913661337744 0 0 0 0 
2404500000.0000000000 0.169995471835136413574218750000 0.013545188121497629338274570898 -0.003329633036628365950343466650 0.002420717850327492193934775244 0 0 0 0 
2404666666.6666665077 0.170104756951332092285156250000 0.012171532958745959890345389454 -0.003239881480112671852111816406 0.002236716914921998977661132812 0 0 0 0 
2404833333.3333334923 0.169893637299537686446981865629 0.010740372352302069228202618945 -0.003049146151170134978053427588 0.002321012085303664207458496094 0 0 0 0 
2405000000.0000000000 0.169863611459732111175213731258 0.009211404249072074890136718750 -0.002928212750703095956089638818 0.002444800687953830199000693213 0 0 0 0 
2405166666.6666665077 0.169750958681106595138388115629 0.007614030968397855758666992188 -0.002877299441024661064147949219 0.002480386057868599891662597656 0 0 0 0 
2405333333.3333334923 0.169714137911796597579794365629 0.005964992102235555648803710938 -0.002838305663317441940307617188 0.002314912155270576910731650244 0 0 0 0 
2405500000.0000000000 0.169771045446395901779013115629 0.004495542030781508359427167676 -0.002638577949255704879760742188 0.002404756145551801161525107275 0 0 0 0 
2405666666.6666665077 0.169771999120712308029013115629 0.002961156656965612931492470850 -0.002640110207721590995788574219 0.002551610581576824188232421875 0 0 0 0 
2405833333.3333334923 0.169515460729598999023437500000 0.001286900485865771987317729419 -0.002629688009619712829589843750 0.002569651464000343842747353662 0 0 0 0 
2406000000.0000000000 0.169501200318336486816406250000 -0.000391532987123355323642176495 -0.002538192085921763940098427881 0.002596394391730428175685263525 0 0 0 0 
2406166666.6666665077 0.169390156865119906326455634371 -0.001959247980266809897181845557 -0.002532961778342723846435546875 0.002602470340207219123840332031 0 0 0 0 
2406333333.3333334923 0.169543504714965792556924384371 -0.003671095008030533790588378906 -0.002359200036153196854832314600 0.002661649137735366821289062500 0 0 0 0 
2406500000.0000000000 0.169415518641471890548544365629 -0.005297468509525060653686523438 -0.002641450380906463103053427588 0.002599345287308096885681152344 0 0 0 0 
2406666666.6666665077 0.169191405177116394042968750000 -0.006688784342259168624877929688 -0.002363938139751553969142294775 0.002858726307749747796299599756 0 0 0 0 
2406833333.3333334923 0.169126644730567904373330634371 -0.008416593074798583984375000000 -0.002288317540660500960109091650 0.002970361383631825013401650537 0 0 0 0 
2407000000.0000000000 0.169076308608055086990518134371 -0.009872069582343101501464843750 -0.002314922399818896813633584131 0.003151814686134458021876669775 0 0 0 0 
2407166666.6666665077 0.168970018625259399414062500000 -0.011181881651282310485839843750 -0.002190696774050592942478798975 0.003099542809650301933288574219 0 0 0 0 
2407333333.3333334923 0.168738231062889099121093750000 -0.012734940275549890345563319727 -0.002129539381712675094604492188 0.003150412114337087111232138525 0 0 0 0 
2407500000.0000000000 0.168619021773338290115518134371 -0.013911345973610879725446132227 -0.002020239597186446189880371094 0.003268080763518809838535927881 0 0 0 0 
2407666666.6666665077 0.168552562594413812835369981258 -0.015147244557738300668736641796 -0.001840546494349837086321186597 0.003428024007007480101344443213 0 0 0 0 
2407833333.3333334923 0.168345510959625188629473768742 -0.016399817541241649282435233204 -0.001751370611600578048108745044 0.003526879707351326942443847656 0 0 0 0 
2408000000.0000000000 0.168296560645103510100994981258 -0.017474763095378879201868826954 -0.001408027485013007900835346753 0.003549779998138546943664550781 0 0 0 0 
2408166666.6666665077 0.168163731694221496582031250000 -0.018455233424901958810826485546 -0.001323647215031086964848183740 0.003553294576704502105712890625 0 0 0 0 
2408333333.3333334923 0.168380171060562106033486884371 -0.019517995417118069040318673046 -0.001053901971317827918409038013 0.003468853188678621812107705225 0 0 0 0 
2408500000.0000000000 0.168272763490676907638388115629 -0.020359233021736148488978201954 -0.000926745473407208919525146484 0.003519776044413446946385048975 0 0 0 0 
2408666666.6666665077 0.168346449732780512054119981258 -0.021275611594319340097447579296 -0.000812492333352565765380859375 0.003386572934687138037440634619 0 0 0 0 
2408833333.3333334923 0.168414726853370694259481865629 -0.022204201668500900268554687500 -0.000676626921631395816802978516 0.003306299913674592971801757812 0 0 0 0 
2409000000.0000000000 0.168601810932159396072549384371 -0.022878251969814300537109375000 -0.000494273670483380556106567383 0.003335091518238186836242675781 0 0 0 0 
2409166666.6666665077 0.168927282094955388824786268742 -0.023821670562028888357142264454 -0.000507483026012778282165527344 0.003153649391606450080871582031 0 0 0 0 
2409333333.3333334923 0.169087156653404208084268134371 -0.024728311225771900522252266796 -0.000420975266024470275074559344 0.003036557929590343995335244287 0 0 0 0 
2409500000.0000000000 0.169156044721603393554687500000 -0.025732185691595080984095389454 -0.000386334257200360298156738281 0.002850046148523687882664345850 0 0 0 0 
2409666666.6666665077 0.169373124837875393966513115629 -0.026544699445366859436035156250 -0.000294891040539368987083435059 0.002821474336087704138514853369 0 0 0 0 
2409833333.3333334923 0.169341415166854886154013115629 -0.027206391096115108835240548046 -0.000342499319231137579113560809 0.002794126980006694793701171875 0 0 0 0 
2410000000.0000000000 0.169424504041671808440838731258 -0.028189424425363540649414062500 -0.000310741335852071588665562762 0.002710412722080945968627929688 0 0 0 0 
2410166666.6666665077 0.169585809111595209319744981258 -0.029075080528855320322056954296 -0.000360467965947464108467102051 0.002677028533071279959437704932 0 0 0 0 
2410333333.3333334923 0.169809654355049105545205634371 -0.029786380007863051677663435157 -0.000357266428181901574134826660 0.002654901938512920899632119287 0 0 0 0 
2410500000.0000000000 0.169418364763259887695312500000 -0.030734274536371231079101562500 -0.000372136884834617376327514648 0.002499521244317293167114257812 0 0 0 0 
2410666666.6666665077 0.169478431344032287597656250000 -0.031712736934423446655273437500 -0.000400564749725162982940673828 0.002567595336586236953735351562 0 0 0 0 
2410833333.3333334923 0.169405147433280889313067518742 -0.032458692789077758789062500000 -0.000570780364796519279479980469 0.002487033139914274215698242188 0 0 0 0 
2411000000.0000000000 0.169257074594497708419638115629 -0.033300243318080902099609375000 -0.000610794406384229660034179688 0.002632979070767759843113564600 0 0 0 0 
2411166666.6666665077 0.168958678841590909103231865629 -0.034232262521982192993164062500 -0.000816712679807096719741821289 0.002442843979224563078639365088 0 0 0 0 
2411333333.3333334923 0.168730184435844393631143134371 -0.034818310290575027465820312500 -0.000656904187053442001342773438 0.002592092845588922934291220557 0 0 0 0 
2411500000.0000000000 0.168474957346916198730468750000 -0.035959366708993911743164062500 -0.000855983700603246688842773438 0.002659449120983480973484658350 0 0 0 0 
2411666666.6666665077 0.168397411704063387771768134371 -0.036590673029422760009765625000 -0.000720641692169010639190673828 0.002702676225453615188598632812 0 0 0 0 
2411833333.3333334923 0.168056041002273587325888115629 -0.037358120083808898925781250000 -0.000873214332386851310729980469 0.002890411997213960127589560400 0 0 0 0 
2412000000.0000000000 0.167779892683029202560263115629 -0.038225241005420691753347028907 -0.000747392827179282903671264648 0.003063556738197803930995322119 0 0 0 0 
2412166666.6666665077 0.167302355170249911209268134371 -0.039135102182626717304270158593 -0.000914959819056093692779541016 0.003302733879536389870884560693 0 0 0 0 
2412333333.3333334923 0.167181015014648409744424384371 -0.040086645632982247089426408593 -0.000835309852845966815948486328 0.003440449014306067986729287256 0 0 0 0 
2412500000.0000000000 0.166607007384300204178018134371 -0.040889095515012741088867187500 -0.000727543258108198642730712891 0.003727887058630586104152060400 0 0 0 0 
2412666666.6666665077 0.166415780782699612716513115629 -0.042066384106874472881276716407 -0.000654293340630829334259033203 0.003891526022925972938537597656 0 0 0 0 
2412833333.3333334923 0.166018709540367098709268134371 -0.043059010058641426776926408593 -0.000364680861821398084789830341 0.004047645721584559354300214551 0 0 0 0 
2413000000.0000000000 0.165461868047714205642861884371 -0.043882336467504501342773437500 -0.000383842183509841615527552472 0.003953217063099145889282226562 0 0 0 0 
2413166666.6666665077 0.164933353662490789215411268742 -0.044945269823074340820312500000 -0.000330080336425453424453735352 0.004239047877490521344656659863 0 0 0 0 
2413333333.3333334923 0.164415255188942011077557481258 -0.046016313135623931884765625000 0.000057657627621665596961975098 0.004327875562012195587158203125 0 0 0 0 
2413500000.0000000000 0.164037927985191400725994981258 -0.046908713877201080322265625000 0.000318241101922467405169886456 0.004360586870461702346801757812 0 0 0 0 
2413666666.6666665077 0.163664788007736206054687500000 -0.048058204352855682373046875000 0.000524486415088176727294921875 0.004550980404019355773925781250 0 0 0 0 
2413833333.3333334923 0.163123920559883089920205634371 -0.049026545137166976928710937500 0.000848826079163700342178344727 0.004537285771220923337454511426 0 0 0 0 
2414000000.0000000000 0.162386029958725003341513115629 -0.049982748925685882568359375000 0.001147212111391126892687153394 0.004535852465778589248657226562 0 0 0 0 
2414166666.6666665077 0.162091404199600191970986884371 -0.051019307225942611694335937500 0.001235589734278619072557758862 0.004387157503515481948852539062 0 0 0 0 
2414333333.3333334923 0.161680400371551513671875000000 -0.051902834326028816913645158593 0.001580188400112092928645468604 0.004382294137030839920043945312 0 0 0 0 
2414500000.0000000000 0.161593437194824190994424384371 -0.053027458488941192626953125000 0.001698566367849708037135458838 0.004377326928079128265380859375 0 0 0 0 
2414666666.6666665077 0.161121144890785189529580634371 -0.053915355354547500610351562500 0.002109457040205597877502441406 0.004271792713552713394165039062 0 0 0 0 
2414833333.3333334923 0.160746917128562899490518134371 -0.055095881223678588867187500000 0.002142140641808509826660156250 0.004031740594655275344848632812 0 0 0 0 
2415000000.0000000000 0.160425394773483304122763115629 -0.056097708642482757568359375000 0.002362024970352650122401572119 0.003943536896258592605590820312 0 0 0 0 
2415166666.6666665077 0.160333856940269497970419365629 -0.057243205606937408447265625000 0.002539866138249636130092001807 0.003753412049263716177699423682 0 0 0 0 
2415333333.3333334923 0.160197556018829401214276231258 -0.058492876589298248291015625000 0.002777863759547472000122070312 0.003761988133192061944248818506 0 0 0 0 
2415500000.0000000000 0.160014539957046508789062500000 -0.059641525149345397949218750000 0.002725258236750959916355752100 0.003386068623512982888462685693 0 0 0 0 
2415666666.6666665077 0.159832566976547213455361884371 -0.060737643390893943096120466407 0.002958481200039387182948447119 0.003509091679006814956665039062 0 0 0 0 
2415833333.3333334923 0.159834071993827792068643134371 -0.062076956033706671977956403907 0.003023678669705986976623535156 0.003273090347647666931152343750 0 0 0 0 
2416000000.0000000000 0.159358561038971002776776231258 -0.063255749642848968505859375000 0.003188748378306626839878701318 0.003175227902829647064208984375 0 0 0 0 
2416166666.6666665077 0.159343853592872591873330634371 -0.064602240920066833496093750000 0.003094948129728436903712607275 0.003002950455993413925170898438 0 0 0 0 
2416333333.3333334923 0.159100234508514404296875000000 -0.065772816538810729980468750000 0.003120227949693799018859863281 0.002866112627089024023768759619 0 0 0 0 
2416500000.0000000000 0.158930048346519497970419365629 -0.066966429352760314941406250000 0.003288542618975042863133095850 0.002510518534108995957615517725 0 0 0 0 
2416666666.6666665077 0.158603027462959289550781250000 -0.068200759589672088623046875000 0.003363206516951322989222861182 0.002497732173651456832885742188 0 0 0 0 
2416833333.3333334923 0.158289492130279513260049384371 -0.069638237357139587402343750000 0.003317234572023152871372841943 0.002421538811177014870884560693 0 0 0 0 
2417000000.0000000000 0.157821834087371798416299384371 -0.070730678737163543701171875000 0.003428442170843482017517089844 0.002297439612448215918300009619 0 0 0 0 
2417166666.6666665077 0.157587751746177701095419365629 -0.071573466062545776367187500000 0.003431702964007854895350790869 0.002066383603960276083705283057 0 0 0 0 
2417333333.3333334923 0.157275363802909906585369981258 -0.072718739509582519531250000000 0.003378630382940173149108886719 0.002044204156845808029174804688 0 0 0 0 
2417500000.0000000000 0.156986102461814908126669365629 -0.073959641158580780029296875000 0.003412954043596982955932617188 0.001891528023406862995745014722 0 0 0 0 
2417666666.6666665077 0.156718552112579401214276231258 -0.074649862945079803466796875000 0.003430452430620789961573935400 0.001644654897972940964939736475 0 0 0 0 
2417833333.3333334923 0.156609192490577697753906250000 -0.075552545487880706787109375000 0.003394851926714181900024414062 0.001481731072999536991119384766 0 0 0 0 
2418000000.0000000000 0.156180933117866488357705634371 -0.076418422162532806396484375000 0.003344774246215819878819131006 0.001407548901624978022334433447 0 0 0 0 
2418166666.6666665077 0.155931845307350186446981865629 -0.077150471508502960205078125000 0.003466588212177156968357705225 0.001248885877430438995361328125 0 0 0 0 
2418333333.3333334923 0.155920028686523409744424384371 -0.078085303306579589843750000000 0.003346423152834177017211914062 0.001188154332339764075038290869 0 0 0 0 
2418500000.0000000000 0.155663460493087796310263115629 -0.078772194683551788330078125000 0.003147943876683712005615234375 0.001269949716515839099884033203 0 0 0 0 
2418666666.6666665077 0.155434817075729397872763115629 -0.079768694937229156494140625000 0.003153748577460647063014365088 0.001197431702166795947431254810 0 0 0 0 
2418833333.3333334923 0.155080154538154602050781250000 -0.080363683402538299560546875000 0.003165693953633307976963662256 0.001178269041702151081682514722 0 0 0 0 
2419000000.0000000000 0.154799073934555109222088731258 -0.081011079251766204833984375000 0.003157696686685084862949990381 0.001146248192526400089263916016 0 0 0 0 
2419166666.6666665077 0.154551595449447604080361884371 -0.081869341433048248291015625000 0.003042180556803942160365439307 0.001243084901943803050397563403 0 0 0 0 
2419333333.3333334923 0.154011368751525906661825615629 -0.082196876406669616699218750000 0.003142386907711625099182128906 0.001193205593153833909275673975 0 0 0 0 
2419500000.0000000000 0.153737515211105402190838731258 -0.083020567893981933593750000000 0.003247863147407770156860351562 0.001246366882696747996686625903 0 0 0 0 
2419666666.6666665077 0.153614759445190401931924384371 -0.083627350628376007080078125000 0.003367427270859479904174804688 0.001297364826314151070238422925 0 0 0 0 
2419833333.3333334923 0.153078213334083612640057481258 -0.084046691656112670898437500000 0.003456002799794077873229980469 0.001051977393217385032056498950 0 0 0 0 
