# Version 1.00
#
freq[Hz];re:Trc1_S11;im:Trc1_S11;re:Trc2_S21;im:Trc2_S21;
2.400000000000000E+009;1.552443355321884E-001;1.066864877939224E-001;-2.372301882132888E-003;-2.681320300325751E-003;
2.400166666666667E+009;1.549478769302368E-001;1.042706593871117E-001;-2.473535016179085E-003;-2.499049995094538E-003;
2.400333333333334E+009;1.551723033189774E-001;1.020755320787430E-001;-2.322849351912737E-003;-2.082963474094868E-003;
2.400500000000000E+009;1.550186425447464E-001;9.914589673280716E-002;-2.468443708494306E-003;-1.788832829333842E-003;
2.400666666666667E+009;1.550086885690689E-001;9.680118411779404E-002;-2.330922288820148E-003;-1.467390567995608E-003;
2.400833333333334E+009;1.550014913082123E-001;9.398285299539566E-002;-2.223502378910780E-003;-1.185412867926061E-003;
2.401000000000000E+009;1.551439017057419E-001;9.098965674638748E-002;-2.028608927503228E-003;-9.919571457430720E-004;
2.401166666666667E+009;1.553440093994141E-001;8.826693147420883E-002;-1.756216166540980E-003;-6.617197068408132E-004;
2.401333333333334E+009;1.556330472230911E-001;8.541480451822281E-002;-1.564899692311883E-003;-6.812867941334844E-004;
2.401500000000000E+009;1.560673415660858E-001;8.246435225009918E-002;-1.226983382366598E-003;-4.631443880498409E-004;
2.401666666666667E+009;1.562298536300659E-001;7.965552806854248E-002;-1.131472527049482E-003;-4.488519334699959E-004;
2.401833333333334E+009;1.570416092872620E-001;7.689855247735977E-002;-9.318558732047677E-004;-5.694025312550366E-004;
2.402000000000000E+009;1.577374190092087E-001;7.399778068065643E-002;-5.198457511141896E-004;-7.830707472749054E-004;
2.402166666666667E+009;1.584285795688629E-001;7.149794697761536E-002;-5.392825114540756E-004;-8.551394566893578E-004;
2.402333333333334E+009;1.594843864440918E-001;6.874970346689224E-002;-1.885111996671185E-004;-9.902132442221046E-004;
2.402500000000000E+009;1.605808138847351E-001;6.625535339117050E-002;-4.770529048983008E-004;-1.122645568102598E-003;
2.402666666666667E+009;1.616448014974594E-001;6.390191614627838E-002;-2.879504754673690E-004;-1.234232215210795E-003;
2.402833333333334E+009;1.630697101354599E-001;6.137540936470032E-002;-2.942524442914873E-004;-1.447612186893821E-003;
2.403000000000000E+009;1.643444746732712E-001;5.899259820580483E-002;-2.905298024415970E-004;-1.662439550273120E-003;
2.403166666666667E+009;1.660230457782745E-001;5.674145743250847E-002;-3.345676232129335E-004;-1.679307315498591E-003;
2.403333333333334E+009;1.675369739532471E-001;5.442356318235397E-002;-5.022084806114435E-004;-1.731311436742544E-003;
2.403500000000000E+009;1.691905856132507E-001;5.245553329586983E-002;-5.367649137042463E-004;-1.844180980697274E-003;
2.403666666666667E+009;1.709378063678742E-001;5.050254985690117E-002;-6.028697243891656E-004;-2.172323176637292E-003;
2.403833333333334E+009;1.725558489561081E-001;4.876555502414703E-002;-5.098339170217514E-004;-1.961617264896631E-003;
2.404000000000000E+009;1.739556789398193E-001;4.673626273870468E-002;-7.603330304846168E-004;-1.995484577491880E-003;
2.404166666666667E+009;1.758785396814346E-001;4.539019241929054E-002;-7.959308568388224E-004;-2.064759843051434E-003;
2.404333333333334E+009;1.774209588766098E-001;4.389192536473274E-002;-7.983979303389788E-004;-2.023711800575256E-003;
2.404500000000000E+009;1.789871901273727E-001;4.251386225223541E-002;-8.714662399142981E-004;-2.064126310870051E-003;
2.404666666666667E+009;1.807024031877518E-001;4.162025451660156E-002;-8.940669358707964E-004;-2.212612424045801E-003;
2.404833333333334E+009;1.823344081640244E-001;4.041718691587448E-002;-9.459622087888420E-004;-2.203026320785284E-003;
2.405000000000000E+009;1.836311966180801E-001;3.970267623662949E-002;-9.730993187986314E-004;-2.203881507739425E-003;
2.405166666666667E+009;1.851936131715775E-001;3.904426470398903E-002;-9.997981833294034E-004;-2.413253067061305E-003;
2.405333333333334E+009;1.864708364009857E-001;3.862005472183228E-002;-1.171333482488990E-003;-2.299598651006818E-003;
2.405500000000000E+009;1.879158616065979E-001;3.821777552366257E-002;-1.368462108075619E-003;-2.335753059014678E-003;
2.405666666666667E+009;1.891058534383774E-001;3.785751387476921E-002;-1.459677587263286E-003;-2.344910986721516E-003;
2.405833333333334E+009;1.903835684061050E-001;3.755386546254158E-002;-1.567507511936128E-003;-2.298080362379551E-003;
2.406000000000000E+009;1.915071904659271E-001;3.750442340970039E-002;-1.604470424354076E-003;-2.471829531714320E-003;
2.406166666666667E+009;1.923982203006744E-001;3.729746490716934E-002;-1.714637037366629E-003;-2.276550978422165E-003;
2.406333333333334E+009;1.933625638484955E-001;3.735971450805664E-002;-1.915185246616602E-003;-2.279346808791161E-003;
2.406500000000000E+009;1.941477358341217E-001;3.756946697831154E-002;-1.987260300666094E-003;-2.273677848279476E-003;
2.406666666666667E+009;1.947598457336426E-001;3.759206086397171E-002;-2.142620272934437E-003;-2.317123580724001E-003;
2.406833333333334E+009;1.952268928289414E-001;3.769644722342491E-002;-2.180556533858180E-003;-2.245198469609022E-003;
2.407000000000000E+009;1.956119537353516E-001;3.790691494941711E-002;-2.403906546533108E-003;-2.237991895526648E-003;
2.407166666666667E+009;1.959366798400879E-001;3.769212588667870E-002;-2.399055520072579E-003;-2.086211228743196E-003;
2.407333333333334E+009;1.958315074443817E-001;3.799339011311531E-002;-2.567632123827934E-003;-2.028010552749038E-003;
2.407500000000000E+009;1.958344578742981E-001;3.809966519474983E-002;-2.806444419547916E-003;-2.002621302381158E-003;
2.407666666666667E+009;1.959073543548584E-001;3.801522403955460E-002;-2.770513761788607E-003;-2.058034297078848E-003;
2.407833333333334E+009;1.954504549503326E-001;3.794009611010552E-002;-2.998888259753585E-003;-1.823523663915694E-003;
2.408000000000000E+009;1.954020708799362E-001;3.781842812895775E-002;-3.003483638167381E-003;-1.727830502204597E-003;
2.408166666666667E+009;1.947507262229919E-001;3.763033077120781E-002;-3.020660486072302E-003;-1.620737952180207E-003;
2.408333333333334E+009;1.944202482700348E-001;3.709121048450470E-002;-3.139912849292159E-003;-1.555416500195861E-003;
2.408500000000000E+009;1.936146765947342E-001;3.686022013425827E-002;-3.298547351732850E-003;-1.457655336707830E-003;
2.408666666666667E+009;1.929957717657089E-001;3.626852482557297E-002;-3.175874706357718E-003;-1.280028023757041E-003;
2.408833333333334E+009;1.924036145210266E-001;3.556872531771660E-002;-3.348672762513161E-003;-1.093110535293818E-003;
2.409000000000000E+009;1.913755834102631E-001;3.474956378340721E-002;-3.391944570466876E-003;-9.575322619639337E-004;
2.409166666666667E+009;1.904764175415039E-001;3.382419422268868E-002;-3.387791803106666E-003;-1.031142543070018E-003;
2.409333333333334E+009;1.895775943994522E-001;3.284335136413574E-002;-3.490806324407458E-003;-7.585560088045895E-004;
2.409500000000000E+009;1.886024624109268E-001;3.161810338497162E-002;-3.523010294884443E-003;-8.641126914881170E-004;
2.409666666666667E+009;1.874492466449738E-001;3.000826761126518E-002;-3.509575035423040E-003;-5.458764499053359E-004;
2.409833333333334E+009;1.864372044801712E-001;2.860521897673607E-002;-3.702890826389194E-003;-5.444816779345274E-004;
2.410000000000000E+009;1.854474693536758E-001;2.687061391770840E-002;-3.629639511927962E-003;-3.388770564924926E-004;
2.410166666666667E+009;1.843888461589813E-001;2.515340037643910E-002;-3.637136192992330E-003;-2.110201894538477E-004;
2.410333333333334E+009;1.834960132837296E-001;2.340127900242806E-002;-3.556720446795225E-003;2.333053316760925E-006;
2.410500000000000E+009;1.824286729097366E-001;2.144549600780010E-002;-3.729013027623296E-003;1.521571102784947E-004;
2.410666666666667E+009;1.814916282892227E-001;1.917166076600552E-002;-3.590956097468734E-003;1.128202493418939E-004;
2.410833333333334E+009;1.808812916278839E-001;1.703003980219364E-002;-3.667114535346627E-003;3.477900463622063E-004;
2.411000000000000E+009;1.801322102546692E-001;1.474414300173521E-002;-3.623171010985971E-003;4.242949362378568E-004;
2.411166666666667E+009;1.796344816684723E-001;1.259175688028336E-002;-3.594333538785577E-003;5.624290206469595E-004;
2.411333333333334E+009;1.790109127759934E-001;9.950222447514534E-003;-3.539097728207707E-003;7.774553960189223E-004;
2.411500000000000E+009;1.786012500524521E-001;7.688866462558508E-003;-3.464946057647467E-003;7.692209910601378E-004;
2.411666666666667E+009;1.782471388578415E-001;5.310642998665571E-003;-3.619479015469551E-003;7.981038652360439E-004;
2.411833333333334E+009;1.780815720558167E-001;2.947788918390870E-003;-3.550735767930746E-003;8.920406107790768E-004;
2.412000000000000E+009;1.783099919557571E-001;3.000983269885182E-004;-3.536009229719639E-003;1.013768953271210E-003;
2.412166666666667E+009;1.783728450536728E-001;-2.087101573124528E-003;-3.440458094701171E-003;1.107177813537419E-003;
2.412333333333334E+009;1.785344034433365E-001;-4.559766966849566E-003;-3.384772455319762E-003;1.262956880964339E-003;
2.412500000000000E+009;1.791734993457794E-001;-7.163402624428272E-003;-3.442825283855200E-003;1.267765183001757E-003;
2.412666666666667E+009;1.795914918184280E-001;-9.559360332787037E-003;-3.443574998527765E-003;1.377642969600856E-003;
2.412833333333334E+009;1.802135854959488E-001;-1.198659557849169E-002;-3.223346779122949E-003;1.467329799197614E-003;
2.413000000000000E+009;1.810124963521957E-001;-1.434027031064034E-002;-3.282794961705804E-003;1.455666730180383E-003;
2.413166666666667E+009;1.817664355039597E-001;-1.663180999457836E-002;-3.377456916496158E-003;1.689227647148073E-003;
2.413333333333334E+009;1.829401403665543E-001;-1.895725354552269E-002;-3.403814975172281E-003;1.793269068002701E-003;
2.413500000000000E+009;1.838498413562775E-001;-2.126368880271912E-002;-3.358406713232398E-003;1.895270776003599E-003;
2.413666666666667E+009;1.851268559694290E-001;-2.334142290055752E-002;-3.344338852912188E-003;1.994350459426642E-003;
2.413833333333334E+009;1.861932873725891E-001;-2.550688199698925E-002;-3.398015629500151E-003;2.082427730783820E-003;
2.414000000000000E+009;1.873003244400024E-001;-2.741833217442036E-002;-3.136345883831382E-003;2.461289521306753E-003;
2.414166666666667E+009;1.886717826128006E-001;-2.929775975644589E-002;-3.149384632706642E-003;2.630699891597033E-003;
2.414333333333334E+009;1.896595507860184E-001;-3.130380809307098E-002;-3.107235068455339E-003;2.685429528355598E-003;
2.414500000000000E+009;1.911455541849136E-001;-3.267617896199226E-002;-3.002987476065755E-003;2.794869942590594E-003;
2.414666666666667E+009;1.921793222427368E-001;-3.427004069089890E-002;-2.592333825305104E-003;3.080095397308469E-003;
2.414833333333334E+009;1.934169977903366E-001;-3.578067198395729E-002;-2.514073858037591E-003;2.917281119152904E-003;
2.415000000000000E+009;1.944350302219391E-001;-3.697354719042778E-002;-2.424077363684773E-003;3.141582710668445E-003;
2.415166666666667E+009;1.957011520862579E-001;-3.818107023835182E-002;-2.228318713605404E-003;3.256283234804869E-003;
2.415333333333334E+009;1.968286186456680E-001;-3.908750414848328E-002;-2.138318028301001E-003;3.320588264614344E-003;
2.415500000000000E+009;1.979716867208481E-001;-3.990162163972855E-002;-1.930054859258235E-003;3.515997203066945E-003;
2.415666666666667E+009;1.989592462778091E-001;-4.086073860526085E-002;-1.757532125338912E-003;3.508716356009245E-003;
2.415833333333334E+009;1.998056471347809E-001;-4.126513749361038E-002;-1.556079136207700E-003;3.504595952108502E-003;
2.416000000000000E+009;2.006446272134781E-001;-4.194210842251778E-002;-1.268373103812337E-003;3.589343279600143E-003;
2.416166666666667E+009;2.012884765863419E-001;-4.246984049677849E-002;-1.100971130654216E-003;3.631140338256955E-003;
2.416333333333334E+009;2.018363177776337E-001;-4.271329566836357E-002;-9.216755861416459E-004;3.658183384686709E-003;
2.416500000000000E+009;2.023589015007019E-001;-4.281817749142647E-002;-7.440811023116112E-004;3.515876596793532E-003;
2.416666666666667E+009;2.026053816080093E-001;-4.321423545479775E-002;-6.578835309483111E-004;3.409693483263254E-003;
2.416833333333334E+009;2.027651667594910E-001;-4.312228783965111E-002;-4.379047022666782E-004;3.377941437065601E-003;
2.417000000000000E+009;2.029703855514526E-001;-4.335760697722435E-002;-3.423634043429047E-004;3.148603020235896E-003;
2.417166666666667E+009;2.026093751192093E-001;-4.325418546795845E-002;-1.507105625933036E-004;3.168298397213221E-003;
2.417333333333334E+009;2.024227678775787E-001;-4.303639754652977E-002;-1.545016566524282E-004;3.106920514255762E-003;
2.417500000000000E+009;2.021722197532654E-001;-4.297031462192535E-002;-1.282898483623285E-005;3.190806135535240E-003;
2.417666666666667E+009;2.016654163599014E-001;-4.277274757623673E-002;-7.132547762012109E-005;3.101286944001913E-003;
2.417833333333334E+009;2.011051177978516E-001;-4.256727918982506E-002;2.319137856829912E-004;3.065796103328466E-003;
2.418000000000000E+009;2.005157023668289E-001;-4.220122098922730E-002;1.938394561875612E-004;2.946593100205064E-003;
2.418166666666667E+009;1.997400969266892E-001;-4.218939691781998E-002;3.706574789248407E-004;2.849539509043098E-003;
2.418333333333334E+009;1.988975703716278E-001;-4.201175644993782E-002;5.134025705046952E-004;2.974668284878135E-003;
2.418500000000000E+009;1.978134512901306E-001;-4.199498146772385E-002;5.465041031129658E-004;2.765837125480175E-003;
2.418666666666667E+009;1.967227309942246E-001;-4.190750792622566E-002;7.142240647226572E-004;2.615721663460136E-003;
2.418833333333334E+009;1.954674273729324E-001;-4.212516918778420E-002;7.903365185484290E-004;2.714590169489384E-003;
2.419000000000000E+009;1.941595971584320E-001;-4.235435277223587E-002;9.310814784839749E-004;2.415250288322568E-003;
2.419166666666667E+009;1.929466277360916E-001;-4.253862798213959E-002;9.723925031721592E-004;2.369859023019671E-003;
2.419333333333334E+009;1.914663612842560E-001;-4.307564720511437E-002;9.795790538191795E-004;2.127940999343991E-003;
2.419500000000000E+009;1.900126636028290E-001;-4.361045733094215E-002;1.139267580583692E-003;2.035622717812657E-003;
2.419666666666667E+009;1.882973313331604E-001;-4.419589415192604E-002;1.026008860208094E-003;1.769694616086781E-003;
2.419833333333334E+009;1.867333501577377E-001;-4.488132148981094E-002;1.096159568987787E-003;1.625536591745913E-003;
2.420000000000000E+009;1.852270364761353E-001;-4.572195187211037E-002;9.873167145997286E-004;1.517501543276012E-003;
2.420166666666667E+009;1.835298687219620E-001;-4.671649262309074E-002;8.132520015351474E-004;1.356087159365416E-003;
2.420333333333334E+009;1.819009780883789E-001;-4.776164144277573E-002;5.899533280171454E-004;1.175741082988679E-003;
2.420500000000000E+009;1.802396625280380E-001;-4.914429038763046E-002;3.524011699482799E-004;1.051221857778728E-003;
2.420666666666667E+009;1.786949336528778E-001;-5.043385550379753E-002;1.619801769265905E-004;1.121732173487544E-003;
2.420833333333334E+009;1.769245713949204E-001;-5.184889957308769E-002;-1.623160414965241E-006;1.154188299551606E-003;
2.421000000000000E+009;1.753436177968979E-001;-5.346352607011795E-002;-1.406333612976596E-004;1.266523846425116E-003;
2.421166666666667E+009;1.740409582853317E-001;-5.523975566029549E-002;-3.179132763762027E-004;1.362476847134531E-003;
2.421333333333334E+009;1.724031567573547E-001;-5.670869350433350E-002;-4.651889903470874E-004;1.266420236788690E-003;
2.421500000000000E+009;1.710720062255859E-001;-5.862667411565781E-002;-6.089808885008097E-004;1.587084378115833E-003;
2.421666666666667E+009;1.697811931371689E-001;-6.036884710192680E-002;-5.978349363431335E-004;1.654773950576782E-003;
2.421833333333334E+009;1.687645614147186E-001;-6.243024766445160E-002;-6.923347245901823E-004;1.738399267196655E-003;
2.422000000000000E+009;1.675896644592285E-001;-6.411663442850113E-002;-7.103760726749897E-004;2.204323653131723E-003;
2.422166666666667E+009;1.667601168155670E-001;-6.622819602489471E-002;-6.239173235371709E-004;2.125354716554284E-003;
2.422333333333334E+009;1.656989604234695E-001;-6.843103468418121E-002;-6.114733987487853E-004;2.282643690705299E-003;
2.422500000000000E+009;1.649734377861023E-001;-7.020997256040573E-002;-4.427930980455130E-004;2.711311215534806E-003;
2.422666666666667E+009;1.641698926687241E-001;-7.238046824932098E-002;-4.185267607681453E-004;2.674958435818553E-003;
2.422833333333334E+009;1.639039814472199E-001;-7.448711246252060E-002;-3.159741754643619E-004;2.775411820039153E-003;
2.423000000000000E+009;1.633153408765793E-001;-7.661025226116180E-002;-1.382794434903190E-004;2.736224560067058E-003;
2.423166666666667E+009;1.630718559026718E-001;-7.849708199501038E-002;-1.340051530860364E-004;3.038877155631781E-003;
2.423333333333334E+009;1.627920866012573E-001;-8.049315959215164E-002;-3.022017517650966E-005;3.082217881456018E-003;
2.423500000000000E+009;1.627151370048523E-001;-8.241859078407288E-002;1.288657513214275E-004;2.922440646216273E-003;
2.423666666666667E+009;1.627413928508759E-001;-8.434918522834778E-002;1.814762799767777E-004;3.243856597691774E-003;
2.423833333333334E+009;1.627974808216095E-001;-8.608622848987579E-002;3.267532738391310E-004;3.209081245586276E-003;
2.424000000000000E+009;1.627987921237946E-001;-8.790197968482971E-002;6.198232294991612E-004;3.265358507633209E-003;
2.424166666666667E+009;1.629593968391419E-001;-8.955238759517670E-002;5.594624090008438E-004;3.274393733590841E-003;
2.424333333333334E+009;1.632543057203293E-001;-9.113352000713348E-002;6.946327630430460E-004;3.411551471799612E-003;
2.424500000000000E+009;1.636607646942139E-001;-9.277871251106262E-002;9.040022850967944E-004;3.509051864966750E-003;
2.424666666666667E+009;1.637747436761856E-001;-9.414838254451752E-002;1.185935921967030E-003;3.412247635424137E-003;
2.424833333333334E+009;1.644920557737351E-001;-9.549929201602936E-002;1.342638744972646E-003;3.427662886679173E-003;
2.425000000000000E+009;1.647447198629379E-001;-9.675060957670212E-002;1.577299437485635E-003;3.480580635368824E-003;
2.425166666666667E+009;1.651586741209030E-001;-9.769926220178604E-002;1.582707278430462E-003;3.491993993520737E-003;
2.425333333333334E+009;1.654331088066101E-001;-9.876199066638947E-002;1.903044641949236E-003;3.417846979573369E-003;
2.425500000000000E+009;1.658719629049301E-001;-9.964925795793533E-002;2.010471886023879E-003;3.601088188588619E-003;
2.425666666666667E+009;1.664544939994812E-001;-1.004496291279793E-001;2.323648193851113E-003;3.478378290310502E-003;
2.425833333333334E+009;1.666202992200851E-001;-1.012518480420113E-001;2.575369318947196E-003;3.378583351150155E-003;
2.426000000000000E+009;1.671542078256607E-001;-1.016103401780129E-001;2.857027109712362E-003;3.217206802219153E-003;
2.426166666666667E+009;1.675157248973846E-001;-1.021547093987465E-001;2.931344555690885E-003;3.010071115568280E-003;
2.426333333333334E+009;1.675543189048767E-001;-1.026518419384956E-001;3.036970971152186E-003;2.913770033046603E-003;
2.426500000000000E+009;1.680571734905243E-001;-1.029174625873566E-001;3.196779172867537E-003;2.630481962114573E-003;
2.426666666666667E+009;1.683180183172226E-001;-1.031587347388268E-001;3.389131743460894E-003;2.524411538615823E-003;
2.426833333333334E+009;1.685167551040649E-001;-1.035539284348488E-001;3.499106504023075E-003;2.179358154535294E-003;
2.427000000000000E+009;1.684199720621109E-001;-1.036965250968933E-001;3.470143070444465E-003;2.200817456468940E-003;
2.427166666666667E+009;1.685221791267395E-001;-1.037770062685013E-001;3.598059760406613E-003;1.841112505644560E-003;
2.427333333333334E+009;1.683772504329681E-001;-1.039594709873200E-001;3.640048205852509E-003;1.707300078123808E-003;
2.427500000000000E+009;1.680942177772522E-001;-1.040456518530846E-001;3.782478393986821E-003;1.645869226194918E-003;
2.427666666666667E+009;1.678294092416763E-001;-1.041126996278763E-001;3.752959659323096E-003;1.468267175368965E-003;
