# Hz S RI R 50
2400000000.0000000000 0.150985091924667386154013115629 0.114273570477962493896484375000 0.000954972812905907630920410156 -0.004523476585745812329764081738 0 0 0 0 
2400166666.6666665077 0.150711536407470703125000000000 0.111983716487884493728799384371 0.000729646184481680393218994141 -0.004466327372938395413870527051 0 0 0 0 
2400333333.3333334923 0.151039808988571194747763115629 0.109782926738262204269247490629 0.000884428271092474460601806641 -0.004677726887166500091552734375 0 0 0 0 
2400500000.0000000000 0.150989904999732998946981865629 0.107062563300132793098207173443 0.000968724023550748825073242188 -0.004589792806655169400686933301 0 0 0 0 
2400666666.6666665077 0.151234224438667297363281250000 0.104500472545623793174662807814 0.000822793575935065746307373047 -0.004704094026237726211547851562 0 0 0 0 
2400833333.3333334923 0.151118278503417996505575615629 0.101619414985179901123046875000 0.000682761019561439752578735352 -0.004748259205371140566354082324 0 0 0 0 
2401000000.0000000000 0.151587501168251009842080634371 0.098799347877502441406250000000 0.000595597375649958848953247070 -0.005044336896389722824096679688 0 0 0 0 
2401166666.6666665077 0.151795208454132107833700615629 0.096113942563533782958984375000 0.000506973534356802701950073242 -0.005060795694589614868164062500 0 0 0 0 
2401333333.3333334923 0.152441173791885403732138115629 0.093132883310317993164062500000 0.000362517952453345114558619366 -0.005296768154948949813842773438 0 0 0 0 
2401500000.0000000000 0.152813300490379305740518134371 0.090320274233818054199218750000 0.000092501017206814140081405640 -0.005526513326913118362426757812 0 0 0 0 
2401666666.6666665077 0.153367266058921786209268134371 0.087447144091129302978515625000 -0.000351941242115572094917297363 -0.005626271013170480728149414062 0 0 0 0 
2401833333.3333334923 0.154002189636230496505575615629 0.084950461983680725097656250000 -0.000582096516154706478118896484 -0.005672233644872903823852539062 0 0 0 0 
2402000000.0000000000 0.154940769076347406585369981258 0.081868320703506469726562500000 -0.000991430948488414287567138672 -0.005618069786578416824340820312 0 0 0 0 
2402166666.6666665077 0.155792161822319003006143134371 0.079396300017833709716796875000 -0.001243325765244662978528666919 -0.005568919703364372253417968750 0 0 0 0 
2402333333.3333334923 0.156888529658317593673544365629 0.076789878308773040771484375000 -0.001659482251852750995038676685 -0.005470209289342164993286132812 0 0 0 0 
2402500000.0000000000 0.158247143030166598220986884371 0.074150227010250091552734375000 -0.001902395975776016929029155200 -0.005514463409781455993652343750 0 0 0 0 
2402666666.6666665077 0.159482732415199307540731865629 0.071827948093414306640625000000 -0.002011470030993223190307617188 -0.005311829503625631332397460938 0 0 0 0 
2402833333.3333334923 0.161013498902320889571981865629 0.069323502480983734130859375000 -0.002454873407259583906886435400 -0.005257439333945512771606445312 0 0 0 0 
2403000000.0000000000 0.162755176424980191329794365629 0.067069560289382934570312500000 -0.002606240333989263014552451025 -0.004953068681061267852783203125 0 0 0 0 
2403166666.6666665077 0.164595171809196499923544365629 0.064787961542606353759765625000 -0.002721607452258468107936240088 -0.004891420248895884427542402051 0 0 0 0 
2403333333.3333334923 0.166243359446525601486044365629 0.062628239393234252929687500000 -0.003104734700173140005824423682 -0.004566520918160676956176757812 0 0 0 0 
2403500000.0000000000 0.168064773082733209808026231258 0.060425478965044021606445312500 -0.003150936216115951971766806494 -0.004311589524149894714355468750 0 0 0 0 
2403666666.6666665077 0.170143350958824213225994981258 0.058490496128797531127929687500 -0.003130481578409671783447265625 -0.004205461591482163342947675488 0 0 0 0 
2403833333.3333334923 0.171812251210212707519531250000 0.056488733738660812377929687500 -0.003258813172578812079188681494 -0.004068115726113319396972656250 0 0 0 0 
2404000000.0000000000 0.173883348703384399414062500000 0.054760213941335678100585937500 -0.003283735830336809158325195312 -0.003849813481792808012721396338 0 0 0 0 
2404166666.6666665077 0.175691962242126492599325615629 0.053177598863840103149414062500 -0.003249034984037280082702636719 -0.003644615877419710159301757812 0 0 0 0 
2404333333.3333334923 0.177622452378273010253906250000 0.051631841808557510375976562500 -0.003580919466912745995762490381 -0.003489858238026500181910849463 0 0 0 0 
2404500000.0000000000 0.179410144686698913574218750000 0.050013221800327301025390625000 -0.003570690983906387849095009912 -0.003497357945889234976527548682 0 0 0 0 
2404666666.6666665077 0.181240752339363098144531250000 0.048925362527370452880859375000 -0.003466646652668714956996298682 -0.003305664286017417907714843750 0 0 0 0 
2404833333.3333334923 0.182961344718933105468750000000 0.047757674008607857440988908593 -0.003720250912010670141932822119 -0.003203838830813765959498740088 0 0 0 0 
2405000000.0000000000 0.184486880898475702483807481258 0.047095589339733116840402971093 -0.003563290694728494124171591650 -0.003175021847710012955906533350 0 0 0 0 
2405166666.6666665077 0.186163306236267089843750000000 0.046358030289411551738698591407 -0.003810670925304294066188193213 -0.002973778871819376945495605469 0 0 0 0 
2405333333.3333334923 0.187748089432716397384481865629 0.045746158808469772338867187500 -0.004006785806268453598022460938 -0.002973017282783985137939453125 0 0 0 0 
2405500000.0000000000 0.189261183142662103850994981258 0.045110281556844711303710937500 -0.004075098317116498947143554688 -0.002905634231865406036376953125 0 0 0 0 
2405666666.6666665077 0.190635472536087008377236884371 0.044752847403287887573242187500 -0.004194862209260463714599609375 -0.002714206464588642120361328125 0 0 0 0 
2405833333.3333334923 0.192068964242935208419638115629 0.044475696980953216552734375000 -0.004124423023313283920288085938 -0.002557171974331140951869345557 0 0 0 0 
2406000000.0000000000 0.193194866180419894119424384371 0.044297825545072562480886091407 -0.004398080520331859588623046875 -0.002517188899219036102294921875 0 0 0 0 
2406166666.6666665077 0.194358602166175786774005018742 0.044080663472414016723632812500 -0.004628441762179136276245117188 -0.002237374428659677939174033057 0 0 0 0 
2406333333.3333334923 0.195467501878738403320312500000 0.044041525572538382793386091407 -0.004740421660244464874267578125 -0.002056315075606108145472861182 0 0 0 0 
2406500000.0000000000 0.196284979581832913497763115629 0.043959032744169242168386091407 -0.004823026712983846664428710938 -0.001829901593737303993822407300 0 0 0 0 
2406666666.6666665077 0.197016701102256802657919365629 0.043967641890048980712890625000 -0.004808182828128337860107421875 -0.001704282709397376017329550635 0 0 0 0 
2406833333.3333334923 0.197640269994735690017861884371 0.043958917260169982910156250000 -0.004870830569416285428518964551 -0.001470542280003428892848349463 0 0 0 0 
2407000000.0000000000 0.197913199663162203689736884371 0.043955683708190917968750000000 -0.004971261601895093917846679688 -0.001420789398252964019775390625 0 0 0 0 
2407166666.6666665077 0.198339924216270502288494981258 0.043765682727098471904714216407 -0.004907495342195034027099609375 -0.001113224658183753924128867041 0 0 0 0 
2407333333.3333334923 0.198455184698104886154013115629 0.043864540755748748779296875000 -0.004881681408733130368704511426 -0.000952879141550511121749877930 0 0 0 0 
2407500000.0000000000 0.198340967297553988357705634371 0.043877463787794113159179687500 -0.004868008662015199661254882812 -0.000684557075146585702896118164 0 0 0 0 
2407666666.6666665077 0.198457628488540704925213731258 0.043662115931510932231862653907 -0.004768040496855974197387695312 -0.000495965068694204092025756836 0 0 0 0 
2407833333.3333334923 0.198055788874626187423544365629 0.043553210794925689697265625000 -0.004978162702172994613647460938 -0.000174568733200430897161206656 0 0 0 0 
2408000000.0000000000 0.197906389832496587555255018742 0.043365750461816787719726562500 -0.004876509308815001574044512012 -0.000140644231578335193082532339 0 0 0 0 
2408166666.6666665077 0.197334557771682711502236884371 0.043025657534599297260324846093 -0.004964489489793778333182050488 -0.000176917121279984712600708008 0 0 0 0 
2408333333.3333334923 0.196814492344856289962606865629 0.042644493281841278076171875000 -0.004786186851561070355887128613 0.000214154904824681607171735220 0 0 0 0 
2408500000.0000000000 0.196086764335632296463174384371 0.042161747813224792480468750000 -0.004731690511107444763183593750 0.000366942433174699490696507587 0 0 0 0 
2408666666.6666665077 0.195494875311851501464843750000 0.041564185172319412231445312500 -0.004647049587219954404349042676 0.000442397024016827290684300555 0 0 0 0 
2408833333.3333334923 0.194665968418121310135049384371 0.040671415627002723003347028907 -0.004582170397043228149414062500 0.000597863516304641962051391602 0 0 0 0 
2409000000.0000000000 0.193540960550308199783486884371 0.039839398115873336791992187500 -0.004389585461467505368704511426 0.000747551734093576669692993164 0 0 0 0 
2409166666.6666665077 0.192597195506095886230468750000 0.038840215653181082988698591407 -0.004394949879497289657592773438 0.001078088534995913939235068213 0 0 0 0 
2409333333.3333334923 0.191728636622428894042968750000 0.037780985236167907714843750000 -0.004346088971942663192749023438 0.001104426570236682891845703125 0 0 0 0 
2409500000.0000000000 0.190367132425308199783486884371 0.036431185901165008544921875000 -0.004265396390110254287719726562 0.001240062876604496999027871240 0 0 0 0 
2409666666.6666665077 0.189352229237556513030682481258 0.034980807453393943096120466407 -0.004137346521019935607910156250 0.001404265989549458026885986328 0 0 0 0 
2409833333.3333334923 0.188119754195213290115518134371 0.033466584980487816547434221093 -0.003976490814238786697387695312 0.001485169399529695944545126807 0 0 0 0 
2410000000.0000000000 0.187280341982841491699218750000 0.031881488859653472900390625000 -0.003937612287700176239013671875 0.001561212120577692985534667969 0 0 0 0 
2410166666.6666665077 0.185987472534179687500000000000 0.029987912625074390066126639454 -0.003833231283351778984069824219 0.001424958463758229992510151440 0 0 0 0 
2410333333.3333334923 0.184984505176544189453125000000 0.028119264170527461660364920704 -0.003674609819427133040187216650 0.001468559377826750061632465894 0 0 0 0 
2410500000.0000000000 0.183903902769088800628338731258 0.026296665892004970205286795704 -0.003541301004588603973388671875 0.001440542633645236925837851416 0 0 0 0 
2410666666.6666665077 0.182782545685768099685830634371 0.024038065224885940551757812500 -0.003568796208128333091735839844 0.001638904446735977909685444409 0 0 0 0 
2410833333.3333334923 0.182114213705062893966513115629 0.021783325821161270141601562500 -0.003489468013867735862731933594 0.001512429560534656047821044922 0 0 0 0 
2411000000.0000000000 0.181377217173576410491619981258 0.019566759467124938964843750000 -0.003322828328236937956569052588 0.001615486107766628048540424878 0 0 0 0 
2411166666.6666665077 0.180562421679496792892294365629 0.017387703061103820800781250000 -0.003544854465872048897984170068 0.001480053761042654947993613135 0 0 0 0 
2411333333.3333334923 0.180137917399406405349893134371 0.014724206179380420339564139454 -0.003487644717097281975987099756 0.001307929749600589058519672925 0 0 0 0 
2411500000.0000000000 0.179368153214454706390057481258 0.012421413324773309880266758398 -0.003450558753684163093566894531 0.001256255432963371060015034253 0 0 0 0 
2411666666.6666665077 0.179293647408485412597656250000 0.010096780955791469919224923046 -0.003559813601896166801452636719 0.001472945441491902091382670825 0 0 0 0 
2411833333.3333334923 0.179077014327049310882244981258 0.007505674380809068679809570312 -0.003683303249999880790710449219 0.001524183084256947040557861328 0 0 0 0 
2412000000.0000000000 0.179121404886245699783486884371 0.004981328733265399932861328125 -0.003743001725524663925170898438 0.001594727276824414946912455981 0 0 0 0 
2412166666.6666665077 0.179016470909118707854901231258 0.002572919940575956864597939600 -0.003805258776992558999302529443 0.001753025571815669970271445166 0 0 0 0 
2412333333.3333334923 0.179389134049415588378906250000 0.000044154196075396612286567688 -0.003934365697205066680908203125 0.001872968161478639082667685400 0 0 0 0 
2412500000.0000000000 0.179495915770530700683593750000 -0.002476804191246629194972372900 -0.004076874349266290664672851562 0.001971200807020068168640136719 0 0 0 0 
2412666666.6666665077 0.180173337459564208984375000000 -0.005011268891394138336181640625 -0.004061497747898101806640625000 0.002190358238294721083400107275 0 0 0 0 
2412833333.3333334923 0.180838972330093411544638115629 -0.007476021070033311843872070312 -0.004094836302101612091064453125 0.002160328906029462814331054688 0 0 0 0 
2413000000.0000000000 0.181614741683006286621093750000 -0.009855929762125015258789062500 -0.004306137096136808395385742188 0.002483695279806851907017373193 0 0 0 0 
2413166666.6666665077 0.182255014777183504959268134371 -0.012148747220635410654088204296 -0.004109650850296021375174237988 0.002775603905320167975184775244 0 0 0 0 
2413333333.3333334923 0.183019250631332397460937500000 -0.014561109244823459279993826954 -0.003941586706787347793579101562 0.003114734543487430052516318213 0 0 0 0 
2413500000.0000000000 0.184088870882988003829794365629 -0.016777401790022850036621093750 -0.004049446433782578382010175488 0.003304959507659078078029013525 0 0 0 0 
2413666666.6666665077 0.185317158699035589020098768742 -0.019037608057260509836217110546 -0.003967376891523599624633789062 0.003770394949242473082301474463 0 0 0 0 
2413833333.3333334923 0.186494305729866000076455634371 -0.021073408424854278564453125000 -0.003690146142616868019104003906 0.004043221473693847656250000000 0 0 0 0 
2414000000.0000000000 0.187435880303382901290731865629 -0.023065812885761260986328125000 -0.003506468841806054115295410156 0.004317392595112323760986328125 0 0 0 0 
2414166666.6666665077 0.188803791999816894531250000000 -0.024895448237657550466517264454 -0.003133261576294898986816406250 0.004586051683872938156127929688 0 0 0 0 
2414333333.3333334923 0.189977183938026400467080634371 -0.026850374415516849863072579296 -0.002990918699651956991908408057 0.004838323220610618591308593750 0 0 0 0 
2414500000.0000000000 0.191219031810760498046875000000 -0.028386948630213740957239920704 -0.002760289702564477920532226562 0.004877255298197268572335527637 0 0 0 0 
2414666666.6666665077 0.192485049366950988769531250000 -0.029935166239738460886021798046 -0.002468992490321398215052939307 0.005130182020366191864013671875 0 0 0 0 
2414833333.3333334923 0.193509951233863802810830634371 -0.031367842108011252666432966407 -0.002235340885818005041835165869 0.005261179059743881225585937500 0 0 0 0 
2415000000.0000000000 0.194604963064193697830361884371 -0.032524127513170242309570312500 -0.001805753912776709036586142432 0.005475989077240228652954101562 0 0 0 0 
2415166666.6666665077 0.195857226848602294921875000000 -0.033862974494695663452148437500 -0.001686312956735491969464946216 0.005332455504685640335083007812 0 0 0 0 
2415333333.3333334923 0.197027489542961092849893134371 -0.034732986241579062725026716407 -0.001330992323346436023712158203 0.005398430395871400833129882812 0 0 0 0 
2415500000.0000000000 0.198344871401786804199218750000 -0.035447087138891220092773437500 -0.001030388753861189105390239185 0.005497757345438004407400800488 0 0 0 0 
2415666666.6666665077 0.199225187301635686676348768742 -0.036316249519586563110351562500 -0.001064716256223618984222412109 0.005367392208427190780639648438 0 0 0 0 
2415833333.3333334923 0.200119212269782992263955634371 -0.036811366677284240722656250000 -0.000547898642253130674362182617 0.005320615135133265581612871387 0 0 0 0 
2416000000.0000000000 0.200889140367507906814736884371 -0.037418685853481292724609375000 -0.000474482076242566108703613281 0.005363758187741041183471679688 0 0 0 0 
2416166666.6666665077 0.201591268181800786774005018742 -0.037984233349561691284179687500 -0.000275175989372655803531092511 0.005383292678743600845336914062 0 0 0 0 
2416333333.3333334923 0.202242657542228698730468750000 -0.038184527307748801494557966407 -0.000037069316022098057646343844 0.005418847780674695968627929688 0 0 0 0 
2416500000.0000000000 0.202683910727500887771768134371 -0.038347806781530380249023437500 0.000231457612244412302970886230 0.005278467666357755661010742188 0 0 0 0 
2416666666.6666665077 0.203038319945335388183593750000 -0.038673695176839828491210937500 0.000441521115135401487350463867 0.005275814328342676162719726562 0 0 0 0 
2416833333.3333334923 0.203300341963768005371093750000 -0.038716759532690048217773437500 0.000713493791408836841583251953 0.005320248659700155258178710938 0 0 0 0 
2417000000.0000000000 0.203373908996582003494424384371 -0.038721032440662377094309221093 0.000958154210820794105529785156 0.005289568100124598416800214551 0 0 0 0 
2417166666.6666665077 0.203159213066101101974325615629 -0.038403585553169250488281250000 0.001128123840317130088806152344 0.005387791898101568222045898438 0 0 0 0 
2417333333.3333334923 0.202814131975174005706463731258 -0.038145422935485839843750000000 0.001408865442499517960789345850 0.005218909122049809369559003613 0 0 0 0 
2417500000.0000000000 0.202722519636154202560263115629 -0.038200385868549346923828125000 0.001628397498279809951782226562 0.005127610173076391220092773438 0 0 0 0 
2417666666.6666665077 0.202158913016319302657919365629 -0.037846755236387252807617187500 0.001923058996908366896985698169 0.004996732808649539947509765625 0 0 0 0 
2417833333.3333334923 0.201708838343620300292968750000 -0.037508629262447357177734375000 0.001823267666622995896580361475 0.004805668257176876068115234375 0 0 0 0 
2418000000.0000000000 0.201035335659980801681356865629 -0.037147048860788352275807966407 0.002237334381788969039916992188 0.004554996266961097717285156250 0 0 0 0 
2418166666.6666665077 0.200258031487464904785156250000 -0.037114821374416351318359375000 0.002388885477557777924778603662 0.004710619803518056869506835938 0 0 0 0 
2418333333.3333334923 0.199459135532379205901776231258 -0.036734502762556082988698591407 0.002653243951499462127685546875 0.004401726182550191879272460938 0 0 0 0 
2418500000.0000000000 0.198500484228134210784588731258 -0.036643337458372123027761091407 0.002995963906869291825535439600 0.004238080233335494995117187500 0 0 0 0 
2418666666.6666665077 0.197572588920593289474325615629 -0.036553923040628433227539062500 0.002985265105962752862217568506 0.003866610117256640954258584131 0 0 0 0 
2418833333.3333334923 0.196238264441490201095419365629 -0.036640934646129608154296875000 0.003051087725907564163208007812 0.003856860799714922904968261719 0 0 0 0 
2419000000.0000000000 0.195057481527328491210937500000 -0.036604158580303192138671875000 0.003160850377753376960754394531 0.003542541526257991790771484375 0 0 0 0 
2419166666.6666665077 0.193880960345268305022869981258 -0.037097420543432242656667341407 0.003311609616503119902369833838 0.003559445030987263159510947119 0 0 0 0 
2419333333.3333334923 0.192491903901100186446981865629 -0.037472441792488098144531250000 0.003424087306484580039978027344 0.003217437770217657089233398438 0 0 0 0 
2419500000.0000000000 0.191072881221771212478799384371 -0.037874076515436172485351562500 0.003467571688815950913670205225 0.002995959948748350143432617188 0 0 0 0 
2419666666.6666665077 0.189435601234436007400674384371 -0.038657926023006439208984375000 0.003265498671680688858032226562 0.002807225799188017845153808594 0 0 0 0 
2419833333.3333334923 0.187947511672973605056924384371 -0.039332713931798941875417341407 0.003337314119562507109401083838 0.002632759977132081985473632812 0 0 0 0 
