# Hz S RI R 50
2400000000.0000000000 0.171241849660873413085937500000 0.040148194879293441772460937500 0.003026005346328020095825195312 0.005239320918917655944824218750 0 0 0 0 
2400166666.6666665077 0.172029092907905606368856865629 0.039808906614780432964284528907 0.003275658702477813200709677588 0.004860045854002237319946289062 0 0 0 0 
2400333333.3333334923 0.172345593571662902832031250000 0.039124295115470893169362653907 0.003735241945832968191859579932 0.004559918306767941388601972363 0 0 0 0 
2400500000.0000000000 0.172778397798538208007812500000 0.038525905460119247436523437500 0.003881236538290977911708212744 0.004392396192997694015502929688 0 0 0 0 
2400666666.6666665077 0.173118263483047513107138115629 0.037947442382574081420898437500 0.003988953772932291030883789062 0.004084175918251276016235351562 0 0 0 0 
2400833333.3333334923 0.173298627138137789627236884371 0.037493228912353522563893903907 0.004009542521089315414428710938 0.003714883932843803925755166162 0 0 0 0 
2401000000.0000000000 0.173696860671043395996093750000 0.036725815385580062866210937500 0.004317600745707750320434570312 0.003450399963185191154479980469 0 0 0 0 
2401166666.6666665077 0.173887565732002313811932481258 0.036049075424671173095703125000 0.004229836165904998779296875000 0.003290756605565547943115234375 0 0 0 0 
2401333333.3333334923 0.173669263720512390136718750000 0.035492021590471267700195312500 0.004416453652083873748779296875 0.002944858511909842924830771338 0 0 0 0 
2401500000.0000000000 0.173851072788238497635049384371 0.034814108163118362426757812500 0.004677456337958574295043945312 0.002633179305121303038356161963 0 0 0 0 
2401666666.6666665077 0.173637747764587402343750000000 0.034200310707092292095143903907 0.004742436576634646329397870801 0.002295592566952108903172158350 0 0 0 0 
2401833333.3333334923 0.173572123050689697265625000000 0.033494915813207633281667341407 0.004691368434578180313110351562 0.002163520781323314146754599463 0 0 0 0 
2402000000.0000000000 0.173101499676704406738281250000 0.032662533223628997802734375000 0.004544149152934551239013671875 0.001743542146869003989576030200 0 0 0 0 
2402166666.6666665077 0.172926768660545404632244981258 0.031690813601016998291015625000 0.004602265078574419021606445312 0.001656359294429420991184853662 0 0 0 0 
2402333333.3333334923 0.172758251428604098220986884371 0.031096696853637698781946951954 0.004710617475211620330810546875 0.001154131023213266892674111475 0 0 0 0 
2402500000.0000000000 0.172657579183578491210937500000 0.030123811215162280691126639454 0.004449139349162578582763671875 0.000836543156765401363372802734 0 0 0 0 
2402666666.6666665077 0.172279790043830899337606865629 0.029178123921155929565429687500 0.004516560584306716918945312500 0.000729670107830315828323364258 0 0 0 0 
2402833333.3333334923 0.171938732266426086425781250000 0.028020212426781650888463204296 0.004380214959383010864257812500 0.000491137558128684759140014648 0 0 0 0 
2403000000.0000000000 0.171635791659355191329794365629 0.027026651427149769174596016796 0.004195914603769779205322265625 0.000029670229196199219336713485 0 0 0 0 
2403166666.6666665077 0.171280860900878906250000000000 0.025924038141965869558314139454 0.004008189775049686431884765625 -0.000121865938126575201749801636 0 0 0 0 
2403333333.3333334923 0.170890122652053805252236884371 0.024729253724217418325403983204 0.003855741582810879187342978369 -0.000571843120269477367401123047 0 0 0 0 
2403500000.0000000000 0.170402020215988186935263115629 0.023370610550045970571497733204 0.003645724616944789886474609375 -0.000567083887290209531784057617 0 0 0 0 
2403666666.6666665077 0.170204907655715886871661268742 0.021863464266061779367467110546 0.003368023317307233810424804688 -0.000752878549974411725997924805 0 0 0 0 
2403833333.3333334923 0.169859573245048495193643134371 0.020665036514401439321497733204 0.003094935556873679161071777344 -0.000883230997715145349502563477 0 0 0 0 
2404000000.0000000000 0.169474571943283108810263115629 0.019128806889057159423828125000 0.003003640798851848082301474463 -0.001033377135172486088396381909 0 0 0 0 
2404166666.6666665077 0.169059872627258300781250000000 0.017488010227680209768275076954 0.002550649922341107888462685693 -0.000909211870748549699783325195 0 0 0 0 
2404333333.3333334923 0.168790116906166104415731865629 0.016137996688485149038294608204 0.002478636102750896973850869287 -0.000953090144321322441101074219 0 0 0 0 
2404500000.0000000000 0.168369829654693603515625000000 0.014405246824026109522809413477 0.002274126047268509864807128906 -0.000903164385817945003509521484 0 0 0 0 
2404666666.6666665077 0.168178662657737704178018134371 0.012762055732309820002545741602 0.002069141017273067994358681787 -0.000736203044652938842773437500 0 0 0 0 
2404833333.3333334923 0.168098255991935702224893134371 0.011146462522447109222412109375 0.002035313751548529104945517432 -0.000666289648506790399551391602 0 0 0 0 
2405000000.0000000000 0.167844593524932889083700615629 0.009330550208687782287597656250 0.001731661846861243031145405347 -0.000552350480575114488601684570 0 0 0 0 
2405166666.6666665077 0.167822539806365994552450615629 0.007656510919332504272460937500 0.001699202693998814062831259619 -0.000490427657496184110641479492 0 0 0 0 
2405333333.3333334923 0.167716369032859802246093750000 0.005705832969397305574899004199 0.001704429159872234084485698169 -0.000357465818524360710948389874 0 0 0 0 
2405500000.0000000000 0.167773574590683011154013115629 0.003965915646404027938842773438 0.001833035843446850993512797778 -0.000337048579240217804908752441 0 0 0 0 
2405666666.6666665077 0.167709887027740506271200615629 0.002174658467993139786961220850 0.001493698917329310937168740381 -0.000365619140211492776870727539 0 0 0 0 
2405833333.3333334923 0.167460158467292813400106865629 0.000423235644120723009109497070 0.001635536784306168989894247900 -0.000182177012902684509754180908 0 0 0 0 
2406000000.0000000000 0.167822316288948086837606865629 -0.001565089798532425923588418115 0.001598987961187958934186625903 -0.000085058469267096370458602905 0 0 0 0 
2406166666.6666665077 0.167552292346954401214276231258 -0.003342333715409040884730673682 0.001649344456382096030591655200 -0.000058507306675892323255538940 0 0 0 0 
2406333333.3333334923 0.167833253741264287750567518742 -0.005073267966508865356445312500 0.001628179801627994017360068213 0.000093844580987934023141860962 0 0 0 0 
2406500000.0000000000 0.167801290750503512283486884371 -0.007070071995258331298828125000 0.001596745685674249909044575269 0.000155619913130067288875579834 0 0 0 0 
2406666666.6666665077 0.167701855301856994628906250000 -0.008613949641585350036621093750 0.001431148033589124896405864185 0.000194229374756105189949589862 0 0 0 0 
2406833333.3333334923 0.167803898453712491134481865629 -0.010548867285251619166364100977 0.001652913168072700934169150244 0.000218307453906163600370129996 0 0 0 0 
2407000000.0000000000 0.167950406670570401290731865629 -0.012172092683613300323486328125 0.001646284363232553005218505859 0.000321970699587836915820521222 0 0 0 0 
2407166666.6666665077 0.168056428432464599609375000000 -0.013586401939392089843750000000 0.001702403533272444985033344800 0.000175251610926352387100773944 0 0 0 0 
2407333333.3333334923 0.168006524443626403808593750000 -0.015122958458960059774378592579 0.001665176707319915077806782300 0.000435802037827670574188232422 0 0 0 0 
2407500000.0000000000 0.168175980448722811599893134371 -0.016582638025283810007115548046 0.001829584012739359898808144678 0.000504703028127551078796386719 0 0 0 0 
2407666666.6666665077 0.168353125452995300292968750000 -0.017686698585748669015904610546 0.001728283939883112907409667969 0.000653445255011320114135742188 0 0 0 0 
2407833333.3333334923 0.168262347579002408126669365629 -0.019057556986808780324915701954 0.001913239713758229992510151440 0.000654856266919523477554321289 0 0 0 0 
2408000000.0000000000 0.168543681502342196365518134371 -0.020149193704128268850306326954 0.001990186981856822967529296875 0.000639957317616790533065795898 0 0 0 0 
2408166666.6666665077 0.168602645397186307052450615629 -0.020910851657390591012974923046 0.002194021595641971068141318213 0.000454477907624095678329467773 0 0 0 0 
2408333333.3333334923 0.169153645634651211837606865629 -0.022036567330360409128209298046 0.002407938241958618164062500000 0.000469542661448940580517369403 0 0 0 0 
2408500000.0000000000 0.169142708182334899902343750000 -0.022978484630584720266321951954 0.002377341734245419935939169775 0.000480694812722504084736424579 0 0 0 0 
2408666666.6666665077 0.169460684061050387283486884371 -0.023836730048060420644739920704 0.002530507743358612060546875000 0.000421515782363712787628173828 0 0 0 0 
2408833333.3333334923 0.169811084866523687164630018742 -0.024559458717703819274902343750 0.002659840742126107215881347656 0.000223972689127549501970568246 0 0 0 0 
2409000000.0000000000 0.170041650533676202972088731258 -0.025213353335857391357421875000 0.002894639270380138917210244287 0.000255497463513165712356567383 0 0 0 0 
2409166666.6666665077 0.170503243803977994064169365629 -0.026013171300292018545130545704 0.002890975214540957970860146631 0.000149100349517539089352208270 0 0 0 0 
2409333333.3333334923 0.170806899666786193847656250000 -0.026782993227243419992467110546 0.002960506593808532194850302588 0.000042150637455051771622111662 0 0 0 0 
2409500000.0000000000 0.171191066503524808029013115629 -0.027484958991408351552943045704 0.003043096745386720137355185400 -0.000116401759441942003652295523 0 0 0 0 
2409666666.6666665077 0.171404600143432589431924384371 -0.028022954240441318857213204296 0.003203044645488262176513671875 -0.000174108325154520598336896353 0 0 0 0 
2409833333.3333334923 0.171593889594078091720419365629 -0.028717657551169398916224295704 0.003015049500390886826756142725 -0.000321836676448583602905273438 0 0 0 0 
2410000000.0000000000 0.171938240528106689453125000000 -0.029465224593877788888951485546 0.003248713212087750001194619287 -0.000396469520637765526771545410 0 0 0 0 
2410166666.6666665077 0.172029793262481689453125000000 -0.030040103942155841482142264454 0.003290106309577823118922568213 -0.000445165729615837281376439227 0 0 0 0 
2410333333.3333334923 0.172023996710777310470419365629 -0.030561441555619239807128906250 0.003164725610986351966857910156 -0.000620125851128250360488891602 0 0 0 0 
2410500000.0000000000 0.172166675329208401779013115629 -0.031314816325902938842773437500 0.003314694156870245933532714844 -0.000795284111518412828445434570 0 0 0 0 
2410666666.6666665077 0.172040030360221890548544365629 -0.032163936644792556762695312500 0.003202384803444147109985351562 -0.000866730639245361089706420898 0 0 0 0 
2410833333.3333334923 0.171972736716270502288494981258 -0.032760426402091979980468750000 0.003098697867244482040405273438 -0.000942350830882787704467773438 0 0 0 0 
2411000000.0000000000 0.171850681304931612869424384371 -0.033247802406549446796457658593 0.003256265772506595091578818213 -0.001145505113527178981183696216 0 0 0 0 
2411166666.6666665077 0.171545654535293606857138115629 -0.034085560590028762817382812500 0.003390485420823096795323037256 -0.001186558278277515931370400537 0 0 0 0 
2411333333.3333334923 0.171240121126174899002236884371 -0.034587733447551727294921875000 0.003291799686849116845371865381 -0.001291070831939578056335449219 0 0 0 0 
2411500000.0000000000 0.170805856585502596756143134371 -0.035433683544397347187082658593 0.003405246417969464822056435693 -0.001371607882902025959612202222 0 0 0 0 
2411666666.6666665077 0.170683309435844393631143134371 -0.036229684948921196674387346093 0.003344082739204167886021279443 -0.001699978834949434020398784106 0 0 0 0 
2411833333.3333334923 0.170267194509506197830361884371 -0.036538939923048019409179687500 0.003512733383104205131530761719 -0.001675118110142648003221821362 0 0 0 0 
2412000000.0000000000 0.169886097311973599532919365629 -0.037406347692012786865234375000 0.003506092121824622154235839844 -0.001862914185039699077606201172 0 0 0 0 
2412166666.6666665077 0.169285133481025695800781250000 -0.038147885352373123168945312500 0.003283350728452206091639853369 -0.002037068130448461012599326025 0 0 0 0 
2412333333.3333334923 0.168949931859970092773437500000 -0.038668721914291381835937500000 0.003233319148421287970301962744 -0.002301722764968872070312500000 0 0 0 0 
2412500000.0000000000 0.168110862374305697342080634371 -0.039710730314254760742187500000 0.003314908361062407927272177588 -0.002536029554903506798985146631 0 0 0 0 
2412666666.6666665077 0.167577579617500305175781250000 -0.040655184537172317504882812500 0.003134283935651183128356933594 -0.002697772113606334166285849463 0 0 0 0 
2412833333.3333334923 0.166878879070282010177450615629 -0.041576139628887183452565778907 0.003063064534217118783238076318 -0.002770999912172555923461914062 0 0 0 0 
2413000000.0000000000 0.166305959224700899978799384371 -0.042377084493637091899831403907 0.003038882510736585097071982275 -0.002978799864649773077723837744 0 0 0 0 
2413166666.6666665077 0.165642186999321011642294365629 -0.043525278568267822265625000000 0.002760716946795583204982138525 -0.003104434348642826080322265625 0 0 0 0 
2413333333.3333334923 0.164692506194114712814169365629 -0.044480502605438232421875000000 0.002713837893679738044738769531 -0.003130633383989334106445312500 0 0 0 0 
2413500000.0000000000 0.164135426282882690429687500000 -0.045530680567026138305664062500 0.002475100569427012963535927881 -0.003249126719310880141017294775 0 0 0 0 
2413666666.6666665077 0.163486316800117492675781250000 -0.046674728393554687500000000000 0.002410634187981485886814736475 -0.003359690774232149124145507812 0 0 0 0 
2413833333.3333334923 0.162742778658866910079794365629 -0.047702711075544357299804687500 0.002431952161714435057399130713 -0.003533161943778396086451865088 0 0 0 0 
2414000000.0000000000 0.161867827177047701736611884371 -0.048818863928318016742746721093 0.002197437221184372901916503906 -0.003544336417689919905421591650 0 0 0 0 
2414166666.6666665077 0.161381050944328308105468750000 -0.049863897264003746723215471093 0.002322701970115303993225097656 -0.003711392404511570930480957031 0 0 0 0 
2414333333.3333334923 0.160742431879043606857138115629 -0.051008377224206917499582658593 0.001946434262208641009089804541 -0.003812171751633286909816122900 0 0 0 0 
2414500000.0000000000 0.160225674510002108474893134371 -0.052231162786483771587331403907 0.001821797108277678923365927588 -0.003749116789549589157104492188 0 0 0 0 
2414666666.6666665077 0.159730747342109707931356865629 -0.053287751972675316547434221093 0.001792938215658069090602255713 -0.003960461821407079696655273438 0 0 0 0 
2414833333.3333334923 0.159329682588577298263388115629 -0.054486587643623352050781250000 0.001495134434662759087206196362 -0.003966155927628278732299804688 0 0 0 0 
2415000000.0000000000 0.158812761306762695312500000000 -0.055825356394052512432057966407 0.001394509337842464013340615381 -0.004057163838297128677368164062 0 0 0 0 
2415166666.6666665077 0.158590257167816189864950615629 -0.057129945605993270874023437500 0.001325868768617511012433696216 -0.004115547053515911102294921875 0 0 0 0 
2415333333.3333334923 0.158541515469551086425781250000 -0.058602645993232727050781250000 0.001173635479062796072718954932 -0.004136039409786462783813476562 0 0 0 0 
2415500000.0000000000 0.158120185136794988434161268742 -0.059913299977779388427734375000 0.000860122730955481529235839844 -0.004294033162295818328857421875 0 0 0 0 
2415666666.6666665077 0.157872006297111511230468750000 -0.061229988932609558105468750000 0.000769506732467561960220336914 -0.004082441795617341995239257812 0 0 0 0 
2415833333.3333334923 0.157710537314415005782919365629 -0.062719687819480895996093750000 0.000578662613406777381896972656 -0.004288073629140853881835937500 0 0 0 0 
2416000000.0000000000 0.157322362065315302093182481258 -0.064243644475936889648437500000 0.000364408275345340425342005597 -0.004248948302119970321655273438 0 0 0 0 
2416166666.6666665077 0.157456591725349398513955634371 -0.065654635429382324218750000000 0.000159562652697786688804626465 -0.004379641730338335037231445312 0 0 0 0 
2416333333.3333334923 0.157118812203407287597656250000 -0.067106969654560089111328125000 -0.000024890519853215671401431425 -0.004314989317208529386038495801 0 0 0 0 
2416500000.0000000000 0.156951382756233187576455634371 -0.068509116768836975097656250000 -0.000200893424334935789734440936 -0.004166657105088233947753906250 0 0 0 0 
2416666666.6666665077 0.156655818223953302581463731258 -0.069878973066806793212890625000 -0.000363905011909082477718907489 -0.004308803007006645202636718750 0 0 0 0 
2416833333.3333334923 0.156640723347663907150106865629 -0.071514531970024108886718750000 -0.000483256240841001326411646710 -0.004221953451633453369140625000 0 0 0 0 
2417000000.0000000000 0.156266763806343106368856865629 -0.072700507938861846923828125000 -0.000713464280124753713607788086 -0.004032350145280361175537109375 0 0 0 0 
2417166666.6666665077 0.156195983290672302246093750000 -0.073791719973087310791015625000 -0.000851765275001525878906250000 -0.004088595509529113769531250000 0 0 0 0 
2417333333.3333334923 0.156076490879058810135049384371 -0.074956320226192474365234375000 -0.000951188965700566768646240234 -0.003849364118650556044337607275 0 0 0 0 
2417500000.0000000000 0.155880659818649291992187500000 -0.076263546943664550781250000000 -0.001112162834033370018005371094 -0.003747312817722558975219726562 0 0 0 0 
2417666666.6666665077 0.155860736966133089920205634371 -0.077024832367897033691406250000 -0.001178430160507559993146586841 -0.003683712333440781073329306494 0 0 0 0 
2417833333.3333334923 0.155691951513290405273437500000 -0.077992096543312072753906250000 -0.001250064000487328009364462744 -0.003668195568025112152099609375 0 0 0 0 
2418000000.0000000000 0.155641734600067110916299384371 -0.079180315136909484863281250000 -0.001326101366430521011352539062 -0.003580374876037240028381347656 0 0 0 0 
2418166666.6666665077 0.155606925487518310546875000000 -0.079797737300395965576171875000 -0.001176812802441417954088520581 -0.003596183611080050902125693213 0 0 0 0 
2418333333.3333334923 0.155750960111617986481036268742 -0.080696932971477508544921875000 -0.001375676249153912067413330078 -0.003554729279130696816685341943 0 0 0 0 
2418500000.0000000000 0.155569300055503900725994981258 -0.081481397151947021484375000000 -0.001503897714428604082820273291 -0.003440839704126120047328329932 0 0 0 0 
2418666666.6666665077 0.155594974756240789215411268742 -0.082260258495807647705078125000 -0.001525021390989423014997172778 -0.003355312393978238105773925781 0 0 0 0 
2418833333.3333334923 0.155404433608055086990518134371 -0.082970134913921356201171875000 -0.001507724402472377040265727466 -0.003365517593920230865478515625 0 0 0 0 
2419000000.0000000000 0.155314594507217407226562500000 -0.083544626832008361816406250000 -0.001751021947711705944658588940 -0.003329450730234384970424033057 0 0 0 0 
2419166666.6666665077 0.155391961336135892013388115629 -0.084177084267139434814453125000 -0.001876669586636126041412353516 -0.003292229492217301888706826318 0 0 0 0 
2419333333.3333334923 0.155015468597412109375000000000 -0.084440305829048156738281250000 -0.002003038534894586043116904150 -0.003222714643925427956822060693 0 0 0 0 
2419500000.0000000000 0.154955059289932306487713731258 -0.085310056805610656738281250000 -0.001996268983930348916294716943 -0.003114494029432535171508789062 0 0 0 0 
2419666666.6666665077 0.154929012060165405273437500000 -0.085657991468906402587890625000 -0.002203810261562467055079794775 -0.003015682799741625785827636719 0 0 0 0 
2419833333.3333334923 0.154540523886680603027343750000 -0.086082212626934051513671875000 -0.002288008807227015928981161963 -0.002953231334686278863194131006 0 0 0 0 
