# Hz S RI R 50
2400000000.0000000000 0.155419901013374300857705634371 0.106366507709026295036558451557 0.001239956822246313095092773438 0.000245293631451204419136047363 0 0 0 0 
2400166666.6666665077 0.155061990022659301757812500000 0.104063302278518704513388115629 0.001213877229019999937770224463 0.000180895483936183208793085919 0 0 0 0 
2400333333.3333334923 0.155207246541976900955361884371 0.101684026420116396804971259371 0.000921436061616986989974975586 0.000032931828172877430915832520 0 0 0 0 
2400500000.0000000000 0.155060842633247403243856865629 0.098964199423789978027343750000 0.000954689050558954477310180664 -0.000163771153893321806758326398 0 0 0 0 
2400666666.6666665077 0.155048087239265386383380018742 0.096476465463638305664062500000 0.000797955901362001895904541016 -0.000166525584063492688253679819 0 0 0 0 
2400833333.3333334923 0.155215144157409695724325615629 0.093623951077461242675781250000 0.000690380053129047155380249023 -0.000308692688122391700744628906 0 0 0 0 
2401000000.0000000000 0.155477657914161709884481865629 0.090855114161968231201171875000 0.000694047543220221996307373047 -0.000203144372790120487839299335 0 0 0 0 
2401166666.6666665077 0.155476853251457186599893134371 0.087993718683719635009765625000 0.000617488112766295671463012695 -0.000312732852762565016746520996 0 0 0 0 
2401333333.3333334923 0.155957192182540893554687500000 0.085298605263233184814453125000 0.000380550714908167719841003418 -0.000348888279404491186141967773 0 0 0 0 
2401500000.0000000000 0.156368046998977688888388115629 0.082383945584297180175781250000 0.000207550139748491401046198712 -0.000316073274007067084312438965 0 0 0 0 
2401666666.6666665077 0.156613305211067199707031250000 0.079615540802478790283203125000 0.000019044075088459070434774092 -0.000391704932553693706363123761 0 0 0 0 
2401833333.3333334923 0.157138958573341397384481865629 0.076777592301368713378906250000 0.000113127382064703906148356305 -0.000259408319834619814723414288 0 0 0 0 
2402000000.0000000000 0.158072009682655306717080634371 0.074189350008964538574218750000 -0.000033650176192168153148105009 -0.000319604063406586701243800031 0 0 0 0 
2402166666.6666665077 0.158871397376060513595419365629 0.071958638727664947509765625000 -0.000040520306356484070420265198 -0.000236734675127081600114545279 0 0 0 0 
2402333333.3333334923 0.159783139824867304046307481258 0.069085314869880676269531250000 -0.000352449045749381184577941895 -0.000125192353152669993325910025 0 0 0 0 
2402500000.0000000000 0.160985648632049588302450615629 0.066606841981410980224609375000 -0.000146028294693678590372362680 0.000010802859833347609435218011 0 0 0 0 
2402666666.6666665077 0.162307649850845309158486884371 0.064350023865699768066406250000 -0.000299930572509765625000000000 -0.000090968147560488432645797729 0 0 0 0 
2402833333.3333334923 0.163555249571800204178018134371 0.061975527554750442504882812500 -0.000454095657914876883656102313 0.000193540559848770499229431152 0 0 0 0 
2403000000.0000000000 0.164870455861091613769531250000 0.059559036046266562725026716407 -0.000244645227212458903163355695 0.000256881030509248375892639160 0 0 0 0 
2403166666.6666665077 0.166574746370315607268963731258 0.057436600327491760253906250000 -0.000545358285307884216308593750 0.000328371475916355902522486554 0 0 0 0 
2403333333.3333334923 0.167881041765213012695312500000 0.055170290172100067138671875000 -0.000358498538844287395477294922 0.000271646335022523999214172363 0 0 0 0 
2403500000.0000000000 0.169802799820899991134481865629 0.053266849368810646747629533593 -0.000250458804657682776451110840 0.000376153591787442619174403058 0 0 0 0 
2403666666.6666665077 0.171487987041473388671875000000 0.051320295780897140502929687500 -0.000249224307481199502944946289 0.000565507973078638315200805664 0 0 0 0 
2403833333.3333334923 0.173217356204986600021200615629 0.049520548433065407489817033593 0.000000742639258533017709851265 0.000611944298725575208663940430 0 0 0 0 
2404000000.0000000000 0.174761250615119906326455634371 0.047744613140821456909179687500 -0.000193270563613623407766065054 0.000624260981567203998565673828 0 0 0 0 
2404166666.6666665077 0.176486253738403292556924384371 0.046244230121374130249023437500 -0.000091546637122519314289093018 0.000737359456252306699752807617 0 0 0 0 
2404333333.3333334923 0.178101927042007501800213731258 0.044699128717184066772460937500 0.000118880016088951406165799551 0.000479988084407523274421691895 0 0 0 0 
2404500000.0000000000 0.179582029581070001800213731258 0.043428953737020492553710937500 0.000170169310877099606111803598 0.000639625010080635547637939453 0 0 0 0 
2404666666.6666665077 0.181372255086898803710937500000 0.042332541197538382793386091407 0.000225994401262141791269025259 0.000572018849197775125503540039 0 0 0 0 
2404833333.3333334923 0.182817384600639287750567518742 0.041312620043754577636718750000 0.000206888100365176796913146973 0.000636163691524416208267211914 0 0 0 0 
2405000000.0000000000 0.184378251433372497558593750000 0.040614716708660132671315778907 0.000317336263833567500114440918 0.000487518002046272212832850323 0 0 0 0 
2405166666.6666665077 0.185664907097816495040731865629 0.039859056472778320312500000000 0.000164586963364854509204310284 0.000326830398989841287762242450 0 0 0 0 
2405333333.3333334923 0.187015324831008911132812500000 0.039189241826534271240234375000 0.000318628910463303273350316180 0.000343127932865172624588012695 0 0 0 0 
2405500000.0000000000 0.188362911343574496170205634371 0.038884162902832031250000000000 0.000070575129939243197441101074 0.000551773468032479286193847656 0 0 0 0 
2405666666.6666665077 0.189658045768737792968750000000 0.038415919989347457885742187500 0.000146211794344708296373644418 0.000472523825010284781455993652 0 0 0 0 
2405833333.3333334923 0.190851449966430691818075615629 0.038261484354734420776367187500 0.000229519821004942086621961050 0.000160994008183479309082031250 0 0 0 0 
2406000000.0000000000 0.191734164953231811523437500000 0.037938550114631652832031250000 0.000081265949120279401540756226 0.000487395212985575199127197266 0 0 0 0 
2406166666.6666665077 0.192814871668815612792968750000 0.037742324173450469970703125000 0.000095802919531706720590591431 0.000285208690911531502574366437 0 0 0 0 
2406333333.3333334923 0.193757817149162292480468750000 0.037869703024625778198242187500 0.000059113037423230707645416260 0.000563879439141601324081420898 0 0 0 0 
2406500000.0000000000 0.194431200623512295821981865629 0.037895902991294860839843750000 0.000335699733113870024681091309 0.000540639972314238548278808594 0 0 0 0 
2406666666.6666665077 0.194988831877708407303018134371 0.037827402353286743164062500000 0.000150747189763933393076220102 0.000514906714670360088348388672 0 0 0 0 
2406833333.3333334923 0.195421338081359891036825615629 0.037779297679662697528879533593 0.000289898831397294998168945312 0.000598091166466474533081054688 0 0 0 0 
2407000000.0000000000 0.195779085159301813323651231258 0.037982828915119171142578125000 0.000413942936575040221214294434 0.000534798426087945699691772461 0 0 0 0 
2407166666.6666665077 0.196094706654548700530682481258 0.037723392248153693462331403907 0.000397514464566484093666076660 0.000573065073695033788681030273 0 0 0 0 
2407333333.3333334923 0.195971906185150201995526231258 0.037870571017265319824218750000 0.000630518537946045398712158203 0.000552527664694935083389282227 0 0 0 0 
2407500000.0000000000 0.195918932557105990310830634371 0.037960633635520941997487653907 0.000518843124154955148696899414 0.000565490685403347015380859375 0 0 0 0 
2407666666.6666665077 0.196043640375137301345986884371 0.037847254425287246704101562500 0.000628324632998555898666381836 0.000496264779940247535705566406 0 0 0 0 
2407833333.3333334923 0.195422515273094205001669365629 0.037672273814678192138671875000 0.000659846235066652297973632812 0.000489151163492351770401000977 0 0 0 0 
2408000000.0000000000 0.195345312356948908050213731258 0.037446748465299613262136091407 0.000717067101504653692245483398 0.000415123155107721686363220215 0 0 0 0 
2408166666.6666665077 0.194722220301628112792968750000 0.037030279636383056640625000000 0.000692344969138503074645996094 0.000362174381734803318977355957 0 0 0 0 
2408333333.3333334923 0.194327354431152288238848768742 0.036578167229890823364257812500 0.000601681822445243597030639648 0.000342883751727640574604588641 0 0 0 0 
2408500000.0000000000 0.193650409579277010818643134371 0.036241959780454642559011091407 0.000827561656478792428970336914 0.000274108257144689614146632062 0 0 0 0 
2408666666.6666665077 0.193120002746582003494424384371 0.035578124225139617919921875000 0.000649635214358568191528320312 0.000313051918055862188339233398 0 0 0 0 
2408833333.3333334923 0.192350938916206387618856865629 0.034975789487361907958984375000 0.000881956249941140413284301758 0.000288729701424017602771204816 0 0 0 0 
2409000000.0000000000 0.191411241888999911209268134371 0.033938787877559661865234375000 0.000742525444366037954031789514 0.000103345228126272599823536058 0 0 0 0 
2409166666.6666665077 0.190410003066062899490518134371 0.032812770456075668334960937500 0.000819581269752234220504760742 0.000138364397571422186776837759 0 0 0 0 
2409333333.3333334923 0.189513772726058987716513115629 0.032062891870737082744557966407 0.000794725783634930849075317383 0.000249234552029520273208618164 0 0 0 0 
2409500000.0000000000 0.188535809516906710525674384371 0.030538387596607211721400076954 0.000772498839069157838821411133 0.000144079793244600296020507812 0 0 0 0 
2409666666.6666665077 0.187514454126358004470986884371 0.029147461056709289550781250000 0.000720072013791650533676147461 0.000078543467679992318153381348 0 0 0 0 
2409833333.3333334923 0.186491236090660095214843750000 0.027542529627680778503417968750 0.000874388497322797775268554688 0.000006298491825873497873544693 0 0 0 0 
2410000000.0000000000 0.185443058609962491134481865629 0.026075396686792370187779610546 0.000836787628941237926483154297 -0.000025732495487318370828424760 0 0 0 0 
2410166666.6666665077 0.184594929218292208572549384371 0.024209871888160709035853201954 0.000860821281094104051589965820 0.000057119745179079473018646240 0 0 0 0 
2410333333.3333334923 0.183642297983169611175213731258 0.022539207711815830575963204296 0.000957579002715647220611572266 -0.000146191057865507900714874268 0 0 0 0 
2410500000.0000000000 0.182578817009925786774005018742 0.020493345335125919687291329296 0.000834457634482532739639282227 -0.000112897891085594906054358211 0 0 0 0 
2410666666.6666665077 0.181764215230941800216513115629 0.018365018069744110107421875000 0.000795848492998629808425903320 -0.000301539752399548888206481934 0 0 0 0 
2410833333.3333334923 0.181228190660476712325888115629 0.016070716083049770700474923046 0.000813024002127349376678466797 -0.000150422449223697212621411734 0 0 0 0 
2411000000.0000000000 0.180460616946220397949218750000 0.013824690133333209646204764454 0.000964008155278861522674560547 -0.000358807679731398820877075195 0 0 0 0 
2411166666.6666665077 0.179770931601524408538494981258 0.011671357788145540410051914648 0.000744845485314726829528808594 -0.000452894746558740680843907489 0 0 0 0 
2411333333.3333334923 0.179279297590255709549111884371 0.009091775864362716674804687500 0.000809883757028728723526000977 -0.000477321620564907789230346680 0 0 0 0 
2411500000.0000000000 0.178989574313163812835369981258 0.006787196733057498931884765625 0.000730635714717209339141845703 -0.000649434048682451248168945312 0 0 0 0 
2411666666.6666665077 0.178803592920303289215411268742 0.004414939787238836288452148438 0.000674119859468191862106323242 -0.000669564411509782075881958008 0 0 0 0 
2411833333.3333334923 0.178504526615142794510049384371 0.002012699842453002929687500000 0.000563277862966060638427734375 -0.000822336820419877767562866211 0 0 0 0 
2412000000.0000000000 0.178736686706542996505575615629 -0.000502424896694719791412353516 0.000438751099864020889431553973 -0.000888627779204398393630981445 0 0 0 0 
2412166666.6666665077 0.178701072931289700607138115629 -0.002776806708425282998325966943 0.000588679977227002382278442383 -0.000963565020356327295303344727 0 0 0 0 
2412333333.3333334923 0.179030403494834899902343750000 -0.005160197615623474121093750000 0.000242088935920037302091875620 -0.000987898092716932296752929688 0 0 0 0 
2412500000.0000000000 0.179391130805015591720419365629 -0.007760496344417333602905273438 0.000251894874963909387588500977 -0.000939214543905109167098999023 0 0 0 0 
2412666666.6666665077 0.179902732372283907791299384371 -0.010156420990824699401855468750 0.000164041353855282095357617789 -0.001045117620378732898114848560 0 0 0 0 
2412833333.3333334923 0.180560648441314697265625000000 -0.012552889995276929682721522852 -0.000044095628254581242799758911 -0.000937078380957245826721191406 0 0 0 0 
2413000000.0000000000 0.181256651878356905838174384371 -0.014795178547501560556431954296 -0.000094533075753133744001388550 -0.000952489033807069063186645508 0 0 0 0 
2413166666.6666665077 0.182091146707534790039062500000 -0.017123922705650329589843750000 -0.000098476622952148318290710449 -0.001040452742017806010005331885 0 0 0 0 
2413333333.3333334923 0.183212667703628512283486884371 -0.019518939778208729135533516796 -0.000267390103545039892196655273 -0.000864183239173144102096557617 0 0 0 0 
2413500000.0000000000 0.183871135115623501876669365629 -0.021648373454809188842773437500 -0.000434112793300300782353001727 -0.000828293035738170146942138672 0 0 0 0 
2413666666.6666665077 0.185027703642845209319744981258 -0.023802258074283599853515625000 -0.000514891580678522586822509766 -0.000679087359458208084106445312 0 0 0 0 
2413833333.3333334923 0.186021476984024103362713731258 -0.025715209543704990041712576954 -0.000644052575808018445968627930 -0.000646012835204601287841796875 0 0 0 0 
2414000000.0000000000 0.187152802944183405120526231258 -0.027686197310686111450195312500 -0.000723425706382840871810913086 -0.000522869348060339689254760742 0 0 0 0 
2414166666.6666665077 0.188507661223411587814169365629 -0.029407590627670291555384451954 -0.000576500664465129375457763672 -0.000395371665945276618003845215 0 0 0 0 
2414333333.3333334923 0.189449936151504488845986884371 -0.031285591423511512065847028907 -0.000715236237738281488418579102 -0.000473322899779304916232508527 0 0 0 0 
2414500000.0000000000 0.190718412399291992187500000000 -0.032711792737245559692382812500 -0.000528594071511179208755493164 -0.000418130133766681010096949445 0 0 0 0 
2414666666.6666665077 0.191890269517898587325888115629 -0.034204676747322082519531250000 -0.000727840175386518239974975586 -0.000291180971544235890537816180 0 0 0 0 
2414833333.3333334923 0.192810177803039606292401231258 -0.035461191087961196899414062500 -0.000817885971628129482269287109 -0.000367587548680603504180908203 0 0 0 0 
2415000000.0000000000 0.194066122174263000488281250000 -0.036771968007087707519531250000 -0.000729692692402750253677368164 -0.000215803564060479402542114258 0 0 0 0 
2415166666.6666665077 0.195179998874664306640625000000 -0.037880357354879379272460937500 -0.000710979104042053222656250000 -0.000127379084005951908513745718 0 0 0 0 
2415333333.3333334923 0.196139767765998812576455634371 -0.038777135312557220458984375000 -0.000816578802186995744705200195 0.000000719477100119547685608268 0 0 0 0 
2415500000.0000000000 0.197351202368736294845419365629 -0.039388984441757202148437500000 -0.000849792966619133949279785156 -0.000043478990846779197454452515 0 0 0 0 
2415666666.6666665077 0.198228821158409090896768134371 -0.040272053331136696552317033593 -0.000980157987214624881744384766 -0.000004507039193413220345973969 0 0 0 0 
2415833333.3333334923 0.198951274156570406814736884371 -0.040837150067090988159179687500 -0.000968531938269734382629394531 0.000023584081645822149107252427 0 0 0 0 
2416000000.0000000000 0.199804931879043606857138115629 -0.041427586227655410766601562500 -0.000966611376497894525527954102 0.000150676656630821498945513315 0 0 0 0 
2416166666.6666665077 0.200377210974693298339843750000 -0.041855979710817337036132812500 -0.001017574686557054953334189307 0.000576794380322098731994628906 0 0 0 0 
2416333333.3333334923 0.201097875833511408050213731258 -0.042142957448959350585937500000 -0.000754601322114467620849609375 0.000566595466807484626770019531 0 0 0 0 
2416500000.0000000000 0.201553598046302795410156250000 -0.042458724230527877807617187500 -0.000831980956718325614929199219 0.000839075131807476282119750977 0 0 0 0 
2416666666.6666665077 0.201799467206001309493856865629 -0.042831405997276313091237653907 -0.000666845357045531272888183594 0.000803892849944531917572021484 0 0 0 0 
2416833333.3333334923 0.201849550008773803710937500000 -0.042737722396850592876393903907 -0.000481255236081779003143310547 0.000929902482312172651290893555 0 0 0 0 
2417000000.0000000000 0.202067255973815890213174384371 -0.042806770652532577514648437500 -0.000365526706445962190628051758 0.000930992129724472761154174805 0 0 0 0 
2417166666.6666665077 0.201735034584999112228231865629 -0.042756464332342147827148437500 -0.000321951811201870387226658954 0.000884986075107008218765258789 0 0 0 0 
2417333333.3333334923 0.201374873518943786621093750000 -0.042633872479200363159179687500 -0.000155672896653413799688062125 0.001015271292999387004254985278 0 0 0 0 
2417500000.0000000000 0.201269939541816711425781250000 -0.042715575546026229858398437500 0.000008368628186872228980064392 0.001136819017119705893872905200 0 0 0 0 
2417666666.6666665077 0.200625240802764892578125000000 -0.042476523667573928833007812500 0.000021882207875023599376882247 0.000978704309090971946716308594 0 0 0 0 
2417833333.3333334923 0.200188681483268710037393134371 -0.042287953197956092143972028907 0.000274957943474873900413513184 0.001062168972566724040387797778 0 0 0 0 
2418000000.0000000000 0.199459895491600008865518134371 -0.042061153799295432353932966407 0.000215580745134502703517359601 0.001137171057052909894230507959 0 0 0 0 
2418166666.6666665077 0.198724314570426913162393134371 -0.041961964219808578491210937500 0.000361604936188086921542567120 0.000898635189514607191085815430 0 0 0 0 
2418333333.3333334923 0.197658613324165288727130018742 -0.041890956461429602886159528907 0.000441045500338077599376124249 0.000972448731772601604461669922 0 0 0 0 
2418500000.0000000000 0.196766093373298700530682481258 -0.042000133544206619262695312500 0.000420888565713539719581604004 0.000797709799371659755706787109 0 0 0 0 
2418666666.6666665077 0.195869475603103609939736884371 -0.041816119104623801494557966407 0.000520795001648366451263427734 0.000875898636877536773681640625 0 0 0 0 
2418833333.3333334923 0.194573938846588107010049384371 -0.041997421532869338989257812500 0.000641376944258809089660644531 0.000773111707530915737152099609 0 0 0 0 
2419000000.0000000000 0.193211451172828702071981865629 -0.042251829057931900024414062500 0.000735607638489454984664916992 0.000603904365561902523040771484 0 0 0 0 
2419166666.6666665077 0.191971451044082613845986884371 -0.042439214885234832763671875000 0.000631505681667476892471313477 0.000665906933136284351348876953 0 0 0 0 
2419333333.3333334923 0.190638467669486999511718750000 -0.043061461299657821655273437500 0.000717889983206987380981445312 0.000660437217447906732559204102 0 0 0 0 
2419500000.0000000000 0.189135313034057589431924384371 -0.043450988829135901714284528907 0.000805874587967991828918457031 0.000518239568918943405151367188 0 0 0 0 
2419666666.6666665077 0.187564387917518587967080634371 -0.044255580753087997436523437500 0.000839231244754046201705932617 0.000539962667971849441528320312 0 0 0 0 
2419833333.3333334923 0.186121702194213894943075615629 -0.044933125376701361919362653907 0.000944587460253387689590454102 0.000462996074929833412170410156 0 0 0 0 
2420000000.0000000000 0.184488192200660705566406250000 -0.045810051262378692626953125000 0.000802839640527963638305664062 0.000608892529271543025970458984 0 0 0 0 
