# Hz S RI R 
2400000000.0000000000 0.154983073472976712325888115629 0.105404376983642605880575615629 -0.001841047080233692906023335034 -0.003596497932448983192443847656 0 0 0 0 
2400166666.6666665077 0.154494673013687106033486884371 0.103017143905162797401509067186 -0.002059594960883260206935263525 -0.003708764677867292924168252100 0 0 0 0 
2400333333.3333334923 0.154525294899940490722656250000 0.100600436329841599891743442186 -0.002068595960736275152919150244 -0.003842785255983471870422363281 0 0 0 0 
2400500000.0000000000 0.154387608170509310623330634371 0.097920142114162445068359375000 -0.002177166054025291962864541162 -0.004023517947643995285034179688 0 0 0 0 
2400666666.6666665077 0.154546335339546203613281250000 0.095381453633308410644531250000 -0.002334152814000844955444335938 -0.003932525403797627362723066113 0 0 0 0 
2400833333.3333334923 0.154340773820877102950888115629 0.092565804719924926757812500000 -0.002505650045350193977355957031 -0.003963650669902563095092773438 0 0 0 0 
2401000000.0000000000 0.154515609145164489746093750000 0.089676596224308013916015625000 -0.002705686492845416069030761719 -0.004099207464605569839477539062 0 0 0 0 
2401166666.6666665077 0.154341354966163607498330634371 0.086863450706005096435546875000 -0.003010957734659314155578613281 -0.004040465224534273147583007812 0 0 0 0 
2401333333.3333334923 0.154841825366020202636718750000 0.084113597869873046875000000000 -0.003135116538032888932469033350 -0.004150723107159137725830078125 0 0 0 0 
2401500000.0000000000 0.155042573809623690506143134371 0.081323765218257904052734375000 -0.003380687208846210999729775537 -0.004189087543636559572701738574 0 0 0 0 
2401666666.6666665077 0.155520617961883489410723768742 0.078368715941905975341796875000 -0.003858057083562016920802451025 -0.003979226574301719665527343750 0 0 0 0 
2401833333.3333334923 0.155845269560813903808593750000 0.075891487300395965576171875000 -0.004007894080132246017456054688 -0.003968081437051296234130859375 0 0 0 0 
2402000000.0000000000 0.156643390655517605880575615629 0.072741128504276275634765625000 -0.004103418439626693725585937500 -0.003754882141947745843174599756 0 0 0 0 
2402166666.6666665077 0.157480061054229708572549384371 0.070513367652893066406250000000 -0.004399138037115336331839277051 -0.003745929570868610902073525537 0 0 0 0 
2402333333.3333334923 0.158386602997779901702557481258 0.067760623991489410400390625000 -0.004592548124492168426513671875 -0.003572894027456641197204589844 0 0 0 0 
2402500000.0000000000 0.159329190850257901290731865629 0.065239094197750091552734375000 -0.004895250312983989715576171875 -0.003410813398659228844883584131 0 0 0 0 
2402666666.6666665077 0.160711541771888705154580634371 0.063041061162948608398437500000 -0.005176032427698373794555664062 -0.003164801513776183128356933594 0 0 0 0 
2402833333.3333334923 0.161791965365409906585369981258 0.060627784579992287372629533593 -0.005058729555457830429077148438 -0.003066560951992868943455361475 0 0 0 0 
2403000000.0000000000 0.163196966052055386642294365629 0.058247290551662452007253278907 -0.005454298108816146850585937500 -0.002718425355851649804356240381 0 0 0 0 
2403166666.6666665077 0.164832487702369689941406250000 0.056223563849926001811940778907 -0.005404209252446889877319335938 -0.002536474494263530211207724463 0 0 0 0 
2403333333.3333334923 0.166351348161697387695312500000 0.054061502218246459960937500000 -0.005530465394258499145507812500 -0.002215867396444081826450966943 0 0 0 0 
2403500000.0000000000 0.167968645691871587555255018742 0.052094884216785430908203125000 -0.005735650658607482910156250000 -0.002059640595689415931701660156 0 0 0 0 
2403666666.6666665077 0.169677019119262695312500000000 0.050277035683393478393554687500 -0.005761726293712854385375976562 -0.001749979681335390047786093604 0 0 0 0 
2403833333.3333334923 0.171338245272636413574218750000 0.048620175570249557495117187500 -0.005846195388585329055786132812 -0.001391080906614660999895405347 0 0 0 0 
2404000000.0000000000 0.173039630055427606780682481258 0.046916265040636062622070312500 -0.005731672048568725585937500000 -0.001319924369454384066938090747 0 0 0 0 
2404166666.6666665077 0.174670100212097195724325615629 0.045290660113096237182617187500 -0.005787929054349660873413085938 -0.001166692236438394026515341650 0 0 0 0 
2404333333.3333334923 0.176407888531684903243856865629 0.044010691344738006591796875000 -0.005865001585334539413452148438 -0.000884751556441187858581542969 0 0 0 0 
2404500000.0000000000 0.178006336092948913574218750000 0.042386785149574279785156250000 -0.005922837182879447937011718750 -0.000569176278077065944671630859 0 0 0 0 
2404666666.6666665077 0.179715439677238492111044365629 0.041396003216505050659179687500 -0.005959516391158103942871093750 -0.000464008335256949121325892316 0 0 0 0 
2404833333.3333334923 0.181552246212959289550781250000 0.040564373135566711425781250000 -0.005791767500340938568115234375 -0.000432950037065893411636352539 0 0 0 0 
2405000000.0000000000 0.182823047041893005371093750000 0.039855822920799262309987653907 -0.005991005338728427886962890625 -0.000181022551259957308143061505 0 0 0 0 
2405166666.6666665077 0.184285447001457186599893134371 0.039065126329660422588307966407 -0.005820819642394781112670898438 -0.000095849463832564651966094971 0 0 0 0 
2405333333.3333334923 0.185652196407318087478799384371 0.038826789706945419311523437500 -0.006016455125063657760620117188 0.000136551636387593989998417987 0 0 0 0 
2405500000.0000000000 0.187145262956619290450888115629 0.038504548370838172222097028907 -0.006063139531761407852172851562 0.000371186441043391823768615723 0 0 0 0 
2405666666.6666665077 0.188388824462890597244424384371 0.038088396191596991802175153907 -0.006062811240553855895996093750 0.000614639953710138797760009766 0 0 0 0 
2405833333.3333334923 0.189707368612289400955361884371 0.037858478724956512451171875000 -0.006091489922255277633666992188 0.000947231194004416465759277344 0 0 0 0 
2406000000.0000000000 0.190648123621940612792968750000 0.037784039974212653423268903907 -0.006049129180610179901123046875 0.001136223901994525952580117334 0 0 0 0 
2406166666.6666665077 0.191612988710403386871661268742 0.037699811160564422607421875000 -0.005950068123638629913330078125 0.001367581076920032934901572119 0 0 0 0 
2406333333.3333334923 0.192568480968475286285723768742 0.037663210183382027362863908593 -0.005920425523072481155395507812 0.001726493821479379913927387769 0 0 0 0 
2406500000.0000000000 0.193288683891296386718750000000 0.037769500166177749633789062500 -0.005917016882449389371390058301 0.001809390378184616999385214697 0 0 0 0 
2406666666.6666665077 0.193870231509208706954794365629 0.037965882569551467895507812500 -0.005745904985815286636352539062 0.002148673171177506013157509912 0 0 0 0 
2406833333.3333334923 0.194461375474929809570312500000 0.037977617233991622924804687500 -0.005797098390758037567138671875 0.002421754645183682008030556787 0 0 0 0 
2407000000.0000000000 0.194792076945304898361044365629 0.038182105869054787372629533593 -0.005424488801509141921997070312 0.002485123695805668830871582031 0 0 0 0 
2407166666.6666665077 0.195255994796752901931924384371 0.038168959319591522216796875000 -0.005380179733037948608398437500 0.002631196985021233992335654150 0 0 0 0 
2407333333.3333334923 0.195227965712547302246093750000 0.038408812135457992553710937500 -0.005176050122827292356009198926 0.002909136470407247977015829932 0 0 0 0 
2407500000.0000000000 0.195099532604217501541299384371 0.038599707186222083354909528907 -0.005182123277336359024047851562 0.003170017385855317115783691406 0 0 0 0 
2407666666.6666665077 0.195198580622673006912393134371 0.038576502352952957153320312500 -0.004970267880707979202270507812 0.003185968147590755982639931787 0 0 0 0 
2407833333.3333334923 0.194789484143257113357705634371 0.038436800241470336914062500000 -0.004652033094316720962524414062 0.003289728658273816108703613281 0 0 0 0 
2408000000.0000000000 0.194684594869613702972088731258 0.038345981389284126972238908593 -0.004461115691810846328735351562 0.003455793252214788956883095850 0 0 0 0 
2408166666.6666665077 0.194073960185050992111044365629 0.038031190633773796772043596093 -0.004428832326084375381469726562 0.003704276634380220933201455225 0 0 0 0 
2408333333.3333334923 0.193758323788642911056356865629 0.037738353013992309570312500000 -0.004123476799577474594116210938 0.003604558529332280158996582031 0 0 0 0 
2408500000.0000000000 0.193137601017951993087606865629 0.037417966872453689575195312500 -0.003871894907206296920776367188 0.003827359993010758919956826318 0 0 0 0 
2408666666.6666665077 0.192317157983779907226562500000 0.036993447691202156757395158593 -0.003793301060795783996582031250 0.003944049123674631118774414062 0 0 0 0 
2408833333.3333334923 0.191766291856765802581463731258 0.036106426268815987323801408593 -0.003619685070589185194728232275 0.003829561872407793998718261719 0 0 0 0 
2409000000.0000000000 0.190878003835678100585937500000 0.035364873707294457172434221093 -0.003332290798425674004795693506 0.003958780318498612317557050488 0 0 0 0 
2409166666.6666665077 0.189918518066406305511151231258 0.034377567470073699951171875000 -0.003353961976245046095607138525 0.003842287231236695809605263818 0 0 0 0 
2409333333.3333334923 0.189040124416351290603799384371 0.033381141722202301025390625000 -0.003172940341755747795104980469 0.003986324183642864227294921875 0 0 0 0 
2409500000.0000000000 0.187974110245704706390057481258 0.032141193747520446777343750000 -0.002993892412632704214808798682 0.004029545933008193969726562500 0 0 0 0 
2409666666.6666665077 0.187060877680778503417968750000 0.030781272798776630056361014454 -0.002886891365051269964930868994 0.004097282886505126953125000000 0 0 0 0 
2409833333.3333334923 0.186058044433593805511151231258 0.029171040281653400766392891796 -0.002686761785298585891723632812 0.004077162127941846847534179688 0 0 0 0 
2410000000.0000000000 0.184937551617622403243856865629 0.027509164065122600900670235546 -0.002778374124318360848667763818 0.004091561771929264068603515625 0 0 0 0 
2410166666.6666665077 0.184137567877769497970419365629 0.025661339983344081533411795704 -0.002463245764374732971191406250 0.004069678485393524169921875000 0 0 0 0 
2410333333.3333334923 0.183244273066520690917968750000 0.023972114548087120056152343750 -0.002434465335682034926173544775 0.004228929989039897918701171875 0 0 0 0 
2410500000.0000000000 0.182374373078346307952557481258 0.022037159651517871511439139454 -0.002169627230614424185511923682 0.004068287089467048645019531250 0 0 0 0 
2410666666.6666665077 0.181379765272140502929687500000 0.019809558987617489206334298046 -0.002160111209377646012547158350 0.004256270825862885388846112988 0 0 0 0 
2410833333.3333334923 0.180894479155540494064169365629 0.017593223601579669607142264454 -0.001785176689736545085906982422 0.004022004082798957824707031250 0 0 0 0 
2411000000.0000000000 0.180049613118171691894531250000 0.015364690683782100677490234375 -0.001696839230135082981706928784 0.004178321454674006375784589551 0 0 0 0 
2411166666.6666665077 0.179433479905128506759481865629 0.013069542124867439270019531250 -0.001695377286523580984828329932 0.004141048062592744827270507812 0 0 0 0 
2411333333.3333334923 0.178812518715858487228231865629 0.010566829703748229635218436329 -0.001527090789750217957737588037 0.004157887771725654602050781250 0 0 0 0 
2411500000.0000000000 0.178449660539627102950888115629 0.008077335543930530548095703125 -0.001399340690113604068756103516 0.004059236031025648117065429688 0 0 0 0 
2411666666.6666665077 0.178203165531158502776776231258 0.005793486721813678741455078125 -0.001255103619769216017482138525 0.004036017693579196929931640625 0 0 0 0 
2411833333.3333334923 0.178044825792312594314736884371 0.003192983102053403854370117188 -0.001186543726362287998199462891 0.003880375297740101814270019531 0 0 0 0 
2412000000.0000000000 0.178176715970039395431356865629 0.000799653702415525913238525391 -0.001185221248306334018707275391 0.003861196106299757957458496094 0 0 0 0 
2412166666.6666665077 0.178327277302742004394531250000 -0.001629372942261398055432963794 -0.001000704593025147914886474609 0.003880688454955815835240029443 0 0 0 0 
2412333333.3333334923 0.178411811590194702148437500000 -0.004302253015339375409598066113 -0.000959222961682826280593872070 0.003828592831268907027003622900 0 0 0 0 
2412500000.0000000000 0.179071068763732910156250000000 -0.006429418921470642089843750000 -0.000998555566184222698211669922 0.003790119895711541175842285156 0 0 0 0 
2412666666.6666665077 0.179627776145935086349325615629 -0.009159392677247524261474609375 -0.000936104799620807170867919922 0.003732469864189624786376953125 0 0 0 0 
2412833333.3333334923 0.180398017168044988434161268742 -0.011545304208993910008440586523 -0.001003607525490223927738808740 0.003621517214924097061157226562 0 0 0 0 
2413000000.0000000000 0.181077897548675509353799384371 -0.013859787024557590484619140625 -0.001009746221825480894801474463 0.003725617891177535057067871094 0 0 0 0 
2413166666.6666665077 0.181785911321639986892861884371 -0.016172355040907859802246093750 -0.001098514068871736960170126807 0.003739813575521111922023154150 0 0 0 0 
2413333333.3333334923 0.182966589927673312088174384371 -0.018433315679430961608886718750 -0.000901972234714776277542114258 0.003605946898460388183593750000 0 0 0 0 
2413500000.0000000000 0.184029102325439508636151231258 -0.020830310881137851369837576954 -0.000926909211557358503341674805 0.003782440442591906027552939307 0 0 0 0 
2413666666.6666665077 0.185090616345405606368856865629 -0.022973615676164630544642264454 -0.000835155893582850694656372070 0.003681322559714316888096474756 0 0 0 0 
2413833333.3333334923 0.186176091432571411132812500000 -0.024915659800171848642369454296 -0.000796318578068166971206665039 0.003927122335880994796752929688 0 0 0 0 
2414000000.0000000000 0.187471300363540704925213731258 -0.026927245780825618398646170704 -0.000763913558330386877059936523 0.003970494493842124938964843750 0 0 0 0 
2414166666.6666665077 0.188761487603187588790731865629 -0.028746422380208969116210937500 -0.000652074988465756177902221680 0.003866067156195640997645712744 0 0 0 0 
2414333333.3333334923 0.189794808626174899002236884371 -0.030764786526560779916783516796 -0.000589015253353863954544067383 0.004155878908932209014892578125 0 0 0 0 
2414500000.0000000000 0.191031321883201599121093750000 -0.032305259257555007934570312500 -0.000328730267938226515620631085 0.004190171137452126416678144238 0 0 0 0 
2414666666.6666665077 0.192296892404556302169638115629 -0.033904705196619026874582658593 -0.000328952533891424482494908466 0.004016755148768424987792968750 0 0 0 0 
2414833333.3333334923 0.193457558751106289962606865629 -0.035190816968679428100585937500 -0.000313449243549257516860961914 0.004050881601870059967041015625 0 0 0 0 
2415000000.0000000000 0.194571882486343411544638115629 -0.036509100347757339477539062500 -0.000200626818696036907747545786 0.004196647088974714279174804688 0 0 0 0 
2415166666.6666665077 0.195778489112854003906250000000 -0.037619322538375847553293596093 -0.000037816334952367469668388367 0.003845531726256012916564941406 0 0 0 0 
2415333333.3333334923 0.197020724415779113769531250000 -0.038467962294816970825195312500 0.000021373531126300800928865739 0.003939679823815822601318359375 0 0 0 0 
2415500000.0000000000 0.198275700211524991134481865629 -0.039359290152788162231445312500 0.000001110821017391572028981824 0.003918846603482961654663085938 0 0 0 0 
2415666666.6666665077 0.199244529008865411956463731258 -0.040079459547996520996093750000 -0.000054263957281364127993583679 0.004001162946224212646484375000 0 0 0 0 
2415833333.3333334923 0.200040146708488492111044365629 -0.040752392262220382690429687500 0.000000844458668325387407094240 0.003986218478530645370483398438 0 0 0 0 
2416000000.0000000000 0.200938329100608797928018134371 -0.041304685175418846820871721093 0.000071991526056081056594848633 0.004055872093886137008666992188 0 0 0 0 
2416166666.6666665077 0.201676815748214693924111884371 -0.041834264993667602539062500000 0.000097657590231392532587051392 0.004199366085231304168701171875 0 0 0 0 
2416333333.3333334923 0.202204257249832208831463731258 -0.042072903364896767353098283593 0.000144152028951793909072875977 0.004294768441468477249145507812 0 0 0 0 
2416500000.0000000000 0.202661678194999694824218750000 -0.042428206652402877807617187500 0.000217961103771813186720171518 0.004328593146055936813354492188 0 0 0 0 
2416666666.6666665077 0.203076973557472201248330634371 -0.042738132178783416748046875000 0.000232426536967977908536633902 0.004409933462738990783691406250 0 0 0 0 
2416833333.3333334923 0.203265309333801297286825615629 -0.042716298252344131469726562500 0.000437882990809157490730285645 0.004564194008708000183105468750 0 0 0 0 
2417000000.0000000000 0.203353762626648004729901231258 -0.042906034737825386737863908593 0.000796148087829351425170898438 0.004604635760188102722167968750 0 0 0 0 
2417166666.6666665077 0.203194797039032010177450615629 -0.042790841311216347431223283593 0.000838023552205413579940795898 0.004531467333436012268066406250 0 0 0 0 
2417333333.3333334923 0.202841028571128900725994981258 -0.042590014636516571044921875000 0.001108855707570911104317690210 0.004683369770646095275878906250 0 0 0 0 
2417500000.0000000000 0.202524244785308810135049384371 -0.042634103447198867797851562500 0.001088882796466350989100790869 0.004795433487743139266967773438 0 0 0 0 
2417666666.6666665077 0.202102407813072204589843750000 -0.042324908077716827392578125000 0.001420539338141679980634379810 0.004714572802186012268066406250 0 0 0 0 
2417833333.3333334923 0.201619103550911005218182481258 -0.042152732610702521587331403907 0.001662956085056066946742392432 0.004693623166531324386596679688 0 0 0 0 
2418000000.0000000000 0.200980961322784396072549384371 -0.041966367512941360473632812500 0.001731245080009103038190532153 0.004754273686558008193969726562 0 0 0 0 
2418166666.6666665077 0.200176760554313687423544365629 -0.041821211576461791992187500000 0.001862063887529074928881001050 0.004705817904323340329642011426 0 0 0 0 
2418333333.3333334923 0.199209138751029996017294365629 -0.041721630841493606567382812500 0.002092881593853234811070107568 0.004729641601443290710449218750 0 0 0 0 
2418500000.0000000000 0.198132231831550598144531250000 -0.041739460080862052226979841407 0.002437004353851079940795898438 0.004595580045133829116821289062 0 0 0 0 
2418666666.6666665077 0.197242215275764493087606865629 -0.041652332991361618041992187500 0.002518649445846676826477050781 0.004564064089208841323852539062 0 0 0 0 
2418833333.3333334923 0.195996910333633395095986884371 -0.041805878281593322753906250000 0.002638526028022170066833496094 0.004409711342304944992065429688 0 0 0 0 
2419000000.0000000000 0.194793343544006403167401231258 -0.041907906532287597656250000000 0.002798070432618259949925088037 0.004408408887684345245361328125 0 0 0 0 
2419166666.6666665077 0.193434774875640896896200615629 -0.042430944740772247314453125000 0.002917043631896377043483115088 0.004258428700268268585205078125 0 0 0 0 
2419333333.3333334923 0.192019268870353698730468750000 -0.042825628072023391723632812500 0.003206501714885234832763671875 0.004044732078909873962402343750 0 0 0 0 
2419500000.0000000000 0.190499752759933499435263115629 -0.043286904692649841308593750000 0.003335813991725444793701171875 0.004223031923174858093261718750 0 0 0 0 
2419666666.6666665077 0.189002320170402499099893134371 -0.044157523661851882934570312500 0.003384359180927277045008993994 0.004041288513690233230590820312 0 0 0 0 
2419833333.3333334923 0.187180280685424804687500000000 -0.044842313975095748901367187500 0.003492954187095164819004677881 0.003905243240296841101405478369 0 0 0 0 
