# Hz S RI R 
2400000000.0000000000 0.156036168336868286132812500000 0.111679293215274796913227817186 -0.004894123878329992294311523438 0.002680589910596609115600585938 0 0 0 0 
2400166666.6666665077 0.155059188604354886154013115629 0.109412871301174205451722798443 -0.005080665461719036102294921875 0.002646930050104856924769736182 0 0 0 0 
2400333333.3333334923 0.154557108879089410979901231258 0.106555737555026994178852817186 -0.005175400990992785367483808301 0.002341222716495395140406943213 0 0 0 0 
2400500000.0000000000 0.154153883457183810135049384371 0.104028463363647502570863423443 -0.005329424515366554260253906250 0.002135444432497024969813681494 0 0 0 0 
2400666666.6666665077 0.154967486858367892166299384371 0.102081142365932506232972798443 -0.004552216734737157821655273438 0.003442254383116960959193564307 0 0 0 0 
2400833333.3333334923 0.154173851013183593750000000000 0.098720014095306396484375000000 -0.004632451571524143218994140625 0.002898994367569684982299804688 0 0 0 0 
2401000000.0000000000 0.154135495424270602127236884371 0.095719113945960998535156250000 -0.004754690453410148620605468750 0.002909467089921236038208007812 0 0 0 0 
2401166666.6666665077 0.153869077563285799881143134371 0.092960081994533538818359375000 -0.004603754729032517346853925488 0.003154456149786711172816611182 0 0 0 0 
2401333333.3333334923 0.154196754097938509842080634371 0.090002015233039855957031250000 -0.004388034809380769729614257812 0.003196400124579668045043945312 0 0 0 0 
2401500000.0000000000 0.154289856553077697753906250000 0.087117530405521392822265625000 -0.004543738439679145812988281250 0.003467922098934649987461709131 0 0 0 0 
2401666666.6666665077 0.154438033699989291092080634371 0.083770044147968292236328125000 -0.004470829851925373077392578125 0.003690555226057767868041992188 0 0 0 0 
2401833333.3333334923 0.154618784785270690917968750000 0.080867864191532135009765625000 -0.004308820236474275588989257812 0.003815160365775227980372763525 0 0 0 0 
2402000000.0000000000 0.155690848827362088302450615629 0.078124500811100006103515625000 -0.004210773389786481857299804688 0.003873761743307114081141806494 0 0 0 0 
2402166666.6666665077 0.156087368726730402190838731258 0.075391553342342376708984375000 -0.004051867872476577758789062500 0.004062645137310028076171875000 0 0 0 0 
2402333333.3333334923 0.156986653804779108245526231258 0.072284564375877380371093750000 -0.004222278017550706863403320312 0.004374690353870391845703125000 0 0 0 0 
2402500000.0000000000 0.158018708229064913650674384371 0.069645516574382781982421875000 -0.004031856544315814971923828125 0.004452579654753208160400390625 0 0 0 0 
2402666666.6666665077 0.159336224198341397384481865629 0.066923104226589202880859375000 -0.003906857222318649291992187500 0.004658804275095462799072265625 0 0 0 0 
2402833333.3333334923 0.160218924283981295486611884371 0.064411118626594543457031250000 -0.003768404480069876150843954932 0.004964197985827922821044921875 0 0 0 0 
2403000000.0000000000 0.161625266075134305099325615629 0.061612591147422790527343750000 -0.003536464413627982139587402344 0.005190220195800065994262695312 0 0 0 0 
2403166666.6666665077 0.163501724600791903396768134371 0.059191882610321051860768903907 -0.003509394126012920899632119287 0.005339748691767454147338867188 0 0 0 0 
2403333333.3333334923 0.164791435003280611892861884371 0.056701105087995529174804687500 -0.003372412873432040214538574219 0.005483093205839396390433027051 0 0 0 0 
2403500000.0000000000 0.166417807340622003753338731258 0.054372508078813552856445312500 -0.003049899591132998900172568213 0.005763387773185968399047851562 0 0 0 0 
2403666666.6666665077 0.168290689587593106368856865629 0.052154093980789191509206403907 -0.003045326797291636900660849463 0.005840132012963294982910156250 0 0 0 0 
2403833333.3333334923 0.169992923736572293380575615629 0.049980200827121741558034528907 -0.002662265440449119047877646338 0.006188979838043451309204101562 0 0 0 0 
2404000000.0000000000 0.171680420637130709549111884371 0.048052474856376647949218750000 -0.002472433494403957886936806787 0.006182675715535879135131835938 0 0 0 0 
2404166666.6666665077 0.173725321888923700530682481258 0.046290129423141479492187500000 -0.002255113329738378958461142432 0.006483715493232011795043945312 0 0 0 0 
2404333333.3333334923 0.175468191504478510100994981258 0.044569462537765502929687500000 -0.001982578774914145903346396338 0.006740594748407602310180664062 0 0 0 0 
2404500000.0000000000 0.177239835262298611739950615629 0.043007455766201019287109375000 -0.001727070077322423891780234229 0.006924082059413194656372070312 0 0 0 0 
2404666666.6666665077 0.179188624024391202071981865629 0.041687253862619400024414062500 -0.001296405098401010036468505859 0.006994882598519325256347656250 0 0 0 0 
2404833333.3333334923 0.180926322937011690994424384371 0.040447480976581566547434221093 -0.001034270622767508029937744141 0.007290521636605262756347656250 0 0 0 0 
2405000000.0000000000 0.182478457689285306075888115629 0.039616938680410392070729841407 -0.000578465347643941640853881836 0.007265983149409294128417968750 0 0 0 0 
2405166666.6666665077 0.184310227632522610763388115629 0.038794863969087600708007812500 -0.000236876585404388606548309326 0.007424896582961083325857831738 0 0 0 0 
2405333333.3333334923 0.186006307601928710937500000000 0.038223743438720703125000000000 0.000197217086679302210181635724 0.007455513812601566314697265625 0 0 0 0 
2405500000.0000000000 0.187666788697242709060830634371 0.037648256868124008178710937500 0.000534749939106404781341552734 0.007337008137255907058715820312 0 0 0 0 
2405666666.6666665077 0.189163804054260309417401231258 0.037376839667558670043945312500 0.001007182174362242004991840894 0.007315021008253098401541425488 0 0 0 0 
2405833333.3333334923 0.190535545349121093750000000000 0.037015512585639946674387346093 0.001432650606147944927215576172 0.007224405650049448013305664062 0 0 0 0 
2406000000.0000000000 0.191904038190841702560263115629 0.036932259798049926757812500000 0.001730575575493275902391743237 0.007188295945525169372558593750 0 0 0 0 
2406166666.6666665077 0.193132132291793795486611884371 0.036804094910621643066406250000 0.002115185139700769944431923975 0.006794768851250410079956054688 0 0 0 0 
2406333333.3333334923 0.194178387522697504241619981258 0.036843180656433112407643903907 0.002519522560760378837585449219 0.006760911084711551666259765625 0 0 0 0 
2406500000.0000000000 0.195320919156074496170205634371 0.037046540528535842895507812500 0.002761762123554944992065429688 0.006608779076486825942993164062 0 0 0 0 
2406666666.6666665077 0.196193292737007113357705634371 0.037232581526041030883789062500 0.003026320133358240127563476562 0.006375477183610200881958007812 0 0 0 0 
2406833333.3333334923 0.196924090385437011718750000000 0.037386685609817511821706403907 0.003166946582496165795567177881 0.006122387945652008056640625000 0 0 0 0 
2407000000.0000000000 0.197452127933502197265625000000 0.037866797298192977905273437500 0.003388090524822473959681845557 0.006039964500814676284790039062 0 0 0 0 
2407166666.6666665077 0.197971820831298800369424384371 0.037720479071140289306640625000 0.003584889462217688994166708838 0.005828218534588813781738281250 0 0 0 0 
2407333333.3333334923 0.198008492588996887207031250000 0.038170441985130310058593750000 0.003909280523657798767089843750 0.005605567712336778640747070312 0 0 0 0 
2407500000.0000000000 0.198345080018043490310830634371 0.038558177649974822998046875000 0.004024457186460494995117187500 0.005387980025261641416067792676 0 0 0 0 
2407666666.6666665077 0.198398083448410006424111884371 0.038877699524164199829101562500 0.004103529267013072967529296875 0.005135902203619480133056640625 0 0 0 0 
2407833333.3333334923 0.198017522692680386642294365629 0.039015885442495353008229841407 0.004457280971109867095947265625 0.004973811097443103790283203125 0 0 0 0 
2408000000.0000000000 0.197985380887985201736611884371 0.039122536778450012207031250000 0.004561056848615407943725585938 0.004797584377229213714599609375 0 0 0 0 
2408166666.6666665077 0.197511836886405889313067518742 0.039142079651355743408203125000 0.004604231566190719604492187500 0.004655756521970033645629882812 0 0 0 0 
2408333333.3333334923 0.197127148509025601486044365629 0.039064805954694747924804687500 0.004867143463343381881713867188 0.004361469298601151380057050488 0 0 0 0 
2408500000.0000000000 0.196409016847610501388388115629 0.039023153483867652202565778907 0.005066259764134883880615234375 0.003976967651396989822387695312 0 0 0 0 
2408666666.6666665077 0.195636719465255709549111884371 0.038858406245708472515065778907 0.005191175732761622342581464551 0.003836443880572915077209472656 0 0 0 0 
2408833333.3333334923 0.194961130619049100021200615629 0.038324762135744101787526716407 0.005152135621756315231323242188 0.003503846935927867889404296875 0 0 0 0 
2409000000.0000000000 0.193997472524642888824786268742 0.037818923592567436908762346093 0.005298715084791184339041425488 0.003214564407244325117823935400 0 0 0 0 
2409166666.6666665077 0.192876949906349209884481865629 0.037160176783800132060964216407 0.005367924924939870834350585938 0.003071090206503868103027343750 0 0 0 0 
2409333333.3333334923 0.191803991794586209396200615629 0.036436051130294799804687500000 0.005313521251082420349121093750 0.002884255256503819985630654443 0 0 0 0 
2409500000.0000000000 0.190480425953865106780682481258 0.035680681467056267475168596093 0.005151912104338408383841230176 0.002656866330653429031372070312 0 0 0 0 
2409666666.6666665077 0.189441308379173306564169365629 0.034439940005540847778320312500 0.005086783319711685180664062500 0.002447573002427815957310341943 0 0 0 0 
2409833333.3333334923 0.188280045986175509353799384371 0.033134151250123977661132812500 0.005095867905765771865844726562 0.002143224235624074935913085938 0 0 0 0 
2410000000.0000000000 0.187030270695686312576455634371 0.031774654984474182128906250000 0.005143452435731887817382812500 0.002016954822465776963474892725 0 0 0 0 
2410166666.6666665077 0.185655996203422601897869981258 0.030060913413763049734095389454 0.005081896670162677764892578125 0.001907400903292000076891254956 0 0 0 0 
2410333333.3333334923 0.184677630662918090820312500000 0.028580958023667338979700858204 0.005011813715100288391113281250 0.001756055280566215948817587744 0 0 0 0 
2410500000.0000000000 0.183398306369781494140625000000 0.026675708591938018798828125000 0.005121686495840550336355878613 0.001584539422765373966814350659 0 0 0 0 
2410666666.6666665077 0.182243898510932894607705634371 0.024630408734083179128626639454 0.005137610249221324920654296875 0.001599405077286065058467245947 0 0 0 0 
2410833333.3333334923 0.181395694613456698318643134371 0.022643409669399261474609375000 0.005114397034049034118652343750 0.001412211218848824934718466650 0 0 0 0 
2411000000.0000000000 0.180376634001731900314169365629 0.020494816824793819082239920704 0.005082886666059494018554687500 0.001322535215876996950862265479 0 0 0 0 
2411166666.6666665077 0.179552793502807589431924384371 0.018314545974135398864746093750 0.004989274777472019195556640625 0.001170472707599401907679892432 0 0 0 0 
2411333333.3333334923 0.178625643253326388260049384371 0.015764143317937850952148437500 0.005150083918124437332153320312 0.001009559375233948013902973706 0 0 0 0 
2411500000.0000000000 0.178041070699691800216513115629 0.013333948329091070347796055273 0.004925085697323083877563476562 0.001016578054986893913866352612 0 0 0 0 
2411666666.6666665077 0.177655592560768099685830634371 0.011155637912452219182024570898 0.005072350613772869110107421875 0.000759795424528419971466064453 0 0 0 0 
2411833333.3333334923 0.177256584167480496505575615629 0.008576458320021629333496093750 0.005074483342468739423269941113 0.000719415256753563880920410156 0 0 0 0 
2412000000.0000000000 0.177051603794097900390625000000 0.005725435446947813034057617188 0.005120668560266494750976562500 0.000745069002732634544372558594 0 0 0 0 
2412166666.6666665077 0.176978707313537597656250000000 0.003595175454393029212951660156 0.005147122312337160110473632812 0.000469170277938246726989746094 0 0 0 0 
2412333333.3333334923 0.176961928606033297439736884371 0.000758902693632990121841430664 0.005212313029915094375610351562 0.000344032334396615624427795410 0 0 0 0 
2412500000.0000000000 0.177268102765083312988281250000 -0.001968830125406384901759482275 0.005086723715066909790039062500 0.000273960467893630320399683820 0 0 0 0 
2412666666.6666665077 0.177724942564964294433593750000 -0.004606506787240505218505859375 0.005261205136775971326346112988 0.000190429476788267493247985840 0 0 0 0 
2412833333.3333334923 0.178300261497497586349325615629 -0.007269690744578838348388671875 0.005283849313855171203613281250 -0.000125343896797858205720624380 0 0 0 0 
2413000000.0000000000 0.178957208991050692459268134371 -0.009616716764867305755615234375 0.005204627756029366579537676074 -0.000177769354195333990171709604 0 0 0 0 
2413166666.6666665077 0.179706543684005709549111884371 -0.012052556499838830775250819727 0.005260301753878592577462480762 -0.000158443202963098910733899527 0 0 0 0 
2413333333.3333334923 0.180736228823661804199218750000 -0.014677389524877069645891758398 0.005282045342028141021728515625 -0.000397748197428882122039794922 0 0 0 0 
2413500000.0000000000 0.181488111615180996993856865629 -0.017292261123657230031946951954 0.005233848001807928085327148438 -0.000844424532260745763778686523 0 0 0 0 
2413666666.6666665077 0.182733252644538907150106865629 -0.019658189266920089721679687500 0.005310359410941600799560546875 -0.000813738850411027669906616211 0 0 0 0 
2413833333.3333334923 0.183957859873771695236044365629 -0.021998826414346698415736014454 0.005499890074133872985839843750 -0.001017242087982594966888427734 0 0 0 0 
2414000000.0000000000 0.185030713677406311035156250000 -0.024104472249746319162388985546 0.005187548696994782361502362988 -0.001273390138521790938136435400 0 0 0 0 
2414166666.6666665077 0.186586812138557406326455634371 -0.026076542213559150695800781250 0.005276152398437261581420898438 -0.001424456131644546985626220703 0 0 0 0 
2414333333.3333334923 0.187746301293373107910156250000 -0.028545122593641281127929687500 0.005075383465737104415893554688 -0.001674445928074419932124472510 0 0 0 0 
2414500000.0000000000 0.189261049032211303710937500000 -0.030143145471811301494557966407 0.005094517488032579421997070312 -0.001887486898340285041211772388 0 0 0 0 
2414666666.6666665077 0.190401539206504794021768134371 -0.031779736280441277240793596093 0.004837796557694674405569745801 -0.001935106236487627029418945312 0 0 0 0 
2414833333.3333334923 0.191994488239288302322549384371 -0.033377222716808319091796875000 0.004844773560762405395507812500 -0.002230503596365451812744140625 0 0 0 0 
2415000000.0000000000 0.193228349089622497558593750000 -0.034898225218057632446289062500 0.004712684080004692077636718750 -0.002360810525715351104736328125 0 0 0 0 
2415166666.6666665077 0.194635763764381408691406250000 -0.036067284643650061870534528907 0.004686992615461350354666425488 -0.002485310425981878800633095850 0 0 0 0 
2415333333.3333334923 0.196101009845733587066973768742 -0.037258364260196692729909528907 0.004768276121467351913452148438 -0.002540706191211938858032226562 0 0 0 0 
2415500000.0000000000 0.197430253028869601150674384371 -0.038049250841140747070312500000 0.004569626878947019577026367188 -0.002846583025529981093165732275 0 0 0 0 
2415666666.6666665077 0.198819264769554110428018134371 -0.039113864302635192871093750000 0.004610671196132898330688476562 -0.002933538286015390916111611475 0 0 0 0 
2415833333.3333334923 0.199980914592742892166299384371 -0.039680708199739463115651716407 0.004511720500886440277099609375 -0.002955580130219459967372275244 0 0 0 0 
2416000000.0000000000 0.200956389307975796798544365629 -0.040557298809289932250976562500 0.004299697466194629669189453125 -0.003499277168884872956516884912 0 0 0 0 
2416166666.6666665077 0.202019929885864313323651231258 -0.041043635457754142070729841407 0.004165762104094029340262128613 -0.003444806439802051024196005713 0 0 0 0 
2416333333.3333334923 0.203001096844673212249432481258 -0.041357044130563742900807966407 0.004264762159436941146850585938 -0.003599822986871004104614257812 0 0 0 0 
2416500000.0000000000 0.203733772039413507659588731258 -0.041672714054584503173828125000 0.004056354984641075134277343750 -0.003791840979829431013820029150 0 0 0 0 
2416666666.6666665077 0.204262435436248807052450615629 -0.041983358561992652202565778907 0.003755483776330947875976562500 -0.003939619753509759902954101562 0 0 0 0 
2416833333.3333334923 0.204884782433509798904580634371 -0.041949827224016189575195312500 0.003668585792183876037597656250 -0.004132226575165987014770507812 0 0 0 0 
2417000000.0000000000 0.205138459801673889160156250000 -0.042178630828857421875000000000 0.003420465392991900010349892725 -0.004356844816356897354125976562 0 0 0 0 
2417166666.6666665077 0.205206438899040194412393134371 -0.041900083422660827636718750000 0.003251707879826426939723349463 -0.004299112129956483840942382812 0 0 0 0 
2417333333.3333334923 0.205286353826522799392861884371 -0.041633591055870063091237653907 0.003006848273798822922947548975 -0.004440122749656438827514648438 0 0 0 0 
2417500000.0000000000 0.205234959721565302093182481258 -0.041637640446424477314035783593 0.002829144475981593132019042969 -0.004721004981547594070434570312 0 0 0 0 
2417666666.6666665077 0.204942464828491210937500000000 -0.041308131068944931030273437500 0.002632850781083106994628906250 -0.004621203057467938336844159863 0 0 0 0 
2417833333.3333334923 0.204689130187034606933593750000 -0.040830314159393310546875000000 0.002445829799398779869079589844 -0.004763687029480934143066406250 0 0 0 0 
2418000000.0000000000 0.204265013337135287185830634371 -0.040392655879259109497070312500 0.002399871358647942976710654150 -0.004771937150508165359497070312 0 0 0 0 
2418166666.6666665077 0.203647315502166803558026231258 -0.040240604430437088012695312500 0.002117482712492347197291708838 -0.004622655920684337615966796875 0 0 0 0 
2418333333.3333334923 0.202829599380493191818075615629 -0.039879478514194488525390625000 0.001875842921435832977294921875 -0.004720276687294244766235351562 0 0 0 0 
2418500000.0000000000 0.201962396502494812011718750000 -0.039645567536354071880300153907 0.001881578005850315093994140625 -0.004811401013284921646118164062 0 0 0 0 
2418666666.6666665077 0.201141238212585504729901231258 -0.039362721145153052593190778907 0.001685733906924725012538290869 -0.004929279442876577377319335938 0 0 0 0 
2418833333.3333334923 0.199905455112457303146200615629 -0.039292644709348678588867187500 0.001504877931438386006596230615 -0.004835792351514101028442382812 0 0 0 0 
2419000000.0000000000 0.198726102709770202636718750000 -0.039271406829357147216796875000 0.001350074191577732996699667822 -0.004769603256136178970336914062 0 0 0 0 
2419166666.6666665077 0.197356089949607904632244981258 -0.039356626570224761962890625000 0.001383107039146125099779438550 -0.004901090171188116073608398438 0 0 0 0 
2419333333.3333334923 0.196021914482116699218750000000 -0.039698004722595221782643903907 0.001054997323080896897556923975 -0.004913467448204755783081054688 0 0 0 0 
2419500000.0000000000 0.194559991359710693359375000000 -0.039868567138910286640207658593 0.000923154235351830720901489258 -0.005099336151033639907836914062 0 0 0 0 
2419666666.6666665077 0.192810788750648498535156250000 -0.040473036468029022216796875000 0.000856163562275469303131103516 -0.004968879744410514831542968750 0 0 0 0 
2419833333.3333334923 0.191027194261550903320312500000 -0.040958799421787261962890625000 0.000576402584556490182876586914 -0.004784595221281051635742187500 0 0 0 0 
2420000000.0000000000 0.189485669136047391036825615629 -0.041640974581241607666015625000 0.000480574555695056915283203125 -0.004913730546832084655761718750 0 0 0 0 
