# Hz S RI R 
2400000000.0000000000 0.167915418744087191482705634371 0.041239812970161437988281250000 -0.001840805518440902016283344800 -0.002498518908396362824680947412 0 0 0 0 
2400166666.6666665077 0.168378204107284601409588731258 0.040463656187057502056081403907 -0.001975010847672820091247558594 -0.002321426291018724007847451318 0 0 0 0 
2400333333.3333334923 0.168820172548294095138388115629 0.039374712854623801494557966407 -0.001892912900075315995457314600 -0.002199754584580659866333007812 0 0 0 0 
2400500000.0000000000 0.169309005141258211990518134371 0.038414385169744491577148437500 -0.001859650015830994086024618994 -0.002249461365863680839538574219 0 0 0 0 
2400666666.6666665077 0.169695958495140103439169365629 0.037473067641258239746093750000 -0.001919621019624174074885702979 -0.002142240526154636903050088037 0 0 0 0 
2400833333.3333334923 0.170207738876342801193075615629 0.036813214421272277832031250000 -0.001996397273615003065821982275 -0.002067620866000651879551552881 0 0 0 0 
2401000000.0000000000 0.170295968651771600921307481258 0.035692743957042687152902971093 -0.001922366442158818028093647534 -0.002152194967493414878845214844 0 0 0 0 
2401166666.6666665077 0.170640662312507601638955634371 0.034837987273931503295898437500 -0.002069317270070313973667763818 -0.001971032703295350074768066406 0 0 0 0 
2401333333.3333334923 0.170677110552787808517294365629 0.033793795853853232646901716407 -0.001952981576323508999468159253 -0.002069626236334443092346191406 0 0 0 0 
2401500000.0000000000 0.170836374163627596756143134371 0.033063266426324837421457658593 -0.002030384493991733031031943213 -0.001987216761335730986354208838 0 0 0 0 
2401666666.6666665077 0.171031609177589388748330634371 0.032196689397096626972238908593 -0.002193841151893138885498046875 -0.002206826349720358848571777344 0 0 0 0 
2401833333.3333334923 0.171174645423889187911825615629 0.031305041164159781719167341407 -0.002250161487609148025512695312 -0.001863078912720083973528217847 0 0 0 0 
2402000000.0000000000 0.171104162931442288497763115629 0.030208051204681399953821951954 -0.002368258312344551086425781250 -0.001774896983988583087921142578 0 0 0 0 
2402166666.6666665077 0.171258509159088107010049384371 0.029247213155031200754185860546 -0.002311869291588664054870605469 -0.001636875444091856913325644385 0 0 0 0 
2402333333.3333334923 0.171140089631080599685830634371 0.028258083388209339487096016796 -0.002339195692911744117736816406 -0.001541655045002698898315429688 0 0 0 0 
2402500000.0000000000 0.171382203698158291915731865629 0.027491591870784759521484375000 -0.002333978191018104986903525244 -0.001504877815023065047023154150 0 0 0 0 
2402666666.6666665077 0.171179249882698086837606865629 0.026436461135745048522949218750 -0.002332568168640137152430868994 -0.001350977574475110010859824072 0 0 0 0 
2402833333.3333334923 0.171177938580513000488281250000 0.025321634486317641521413435157 -0.002418017014861106872558593750 -0.001382875838316977024078369141 0 0 0 0 
2403000000.0000000000 0.171117603778839111328125000000 0.024561794474720958364466483204 -0.002223871182650328116175986182 -0.001226734835654496929766010815 0 0 0 0 
2403166666.6666665077 0.171145379543304387848223768742 0.023142911493778228759765625000 -0.002174025401473044915440224756 -0.001297021284699440002441406250 0 0 0 0 
2403333333.3333334923 0.171088948845863286774005018742 0.022091204300522800790806954296 -0.002359872451052070097682333838 -0.001128584146499634005902934497 0 0 0 0 
2403500000.0000000000 0.171029686927795410156250000000 0.020977668464183810842493826954 -0.002329356037080287933349609375 -0.001145991962403059005737304688 0 0 0 0 
2403666666.6666665077 0.170914724469184903243856865629 0.019750813022255900991419608204 -0.002178110880777239799499511719 -0.001268216059543191952946328271 0 0 0 0 
2403833333.3333334923 0.170966491103172302246093750000 0.018240502104163169860839843750 -0.002078172517940402030944824219 -0.001292592496611177921295166016 0 0 0 0 
2404000000.0000000000 0.170782551169395502288494981258 0.017210740596055981027623360546 -0.002118437783792614936828613281 -0.001234472147189080932019877856 0 0 0 0 
2404166666.6666665077 0.170606970787048312088174384371 0.015836536884307861328125000000 -0.002314099809154868125915527344 -0.001311161438934504985809326172 0 0 0 0 
2404333333.3333334923 0.170617520809173611739950615629 0.014657178893685339146624180273 -0.002416154835373162789585732568 -0.001268249470740556933759379810 0 0 0 0 
2404500000.0000000000 0.170453235507011413574218750000 0.013137321919202809769600115430 -0.002374953823164104981663369287 -0.001177604193799198107478476416 0 0 0 0 
2404666666.6666665077 0.170494511723518399337606865629 0.011947488412261009216308593750 -0.002345176879316567940952920068 -0.001293117529712616963627480615 0 0 0 0 
2404833333.3333334923 0.170461162924766512771768134371 0.010543792508542539423932460352 -0.002393723465502262115478515625 -0.001287916675209999084472656250 0 0 0 0 
2405000000.0000000000 0.170422837138175992111044365629 0.009036872535943984985351562500 -0.002714652800932527022120810400 -0.001405037823133171038386679541 0 0 0 0 
2405166666.6666665077 0.170556500554084805587606865629 0.007458639796823263168334960938 -0.002680595265701413154602050781 -0.001349771628156303925755166162 0 0 0 0 
2405333333.3333334923 0.170536041259765597244424384371 0.005730266217142344388479902051 -0.002881970256567000909092568506 -0.001225292799063026905059814453 0 0 0 0 
2405500000.0000000000 0.170513555407524108886718750000 0.004331493284553289413452148438 -0.003035238245502113862278603662 -0.001292582484893501021741557544 0 0 0 0 
2405666666.6666665077 0.170412212610244806487713731258 0.002777646528556942939758300781 -0.002887189621105790138244628906 -0.001364649389870465018628764575 0 0 0 0 
2405833333.3333334923 0.170210331678390502929687500000 0.001409282907843589999555278247 -0.003020125906914473013636923682 -0.001149927964434028105494833838 0 0 0 0 
2406000000.0000000000 0.170326694846153287032919365629 -0.000313927099341526573330479755 -0.003186726709827781157252646338 -0.001128955627791583971736288916 0 0 0 0 
2406166666.6666665077 0.170138135552406311035156250000 -0.001954823732376099066493368994 -0.003279792843386530876159667969 -0.001190905226394533894182514722 0 0 0 0 
2406333333.3333334923 0.170188039541244506835937500000 -0.003400862449780106978175497900 -0.003480036510154604911804199219 -0.000996356364339590072631835938 0 0 0 0 
2406500000.0000000000 0.169901639223098810393963731258 -0.005045220255851745605468750000 -0.003458060557022691206691122900 -0.000814193161204457283020019531 0 0 0 0 
2406666666.6666665077 0.169645398855209406097088731258 -0.006429617758840323361868573926 -0.003748039482161403136012411963 -0.000684662198182195425033569336 0 0 0 0 
2406833333.3333334923 0.169584661722183199783486884371 -0.008103185333311557769775390625 -0.004022763110697268572335527637 -0.000566192029509693384170532227 0 0 0 0 
2407000000.0000000000 0.169391885399818392654580634371 -0.009382196702063083648681640625 -0.003852509194985032081604003906 -0.000388322863727807998657226562 0 0 0 0 
2407166666.6666665077 0.169412493705749511718750000000 -0.010793021880090240133265311329 -0.003974976018071174621582031250 -0.000050631486374186351895332336 0 0 0 0 
2407333333.3333334923 0.169044286012649508377236884371 -0.012173357419669629878034022852 -0.004092993214726448059082031250 0.000227434720727615112632197247 0 0 0 0 
2407500000.0000000000 0.168700769543647793868856865629 -0.013417669571936130523681640625 -0.004042844753712415695190429688 0.000342921179253607988357543945 0 0 0 0 
2407666666.6666665077 0.168683737516403198242187500000 -0.014560981653630730020543282421 -0.003964974544942378997802734375 0.000572675606235861778259277344 0 0 0 0 
2407833333.3333334923 0.168393090367317199707031250000 -0.015861039981246001506764997657 -0.003889615414664148850681923975 0.000783666560892015695571899414 0 0 0 0 
2408000000.0000000000 0.168265119194984408279580634371 -0.016801074147224429738978201954 -0.003722312161698936982395791162 0.000954827526584267616271972656 0 0 0 0 
2408166666.6666665077 0.168259784579277010818643134371 -0.017697809264063838613489920704 -0.003767359303310513930079794775 0.001048005884513258934020996094 0 0 0 0 
2408333333.3333334923 0.168328121304511996170205634371 -0.018787914887070659292200858204 -0.003572826739400624795200966943 0.001160246552899480082868266528 0 0 0 0 
2408500000.0000000000 0.168130725622177096267861884371 -0.019693244248628619802454764454 -0.003529042238369584083557128906 0.001332233077846467928645468604 0 0 0 0 
2408666666.6666665077 0.168220520019531305511151231258 -0.020606067031621929513951485546 -0.003305474529042840003967285156 0.001347911893390119075775146484 0 0 0 0 
2408833333.3333334923 0.168261915445327786544638115629 -0.021515883505344390869140625000 -0.003247660817578434944152832031 0.001438966253772377967834472656 0 0 0 0 
2409000000.0000000000 0.168295294046402005294638115629 -0.022205581888556480407714843750 -0.003251581918448210196254111182 0.001540021621622144959093403394 0 0 0 0 
2409166666.6666665077 0.168356478214263888260049384371 -0.023174278438091281545618826954 -0.003179440042003988785984658350 0.001520004821941256956813193213 0 0 0 0 
2409333333.3333334923 0.168551534414291409591513115629 -0.024021793156862258911132812500 -0.003180440515279769897460937500 0.001630075275897979953168559497 0 0 0 0 
2409500000.0000000000 0.168635964393615694900674384371 -0.025041440501809120178222656250 -0.003247292479500174956080771338 0.001589149236679076931597065503 0 0 0 0 
2409666666.6666665077 0.168651625514030512054119981258 -0.025910705327987670898437500000 -0.003115909406915307044982910156 0.001658695167861879088758159106 0 0 0 0 
2409833333.3333334923 0.168800294399261502364950615629 -0.026902733370661739004114920704 -0.003061565803363918824436806787 0.001819294062443077997920370947 0 0 0 0 
2410000000.0000000000 0.168875768780708312988281250000 -0.027711875736713409423828125000 -0.002823297632858157157897949219 0.001867181854322552897809672778 0 0 0 0 
2410166666.6666665077 0.168885007500648498535156250000 -0.028609696775674819946289062500 -0.003057826310396194891688681494 0.001897412119433284022687602466 0 0 0 0 
2410333333.3333334923 0.168705791234970092773437500000 -0.029604965820908549917200858204 -0.002937900368124247030970908057 0.002152069937437773184535361182 0 0 0 0 
2410500000.0000000000 0.168845236301422091385049384371 -0.030365878716111179697056954296 -0.002995235146954656080958701025 0.002195760840550065040588378906 0 0 0 0 
2410666666.6666665077 0.168660864233970586578692518742 -0.031510904431343078613281250000 -0.002901263535022736029383993994 0.002346188994124532179591513525 0 0 0 0 
2410833333.3333334923 0.168742880225181607345419365629 -0.032338012009859092021901716407 -0.002678029472008347944972372900 0.002260078443214296860935830225 0 0 0 0 
2411000000.0000000000 0.168531149625778198242187500000 -0.033131737262010567401926408593 -0.002808870514854789213893271338 0.002629414666444063186645507812 0 0 0 0 
2411166666.6666665077 0.168315827846527099609375000000 -0.034126315265893943096120466407 -0.002808987628668547110316611182 0.002605096437036991119384765625 0 0 0 0 
2411333333.3333334923 0.167969003319740295410156250000 -0.034834772348403930664062500000 -0.002559330314397811889648437500 0.002798893954604864120483398438 0 0 0 0 
2411500000.0000000000 0.167789548635482788085937500000 -0.035993497818708419799804687500 -0.002405933104455471038818359375 0.002806035103276371955871582031 0 0 0 0 
2411666666.6666665077 0.167676523327827509124432481258 -0.036851327866315841674804687500 -0.002353412099182606177089072119 0.002937138313427567915675497900 0 0 0 0 
2411833333.3333334923 0.167494595050811795333700615629 -0.037630170583724982524831403907 -0.002257966902106999917271279443 0.002925330772995948791503906250 0 0 0 0 
2412000000.0000000000 0.167146831750869806487713731258 -0.038607493042945861816406250000 -0.002199037000536919073817587744 0.002954005263745785193202353369 0 0 0 0 
2412166666.6666665077 0.166872411966323908050213731258 -0.039666939526796340942382812500 -0.001892975764349102973937988281 0.003057970432564616203308105469 0 0 0 0 
2412333333.3333334923 0.166809156537055996993856865629 -0.040359243750572211528737653907 -0.001858150586485862948774028247 0.002992615103721619086024618994 0 0 0 0 
2412500000.0000000000 0.166158616542816189864950615629 -0.041393894702196121215820312500 -0.001960919704288243813755654443 0.003165063215419650077819824219 0 0 0 0 
2412666666.6666665077 0.166145458817481994628906250000 -0.042564850300550460815429687500 -0.001765649416483938910840678638 0.003114649560302495956420898438 0 0 0 0 
2412833333.3333334923 0.165757834911346407791299384371 -0.043495450168848037719726562500 -0.001767248730175196907640766675 0.003412432735785841941833496094 0 0 0 0 
2413000000.0000000000 0.165089324116706903655682481258 -0.044541388750076287006418596093 -0.001822892110794783072230673682 0.003201487706974149183986044775 0 0 0 0 
2413166666.6666665077 0.164953753352165194412393134371 -0.045601274818181991577148437500 -0.001450169482268393039703369141 0.003279797965660690827610634912 0 0 0 0 
2413333333.3333334923 0.164354041218757601638955634371 -0.046583436429500579833984375000 -0.001399998669512569904327392578 0.003369333222508430914637900244 0 0 0 0 
2413500000.0000000000 0.164032995700836209396200615629 -0.047570288181304931640625000000 -0.001370733138173819021937704932 0.003446680260822176933288574219 0 0 0 0 
2413666666.6666665077 0.163542687892913790603799384371 -0.048552393913269042968750000000 -0.001204581931233406066894531250 0.003293267916887999014613486182 0 0 0 0 
2413833333.3333334923 0.163140133023261996170205634371 -0.049620475620031356811523437500 -0.001042796415276824994328164209 0.003466554218903183937072753906 0 0 0 0 
2414000000.0000000000 0.162479355931281987945880018742 -0.050560902804136283184011091407 -0.000903137843124568462371826172 0.003516622586175798936131142725 0 0 0 0 
2414166666.6666665077 0.162244722247123690506143134371 -0.051643863320350646972656250000 -0.000942669343203306198120117188 0.003525270614773035049438476562 0 0 0 0 
2414333333.3333334923 0.161985799670219393631143134371 -0.052655283361673362041432966407 -0.000852493976708501577377319336 0.003745995229110122160670615088 0 0 0 0 
2414500000.0000000000 0.161715507507324190994424384371 -0.053438138216733932495117187500 -0.000583661254495382308959960938 0.003633540589362382888793945312 0 0 0 0 
2414666666.6666665077 0.161597788333892794510049384371 -0.054424732923507690429687500000 -0.000450575491413474082946777344 0.003566502826288342909571982275 0 0 0 0 
2414833333.3333334923 0.161225855350494412521200615629 -0.055686593055725097656250000000 -0.000285923277260735576778966083 0.003559043398126959800720214844 0 0 0 0 
2415000000.0000000000 0.160981014370918301681356865629 -0.056594241410493850708007812500 -0.000154137145727872902720850812 0.003564554965123534202575683594 0 0 0 0 
2415166666.6666665077 0.160838022828102111816406250000 -0.057679206132888787006418596093 -0.000125420323456637588426312857 0.003478058381006122069117880713 0 0 0 0 
2415333333.3333334923 0.160883799195289611816406250000 -0.058764275163412087177317033593 0.000004940669896313920617103577 0.003449639305472373962402343750 0 0 0 0 
2415500000.0000000000 0.160486862063407897949218750000 -0.059952311217784881591796875000 0.000073598865128587931394577026 0.003496539546176791191101074219 0 0 0 0 
2415666666.6666665077 0.160414353013038607498330634371 -0.061037547886371612548828125000 0.000269420415861532092094421387 0.003413909580558538003208779443 0 0 0 0 
2415833333.3333334923 0.160180166363716097732705634371 -0.062293462455272681499440778907 0.000305729161482304280430394305 0.003315317677333950996398925781 0 0 0 0 
2416000000.0000000000 0.159964933991432189941406250000 -0.063439063727855682373046875000 0.000499163870699703693389892578 0.003295664442703127861022949219 0 0 0 0 
2416166666.6666665077 0.160004988312721307952557481258 -0.064709231257438659667968750000 0.000414479669416323304176330566 0.003458729013800621032714843750 0 0 0 0 
2416333333.3333334923 0.159551426768302889724893134371 -0.065845347940921783447265625000 0.000562410161364823579788208008 0.003247505053877830939051962744 0 0 0 0 
2416500000.0000000000 0.159237340092658996582031250000 -0.067079409956932067871093750000 0.000627348141279071569442749023 0.003307597013190389113185263525 0 0 0 0 
2416666666.6666665077 0.159008875489234896560830634371 -0.068190701305866241455078125000 0.000710946216713637113571166992 0.003116878448054194884059286963 0 0 0 0 
2416833333.3333334923 0.158884540200233487228231865629 -0.069399982690811157226562500000 0.000806469586677849292755126953 0.003135147737339138984680175781 0 0 0 0 
2417000000.0000000000 0.158291697502136202713174384371 -0.070452108979225158691406250000 0.000946294225286692380905151367 0.003144064918160438971278525244 0 0 0 0 
2417166666.6666665077 0.157856851816177395919638115629 -0.071556046605110168457031250000 0.001061039976775645992876362378 0.002999320859089494185206747900 0 0 0 0 
2417333333.3333334923 0.157571628689765902420205634371 -0.072377622127532958984375000000 0.001158921979367733001708984375 0.002931381808593869209289550781 0 0 0 0 
2417500000.0000000000 0.157290503382682800292968750000 -0.073532290756702423095703125000 0.001250690314918756918666220557 0.002938411198556423187255859375 0 0 0 0 
2417666666.6666665077 0.157097339630127008636151231258 -0.074010953307151794433593750000 0.001336741377599536938908242334 0.002625318709760903878452920068 0 0 0 0 
2417833333.3333334923 0.156738594174385098556356865629 -0.075015395879745483398437500000 0.001339002163149416013004922021 0.002657095436006784005406045068 0 0 0 0 
2418000000.0000000000 0.156295120716094998458700615629 -0.075899064540863037109375000000 0.001339868758805095932604145581 0.002487279707565904097316122900 0 0 0 0 
2418166666.6666665077 0.156073272228240994552450615629 -0.076545074582099914550781250000 0.001338172238320112011553120190 0.002569611417129635810852050781 0 0 0 0 
2418333333.3333334923 0.155983328819274902343750000000 -0.077452473342418670654296875000 0.001480014179833232922794961084 0.002355886856094003157374716650 0 0 0 0 
2418500000.0000000000 0.155579671263694790939169365629 -0.078225776553153991699218750000 0.001466772402636707045911479419 0.002269647782668470902683877100 0 0 0 0 
2418666666.6666665077 0.155496686697006197830361884371 -0.078971743583679199218750000000 0.001388919306918978907941508716 0.002454429166391491889953613281 0 0 0 0 
2418833333.3333334923 0.154803499579429598709268134371 -0.079702749848365783691406250000 0.001257029711268842003465961987 0.002295586746186017990112304688 0 0 0 0 
2419000000.0000000000 0.154684126377105712890625000000 -0.080437935888767242431640625000 0.001274999813176691965815878760 0.002275017788633704185485839844 0 0 0 0 
2419166666.6666665077 0.154389843344688387771768134371 -0.081050880253314971923828125000 0.001242418424226344065425253760 0.002216804539784789085388183594 0 0 0 0 
2419333333.3333334923 0.153859868645668002029580634371 -0.081546604633331298828125000000 0.001402105204761028072954487378 0.002333287149667739868164062500 0 0 0 0 
2419500000.0000000000 0.153513759374618502517861884371 -0.082465402781963348388671875000 0.001428545336239039897918701172 0.002241841284558176994323730469 0 0 0 0 
2419666666.6666665077 0.153292968869209289550781250000 -0.083036981523036956787109375000 0.001450217212550342082977294922 0.002362178638577460808994912256 0 0 0 0 
2419833333.3333334923 0.152762115001678494552450615629 -0.083429433405399322509765625000 0.001391095924191177108167338794 0.002377097494900227026698447119 0 0 0 0 
