# Hz S RI R 
2400000000.0000000000 0.167772158980369595626669365629 0.041205812245607383037526716407 -0.001795896678231656985041952979 -0.002284143352881073951721191406 0 0 0 0 
2400166666.6666665077 0.168333739042282104492187500000 0.040388233959674842143972028907 -0.001929953694343566894531250000 -0.002292908728122711181640625000 0 0 0 0 
2400333333.3333334923 0.168822064995765713790731865629 0.039534352719783782958984375000 -0.001889991457574069933650351416 -0.002186872530728579001185751807 0 0 0 0 
2400500000.0000000000 0.169359505176544189453125000000 0.038401950150728232646901716407 -0.001918791327625513076782226562 -0.002038496313616632981541298975 0 0 0 0 
2400666666.6666665077 0.169615522027015713790731865629 0.037513241171836853027343750000 -0.001912064733915030956268310547 -0.002120822900906205177307128906 0 0 0 0 
2400833333.3333334923 0.170011490583419799804687500000 0.036824792623519897460937500000 -0.001872902619652450084686279297 -0.001907873782329261086107563550 0 0 0 0 
2401000000.0000000000 0.170279532670974703689736884371 0.035657726228237152099609375000 -0.001891867723315953991533588940 -0.002151550725102425055262900244 0 0 0 0 
2401166666.6666665077 0.170569822192192105392294365629 0.034621227532625198364257812500 -0.001924185780808330015895224463 -0.002199899870902299880981445312 0 0 0 0 
2401333333.3333334923 0.170681938529014587402343750000 0.033837284892797470092773437500 -0.002017437247559428215026855469 -0.002101305173709989027736044775 0 0 0 0 
2401500000.0000000000 0.170978486537933405120526231258 0.032971072942018508911132812500 -0.002058291342109442190883017432 -0.001930633559823035977007221753 0 0 0 0 
2401666666.6666665077 0.170774340629577608963174384371 0.032176546752452850341796875000 -0.002099718898534775213954306494 -0.002067425288259983062744140625 0 0 0 0 
2401833333.3333334923 0.171124309301376287262286268742 0.031040145084261890756627266796 -0.002252846257761120796203613281 -0.001815202762372791983960795825 0 0 0 0 
2402000000.0000000000 0.171139061450958307464276231258 0.030296469107270240783691406250 -0.002383642364293336868286132812 -0.001811596099287271933314658057 0 0 0 0 
2402166666.6666665077 0.171059712767601013183593750000 0.029259238392114639282226562500 -0.002412256086245179176330566406 -0.001778554869815706989885639722 0 0 0 0 
2402333333.3333334923 0.171225041151046808440838731258 0.028440309688448909414271170704 -0.002421024488285183906555175781 -0.001638972782529890970942831885 0 0 0 0 
2402500000.0000000000 0.171434953808784512618856865629 0.027429688721895221364954764454 -0.002532198792323470115661621094 -0.001528824097476900057551718604 0 0 0 0 
2402666666.6666665077 0.171430766582489013671875000000 0.026486564427614208566685860546 -0.002494329819455742835998535156 -0.001433129305951297066332172925 0 0 0 0 
2402833333.3333334923 0.171239018440246609786825615629 0.025371171534061428415318673046 -0.002390130423009396033046103369 -0.001390433404594660022138286060 0 0 0 0 
2403000000.0000000000 0.171170070767402704436932481258 0.024357590824365619314173514454 -0.002484408905729651884791708838 -0.001356512075290084102033305591 0 0 0 0 
2403166666.6666665077 0.171331033110618591308593750000 0.023298226296901699411412423046 -0.002351275179535150961634970557 -0.001337598660029470920562744141 0 0 0 0 
2403333333.3333334923 0.171227663755416897872763115629 0.021996688097715381277064139454 -0.002298768842592834992649697412 -0.001289893290959299044368124854 0 0 0 0 
2403500000.0000000000 0.171048179268837002853231865629 0.021018236875534061086634451954 -0.002234189072623848915100097656 -0.001133333193138241984723735278 0 0 0 0 
2403666666.6666665077 0.170878499746322604080361884371 0.019584672525525089609166329296 -0.002200963441282511191127158057 -0.001225381740368902900098491138 0 0 0 0 
2403833333.3333334923 0.170865386724472101409588731258 0.018407914787530899047851562500 -0.002265211660414934158325195312 -0.001228086999617516994476318359 0 0 0 0 
2404000000.0000000000 0.170793592929840087890625000000 0.017268113791942599904993826954 -0.002151791937649250030517578125 -0.001250770292244852022883749854 0 0 0 0 
2404166666.6666665077 0.170540317893028287032919365629 0.015829203650355339050292968750 -0.002283491659909487204310751807 -0.001224343781359493949292827075 0 0 0 0 
2404333333.3333334923 0.170580908656120300292968750000 0.014528710395097730809221836523 -0.002231799997389316992518759619 -0.001215693890117109038709330981 0 0 0 0 
2404500000.0000000000 0.170386135578155489822549384371 0.013204255141317839186698712695 -0.002358796074986457824707031250 -0.001320080598816276030299521338 0 0 0 0 
2404666666.6666665077 0.170563429594039889236611884371 0.011897730641067029780377772852 -0.002496213652193545861485146631 -0.001219136989675462029100727612 0 0 0 0 
2404833333.3333334923 0.170391619205474909026776231258 0.010406054556369779759417149023 -0.002444925950840115980861044775 -0.001273628557100892066955566406 0 0 0 0 
2405000000.0000000000 0.170436650514602688888388115629 0.008903387002646923065185546875 -0.002561405766755342917201376807 -0.001437405124306678988813090747 0 0 0 0 
2405166666.6666665077 0.170434579253196688553018134371 0.007393335457891225814819335938 -0.002627781592309474945068359375 -0.001453574048355221965192485278 0 0 0 0 
2405333333.3333334923 0.170528650283813504318075615629 0.005886591039597988128662109375 -0.002721705706790090040919638525 -0.001378618529997766017913818359 0 0 0 0 
2405500000.0000000000 0.170435175299644497970419365629 0.004458259325474500656127929688 -0.002885267836973071098327636719 -0.001337871537543833038927387769 0 0 0 0 
2405666666.6666665077 0.170446395874023409744424384371 0.002747639082372189001796103369 -0.002973798429593443870544433594 -0.001267931656911968968035053784 0 0 0 0 
2405833333.3333334923 0.170210778713226290603799384371 0.001333042280748486952540732275 -0.003134766127914189858677529443 -0.001250622211955487944959330981 0 0 0 0 
2406000000.0000000000 0.170337781310081509689169365629 -0.000510774902068078517913818359 -0.003066285979002714157104492188 -0.001047475147061049938201904297 0 0 0 0 
2406166666.6666665077 0.170168444514274597167968750000 -0.001957474043592811064479208838 -0.003332682885229587988612509619 -0.001054422114975750012638711084 0 0 0 0 
2406333333.3333334923 0.170144915580749511718750000000 -0.003433096455410122871398925781 -0.003464043606072663827183388818 -0.000997387105599045753479003906 0 0 0 0 
2406500000.0000000000 0.169849753379821805099325615629 -0.005087782628834247589111328125 -0.003538724267855287031886435400 -0.000922870065551251173019409180 0 0 0 0 
2406666666.6666665077 0.169667094945907592773437500000 -0.006484424229711294174194335938 -0.003756480524316430091857910156 -0.000730613770429044961929321289 0 0 0 0 
2406833333.3333334923 0.169627442955970791915731865629 -0.008003099821507930755615234375 -0.003863463643938302993774414062 -0.000620508333668112754821777344 0 0 0 0 
2407000000.0000000000 0.169373154640197809417401231258 -0.009570247493684291839599609375 -0.003969454672187566757202148438 -0.000265494600171223282814025879 0 0 0 0 
2407166666.6666665077 0.169361084699630709549111884371 -0.010715010575950149190882498829 -0.003928435966372489929199218750 -0.000105313592939637601375579834 0 0 0 0 
2407333333.3333334923 0.168902680277824401855468750000 -0.012178228236734870565394217579 -0.004088303074240685376639081738 0.000130697531858459087923327036 0 0 0 0 
2407500000.0000000000 0.168905466794967706878338731258 -0.013436767272651200730293474805 -0.003902154974639416174647665869 0.000217045977478846907615661621 0 0 0 0 
2407666666.6666665077 0.168675154447555486481036268742 -0.014556733891367910557756992773 -0.003985545597970485687255859375 0.000526856281794607639312744141 0 0 0 0 
2407833333.3333334923 0.168330252170562688629473768742 -0.015746949240565299987792968750 -0.003982685040682554244995117188 0.000693271402269601821899414062 0 0 0 0 
2408000000.0000000000 0.168287873268127413650674384371 -0.016801081597805019723912423046 -0.003774442477151751951930380713 0.000712587381713092327117919922 0 0 0 0 
2408166666.6666665077 0.168179512023925809005575615629 -0.017708016559481620788574218750 -0.003659311681985855102539062500 0.001106786774471401951433491284 0 0 0 0 
2408333333.3333334923 0.168258294463157709319744981258 -0.018730808049440380441685860546 -0.003628952428698540167567587744 0.001215778756886721091029501807 0 0 0 0 
2408500000.0000000000 0.168189331889152499099893134371 -0.019639793783426291728932966407 -0.003658313769847155050990439307 0.001111372723244131045100546729 0 0 0 0 
2408666666.6666665077 0.168152168393135098556356865629 -0.020544715225696560251256173046 -0.003491959068924189047572470557 0.001311487867496907927869487231 0 0 0 0 
2408833333.3333334923 0.168143659830093411544638115629 -0.021494917571544650686243826954 -0.003336412366479634804966591943 0.001455557183362544016597128760 0 0 0 0 
2409000000.0000000000 0.168276488780975286285723768742 -0.022247223183512691152552420704 -0.003352589439600706100463867188 0.001454374752938746972324990381 0 0 0 0 
2409166666.6666665077 0.168416246771812411209268134371 -0.023164631798863410949707031250 -0.003219763981178402900695800781 0.001542291836813092014910053784 0 0 0 0 
2409333333.3333334923 0.168490514159202603439169365629 -0.024143036454916000366210937500 -0.003247891087085009054896689307 0.001562198391184210994123149341 0 0 0 0 
2409500000.0000000000 0.168585374951362609863281250000 -0.025173436850309368478795235546 -0.003199701197445393042323447119 0.001696635503321886062622070312 0 0 0 0 
2409666666.6666665077 0.168724402785301208496093750000 -0.025881523266434669494628906250 -0.003128734417259693145751953125 0.001745988265611230893376015771 0 0 0 0 
2409833333.3333334923 0.168748989701271112640057481258 -0.026554428040981289255162423046 -0.003063182346522808074951171875 0.001783260842785239002825092847 0 0 0 0 
2410000000.0000000000 0.168874070048332186599893134371 -0.027680572122335430490513985546 -0.002992728026583791212794638525 0.001743281143717468001722026294 0 0 0 0 
2410166666.6666665077 0.169014185667037991622763115629 -0.028714260086417201650599295704 -0.002997055649757384820225381006 0.001934700529091059944750141675 0 0 0 0 
2410333333.3333334923 0.168876022100448608398437500000 -0.029538758099079128610631173046 -0.003030576976016163825988769531 0.001992717850953340964076376807 0 0 0 0 
2410500000.0000000000 0.168761745095252990722656250000 -0.030444581061601638793945312500 -0.002873978577554225921630859375 0.002247851807624102072474814307 0 0 0 0 
2410666666.6666665077 0.168568745255470303634481865629 -0.031425561755895621562917341407 -0.002930081449449061913731240381 0.002255294704809784889221191406 0 0 0 0 
2410833333.3333334923 0.168621107935905512054119981258 -0.032302603125572211528737653907 -0.002900811377912760214564658057 0.002475078450515865845921181787 0 0 0 0 
2411000000.0000000000 0.168498739600181607345419365629 -0.033161394298076629638671875000 -0.002882999600842595100402832031 0.002560304943472146987915039062 0 0 0 0 
2411166666.6666665077 0.168285340070724487304687500000 -0.033953446894884109497070312500 -0.002715806243941187858581542969 0.002691858448088169097900390625 0 0 0 0 
2411333333.3333334923 0.168139174580574007888955634371 -0.034743491560220718383789062500 -0.002523726318031549887416220557 0.002731257118284701867344521631 0 0 0 0 
2411500000.0000000000 0.167854964733123807052450615629 -0.036069583147764212871511091407 -0.002565359231084585189819335938 0.002881533931940793991088867188 0 0 0 0 
2411666666.6666665077 0.167793169617652893066406250000 -0.036770693957805626606027971093 -0.002393611241132020950317382812 0.002835734281688929037806845557 0 0 0 0 
2411833333.3333334923 0.167482286691665704925213731258 -0.037667177617549903179128278907 -0.002338802209123969078063964844 0.002888540038838983015773154150 0 0 0 0 
2412000000.0000000000 0.167233750224113492111044365629 -0.038683030754327767108957658593 -0.002099144505336881117579794775 0.002974833361804484887364052881 0 0 0 0 
2412166666.6666665077 0.166853040456771906097088731258 -0.039625998586416251445729841407 -0.002136766677722334861755371094 0.003058606758713721795323037256 0 0 0 0 
2412333333.3333334923 0.166854292154312106033486884371 -0.040550775825977332378347028907 -0.002034688834100962118861533057 0.003196688368916511969325400244 0 0 0 0 
2412500000.0000000000 0.166303321719169588943643134371 -0.041423782706260681152343750000 -0.001830352703109384016749716650 0.003155938582494854927062988281 0 0 0 0 
2412666666.6666665077 0.166102468967437688629473768742 -0.042512618005275733257253278907 -0.001880903728306293921229697119 0.003112814621999859809875488281 0 0 0 0 
2412833333.3333334923 0.165694981813430786132812500000 -0.043455187231302261352539062500 -0.001727007213048636913299560547 0.003270864952355622811558388818 0 0 0 0 
2413000000.0000000000 0.165254160761833190917968750000 -0.044434003531932830810546875000 -0.001478284830227494022966694409 0.003292767563834785981419228662 0 0 0 0 
2413166666.6666665077 0.164845094084739712814169365629 -0.045477148145437240600585937500 -0.001520410529337822957279824365 0.003310628468170762062072753906 0 0 0 0 
2413333333.3333334923 0.164359718561172513107138115629 -0.046563141047954559326171875000 -0.001273428439162671999690390479 0.003446058603003621101379394531 0 0 0 0 
2413500000.0000000000 0.164027228951454190353231865629 -0.047610994428396231914479841407 -0.001344927004538476900813437354 0.003439023857936263084411621094 0 0 0 0 
2413666666.6666665077 0.163595169782638605315838731258 -0.048636984080076217651367187500 -0.001121230074204504923579550635 0.003459649858996272087097167969 0 0 0 0 
2413833333.3333334923 0.163059189915656987945880018742 -0.049425978213548660278320312500 -0.001092366292141377925872802734 0.003592194989323616027832031250 0 0 0 0 
2414000000.0000000000 0.162681013345718411544638115629 -0.050731759518384926532785783593 -0.000772202503867447376251220703 0.003501202678307890892028808594 0 0 0 0 
2414166666.6666665077 0.162275597453117398361044365629 -0.051566492766141891479492187500 -0.000907198467757552862167358398 0.003433454781770706176757812500 0 0 0 0 
2414333333.3333334923 0.161948099732398986816406250000 -0.052586562931537628173828125000 -0.000721088028512895107269287109 0.003577441442757844924926757812 0 0 0 0 
2414500000.0000000000 0.161815002560615511795205634371 -0.053492784500122070312500000000 -0.000651677721180021762847900391 0.003688442055135964913609170068 0 0 0 0 
2414666666.6666665077 0.161418214440345791915731865629 -0.054476298391819000244140625000 -0.000448567589046433622210902081 0.003673443337902427153346396338 0 0 0 0 
2414833333.3333334923 0.161172524094581604003906250000 -0.055455673485994338989257812500 -0.000377959833713248426288050519 0.003493484109640121893641806494 0 0 0 0 
2415000000.0000000000 0.160929262638092013260049384371 -0.056475691497325897216796875000 -0.000214691957808099687099456787 0.003527802648022770881652832031 0 0 0 0 
2415166666.6666665077 0.160778269171714810470419365629 -0.057613506913185119628906250000 -0.000310645758872851675182896747 0.003592487657442688941955566406 0 0 0 0 
2415333333.3333334923 0.160748898983001708984375000000 -0.058817509561777121807057966407 -0.000001181088919111062053007703 0.003476301906630396842956542969 0 0 0 0 
2415500000.0000000000 0.160635873675346402267294365629 -0.059970699250698089599609375000 0.000294882484013214707374572754 0.003451390191912651062011718750 0 0 0 0 
2415666666.6666665077 0.160456195473670987228231865629 -0.060965690761804580688476562500 0.000194715496036224094316205435 0.003304633544757961793186806787 0 0 0 0 
2415833333.3333334923 0.160267502069473294357138115629 -0.062215991318225860595703125000 0.000310225295834243297576904297 0.003430712036788464026210165869 0 0 0 0 
2416000000.0000000000 0.159986689686775207519531250000 -0.063579536974430084228515625000 0.000347146822605282122462672101 0.003286703024059534072875976562 0 0 0 0 
2416166666.6666665077 0.159887075424194308181924384371 -0.064721971750259399414062500000 0.000456849898910149877697545184 0.003264382481575012207031250000 0 0 0 0 
2416333333.3333334923 0.159523293375968905349893134371 -0.065788842737674713134765625000 0.000512459373567253351211547852 0.003254414070397614999058388818 0 0 0 0 
2416500000.0000000000 0.159379675984382601638955634371 -0.066968157887458801269531250000 0.000514690415002405643463134766 0.003282699501141905784606933594 0 0 0 0 
2416666666.6666665077 0.158981353044509887695312500000 -0.068134605884552001953125000000 0.000757792266085743904113769531 0.003139920299872756004333496094 0 0 0 0 
2416833333.3333334923 0.158784106373786898513955634371 -0.069469109177589416503906250000 0.000800260459072887897491455078 0.003090575104579329924342490088 0 0 0 0 
2417000000.0000000000 0.158308550715446499923544365629 -0.070395804941654205322265625000 0.000913133320864289999008178711 0.003096256405115127997157431494 0 0 0 0 
2417166666.6666665077 0.157941013574600191970986884371 -0.071330152451992034912109375000 0.000988934072665870189666748047 0.002935865428298712210414267432 0 0 0 0 
2417333333.3333334923 0.157680317759513910491619981258 -0.072438597679138183593750000000 0.001124448375776410102844238281 0.002903460059314966201782226562 0 0 0 0 
2417500000.0000000000 0.157291471958160400390625000000 -0.073500670492649078369140625000 0.001195457414723932959912944263 0.002863787580281496047973632812 0 0 0 0 
2417666666.6666665077 0.157074511051178006271200615629 -0.074098825454711914062500000000 0.001204632804729044003727578271 0.002789421938359736962559365381 0 0 0 0 
2417833333.3333334923 0.156677022576332092285156250000 -0.075042620301246643066406250000 0.001278243027627467892290424878 0.002614844590425490899326943506 0 0 0 0 
2418000000.0000000000 0.156318530440330505371093750000 -0.075932085514068603515625000000 0.001264284946955741102334047632 0.002611751202493906021118164062 0 0 0 0 
2418166666.6666665077 0.155992805957794189453125000000 -0.076529756188392639160156250000 0.001279309042729436917545937646 0.002692011417821050123927451025 0 0 0 0 
2418333333.3333334923 0.155983641743660000900106865629 -0.077499113976955413818359375000 0.001433138735592365048052143628 0.002413404406979680061340332031 0 0 0 0 
2418500000.0000000000 0.155625119805335998535156250000 -0.078144639730453491210937500000 0.001236162614077330069300986182 0.002403759630396962165832519531 0 0 0 0 
2418666666.6666665077 0.155400142073631286621093750000 -0.078976944088935852050781250000 0.001184844411909580013872456128 0.002389005851000546975376748193 0 0 0 0 
2418833333.3333334923 0.154908448457717895507812500000 -0.079719007015228271484375000000 0.001287720748223363919499062646 0.002307640621438622908351279150 0 0 0 0 
2419000000.0000000000 0.154598742723464993575888115629 -0.080361291766166687011718750000 0.001281047589145601012586284106 0.002335613127797842025756835938 0 0 0 0 
2419166666.6666665077 0.154250994324684087555255018742 -0.081120632588863372802734375000 0.001218371442519128105760883862 0.002404141239821910858154296875 0 0 0 0 
2419333333.3333334923 0.153903067111968994140625000000 -0.081696979701519012451171875000 0.001427268260158597989323281396 0.002379069803282618956324911963 0 0 0 0 
2419500000.0000000000 0.153492718935012789627236884371 -0.082379460334777832031250000000 0.001378770102746784903882670825 0.002319663064554334120509482275 0 0 0 0 
2419666666.6666665077 0.153306365013122586349325615629 -0.082992993295192718505859375000 0.001301606534980237917659140479 0.002399449469521642164943076025 0 0 0 0 
2419833333.3333334923 0.152850911021232604980468750000 -0.083485133945941925048828125000 0.001416106591932476000544882666 0.002342456951737403869628906250 0 0 0 0 
