# Version 1.00
#
freq[Hz];re:Trc1_S11;im:Trc1_S11;re:Trc2_S21;im:Trc2_S21;
2.400000000000000E+009;1.549387425184250E-001;1.104436740279198E-001;-6.096993456594646E-004;6.883247289806604E-003;
2.400166666666667E+009;1.542170494794846E-001;1.082091033458710E-001;-3.664963878691196E-004;6.847145967185497E-003;
2.400333333333334E+009;1.541506052017212E-001;1.059067845344544E-001;-1.816260191844776E-004;6.960704457014799E-003;
2.400500000000000E+009;1.538351774215698E-001;1.033080220222473E-001;1.691216166364029E-004;7.030630484223366E-003;
2.400666666666667E+009;1.534653753042221E-001;1.010598912835121E-001;4.900720668956637E-004;7.153239101171494E-003;
2.400833333333334E+009;1.532479822635651E-001;9.799282997846603E-002;8.496793452650309E-004;7.270484697073698E-003;
2.401000000000000E+009;1.532237976789475E-001;9.525776654481888E-002;1.089013414457440E-003;7.096115499734879E-003;
2.401166666666667E+009;1.527951955795288E-001;9.267558157444000E-002;1.284472062252462E-003;7.135396823287010E-003;
2.401333333333334E+009;1.530545353889465E-001;8.950411528348923E-002;1.624171971343458E-003;7.123394869267941E-003;
2.401500000000000E+009;1.533975154161453E-001;8.669801056385040E-002;1.792340306565166E-003;7.153677288442850E-003;
2.401666666666667E+009;1.534949541091919E-001;8.350193500518799E-002;2.031124662607908E-003;7.148593664169312E-003;
2.401833333333334E+009;1.536868959665299E-001;8.073224872350693E-002;2.370030852034688E-003;7.011347915977240E-003;
2.402000000000000E+009;1.544490009546280E-001;7.777912169694901E-002;2.398130716755986E-003;7.188301999121904E-003;
2.402166666666667E+009;1.549775600433350E-001;7.502861320972443E-002;2.789489924907684E-003;7.007881999015808E-003;
2.402333333333334E+009;1.559657454490662E-001;7.194989919662476E-002;2.974578412249684E-003;6.922320462763310E-003;
2.402500000000000E+009;1.569929718971252E-001;6.945179402828217E-002;3.321951953694224E-003;6.972186733037233E-003;
2.402666666666667E+009;1.580909788608551E-001;6.681246310472488E-002;3.587815910577774E-003;6.939249113202095E-003;
2.402833333333334E+009;1.592033058404923E-001;6.403020769357681E-002;3.823519218713045E-003;7.005773019045591E-003;
2.403000000000000E+009;1.609168648719788E-001;6.135998293757439E-002;4.251171369105578E-003;6.829447112977505E-003;
2.403166666666667E+009;1.625088900327683E-001;5.898703634738922E-002;4.620279185473919E-003;6.662758532911539E-003;
2.403333333333334E+009;1.639472395181656E-001;5.665874481201172E-002;5.038205999881029E-003;6.612841039896011E-003;
2.403500000000000E+009;1.657502949237824E-001;5.423546582460403E-002;5.377807188779116E-003;6.437668111175299E-003;
2.403666666666667E+009;1.674703359603882E-001;5.208084732294083E-002;5.697649437934160E-003;6.171445827931166E-003;
2.403833333333334E+009;1.692296415567398E-001;4.994475468993187E-002;6.054621189832687E-003;5.866810213774443E-003;
2.404000000000000E+009;1.707547158002853E-001;4.802126437425613E-002;6.368796806782484E-003;5.626294761896133E-003;
2.404166666666667E+009;1.729253530502319E-001;4.641502723097801E-002;6.771887186914682E-003;5.250429734587669E-003;
2.404333333333334E+009;1.746894866228104E-001;4.453663155436516E-002;6.980387959629297E-003;4.905884619802237E-003;
2.404500000000000E+009;1.763523072004318E-001;4.312819987535477E-002;7.229085080325604E-003;4.541683476418257E-003;
2.404666666666667E+009;1.782785058021545E-001;4.196568578481674E-002;7.557227276265621E-003;4.095958080142736E-003;
2.404833333333334E+009;1.801918298006058E-001;4.067322984337807E-002;7.580675650388002E-003;3.685853444039822E-003;
2.405000000000000E+009;1.817409843206406E-001;4.000390693545342E-002;7.741403300315142E-003;3.407014766708016E-003;
2.405166666666667E+009;1.835022866725922E-001;3.920942172408104E-002;7.710704579949379E-003;2.960880054160953E-003;
2.405333333333334E+009;1.850893199443817E-001;3.880418464541435E-002;7.840587757527828E-003;2.504048636183143E-003;
2.405500000000000E+009;1.869692206382752E-001;3.821836411952972E-002;8.036976680159569E-003;2.158477902412415E-003;
2.405666666666667E+009;1.882748752832413E-001;3.790855035185814E-002;7.919757626950741E-003;1.866658800281584E-003;
2.405833333333334E+009;1.898878067731857E-001;3.768562898039818E-002;7.927029393613339E-003;1.266413601115346E-003;
2.406000000000000E+009;1.911282241344452E-001;3.765411302447319E-002;7.745285518467426E-003;1.131961122155190E-003;
2.406166666666667E+009;1.923189014196396E-001;3.744965046644211E-002;7.766671944409609E-003;7.370007224380970E-004;
2.406333333333334E+009;1.935767233371735E-001;3.767782822251320E-002;7.622350007295609E-003;3.906618512701243E-004;
2.406500000000000E+009;1.945767551660538E-001;3.784890845417976E-002;7.439589127898216E-003;-4.762139269587351E-006;
2.406666666666667E+009;1.954236477613449E-001;3.816634044051170E-002;7.265825755894184E-003;-2.680299803614616E-004;
2.406833333333334E+009;1.962846964597702E-001;3.839912265539169E-002;7.280481513589621E-003;-6.411567446775734E-004;
2.407000000000000E+009;1.968583911657333E-001;3.875809535384178E-002;7.162744179368019E-003;-7.079329225234687E-004;
2.407166666666667E+009;1.975168585777283E-001;3.890284150838852E-002;7.148665841668844E-003;-1.035775756463409E-003;
2.407333333333334E+009;1.976985335350037E-001;3.937176614999771E-002;6.884270813316107E-003;-1.238440279848874E-003;
2.407500000000000E+009;1.978158801794052E-001;3.979184105992317E-002;6.718162912875414E-003;-1.465191831812263E-003;
2.407666666666667E+009;1.980178654193878E-001;3.990400955080986E-002;6.511037237942219E-003;-1.706160954199731E-003;
2.407833333333334E+009;1.977015882730484E-001;4.021981358528137E-002;6.557793356478214E-003;-1.991923432797194E-003;
2.408000000000000E+009;1.978396177291870E-001;4.036866873502731E-002;6.410350557416678E-003;-2.124192658811808E-003;
2.408166666666667E+009;1.973972618579865E-001;4.052814841270447E-002;6.177321076393127E-003;-2.217468572780490E-003;
2.408333333333334E+009;1.970172077417374E-001;4.019776359200478E-002;5.991922691464424E-003;-2.405349630862474E-003;
2.408500000000000E+009;1.963006258010864E-001;4.030324146151543E-002;5.776934791356325E-003;-2.502515213564038E-003;
2.408666666666667E+009;1.957600116729736E-001;4.002660885453224E-002;5.462617147713900E-003;-2.800576621666551E-003;
2.408833333333334E+009;1.949341744184494E-001;3.962339833378792E-002;5.337810609489679E-003;-2.852858509868383E-003;
2.409000000000000E+009;1.940619349479675E-001;3.898059949278832E-002;5.314003676176071E-003;-3.110527293756604E-003;
2.409166666666667E+009;1.930958777666092E-001;3.854992985725403E-002;4.965113941580057E-003;-3.112246049568057E-003;
2.409333333333334E+009;1.922104805707932E-001;3.779168799519539E-002;4.723310936242342E-003;-3.096741857007146E-003;
2.409500000000000E+009;1.909171491861343E-001;3.673532232642174E-002;4.595295991748571E-003;-3.120661247521639E-003;
2.409666666666667E+009;1.899078488349915E-001;3.553536534309387E-002;4.412974230945110E-003;-3.016219707205892E-003;
2.409833333333334E+009;1.887309551239014E-001;3.442376479506493E-002;4.358201287686825E-003;-3.045303281396627E-003;
2.410000000000000E+009;1.874240636825562E-001;3.292440250515938E-002;4.101600963622332E-003;-3.115073777735233E-003;
2.410166666666667E+009;1.863669157028198E-001;3.116980940103531E-002;3.944850061088800E-003;-2.954806433990598E-003;
2.410333333333334E+009;1.850817352533341E-001;2.954378724098206E-002;3.847575513646007E-003;-2.906308043748140E-003;
2.410500000000000E+009;1.838742643594742E-001;2.769700437784195E-002;3.802028717473149E-003;-2.947803819552064E-003;
2.410666666666667E+009;1.828101426362991E-001;2.543254755437374E-002;3.841679543256760E-003;-3.028627252206206E-003;
2.410833333333334E+009;1.819506287574768E-001;2.345446124672890E-002;3.858757670968771E-003;-2.793996362015605E-003;
2.411000000000000E+009;1.810090839862824E-001;2.144257165491581E-002;3.729039104655385E-003;-3.010583342984319E-003;
2.411166666666667E+009;1.801488697528839E-001;1.897466741502285E-002;3.703717375174165E-003;-3.105637151747942E-003;
2.411333333333334E+009;1.793158352375031E-001;1.639810577034950E-002;3.654168918728828E-003;-2.930162241682410E-003;
2.411500000000000E+009;1.787004321813583E-001;1.406593993306160E-002;3.664167830720544E-003;-2.979967277497053E-003;
2.411666666666667E+009;1.784079372882843E-001;1.153567433357239E-002;3.603411605581641E-003;-3.151195356622338E-003;
2.411833333333334E+009;1.778058260679245E-001;9.222276508808136E-003;3.545297076925635E-003;-3.083897521719337E-003;
2.412000000000000E+009;1.777741014957428E-001;6.370037794113159E-003;3.564954036846757E-003;-3.033805638551712E-003;
2.412166666666667E+009;1.776792705059052E-001;3.787018591538072E-003;3.595897462219000E-003;-3.071911400184035E-003;
2.412333333333334E+009;1.777989119291306E-001;1.171158510260284E-003;3.423146205022931E-003;-3.175466321408749E-003;
2.412500000000000E+009;1.781271994113922E-001;-1.598078641109169E-003;3.449740121141076E-003;-3.090475220233202E-003;
2.412666666666667E+009;1.785780638456345E-001;-4.181897733360529E-003;3.463033121079207E-003;-3.207482630386949E-003;
2.412833333333334E+009;1.791691929101944E-001;-6.888367701321840E-003;3.481929423287511E-003;-3.124592127278447E-003;
2.413000000000000E+009;1.797170639038086E-001;-9.484085254371166E-003;3.556680399924517E-003;-3.451653989031911E-003;
2.413166666666667E+009;1.805844008922577E-001;-1.187582965940237E-002;3.634103108197451E-003;-3.498982870951295E-003;
2.413333333333334E+009;1.816662251949310E-001;-1.449779421091080E-002;3.602103330194950E-003;-3.704326925799251E-003;
2.413500000000000E+009;1.823781579732895E-001;-1.737161539494991E-002;3.582390490919352E-003;-3.733352525159717E-003;
2.413666666666667E+009;1.835752427577972E-001;-1.964309625327587E-002;3.753642784431577E-003;-3.887512721121311E-003;
2.413833333333334E+009;1.847850382328033E-001;-2.194712124764919E-002;3.754094708710909E-003;-3.989465534687042E-003;
2.414000000000000E+009;1.859995424747467E-001;-2.414755709469318E-002;3.766224253922701E-003;-4.234321881085634E-003;
2.414166666666667E+009;1.872750818729401E-001;-2.615810185670853E-002;3.795992583036423E-003;-4.625399596989155E-003;
2.414333333333334E+009;1.884644776582718E-001;-2.851507626473904E-002;3.555549075827003E-003;-4.578258842229843E-003;
2.414500000000000E+009;1.898773759603500E-001;-3.022212907671928E-002;3.598772455006838E-003;-4.980171099305153E-003;
2.414666666666667E+009;1.912883371114731E-001;-3.192587569355965E-002;3.299320582300425E-003;-5.276621319353581E-003;
2.414833333333334E+009;1.926543414592743E-001;-3.353479504585266E-002;3.309583058580756E-003;-5.536044016480446E-003;
2.415000000000000E+009;1.940072923898697E-001;-3.496531397104263E-002;3.282594727352262E-003;-5.593369249254465E-003;
2.415166666666667E+009;1.954237371683121E-001;-3.636268153786659E-002;2.915673889219761E-003;-5.839199759066105E-003;
2.415333333333334E+009;1.968278586864471E-001;-3.748094290494919E-002;2.664410741999745E-003;-6.070949137210846E-003;
2.415500000000000E+009;1.980926394462585E-001;-3.839239478111267E-002;2.653413685038686E-003;-6.165064871311188E-003;
2.415666666666667E+009;1.994856148958206E-001;-3.931168466806412E-002;2.319251187145710E-003;-6.292964797466993E-003;
2.415833333333334E+009;2.005300223827362E-001;-4.004017636179924E-002;2.085969317704439E-003;-6.651094648987055E-003;
2.416000000000000E+009;2.015435546636581E-001;-4.068357869982719E-002;1.747206668369472E-003;-6.710348185151815E-003;
2.416166666666667E+009;2.026637941598892E-001;-4.139453545212746E-002;1.585967140272260E-003;-6.872819736599922E-003;
2.416333333333334E+009;2.035754323005676E-001;-4.179712012410164E-002;1.301891519688070E-003;-7.133231498301029E-003;
2.416500000000000E+009;2.042868733406067E-001;-4.199053347110748E-002;1.074727624654770E-003;-7.067226804792881E-003;
2.416666666666667E+009;2.049654722213745E-001;-4.237148910760880E-002;4.037898906972259E-004;-7.112181745469570E-003;
2.416833333333334E+009;2.052978724241257E-001;-4.237945005297661E-002;2.674594579730183E-004;-7.222259882837534E-003;
2.417000000000000E+009;2.057322710752487E-001;-4.239577427506447E-002;1.381246761411603E-006;-7.268000859767199E-003;
2.417166666666667E+009;2.056645452976227E-001;-4.220968112349510E-002;-3.336604859214276E-004;-7.430583704262972E-003;
2.417333333333334E+009;2.056848108768463E-001;-4.194955900311470E-002;-7.084407261572778E-004;-7.232460658997297E-003;
2.417500000000000E+009;2.056783586740494E-001;-4.185824096202850E-002;-9.799106046557427E-004;-7.043553981930018E-003;
2.417666666666667E+009;2.053300589323044E-001;-4.158121719956398E-002;-1.119042979553342E-003;-7.117584813386202E-003;
2.417833333333334E+009;2.051978558301926E-001;-4.115992784500122E-002;-1.504818676039577E-003;-7.131567224860191E-003;
2.418000000000000E+009;2.047183215618134E-001;-4.073333367705345E-002;-1.674648257903755E-003;-7.033674977719784E-003;
2.418166666666667E+009;2.040495872497559E-001;-4.045146331191063E-002;-2.082198159769177E-003;-6.917327176779509E-003;
2.418333333333334E+009;2.033601403236389E-001;-4.010319709777832E-002;-2.289120340719819E-003;-6.928132846951485E-003;
2.418500000000000E+009;2.023881375789642E-001;-3.996137529611588E-002;-2.428759122267366E-003;-6.880967877805233E-003;
2.418666666666667E+009;2.015139460563660E-001;-3.959490358829498E-002;-2.644538879394531E-003;-6.707523949444294E-003;
2.418833333333334E+009;2.003308683633804E-001;-3.955464437603951E-002;-2.972287591546774E-003;-6.721402052789927E-003;
2.419000000000000E+009;1.990523189306259E-001;-3.946063667535782E-002;-3.248169552534819E-003;-6.610235664993525E-003;
2.419166666666667E+009;1.978079825639725E-001;-3.952756896615028E-002;-3.410164965316653E-003;-6.641788873821497E-003;
2.419333333333334E+009;1.963976919651032E-001;-3.997858241200447E-002;-3.742960048839450E-003;-6.411608308553696E-003;
2.419500000000000E+009;1.948741376399994E-001;-4.010638222098351E-002;-3.968402743339539E-003;-6.376027595251799E-003;
2.419666666666667E+009;1.931796818971634E-001;-4.078278690576553E-002;-4.239702597260475E-003;-6.251730024814606E-003;
2.419833333333334E+009;1.915955990552902E-001;-4.115915298461914E-002;-4.379239864647389E-003;-6.019316148012877E-003;
2.420000000000000E+009;1.897906959056854E-001;-4.200528934597969E-002;-4.662563558667898E-003;-5.960577633231878E-003;
2.420166666666667E+009;1.879369169473648E-001;-4.273710027337074E-002;-4.900877363979816E-003;-5.722867324948311E-003;
2.420333333333334E+009;1.861242651939392E-001;-4.372306913137436E-002;-5.102267488837242E-003;-5.485416855663061E-003;
2.420500000000000E+009;1.843257397413254E-001;-4.501245170831680E-002;-5.463749170303345E-003;-5.166527815163136E-003;
2.420666666666667E+009;1.825922131538391E-001;-4.597354680299759E-002;-5.622535012662411E-003;-5.079898051917553E-003;
2.420833333333334E+009;1.805427968502045E-001;-4.755236580967903E-002;-5.697953514754772E-003;-4.699151962995529E-003;
2.421000000000000E+009;1.790506839752197E-001;-4.896260052919388E-002;-5.935880355536938E-003;-4.337246995419264E-003;
2.421166666666667E+009;1.774277389049530E-001;-5.075563490390778E-002;-6.061566527932882E-003;-4.152710083872080E-003;
2.421333333333334E+009;1.754737943410873E-001;-5.212324112653732E-002;-6.224252283573151E-003;-3.947952762246132E-003;
2.421500000000000E+009;1.738860756158829E-001;-5.414912849664688E-002;-6.195660680532455E-003;-3.756646299734712E-003;
2.421666666666667E+009;1.724653244018555E-001;-5.605229362845421E-002;-6.289643235504627E-003;-3.435109974816442E-003;
2.421833333333334E+009;1.710433810949326E-001;-5.794638767838478E-002;-6.397705525159836E-003;-3.189813112840056E-003;
2.422000000000000E+009;1.696686595678330E-001;-5.988810956478119E-002;-6.357276346534491E-003;-2.834089100360870E-003;
2.422166666666667E+009;1.684972643852234E-001;-6.217762082815170E-002;-6.471517495810986E-003;-2.669243374839425E-003;
2.422333333333334E+009;1.673071831464768E-001;-6.432864069938660E-002;-6.367399822920561E-003;-2.497329842299223E-003;
2.422500000000000E+009;1.664536744356155E-001;-6.644108146429062E-002;-6.486489437520504E-003;-2.119752811267972E-003;
2.422666666666667E+009;1.655074805021286E-001;-6.854376941919327E-002;-6.511609535664320E-003;-1.906527671962977E-003;
2.422833333333334E+009;1.649633347988129E-001;-7.094334810972214E-002;-6.540497764945030E-003;-1.728710602037609E-003;
2.423000000000000E+009;1.641194224357605E-001;-7.312861829996109E-002;-6.422654725611210E-003;-1.355045242235065E-003;
2.423166666666667E+009;1.638036817312241E-001;-7.536537945270538E-002;-6.469809915870428E-003;-1.265021390281618E-003;
2.423333333333334E+009;1.635462641716003E-001;-7.759661227464676E-002;-6.415469571948052E-003;-1.044295495375991E-003;
2.423500000000000E+009;1.632337272167206E-001;-7.961127161979675E-002;-6.377047859132290E-003;-7.045404054224491E-004;
2.423666666666667E+009;1.632032394409180E-001;-8.171715587377548E-002;-6.541522219777107E-003;-5.340016796253622E-004;
2.423833333333334E+009;1.630636304616928E-001;-8.379256725311279E-002;-6.448496598750353E-003;-3.648549609351903E-004;
2.424000000000000E+009;1.631577461957932E-001;-8.582079410552979E-002;-6.385216023772955E-003;-2.622930041979998E-004;
2.424166666666667E+009;1.634743958711624E-001;-8.775890618562698E-002;-6.376092787832022E-003;-5.242289262241684E-006;
2.424333333333334E+009;1.636734157800674E-001;-8.942250907421112E-002;-6.251370999962091E-003;2.450282045174390E-004;
2.424500000000000E+009;1.641819924116135E-001;-9.133960306644440E-002;-6.177317351102829E-003;4.597406077664346E-004;
2.424666666666667E+009;1.645213663578033E-001;-9.309104830026627E-002;-6.174212321639061E-003;6.186841055750847E-004;
2.424833333333334E+009;1.651701033115387E-001;-9.454105049371719E-002;-6.097227334976196E-003;8.625511545687914E-004;
2.425000000000000E+009;1.656941175460815E-001;-9.592973440885544E-002;-5.839554127305746E-003;9.117474546656013E-004;
2.425166666666667E+009;1.661833524703980E-001;-9.728927910327911E-002;-5.966790020465851E-003;1.110279350541532E-003;
2.425333333333334E+009;1.666849851608276E-001;-9.844993799924851E-002;-5.829049739986658E-003;1.403838046826422E-003;
2.425500000000000E+009;1.674016118049622E-001;-9.957952797412872E-002;-5.792655982077122E-003;1.301050884649158E-003;
2.425666666666667E+009;1.679616570472717E-001;-1.004260778427124E-001;-5.669842939823866E-003;1.588712446391583E-003;
2.425833333333334E+009;1.684693396091461E-001;-1.015227511525154E-001;-5.494531709700823E-003;1.716016093268991E-003;
2.426000000000000E+009;1.691383272409439E-001;-1.020075380802155E-001;-5.352055653929710E-003;1.937874360010028E-003;
2.426166666666667E+009;1.696896255016327E-001;-1.026707664132118E-001;-5.434925667941570E-003;2.104365266859531E-003;
2.426333333333334E+009;1.701733618974686E-001;-1.032197549939156E-001;-5.362557247281075E-003;2.141147851943970E-003;
2.426500000000000E+009;1.707062572240830E-001;-1.035680770874023E-001;-5.241713952273130E-003;2.316211815923452E-003;
2.426666666666667E+009;1.711727827787399E-001;-1.039279252290726E-001;-5.014723166823387E-003;2.318385755643249E-003;
2.426833333333334E+009;1.717799454927445E-001;-1.042313128709793E-001;-4.879842046648264E-003;2.456418704241514E-003;
2.427000000000000E+009;1.720230132341385E-001;-1.045361310243607E-001;-4.988525528460741E-003;2.659030491486192E-003;
2.427166666666667E+009;1.721028685569763E-001;-1.044602617621422E-001;-4.916044417768717E-003;2.844305010512471E-003;
2.427333333333334E+009;1.724009662866592E-001;-1.047315448522568E-001;-4.832040984183550E-003;2.806126605719328E-003;
2.427500000000000E+009;1.722183823585510E-001;-1.048293858766556E-001;-4.654811229556799E-003;2.955983160063624E-003;
2.427666666666667E+009;1.723115295171738E-001;-1.047575399279594E-001;-4.527739714831114E-003;2.973235677927733E-003;
