# Version 1.00
#
freq[Hz];re:Trc1_S11;im:Trc1_S11;re:Trc2_S21;im:Trc2_S21;
2.400000000000000E+009;1.736063808202744E-001;4.912398383021355E-002;4.460279829800129E-003;5.099902860820293E-003;
2.400166666666667E+009;1.740871965885162E-001;4.871118813753128E-002;4.661613609641790E-003;4.929572809487581E-003;
2.400333333333334E+009;1.744376718997955E-001;4.793556779623032E-002;4.494871944189072E-003;4.603180568665266E-003;
2.400500000000000E+009;1.750606000423431E-001;4.730942845344544E-002;4.509605932980776E-003;4.462382756173611E-003;
2.400666666666667E+009;1.751875877380371E-001;4.645143821835518E-002;4.617629572749138E-003;4.412762820720673E-003;
2.400833333333334E+009;1.753812581300736E-001;4.613523930311203E-002;4.652170930057764E-003;4.037200473248959E-003;
2.401000000000000E+009;1.755575835704804E-001;4.527844116091728E-002;4.612839780747891E-003;4.098318051546812E-003;
2.401166666666667E+009;1.757252216339111E-001;4.471789300441742E-002;4.599905572831631E-003;3.978785593062639E-003;
2.401333333333334E+009;1.756484359502792E-001;4.399302974343300E-002;4.739944823086262E-003;3.680367022752762E-003;
2.401500000000000E+009;1.757374405860901E-001;4.333726689219475E-002;4.690815694630146E-003;3.588468302041292E-003;
2.401666666666667E+009;1.757673472166061E-001;4.271382093429565E-002;4.711489193141460E-003;3.668786492198706E-003;
2.401833333333334E+009;1.755204796791077E-001;4.158402606844902E-002;4.839419387280941E-003;3.532836679369211E-003;
2.402000000000000E+009;1.752828210592270E-001;4.091298207640648E-002;4.888624418526888E-003;3.355445573106408E-003;
2.402166666666667E+009;1.751829832792282E-001;3.996950015425682E-002;5.035079084336758E-003;3.083343384787440E-003;
2.402333333333334E+009;1.748131662607193E-001;3.890296071767807E-002;4.944646731019020E-003;3.076971275731921E-003;
2.402500000000000E+009;1.746501922607422E-001;3.780648484826088E-002;4.994320683181286E-003;2.961417892947793E-003;
2.402666666666667E+009;1.743037998676300E-001;3.677671030163765E-002;5.111668724566698E-003;2.693786052986980E-003;
2.402833333333334E+009;1.739217936992645E-001;3.558816760778427E-002;5.220306571573019E-003;2.555304439738393E-003;
2.403000000000000E+009;1.736923456192017E-001;3.438366204500198E-002;5.083505995571613E-003;2.401761477813125E-003;
2.403166666666667E+009;1.732249408960342E-001;3.295950219035149E-002;4.902629181742668E-003;2.224161522462964E-003;
2.403333333333334E+009;1.729305982589722E-001;3.159240260720253E-002;4.887475166469812E-003;2.094253199175000E-003;
2.403500000000000E+009;1.722159981727600E-001;3.005960583686829E-002;4.910717718303204E-003;1.876209280453622E-003;
2.403666666666667E+009;1.719358116388321E-001;2.839768305420876E-002;4.917082842439413E-003;2.011095173656941E-003;
2.403833333333334E+009;1.717213690280914E-001;2.658071368932724E-002;4.785104654729366E-003;1.924653304740787E-003;
2.404000000000000E+009;1.713501363992691E-001;2.473663538694382E-002;4.718365613371134E-003;1.816352130845189E-003;
2.404166666666667E+009;1.709894090890884E-001;2.275224030017853E-002;4.854486789554358E-003;1.841239281930029E-003;
2.404333333333334E+009;1.705982536077499E-001;2.129863575100899E-002;4.670865368098021E-003;1.805499545298517E-003;
2.404500000000000E+009;1.700636744499207E-001;1.915750093758106E-002;4.676965065300465E-003;1.724736648611724E-003;
2.404666666666667E+009;1.699506193399429E-001;1.730420254170895E-002;4.757369402796030E-003;1.602942938916385E-003;
2.404833333333334E+009;1.696992367506027E-001;1.527238264679909E-002;4.600091371685267E-003;1.702229259535670E-003;
2.405000000000000E+009;1.697470843791962E-001;1.318474952131510E-002;4.880592692643404E-003;1.669007004238665E-003;
2.405166666666667E+009;1.695318520069122E-001;1.107217185199261E-002;5.079001653939486E-003;1.560185221023858E-003;
2.405333333333334E+009;1.695367097854614E-001;8.898953907191753E-003;4.958858247846365E-003;1.635941443964839E-003;
2.405500000000000E+009;1.696363389492035E-001;7.091083563864231E-003;5.135199520736933E-003;1.559035503305495E-003;
2.405666666666667E+009;1.697758287191391E-001;5.003223195672035E-003;5.413721315562725E-003;1.417501363903284E-003;
2.405833333333334E+009;1.697748005390167E-001;3.071733517572284E-003;5.353868473321199E-003;1.431304961442947E-003;
2.406000000000000E+009;1.702301502227783E-001;7.944749668240547E-004;5.289474036544561E-003;1.399504370056093E-003;
2.406166666666667E+009;1.706258952617645E-001;-1.043130992911756E-003;5.602846853435040E-003;1.211111899465323E-003;
2.406333333333334E+009;1.710548251867294E-001;-3.086204640567303E-003;5.659257527440786E-003;1.075447886250913E-003;
2.406500000000000E+009;1.714547425508499E-001;-5.142067093402147E-003;5.914726760238409E-003;1.049850601702929E-003;
2.406666666666667E+009;1.718872487545013E-001;-7.044960744678974E-003;5.979268811643124E-003;8.833089959807694E-004;
2.406833333333334E+009;1.725897192955017E-001;-8.957643061876297E-003;6.229957565665245E-003;5.828201537951827E-004;
2.407000000000000E+009;1.732280105352402E-001;-1.076720375567675E-002;6.357489619404078E-003;3.261730307713151E-004;
2.407166666666667E+009;1.741026341915131E-001;-1.253848895430565E-002;6.325251888483763E-003;7.583811384392902E-005;
2.407333333333334E+009;1.746764183044434E-001;-1.438404433429241E-002;6.616474594920874E-003;2.013654557231348E-005;
2.407500000000000E+009;1.755499243736267E-001;-1.598653011023998E-002;6.714129820466042E-003;-4.290759989089565E-006;
2.407666666666667E+009;1.763122528791428E-001;-1.766010187566280E-002;6.923741661012173E-003;-4.059962811879814E-004;
2.407833333333334E+009;1.770629435777664E-001;-1.939643919467926E-002;6.832529790699482E-003;-8.055660291574895E-004;
2.408000000000000E+009;1.778682619333267E-001;-2.093396894633770E-002;6.787404883652926E-003;-1.110231969505549E-003;
2.408166666666667E+009;1.786410063505173E-001;-2.213512919843197E-002;6.827329751104116E-003;-1.427725190296769E-003;
2.408333333333334E+009;1.795344948768616E-001;-2.368676848709583E-002;6.924974266439676E-003;-1.825373969040811E-003;
2.408500000000000E+009;1.801401078701019E-001;-2.497880905866623E-002;6.844589486718178E-003;-2.127254847437143E-003;
2.408666666666667E+009;1.808364540338516E-001;-2.627518028020859E-002;6.754273548722267E-003;-2.433458343148232E-003;
2.408833333333334E+009;1.813157796859741E-001;-2.740457840263844E-002;6.964562460780144E-003;-2.751265652477741E-003;
2.409000000000000E+009;1.817846000194550E-001;-2.843520417809486E-002;6.510914303362370E-003;-3.127426607534289E-003;
2.409166666666667E+009;1.823147833347321E-001;-2.935949712991715E-002;6.263709627091885E-003;-3.444890491664410E-003;
2.409333333333334E+009;1.828400343656540E-001;-3.027748689055443E-002;6.294682156294584E-003;-3.659247420728207E-003;
2.409500000000000E+009;1.832505017518997E-001;-3.114186599850655E-002;6.140832789242268E-003;-3.909467253834009E-003;
2.409666666666667E+009;1.833165436983109E-001;-3.155083581805229E-002;5.913522560149431E-003;-4.113259259611368E-003;
2.409833333333334E+009;1.834882050752640E-001;-3.195513784885407E-002;5.604745354503393E-003;-4.232865758240223E-003;
2.410000000000000E+009;1.839068084955216E-001;-3.248113766312599E-002;5.489715375006199E-003;-4.535033833235502E-003;
2.410166666666667E+009;1.839143186807632E-001;-3.289076685905457E-002;5.317181348800659E-003;-4.688916727900505E-003;
2.410333333333334E+009;1.839815676212311E-001;-3.312958776950836E-002;5.070794839411974E-003;-4.903440829366446E-003;
2.410500000000000E+009;1.841098368167877E-001;-3.357497602701187E-002;4.889786243438721E-003;-5.060642026364803E-003;
2.410666666666667E+009;1.839585602283478E-001;-3.400867432355881E-002;4.895667079836130E-003;-5.241408944129944E-003;
2.410833333333334E+009;1.838231086730957E-001;-3.424349427223206E-002;4.549463279545307E-003;-5.369090475142002E-003;
2.411000000000000E+009;1.835523098707199E-001;-3.443579375743866E-002;4.328361246734858E-003;-5.405204370617867E-003;
2.411166666666667E+009;1.830666959285736E-001;-3.473202139139175E-002;4.225532524287701E-003;-5.594824440777302E-003;
2.411333333333334E+009;1.826200485229492E-001;-3.496102243661881E-002;3.866220824420452E-003;-5.714074242860079E-003;
2.411500000000000E+009;1.821206957101822E-001;-3.546754270792007E-002;3.822764381766319E-003;-5.820494610816240E-003;
2.411666666666667E+009;1.816669255495071E-001;-3.578687459230423E-002;3.470886033028364E-003;-5.906771402806044E-003;
2.411833333333334E+009;1.807977855205536E-001;-3.594620153307915E-002;3.264845581725240E-003;-6.114483345299959E-003;
2.412000000000000E+009;1.802176237106323E-001;-3.673366457223892E-002;3.033002372831106E-003;-6.027656607329845E-003;
2.412166666666667E+009;1.791169941425324E-001;-3.717892989516258E-002;2.816389547660947E-003;-6.108326371759176E-003;
2.412333333333334E+009;1.784908026456833E-001;-3.732916340231895E-002;2.605802612379193E-003;-6.162639241665602E-003;
2.412500000000000E+009;1.772918105125427E-001;-3.838089853525162E-002;2.393582370132208E-003;-6.528080906718969E-003;
2.412666666666667E+009;1.762152761220932E-001;-3.911007195711136E-002;2.203228417783976E-003;-6.425016559660435E-003;
2.412833333333334E+009;1.749462336301804E-001;-3.979154303669930E-002;1.989270327612758E-003;-6.258714478462935E-003;
2.413000000000000E+009;1.738807260990143E-001;-4.049654677510262E-002;1.750254072248936E-003;-6.526445038616657E-003;
2.413166666666667E+009;1.724664866924286E-001;-4.138685762882233E-002;1.476521370932460E-003;-6.629154551774263E-003;
2.413333333333334E+009;1.710860580205917E-001;-4.223112389445305E-002;1.337543246336281E-003;-6.630143150687218E-003;
2.413500000000000E+009;1.697072833776474E-001;-4.342304915189743E-002;1.100939931347966E-003;-6.435717921704054E-003;
2.413666666666667E+009;1.685799956321716E-001;-4.460253566503525E-002;7.873566937632859E-004;-6.844683550298214E-003;
2.413833333333334E+009;1.671624034643173E-001;-4.554765298962593E-002;5.691022961400449E-004;-6.672366522252560E-003;
2.414000000000000E+009;1.656886637210846E-001;-4.683659225702286E-002;4.497295303735882E-004;-6.685923319309950E-003;
2.414166666666667E+009;1.645716130733490E-001;-4.826340451836586E-002;8.480802353005856E-005;-6.658689584583044E-003;
2.414333333333334E+009;1.632371097803116E-001;-4.959810525178909E-002;-2.337782789254561E-004;-6.637095008045435E-003;
2.414500000000000E+009;1.622143983840942E-001;-5.109697207808495E-002;-4.776109708473086E-004;-6.498089525848627E-003;
2.414666666666667E+009;1.610155403614044E-001;-5.268124490976334E-002;-7.290116045624018E-004;-6.638263817876577E-003;
2.414833333333334E+009;1.598548442125320E-001;-5.432941392064095E-002;-9.884262690320611E-004;-6.459806114435196E-003;
2.415000000000000E+009;1.588692069053650E-001;-5.591077357530594E-002;-1.241235993802548E-003;-6.416447926312685E-003;
2.415166666666667E+009;1.578789204359055E-001;-5.780809372663498E-002;-1.672848826274276E-003;-6.167765241116285E-003;
2.415333333333334E+009;1.571364849805832E-001;-5.960937216877937E-002;-1.904395059682429E-003;-6.218580529093742E-003;
2.415500000000000E+009;1.561793088912964E-001;-6.143642961978912E-002;-2.025094814598560E-003;-6.036878563463688E-003;
2.415666666666667E+009;1.554315835237503E-001;-6.324535608291626E-002;-2.032296732068062E-003;-5.764833651483059E-003;
2.415833333333334E+009;1.549125164747238E-001;-6.522730737924576E-002;-2.458512317389250E-003;-5.351695232093334E-003;
2.416000000000000E+009;1.542355865240097E-001;-6.725517660379410E-002;-2.647533547133207E-003;-5.220052786171436E-003;
2.416166666666667E+009;1.539843529462814E-001;-6.919761747121811E-002;-2.755956491455436E-003;-5.077642388641834E-003;
2.416333333333334E+009;1.534019112586975E-001;-7.117833197116852E-002;-2.865615766495466E-003;-4.918860737234354E-003;
2.416500000000000E+009;1.530393064022064E-001;-7.324152439832687E-002;-2.917887177318335E-003;-4.533881321549416E-003;
2.416666666666667E+009;1.526843458414078E-001;-7.506433129310608E-002;-2.937647514045239E-003;-4.365545231848955E-003;
2.416833333333334E+009;1.525232791900635E-001;-7.716315239667893E-002;-3.129748627543449E-003;-4.092002753168345E-003;
2.417000000000000E+009;1.520369052886963E-001;-7.892420887947083E-002;-3.042699303478003E-003;-3.901674179360271E-003;
2.417166666666667E+009;1.520159095525742E-001;-8.079610019922257E-002;-3.005333244800568E-003;-3.741248976439238E-003;
2.417333333333334E+009;1.520802080631256E-001;-8.240646868944168E-002;-2.968195592984557E-003;-3.462856635451317E-003;
2.417500000000000E+009;1.519881933927536E-001;-8.429688960313797E-002;-2.861373359337449E-003;-3.338310634717345E-003;
2.417666666666667E+009;1.520619541406632E-001;-8.579452335834503E-002;-2.863625297322869E-003;-3.112663980573416E-003;
2.417833333333334E+009;1.522798836231232E-001;-8.721801638603210E-002;-2.829611999914050E-003;-3.241555998101831E-003;
2.418000000000000E+009;1.522391587495804E-001;-8.882060647010803E-002;-2.652119379490614E-003;-3.097028005868197E-003;
2.418166666666667E+009;1.523211598396301E-001;-9.004058688879013E-002;-2.696063602343202E-003;-3.169186180457473E-003;
2.418333333333334E+009;1.527074277400971E-001;-9.144699573516846E-002;-2.469477709382772E-003;-3.134161932393909E-003;
2.418500000000000E+009;1.529265642166138E-001;-9.247343987226486E-002;-2.504922915250063E-003;-3.172014141455293E-003;
2.418666666666667E+009;1.531154811382294E-001;-9.350710362195969E-002;-2.677284646779299E-003;-3.218478988856077E-003;
2.418833333333334E+009;1.532091945409775E-001;-9.438356012105942E-002;-2.551462035626173E-003;-3.254024777561426E-003;
2.419000000000000E+009;1.532715260982513E-001;-9.516316652297974E-002;-2.635959535837174E-003;-3.160786116495729E-003;
2.419166666666667E+009;1.536065936088562E-001;-9.572566300630570E-002;-2.841872861608863E-003;-3.307525534182787E-003;
2.419333333333334E+009;1.537078768014908E-001;-9.622920304536820E-002;-2.910448936745524E-003;-3.273794194683433E-003;
2.419500000000000E+009;1.540346145629883E-001;-9.677068889141083E-002;-3.072200110182166E-003;-3.281709970906377E-003;
2.419666666666667E+009;1.541509181261063E-001;-9.713498502969742E-002;-3.106165910139680E-003;-3.150298492982984E-003;
2.419833333333334E+009;1.542042493820190E-001;-9.721484780311585E-002;-3.263269783928990E-003;-3.275642171502113E-003;
2.420000000000000E+009;1.544067263603210E-001;-9.753293544054031E-002;-3.293711459264159E-003;-3.023600438609719E-003;
2.420166666666667E+009;1.543157249689102E-001;-9.740850329399109E-002;-3.493451047688723E-003;-3.048479324206710E-003;
2.420333333333334E+009;1.546043902635574E-001;-9.735381603240967E-002;-3.714038291946054E-003;-2.878924598917365E-003;
2.420500000000000E+009;1.544850915670395E-001;-9.696571528911591E-002;-3.857976058498025E-003;-2.948254114016891E-003;
2.420666666666667E+009;1.544005125761032E-001;-9.666431695222855E-002;-3.755853977054358E-003;-2.622368745505810E-003;
2.420833333333334E+009;1.543568223714829E-001;-9.669823944568634E-002;-3.984172362834215E-003;-2.613260876387358E-003;
2.421000000000000E+009;1.540970206260681E-001;-9.643848985433579E-002;-3.935485612601042E-003;-2.586725633591414E-003;
2.421166666666667E+009;1.540377885103226E-001;-9.610725939273834E-002;-4.073914606124163E-003;-2.511598635464907E-003;
2.421333333333334E+009;1.537229567766190E-001;-9.572508931159973E-002;-4.274074453860521E-003;-2.350908936932683E-003;
2.421500000000000E+009;1.531331092119217E-001;-9.523554146289825E-002;-4.259735345840454E-003;-2.242205198854208E-003;
2.421666666666667E+009;1.527026891708374E-001;-9.498406946659088E-002;-4.246227908879519E-003;-2.083574654534459E-003;
2.421833333333334E+009;1.520382016897202E-001;-9.476501494646072E-002;-4.366137553006411E-003;-1.986321527510881E-003;
2.422000000000000E+009;1.514074057340622E-001;-9.442763775587082E-002;-4.478522110730410E-003;-1.725828507915139E-003;
2.422166666666667E+009;1.506105810403824E-001;-9.408819675445557E-002;-4.554914776235819E-003;-1.603405689820647E-003;
2.422333333333334E+009;1.496481746435165E-001;-9.404557198286057E-002;-4.573676269501448E-003;-1.566290971823037E-003;
2.422500000000000E+009;1.486268341541290E-001;-9.368424117565155E-002;-4.615879151970148E-003;-1.494410214945674E-003;
2.422666666666667E+009;1.474553048610687E-001;-9.366989135742188E-002;-4.637465812265873E-003;-1.310084247961640E-003;
2.422833333333334E+009;1.463136076927185E-001;-9.360487759113312E-002;-4.630600102245808E-003;-1.199729391373694E-003;
2.423000000000000E+009;1.449932456016541E-001;-9.355759620666504E-002;-4.560232162475586E-003;-9.638671763241291E-004;
2.423166666666667E+009;1.437690258026123E-001;-9.348931908607483E-002;-4.653811454772949E-003;-8.384727989323437E-004;
2.423333333333334E+009;1.424861997365952E-001;-9.331529587507248E-002;-4.714352078735828E-003;-6.864484748803079E-004;
2.423500000000000E+009;1.408639997243881E-001;-9.373795241117477E-002;-4.596789833158255E-003;-5.263175698928535E-004;
2.423666666666667E+009;1.391893178224564E-001;-9.384676069021225E-002;-4.806572571396828E-003;-3.884928592015058E-004;
2.423833333333334E+009;1.379044204950333E-001;-9.409417957067490E-002;-4.738085437566042E-003;-4.032882279716432E-004;
2.424000000000000E+009;1.361738592386246E-001;-9.434336423873901E-002;-4.914224613457918E-003;-3.461887827143073E-004;
2.424166666666667E+009;1.346889734268189E-001;-9.475876390933991E-002;-4.709221422672272E-003;-1.110063749365509E-004;
2.424333333333334E+009;1.331869214773178E-001;-9.507750719785690E-002;-4.717259667813778E-003;2.021988038904965E-004;
2.424500000000000E+009;1.317680180072784E-001;-9.571952372789383E-002;-4.610904026776552E-003;1.009002880891785E-005;
2.424666666666667E+009;1.303067207336426E-001;-9.630996733903885E-002;-4.606284201145172E-003;3.842151199933142E-004;
2.424833333333334E+009;1.287579685449600E-001;-9.714003652334213E-002;-4.489155486226082E-003;3.797566459979862E-004;
2.425000000000000E+009;1.274112313985825E-001;-9.814725816249847E-002;-4.402264952659607E-003;8.421133388765156E-004;
2.425166666666667E+009;1.261033713817596E-001;-9.908674657344818E-002;-4.545310046523809E-003;7.312497473321855E-004;
2.425333333333334E+009;1.247760802507401E-001;-1.001021713018417E-001;-4.428796004503965E-003;7.874132134020329E-004;
2.425500000000000E+009;1.236793100833893E-001;-1.012196838855743E-001;-4.262381698936224E-003;9.720015805214644E-004;
2.425666666666667E+009;1.223501041531563E-001;-1.024711728096008E-001;-4.294641781598330E-003;1.173910684883595E-003;
2.425833333333334E+009;1.212506368756294E-001;-1.037790700793266E-001;-4.244217649102211E-003;1.234571915119886E-003;
2.426000000000000E+009;1.202975660562515E-001;-1.051667258143425E-001;-4.249359015375376E-003;1.124719739891589E-003;
2.426166666666667E+009;1.194747984409332E-001;-1.066680774092674E-001;-3.993976395577192E-003;1.304992474615574E-003;
2.426333333333334E+009;1.185678020119667E-001;-1.080717965960503E-001;-4.124045837670565E-003;1.491165254265070E-003;
2.426500000000000E+009;1.178700029850006E-001;-1.096067950129509E-001;-3.946239128708839E-003;1.382461749017239E-003;
2.426666666666667E+009;1.174107491970062E-001;-1.111465469002724E-001;-3.968630451709032E-003;1.538392622023821E-003;
2.426833333333334E+009;1.167361438274384E-001;-1.127782538533211E-001;-3.686647862195969E-003;1.560997101478279E-003;
2.427000000000000E+009;1.161271631717682E-001;-1.144895777106285E-001;-3.693724982440472E-003;1.831357134506106E-003;
2.427166666666667E+009;1.158029809594154E-001;-1.160051673650742E-001;-3.714835969731212E-003;1.855543581768870E-003;
2.427333333333334E+009;1.153526455163956E-001;-1.176403164863586E-001;-3.642874769866467E-003;1.891853637062013E-003;
2.427500000000000E+009;1.153161451220512E-001;-1.191667169332504E-001;-3.536269301548600E-003;1.847098930738866E-003;
2.427666666666667E+009;1.149249076843262E-001;-1.208287253975868E-001;-3.494431264698505E-003;2.002937719225884E-003;
