# Version 1.00
#
freq[Hz];re:Trc1_S11;im:Trc1_S11;re:Trc2_S21;im:Trc2_S21;
2.400000000000000E+009;1.736581176519394E-001;4.912758618593216E-002;4.569606389850378E-003;5.349988583475351E-003;
2.400166666666667E+009;1.741166859865189E-001;4.865008592605591E-002;4.596803337335587E-003;5.023901816457510E-003;
2.400333333333334E+009;1.745298504829407E-001;4.782145842909813E-002;4.633538424968720E-003;4.783559590578079E-003;
2.400500000000000E+009;1.751116216182709E-001;4.716177284717560E-002;4.681776743382216E-003;4.487702157348394E-003;
2.400666666666667E+009;1.751800179481506E-001;4.655357822775841E-002;4.791474435478449E-003;4.306176677346230E-003;
2.400833333333334E+009;1.754364073276520E-001;4.604715108871460E-002;4.710742272436619E-003;4.132972564548254E-003;
2.401000000000000E+009;1.756279319524765E-001;4.525430127978325E-002;4.696570802479982E-003;3.918619360774756E-003;
2.401166666666667E+009;1.756473928689957E-001;4.468170553445816E-002;4.798470064997673E-003;3.742882981896401E-003;
2.401333333333334E+009;1.755375862121582E-001;4.404322430491447E-002;4.765959922224283E-003;3.641694318503141E-003;
2.401500000000000E+009;1.758147329092026E-001;4.322395473718643E-002;4.766071680933237E-003;3.523226594552398E-003;
2.401666666666667E+009;1.754054278135300E-001;4.267037287354469E-002;4.733110778033733E-003;3.282870166003704E-003;
2.401833333333334E+009;1.753794401884079E-001;4.174760729074478E-002;4.977635573595762E-003;3.352726576849818E-003;
2.402000000000000E+009;1.751339733600617E-001;4.098710045218468E-002;4.707166459411383E-003;3.101204987615347E-003;
2.402166666666667E+009;1.751212030649185E-001;3.992498293519020E-002;4.752829670906067E-003;2.958299824967980E-003;
2.402333333333334E+009;1.746488660573959E-001;3.916715458035469E-002;4.861345048993826E-003;2.935854950919747E-003;
2.402500000000000E+009;1.745802015066147E-001;3.815027326345444E-002;4.929522518068552E-003;2.707330510020256E-003;
2.402666666666667E+009;1.741678118705750E-001;3.686210513114929E-002;4.902615677565336E-003;2.395380986854434E-003;
2.402833333333334E+009;1.737923026084900E-001;3.586865589022636E-002;4.868114832788706E-003;2.263566013425589E-003;
2.403000000000000E+009;1.735658049583435E-001;3.433972224593163E-002;5.002938210964203E-003;2.287759212777019E-003;
2.403166666666667E+009;1.732922941446304E-001;3.291276842355728E-002;4.862456116825342E-003;2.122624777257443E-003;
2.403333333333334E+009;1.728295832872391E-001;3.158289194107056E-002;4.835053812712431E-003;1.916620880365372E-003;
2.403500000000000E+009;1.723326444625855E-001;3.012222982943058E-002;4.681630525738001E-003;1.747558708302677E-003;
2.403666666666667E+009;1.719946712255478E-001;2.856207266449928E-002;4.814539570361376E-003;1.866018981672823E-003;
2.403833333333334E+009;1.717306375503540E-001;2.678564749658108E-002;4.545598756521940E-003;1.839363714680076E-003;
2.404000000000000E+009;1.712425649166107E-001;2.498101629316807E-002;4.717245232313871E-003;1.701923902146518E-003;
2.404166666666667E+009;1.708657890558243E-001;2.303750440478325E-002;4.610620439052582E-003;1.835681265220046E-003;
2.404333333333334E+009;1.706145703792572E-001;2.114060148596764E-002;4.600293934345245E-003;1.658270950429142E-003;
2.404500000000000E+009;1.700929403305054E-001;1.911760307848454E-002;4.678076598793268E-003;1.633751904591918E-003;
2.404666666666667E+009;1.699465215206146E-001;1.718258857727051E-002;4.720043390989304E-003;1.691216602921486E-003;
2.404833333333334E+009;1.697077006101608E-001;1.508738193660975E-002;4.579512868076563E-003;1.718989224173129E-003;
2.405000000000000E+009;1.696380227804184E-001;1.325318869203329E-002;4.896968137472868E-003;1.730764983221889E-003;
2.405166666666667E+009;1.696094423532486E-001;1.122396998107433E-002;4.985272418707609E-003;1.611367799341679E-003;
2.405333333333334E+009;1.696102470159531E-001;9.061032906174660E-003;5.022575147449970E-003;1.633114879950881E-003;
2.405500000000000E+009;1.696552485227585E-001;7.215529214590788E-003;5.188082810491324E-003;1.537229516543448E-003;
2.405666666666667E+009;1.697544753551483E-001;5.094937048852444E-003;5.354884080588818E-003;1.459388877265155E-003;
2.405833333333334E+009;1.697963625192642E-001;3.107101190835238E-003;5.298792384564877E-003;1.465860754251480E-003;
2.406000000000000E+009;1.702380329370499E-001;9.360782569274306E-004;5.519095808267593E-003;1.446059904992580E-003;
2.406166666666667E+009;1.704732924699783E-001;-9.615393355488777E-004;5.598191637545824E-003;1.310404157266021E-003;
2.406333333333334E+009;1.710030585527420E-001;-2.976372605189681E-003;5.649701692163944E-003;1.090661971829832E-003;
2.406500000000000E+009;1.715101748704910E-001;-5.016504321247339E-003;5.906759761273861E-003;8.347504772245884E-004;
2.406666666666667E+009;1.718459278345108E-001;-7.008517626672983E-003;6.105256732553244E-003;8.327015093527734E-004;
2.406833333333334E+009;1.725324094295502E-001;-8.838200010359287E-003;6.198314018547535E-003;7.264898158609867E-004;
2.407000000000000E+009;1.732891499996185E-001;-1.075990311801434E-002;6.299235392361879E-003;3.838529810309410E-004;
2.407166666666667E+009;1.740738153457642E-001;-1.255890447646380E-002;6.419549230486155E-003;4.003930662292987E-004;
2.407333333333334E+009;1.746840775012970E-001;-1.438738871365786E-002;6.559335626661778E-003;6.424113507819129E-006;
2.407500000000000E+009;1.754388362169266E-001;-1.598969288170338E-002;6.652166601270437E-003;-1.649591285968199E-004;
2.407666666666667E+009;1.762538403272629E-001;-1.755076274275780E-002;6.881452165544033E-003;-5.115418462082744E-004;
2.407833333333334E+009;1.769164353609085E-001;-1.925354078412056E-002;6.862012203782797E-003;-8.688238449394703E-004;
2.408000000000000E+009;1.777891516685486E-001;-2.094057574868202E-002;7.001969031989574E-003;-1.107295393012464E-003;
2.408166666666667E+009;1.785326749086380E-001;-2.215566299855709E-002;7.050448097288609E-003;-1.530041918158531E-003;
2.408333333333334E+009;1.793961822986603E-001;-2.357470057904720E-002;7.100095041096211E-003;-1.923652831465006E-003;
2.408500000000000E+009;1.801007986068726E-001;-2.496190555393696E-002;6.962715648114681E-003;-2.318144077435136E-003;
2.408666666666667E+009;1.806700825691223E-001;-2.613494358956814E-002;6.839990615844727E-003;-2.640563528984785E-003;
2.408833333333334E+009;1.812396943569183E-001;-2.730306982994080E-002;6.705197971314192E-003;-2.708585700020194E-003;
2.409000000000000E+009;1.816805750131607E-001;-2.828110940754414E-002;6.486533675342798E-003;-3.031470812857151E-003;
2.409166666666667E+009;1.823821067810059E-001;-2.924379520118237E-002;6.371819414198399E-003;-3.435435006394982E-003;
2.409333333333334E+009;1.827584803104401E-001;-3.021023422479630E-002;6.202294025570154E-003;-3.796258009970188E-003;
2.409500000000000E+009;1.830337345600128E-001;-3.085133247077465E-002;6.109010428190231E-003;-4.000399261713028E-003;
2.409666666666667E+009;1.834389716386795E-001;-3.156737610697746E-002;5.948755424469709E-003;-4.236926324665546E-003;
2.409833333333334E+009;1.836020201444626E-001;-3.195580467581749E-002;5.527960602194071E-003;-4.450093489140272E-003;
2.410000000000000E+009;1.839076876640320E-001;-3.250104561448097E-002;5.610233638435602E-003;-4.629724193364382E-003;
2.410166666666667E+009;1.839906424283981E-001;-3.269807621836662E-002;5.379091948270798E-003;-4.757223185151815E-003;
2.410333333333334E+009;1.839804500341415E-001;-3.315653651952744E-002;5.095793399959803E-003;-4.942664410918951E-003;
2.410500000000000E+009;1.841281652450562E-001;-3.345087915658951E-002;4.999276250600815E-003;-5.038945004343987E-003;
2.410666666666667E+009;1.838185191154480E-001;-3.390627354383469E-002;4.803809337317944E-003;-5.307629238814116E-003;
2.410833333333334E+009;1.838398873806000E-001;-3.405642881989479E-002;4.643601365387440E-003;-5.416080821305513E-003;
2.411000000000000E+009;1.833352297544479E-001;-3.426528722047806E-002;4.281435627490282E-003;-5.605153739452362E-003;
2.411166666666667E+009;1.832249015569687E-001;-3.472308814525604E-002;4.119337070733309E-003;-5.550984293222427E-003;
2.411333333333334E+009;1.827995777130127E-001;-3.491408377885819E-002;3.837254596874118E-003;-5.990018602460623E-003;
2.411500000000000E+009;1.821673363447189E-001;-3.544498980045319E-002;3.793608862906694E-003;-5.823167506605387E-003;
2.411666666666667E+009;1.817092448472977E-001;-3.575198352336884E-002;3.534688614308834E-003;-6.053968798369169E-003;
2.411833333333334E+009;1.808900386095047E-001;-3.591778129339218E-002;3.221385646611452E-003;-6.087805144488812E-003;
2.412000000000000E+009;1.802938878536224E-001;-3.650130331516266E-002;3.018090268597007E-003;-6.040580105036497E-003;
2.412166666666667E+009;1.791406422853470E-001;-3.707183897495270E-002;2.841695910319686E-003;-6.338922306895256E-003;
2.412333333333334E+009;1.784474700689316E-001;-3.749499097466469E-002;2.506909659132361E-003;-6.279137451201677E-003;
2.412500000000000E+009;1.773178726434708E-001;-3.809911012649536E-002;2.393815899267793E-003;-6.261908914893866E-003;
2.412666666666667E+009;1.761666834354401E-001;-3.903708979487419E-002;2.221725415438414E-003;-6.319822277873755E-003;
2.412833333333334E+009;1.749059557914734E-001;-3.961413726210594E-002;2.147782593965530E-003;-6.444609258323908E-003;
2.413000000000000E+009;1.735792756080627E-001;-4.040388390421867E-002;1.792197581380606E-003;-6.407117005437613E-003;
2.413166666666667E+009;1.723049283027649E-001;-4.130763188004494E-002;1.493752119131386E-003;-6.477988325059414E-003;
2.413333333333334E+009;1.710377484560013E-001;-4.222812131047249E-002;1.347298268228769E-003;-6.531638093292713E-003;
2.413500000000000E+009;1.697947084903717E-001;-4.342884197831154E-002;1.149818068370223E-003;-6.629687733948231E-003;
2.413666666666667E+009;1.684250682592392E-001;-4.444194585084915E-002;9.301961981691420E-004;-6.687855813652277E-003;
2.413833333333334E+009;1.672169417142868E-001;-4.571150988340378E-002;6.365418666973710E-004;-6.749321240931749E-003;
2.414000000000000E+009;1.656897217035294E-001;-4.700515046715736E-002;4.399002646096051E-004;-6.612116005271673E-003;
2.414166666666667E+009;1.646863371133804E-001;-4.817029088735580E-002;1.045559911290184E-004;-6.794801913201809E-003;
2.414333333333334E+009;1.632504016160965E-001;-4.979288578033447E-002;-8.197473653126508E-005;-6.710556801408529E-003;
2.414500000000000E+009;1.622226983308792E-001;-5.115413293242455E-002;-4.759696603287011E-004;-6.652202457189560E-003;
2.414666666666667E+009;1.611407697200775E-001;-5.258088186383247E-002;-6.735711358487606E-004;-6.700087338685989E-003;
2.414833333333334E+009;1.599243134260178E-001;-5.440074205398560E-002;-1.050797989591956E-003;-6.427726242691279E-003;
2.415000000000000E+009;1.589905768632889E-001;-5.600908398628235E-002;-1.245996914803982E-003;-6.452199537307024E-003;
2.415166666666667E+009;1.579099893569946E-001;-5.776694044470787E-002;-1.439050654880703E-003;-6.209891755133867E-003;
2.415333333333334E+009;1.571578979492188E-001;-5.968504399061203E-002;-1.795226591639221E-003;-6.269800011068583E-003;
2.415500000000000E+009;1.562903523445129E-001;-6.148519739508629E-002;-2.063132822513580E-003;-5.923439282923937E-003;
2.415666666666667E+009;1.555759459733963E-001;-6.327860057353973E-002;-2.131064888089895E-003;-5.833776667714119E-003;
2.415833333333334E+009;1.549845486879349E-001;-6.535056233406067E-002;-2.377781318500638E-003;-5.617577582597733E-003;
2.416000000000000E+009;1.541895866394043E-001;-6.721007823944092E-002;-2.523425268009305E-003;-5.394325125962496E-003;
2.416166666666667E+009;1.538237780332565E-001;-6.923568993806839E-002;-2.833182923495770E-003;-5.080635193735361E-003;
2.416333333333334E+009;1.533029377460480E-001;-7.113826274871826E-002;-2.840549219399691E-003;-4.925801884382963E-003;
2.416500000000000E+009;1.529163569211960E-001;-7.334440201520920E-002;-2.832565922290087E-003;-4.621220752596855E-003;
2.416666666666667E+009;1.526684165000916E-001;-7.513574510812759E-002;-2.907714806497097E-003;-4.356054589152336E-003;
2.416833333333334E+009;1.525196433067322E-001;-7.718556374311447E-002;-3.150515025481582E-003;-4.065571352839470E-003;
2.417000000000000E+009;1.520659327507019E-001;-7.901873439550400E-002;-2.876800484955311E-003;-3.935156855732203E-003;
2.417166666666667E+009;1.520227044820786E-001;-8.076097816228867E-002;-2.910103183239698E-003;-3.708393312990665E-003;
2.417333333333334E+009;1.520557850599289E-001;-8.248862624168396E-002;-2.896661171689630E-003;-3.460650565102696E-003;
2.417500000000000E+009;1.519253104925156E-001;-8.442357182502747E-002;-2.803904702886939E-003;-3.341321134939790E-003;
2.417666666666667E+009;1.521189361810684E-001;-8.585118502378464E-002;-2.718338510021567E-003;-3.388304961845279E-003;
2.417833333333334E+009;1.519983261823654E-001;-8.737824857234955E-002;-2.666344866156578E-003;-3.351866500452161E-003;
2.418000000000000E+009;1.520714163780212E-001;-8.883477747440338E-002;-2.596988575533032E-003;-3.210438415408135E-003;
2.418166666666667E+009;1.522563248872757E-001;-8.995861560106278E-002;-2.519761445000768E-003;-3.187676891684532E-003;
2.418333333333334E+009;1.526345014572144E-001;-9.137012809514999E-002;-2.518897643312812E-003;-3.287218511104584E-003;
2.418500000000000E+009;1.527682691812515E-001;-9.239912033081055E-002;-2.527466975152493E-003;-3.241836326196790E-003;
2.418666666666667E+009;1.531342864036560E-001;-9.348691254854202E-002;-2.681302372366190E-003;-3.133368445560336E-003;
2.418833333333334E+009;1.532202512025833E-001;-9.436351060867310E-002;-2.679403172805905E-003;-3.443845547735691E-003;
2.419000000000000E+009;1.532959938049316E-001;-9.506338089704514E-002;-2.651421586051583E-003;-3.403908107429743E-003;
2.419166666666667E+009;1.536486148834229E-001;-9.583058953285217E-002;-2.831112127751112E-003;-3.258465323597193E-003;
2.419333333333334E+009;1.536719799041748E-001;-9.615433216094971E-002;-2.846431452780962E-003;-3.317381720989943E-003;
2.419500000000000E+009;1.538055837154388E-001;-9.681957960128784E-002;-2.938446355983615E-003;-3.363787196576595E-003;
2.419666666666667E+009;1.542839109897614E-001;-9.722971916198731E-002;-3.123643575236201E-003;-3.382475348189473E-003;
2.419833333333334E+009;1.544183939695358E-001;-9.720755368471146E-002;-3.373995190486312E-003;-3.299319418147206E-003;
2.420000000000000E+009;1.544251888990402E-001;-9.746108949184418E-002;-3.305342048406601E-003;-3.242553211748600E-003;
2.420166666666667E+009;1.545903235673904E-001;-9.739586710929871E-002;-3.568280953913927E-003;-3.055997192859650E-003;
2.420333333333334E+009;1.545498520135880E-001;-9.746059030294418E-002;-3.631005296483636E-003;-3.081008326262236E-003;
2.420500000000000E+009;1.545987278223038E-001;-9.714690595865250E-002;-3.829377470538020E-003;-2.993169939145446E-003;
2.420666666666667E+009;1.546261012554169E-001;-9.679162502288818E-002;-3.869761247187853E-003;-2.880328334867954E-003;
2.420833333333334E+009;1.544477492570877E-001;-9.656111150979996E-002;-3.911719191819429E-003;-2.733620116487145E-003;
2.421000000000000E+009;1.542214006185532E-001;-9.639357775449753E-002;-4.074377007782459E-003;-2.659893129020929E-003;
2.421166666666667E+009;1.539065092802048E-001;-9.620910137891769E-002;-4.093868657946587E-003;-2.481867792084813E-003;
2.421333333333334E+009;1.536599695682526E-001;-9.578350186347961E-002;-4.223870113492012E-003;-2.293299883604050E-003;
2.421500000000000E+009;1.530066430568695E-001;-9.540390968322754E-002;-4.237529821693897E-003;-2.286013914272189E-003;
2.421666666666667E+009;1.526254117488861E-001;-9.501411020755768E-002;-4.298679064959288E-003;-2.156522125005722E-003;
2.421833333333334E+009;1.522453129291534E-001;-9.459628164768219E-002;-4.522420465946198E-003;-1.930297934450209E-003;
2.422000000000000E+009;1.514458507299423E-001;-9.433145821094513E-002;-4.569561220705509E-003;-1.774865319021046E-003;
2.422166666666667E+009;1.506508439779282E-001;-9.431259334087372E-002;-4.524768330156803E-003;-1.868712133727968E-003;
2.422333333333334E+009;1.497455984354019E-001;-9.402741491794586E-002;-4.742210730910301E-003;-1.565057435072959E-003;
2.422500000000000E+009;1.486623585224152E-001;-9.366235136985779E-002;-4.680873826146126E-003;-1.410850323736668E-003;
2.422666666666667E+009;1.473414152860642E-001;-9.350986033678055E-002;-4.570152144879103E-003;-1.433110912330449E-003;
2.422833333333334E+009;1.463081836700440E-001;-9.365636855363846E-002;-4.630016162991524E-003;-1.163958455435932E-003;
2.423000000000000E+009;1.449711769819260E-001;-9.344983100891113E-002;-4.590167663991451E-003;-9.323986596427858E-004;
2.423166666666667E+009;1.437444537878037E-001;-9.354733675718308E-002;-4.776582121849060E-003;-8.671398973092437E-004;
2.423333333333334E+009;1.423851400613785E-001;-9.344233572483063E-002;-4.602858331054449E-003;-6.187405670061708E-004;
2.423500000000000E+009;1.407669633626938E-001;-9.365367144346237E-002;-4.619220737367868E-003;-5.306414095684886E-004;
2.423666666666667E+009;1.392277479171753E-001;-9.392426908016205E-002;-4.558872897177935E-003;-4.522776289377362E-004;
2.423833333333334E+009;1.378443390130997E-001;-9.410364180803299E-002;-4.698390141129494E-003;-4.004679794888943E-004;
2.424000000000000E+009;1.362182199954987E-001;-9.421148151159287E-002;-4.752991255372763E-003;-1.648889447096735E-004;
2.424166666666667E+009;1.345661580562592E-001;-9.471548348665237E-002;-4.782649222761393E-003;2.687141750357114E-005;
2.424333333333334E+009;1.331711113452911E-001;-9.524963051080704E-002;-4.705915227532387E-003;1.442839220544556E-005;
2.424500000000000E+009;1.317798346281052E-001;-9.586727619171143E-002;-4.632860887795687E-003;1.183736894745380E-004;
2.424666666666667E+009;1.304496377706528E-001;-9.637146443128586E-002;-4.591507371515036E-003;2.380748774157837E-004;
2.424833333333334E+009;1.286894530057907E-001;-9.725520014762878E-002;-4.742349963635206E-003;4.729912034235895E-004;
2.425000000000000E+009;1.274806112051010E-001;-9.820779412984848E-002;-4.577427171170712E-003;5.134852253831923E-004;
2.425166666666667E+009;1.258658021688461E-001;-9.896917641162872E-002;-4.615346901118755E-003;6.455957191064954E-004;
2.425333333333334E+009;1.246667355298996E-001;-1.001395583152771E-001;-4.580767359584570E-003;8.880549576133490E-004;
2.425500000000000E+009;1.236133947968483E-001;-1.012417823076248E-001;-4.251140635460615E-003;1.026458106935024E-003;
2.425666666666667E+009;1.223375871777535E-001;-1.022995561361313E-001;-4.223359748721123E-003;9.420537971891463E-004;
2.425833333333334E+009;1.211739107966423E-001;-1.037276685237885E-001;-4.264008253812790E-003;1.056910026818514E-003;
2.426000000000000E+009;1.203111633658409E-001;-1.051732003688812E-001;-4.185054451227188E-003;1.153228688053787E-003;
2.426166666666667E+009;1.196040362119675E-001;-1.066601723432541E-001;-4.259313922375441E-003;1.268088351935148E-003;
2.426333333333334E+009;1.186348274350166E-001;-1.080038920044899E-001;-4.022912122309208E-003;1.380793750286102E-003;
2.426500000000000E+009;1.179490238428116E-001;-1.095406413078308E-001;-3.956453874707222E-003;1.395486411638558E-003;
2.426666666666667E+009;1.174362376332283E-001;-1.110841780900955E-001;-4.067782778292894E-003;1.589970546774566E-003;
2.426833333333334E+009;1.167703345417976E-001;-1.127324178814888E-001;-3.962717019021511E-003;1.633897540159524E-003;
2.427000000000000E+009;1.162358820438385E-001;-1.144992262125015E-001;-3.786524292081595E-003;1.635829685255885E-003;
2.427166666666667E+009;1.158375367522240E-001;-1.158696189522743E-001;-3.765942761674523E-003;1.753155724145472E-003;
2.427333333333334E+009;1.153805851936340E-001;-1.176139488816261E-001;-3.647923003882170E-003;1.717303530313075E-003;
2.427500000000000E+009;1.152693852782250E-001;-1.192311048507690E-001;-3.549278248101473E-003;1.884810510091484E-003;
2.427666666666667E+009;1.150453165173531E-001;-1.208670511841774E-001;-3.629213199019432E-003;2.069519599899650E-003;
