# Hz S RI R 
2400000000.0000000000 0.171367004513740511795205634371 0.040090337395668029785156250000 0.003185758367180823846104287256 -0.000359142984962090904086512433 0 0 0 0 
2400166666.6666665077 0.171780914068222101409588731258 0.039768848568201072002370466407 0.003362089628353714942932128906 -0.000687209831085056066513061523 0 0 0 0 
2400333333.3333334923 0.172318443655967712402343750000 0.038910906761884689331054687500 0.003189465496689081192016601562 -0.000830134144052863121032714844 0 0 0 0 
2400500000.0000000000 0.172818094491958590408486884371 0.038466829806566238403320312500 0.002963270992040634155273437500 -0.001004695310257375023485493237 0 0 0 0 
2400666666.6666665077 0.173072591423988286774005018742 0.037770573049783706665039062500 0.003142359666526318030116415869 -0.001167107955552638010737753760 0 0 0 0 
2400833333.3333334923 0.173479840159416198730468750000 0.037211533635854721069335937500 0.003320753807201981978175497900 -0.001279217074625194072723388672 0 0 0 0 
2401000000.0000000000 0.173625141382217407226562500000 0.036607168614864349365234375000 0.003134183119982481002807617188 -0.001300000119954348044154501807 0 0 0 0 
2401166666.6666665077 0.173653408885002108474893134371 0.035841088742017752910573591407 0.002947892993688582940342568506 -0.001395210507325828075408935547 0 0 0 0 
2401333333.3333334923 0.173599809408187893966513115629 0.035272635519504547119140625000 0.002718622330576180978062295068 -0.001518777571618556976318359375 0 0 0 0 
2401500000.0000000000 0.173541843891143798828125000000 0.034682083874940872192382812500 0.002690802561119198799133300781 -0.001740764011628926017163920825 0 0 0 0 
2401666666.6666665077 0.173455521464347811599893134371 0.034085508435964577411692033593 0.002579382853582500977757119287 -0.001720396452583373026606894385 0 0 0 0 
2401833333.3333334923 0.173258543014526394943075615629 0.033271994441747672344167341407 0.002602705266326665878295898438 -0.001820756122469902038574218750 0 0 0 0 
2402000000.0000000000 0.173005282878875704666299384371 0.032444454729557037353515625000 0.002529739867895842032191611182 -0.001810338464565574905992817456 0 0 0 0 
2402166666.6666665077 0.172859862446785000900106865629 0.031676094979047782207448591407 0.002382259583100676970240927588 -0.001582548720762134032008505713 0 0 0 0 
2402333333.3333334923 0.172604531049728393554687500000 0.030795970931649211538294608204 0.002574529033154249191284179688 -0.001848347019404172897338867188 0 0 0 0 
2402500000.0000000000 0.172469556331634493728799384371 0.030096851289272308349609375000 0.002657833276316523985621786963 -0.001877977978438138961791992188 0 0 0 0 
2402666666.6666665077 0.171961143612861605545205634371 0.028929872438311580312708670704 0.002570944372564554214477539062 -0.001933605293743311925175332178 0 0 0 0 
2402833333.3333334923 0.171743080019950894454794365629 0.028139796108007431030273437500 0.002572973724454640908482216943 -0.001962734619155526161193847656 0 0 0 0 
2403000000.0000000000 0.171581789851188687423544365629 0.026892861351370811462402343750 0.002398909069597721099853515625 -0.002040481427684425873997353662 0 0 0 0 
2403166666.6666665077 0.171042516827583312988281250000 0.025914132595062259328821951954 0.002524805953726172013523720850 -0.002180147450417280197143554688 0 0 0 0 
2403333333.3333334923 0.170843690633773803710937500000 0.024671355262398719787597656250 0.002374541945755482153651572119 -0.002362877596169710159301757812 0 0 0 0 
2403500000.0000000000 0.170388996601104708572549384371 0.023402562364935878408411795704 0.002500437432900071144104003906 -0.002481706673279405073878622900 0 0 0 0 
2403666666.6666665077 0.170016154646873501876669365629 0.022028485313057899475097656250 0.002391669433563948111293173682 -0.002659254474565387205836630713 0 0 0 0 
2403833333.3333334923 0.169601380825042696853799384371 0.020595075562596321105957031250 0.002339303726330399946925497900 -0.002698768395930529074427939307 0 0 0 0 
2404000000.0000000000 0.169399753212928799728231865629 0.019146671518683430063267891796 0.002232241909950972037074423682 -0.002902590204030274911167763818 0 0 0 0 
2404166666.6666665077 0.169133201241493197342080634371 0.017657687887549400329589843750 0.002083373954519629912135458838 -0.003067105310037732124328613281 0 0 0 0 
2404333333.3333334923 0.168869316577911404708700615629 0.016204712912440299987792968750 0.002033492084592580795288085938 -0.003058922477066516876220703125 0 0 0 0 
2404500000.0000000000 0.168410912156105013748330634371 0.014535342343151569366455078125 0.001735910540446639060974121094 -0.003124138107523322105407714844 0 0 0 0 
2404666666.6666665077 0.168320626020431490799111884371 0.012915482744574550283411795704 0.001673505525104701952693320166 -0.003524079220369458198547363281 0 0 0 0 
2404833333.3333334923 0.168095022439956692794638115629 0.011084972880780700338343436329 0.001665490213781595013262104565 -0.003343838034197688102722167969 0 0 0 0 
2405000000.0000000000 0.167974174022674588302450615629 0.009430964477360248565673828125 0.001549793872982263998744345557 -0.003414327977225184006931923975 0 0 0 0 
2405166666.6666665077 0.167907103896141107757244981258 0.007624387275427579879760742188 0.001310154912061989090563129956 -0.003504507476463913917541503906 0 0 0 0 
2405333333.3333334923 0.167956098914146395584268134371 0.005622125696390867233276367188 0.001148051465861499092699360425 -0.003582577686756848855259560693 0 0 0 0 
2405500000.0000000000 0.167956069111824007888955634371 0.003951562568545342359060956738 0.001023052376694977066637348706 -0.003583589103072882132289267432 0 0 0 0 
2405666666.6666665077 0.167900711297988891601562500000 0.002087710192427039146423339844 0.000876964943017810583114624023 -0.003576972987502812905552529443 0 0 0 0 
2405833333.3333334923 0.167801573872566195388955634371 0.000260219065239652991294860840 0.000472530518891289775997716083 -0.003633743617683649063110351562 0 0 0 0 
2406000000.0000000000 0.167831495404243496993856865629 -0.001629688777029514095903706128 0.000407592713600024580955505371 -0.003575398121029138998744345557 0 0 0 0 
2406166666.6666665077 0.167712539434433011154013115629 -0.003318004542961717085597372900 0.000233980463235639008596697397 -0.003594149369746447043177939307 0 0 0 0 
2406333333.3333334923 0.167904853820800809005575615629 -0.005383232608437538146972656250 -0.000072373637522105127573013306 -0.003490874776616692976710654150 0 0 0 0 
2406500000.0000000000 0.167944669723510686676348768742 -0.007163485977798700332641601562 -0.000049363818106940022926738126 -0.003422634443268179893493652344 0 0 0 0 
2406666666.6666665077 0.167845278978347806075888115629 -0.008852136321365833282470703125 -0.000091059671831317245960235596 -0.003279783530160785155055380713 0 0 0 0 
2406833333.3333334923 0.167989537119865389724893134371 -0.010717658326029779261578944727 -0.000370111141819506883621215820 -0.003325666300952434973475790869 0 0 0 0 
2407000000.0000000000 0.167974799871444702148437500000 -0.012358085252344610041608241602 -0.000394279224565252715915125714 -0.003227577311918139891383505713 0 0 0 0 
2407166666.6666665077 0.168155983090400695800781250000 -0.013782840222120290238350115430 -0.000397014082409441525309962140 -0.003185244975611567930934286963 0 0 0 0 
2407333333.3333334923 0.168093457818031311035156250000 -0.015361651778221130371093750000 -0.000422695797169581109851282941 -0.002952786628156899972202920068 0 0 0 0 
2407500000.0000000000 0.168165639042854309082031250000 -0.016586968675255778921107108204 -0.000530488207004964351654052734 -0.002972138114273548126220703125 0 0 0 0 
2407666666.6666665077 0.168274194002151489257812500000 -0.017790203914046291006068045704 -0.000712209439370781183242797852 -0.003026527352631092071533203125 0 0 0 0 
2407833333.3333334923 0.168264478445053100585937500000 -0.019230633974075320852259451954 -0.000529800425283610820770263672 -0.002948054345324635939357138525 0 0 0 0 
2408000000.0000000000 0.168417379260063199142294365629 -0.020296394824981689453125000000 -0.000750765728298574686050415039 -0.002709869295358657836914062500 0 0 0 0 
2408166666.6666665077 0.168537482619285611251669365629 -0.021124782040715221059778983204 -0.000580661988351494073867797852 -0.002588106552138925032374716650 0 0 0 0 
2408333333.3333334923 0.169027402997016906738281250000 -0.022041110321879390371302420704 -0.000688902975525707006454467773 -0.002632268238812685012817382812 0 0 0 0 
2408500000.0000000000 0.169062435626983587066973768742 -0.023044360801577571523646170704 -0.000673601112794131040573120117 -0.002810419071465731100795126807 0 0 0 0 
2408666666.6666665077 0.169516161084175109863281250000 -0.023915739730000499380091483204 -0.000798834022134542465209960938 -0.002815235638990997834446572412 0 0 0 0 
2408833333.3333334923 0.169680610299110412597656250000 -0.024560386314988139760950858204 -0.000869631418026983737945556641 -0.002827017102390528158900595557 0 0 0 0 
2409000000.0000000000 0.170073792338371304611044365629 -0.025407645851373669015904610546 -0.000917021010536700487136840820 -0.002800011541694403128383017432 0 0 0 0 
2409166666.6666665077 0.170445755124092102050781250000 -0.026132680475711819040318673046 -0.000838850624859333038330078125 -0.002715199254453181786778115381 0 0 0 0 
2409333333.3333334923 0.170932874083519009689169365629 -0.026821501553058620798131173046 -0.000957470561843365430831909180 -0.002951684873551129861118935693 0 0 0 0 
2409500000.0000000000 0.171163633465766906738281250000 -0.027634119614958759653111641796 -0.001202665967866777940037392725 -0.002979201963171362876892089844 0 0 0 0 
2409666666.6666665077 0.171214178204536410232705634371 -0.028255205601453781127929687500 -0.001298245508223772048950195312 -0.002861573360860348181483603369 0 0 0 0 
2409833333.3333334923 0.171480029821395901779013115629 -0.028792720288038250314732735546 -0.001259904936887324073194194263 -0.002836250700056552886962890625 0 0 0 0 
2410000000.0000000000 0.171759188175201388260049384371 -0.029538867995142940175989920704 -0.001243842067196965000749897534 -0.002624687273055315017700195312 0 0 0 0 
2410166666.6666665077 0.172043815255165100097656250000 -0.030128424987196918832799141796 -0.001368348719552159092546772534 -0.002845790237188338799717568506 0 0 0 0 
2410333333.3333334923 0.172078847885131808181924384371 -0.030850028619170188903808593750 -0.001419150154106318950653076172 -0.002576766535639762878417968750 0 0 0 0 
2410500000.0000000000 0.171972528100013705154580634371 -0.031503111124038703227956403907 -0.001367012155242264053942036206 -0.002605343936011195182800292969 0 0 0 0 
2410666666.6666665077 0.171884760260581997970419365629 -0.032488908618688583374023437500 -0.001435100915841758034349751050 -0.002600151579827069802525185693 0 0 0 0 
2410833333.3333334923 0.171754464507102994064169365629 -0.032786969095468521118164062500 -0.001533337053842843012568808447 -0.002554252743721007867100381006 0 0 0 0 
2411000000.0000000000 0.171577051281928988357705634371 -0.033458828926086432720143903907 -0.001658713794313370964647602612 -0.002808873541653155846836709131 0 0 0 0 
2411166666.6666665077 0.171355113387107904632244981258 -0.034161191433668136596679687500 -0.001840829849243164062500000000 -0.002782955532893538908717490088 0 0 0 0 
2411333333.3333334923 0.170993432402610806564169365629 -0.034556671977043151855468750000 -0.001857867464423180060145712744 -0.002798658097162843184230185400 0 0 0 0 
2411500000.0000000000 0.170489668846130398849325615629 -0.035430457442998893047292341407 -0.001922217081300914070726704175 -0.003022188553586602210998535156 0 0 0 0 
2411666666.6666665077 0.170315504074096707443075615629 -0.036119841039180762554128278907 -0.002049073344096540971043252100 -0.002962554106488823890686035156 0 0 0 0 
2411833333.3333334923 0.169962570071220397949218750000 -0.036535244435071952129323591407 -0.002228610683232545852661132812 -0.002899497980251907868626259912 0 0 0 0 
2412000000.0000000000 0.169439837336540194412393134371 -0.037498276680707931518554687500 -0.002652927534654736952540732275 -0.002869774820283054871800088037 0 0 0 0 
2412166666.6666665077 0.168934851884841891189736884371 -0.038309402763843543315847028907 -0.002751277992501854896545410156 -0.002956192241981625990626669775 0 0 0 0 
2412333333.3333334923 0.168762996792793301681356865629 -0.038883458822965621948242187500 -0.002868470968678594069239951025 -0.002727741608396172957179404150 0 0 0 0 
2412500000.0000000000 0.167927876114845303634481865629 -0.039779905229806900024414062500 -0.003266866551712154908421181787 -0.002776629989966750144958496094 0 0 0 0 
2412666666.6666665077 0.167383879423141507247763115629 -0.040908973664045326923410783593 -0.003327465848997234864475869287 -0.002492357743903994993922568213 0 0 0 0 
2412833333.3333334923 0.166778743267059298416299384371 -0.041586011648178100585937500000 -0.003574848873540759086608886719 -0.002156121423467994169947958838 0 0 0 0 
2413000000.0000000000 0.165968894958496093750000000000 -0.042471729218959808349609375000 -0.003674240782856940789463662256 -0.001952366670593618912937783350 0 0 0 0 
2413166666.6666665077 0.165268823504447909256143134371 -0.043607618659734732891042341407 -0.003951119258999825391287519238 -0.001796781667508184909820556641 0 0 0 0 
2413333333.3333334923 0.164576932787895202636718750000 -0.044514797627925872802734375000 -0.004007064737379550933837890625 -0.001543941674754023985621786963 0 0 0 0 
2413500000.0000000000 0.163846790790557889083700615629 -0.045687813311815261840820312500 -0.004047130700200796127319335938 -0.001171868061646818897844624097 0 0 0 0 
2413666666.6666665077 0.163191854953765896896200615629 -0.046745210886001586914062500000 -0.004028133116662502288818359375 -0.000878074613865464925765991211 0 0 0 0 
2413833333.3333334923 0.162436068058013888260049384371 -0.047775354236364371562917341407 -0.004182995762676000595092773438 -0.000885484623722732067108154297 0 0 0 0 
2414000000.0000000000 0.161567628383636502364950615629 -0.048703514039516448974609375000 -0.004115053452551364898681640625 -0.000537202926352620124816894531 0 0 0 0 
2414166666.6666665077 0.161162123084068298339843750000 -0.049838740378618240356445312500 -0.003915968351066113385672284863 -0.000432534463470801711082458496 0 0 0 0 
2414333333.3333334923 0.160435914993286105056924384371 -0.051089085638523101806640625000 -0.003836062271147965951206826318 0.000037476071156561381440570219 0 0 0 0 
2414500000.0000000000 0.160166248679161099532919365629 -0.052164882421493530273437500000 -0.003637399524450302124023437500 0.000201666960492730086475926532 0 0 0 0 
2414666666.6666665077 0.159523338079452486892861884371 -0.053225323557853698730468750000 -0.003527809632942080931422568213 0.000211947350180707899018964224 0 0 0 0 
2414833333.3333334923 0.159151554107665987869424384371 -0.054544977843761437152902971093 -0.003492000047117472128627158057 0.000638410565443336963653564453 0 0 0 0 
2415000000.0000000000 0.158676654100418090820312500000 -0.055676709860563278198242187500 -0.003381062531843781904933310400 0.000490435282699763774871826172 0 0 0 0 
2415166666.6666665077 0.158579543232917813400106865629 -0.057056240737438201904296875000 -0.003404143732041120962855673682 0.000602814136072993278503417969 0 0 0 0 
2415333333.3333334923 0.158337339758873013595419365629 -0.058429948985576629638671875000 -0.003161730710417031808140420068 0.000658493139781057834625244141 0 0 0 0 
2415500000.0000000000 0.158152371644973810393963731258 -0.059789728373289108276367187500 -0.002937428886070847944972372900 0.000829051772598177194595336914 0 0 0 0 
2415666666.6666665077 0.157827123999595586578692518742 -0.061154842376708977436106096093 -0.002875109203159809112548828125 0.000948319444432854652404785156 0 0 0 0 
2415833333.3333334923 0.157671913504600497146768134371 -0.062472205609083182598073591407 -0.002778409747406839890720986475 0.000992328394204378128051757812 0 0 0 0 
2416000000.0000000000 0.157330155372619601150674384371 -0.064078673720359802246093750000 -0.002764548873528838157653808594 0.000931612506974488496780395508 0 0 0 0 
2416166666.6666665077 0.157443225383758489410723768742 -0.065466217696666717529296875000 -0.002531815320253372192382812500 0.000901961990166455507278442383 0 0 0 0 
2416333333.3333334923 0.157323032617568997482138115629 -0.066979810595512390136718750000 -0.002566769486293197111842490088 0.001111300662159919955609965747 0 0 0 0 
2416500000.0000000000 0.156966552138328607757244981258 -0.068367235362529754638671875000 -0.002523254137486218972447060693 0.001076302491128445105311728369 0 0 0 0 
2416666666.6666665077 0.156848117709159906585369981258 -0.069846950471401214599609375000 -0.002192467218264936967137002100 0.001147983130067586898803710938 0 0 0 0 
2416833333.3333334923 0.156818136572837801834268134371 -0.071280807256698608398437500000 -0.002287653507664800123927451025 0.001182414707727730057360004956 0 0 0 0 
2417000000.0000000000 0.156342193484306307693643134371 -0.072593189775943756103515625000 -0.002079387428238987922668457031 0.001116395695134996934178017725 0 0 0 0 
2417166666.6666665077 0.156219393014907809158486884371 -0.073774874210357666015625000000 -0.002107381587848066849949502100 0.001201755832880734963657998193 0 0 0 0 
2417333333.3333334923 0.156146541237831087967080634371 -0.074988856911659240722656250000 -0.002023393986746668815612792969 0.001078754081390798091888427734 0 0 0 0 
2417500000.0000000000 0.155957251787185696700888115629 -0.076235212385654449462890625000 -0.002114651491865516142604208838 0.001033312757499516010284423828 0 0 0 0 
2417666666.6666665077 0.155975043773651095291299384371 -0.077128544449806213378906250000 -0.001894610351882874965667724609 0.001187112531624733968022011865 0 0 0 0 
2417833333.3333334923 0.155870363116264287750567518742 -0.078117452561855316162109375000 -0.001818186719901859977124858325 0.001078875618986784978153847803 0 0 0 0 
2418000000.0000000000 0.155628815293312100509481865629 -0.079175725579261779785156250000 -0.001939018722623587088343954932 0.001093694940209388949750590747 0 0 0 0 
2418166666.6666665077 0.155600070953369112869424384371 -0.079860717058181762695312500000 -0.001754123950377107100245810400 0.001062283874489367008209228516 0 0 0 0 
2418333333.3333334923 0.155710637569427490234375000000 -0.080795742571353912353515625000 -0.001974290236830710931065224756 0.000892622454557567834854125977 0 0 0 0 
2418500000.0000000000 0.155584931373596191406250000000 -0.081591516733169555664062500000 -0.001802956452593206925633095850 0.001140197855420411066768027197 0 0 0 0 
2418666666.6666665077 0.155593737959861810882244981258 -0.082364894449710845947265625000 -0.001743667409755289988276816260 0.001034325221553445079206157153 0 0 0 0 
2418833333.3333334923 0.155380949378013610839843750000 -0.083169743418693542480468750000 -0.001799513585865498022792197119 0.001103327027522027926204062354 0 0 0 0 
2419000000.0000000000 0.155324593186378506759481865629 -0.083669058978557586669921875000 -0.001779517391696572086931538159 0.000960537814535200595855712891 0 0 0 0 
2419166666.6666665077 0.155258730053901700118856865629 -0.084386900067329406738281250000 -0.001632899511605500958086323315 0.000997873488813638687133789062 0 0 0 0 
2419333333.3333334923 0.155072942376136807540731865629 -0.084638744592666625976562500000 -0.001628434401936829090118408203 0.001145005342550575950025248950 0 0 0 0 
2419500000.0000000000 0.154972642660140991210937500000 -0.085441708564758300781250000000 -0.001540333149023354053497314453 0.001100394874811172919032431494 0 0 0 0 
2419666666.6666665077 0.154740631580352810958700615629 -0.085724338889122009277343750000 -0.001568295410834253051160502856 0.001056634937413037040113139575 0 0 0 0 
2419833333.3333334923 0.154480129480361910720986884371 -0.086043372750282287597656250000 -0.001612130086869000954868935693 0.000963642378337681293487548828 0 0 0 0 
