# Hz S RI R 50
2400000000.0000000000 0.173464417457580594161825615629 0.049357824027538299560546875000 0.001584294834174216010450053638 0.003852303139865397973301552881 0 0 0 0 
2400166666.6666665077 0.174072384834289606292401231258 0.048813696950674057006835937500 0.001741959480568767027613974463 0.003643655218183993859532021631 0 0 0 0 
2400333333.3333334923 0.174334779381751986404580634371 0.048024442046880722045898437500 0.001652228063903748989105224609 0.003342383308336139158961630713 0 0 0 0 
2400500000.0000000000 0.174831882119178799728231865629 0.047343332320451743389089216407 0.001540791476145386912702250903 0.003154208417981863021850585938 0 0 0 0 
2400666666.6666665077 0.175058349967002896407919365629 0.046715535223484039306640625000 0.001438506646081805012346577222 0.003119278699159622192382812500 0 0 0 0 
2400833333.3333334923 0.175157845020294189453125000000 0.046366941183805472637136091407 0.001262793899513781070709228516 0.002893347525969148115870810400 0 0 0 0 
2401000000.0000000000 0.175475671887397793868856865629 0.045478563755750663066823591407 0.001310766558162868022918701172 0.003049132181331514878513955225 0 0 0 0 
2401166666.6666665077 0.175519675016403198242187500000 0.044770743697881698608398437500 0.001197677571326494000078510815 0.002835955936461687088012695312 0 0 0 0 
2401333333.3333334923 0.175454661250114413162393134371 0.044100314378738403320312500000 0.000994328409433364868164062500 0.002756261499598621888401650537 0 0 0 0 
2401500000.0000000000 0.175559028983116205413494981258 0.043502219021320343017578125000 0.001116813509725034020067524487 0.002849156735464930968043661963 0 0 0 0 
2401666666.6666665077 0.175557389855384798904580634371 0.042769353836774832988698591407 0.000918488542083650827407836914 0.002843317808583378791809082031 0 0 0 0 
2401833333.3333334923 0.175442516803741510589276231258 0.041932418942451477050781250000 0.000794925319496542215347290039 0.002803754992783070044276572119 0 0 0 0 
2402000000.0000000000 0.174975827336311312576455634371 0.041235640645027160644531250000 0.000720150826964527368545532227 0.002954670228064060211181640625 0 0 0 0 
2402166666.6666665077 0.174933031201362609863281250000 0.040226999670267112041432966407 0.000778454530518501996994018555 0.003096064319834113121032714844 0 0 0 0 
2402333333.3333334923 0.174695700407028198242187500000 0.039358668029308319091796875000 0.000684764236211776733398437500 0.003031146246939897970912314307 0 0 0 0 
2402500000.0000000000 0.174854859709739712814169365629 0.038282081484794616699218750000 0.000618977297563105821609497070 0.003299576463177800178527832031 0 0 0 0 
2402666666.6666665077 0.174353539943695096114950615629 0.037253707647323608398437500000 0.000614550663158297538757324219 0.003219214268028736114501953125 0 0 0 0 
2402833333.3333334923 0.173951238393783597091513115629 0.035921771079301827167551408593 0.000841733533889055252075195312 0.003531943541020154953002929688 0 0 0 0 
2403000000.0000000000 0.173622474074363708496093750000 0.034775868058204650878906250000 0.000741014082450419664382934570 0.003631084458902477784397744287 0 0 0 0 
2403166666.6666665077 0.173349618911743191818075615629 0.033412531018257141113281250000 0.000674970622640103101730346680 0.003778690006583929061889648438 0 0 0 0 
2403333333.3333334923 0.172962099313735989669638115629 0.031834010034799582744557966407 0.000802929454948753118515014648 0.003776601050049066977259970557 0 0 0 0 
2403500000.0000000000 0.172563731670379610916299384371 0.030185600742697719228724295704 0.000832972989883273839950561523 0.003907143138349056243896484375 0 0 0 0 
2403666666.6666665077 0.172168686985969487945880018742 0.028642181307077411306361014454 0.001033454434946178956272744287 0.004087829031050205230712890625 0 0 0 0 
2403833333.3333334923 0.171929746866226196289062500000 0.026907099410891529428502266796 0.001154155237600206895115517725 0.004185553174465894699096679688 0 0 0 0 
2404000000.0000000000 0.171420544385910006424111884371 0.025268360972404479980468750000 0.001075591426342725970624614185 0.004337419755756855010986328125 0 0 0 0 
2404166666.6666665077 0.171266645193100003341513115629 0.023030919954180720937708670704 0.001332550775259732983232807690 0.004400193225592374801635742188 0 0 0 0 
2404333333.3333334923 0.170802965760230990310830634371 0.021344378590583801269531250000 0.001382718095555901961085654150 0.004493081476539373397827148438 0 0 0 0 
2404500000.0000000000 0.170386731624603299239950615629 0.019174009561538699758509451954 0.001702404813840985081316303784 0.004764909856021404266357421875 0 0 0 0 
2404666666.6666665077 0.170311480760574313064736884371 0.017286460846662521362304687500 0.002055594930425285859348916162 0.004832680802792310714721679688 0 0 0 0 
2404833333.3333334923 0.170109927654266412933026231258 0.015418121591210370499580584180 0.002163061872124671936035156250 0.004782412666827440261840820312 0 0 0 0 
2405000000.0000000000 0.169860765337944003006143134371 0.013173138722777370107630545704 0.002527812030166387991664267432 0.004805489443242549896240234375 0 0 0 0 
2405166666.6666665077 0.169777467846870394607705634371 0.011300404556095600128173828125 0.002795194275677204132080078125 0.004991368856281042098999023438 0 0 0 0 
2405333333.3333334923 0.169901758432388305664062500000 0.009142676368355751037597656250 0.002924172673374414010288857568 0.004889038391411305341238691113 0 0 0 0 
2405500000.0000000000 0.169792562723159790039062500000 0.007051162887364625930786132812 0.003306512488052248954772949219 0.004951141308993101119995117188 0 0 0 0 
2405666666.6666665077 0.170021623373031588455361884371 0.005026881117373704910278320312 0.003597610630095005035400390625 0.004747483879327774047851562500 0 0 0 0 
2405833333.3333334923 0.170223355293273898025674384371 0.002990736626088618798496865381 0.003946996759623289108276367188 0.004806915298104286193847656250 0 0 0 0 
2406000000.0000000000 0.170453310012817410568075615629 0.000630752474535256624221801758 0.004099921323359012603759765625 0.004806880373507738113403320312 0 0 0 0 
2406166666.6666665077 0.170791119337081909179687500000 -0.001190730370581150054931640625 0.004514965694397687911987304688 0.004624301102012395858764648438 0 0 0 0 
2406333333.3333334923 0.171265363693237304687500000000 -0.003104979638010263009312295068 0.004805875942111015319824218750 0.004470755811780691146850585938 0 0 0 0 
2406500000.0000000000 0.171709775924682589431924384371 -0.005172317847609519958496093750 0.005099915899336338043212890625 0.004329744726419448852539062500 0 0 0 0 
2406666666.6666665077 0.171978250145912198165731865629 -0.007048899773508310317993164062 0.005312952678650617599487304688 0.004078278783708810806274414062 0 0 0 0 
2406833333.3333334923 0.172883942723274203201455634371 -0.009073637425899505615234375000 0.005637940485030412673950195312 0.003869259962812066078186035156 0 0 0 0 
2407000000.0000000000 0.173464313149452209472656250000 -0.010930375196039680135706717579 0.005899355746805667877197265625 0.003621511161327362060546875000 0 0 0 0 
2407166666.6666665077 0.174306318163871792892294365629 -0.012682343833148479461669921875 0.006048521026968955993652343750 0.003376419423148036003112792969 0 0 0 0 
2407333333.3333334923 0.174973368644714410979901231258 -0.014624522998929020273228829296 0.006174851674586535367483808301 0.002970187924802302880528115381 0 0 0 0 
2407500000.0000000000 0.175637930631637600997763115629 -0.016278317198157310485839843750 0.006545493379235267639160156250 0.002601567190140486197230673682 0 0 0 0 
2407666666.6666665077 0.176434397697448702713174384371 -0.017868984490633010864257812500 0.006509816274046897888183593750 0.002420368604362010955810546875 0 0 0 0 
2407833333.3333334923 0.177108794450759887695312500000 -0.019607461988925930368443673046 0.006873356644064188003540039062 0.002049677073955535888671875000 0 0 0 0 
2408000000.0000000000 0.177941575646400507171307481258 -0.021250676363706588745117187500 0.006939357146620750427246093750 0.001727347145788371996638632666 0 0 0 0 
2408166666.6666665077 0.178636565804481506347656250000 -0.022503085434436801565150076954 0.007118068169802427291870117188 0.001241315854713320948957133716 0 0 0 0 
2408333333.3333334923 0.179523855447769192794638115629 -0.023832442238926890981653983204 0.007124552503228188428396894238 0.000895949255209416151046752930 0 0 0 0 
2408500000.0000000000 0.180257767438888605315838731258 -0.025267055258154869079589843750 0.007071598898619413375854492188 0.000667268352117389440536499023 0 0 0 0 
2408666666.6666665077 0.180787503719329806228799384371 -0.026598133146762851369837576954 0.006960820406675338745117187500 0.000212409155210480093955993652 0 0 0 0 
2408833333.3333334923 0.181304842233657809158486884371 -0.027493422850966450082799141796 0.006992744747549295425415039062 -0.000089856126578524708747863770 0 0 0 0 
2409000000.0000000000 0.181705608963966397384481865629 -0.028530979529023170471191406250 0.006825243588536977767944335938 -0.000548412732314318418502807617 0 0 0 0 
2409166666.6666665077 0.182415500283241299728231865629 -0.029457153752446181560475935157 0.006795177236199378967285156250 -0.000804358453024178743362426758 0 0 0 0 
2409333333.3333334923 0.182783603668212890625000000000 -0.030340032652020450937291329296 0.006755833979696035385131835938 -0.001088513527065515951869345557 0 0 0 0 
2409500000.0000000000 0.183128774166107205489950615629 -0.031155671924352649343470389454 0.006363898050040006637573242188 -0.001386750605888664939283061450 0 0 0 0 
2409666666.6666665077 0.183365225791931207854901231258 -0.031599778681993477558176408593 0.006258958019316195574288652637 -0.001611596555449068979976035010 0 0 0 0 
2409833333.3333334923 0.183573007583618191818075615629 -0.032194599509239196777343750000 0.006064092274755240354056073926 -0.001842321245931088924407958984 0 0 0 0 
2410000000.0000000000 0.183776423335075406173544365629 -0.032584592700004577636718750000 0.005905097816139459609985351562 -0.001979217864573001861572265625 0 0 0 0 
2410166666.6666665077 0.183969482779502896407919365629 -0.032944314181804656982421875000 0.005696753505617380142211914062 -0.002168667269870638847351074219 0 0 0 0 
2410333333.3333334923 0.183986648917198208907919365629 -0.033295232802629470825195312500 0.005612616427242755889892578125 -0.002258070278912783102748251807 0 0 0 0 
2410500000.0000000000 0.183904275298118591308593750000 -0.033563029021024697040598283593 0.005464680492877960205078125000 -0.002208687365055083794834756006 0 0 0 0 
2410666666.6666665077 0.183883920311927795410156250000 -0.034116666764020919799804687500 0.005263222381472587585449218750 -0.002292317803949118094203329932 0 0 0 0 
2410833333.3333334923 0.183787271380424499511718750000 -0.034022100269794457172434221093 0.005207345355302095413208007812 -0.002502272604033350944519042969 0 0 0 0 
2411000000.0000000000 0.183458983898162786285723768742 -0.034383647143840789794921875000 0.005134163424372673034667968750 -0.002647553104907273812534951318 0 0 0 0 
2411166666.6666665077 0.183107480406761197189169365629 -0.034989945590496063232421875000 0.005017113871872425079345703125 -0.002744148485362530188319540869 0 0 0 0 
2411333333.3333334923 0.182580053806304903885049384371 -0.035099528729915618896484375000 0.004746769554913043975830078125 -0.002921534236520528793334960938 0 0 0 0 
2411500000.0000000000 0.182031035423278808593750000000 -0.035557642579078667377512346093 0.004593730438500642776489257812 -0.002879120875149964852574013818 0 0 0 0 
2411666666.6666665077 0.181640446186065701583700615629 -0.035906828939914703369140625000 0.004618724808096885681152343750 -0.002914444310590624809265136719 0 0 0 0 
2411833333.3333334923 0.180746197700500488281250000000 -0.036231342703104019165039062500 0.004535862710326910018920898438 -0.003050796920433640913722372900 0 0 0 0 
2412000000.0000000000 0.180257380008697509765625000000 -0.036683909595012671733815778907 0.004407557658851146697998046875 -0.003116542473435401916503906250 0 0 0 0 
2412166666.6666665077 0.179119691252708407303018134371 -0.037233594805002212524414062500 0.004164670594036579132080078125 -0.003148916643112897872924804688 0 0 0 0 
2412333333.3333334923 0.178205594420432988922442518742 -0.037728935480117797851562500000 0.004167388193309307098388671875 -0.003197027370333672003505087744 0 0 0 0 
2412500000.0000000000 0.177014231681823702713174384371 -0.038231365382671363140065778907 0.004140955395996570587158203125 -0.003234891686588526205775595557 0 0 0 0 
2412666666.6666665077 0.176017612218856811523437500000 -0.039013095200061798095703125000 0.004095428157597780227661132812 -0.003256814554333686828613281250 0 0 0 0 
2412833333.3333334923 0.174822539091110201736611884371 -0.039811559021472930908203125000 0.004110619891434907913208007812 -0.003392828395590186119079589844 0 0 0 0 
2413000000.0000000000 0.173412084579467801193075615629 -0.040548525750637047504465471093 0.004084428306668996810913085938 -0.003434136277064681053161621094 0 0 0 0 
2413166666.6666665077 0.172182664275169400314169365629 -0.041486088186502456665039062500 0.003943594638258218765258789062 -0.003475535660982131958007812500 0 0 0 0 
2413333333.3333334923 0.170815467834472711761151231258 -0.042403183877468109130859375000 0.003981882240623235702514648438 -0.003465247107669711112976074219 0 0 0 0 
2413500000.0000000000 0.169550538063049288650674384371 -0.043351538479328162456472028907 0.003757473779842257933375693213 -0.003655703505501151084899902344 0 0 0 0 
2413666666.6666665077 0.168426752090454101562500000000 -0.044469833374023437500000000000 0.003837121883407235145568847656 -0.003749875118955969810485839844 0 0 0 0 
2413833333.3333334923 0.166944116353988702972088731258 -0.045701581984758377075195312500 0.003828038927167654037475585938 -0.003884375561028718948364257812 0 0 0 0 
2414000000.0000000000 0.165336146950721712967080634371 -0.047008905559778206562082658593 0.003845446044579147858860634912 -0.004089322406798601150512695312 0 0 0 0 
2414166666.6666665077 0.164377242326736505706463731258 -0.048092164099216461181640625000 0.003888164414092897935154580225 -0.004096667282283306121826171875 0 0 0 0 
2414333333.3333334923 0.163076668977737399002236884371 -0.049644421786069869995117187500 0.003901776857674121856689453125 -0.004153365269303321838378906250 0 0 0 0 
2414500000.0000000000 0.162013560533523587325888115629 -0.050986859947443008422851562500 0.003934993874281644821166992188 -0.004516268149018287658691406250 0 0 0 0 
2414666666.6666665077 0.160744920372963007171307481258 -0.052553303539752960205078125000 0.003549641929566860198974609375 -0.004493727348744869232177734375 0 0 0 0 
2414833333.3333334923 0.159692481160163907150106865629 -0.054326076060533516620676408593 0.003595794318243861198425292969 -0.004808459430932998657226562500 0 0 0 0 
2415000000.0000000000 0.158741146326065091232138115629 -0.056000072509050369262695312500 0.003527483902871609167811728369 -0.004855690523982048034667968750 0 0 0 0 
2415166666.6666665077 0.157787665724754305740518134371 -0.057635717093944549560546875000 0.003508413676172494888305664062 -0.005200166255235671997070312500 0 0 0 0 
2415333333.3333334923 0.157019555568695096114950615629 -0.059562016278505332256276716407 0.003304987680166960196254111182 -0.005194696132093667984008789062 0 0 0 0 
2415500000.0000000000 0.156030386686325100997763115629 -0.061406474560499191284179687500 0.002942848484963179068324423682 -0.005545836407691240310668945312 0 0 0 0 
2415666666.6666665077 0.155409082770347595214843750000 -0.063213959336280822753906250000 0.002791190287098288969752646338 -0.005656110122799873352050781250 0 0 0 0 
2415833333.3333334923 0.154838323593139703948651231258 -0.065203897655010223388671875000 0.002739235293120145797729492188 -0.005807073786854743957519531250 0 0 0 0 
2416000000.0000000000 0.153985053300857488434161268742 -0.067122638225555419921875000000 0.002376733813434838814976357568 -0.005861004348844289779663085938 0 0 0 0 
2416166666.6666665077 0.153819710016250610351562500000 -0.069153189659118652343750000000 0.002252786653116344971897744287 -0.005935637746006250381469726562 0 0 0 0 
2416333333.3333334923 0.153293013572692898849325615629 -0.071044065058231353759765625000 0.001992667093873023986816406250 -0.005980001762509346008300781250 0 0 0 0 
2416500000.0000000000 0.152844786643981905838174384371 -0.073076762259006500244140625000 0.001810889691114426092860556494 -0.006218309979885816574096679688 0 0 0 0 
2416666666.6666665077 0.152516126632690401931924384371 -0.075044013559818267822265625000 0.001543962629511951966526650537 -0.006272019818425179395193769238 0 0 0 0 
2416833333.3333334923 0.152374282479286193847656250000 -0.077057681977748870849609375000 0.001506617292761803107020712744 -0.006431173067539930343627929688 0 0 0 0 
2417000000.0000000000 0.152067795395851107498330634371 -0.078831866383552551269531250000 0.001201865146867931105970073169 -0.006329336203634738922119140625 0 0 0 0 
2417166666.6666665077 0.151938244700431795974893134371 -0.080583766102790832519531250000 0.001022120937705039978027343750 -0.006473054643720388412475585938 0 0 0 0 
2417333333.3333334923 0.152078852057456997970419365629 -0.082357712090015411376953125000 0.000705163809470832347869873047 -0.006487638223916292190551757812 0 0 0 0 
2417500000.0000000000 0.152024433016777010818643134371 -0.084182292222976684570312500000 0.000419157702708616906970423566 -0.006531213875859975814819335938 0 0 0 0 
2417666666.6666665077 0.152181774377822903732138115629 -0.085614137351512908935546875000 0.000299102772260084802478236066 -0.006573448888957501325125409863 0 0 0 0 
2417833333.3333334923 0.152165323495864895919638115629 -0.087175354361534118652343750000 0.000128783838590607101291102277 -0.006426389329135417938232421875 0 0 0 0 
2418000000.0000000000 0.152241826057434109786825615629 -0.088747702538967132568359375000 -0.000128831627080217003822326660 -0.006735176313668490323538495801 0 0 0 0 
2418166666.6666665077 0.152274265885353088378906250000 -0.089947529137134552001953125000 -0.000293687015073373913764953613 -0.006695308722555637359619140625 0 0 0 0 
2418333333.3333334923 0.152752682566642788986044365629 -0.091226980090141296386718750000 -0.000628776440862566232681274414 -0.006738800555467605590820312500 0 0 0 0 
2418500000.0000000000 0.152980357408523587325888115629 -0.092392034828662872314453125000 -0.000806477328296750783920288086 -0.006794029381126165390014648438 0 0 0 0 
2418666666.6666665077 0.153159186244010897537393134371 -0.093383118510246276855468750000 -0.001071168808266520933863974463 -0.006605094298720359802246093750 0 0 0 0 
2418833333.3333334923 0.153310835361480712890625000000 -0.094354480504989624023437500000 -0.001374323968775569958927773584 -0.006823115982115268707275390625 0 0 0 0 
2419000000.0000000000 0.153399556875228909591513115629 -0.095085665583610534667968750000 -0.001622894080355763001682900537 -0.006679129786789417266845703125 0 0 0 0 
2419166666.6666665077 0.153695523738861111739950615629 -0.095737412571907043457031250000 -0.001908190548419951958897256006 -0.006603732239454984664916992188 0 0 0 0 
2419333333.3333334923 0.153733596205711392501669365629 -0.096024081110954284667968750000 -0.002233218867331742806675576318 -0.006468206644058228406424237988 0 0 0 0 
2419500000.0000000000 0.154008403420448303222656250000 -0.096878424286842346191406250000 -0.002527634147554636001586914062 -0.006557677406817674636840820312 0 0 0 0 
2419666666.6666665077 0.154391810297966003417968750000 -0.097228854894638061523437500000 -0.002708544488996266885044716943 -0.006541126873344182968139648438 0 0 0 0 
2419833333.3333334923 0.154320821166038513183593750000 -0.097139179706573486328125000000 -0.003056302433833479881286621094 -0.006349537987262010574340820312 0 0 0 0 
