# Version 1.00
#
freq[Hz];re:Trc1_S11;im:Trc1_S11;re:Trc2_S21;im:Trc2_S21;
2.400000000000000E+009;1.561405211687088E-001;1.107592135667801E-001;1.761041814461350E-003;5.295349285006523E-003;
2.400166666666667E+009;1.556168645620346E-001;1.085622385144234E-001;1.996424980461597E-003;5.369321908801794E-003;
2.400333333333334E+009;1.554872095584869E-001;1.062542796134949E-001;2.331045456230640E-003;5.422650370746851E-003;
2.400500000000000E+009;1.550431102514267E-001;1.036546230316162E-001;2.549537690356374E-003;4.896254278719425E-003;
2.400666666666667E+009;1.549284011125565E-001;1.012543812394142E-001;2.934742253273726E-003;4.836996551603079E-003;
2.400833333333334E+009;1.544155329465866E-001;9.839200228452683E-002;3.201012499630451E-003;4.668952897191048E-003;
2.401000000000000E+009;1.542917191982269E-001;9.557953476905823E-002;3.419308224692941E-003;4.440185148268938E-003;
2.401166666666667E+009;1.541343480348587E-001;9.263022243976593E-002;3.342237556353211E-003;4.215602762997150E-003;
2.401333333333334E+009;1.542988866567612E-001;8.969000726938248E-002;3.605681937187910E-003;4.059046506881714E-003;
2.401500000000000E+009;1.544342637062073E-001;8.695665746927261E-002;3.589355619624257E-003;3.690806683152914E-003;
2.401666666666667E+009;1.544406265020371E-001;8.369431644678116E-002;3.710869001224637E-003;3.476956859230995E-003;
2.401833333333334E+009;1.549006551504135E-001;8.086393773555756E-002;3.863149788230658E-003;3.379521658644080E-003;
2.402000000000000E+009;1.553345322608948E-001;7.796798646450043E-002;3.757846076041460E-003;3.244682215154171E-003;
2.402166666666667E+009;1.560949087142944E-001;7.507003098726273E-002;3.991883248090744E-003;3.029306652024388E-003;
2.402333333333334E+009;1.567996442317963E-001;7.215864956378937E-002;4.155496601015329E-003;2.867294708266854E-003;
2.402500000000000E+009;1.578517407178879E-001;6.944704055786133E-002;4.268279299139977E-003;2.856090897694230E-003;
2.402666666666667E+009;1.588696390390396E-001;6.676634401082993E-002;4.239595029503107E-003;2.592571079730988E-003;
2.402833333333334E+009;1.601016223430634E-001;6.409452110528946E-002;4.236076027154923E-003;2.430185908451676E-003;
2.403000000000000E+009;1.615595072507858E-001;6.150318309664726E-002;4.654222168028355E-003;2.152752131223679E-003;
2.403166666666667E+009;1.632000803947449E-001;5.906295031309128E-002;4.634044133126736E-003;1.931990729644895E-003;
2.403333333333334E+009;1.645256280899048E-001;5.656646937131882E-002;4.783461801707745E-003;1.655735541135073E-003;
2.403500000000000E+009;1.662118136882782E-001;5.444464087486267E-002;4.682143684476614E-003;1.382296206429601E-003;
2.403666666666667E+009;1.682783514261246E-001;5.220430344343185E-002;4.779441747814417E-003;1.356106367893517E-003;
2.403833333333334E+009;1.697217822074890E-001;5.012114718556404E-002;4.784451797604561E-003;9.120820323005319E-004;
2.404000000000000E+009;1.714781224727631E-001;4.796924814581871E-002;4.874165169894695E-003;7.838041055947542E-004;
2.404166666666667E+009;1.732852458953857E-001;4.628676921129227E-002;4.619665443897247E-003;3.300601383671165E-004;
2.404333333333334E+009;1.752031445503235E-001;4.461067169904709E-002;4.740839824080467E-003;1.179277169285342E-004;
2.404500000000000E+009;1.768481135368347E-001;4.287073388695717E-002;4.572509322315455E-003;6.190853309817612E-005;
2.404666666666667E+009;1.788434237241745E-001;4.169511422514916E-002;4.395584110170603E-003;-3.059277951251715E-004;
2.404833333333334E+009;1.805633157491684E-001;4.056354239583015E-002;4.306149203330278E-003;-3.464153560344130E-004;
2.405000000000000E+009;1.821795105934143E-001;3.972423076629639E-002;4.183715209364891E-003;-6.063355249352753E-004;
2.405166666666667E+009;1.839767694473267E-001;3.890640288591385E-002;4.020425025373697E-003;-8.281941409222782E-004;
2.405333333333334E+009;1.855773031711578E-001;3.839482739567757E-002;3.930599894374609E-003;-9.413973893970251E-004;
2.405500000000000E+009;1.872411519289017E-001;3.780075162649155E-002;3.809185931459069E-003;-1.121253124438226E-003;
2.405666666666667E+009;1.886272728443146E-001;3.741573542356491E-002;3.531032940372825E-003;-1.289679086767137E-003;
2.405833333333334E+009;1.902228891849518E-001;3.722933307290077E-002;3.449756419286132E-003;-1.286789192818105E-003;
2.406000000000000E+009;1.914430409669876E-001;3.702618926763535E-002;3.322724020108581E-003;-1.246639643795788E-003;
2.406166666666667E+009;1.928126066923142E-001;3.695073723793030E-002;3.101990092545748E-003;-1.396983396261931E-003;
2.406333333333334E+009;1.939269006252289E-001;3.708026558160782E-002;2.846164396032691E-003;-1.396743231453002E-003;
2.406500000000000E+009;1.948719620704651E-001;3.732341527938843E-002;2.863364759832621E-003;-1.491409493610263E-003;
2.406666666666667E+009;1.956886500120163E-001;3.741119801998138E-002;2.744363155215979E-003;-1.551362103782594E-003;
2.406833333333334E+009;1.965299248695374E-001;3.767219185829163E-002;2.628735732287169E-003;-1.528756925836206E-003;
2.407000000000000E+009;1.971706002950668E-001;3.801316022872925E-002;2.606569323688746E-003;-1.432335469871759E-003;
2.407166666666667E+009;1.976108103990555E-001;3.815967589616776E-002;2.349450020119548E-003;-1.417372841387987E-003;
2.407333333333334E+009;1.978021562099457E-001;3.867717459797859E-002;2.128114458173513E-003;-1.398313790559769E-003;
2.407500000000000E+009;1.979578733444214E-001;3.884021565318108E-002;2.240878297016025E-003;-1.362047041766346E-003;
2.407666666666667E+009;1.981853842735291E-001;3.914669901132584E-002;2.127074170857668E-003;-1.427951850928366E-003;
2.407833333333334E+009;1.977121084928513E-001;3.941459208726883E-002;2.025075955316424E-003;-1.315620495006442E-003;
2.408000000000000E+009;1.978826075792313E-001;3.950772434473038E-002;2.005695598199964E-003;-1.268608495593071E-003;
2.408166666666667E+009;1.972975581884384E-001;3.941564261913300E-002;1.875002752058208E-003;-1.136606209911406E-003;
2.408333333333334E+009;1.968613266944885E-001;3.941361233592033E-002;1.952523016370833E-003;-9.719783556647599E-004;
2.408500000000000E+009;1.961923837661743E-001;3.930736333131790E-002;1.978860003873706E-003;-1.036750152707100E-003;
2.408666666666667E+009;1.957715451717377E-001;3.911886364221573E-002;2.051121322438121E-003;-1.013242639601231E-003;
2.408833333333334E+009;1.949326246976852E-001;3.871671110391617E-002;2.042195061221719E-003;-9.363185963593423E-004;
2.409000000000000E+009;1.939835399389267E-001;3.814052045345306E-002;2.135558286681771E-003;-7.745202747173607E-004;
2.409166666666667E+009;1.929558068513870E-001;3.768113255500794E-002;2.236437285318971E-003;-8.837527711875737E-004;
2.409333333333334E+009;1.918816715478897E-001;3.692515566945076E-002;2.276360988616943E-003;-8.869314915500581E-004;
2.409500000000000E+009;1.905941367149353E-001;3.586723282933235E-002;2.356974175199866E-003;-9.700191440060735E-004;
2.409666666666667E+009;1.895011514425278E-001;3.479422628879547E-002;2.401534467935562E-003;-9.225204121321440E-004;
2.409833333333334E+009;1.883202493190765E-001;3.357923030853272E-002;2.500073751434684E-003;-9.301804821006954E-004;
2.410000000000000E+009;1.871254742145538E-001;3.215147554874420E-002;2.644333289936185E-003;-1.060350332409143E-003;
2.410166666666667E+009;1.859485507011414E-001;3.053117915987968E-002;2.580554457381368E-003;-1.136258477345109E-003;
2.410333333333334E+009;1.847408562898636E-001;2.919964678585529E-002;2.601025626063347E-003;-1.083460985682905E-003;
2.410500000000000E+009;1.834937930107117E-001;2.722630277276039E-002;2.720956923440099E-003;-1.136794686317444E-003;
2.410666666666667E+009;1.824081838130951E-001;2.501068264245987E-002;2.780793234705925E-003;-1.401781453751028E-003;
2.410833333333334E+009;1.815268695354462E-001;2.300753630697727E-002;2.912642899900675E-003;-1.381110167130828E-003;
2.411000000000000E+009;1.806492805480957E-001;2.097202651202679E-002;2.913527656346560E-003;-1.585475169122219E-003;
2.411166666666667E+009;1.795895695686340E-001;1.871725730597973E-002;2.877413760870695E-003;-1.665144925937057E-003;
2.411333333333334E+009;1.788893789052963E-001;1.631603762507439E-002;2.830002456903458E-003;-1.629997394047678E-003;
2.411500000000000E+009;1.782983392477036E-001;1.391272060573101E-002;2.946063643321395E-003;-1.910599647089839E-003;
2.411666666666667E+009;1.779980510473251E-001;1.125494390726090E-002;2.780789509415627E-003;-1.963416347280145E-003;
2.411833333333334E+009;1.774162054061890E-001;9.014826267957687E-003;2.941666869446635E-003;-1.966718817129731E-003;
2.412000000000000E+009;1.772579848766327E-001;6.281059235334396E-003;2.875427016988397E-003;-2.105207182466984E-003;
2.412166666666667E+009;1.771664172410965E-001;3.873728215694428E-003;2.991850720718503E-003;-2.354564610868692E-003;
2.412333333333334E+009;1.772460043430328E-001;1.055251457728446E-003;2.954278606921434E-003;-2.293245168402791E-003;
2.412500000000000E+009;1.774576604366303E-001;-1.485282205976546E-003;2.861676039174199E-003;-2.592846518382430E-003;
2.412666666666667E+009;1.780376136302948E-001;-4.231870174407959E-003;2.864180132746697E-003;-2.600426087155938E-003;
2.412833333333334E+009;1.784443855285645E-001;-6.735065020620823E-003;2.869090763852000E-003;-2.808216493576765E-003;
2.413000000000000E+009;1.792040616273880E-001;-9.347906336188316E-003;3.008986357599497E-003;-3.061372553929687E-003;
2.413166666666667E+009;1.799987256526947E-001;-1.181225012987852E-002;2.903593704104424E-003;-3.202157793566585E-003;
2.413333333333334E+009;1.808701157569885E-001;-1.441746857017279E-002;2.843499416485429E-003;-3.214786294847727E-003;
2.413500000000000E+009;1.817380636930466E-001;-1.701867394149303E-002;2.836310770362616E-003;-3.549190470948815E-003;
2.413666666666667E+009;1.829322725534439E-001;-1.934594847261906E-002;2.580247353762388E-003;-3.757563419640064E-003;
2.413833333333334E+009;1.840664148330689E-001;-2.167053334414959E-002;2.571339951828122E-003;-4.101820755749941E-003;
2.414000000000000E+009;1.853419840335846E-001;-2.377630956470966E-002;2.397774485871196E-003;-4.339640960097313E-003;
2.414166666666667E+009;1.866776198148727E-001;-2.580244839191437E-002;2.223703777417541E-003;-4.445608239620924E-003;
2.414333333333334E+009;1.880213022232056E-001;-2.816736511886120E-002;1.938825007528067E-003;-4.607950802892447E-003;
2.414500000000000E+009;1.892945319414139E-001;-2.996464632451534E-002;1.922371797263622E-003;-4.941393155604601E-003;
2.414666666666667E+009;1.906617581844330E-001;-3.143512457609177E-002;1.669020624831319E-003;-4.871275275945664E-003;
2.414833333333334E+009;1.920309364795685E-001;-3.311221301555634E-002;1.471863826736808E-003;-5.117968190461397E-003;
2.415000000000000E+009;1.933629959821701E-001;-3.467098623514175E-002;1.280946773476899E-003;-5.276333075016737E-003;
2.415166666666667E+009;1.948260813951492E-001;-3.604464605450630E-002;8.306702948175371E-004;-5.367750767618418E-003;
2.415333333333334E+009;1.963053196668625E-001;-3.713078051805496E-002;5.601191078312695E-004;-5.420935805886984E-003;
2.415500000000000E+009;1.975717246532440E-001;-3.793105483055115E-002;3.921079041901976E-004;-5.584482103586197E-003;
2.415666666666667E+009;1.989050805568695E-001;-3.894959017634392E-002;1.873558649094775E-004;-5.714797880500555E-003;
2.415833333333334E+009;2.000851184129715E-001;-3.968957066535950E-002;-3.349930047988892E-004;-5.681120324879885E-003;
2.416000000000000E+009;2.011682391166687E-001;-4.031405597925186E-002;-5.265778745524585E-004;-5.643390119075775E-003;
2.416166666666667E+009;2.019930928945541E-001;-4.098853841423988E-002;-1.019194955006242E-003;-5.570843815803528E-003;
2.416333333333334E+009;2.029870599508286E-001;-4.137295112013817E-002;-1.221014070324600E-003;-5.667979363352060E-003;
2.416500000000000E+009;2.036687880754471E-001;-4.158144071698189E-002;-1.559667522087693E-003;-5.552138201892376E-003;
2.416666666666667E+009;2.043493986129761E-001;-4.189040884375572E-002;-1.806224579922855E-003;-5.519901402294636E-003;
2.416833333333334E+009;2.047706991434097E-001;-4.191515222191811E-002;-2.129120752215385E-003;-5.344760138541460E-003;
2.417000000000000E+009;2.051890045404434E-001;-4.197030887007713E-002;-2.265911782160401E-003;-5.155937280505896E-003;
2.417166666666667E+009;2.052020281553268E-001;-4.183119535446167E-002;-2.543122973293066E-003;-4.898978397250176E-003;
2.417333333333334E+009;2.051275670528412E-001;-4.153434559702873E-002;-2.638649661093950E-003;-4.734874702990055E-003;
2.417500000000000E+009;2.050794363021851E-001;-4.144456982612610E-002;-2.971112728118897E-003;-4.605098627507687E-003;
2.417666666666667E+009;2.048041373491287E-001;-4.100756347179413E-002;-3.111440455541015E-003;-4.461555741727352E-003;
2.417833333333334E+009;2.044864892959595E-001;-4.065918549895287E-002;-3.288856940343976E-003;-4.350656643509865E-003;
2.418000000000000E+009;2.041916698217392E-001;-4.023963958024979E-002;-3.582031466066837E-003;-4.216989502310753E-003;
2.418166666666667E+009;2.034525573253632E-001;-3.987943008542061E-002;-3.561003133654594E-003;-3.960643894970417E-003;
2.418333333333334E+009;2.026919275522232E-001;-3.960788622498512E-002;-3.736692946404219E-003;-3.834189148619771E-003;
2.418500000000000E+009;2.017182558774948E-001;-3.941077739000320E-002;-3.750329837203026E-003;-3.456618404015899E-003;
2.418666666666667E+009;2.010910362005234E-001;-3.904652595520020E-002;-3.924500662833452E-003;-3.248456865549088E-003;
2.418833333333334E+009;1.997692435979843E-001;-3.900979086756706E-002;-3.999956883490086E-003;-3.167646005749703E-003;
2.419000000000000E+009;1.986536383628845E-001;-3.896310925483704E-002;-4.085941705852747E-003;-2.922439714893699E-003;
2.419166666666667E+009;1.973323374986649E-001;-3.913690149784088E-002;-4.130154848098755E-003;-2.795874606817961E-003;
2.419333333333334E+009;1.959381103515625E-001;-3.926941007375717E-002;-4.164862446486950E-003;-2.627680310979486E-003;
2.419500000000000E+009;1.943963319063187E-001;-3.947878628969193E-002;-4.317308776080608E-003;-2.395074348896742E-003;
2.419666666666667E+009;1.928424090147018E-001;-4.013080522418022E-002;-4.228956997394562E-003;-2.166405552998185E-003;
2.419833333333334E+009;1.910266131162643E-001;-4.049822315573692E-002;-4.427176434546709E-003;-2.006174298003316E-003;
2.420000000000000E+009;1.894738078117371E-001;-4.122812673449516E-002;-4.379835445433855E-003;-1.659552915953100E-003;
2.420166666666667E+009;1.877742707729340E-001;-4.188281670212746E-002;-4.421779885888100E-003;-1.668071374297142E-003;
2.420333333333334E+009;1.858700811862946E-001;-4.301567375659943E-002;-4.305191803723574E-003;-1.655115629546344E-003;
2.420500000000000E+009;1.840651929378510E-001;-4.429076984524727E-002;-4.347937181591988E-003;-1.390025834552944E-003;
2.420666666666667E+009;1.822675913572311E-001;-4.524632543325424E-002;-4.352808464318514E-003;-1.173797994852066E-003;
2.420833333333334E+009;1.804788261651993E-001;-4.671979695558548E-002;-4.188491031527519E-003;-1.047312631271780E-003;
2.421000000000000E+009;1.789171248674393E-001;-4.807276651263237E-002;-4.189859610050917E-003;-9.759856620803475E-004;
2.421166666666667E+009;1.772113144397736E-001;-4.977538809180260E-002;-4.197682719677687E-003;-8.194756810553372E-004;
2.421333333333334E+009;1.753974556922913E-001;-5.122094601392746E-002;-4.365430213510990E-003;-7.296255789697170E-004;
2.421500000000000E+009;1.738161593675613E-001;-5.328421667218208E-002;-4.190181847661734E-003;-6.319796666502953E-004;
2.421666666666667E+009;1.725230067968369E-001;-5.506336688995361E-002;-4.009192343801260E-003;-3.465488844085485E-004;
2.421833333333334E+009;1.711004823446274E-001;-5.702881515026093E-002;-4.048712551593781E-003;-2.778356720227748E-004;
2.422000000000000E+009;1.697489470243454E-001;-5.893266946077347E-002;-4.083136096596718E-003;-2.870009921025485E-004;
2.422166666666667E+009;1.687402725219727E-001;-6.130310893058777E-002;-3.949353937059641E-003;5.341486757970415E-005;
2.422333333333334E+009;1.674200296401978E-001;-6.338278949260712E-002;-3.889553248882294E-003;-7.745393304503523E-006;
2.422500000000000E+009;1.665533632040024E-001;-6.549130380153656E-002;-3.841517027467489E-003;2.037146477960050E-004;
2.422666666666667E+009;1.656399518251419E-001;-6.766555458307266E-002;-3.907097969204187E-003;2.399447112111375E-004;
2.422833333333334E+009;1.649962216615677E-001;-7.005044072866440E-002;-3.812886076048017E-003;3.284076519776136E-004;
2.423000000000000E+009;1.643412858247757E-001;-7.234884798526764E-002;-3.615145105868578E-003;4.685929452534765E-004;
2.423166666666667E+009;1.639490574598312E-001;-7.440228760242462E-002;-3.762420732527971E-003;4.811323306057602E-004;
2.423333333333334E+009;1.635938882827759E-001;-7.672344148159027E-002;-3.481965279206634E-003;6.570716504938901E-004;
2.423500000000000E+009;1.634366363286972E-001;-7.864314317703247E-002;-3.522269660606980E-003;5.357324262149632E-004;
2.423666666666667E+009;1.634743660688400E-001;-8.096210658550263E-002;-3.586943494156003E-003;6.716282805427909E-004;
2.423833333333334E+009;1.632897406816483E-001;-8.288042992353439E-002;-3.422124078497291E-003;6.105477805249393E-004;
2.424000000000000E+009;1.634191125631332E-001;-8.489851653575897E-002;-3.316049929708242E-003;6.159838521853089E-004;
2.424166666666667E+009;1.634973883628845E-001;-8.676096051931381E-002;-3.262948244810104E-003;7.987293065525591E-004;
2.424333333333334E+009;1.637742370367050E-001;-8.854977786540985E-002;-3.465200075879693E-003;8.189480868168175E-004;
2.424500000000000E+009;1.643412858247757E-001;-9.049358218908310E-002;-3.335755085572600E-003;8.003159891813994E-004;
2.424666666666667E+009;1.645885854959488E-001;-9.226848930120468E-002;-3.311500884592533E-003;8.579708519391716E-004;
2.424833333333334E+009;1.653806120157242E-001;-9.373492002487183E-002;-3.350573824718595E-003;8.884976850822568E-004;
2.425000000000000E+009;1.658048927783966E-001;-9.501069039106369E-002;-3.365738317370415E-003;9.744401322677732E-004;
2.425166666666667E+009;1.662605404853821E-001;-9.634320437908173E-002;-3.485381137579680E-003;9.883983293548226E-004;
2.425333333333334E+009;1.668339073657990E-001;-9.756225347518921E-002;-3.453566925600171E-003;9.656312759034336E-004;
2.425500000000000E+009;1.675331145524979E-001;-9.867470711469650E-002;-3.469689516350627E-003;1.256386167369783E-003;
2.425666666666667E+009;1.681235283613205E-001;-9.956263750791550E-002;-3.350132843479514E-003;1.260813442058861E-003;
2.425833333333334E+009;1.686052531003952E-001;-1.006344109773636E-001;-3.435866208747029E-003;1.214175252243877E-003;
2.426000000000000E+009;1.692886203527451E-001;-1.011890992522240E-001;-3.435347694903612E-003;1.489840913563967E-003;
2.426166666666667E+009;1.698562651872635E-001;-1.017929092049599E-001;-3.301990684121847E-003;1.617136294953525E-003;
2.426333333333334E+009;1.703149527311325E-001;-1.023421138525009E-001;-3.340756520628929E-003;1.777822966687381E-003;
2.426500000000000E+009;1.709060817956924E-001;-1.027509421110153E-001;-3.544536186382175E-003;1.957134343683720E-003;
2.426666666666667E+009;1.714413911104202E-001;-1.030769571661949E-001;-3.309555584564805E-003;1.937302062287927E-003;
2.426833333333334E+009;1.718877702951431E-001;-1.033415347337723E-001;-3.405031980946660E-003;2.203511772677302E-003;
2.427000000000000E+009;1.722614020109177E-001;-1.036180481314659E-001;-3.281502984464169E-003;2.181533491238952E-003;
2.427166666666667E+009;1.725549846887589E-001;-1.037155911326408E-001;-3.193778218701482E-003;2.267088973894715E-003;
2.427333333333334E+009;1.726351678371429E-001;-1.038918495178223E-001;-3.317975206300616E-003;2.360195852816105E-003;
2.427500000000000E+009;1.726196259260178E-001;-1.039596572518349E-001;-3.087150631472468E-003;2.624314045533538E-003;
2.427666666666667E+009;1.726366728544235E-001;-1.039282903075218E-001;-3.100648755207658E-003;2.766400109976530E-003;
