# Hz S RI R 50
2400000000.0000000000 0.155206218361854608733807481258 0.106781736016273498535156250000 -0.004926413763314486417288495801 -0.003496859688311814828159951318 0 0 0 0 
2400166666.6666665077 0.154581680893898010253906250000 0.103976152837276500373597798443 -0.005129508208483458432669355176 -0.003582176053896545930149697412 0 0 0 0 
2400333333.3333334923 0.155166670680046109298544365629 0.101741448044776902626118442186 -0.005147342104464769363403320312 -0.003447540337219833894016884912 0 0 0 0 
2400500000.0000000000 0.154812961816787691970986884371 0.099434845149517059326171875000 -0.005406766198575496673583984375 -0.003477409482002257867100381006 0 0 0 0 
2400666666.6666665077 0.155175566673278808593750000000 0.097103543579578399658203125000 -0.005778392776846885681152343750 -0.003252569586038589911219931494 0 0 0 0 
2400833333.3333334923 0.154934361577033996582031250000 0.093799114227294921875000000000 -0.005992649123072624206542968750 -0.003102588001638650894165039062 0 0 0 0 
2401000000.0000000000 0.155448943376541109939736884371 0.091082006692886352539062500000 -0.006223743315786123275756835938 -0.002971409354358911947963095557 0 0 0 0 
2401166666.6666665077 0.155224636197090204436932481258 0.088314794003963470458984375000 -0.006372020114213228225708007812 -0.002662943210452795028686523438 0 0 0 0 
2401333333.3333334923 0.155843451619148309905682481258 0.085570171475410461425781250000 -0.006611643359065055847167968750 -0.002582071581855415864231728662 0 0 0 0 
2401500000.0000000000 0.156015738844871493240518134371 0.082656927406787872314453125000 -0.006799412891268730163574218750 -0.002210214966908096833470009912 0 0 0 0 
2401666666.6666665077 0.156596973538398687164630018742 0.079868398606777191162109375000 -0.006765926722437143325805664062 -0.001969633158296347098109579932 0 0 0 0 
2401833333.3333334923 0.157062083482742309570312500000 0.077061071991920471191406250000 -0.007037706207484006881713867188 -0.001779870712198317050933837891 0 0 0 0 
2402000000.0000000000 0.158047080039977999588174384371 0.074395589530467987060546875000 -0.007177276071161031723022460938 -0.001470494549721478982212685693 0 0 0 0 
2402166666.6666665077 0.158865019679069491287393134371 0.071998573839664459228515625000 -0.007148774806410074234008789062 -0.001436014426872133991838764722 0 0 0 0 
2402333333.3333334923 0.159967482089996310135049384371 0.069371566176414489746093750000 -0.007484384346753358840942382812 -0.001079143374226986928227089990 0 0 0 0 
2402500000.0000000000 0.161161765456199701507244981258 0.066729605197906494140625000000 -0.007459528278559446334838867188 -0.000897370162419974803924560547 0 0 0 0 
2402666666.6666665077 0.162212714552879305740518134371 0.064459800720214843750000000000 -0.007666992489248514175415039062 -0.000537382031325250864028930664 0 0 0 0 
2402833333.3333334923 0.163628786802291897872763115629 0.062094494700431816791574846093 -0.007732748519629240036010742188 -0.000154649271280504790231427603 0 0 0 0 
2403000000.0000000000 0.165152430534362792968750000000 0.059618659317493438720703125000 -0.007807854097336530685424804688 0.000046518554881913587450981140 0 0 0 0 
2403166666.6666665077 0.166834086179733304122763115629 0.057568579912185668945312500000 -0.007754421792924404144287109375 0.000407182378694415092468261719 0 0 0 0 
2403333333.3333334923 0.168140247464179992675781250000 0.055442824959754936908762346093 -0.007990424521267414093017578125 0.000763104821089655160903930664 0 0 0 0 
2403500000.0000000000 0.169797763228416387359942518742 0.053303182125091552734375000000 -0.007954346947371959686279296875 0.001120854285545646927477192456 0 0 0 0 
2403666666.6666665077 0.171753436326980590820312500000 0.051514610648155212402343750000 -0.008146560750901699066162109375 0.001443124958314001993892050635 0 0 0 0 
2403833333.3333334923 0.173266649246215792556924384371 0.049669243395328521728515625000 -0.007934355176985263824462890625 0.002060198457911611037013388525 0 0 0 0 
2404000000.0000000000 0.174883812665939303299111884371 0.047905001789331443096120466407 -0.007813197560608386993408203125 0.002302276901900767846348427881 0 0 0 0 
2404166666.6666665077 0.176502823829650906661825615629 0.046440973877906799316406250000 -0.007911792024970054626464843750 0.002705644583329557938816689600 0 0 0 0 
2404333333.3333334923 0.178243234753608703613281250000 0.044998481869697570800781250000 -0.007782985456287860870361328125 0.003138623200356959862949990381 0 0 0 0 
2404500000.0000000000 0.180128276348114013671875000000 0.044037770479917533184011091407 -0.007674886845052242279052734375 0.005002233199775218963623046875 0 0 0 0 
2404666666.6666665077 0.181699112057685907561932481258 0.043045148253440856933593750000 -0.007558845914900302886962890625 0.005076327826827765378470136426 0 0 0 0 
2404833333.3333334923 0.182870686054229708572549384371 0.041210874915122992778737653907 -0.007011273875832557678222656250 0.003261027159169315858128213037 0 0 0 0 
2405000000.0000000000 0.183976814150810186188067518742 0.040225040167570107196848283593 -0.007054237648844718933105468750 0.002848378382623196081874228369 0 0 0 0 
2405166666.6666665077 0.185770064592361505706463731258 0.040173284709453582763671875000 -0.007145427167415618896484375000 0.004741433542221784591674804688 0 0 0 0 
2405333333.3333334923 0.186910867691040011306924384371 0.039511416107416152954101562500 -0.007184821646660566329956054688 0.004750694613903760910034179688 0 0 0 0 
2405500000.0000000000 0.188266918063163812835369981258 0.038876883685588836669921875000 -0.006740831304341554641723632812 0.004439227748662233352661132812 0 0 0 0 
2405666666.6666665077 0.189844921231269808670205634371 0.038685113191604607318918596093 -0.005736741237342357635498046875 0.005368101876229047775268554688 0 0 0 0 
2405833333.3333334923 0.190524145960807800292968750000 0.038339730352163321758229841407 -0.006174213718622922897338867188 0.004948443733155727386474609375 0 0 0 0 
2406000000.0000000000 0.192046061158180209060830634371 0.038132961839437491680104841407 -0.005332932341843844327444745801 0.005878516472876071929931640625 0 0 0 0 
2406166666.6666665077 0.192992642521858187576455634371 0.038073662668466567993164062500 -0.005159697961062192916870117188 0.006165043450891971588134765625 0 0 0 0 
2406333333.3333334923 0.193924993276596097091513115629 0.038000646978616707538645158593 -0.004591879434883595380301191113 0.006247282959520816802978515625 0 0 0 0 
2406500000.0000000000 0.194586500525474603850994981258 0.038050699979066848754882812500 -0.004149191547185182571411132812 0.006416065618395805358886718750 0 0 0 0 
2406666666.6666665077 0.195283144712448092361611884371 0.037995424121618270874023437500 -0.003992136102169752120971679688 0.006567242555320262908935546875 0 0 0 0 
2406833333.3333334923 0.195700809359550503829794365629 0.037965506315231323242187500000 -0.003661649534478784041163779150 0.006483928766101598739624023438 0 0 0 0 
2407000000.0000000000 0.196014419198036193847656250000 0.038175165653228759765625000000 -0.003417611820623279051539755713 0.006648164708167315396780683301 0 0 0 0 
2407166666.6666665077 0.196354687213897705078125000000 0.037737034261226647113840471093 -0.002903246320784091949462890625 0.006659765262156724929809570312 0 0 0 0 
2407333333.3333334923 0.196344807744026211837606865629 0.037965875118970870971679687500 -0.002717404160648583932163857568 0.006634640507400035858154296875 0 0 0 0 
2407500000.0000000000 0.196178302168846102615518134371 0.038102358579635620117187500000 -0.002549456432461739020106650244 0.006497914902865886688232421875 0 0 0 0 
2407666666.6666665077 0.196130916476249694824218750000 0.037874631583690643310546875000 -0.002102851634845138029811240088 0.006575201638042926788330078125 0 0 0 0 
2407833333.3333334923 0.195724755525588989257812500000 0.037633858621120452880859375000 -0.001979617867618799209594726562 0.006567554082721471786499023438 0 0 0 0 
2408000000.0000000000 0.195590242743492098709268134371 0.037505112588405609130859375000 -0.001710810582153498909593891675 0.006647540256381034851074218750 0 0 0 0 
2408166666.6666665077 0.195027858018875094314736884371 0.037086755037307739257812500000 -0.001382594928145409064051962744 0.006509898696094751358032226562 0 0 0 0 
2408333333.3333334923 0.194555699825286892989950615629 0.036531034857034683227539062500 -0.001133415265940129973767924731 0.006444015540182591351980878613 0 0 0 0 
2408500000.0000000000 0.193890154361724909026776231258 0.036029968410730361938476562500 -0.001081099850125611045240092700 0.006337805185467004776000976562 0 0 0 0 
2408666666.6666665077 0.193326413631439208984375000000 0.035636294633150100708007812500 -0.000801442016381770372390747070 0.006324910558760166168212890625 0 0 0 0 
2408833333.3333334923 0.192572116851806612869424384371 0.034681510180234909057617187500 -0.000610788119956851005554199219 0.006259494461119174957275390625 0 0 0 0 
2409000000.0000000000 0.191553384065628107268963731258 0.033786442130804061889648437500 -0.000430115382187068516581934796 0.006239470094442368421072675488 0 0 0 0 
2409166666.6666665077 0.190699651837348910232705634371 0.032762251794338233257253278907 -0.000138972463901154696941375732 0.006082845851778984069824218750 0 0 0 0 
2409333333.3333334923 0.189731284976005609710369981258 0.031844593584537513042409528907 -0.000110941189632285399876455989 0.005874542053788900375366210938 0 0 0 0 
2409500000.0000000000 0.188591942191123990157919365629 0.030360445380210879934290701954 0.000234612234635278609677991324 0.005922675132751464843750000000 0 0 0 0 
2409666666.6666665077 0.187556996941566495040731865629 0.029012396931648250925084298046 0.000333002011757344007492065430 0.005779271479696035385131835938 0 0 0 0 
2409833333.3333334923 0.186558827757835388183593750000 0.027496574446558948862096016796 0.000421700678998604416847229004 0.005734757054597139358520507812 0 0 0 0 
2410000000.0000000000 0.185549452900886507888955634371 0.025742519646883010864257812500 0.000427705846959725022315979004 0.005572033580392599105834960938 0 0 0 0 
2410166666.6666665077 0.184672728180885287185830634371 0.023967245593667030334472656250 0.000672284222673624753952026367 0.005402204114943742752075195312 0 0 0 0 
2410333333.3333334923 0.183661729097366305252236884371 0.022078853100538250314732735546 0.000797051761765033006668090820 0.005255271680653095245361328125 0 0 0 0 
2410500000.0000000000 0.182689085602760287185830634371 0.020180866122245788574218750000 0.000743369455449283123016357422 0.005148489959537982940673828125 0 0 0 0 
2410666666.6666665077 0.181752145290374811370526231258 0.018001276999711990356445312500 0.001007141545414925055262900244 0.005216890946030616760253906250 0 0 0 0 
2410833333.3333334923 0.181196689605712890625000000000 0.015792055055499080312708670704 0.001015270594507456042646098560 0.005041855387389659881591796875 0 0 0 0 
2411000000.0000000000 0.180415272712707491775674384371 0.013665913604199889791468436329 0.001064562820829451084136962891 0.004892881494015455245971679688 0 0 0 0 
2411166666.6666665077 0.179895281791687011718750000000 0.011484220623970030003557774023 0.001215634401887655041338276440 0.004828890785574913024902343750 0 0 0 0 
2411333333.3333334923 0.179251864552497891525106865629 0.009025852195918560028076171875 0.001257925410754979090449667822 0.004721225239336490631103515625 0 0 0 0 
2411500000.0000000000 0.178931877017021206954794365629 0.006592671386897563934326171875 0.001306266523897648074506450122 0.004780432209372519579415605762 0 0 0 0 
2411666666.6666665077 0.178614288568496704101562500000 0.004348301794379949569702148438 0.001369664445519446892979287256 0.004703474696725606918334960938 0 0 0 0 
2411833333.3333334923 0.178341731429100008865518134371 0.001858395058661699078203510815 0.001299625728279351971269917065 0.004621622618287801742553710938 0 0 0 0 
2412000000.0000000000 0.178537398576736505706463731258 -0.000678501499351114034652709961 0.001316737616434692902805947412 0.004500729031860828399658203125 0 0 0 0 
2412166666.6666665077 0.178847655653953607757244981258 -0.002942431252449750900268554688 0.001544311293400824069976806641 0.004400461446493864059448242188 0 0 0 0 
2412333333.3333334923 0.178832605481147793868856865629 -0.005464335903525353345389081738 0.001433201367035507938982319409 0.004263943061232566833496093750 0 0 0 0 
2412500000.0000000000 0.179319113492965698242187500000 -0.007928353734314441680908203125 0.001458795741200447082519531250 0.004319287836551666259765625000 0 0 0 0 
2412666666.6666665077 0.179796710610389709472656250000 -0.010289099998772140848180001171 0.001644483068957925059674907153 0.004094670992344617843627929688 0 0 0 0 
2412833333.3333334923 0.180637076497077886383380018742 -0.012668224982917310542096522852 0.001500474871136247894884419019 0.004088585730642080307006835938 0 0 0 0 
2413000000.0000000000 0.181151360273361206054687500000 -0.014937273226678369694719883398 0.001613506232388318018672324072 0.004147307481616736325735761426 0 0 0 0 
2413166666.6666665077 0.181951850652694702148437500000 -0.017093691974878311157226562500 0.001663650036789477088330913013 0.004199558869004249572753906250 0 0 0 0 
2413333333.3333334923 0.183032512664794894119424384371 -0.019467571750283241271972656250 0.001549917506054043986676860278 0.004193136002868413925170898438 0 0 0 0 
2413500000.0000000000 0.183681398630142211914062500000 -0.021733103320002559316614920704 0.001718175481073557896855019678 0.004252382088452577590942382812 0 0 0 0 
2413666666.6666665077 0.184955582022666903396768134371 -0.023769374936819080007532889454 0.001663414412178098938585590894 0.004231409635394811630249023438 0 0 0 0 
2413833333.3333334923 0.186101496219635009765625000000 -0.025561686605215069162388985546 0.001711526652798057036158896338 0.004298719111829996109008789062 0 0 0 0 
2414000000.0000000000 0.187257274985313387771768134371 -0.027708757668733600271204764454 0.001984829315915704207179404150 0.004443778656423091888427734375 0 0 0 0 
2414166666.6666665077 0.188428223133087213714276231258 -0.029334519058465961111048514454 0.001946668722666800022125244141 0.004534372128546237945556640625 0 0 0 0 
2414333333.3333334923 0.189458638429641695877236884371 -0.031400609761476516723632812500 0.002082084771245718002319335938 0.004483008291572332382202148438 0 0 0 0 
2414500000.0000000000 0.190723344683647211272869981258 -0.032640840858221047138254533593 0.002268560929223895072937011719 0.004428239539265632629394531250 0 0 0 0 
2414666666.6666665077 0.191790938377380398849325615629 -0.034184757620096206665039062500 0.002378169680014253096339560400 0.004582130350172519683837890625 0 0 0 0 
2414833333.3333334923 0.193008959293365506271200615629 -0.035466216504573822021484375000 0.002535718725994228883030556787 0.004494008142501115798950195312 0 0 0 0 
2415000000.0000000000 0.194068461656570406814736884371 -0.036780089139938347553293596093 0.002640057587996124787571572412 0.004481749143451452255249023438 0 0 0 0 
2415166666.6666665077 0.195261329412460299392861884371 -0.037862364202737808227539062500 0.002925109351053833961486816406 0.004408316686749458312988281250 0 0 0 0 
2415333333.3333334923 0.196399241685867309570312500000 -0.038766089826822280883789062500 0.003049788530915976004359579932 0.004369893111288548383230878613 0 0 0 0 
2415500000.0000000000 0.197558969259262112716513115629 -0.039308574050664901733398437500 0.003408050164580345153808593750 0.004466935060918331146240234375 0 0 0 0 
2415666666.6666665077 0.198419094085693387130575615629 -0.040305145084857940673828125000 0.003513548057526350021362304688 0.004220904782414436340332031250 0 0 0 0 
2415833333.3333334923 0.199201434850692804534588731258 -0.040841814130544662475585937500 0.003597901202738285064697265625 0.004232379607856273651123046875 0 0 0 0 
2416000000.0000000000 0.199974194169044494628906250000 -0.041456986218690872192382812500 0.003897717688232659859898232568 0.004179050680249929428100585938 0 0 0 0 
2416166666.6666665077 0.200697883963584899902343750000 -0.042032521218061447143554687500 0.003851617686450480981114052881 0.004119175020605325698852539062 0 0 0 0 
2416333333.3333334923 0.201206907629966708084268134371 -0.042161948978900909423828125000 0.004161501768976449966430664062 0.004037192091345787048339843750 0 0 0 0 
2416500000.0000000000 0.201725572347640991210937500000 -0.042493470013141632080078125000 0.004333976656198501586914062500 0.003897047368809580802917480469 0 0 0 0 
2416666666.6666665077 0.201974883675575311858807481258 -0.042788106948137283325195312500 0.004548585508018732070922851562 0.003800144884735345840454101562 0 0 0 0 
2416833333.3333334923 0.202044948935508700271768134371 -0.042755413800477981567382812500 0.004727079998701810836791992188 0.003665151074528694152832031250 0 0 0 0 
2417000000.0000000000 0.202118769288063104827557481258 -0.043013170361518859863281250000 0.005017573945224285125732421875 0.003547815605998038811924599756 0 0 0 0 
2417166666.6666665077 0.201852232217788696289062500000 -0.042875885963439941406250000000 0.005168102681636810302734375000 0.003259756602346897125244140625 0 0 0 0 
2417333333.3333334923 0.201614975929260309417401231258 -0.042740352451801300048828125000 0.005261659156531096372122480176 0.003189805429428815841674804688 0 0 0 0 
2417500000.0000000000 0.201282143592834500411825615629 -0.042780123651027679443359375000 0.005362443625926970568185137012 0.002890464616939425902125693213 0 0 0 0 
2417666666.6666665077 0.200607851147651700118856865629 -0.042531132698059082031250000000 0.005554188508540391921997070312 0.002669291803613305091857910156 0 0 0 0 
2417833333.3333334923 0.200210303068161010742187500000 -0.042343221604824073101003278907 0.005621023941785097122192382812 0.002334960969164967970607138525 0 0 0 0 
2418000000.0000000000 0.199523940682411193847656250000 -0.042131874710321433330495466407 0.005716190207749605178833007812 0.002114381873980164961573935400 0 0 0 0 
2418166666.6666665077 0.198682993650436401367187500000 -0.041996207088232040405273437500 0.005883383564651012420654296875 0.001962396549060941176173544775 0 0 0 0 
2418333333.3333334923 0.197781056165695190429687500000 -0.041814140975475311279296875000 0.005705029238015413284301757812 0.001788223045878112099291157300 0 0 0 0 
2418500000.0000000000 0.196737915277481106857138115629 -0.041942350566387183452565778907 0.005906132049858570098876953125 0.001585173420608044104335165869 0 0 0 0 
2418666666.6666665077 0.195725053548812893966513115629 -0.041774824261665337299387346093 0.005734013859182596206665039062 0.001343356445431709072710346753 0 0 0 0 
2418833333.3333334923 0.194517821073532104492187500000 -0.042030554264783859252929687500 0.005821272265166044235229492188 0.001135231461375951983808207935 0 0 0 0 
2419000000.0000000000 0.193185582756996210296307481258 -0.042313862591981887817382812500 0.005921888630837202072143554688 0.001127907540649176077601767432 0 0 0 0 
2419166666.6666665077 0.192007213830947903732138115629 -0.042542330920696258544921875000 0.005871678236871957778930664062 0.000860812142491340637207031250 0 0 0 0 
2419333333.3333334923 0.190568983554840087890625000000 -0.043180499225854866718332658593 0.005791760981082916259765625000 0.000694126531016081571578979492 0 0 0 0 
2419500000.0000000000 0.189139381051063509842080634371 -0.043555669486522681499440778907 0.005842211190611124038696289062 0.000777144858147948980331420898 0 0 0 0 
2419666666.6666665077 0.187686696648597689529580634371 -0.044397450983524322509765625000 0.005845832638442516326904296875 0.000451256142696365714073181152 0 0 0 0 
2419833333.3333334923 0.186113700270652798751669365629 -0.045050855726003646850585937500 0.005870331544429063796997070312 0.000325460598105564713478088379 0 0 0 0 
2420000000.0000000000 0.184448301792144803146200615629 -0.045956980437040328979492187500 0.006009751930832862854003906250 0.000202630311832763308852595197 0 0 0 0 
