# Hz S RI R 
2400000000.0000000000 0.155761927366256713867187500000 0.106552168726921095420756557814 0.003934536129236221313476562500 -0.005981740076094865798950195312 0 0 0 0 
2400166666.6666665077 0.154777586460113497635049384371 0.104544386267662103850994981258 0.003492760471999644799473427881 -0.005871607922017574310302734375 0 0 0 0 
2400333333.3333334923 0.154933035373687688629473768742 0.101623602211475400070028740629 0.003291474422439932823181152344 -0.006195303983986377716064453125 0 0 0 0 
2400500000.0000000000 0.154842302203178405761718750000 0.098844088613986968994140625000 0.003360806033015251159667968750 -0.006444584578275681409353925488 0 0 0 0 
2400666666.6666665077 0.155007556080818204025106865629 0.096502929925918579101562500000 0.003285089973360300064086914062 -0.006626642309129238128662109375 0 0 0 0 
2400833333.3333334923 0.155210331082344110686932481258 0.093518383800983428955078125000 0.003149398835375905036926269531 -0.006831071805208921432495117188 0 0 0 0 
2401000000.0000000000 0.155215159058570889571981865629 0.090898111462593078613281250000 0.003086780896410346031188964844 -0.007091343868523836135864257812 0 0 0 0 
2401166666.6666665077 0.155515357851982088943643134371 0.088008284568786621093750000000 0.002825246192514895959141396631 -0.007390580140054225921630859375 0 0 0 0 
2401333333.3333334923 0.155967757105827303787393134371 0.085445269942283630371093750000 0.002669721376150846915004111182 -0.007721290457993745803833007812 0 0 0 0 
2401500000.0000000000 0.156358689069747897049111884371 0.082538463175296783447265625000 0.002418990479782224135157919775 -0.007991744205355644226074218750 0 0 0 0 
2401666666.6666665077 0.156660392880439813811932481258 0.079573340713977813720703125000 0.001878286246210336902021098560 -0.008132703602313995361328125000 0 0 0 0 
2401833333.3333334923 0.157461360096931513030682481258 0.076904222369194030761718750000 0.001485005370341240926029824365 -0.008535557426512241363525390625 0 0 0 0 
2402000000.0000000000 0.158298537135124206542968750000 0.074102386832237243652343750000 0.001249364460818469958064413916 -0.008690202608704566955566406250 0 0 0 0 
2402166666.6666665077 0.158967167139053289215411268742 0.071680247783660888671875000000 0.000732263491954654455184936523 -0.008790768682956695556640625000 0 0 0 0 
2402333333.3333334923 0.160001397132873507400674384371 0.068831019103527069091796875000 0.000277125334832817316055297852 -0.009016548283398151397705078125 0 0 0 0 
2402500000.0000000000 0.161302670836448697189169365629 0.066279329359531402587890625000 -0.000285763933788985013961791992 -0.008887718431651592254638671875 0 0 0 0 
2402666666.6666665077 0.162441208958625793457031250000 0.064194232225418090820312500000 -0.000876889040227979421615600586 -0.008987660519778728485107421875 0 0 0 0 
2402833333.3333334923 0.163733556866645812988281250000 0.061614591628313071514089216407 -0.001171570969745516993879008716 -0.009101544506847858428955078125 0 0 0 0 
2403000000.0000000000 0.165146350860595703125000000000 0.059356808662414550781250000000 -0.001917892834171653010724711841 -0.008945414796471595764160156250 0 0 0 0 
2403166666.6666665077 0.166782438755035400390625000000 0.057150389999151229858398437500 -0.002500103553757071928737021338 -0.008734998293220996856689453125 0 0 0 0 
2403333333.3333334923 0.168195068836212213714276231258 0.054968763142824172973632812500 -0.002844807924702763991114951025 -0.008406781591475009918212890625 0 0 0 0 
2403500000.0000000000 0.169941991567611694335937500000 0.052883923053741462017018903907 -0.003456354839727282957789755713 -0.008267647586762905120849609375 0 0 0 0 
2403666666.6666665077 0.171589538455009488204794365629 0.050939548760652542114257812500 -0.003768816357478498978855752100 -0.007855259813368320465087890625 0 0 0 0 
2403833333.3333334923 0.173267930746078491210937500000 0.049136441200971603393554687500 -0.004073521587997674942016601562 -0.007522767409682273864746093750 0 0 0 0 
2404000000.0000000000 0.174792572855949401855468750000 0.047481775283813476562500000000 -0.004581289365887641906738281250 -0.007131751161068677902221679688 0 0 0 0 
2404166666.6666665077 0.176675319671630887130575615629 0.046272508800029761577565778907 -0.004687218461185693740844726562 -0.006705965381115674972534179688 0 0 0 0 
2404333333.3333334923 0.178068086504936190506143134371 0.044774599373340606689453125000 -0.004914590157568454742431640625 -0.006362654734402894973754882812 0 0 0 0 
2404500000.0000000000 0.179857820272445706466513115629 0.043233878910541527484934221093 -0.004892900120466948422903730176 -0.005906992591917514801025390625 0 0 0 0 
2404666666.6666665077 0.181292057037353487869424384371 0.042285446077585220336914062500 -0.005089188460260629653930664062 -0.005604779813438653945922851562 0 0 0 0 
2404833333.3333334923 0.182925030589103698730468750000 0.041293893009424209594726562500 -0.005118803586810827255249023438 -0.005293047986924648284912109375 0 0 0 0 
2405000000.0000000000 0.184163957834243802169638115629 0.040481969714164726947824846093 -0.005057797301560640335083007812 -0.005007128696888685226440429688 0 0 0 0 
2405166666.6666665077 0.185724422335624694824218750000 0.040113702416419982910156250000 -0.005161059554666280746459960938 -0.004701915197074413299560546875 0 0 0 0 
2405333333.3333334923 0.187112554907798794845419365629 0.039428479969501502300222028907 -0.005139961373060941696166992188 -0.004499363712966442108154296875 0 0 0 0 
2405500000.0000000000 0.188498288393020602127236884371 0.039108186960220336914062500000 -0.005172758828848600387573242188 -0.004161363933235406875610351562 0 0 0 0 
2405666666.6666665077 0.189691528677940396407919365629 0.038719590753316879272460937500 -0.005480637773871421813964843750 -0.004072482232004404067993164062 0 0 0 0 
2405833333.3333334923 0.190973490476608304122763115629 0.038416672497987747192382812500 -0.005404579453170300397391034863 -0.003825715510174632072448730469 0 0 0 0 
2406000000.0000000000 0.191860854625701904296875000000 0.038253877311944961547851562500 -0.005410061683505774411673261426 -0.003714584978297352790832519531 0 0 0 0 
2406166666.6666665077 0.192788735032081604003906250000 0.038119278848171227191965471093 -0.005299025680869817733764648438 -0.003353073960170149803161621094 0 0 0 0 
2406333333.3333334923 0.193788453936576787750567518742 0.038346387445926673198659528907 -0.005865961778908967971801757812 -0.002824086463078856901881552588 0 0 0 0 
2406500000.0000000000 0.194360896944999694824218750000 0.038055464625358581542968750000 -0.005273041315376758575439453125 -0.003270904300734401182887411963 0 0 0 0 
2406666666.6666665077 0.195087477564811706542968750000 0.038223758339881896972656250000 -0.005786136724054813385009765625 -0.002322875661775470213649130713 0 0 0 0 
2406833333.3333334923 0.195499107241630609710369981258 0.038196247071027762676198591407 -0.005210597533732652664184570312 -0.002963057486340403990504599463 0 0 0 0 
2407000000.0000000000 0.195857599377632113357705634371 0.038310278207063681865651716407 -0.005059604998677968978881835938 -0.002034269040450454191920615088 0 0 0 0 
2407166666.6666665077 0.196259364485740689376669365629 0.038035701960325241088867187500 -0.004926945548504590988159179688 -0.001220682519488037066218710791 0 0 0 0 
2407333333.3333334923 0.196105554699897793868856865629 0.038312222808599472045898437500 -0.005452508106827735900878906250 -0.001742312568239867904065776294 0 0 0 0 
2407500000.0000000000 0.196003600955009488204794365629 0.038321670144796371459960937500 -0.005262773018330335617065429688 -0.001630190643481910011888813550 0 0 0 0 
2407666666.6666665077 0.196044459939002990722656250000 0.038117583841085427021067033593 -0.005138500127941370010375976562 -0.001497990684583782932878803784 0 0 0 0 
2407833333.3333334923 0.195478022098541287521200615629 0.038014486432075500488281250000 -0.005125960335135459899902343750 -0.001242255326360464096069335938 0 0 0 0 
2408000000.0000000000 0.195363253355026300628338731258 0.037850644439458847045898437500 -0.004924479871988297376150800488 -0.001096450723707675933837890625 0 0 0 0 
2408166666.6666665077 0.194850325584411593338174384371 0.037501066923141479492187500000 -0.004937659949064254760742187500 -0.000929421861656010150909423828 0 0 0 0 
2408333333.3333334923 0.194285109639167813400106865629 0.036898668855428702617604841407 -0.004862357396632432937622070312 -0.000874698103871196508407592773 0 0 0 0 
2408500000.0000000000 0.193676888942718505859375000000 0.036569036543369293212890625000 -0.004824075382202863693237304688 -0.000885010173078626394271850586 0 0 0 0 
2408666666.6666665077 0.193107411265373202224893134371 0.035971712321043021465261091407 -0.004530385602265596389770507812 -0.000840092776343226432800292969 0 0 0 0 
2408833333.3333334923 0.192392319440841702560263115629 0.035254191607236862182617187500 -0.004404427018016576766967773438 -0.000712807232048362493515014648 0 0 0 0 
2409000000.0000000000 0.191344335675239590743856865629 0.034082949161529541015625000000 -0.004344904329627752304077148438 -0.000659445475321263074874877930 0 0 0 0 
2409166666.6666665077 0.190524756908416803558026231258 0.033028189092874526977539062500 -0.004361771047115325927734375000 -0.000706024293322116136550903320 0 0 0 0 
2409333333.3333334923 0.189638212323188809493856865629 0.031961884349584579467773437500 -0.004293105099350214004516601562 -0.000666299369186162948608398438 0 0 0 0 
2409500000.0000000000 0.188347250223159790039062500000 0.030599331483244899404505545704 -0.004103422630578280362600995801 -0.000705031096003949642181396484 0 0 0 0 
2409666666.6666665077 0.187525510787963894943075615629 0.029190404340624809265136718750 -0.004178422503173351287841796875 -0.000637781631667166948318481445 0 0 0 0 
2409833333.3333334923 0.186484172940254211425781250000 0.027628997340798381460169608204 -0.004210174083709716796875000000 -0.000643188657704740762710571289 0 0 0 0 
2410000000.0000000000 0.185549154877662686446981865629 0.026081893593072891235351562500 -0.004165559541434049606323242188 -0.000610312388744205236434936523 0 0 0 0 
2410166666.6666665077 0.184607133269309997558593750000 0.024016613140702251089075858204 -0.004189985804259777069091796875 -0.000650097383186221122741699219 0 0 0 0 
2410333333.3333334923 0.183581590652465792556924384371 0.022247131913900378835657889454 -0.004312495235353708267211914062 -0.000535748782567679882049560547 0 0 0 0 
2410500000.0000000000 0.182692900300025912185830634371 0.020263621583580970764160156250 -0.004160023760050535202026367188 -0.000497241271659731864929199219 0 0 0 0 
2410666666.6666665077 0.181887865066528292556924384371 0.017987066879868510854700858204 -0.004052906762808561325073242188 -0.000674904091283679008483886719 0 0 0 0 
2410833333.3333334923 0.181161761283874511718750000000 0.015794105827808380126953125000 -0.004283069167286157608032226562 -0.000430747953942045623629969464 0 0 0 0 
2411000000.0000000000 0.180464714765548706054687500000 0.013501428067684170114537423046 -0.004275612998753786087036132812 -0.000771937542594969272613525391 0 0 0 0 
2411166666.6666665077 0.179763436317443903167401231258 0.011327650398015979421595389454 -0.004340423271059989929199218750 -0.000669129076413810253143310547 0 0 0 0 
2411333333.3333334923 0.179279685020446805099325615629 0.008815896697342395782470703125 -0.004284784663468599319458007812 -0.000676124356687068939208984375 0 0 0 0 
2411500000.0000000000 0.178734958171844510177450615629 0.006511189509183168411254882812 -0.004430832806974649429321289062 -0.000518828164786100387573242188 0 0 0 0 
2411666666.6666665077 0.178812563419342013260049384371 0.004104549530893564224243164062 -0.004491650033742189407348632812 -0.000567674753256142139434814453 0 0 0 0 
2411833333.3333334923 0.178280979394912691970986884371 0.001675076549872756004333496094 -0.004635451361536979675292968750 -0.000693748937919735908508300781 0 0 0 0 
2412000000.0000000000 0.178574800491333007812500000000 -0.001004050602205097892163920825 -0.004916341975331307324881269238 -0.000752855150494724512100219727 0 0 0 0 
2412166666.6666665077 0.178639322519302395919638115629 -0.003136539133265614943263388525 -0.005091765429824590682983398438 -0.000524599570780992507934570312 0 0 0 0 
2412333333.3333334923 0.178714528679847689529580634371 -0.005955985281616449356079101562 -0.005330022890120744705200195312 -0.000393325783079490119784754620 0 0 0 0 
2412500000.0000000000 0.179325431585311889648437500000 -0.008073385804891586303710937500 -0.005485957488417625427246093750 -0.000330829410813748782307225360 0 0 0 0 
2412666666.6666665077 0.179758161306381197830361884371 -0.010493805631995199376116367773 -0.005570614710450172424316406250 -0.000032796131563372910022735596 0 0 0 0 
2412833333.3333334923 0.180416241288185091873330634371 -0.012975452467799190175989920704 -0.005826950538903474807739257812 0.000107420310087036300771175246 0 0 0 0 
2413000000.0000000000 0.181235477328300503829794365629 -0.015074069611728189641008945898 -0.006044750567525625228881835938 0.000224906398216262486859998160 0 0 0 0 
2413166666.6666665077 0.181863084435463007171307481258 -0.017345665022730830800989920704 -0.006099988706409931182861328125 0.000581222004257142543792724609 0 0 0 0 
2413333333.3333334923 0.182948336005210904220419365629 -0.019538175314664840698242187500 -0.006278019398450850573067949512 0.000903645413927733898162841797 0 0 0 0 
2413500000.0000000000 0.183859109878540011306924384371 -0.021632166579365730285644531250 -0.006524423137307167053222656250 0.001320153707638382911682128906 0 0 0 0 
2413666666.6666665077 0.185018315911293002029580634371 -0.023801429197192188608189766796 -0.006411056034266948699951171875 0.001639234949834645011304545825 0 0 0 0 
2413833333.3333334923 0.186046585440635708907919365629 -0.025756021961569789541224295704 -0.006531085353344678878784179688 0.001970725366845726966857910156 0 0 0 0 
2414000000.0000000000 0.187108188867568997482138115629 -0.027614293619990348815917968750 -0.006388864945620298385620117188 0.002470393199473619894740439307 0 0 0 0 
2414166666.6666665077 0.188380882143974304199218750000 -0.029297443106770518911341483204 -0.006267734803259372711181640625 0.002785402117297052903416298975 0 0 0 0 
2414333333.3333334923 0.189566329121589688400106865629 -0.031270850449800491333007812500 -0.006159351672977209091186523438 0.003258336801081895828247070312 0 0 0 0 
2414500000.0000000000 0.190644532442092895507812500000 -0.032719112932682037353515625000 -0.005908501800149679183959960938 0.003546840278431773185729980469 0 0 0 0 
2414666666.6666665077 0.191969826817512512207031250000 -0.034188840538263320922851562500 -0.005731393117457628250122070312 0.003841342870146036148071289062 0 0 0 0 
2414833333.3333334923 0.193092867732048006912393134371 -0.035480562597513198852539062500 -0.005377573892474175366873456738 0.004090878181159496307373046875 0 0 0 0 
2415000000.0000000000 0.194171264767646789550781250000 -0.036794189363718032836914062500 -0.005089545622467994689941406250 0.004368014167994260787963867188 0 0 0 0 
2415166666.6666665077 0.195308029651641901214276231258 -0.037817832082510001445729841407 -0.004817652050405740737915039062 0.004508223384618759155273437500 0 0 0 0 
2415333333.3333334923 0.196524426341056795974893134371 -0.038683041930198669433593750000 -0.004657587036490440368652343750 0.004660105798393487930297851562 0 0 0 0 
2415500000.0000000000 0.197520777583122308929119981258 -0.039396047592163092876393903907 -0.004531102720648050308227539062 0.004872504156082868576049804688 0 0 0 0 
2415666666.6666665077 0.198468416929244995117187500000 -0.040247108787298202514648437500 -0.004304730799049139022827148438 0.004909055773168802261352539062 0 0 0 0 
2415833333.3333334923 0.199295058846473693847656250000 -0.040760546922683722759206403907 -0.004060270730406045913696289062 0.005061461590230464935302734375 0 0 0 0 
2416000000.0000000000 0.200138241052627591232138115629 -0.041353683918714523315429687500 -0.003986724186688661575317382812 0.005275496747344732284545898438 0 0 0 0 
2416166666.6666665077 0.200663298368454007247763115629 -0.041856944561004638671875000000 -0.003672247054055333137512207031 0.005324513651430606842041015625 0 0 0 0 
2416333333.3333334923 0.201457515358924893478231865629 -0.042110748589038848876953125000 -0.003482885193079710006713867188 0.005656712222844362258911132812 0 0 0 0 
2416500000.0000000000 0.201773315668106106857138115629 -0.042311958968639366840402971093 -0.003290387103334068818333291162 0.005592665635049343109130859375 0 0 0 0 
2416666666.6666665077 0.202096626162528991699218750000 -0.042707934975624077533762346093 -0.002917398931458591981175088037 0.005898432806134223937988281250 0 0 0 0 
2416833333.3333334923 0.202207118272781399825888115629 -0.042610056698322303081472028907 -0.002702948637306690216064453125 0.006079104728996753692626953125 0 0 0 0 
2417000000.0000000000 0.202248528599739102462606865629 -0.042934667319059371948242187500 -0.002511463360860943794250488281 0.006039319094270467758178710938 0 0 0 0 
2417166666.6666665077 0.201975822448730496505575615629 -0.042867165058851242065429687500 -0.002185180550441145896911621094 0.006357195787131786346435546875 0 0 0 0 
2417333333.3333334923 0.201720878481864901443643134371 -0.042561762034893042827565778907 -0.001887914491817354939104389722 0.006359475199133157730102539062 0 0 0 0 
2417500000.0000000000 0.201380595564842196365518134371 -0.042550187557935721660573591407 -0.001463287393562495925306010669 0.006227939855307340621948242188 0 0 0 0 
2417666666.6666665077 0.200847238302230807205361884371 -0.042549204081296920776367187500 -0.001094396458938718058942485278 0.006290181539952754974365234375 0 0 0 0 
2417833333.3333334923 0.200338855385780306717080634371 -0.042321026325225830078125000000 -0.000917666591703891754150390625 0.006292812526226043701171875000 0 0 0 0 
2418000000.0000000000 0.199642464518547113616619981258 -0.042127139866352081298828125000 -0.000369685876648873090744018555 0.006164318881928920745849609375 0 0 0 0 
2418166666.6666665077 0.198735877871513394454794365629 -0.042105566710233688354492187500 -0.000250928191235288977622985840 0.006062580738216639432425214551 0 0 0 0 
2418333333.3333334923 0.197826087474822998046875000000 -0.041903931647539138793945312500 -0.000013466241398418789560896720 0.005958328489214181900024414062 0 0 0 0 
2418500000.0000000000 0.196790426969528198242187500000 -0.042030613869428641582448591407 0.000175511275301687392309465952 0.005840186495333909988403320312 0 0 0 0 
2418666666.6666665077 0.195771276950836209396200615629 -0.041899062693119049072265625000 0.000547335017472505569458007812 0.005672524683177471160888671875 0 0 0 0 
2418833333.3333334923 0.194528743624687194824218750000 -0.042082805186510092998464216407 0.000661155208945274353027343750 0.005456269718706607818603515625 0 0 0 0 
2419000000.0000000000 0.193174064159393310546875000000 -0.042404890060424811626393903907 0.000868431292474269866943359375 0.005327641963958740234375000000 0 0 0 0 
2419166666.6666665077 0.191854462027549688141192518742 -0.042647622525691993022878278907 0.001119243679568171934840536963 0.005201066378504037857055664062 0 0 0 0 
2419333333.3333334923 0.190431609749794006347656250000 -0.043225854635238647460937500000 0.001274386304430664019343710791 0.004845558665692806243896484375 0 0 0 0 
2419500000.0000000000 0.189033523201942388336505018742 -0.043654885143041610717773437500 0.001310158986598253033281635815 0.004937451332807540893554687500 0 0 0 0 
2419666666.6666665077 0.187369659543037386795205634371 -0.044327646493911743164062500000 0.001351736835204065062879252856 0.004534859675914049148559570312 0 0 0 0 
2419833333.3333334923 0.185890883207321194747763115629 -0.045246664434671401977539062500 0.001403508707880974032758403247 0.004561992362141609191894531250 0 0 0 0 
