# Version 1.00
#
freq[Hz];re:Trc1_S11;im:Trc1_S11;re:Trc2_S21;im:Trc2_S21;
2.400000000000000E+009;1.605809032917023E-001;5.677999183535576E-002;1.420777291059494E-003;3.187183756381273E-003;
2.400166666666667E+009;1.609860211610794E-001;5.534317716956139E-002;1.521491212770343E-003;3.091397695243359E-003;
2.400333333333334E+009;1.608239561319351E-001;5.364221334457398E-002;1.602428383193910E-003;3.199062775820494E-003;
2.400500000000000E+009;1.609993577003479E-001;5.158812552690506E-002;1.767750480212271E-003;3.191232215613127E-003;
2.400666666666667E+009;1.611834615468979E-001;4.989888146519661E-002;1.859235111624003E-003;3.304393729194999E-003;
2.400833333333334E+009;1.613211333751679E-001;4.811397567391396E-002;1.980116823688150E-003;3.476084209978581E-003;
2.401000000000000E+009;1.613467335700989E-001;4.610721766948700E-002;2.368470421060920E-003;3.407408483326435E-003;
2.401166666666667E+009;1.617648601531982E-001;4.431116953492165E-002;2.535243984311819E-003;3.605249337852001E-003;
2.401333333333334E+009;1.620548367500305E-001;4.241438955068588E-002;2.612433396279812E-003;3.367175580933690E-003;
2.401500000000000E+009;1.624487787485123E-001;4.057070240378380E-002;2.927316352725029E-003;3.582486417144537E-003;
2.401666666666667E+009;1.627367287874222E-001;3.872839733958244E-002;3.180491272360086E-003;3.478948958218098E-003;
2.401833333333334E+009;1.630302220582962E-001;3.682183101773262E-002;3.513223957270384E-003;3.463690634816885E-003;
2.402000000000000E+009;1.633912473917007E-001;3.499798476696014E-002;3.636480774730444E-003;3.400921821594238E-003;
2.402166666666667E+009;1.639367491006851E-001;3.322792053222656E-002;3.828160930424929E-003;3.212579991668463E-003;
2.402333333333334E+009;1.644693166017532E-001;3.161123022437096E-002;4.029855132102966E-003;3.151106880977750E-003;
2.402500000000000E+009;1.652344912290573E-001;2.989601902663708E-002;4.360775463283062E-003;3.138335421681404E-003;
2.402666666666667E+009;1.658747792243958E-001;2.851820737123489E-002;4.580067470669746E-003;2.873859368264675E-003;
2.402833333333334E+009;1.663445979356766E-001;2.701263874769211E-002;4.941001068800688E-003;2.624433254823089E-003;
2.403000000000000E+009;1.669992953538895E-001;2.553351223468781E-002;5.094227846711874E-003;2.483364893123508E-003;
2.403166666666667E+009;1.676471978425980E-001;2.401722781360149E-002;5.293946247547865E-003;2.206939505413175E-003;
2.403333333333334E+009;1.684700846672058E-001;2.291580848395824E-002;5.481999367475510E-003;1.936392742209137E-003;
2.403500000000000E+009;1.690595895051956E-001;2.159954234957695E-002;5.677118897438049E-003;1.730491057969630E-003;
2.403666666666667E+009;1.699465960264206E-001;2.021754719316959E-002;5.963390227407217E-003;1.459450926631689E-003;
2.403833333333334E+009;1.708298921585083E-001;1.920080743730068E-002;5.913295783102512E-003;1.109036384150386E-003;
2.404000000000000E+009;1.714292317628861E-001;1.818301901221275E-002;5.918153095990419E-003;8.358322666026652E-004;
2.404166666666667E+009;1.722072362899780E-001;1.709394715726376E-002;6.095017772167921E-003;4.150169261265546E-004;
2.404333333333334E+009;1.728997379541397E-001;1.628104597330093E-002;6.123836152255535E-003;2.604664186947048E-004;
2.404500000000000E+009;1.735887527465820E-001;1.526940986514092E-002;6.083271466195583E-003;-1.386279182042927E-004;
2.404666666666667E+009;1.742425411939621E-001;1.453205384314060E-002;5.968459416180849E-003;-5.092892679385841E-004;
2.404833333333334E+009;1.747896224260330E-001;1.385286822915077E-002;6.145995575934649E-003;-8.492840570397675E-004;
2.405000000000000E+009;1.754382550716400E-001;1.308992970734835E-002;6.094491109251976E-003;-1.140996813774109E-003;
2.405166666666667E+009;1.759938150644302E-001;1.244895532727242E-002;6.095092277973890E-003;-1.221302547492087E-003;
2.405333333333334E+009;1.765674054622650E-001;1.179983280599117E-002;5.917524918913841E-003;-1.810627058148384E-003;
2.405500000000000E+009;1.771015077829361E-001;1.130697876214981E-002;5.864871665835381E-003;-1.898326212540269E-003;
2.405666666666667E+009;1.775958240032196E-001;1.100012101233006E-002;5.649879109114409E-003;-2.189518883824348E-003;
2.405833333333334E+009;1.776735037565231E-001;1.066068839281797E-002;5.631404928863049E-003;-2.421382116153836E-003;
2.406000000000000E+009;1.780174672603607E-001;9.986862540245056E-003;5.254260264337063E-003;-2.556194085627794E-003;
2.406166666666667E+009;1.782167255878449E-001;9.629460051655769E-003;5.317657254636288E-003;-2.830810612067580E-003;
2.406333333333334E+009;1.784722357988358E-001;9.239436127245426E-003;5.080140661448240E-003;-3.104188479483128E-003;
2.406500000000000E+009;1.785507053136826E-001;8.840845897793770E-003;4.973103292286396E-003;-3.247845917940140E-003;
2.406666666666667E+009;1.785236150026321E-001;8.542213588953018E-003;4.740693606436253E-003;-3.377071814611554E-003;
2.406833333333334E+009;1.786463111639023E-001;7.984268479049206E-003;4.511700943112373E-003;-3.586368635296822E-003;
2.407000000000000E+009;1.785877197980881E-001;7.588493172079325E-003;4.249455407261848E-003;-3.777618752792478E-003;
2.407166666666667E+009;1.785604357719421E-001;7.118888664990664E-003;4.178921226412058E-003;-3.889309940859675E-003;
2.407333333333334E+009;1.781948655843735E-001;6.517529953271151E-003;3.961777780205011E-003;-4.077983088791370E-003;
2.407500000000000E+009;1.780090332031250E-001;6.024532485753298E-003;3.901514923200011E-003;-4.247457254678011E-003;
2.407666666666667E+009;1.776899695396423E-001;5.576726980507374E-003;3.576292190700769E-003;-4.320941399782896E-003;
2.407833333333334E+009;1.772189885377884E-001;4.687187261879444E-003;3.360645612701774E-003;-4.403257742524147E-003;
2.408000000000000E+009;1.767027080059052E-001;3.989360760897398E-003;3.231441136449575E-003;-4.441425204277039E-003;
2.408166666666667E+009;1.764565855264664E-001;3.367669414728880E-003;3.016947535797954E-003;-4.448795691132546E-003;
2.408333333333334E+009;1.761346757411957E-001;2.420502947643399E-003;2.831319347023964E-003;-4.674609750509262E-003;
2.408500000000000E+009;1.754645556211472E-001;1.464036875404418E-003;2.554432488977909E-003;-4.558560438454151E-003;
2.408666666666667E+009;1.749306023120880E-001;3.730161115527153E-004;2.583213150501251E-003;-4.573288839310408E-003;
2.408833333333334E+009;1.742413341999054E-001;-7.690179045312107E-004;2.300879452377558E-003;-4.640768747776747E-003;
2.409000000000000E+009;1.736653596162796E-001;-1.858217641711235E-003;2.063637133687735E-003;-4.656771663576365E-003;
2.409166666666667E+009;1.732536256313324E-001;-3.102615475654602E-003;1.974413869902492E-003;-4.579618573188782E-003;
2.409333333333334E+009;1.727209836244583E-001;-4.458772949874401E-003;1.866341219283640E-003;-4.706490784883499E-003;
2.409500000000000E+009;1.719422638416290E-001;-5.732350517064333E-003;1.752595650032163E-003;-4.840872250497341E-003;
2.409666666666667E+009;1.714185029268265E-001;-7.219946477562189E-003;1.417423249222338E-003;-4.675367847084999E-003;
2.409833333333334E+009;1.708142012357712E-001;-8.634285070002079E-003;1.270409324206412E-003;-4.699548706412315E-003;
2.410000000000000E+009;1.703324317932129E-001;-1.016245037317276E-002;1.072723185643554E-003;-4.788725636899471E-003;
2.410166666666667E+009;1.699741333723068E-001;-1.178746949881315E-002;1.042061951011419E-003;-4.697654861956835E-003;
2.410333333333334E+009;1.694495081901550E-001;-1.358367037028074E-002;9.328675805591047E-004;-4.742025863379240E-003;
2.410500000000000E+009;1.692101806402206E-001;-1.534787565469742E-002;9.050294174812734E-004;-4.586516413837671E-003;
2.410666666666667E+009;1.685439795255661E-001;-1.707149110734463E-002;7.367957732640207E-004;-4.612335003912449E-003;
2.410833333333334E+009;1.684261560440064E-001;-1.878311671316624E-002;6.383882719092071E-004;-4.484117031097412E-003;
2.411000000000000E+009;1.680594086647034E-001;-2.075059339404106E-002;5.439560045488179E-004;-4.698265809565783E-003;
2.411166666666667E+009;1.678888648748398E-001;-2.265933901071549E-002;4.486575780902058E-004;-4.603583365678787E-003;
2.411333333333334E+009;1.677044481039047E-001;-2.442228049039841E-002;3.865758189931512E-004;-4.566817544400692E-003;
2.411500000000000E+009;1.677023768424988E-001;-2.634998783469200E-002;3.765485016629100E-004;-4.657815210521221E-003;
2.411666666666667E+009;1.679663360118866E-001;-2.803723886609078E-002;1.531366870040074E-004;-4.590492695569992E-003;
2.411833333333334E+009;1.680026650428772E-001;-3.004180826246738E-002;2.069078764179722E-004;-4.694768693298101E-003;
2.412000000000000E+009;1.680534183979034E-001;-3.184631094336510E-002;-1.725847687339410E-005;-4.856728948652744E-003;
2.412166666666667E+009;1.681675463914871E-001;-3.384676575660706E-002;-2.544173621572554E-004;-4.724125843495131E-003;
2.412333333333334E+009;1.687176227569580E-001;-3.571438416838646E-002;-3.094132989645004E-004;-4.812898114323616E-003;
2.412500000000000E+009;1.687949895858765E-001;-3.744772821664810E-002;-4.620900144800544E-004;-4.732577595859766E-003;
2.412666666666667E+009;1.690852791070938E-001;-3.954666852951050E-002;-6.531472899951041E-004;-4.880438558757305E-003;
2.412833333333334E+009;1.695326715707779E-001;-4.111156240105629E-002;-7.761666201986373E-004;-4.919180646538734E-003;
2.413000000000000E+009;1.698920577764511E-001;-4.271446168422699E-002;-8.821560186333954E-004;-4.796597640961409E-003;
2.413166666666667E+009;1.702530831098557E-001;-4.421670734882355E-002;-8.419175283052027E-004;-4.915027879178524E-003;
2.413333333333334E+009;1.707126051187515E-001;-4.578668624162674E-002;-1.234195893630385E-003;-5.010835360735655E-003;
2.413500000000000E+009;1.712500005960465E-001;-4.741502180695534E-002;-1.417492050677538E-003;-4.899369087070227E-003;
2.413666666666667E+009;1.718898415565491E-001;-4.876400530338287E-002;-1.664962852373719E-003;-4.985332489013672E-003;
2.413833333333334E+009;1.723258942365646E-001;-5.009821057319641E-002;-1.870817155577242E-003;-4.990210756659508E-003;
2.414000000000000E+009;1.725016981363297E-001;-5.138735845685005E-002;-2.027968876063824E-003;-4.769159480929375E-003;
2.414166666666667E+009;1.732955425977707E-001;-5.260640382766724E-002;-2.321813022717834E-003;-4.646216984838247E-003;
2.414333333333334E+009;1.738330572843552E-001;-5.381413921713829E-002;-2.424354432150722E-003;-4.764615558087826E-003;
2.414500000000000E+009;1.744059771299362E-001;-5.470568686723709E-002;-2.506027230992913E-003;-4.503125790506601E-003;
2.414666666666667E+009;1.747100353240967E-001;-5.566665530204773E-002;-2.877926919609308E-003;-4.497155547142029E-003;
2.414833333333334E+009;1.751210689544678E-001;-5.662147328257561E-002;-3.017793875187635E-003;-4.480259492993355E-003;
2.415000000000000E+009;1.753296852111816E-001;-5.731843039393425E-002;-3.314432920888066E-003;-4.298135172575712E-003;
2.415166666666667E+009;1.758510172367096E-001;-5.807814747095108E-002;-3.403662005439401E-003;-4.154445603489876E-003;
2.415333333333334E+009;1.762802749872208E-001;-5.869598686695099E-002;-3.596425754949451E-003;-3.964178264141083E-003;
2.415500000000000E+009;1.764310151338577E-001;-5.913256108760834E-002;-3.786694491282105E-003;-3.829582128673792E-003;
2.415666666666667E+009;1.765297055244446E-001;-5.966824293136597E-002;-3.933370579034090E-003;-3.650096245110035E-003;
2.415833333333334E+009;1.767478883266449E-001;-5.997643992304802E-002;-3.942746669054031E-003;-3.625890705734491E-003;
2.416000000000000E+009;1.765214800834656E-001;-6.047345697879791E-002;-4.121879115700722E-003;-3.335501533001661E-003;
2.416166666666667E+009;1.769227683544159E-001;-6.086502969264984E-002;-4.220634698867798E-003;-3.289081854745746E-003;
2.416333333333334E+009;1.765928268432617E-001;-6.101321429014206E-002;-4.523281939327717E-003;-2.991740126162767E-003;
2.416500000000000E+009;1.764908283948898E-001;-6.139064952731133E-002;-4.492901731282473E-003;-2.843463094905019E-003;
2.416666666666667E+009;1.761661469936371E-001;-6.150912120938301E-002;-4.551530349999666E-003;-2.712000161409378E-003;
2.416833333333334E+009;1.757837086915970E-001;-6.184609234333038E-002;-4.750940017402172E-003;-2.380810678005219E-003;
2.417000000000000E+009;1.752927601337433E-001;-6.209667399525642E-002;-4.819511435925961E-003;-2.237306674942374E-003;
2.417166666666667E+009;1.747087687253952E-001;-6.226476281881332E-002;-4.911034833639860E-003;-1.940973219461739E-003;
2.417333333333334E+009;1.740903109312058E-001;-6.235055625438690E-002;-4.996476229280233E-003;-1.663287170231342E-003;
2.417500000000000E+009;1.735365688800812E-001;-6.274589896202087E-002;-5.016895942389965E-003;-1.481872634030879E-003;
2.417666666666667E+009;1.727424710988998E-001;-6.273015588521957E-002;-5.035162903368473E-003;-1.343642594292760E-003;
2.417833333333334E+009;1.718418449163437E-001;-6.315399706363678E-002;-5.005585495382547E-003;-1.089651719667018E-003;
2.418000000000000E+009;1.708619147539139E-001;-6.343330442905426E-002;-5.057028494775295E-003;-8.418564102612436E-004;
2.418166666666667E+009;1.698940694332123E-001;-6.377622485160828E-002;-4.916116595268250E-003;-6.751644541509450E-004;
2.418333333333334E+009;1.691631823778153E-001;-6.430125981569290E-002;-5.018899217247963E-003;-5.526438471861184E-004;
2.418500000000000E+009;1.679088771343231E-001;-6.460317224264145E-002;-5.099955946207047E-003;-3.008648345712572E-004;
2.418666666666667E+009;1.669487506151199E-001;-6.514567881822586E-002;-4.947143606841564E-003;-2.328244154341519E-004;
2.418833333333334E+009;1.655424982309341E-001;-6.572724878787994E-002;-4.801697097718716E-003;-3.826193642453291E-005;
2.419000000000000E+009;1.645090579986572E-001;-6.628692895174027E-002;-4.861376713961363E-003;1.555699709570035E-004;
2.419166666666667E+009;1.633920520544052E-001;-6.688314676284790E-002;-4.915900528430939E-003;3.558225580491126E-004;
2.419333333333334E+009;1.620499640703201E-001;-6.750037521123886E-002;-4.782393109053373E-003;4.004455986432731E-004;
2.419500000000000E+009;1.608372181653976E-001;-6.853850185871124E-002;-4.869873635470867E-003;7.953741005621851E-004;
2.419666666666667E+009;1.597090810537338E-001;-6.944087147712708E-002;-4.758121911436319E-003;9.280466474592686E-004;
2.419833333333334E+009;1.583780497312546E-001;-7.040300220251083E-002;-4.657872486859560E-003;1.145057845860720E-003;
2.420000000000000E+009;1.574146151542664E-001;-7.144072651863098E-002;-4.609952680766583E-003;1.274458598345518E-003;
2.420166666666667E+009;1.561189740896225E-001;-7.253915816545487E-002;-4.516800865530968E-003;1.459978288039565E-003;
2.420333333333334E+009;1.550830900669098E-001;-7.377492636442184E-002;-4.315078258514404E-003;1.643082476221025E-003;
2.420500000000000E+009;1.542000025510788E-001;-7.522223889827728E-002;-4.381294362246990E-003;1.647196477279067E-003;
2.420666666666667E+009;1.530356258153915E-001;-7.633670419454575E-002;-4.128236789256334E-003;1.956643303856254E-003;
2.420833333333334E+009;1.522383689880371E-001;-7.777479290962219E-002;-4.063038155436516E-003;1.983139431104064E-003;
2.421000000000000E+009;1.512809693813324E-001;-7.940849661827087E-002;-3.910469822585583E-003;2.184748649597168E-003;
2.421166666666667E+009;1.506837755441666E-001;-8.086479455232620E-002;-3.864890430122614E-003;2.398710697889328E-003;
2.421333333333334E+009;1.499396860599518E-001;-8.233282715082169E-002;-3.537753829732537E-003;2.356487791985273E-003;
2.421500000000000E+009;1.491585075855255E-001;-8.389255404472351E-002;-3.614197019487619E-003;2.471056999638677E-003;
2.421666666666667E+009;1.486802399158478E-001;-8.560595661401749E-002;-3.306110389530659E-003;2.797191729769111E-003;
2.421833333333334E+009;1.482335031032562E-001;-8.734127879142761E-002;-3.095753956586123E-003;2.754082204774022E-003;
2.422000000000000E+009;1.477116197347641E-001;-8.903873711824417E-002;-2.977954456582665E-003;2.958337077870965E-003;
2.422166666666667E+009;1.472058296203613E-001;-9.076580405235291E-002;-2.857158659026027E-003;3.009540960192680E-003;
2.422333333333334E+009;1.471744328737259E-001;-9.226769208908081E-002;-2.457977738231421E-003;3.121841233223677E-003;
2.422500000000000E+009;1.468476951122284E-001;-9.398195147514343E-002;-2.374796196818352E-003;3.076042281463742E-003;
2.422666666666667E+009;1.467022895812988E-001;-9.576135128736496E-002;-2.279299544170499E-003;3.005636855959892E-003;
2.422833333333334E+009;1.467977017164230E-001;-9.766105562448502E-002;-1.926927943713963E-003;3.093171864748001E-003;
2.423000000000000E+009;1.467432826757431E-001;-9.922944009304047E-002;-1.903312397189438E-003;3.163296962156892E-003;
2.423166666666667E+009;1.469702869653702E-001;-1.008467897772789E-001;-1.795187476091087E-003;3.161679720506072E-003;
2.423333333333334E+009;1.471860110759735E-001;-1.021961495280266E-001;-1.611824030987918E-003;3.022770630195737E-003;
2.423500000000000E+009;1.472831368446350E-001;-1.039193123579025E-001;-1.435171230696142E-003;3.044445300474763E-003;
2.423666666666667E+009;1.473459452390671E-001;-1.055466905236244E-001;-1.112579251639545E-003;3.131327452138066E-003;
2.423833333333334E+009;1.477843075990677E-001;-1.069860011339188E-001;-9.928416693583131E-004;2.979405689984560E-003;
2.424000000000000E+009;1.480513364076614E-001;-1.081872582435608E-001;-8.638826548121870E-004;3.078484907746315E-003;
2.424166666666667E+009;1.485034227371216E-001;-1.096387729048729E-001;-8.165230392478406E-004;2.946043852716684E-003;
2.424333333333334E+009;1.489143967628479E-001;-1.108342409133911E-001;-6.793350330553949E-004;2.813550177961588E-003;
2.424500000000000E+009;1.492947936058044E-001;-1.120616644620895E-001;-6.117246230132878E-004;2.875211881473661E-003;
2.424666666666667E+009;1.496822386980057E-001;-1.128927990794182E-001;-5.485964938998222E-004;2.695557661354542E-003;
2.424833333333334E+009;1.499768495559692E-001;-1.140912100672722E-001;-3.606720711104572E-004;2.651364309713244E-003;
2.425000000000000E+009;1.504185199737549E-001;-1.150691211223602E-001;-1.115881677833386E-004;2.654238371178508E-003;
2.425166666666667E+009;1.506588757038117E-001;-1.159216091036797E-001;-2.404125407338142E-004;2.513888990506530E-003;
2.425333333333334E+009;1.509505659341812E-001;-1.166645511984825E-001;-2.039553510257974E-004;2.489925595000386E-003;
2.425500000000000E+009;1.512103676795960E-001;-1.175482720136643E-001;1.453334261896089E-004;2.371693029999733E-003;
2.425666666666667E+009;1.512770801782608E-001;-1.182662993669510E-001;1.798836892703548E-004;2.508818870410323E-003;
2.425833333333334E+009;1.516664326190949E-001;-1.185664311051369E-001;2.939777041319758E-004;2.362144645303488E-003;
2.426000000000000E+009;1.517781466245651E-001;-1.191804781556130E-001;2.483706921339035E-004;2.176292240619659E-003;
2.426166666666667E+009;1.520050466060638E-001;-1.195585802197456E-001;1.937324705068022E-004;2.170459832996130E-003;
2.426333333333334E+009;1.519631445407867E-001;-1.200204119086266E-001;2.672644914127886E-004;2.065479056909680E-003;
2.426500000000000E+009;1.519265174865723E-001;-1.202553808689117E-001;2.659894234966487E-004;2.094113267958164E-003;
2.426666666666667E+009;1.518186777830124E-001;-1.203893870115280E-001;3.730753669515252E-004;1.860869815573096E-003;
2.426833333333334E+009;1.515775322914124E-001;-1.207208484411240E-001;4.032448050566018E-004;1.916464883834124E-003;
2.427000000000000E+009;1.512200087308884E-001;-1.209250092506409E-001;4.198813985567540E-004;1.815568772144616E-003;
2.427166666666667E+009;1.507904231548309E-001;-1.209815815091133E-001;5.131459911353886E-004;1.615053974092007E-003;
2.427333333333334E+009;1.503834873437882E-001;-1.212587505578995E-001;4.416937299538404E-004;1.617873553186655E-003;
2.427500000000000E+009;1.499934196472168E-001;-1.212828308343887E-001;5.192195530980825E-004;1.537656295113266E-003;
2.427666666666667E+009;1.492360383272171E-001;-1.214370056986809E-001;5.184928304515779E-004;1.571523258462548E-003;
