# Version 1.00
#
freq[Hz];re:Trc1_S11;im:Trc1_S11;re:Trc2_S21;im:Trc2_S21;
2.400000000000000E+009;1.606487482786179E-001;5.684232339262962E-002;1.226304448209703E-003;2.932734787464142E-003;
2.400166666666667E+009;1.608058065176010E-001;5.530175194144249E-002;1.482327585108578E-003;3.157663159072399E-003;
2.400333333333334E+009;1.607610434293747E-001;5.347640067338944E-002;1.588946441188455E-003;3.212945070117712E-003;
2.400500000000000E+009;1.610191911458969E-001;5.168418958783150E-002;1.504547544755042E-003;3.118552966043353E-003;
2.400666666666667E+009;1.610835492610931E-001;4.983260855078697E-002;1.730503165163100E-003;3.273128531873226E-003;
2.400833333333334E+009;1.613105386495590E-001;4.812990501523018E-002;1.952158752828836E-003;3.400167450308800E-003;
2.401000000000000E+009;1.614093780517578E-001;4.623492434620857E-002;2.129619941115379E-003;3.506371285766363E-003;
2.401166666666667E+009;1.616227626800537E-001;4.437074437737465E-002;2.312691882252693E-003;3.494928125292063E-003;
2.401333333333334E+009;1.619497835636139E-001;4.239699617028236E-002;2.717051887884736E-003;3.499230602756143E-003;
2.401500000000000E+009;1.623741835355759E-001;4.049513489007950E-002;2.900032559409738E-003;3.496796358376741E-003;
2.401666666666667E+009;1.625957489013672E-001;3.884193673729897E-002;3.178673330694437E-003;3.522071754559875E-003;
2.401833333333334E+009;1.630998700857163E-001;3.684136644005776E-002;3.474806202575564E-003;3.500964725390077E-003;
2.402000000000000E+009;1.634466946125031E-001;3.486565127968788E-002;3.610299434512854E-003;3.285162849351764E-003;
2.402166666666667E+009;1.637866497039795E-001;3.331664577126503E-002;3.747981507331133E-003;3.465455258265138E-003;
2.402333333333334E+009;1.644820123910904E-001;3.159671276807785E-002;4.174219910055399E-003;3.051044885069132E-003;
2.402500000000000E+009;1.652350723743439E-001;2.999225445091724E-002;4.361791536211968E-003;2.992721972987056E-003;
2.402666666666667E+009;1.657912284135819E-001;2.856113947927952E-002;4.575601778924465E-003;2.865096786990762E-003;
2.402833333333334E+009;1.661363989114761E-001;2.700532227754593E-002;4.761671647429466E-003;2.656785072758794E-003;
2.403000000000000E+009;1.667945981025696E-001;2.549325115978718E-002;5.055214744061232E-003;2.522843889892101E-003;
2.403166666666667E+009;1.678096950054169E-001;2.425354160368443E-002;5.288784857839346E-003;2.171536674723029E-003;
2.403333333333334E+009;1.685656160116196E-001;2.282246574759483E-002;5.588456988334656E-003;2.135481219738722E-003;
2.403500000000000E+009;1.691800504922867E-001;2.161487191915512E-002;5.509784910827875E-003;1.751289935782552E-003;
2.403666666666667E+009;1.698946505784988E-001;2.016032673418522E-002;5.826709792017937E-003;1.416485174559057E-003;
2.403833333333334E+009;1.707888692617416E-001;1.903861388564110E-002;5.750115960836411E-003;1.163072651252151E-003;
2.404000000000000E+009;1.712919771671295E-001;1.803003065288067E-002;6.193900946527720E-003;8.630413212813437E-004;
2.404166666666667E+009;1.721881031990051E-001;1.705443114042282E-002;6.147154606878758E-003;6.032357341609895E-004;
2.404333333333334E+009;1.727255731821060E-001;1.619083061814308E-002;6.151525769382715E-003;1.995985658140853E-004;
2.404500000000000E+009;1.734032928943634E-001;1.527199801057577E-002;6.145113147795200E-003;-1.901220675790682E-004;
2.404666666666667E+009;1.740624755620956E-001;1.456521824002266E-002;6.241457071155310E-003;-3.361765411682427E-004;
2.404833333333334E+009;1.748477518558502E-001;1.376925222575665E-002;6.241546943783760E-003;-6.419048877432942E-004;
2.405000000000000E+009;1.754410266876221E-001;1.302063651382923E-002;6.093383766710758E-003;-1.135816914029419E-003;
2.405166666666667E+009;1.760668903589249E-001;1.241858582943678E-002;6.107825785875320E-003;-1.452903728932142E-003;
2.405333333333334E+009;1.765476912260056E-001;1.183471735566855E-002;5.836852826178074E-003;-1.443218206986785E-003;
2.405500000000000E+009;1.769626438617706E-001;1.117642410099506E-002;5.710226483643055E-003;-1.768662361428142E-003;
2.405666666666667E+009;1.773927807807922E-001;1.101714000105858E-002;5.624446086585522E-003;-2.110864734277129E-003;
2.405833333333334E+009;1.776802986860275E-001;1.054131519049406E-002;5.692122969776392E-003;-2.369914203882217E-003;
2.406000000000000E+009;1.781091988086700E-001;9.861330501735210E-003;5.304706282913685E-003;-2.585039241239429E-003;
2.406166666666667E+009;1.781783103942871E-001;9.711342863738537E-003;5.289581138640642E-003;-2.852115081623197E-003;
2.406333333333334E+009;1.784330755472183E-001;9.299431927502155E-003;5.063710268586874E-003;-3.068316262215376E-003;
2.406500000000000E+009;1.786216050386429E-001;8.854736573994160E-003;4.923292901366949E-003;-3.218834986910224E-003;
2.406666666666667E+009;1.784869283437729E-001;8.406024426221848E-003;4.793349653482437E-003;-3.484070533886552E-003;
2.406833333333334E+009;1.785235553979874E-001;8.005139417946339E-003;4.560502711683512E-003;-3.689917270094156E-003;
2.407000000000000E+009;1.785051524639130E-001;7.637119852006435E-003;4.373765084892511E-003;-3.811025992035866E-003;
2.407166666666667E+009;1.785593032836914E-001;7.142711430788040E-003;4.260512068867683E-003;-3.805123502388597E-003;
2.407333333333334E+009;1.782963275909424E-001;6.592427846044302E-003;3.911790437996388E-003;-3.883113386109471E-003;
2.407500000000000E+009;1.780223995447159E-001;6.073672790080309E-003;3.868055762723088E-003;-4.057626705616713E-003;
2.407666666666667E+009;1.776856333017349E-001;5.486033391207457E-003;3.691667690873146E-003;-4.208471160382032E-003;
2.407833333333334E+009;1.772764176130295E-001;4.672874696552753E-003;3.431759309023619E-003;-4.262074828147888E-003;
2.408000000000000E+009;1.769672036170960E-001;3.935919608920813E-003;3.346629207953811E-003;-4.455894231796265E-003;
2.408166666666667E+009;1.763823181390762E-001;3.293371060863137E-003;3.162196837365627E-003;-4.495888017117977E-003;
2.408333333333334E+009;1.761229187250137E-001;2.422235440462828E-003;3.004018217325211E-003;-4.680070560425520E-003;
2.408500000000000E+009;1.755569428205490E-001;1.444307737983763E-003;2.702646190300584E-003;-4.489774815738201E-003;
2.408666666666667E+009;1.749944537878037E-001;4.395213909447193E-004;2.450515516102314E-003;-4.629613365978003E-003;
2.408833333333334E+009;1.742455661296845E-001;-6.766058504581451E-004;2.365778433158994E-003;-4.708415362983942E-003;
2.409000000000000E+009;1.738344281911850E-001;-1.761205261573196E-003;2.166391117498279E-003;-4.645822104066610E-003;
2.409166666666667E+009;1.732263118028641E-001;-3.150535747408867E-003;1.892267144285142E-003;-4.763212986290455E-003;
2.409333333333334E+009;1.725798100233078E-001;-4.471069667488337E-003;1.768304733559489E-003;-4.647248890250921E-003;
2.409500000000000E+009;1.720553338527679E-001;-5.872255656868219E-003;1.639452413655818E-003;-4.727606661617756E-003;
2.409666666666667E+009;1.714334487915039E-001;-7.431806530803442E-003;1.418103347532451E-003;-4.612993914633989E-003;
2.409833333333334E+009;1.709187775850296E-001;-8.829848840832710E-003;1.340939546935260E-003;-4.657486453652382E-003;
2.410000000000000E+009;1.705233454704285E-001;-1.031869463622570E-002;1.015933463349938E-003;-4.708773922175169E-003;
2.410166666666667E+009;1.700405925512314E-001;-1.185438130050898E-002;1.124329864978790E-003;-4.575796891003847E-003;
2.410333333333334E+009;1.692871898412705E-001;-1.355159562081099E-002;1.033663051202893E-003;-4.563004709780216E-003;
2.410500000000000E+009;1.690587103366852E-001;-1.523539703339338E-002;8.765592356212437E-004;-4.577285144478083E-003;
2.410666666666667E+009;1.686324626207352E-001;-1.721564307808876E-002;6.736111245118082E-004;-4.528200719505549E-003;
2.410833333333334E+009;1.683606952428818E-001;-1.895604468882084E-002;7.468117983080447E-004;-4.544624127447605E-003;
2.411000000000000E+009;1.682212799787521E-001;-2.069501578807831E-002;7.330212974920869E-004;-4.707009531557560E-003;
2.411166666666667E+009;1.678530275821686E-001;-2.269780077040196E-002;5.636982969008386E-004;-4.594312515109778E-003;
2.411333333333334E+009;1.677808463573456E-001;-2.456179447472096E-002;5.894334753975272E-004;-4.486820194870234E-003;
2.411500000000000E+009;1.676908433437347E-001;-2.640869468450546E-002;4.215407534502447E-004;-4.569172859191895E-003;
2.411666666666667E+009;1.678481847047806E-001;-2.822990529239178E-002;3.739940584637225E-004;-4.582004621624947E-003;
2.411833333333334E+009;1.677990108728409E-001;-3.010257892310619E-002;1.128412186517380E-004;-4.608444869518280E-003;
2.412000000000000E+009;1.681615561246872E-001;-3.200207650661469E-002;4.282846930436790E-005;-4.649894777685404E-003;
2.412166666666667E+009;1.680520325899124E-001;-3.390624374151230E-002;1.939195863087662E-005;-4.832204896956682E-003;
2.412333333333334E+009;1.686214804649353E-001;-3.563332557678223E-002;-1.373167324345559E-004;-4.721493925899267E-003;
2.412500000000000E+009;1.687867790460587E-001;-3.742825239896774E-002;-2.583435853011906E-004;-4.734687507152557E-003;
2.412666666666667E+009;1.691889464855194E-001;-3.923337161540985E-002;-4.350174276623875E-004;-4.836339969187975E-003;
2.412833333333334E+009;1.695404946804047E-001;-4.105934500694275E-002;-7.060050265863538E-004;-4.875991959124804E-003;
2.413000000000000E+009;1.698946654796600E-001;-4.276753589510918E-002;-7.188366726040840E-004;-4.852155223488808E-003;
2.413166666666667E+009;1.702310144901276E-001;-4.436717182397842E-002;-8.820579387247562E-004;-4.871102515608072E-003;
2.413333333333334E+009;1.707159727811813E-001;-4.570670053362846E-002;-1.048594596795738E-003;-4.962385632097721E-003;
2.413500000000000E+009;1.711361110210419E-001;-4.744442924857140E-002;-1.328449230641127E-003;-4.779584705829620E-003;
2.413666666666667E+009;1.717949658632278E-001;-4.870916903018951E-002;-1.623670221306384E-003;-4.905897192656994E-003;
2.413833333333334E+009;1.721609979867935E-001;-5.015102773904800E-002;-1.895678113214672E-003;-4.805183038115501E-003;
2.414000000000000E+009;1.726823747158051E-001;-5.148853734135628E-002;-1.920179696753621E-003;-4.846164025366306E-003;
2.414166666666667E+009;1.732510328292847E-001;-5.258175358176231E-002;-2.238837303593755E-003;-4.834666382521391E-003;
2.414333333333334E+009;1.737287193536758E-001;-5.378939583897591E-002;-2.504804870113730E-003;-4.654424265027046E-003;
2.414500000000000E+009;1.744660437107086E-001;-5.486574396491051E-002;-2.618168015033007E-003;-4.514339379966259E-003;
2.414666666666667E+009;1.747821718454361E-001;-5.565581843256950E-002;-2.779442816972733E-003;-4.480421077460051E-003;
2.414833333333334E+009;1.750983297824860E-001;-5.670600011944771E-002;-2.941792597994208E-003;-4.430471453815699E-003;
2.415000000000000E+009;1.755838543176651E-001;-5.730104818940163E-002;-3.120937151834369E-003;-4.194715060293675E-003;
2.415166666666667E+009;1.758903115987778E-001;-5.798059701919556E-002;-3.385368734598160E-003;-4.096864257007837E-003;
2.415333333333334E+009;1.761637032032013E-001;-5.878212675452232E-002;-3.416652791202068E-003;-3.979842644184828E-003;
2.415500000000000E+009;1.764674633741379E-001;-5.933318287134171E-002;-3.735256148502231E-003;-3.881290089339018E-003;
2.415666666666667E+009;1.765842586755753E-001;-5.961155518889427E-002;-3.847319865599275E-003;-3.802218008786440E-003;
2.415833333333334E+009;1.767942458391190E-001;-6.009604036808014E-002;-4.047999624162912E-003;-3.530815243721008E-003;
2.416000000000000E+009;1.766288429498673E-001;-6.055395677685738E-002;-4.046610090881586E-003;-3.330877516418695E-003;
2.416166666666667E+009;1.767773628234863E-001;-6.084191054105759E-002;-4.178745206445456E-003;-3.159757005050778E-003;
2.416333333333334E+009;1.766197979450226E-001;-6.114907935261726E-002;-4.466393031179905E-003;-2.963066333904862E-003;
2.416500000000000E+009;1.764022707939148E-001;-6.138230487704277E-002;-4.506046883761883E-003;-2.813865430653095E-003;
2.416666666666667E+009;1.760971099138260E-001;-6.164716929197311E-002;-4.596492275595665E-003;-2.599090570583940E-003;
2.416833333333334E+009;1.758315116167069E-001;-6.186540052294731E-002;-4.684856161475182E-003;-2.225830219686031E-003;
2.417000000000000E+009;1.752166748046875E-001;-6.209027394652367E-002;-4.735752474516630E-003;-2.178326481953263E-003;
2.417166666666667E+009;1.748023778200150E-001;-6.220915541052818E-002;-4.923416767269373E-003;-1.947970828041434E-003;
2.417333333333334E+009;1.742021739482880E-001;-6.240765377879143E-002;-4.732158500701189E-003;-1.663742703385651E-003;
2.417500000000000E+009;1.734368354082108E-001;-6.288082152605057E-002;-4.985485225915909E-003;-1.535865594632924E-003;
2.417666666666667E+009;1.728210598230362E-001;-6.289461255073547E-002;-4.856426268815994E-003;-1.409800956025720E-003;
2.417833333333334E+009;1.718982309103012E-001;-6.321711838245392E-002;-5.064090248197317E-003;-1.162945176474750E-003;
2.418000000000000E+009;1.709442585706711E-001;-6.364031136035919E-002;-4.950851202011108E-003;-8.708970271982253E-004;
2.418166666666667E+009;1.699114292860031E-001;-6.377530097961426E-002;-4.772854037582874E-003;-7.635541842319071E-004;
2.418333333333334E+009;1.690651476383209E-001;-6.424043327569962E-002;-4.913786891847849E-003;-5.408150027506053E-004;
2.418500000000000E+009;1.678195893764496E-001;-6.472527235746384E-002;-4.748785868287087E-003;-4.246175230946392E-004;
2.418666666666667E+009;1.669970154762268E-001;-6.515259295701981E-002;-4.908275790512562E-003;-1.139823070843704E-004;
2.418833333333334E+009;1.657059937715530E-001;-6.584675610065460E-002;-4.788902588188648E-003;-5.765137029811740E-005;
2.419000000000000E+009;1.643387079238892E-001;-6.639182567596436E-002;-4.600781481713057E-003;3.845531900878996E-004;
2.419166666666667E+009;1.633471548557282E-001;-6.709320098161697E-002;-4.807177931070328E-003;3.630882129073143E-004;
2.419333333333334E+009;1.619196087121964E-001;-6.774700433015823E-002;-4.690238740295172E-003;4.427467356435955E-004;
2.419500000000000E+009;1.606907546520233E-001;-6.859576702117920E-002;-4.656353499740362E-003;8.386396802961826E-004;
2.419666666666667E+009;1.596217304468155E-001;-6.960169225931168E-002;-4.531715065240860E-003;8.260202594101429E-004;
2.419833333333334E+009;1.584440171718597E-001;-7.036353647708893E-002;-4.472902975976467E-003;1.202490762807429E-003;
2.420000000000000E+009;1.572973877191544E-001;-7.153689116239548E-002;-4.447647370398045E-003;1.260871184058487E-003;
2.420166666666667E+009;1.561818122863770E-001;-7.266544550657272E-002;-4.199802409857512E-003;1.371058402583003E-003;
2.420333333333334E+009;1.550945490598679E-001;-7.401298731565476E-002;-4.105412401258946E-003;1.480998820625246E-003;
2.420500000000000E+009;1.541099846363068E-001;-7.501811534166336E-002;-4.126671236008406E-003;1.565518672578037E-003;
2.420666666666667E+009;1.530252099037170E-001;-7.634130120277405E-002;-4.064063075929880E-003;1.956850523129106E-003;
2.420833333333334E+009;1.522836387157440E-001;-7.794680446386337E-002;-3.864844795316458E-003;1.992868725210428E-003;
2.421000000000000E+009;1.512682437896729E-001;-7.931891828775406E-002;-3.736361861228943E-003;2.066189656034112E-003;
2.421166666666667E+009;1.505455523729324E-001;-8.090279251337051E-002;-3.591392422094941E-003;2.348450478166342E-003;
2.421333333333334E+009;1.498913466930389E-001;-8.237955719232559E-002;-3.452558070421219E-003;2.443854231387377E-003;
2.421500000000000E+009;1.489931643009186E-001;-8.387248963117600E-002;-3.377068089321256E-003;2.504024654626846E-003;
2.421666666666667E+009;1.483599394559860E-001;-8.555264025926590E-002;-3.146825358271599E-003;2.655305434018374E-003;
2.421833333333334E+009;1.480876058340073E-001;-8.716554194688797E-002;-3.169941715896130E-003;2.733474131673574E-003;
2.422000000000000E+009;1.476198285818100E-001;-8.892522752285004E-002;-2.862632740288973E-003;2.832991769537330E-003;
2.422166666666667E+009;1.472953110933304E-001;-9.086417406797409E-002;-2.649868838489056E-003;2.949156332761049E-003;
2.422333333333334E+009;1.471839994192123E-001;-9.234213083982468E-002;-2.599366707727313E-003;3.015077440068126E-003;
2.422500000000000E+009;1.468609124422073E-001;-9.405244886875153E-002;-2.466355683282018E-003;3.006757237017155E-003;
2.422666666666667E+009;1.466682702302933E-001;-9.575209021568298E-002;-2.194039057940245E-003;2.961945021525025E-003;
2.422833333333334E+009;1.466942429542542E-001;-9.755709022283554E-002;-2.045151777565479E-003;3.108749631792307E-003;
2.423000000000000E+009;1.467599421739578E-001;-9.919361770153046E-002;-2.035688841715455E-003;3.049060935154557E-003;
2.423166666666667E+009;1.470436006784439E-001;-1.007005572319031E-001;-1.695244573056698E-003;3.110407618805766E-003;
2.423333333333334E+009;1.471514105796814E-001;-1.022118926048279E-001;-1.387041877023876E-003;3.051387378945947E-003;
2.423500000000000E+009;1.473180651664734E-001;-1.039096117019653E-001;-1.279815565794706E-003;2.915716962888837E-003;
2.423666666666667E+009;1.474738717079163E-001;-1.054457798600197E-001;-1.313244807533920E-003;3.073828527703881E-003;
2.423833333333334E+009;1.479707509279251E-001;-1.069566756486893E-001;-1.141262822784483E-003;2.870336174964905E-003;
2.424000000000000E+009;1.481544226408005E-001;-1.082054227590561E-001;-9.307423606514931E-004;2.903862390667200E-003;
2.424166666666667E+009;1.484997272491455E-001;-1.096867024898529E-001;-8.105018641799688E-004;2.935774158686400E-003;
2.424333333333334E+009;1.487628221511841E-001;-1.107937917113304E-001;-7.870644330978394E-004;2.896049991250038E-003;
2.424500000000000E+009;1.493000984191895E-001;-1.120954677462578E-001;-5.750619457103312E-004;2.842795103788376E-003;
2.424666666666667E+009;1.497820168733597E-001;-1.129460111260414E-001;-5.080640548840165E-004;2.776308683678508E-003;
2.424833333333334E+009;1.499947160482407E-001;-1.141820028424263E-001;-3.484249464236200E-004;2.728970721364021E-003;
2.425000000000000E+009;1.504499018192291E-001;-1.150974631309509E-001;-3.345219010952860E-004;2.508217468857765E-003;
2.425166666666667E+009;1.505575627088547E-001;-1.159203723073006E-001;-1.872349821496755E-004;2.662189770489931E-003;
2.425333333333334E+009;1.509436517953873E-001;-1.168667003512383E-001;-6.981123442528769E-005;2.556963590905070E-003;
2.425500000000000E+009;1.512854397296906E-001;-1.176026314496994E-001;1.094897816074081E-004;2.649931702762842E-003;
2.425666666666667E+009;1.514172852039337E-001;-1.181528344750404E-001;-2.410256638540886E-005;2.421902026981115E-003;
2.425833333333334E+009;1.516708731651306E-001;-1.187893077731133E-001;3.590884443838149E-004;2.331508556380868E-003;
2.426000000000000E+009;1.517151296138763E-001;-1.192953139543533E-001;2.643923799041659E-004;2.271306701004505E-003;
2.426166666666667E+009;1.519109606742859E-001;-1.197879314422607E-001;3.152613644488156E-004;2.274955157190561E-003;
2.426333333333334E+009;1.517738103866577E-001;-1.201362684369087E-001;3.772012714762241E-004;2.163392724469304E-003;
2.426500000000000E+009;1.518098115921021E-001;-1.202763989567757E-001;4.677233227994293E-004;2.063554711639881E-003;
2.426666666666667E+009;1.517881453037262E-001;-1.204599961638451E-001;4.303941968828440E-004;1.946487696841359E-003;
2.426833333333334E+009;1.514811515808106E-001;-1.208201944828033E-001;4.605206486303359E-004;1.816526055335999E-003;
2.427000000000000E+009;1.511362344026566E-001;-1.210204139351845E-001;5.413621547631919E-004;1.894764951430261E-003;
2.427166666666667E+009;1.507202088832855E-001;-1.210117265582085E-001;5.455010104924440E-004;1.553728943690658E-003;
2.427333333333334E+009;1.502418965101242E-001;-1.211554408073425E-001;5.875321221537888E-004;1.725874608382583E-003;
2.427500000000000E+009;1.499221622943878E-001;-1.212878450751305E-001;4.960743826813996E-004;1.679467619396746E-003;
2.427666666666667E+009;1.492296308279038E-001;-1.214899644255638E-001;6.072617834433913E-004;1.424566842615604E-003;
