# Hz S RI R 
2400000000.0000000000 0.154932662844657897949218750000 0.107144929468631702751402201557 -0.005343418102711439132690429688 0.003201299812644720077514648438 0 0 0 0 
2400166666.6666665077 0.155211701989173889160156250000 0.104985557496547698974609375000 -0.004657149780541658401489257812 0.003773629665374755859375000000 0 0 0 0 
2400333333.3333334923 0.154759332537651089767294365629 0.102494165301322895378355326557 -0.004864567425101996335501386426 0.003958100918680430325979902051 0 0 0 0 
2400500000.0000000000 0.155953332781791687011718750000 0.099866226315498352050781250000 -0.003596079070121049880981445312 0.003875571303069591955897665869 0 0 0 0 
2400666666.6666665077 0.156042829155921908279580634371 0.096222959458827972412109375000 -0.003255619434639811949488974463 0.003113915910944343046901083838 0 0 0 0 
2400833333.3333334923 0.154813572764396695236044365629 0.094602227210998535156250000000 -0.004401586018502712249755859375 0.004202173091471195220947265625 0 0 0 0 
2401000000.0000000000 0.155118167400360107421875000000 0.090968430042266845703125000000 -0.004021716304123401641845703125 0.003678492503240704970118857275 0 0 0 0 
2401166666.6666665077 0.155331775546073913574218750000 0.088137976825237274169921875000 -0.003841419471427797837498330225 0.003555036149919033050537109375 0 0 0 0 
2401333333.3333334923 0.155989512801170404632244981258 0.085759744048118591308593750000 -0.003321263706311583952662802588 0.004100509453564882278442382812 0 0 0 0 
2401500000.0000000000 0.156430810689926202972088731258 0.082725659012794494628906250000 -0.003224423388019204139709472656 0.004154734779149293899536132812 0 0 0 0 
2401666666.6666665077 0.156567752361297607421875000000 0.079944640398025512695312500000 -0.003113372018560767173767089844 0.004142402671277523040771484375 0 0 0 0 
2401833333.3333334923 0.157160043716430691818075615629 0.077067628502845764160156250000 -0.003014196176081895828247070312 0.004176816437393426895141601562 0 0 0 0 
2402000000.0000000000 0.158087760210037203689736884371 0.074345596134662628173828125000 -0.002783840522170066833496093750 0.004315566271543502807617187500 0 0 0 0 
2402166666.6666665077 0.158845648169517489334268134371 0.071720324456691741943359375000 -0.002808966208249330954310751807 0.004405495710670948028564453125 0 0 0 0 
2402333333.3333334923 0.159754857420921297928018134371 0.068884186446666717529296875000 -0.002481637755408883094787597656 0.004448226653039455413818359375 0 0 0 0 
2402500000.0000000000 0.161130025982856805999432481258 0.066508665680885314941406250000 -0.002508091274648904800415039062 0.004625016823410987854003906250 0 0 0 0 
2402666666.6666665077 0.162091717123985290527343750000 0.064102128148078918457031250000 -0.002407255582511425018310546875 0.004482227843254804611206054688 0 0 0 0 
2402833333.3333334923 0.163615867495536804199218750000 0.061644598841667182231862653907 -0.002216042950749396844151162256 0.004589731805026531219482421875 0 0 0 0 
2403000000.0000000000 0.165035530924797113616619981258 0.059294577687978751445729841407 -0.002079842146486043930053710938 0.004483112134039402008056640625 0 0 0 0 
2403166666.6666665077 0.166540443897247286697549384371 0.057175975292921073223073591407 -0.001744835055433213927625346606 0.005329256411641836166381835938 0 0 0 0 
2403333333.3333334923 0.168060332536697387695312500000 0.054740030318498611450195312500 -0.001384223811328411102294921875 0.005099573638290166854858398438 0 0 0 0 
2403500000.0000000000 0.169938042759895296951455634371 0.052653610706329352642018903907 -0.002119301585480570793151855469 0.004854765255004168424124433301 0 0 0 0 
2403666666.6666665077 0.171536147594451904296875000000 0.050484843552112579345703125000 -0.001952376565895975069758749854 0.004211582243442535400390625000 0 0 0 0 
2403833333.3333334923 0.173311352729797391036825615629 0.048581901937723159790039062500 -0.001577703747898340008379292065 0.004222105722874402999877929688 0 0 0 0 
2404000000.0000000000 0.174816966056823702713174384371 0.047144319862127297138254533593 -0.000465803459519520401954650879 0.004892133641988039016723632812 0 0 0 0 
2404166666.6666665077 0.176666960120201110839843750000 0.045499760657548897480051408593 -0.000822965230327099561691284180 0.005095299333333969116210937500 0 0 0 0 
2404333333.3333334923 0.178566053509712191482705634371 0.044156420975923538208007812500 0.000504441617522388696670532227 0.004813883453607559204101562500 0 0 0 0 
2404500000.0000000000 0.179786503314971896072549384371 0.042604137212038040161132812500 -0.000311182608129456585079747333 0.005163855850696563720703125000 0 0 0 0 
2404666666.6666665077 0.181550815701484707931356865629 0.041494578123092651367187500000 -0.000283290020888671278953552246 0.004696326330304145812988281250 0 0 0 0 
2404833333.3333334923 0.183264032006263705154580634371 0.040374051779508590698242187500 -0.000040627295675221830606460571 0.004765741992741823196411132812 0 0 0 0 
2405000000.0000000000 0.184520542621612604339276231258 0.039787385612726211547851562500 0.000114949201815761598661699838 0.004587352275848388671875000000 0 0 0 0 
2405166666.6666665077 0.186153262853622408767861884371 0.038867853581905371929128278907 0.000162666285177692798063001089 0.004581702873110771179199218750 0 0 0 0 
2405333333.3333334923 0.187499180436134310623330634371 0.038593340665102011943776716407 0.000262223096797242814868372784 0.004472970496863126754760742188 0 0 0 0 
2405500000.0000000000 0.188846364617347689529580634371 0.038014527410268776630442033593 0.000540421868208795785903930664 0.004324900917708873748779296875 0 0 0 0 
2405666666.6666665077 0.190197631716728210449218750000 0.037663903087377548217773437500 0.000554170866962522268295288086 0.004183733835816383361816406250 0 0 0 0 
2405833333.3333334923 0.191448986530304010589276231258 0.037395790219306952739675153907 0.000803389295469969511032104492 0.004094251897186040878295898438 0 0 0 0 
2406000000.0000000000 0.192323133349418612381143134371 0.037145074456930160522460937500 0.000914816162548959255218505859 0.003818839788436890082118368994 0 0 0 0 
2406166666.6666665077 0.193423107266426086425781250000 0.037023019045591347431223283593 0.000842102512251585721969604492 0.003738125553354620933532714844 0 0 0 0 
2406333333.3333334923 0.194299489259719904143963731258 0.037134680896997451782226562500 0.000978298601694405078887939453 0.003749604569748044013977050781 0 0 0 0 
2406500000.0000000000 0.195045858621597290039062500000 0.037242617458105087280273437500 0.001072287792339920997619628906 0.003508251393213868141174316406 0 0 0 0 
2406666666.6666665077 0.195701420307159396072549384371 0.037195678800344467163085937500 0.001016787136904895088793110425 0.003594729583710432052612304688 0 0 0 0 
2406833333.3333334923 0.196246445178985595703125000000 0.037214785814285278320312500000 0.001177666708827018954633403247 0.003503550542518496947047568213 0 0 0 0 
2407000000.0000000000 0.196449592709541293045205634371 0.037406481802463531494140625000 0.001144227455370127937914204175 0.003372325096279383139369345557 0 0 0 0 
2407166666.6666665077 0.196846619248390197753906250000 0.037198167294263839721679687500 0.001097516505979001955745077979 0.003344494616612792015075683594 0 0 0 0 
2407333333.3333334923 0.196721792221069308181924384371 0.037462111562490463256835937500 0.001159300911240280108210898291 0.003060579067096114158630371094 0 0 0 0 
2407500000.0000000000 0.196737274527549688141192518742 0.037485901266336441040039062500 0.001178395817987621047376323169 0.003088658442720770835876464844 0 0 0 0 
2407666666.6666665077 0.196677267551422091385049384371 0.037421893328428268432617187500 0.001105768489651381969451904297 0.003097348380833864212036132812 0 0 0 0 
2407833333.3333334923 0.196116998791694613357705634371 0.037298288196325302124023437500 0.001252561691217124895808554541 0.003010986372828484015223837744 0 0 0 0 
2408000000.0000000000 0.195972427725791903396768134371 0.037259303033351898193359375000 0.001119888038374484019038535010 0.003039568429812788963317871094 0 0 0 0 
2408166666.6666665077 0.195435702800750704666299384371 0.036960881203413009643554687500 0.001123351510614156939862895435 0.002976881572976707978489541162 0 0 0 0 
2408333333.3333334923 0.194973751902580288986044365629 0.036433257162570953369140625000 0.001016082009300589995143271338 0.002861710963770747184753417969 0 0 0 0 
2408500000.0000000000 0.194170221686363192459268134371 0.036132305860519409179687500000 0.000951027381233870983123779297 0.002797299530357121987583779443 0 0 0 0 
2408666666.6666665077 0.193506985902786310393963731258 0.035641159862279891967773437500 0.000987306702882051467895507812 0.002964477520436048941371298682 0 0 0 0 
2408833333.3333334923 0.192687049508094787597656250000 0.034908261150121688842773437500 0.000960003992076963186264038086 0.002807622309774159951450966943 0 0 0 0 
2409000000.0000000000 0.191773861646652193924111884371 0.033995706588029861450195312500 0.000992946326732635498046875000 0.002975511364638804955723427881 0 0 0 0 
2409166666.6666665077 0.190742000937461908538494981258 0.033028557896614081645925153907 0.000927837681956589221954345703 0.002951464615762234167811728369 0 0 0 0 
2409333333.3333334923 0.189915776252746609786825615629 0.032026171684265136718750000000 0.000791206199210137128829956055 0.002955568488687276840209960938 0 0 0 0 
2409500000.0000000000 0.188670262694358797928018134371 0.030702600255608558654785156250 0.000913594674784690141677856445 0.003085858188569546179530478369 0 0 0 0 
2409666666.6666665077 0.187728479504585293868856865629 0.029374549165368080139160156250 0.000941471429541707038879394531 0.003311077598482369942906045068 0 0 0 0 
2409833333.3333334923 0.186679169535636901855468750000 0.027878539636731151235560233204 0.000982263823971152305603027344 0.003278613556176424026489257812 0 0 0 0 
2410000000.0000000000 0.185546562075614901443643134371 0.026304509490728378295898437500 0.000994741916656494140625000000 0.003504564519971609115600585938 0 0 0 0 
2410166666.6666665077 0.184559553861617986481036268742 0.024433068931102749216099923046 0.001040871953591703934910439600 0.003503887215629220008850097656 0 0 0 0 
2410333333.3333334923 0.183256864547729492187500000000 0.022556897252798080444335937500 0.001230522873811423995374370044 0.003657940542325377897975302588 0 0 0 0 
2410500000.0000000000 0.182483434677123995681924384371 0.020773129537701610219935233204 0.001525303232483566024182963794 0.003629568498581647872924804688 0 0 0 0 
2410666666.6666665077 0.181613370776176508147869981258 0.018431017175316810607910156250 0.001567045808769762949702597510 0.003672664985060691833496093750 0 0 0 0 
2410833333.3333334923 0.180818125605583190917968750000 0.016208855435252189636230468750 0.001694529317319392941118549878 0.003895201720297337012050009619 0 0 0 0 
2411000000.0000000000 0.180205792188644409179687500000 0.014071311801671980076799961523 0.001950625446625054099439311450 0.003889168845489621162414550781 0 0 0 0 
2411166666.6666665077 0.179414629936218289474325615629 0.011782227084040640049944492773 0.002141623059287666840794228662 0.003895758418366312980651855469 0 0 0 0 
2411333333.3333334923 0.178867354989051791092080634371 0.009183818474411964416503906250 0.002364658517763019041774130713 0.003761351108551024956944131006 0 0 0 0 
2411500000.0000000000 0.178442582488059997558593750000 0.006803535390645265579223632812 0.002510979538783431053161621094 0.003741210093721746964695595850 0 0 0 0 
2411666666.6666665077 0.178241670131683405120526231258 0.004411716479808092117309570312 0.002525761956349014802220009912 0.003621978452429174943211220850 0 0 0 0 
2411833333.3333334923 0.177824512124061612228231865629 0.002123556099832057952880859375 0.002844653092324734167811728369 0.003696388099342585043666220557 0 0 0 0 
2412000000.0000000000 0.177835971117019708831463731258 -0.000481561088236048817634582520 0.003065004246309400038478232275 0.003557207062840462164637900244 0 0 0 0 
2412166666.6666665077 0.177944958209991510589276231258 -0.002771978499367833137512207031 0.003243488492444158034083701025 0.003449239302426577048060751807 0 0 0 0 
2412333333.3333334923 0.178036853671073913574218750000 -0.005248733796179294586181640625 0.003304658457636833190917968750 0.003320047864690423011779785156 0 0 0 0 
2412500000.0000000000 0.178644508123397799392861884371 -0.007654232438653708371634198926 0.003616019850596785979029990088 0.003316552378237247900721884619 0 0 0 0 
2412666666.6666665077 0.179166004061698913574218750000 -0.010308499448001389939277849805 0.003724905196577310995814658057 0.003063598880544304847717285156 0 0 0 0 
2412833333.3333334923 0.179791778326034601409588731258 -0.012685623951256280381172381055 0.003884741803631186918971396338 0.002808400429785252051112509619 0 0 0 0 
2413000000.0000000000 0.180437549948692294021768134371 -0.015050028450787069148053554102 0.004012651275843381881713867188 0.002686942694708704948425292969 0 0 0 0 
2413166666.6666665077 0.181145891547203091720419365629 -0.017210481688380241394042968750 0.004167914390563964843750000000 0.002478776266798377037048339844 0 0 0 0 
2413333333.3333334923 0.182362005114555386642294365629 -0.019476130604743960988978201954 0.004312893375754356384277343750 0.002301825443282722993137978662 0 0 0 0 
2413500000.0000000000 0.183228760957717895507812500000 -0.021732324734330180776575858204 0.004327625967562198638916015625 0.002165151294320822195765829932 0 0 0 0 
2413666666.6666665077 0.184443682432174710372763115629 -0.024103855714201930654505545704 0.004404024221003055572509765625 0.002004248788580297990086220850 0 0 0 0 
2413833333.3333334923 0.185507059097290011306924384371 -0.025694675743579871440847028907 0.004256219603121280670166015625 0.001686147064901887936833047021 0 0 0 0 
2414000000.0000000000 0.186745911836624201018963731258 -0.028055289760231968271275704296 0.004528554156422615051269531250 0.001745595945976674990413046729 0 0 0 0 
2414166666.6666665077 0.187929883599281311035156250000 -0.029690926894545558584193045704 0.004633618053048849105834960938 0.001363028888590634086011577075 0 0 0 0 
2414333333.3333334923 0.188999101519584711272869981258 -0.031627949327230446552317033593 0.004458197392523288726806640625 0.001185476314276457049726176685 0 0 0 0 
2414500000.0000000000 0.190157771110534695724325615629 -0.033023241907358169555664062500 0.004637902602553367614746093750 0.001055485219694674015045166016 0 0 0 0 
2414666666.6666665077 0.191388681530952509124432481258 -0.034415114670991897583007812500 0.004721679259091615676879882812 0.000892046722583472728729248047 0 0 0 0 
2414833333.3333334923 0.192425563931465204436932481258 -0.035820983350276947021484375000 0.004482454154640436172485351562 0.000798785185907036066055297852 0 0 0 0 
2415000000.0000000000 0.193608030676841708084268134371 -0.037147041410207748413085937500 0.004566997755318880081176757812 0.000474992033559828996658325195 0 0 0 0 
2415166666.6666665077 0.195015147328376797775106865629 -0.038225162774324417114257812500 0.004588602576404809951782226562 0.000321576691931113600730895996 0 0 0 0 
2415333333.3333334923 0.196183592081070001800213731258 -0.039048906415700912475585937500 0.004414903931319713592529296875 0.000275695463642477989196777344 0 0 0 0 
2415500000.0000000000 0.197193562984466608245526231258 -0.039810460060834891582448591407 0.004593342542648315429687500000 -0.000218610381125472513124188834 0 0 0 0 
2415666666.6666665077 0.198276072740554809570312500000 -0.040567729622125632549245466407 0.004522941075265408429617597363 -0.000218044835492037209585466928 0 0 0 0 
2415833333.3333334923 0.199104800820350702483807481258 -0.041136477142572402954101562500 0.004267550073564052581787109375 -0.000504826719406992197036743164 0 0 0 0 
2416000000.0000000000 0.199952110648155212402343750000 -0.041674666106700897216796875000 0.004245170392096042633056640625 -0.000574832432903349399566650391 0 0 0 0 
2416166666.6666665077 0.200720891356468200683593750000 -0.042226444929838180541992187500 0.004069471266120672225952148438 -0.000681415607687085866928100586 0 0 0 0 
2416333333.3333334923 0.201408356428146390060263115629 -0.042412072420120239257812500000 0.004045662470161914825439453125 -0.000850667012855410575866699219 0 0 0 0 
2416500000.0000000000 0.201760679483413696289062500000 -0.042761743068695068359375000000 0.004012632649391889572143554688 -0.000958293268922716379165649414 0 0 0 0 
2416666666.6666665077 0.202185019850730895996093750000 -0.042902957648038857196848283593 0.003968140576034784317016601562 -0.001013504457660018964054726709 0 0 0 0 
2416833333.3333334923 0.202285468578338595291299384371 -0.043007586151361472392995466407 0.003855786519125103950500488281 -0.001156543381512165069580078125 0 0 0 0 
2417000000.0000000000 0.202361896634101895431356865629 -0.043056160211563110351562500000 0.003717023646458982987644814600 -0.001322347554378211931941367041 0 0 0 0 
2417166666.6666665077 0.202126756310463007171307481258 -0.042866948992013931274414062500 0.003774906741455196900608681787 -0.001377814332954585985896445166 0 0 0 0 
2417333333.3333334923 0.201859340071678189376669365629 -0.042810622602701187133789062500 0.003696132916957139968872070312 -0.001342257019132375934003520435 0 0 0 0 
2417500000.0000000000 0.201676338911056490799111884371 -0.042696285992860787128488908593 0.003460689680650829835178994287 -0.001627772231586277918574667822 0 0 0 0 
2417666666.6666665077 0.201058104634285000900106865629 -0.042501702904701232910156250000 0.003408008255064487890956259619 -0.001655975705944002108332968604 0 0 0 0 
2417833333.3333334923 0.200636327266693087478799384371 -0.042185515165328979492187500000 0.003336551832035183906555175781 -0.001749663962982594966888427734 0 0 0 0 
2418000000.0000000000 0.200006976723670987228231865629 -0.041959222406148910522460937500 0.003372130915522574944737099756 -0.001752953277900815010070800781 0 0 0 0 
2418166666.6666665077 0.199188888072967501541299384371 -0.041826199740171432495117187500 0.003307339502498507933375693213 -0.001960639841854571862461709131 0 0 0 0 
2418333333.3333334923 0.198220461606979397872763115629 -0.041721075773239142681081403907 0.003171742660924791856053017725 -0.002122992416843771934509277344 0 0 0 0 
2418500000.0000000000 0.197167277336120605468750000000 -0.041659332811832427978515625000 0.003072671592235565185546875000 -0.002172566018998622894287109375 0 0 0 0 
2418666666.6666665077 0.196255475282669095138388115629 -0.041558630764484412456472028907 0.002944408915936946868896484375 -0.002297889674082397980930947412 0 0 0 0 
2418833333.3333334923 0.195065677165985107421875000000 -0.041736360639333731914479841407 0.002661764388903975920436240088 -0.002356870798394083976745605469 0 0 0 0 
2419000000.0000000000 0.193787142634391812423544365629 -0.041921243071556091308593750000 0.002391644986346364021301269531 -0.002437190385535358948948525537 0 0 0 0 
2419166666.6666665077 0.192561820149421691894531250000 -0.042140822857618331909179687500 0.002565055387094616889953613281 -0.002501153387129306793212890625 0 0 0 0 
2419333333.3333334923 0.191023170948028592208700615629 -0.042621448636054992675781250000 0.002388786757364869117736816406 -0.002382015343755484061000204932 0 0 0 0 
2419500000.0000000000 0.189666733145713806152343750000 -0.043048895895481109619140625000 0.002169803949072957038879394531 -0.002456282032653688950779580225 0 0 0 0 
2419666666.6666665077 0.188033685088157709319744981258 -0.043946027755737311626393903907 0.002048666588962078094482421875 -0.002423422643914819197413779150 0 0 0 0 
2419833333.3333334923 0.186275526881218012054119981258 -0.044477093964815139770507812500 0.001744394772686064026476215894 -0.002375845564529300169703818213 0 0 0 0 
2420000000.0000000000 0.184846863150596590896768134371 -0.045318465679883956909179687500 0.001649599988013505935668945312 -0.002393356524407864050624228369 0 0 0 0 
