# Hz S RI R 50
2400000000.0000000000 0.173648953437805203536825615629 0.049283396452665328979492187500 0.002601332264021039009094238281 0.004693425726145505905151367188 0 0 0 0 
2400166666.6666665077 0.174266591668128995040731865629 0.048744712024927139282226562500 0.002581766806542872948887490381 0.004580626729875802993774414062 0 0 0 0 
2400333333.3333334923 0.174475789070129394531250000000 0.047970321029424667358398437500 0.002809172496199607849121093750 0.004569268785417079925537109375 0 0 0 0 
2400500000.0000000000 0.174912348389625604827557481258 0.047461055219173431396484375000 0.002871929667890071868896484375 0.004508035723119974136352539062 0 0 0 0 
2400666666.6666665077 0.175234973430633489410723768742 0.046620994806289672851562500000 0.003000570228323339982273720850 0.004482894204556941986083984375 0 0 0 0 
2400833333.3333334923 0.175370961427688598632812500000 0.046244736760854721069335937500 0.003233653027564287185668945312 0.004472988191992043581490801074 0 0 0 0 
2401000000.0000000000 0.175570756196975708007812500000 0.045448113232851028442382812500 0.003238220233470201925990439307 0.004275054205209016799926757812 0 0 0 0 
2401166666.6666665077 0.175672560930252102950888115629 0.044731371104717261577565778907 0.003436241066083312034606933594 0.004397589247673749923706054688 0 0 0 0 
2401333333.3333334923 0.175575107336044311523437500000 0.044132940471172332763671875000 0.003547293134033679962158203125 0.004437861032783985137939453125 0 0 0 0 
2401500000.0000000000 0.175850376486778287032919365629 0.043403003364801406860351562500 0.003642768366262317137477255713 0.004243282601237297058105468750 0 0 0 0 
2401666666.6666665077 0.175541579723358209808026231258 0.042933803051710128784179687500 0.003879806026816368103027343750 0.004135437775403261184692382812 0 0 0 0 
2401833333.3333334923 0.175475418567657498458700615629 0.041933432221412658691406250000 0.004032006952911615371704101562 0.003936400637030602368826581738 0 0 0 0 
2402000000.0000000000 0.175208449363708496093750000000 0.041121494024991989135742187500 0.004264538176357746124267578125 0.003857682691887021064758300781 0 0 0 0 
2402166666.6666665077 0.175060689449310302734375000000 0.040125861763954162597656250000 0.004324558191001415252685546875 0.003770796814933418793919228662 0 0 0 0 
2402333333.3333334923 0.174670651555061312576455634371 0.039205845445394522930104841407 0.004289796110242605209350585938 0.003634172258898615837097167969 0 0 0 0 
2402500000.0000000000 0.174666181206703213790731865629 0.038258671760559082031250000000 0.004616594407707452774047851562 0.003389305900782347159144736182 0 0 0 0 
2402666666.6666665077 0.174400761723518399337606865629 0.037229876965284347534179687500 0.004761499352753162384033203125 0.003376743290573358969447470557 0 0 0 0 
2402833333.3333334923 0.173970609903335599044638115629 0.035947252064943306659738908593 0.004778003320097923278808593750 0.003140913555398582978489541162 0 0 0 0 
2403000000.0000000000 0.173634767532348605056924384371 0.034772101789712912822682966407 0.004934239201247692108154296875 0.002966200932860374884364462744 0 0 0 0 
2403166666.6666665077 0.173196077346801813323651231258 0.033106092363595962524414062500 0.004994377028197050094604492188 0.002778967376798390908482216943 0 0 0 0 
2403333333.3333334923 0.172820463776588412185830634371 0.031741868704557418823242187500 0.005126174539327622327322675488 0.002574106212705374197718954932 0 0 0 0 
2403500000.0000000000 0.172587499022483797928018134371 0.030272431671619418752650076954 0.005161567591130734357351972363 0.002507658442482351823094033350 0 0 0 0 
2403666666.6666665077 0.172117576003074701507244981258 0.028379866853356361389160156250 0.005348217673599720001220703125 0.002193171530961989922764443506 0 0 0 0 
2403833333.3333334923 0.171836301684379605392294365629 0.026824977248907089233398437500 0.005295193288475275039672851562 0.002166670747101306915283203125 0 0 0 0 
2404000000.0000000000 0.171460449695587213714276231258 0.025005385279655460012415701954 0.005334061104804277420043945312 0.001910889404825866005541157300 0 0 0 0 
2404166666.6666665077 0.170951396226882906814736884371 0.023079788312315940856933593750 0.005471401382237672805786132812 0.001701494446024299101588583838 0 0 0 0 
2404333333.3333334923 0.170728072524070711990518134371 0.021345660090446468698521798046 0.005469393916428089141845703125 0.001553631853312253952026367188 0 0 0 0 
2404500000.0000000000 0.170199438929557800292968750000 0.019324112683534618722935860546 0.005429123062640429410452558301 0.001315888599492609934565878760 0 0 0 0 
2404666666.6666665077 0.170113533735275296310263115629 0.017360800877213481557825858204 0.005347387865185737609863281250 0.001138987019658088900922465747 0 0 0 0 
2404833333.3333334923 0.169989660382270812988281250000 0.015517809428274629765520664648 0.005577872507274150848388671875 0.000866714050062000751495361328 0 0 0 0 
2405000000.0000000000 0.169794216752052307128906250000 0.013360060751438139134417149023 0.005469062831252813339233398438 0.000724232348147779703140258789 0 0 0 0 
2405166666.6666665077 0.169790908694267300704794365629 0.011194332502782350022285662305 0.005448802839964628219604492188 0.000441764859715476577908116473 0 0 0 0 
2405333333.3333334923 0.169926866888999911209268134371 0.008950715884566307067871093750 0.005235001444816589355468750000 0.000397511612391099279553013934 0 0 0 0 
2405500000.0000000000 0.169938459992408807952557481258 0.006968040019273757934570312500 0.005124009680002927780151367188 0.000181935058208182508319300519 0 0 0 0 
2405666666.6666665077 0.170095220208168002029580634371 0.005048754625022411346435546875 0.005019977223128080368041992188 0.000177858892129734212726038800 0 0 0 0 
2405833333.3333334923 0.169962152838706997970419365629 0.003003318095579742951634072412 0.004997051320970057573800371387 -0.000002521625901863445020045481 0 0 0 0 
2406000000.0000000000 0.170553460717201205154580634371 0.000828402175102382898330688477 0.005031374748796224594116210938 -0.000133019188069738501876276837 0 0 0 0 
2406166666.6666665077 0.170758575201034601409588731258 -0.000980483018793165683746337891 0.004889700561761856079101562500 -0.000229213896091096103191375732 0 0 0 0 
2406333333.3333334923 0.171463325619697598556356865629 -0.003095025895163416862487792969 0.004769725259393453598022460938 -0.000296717043966054916381835938 0 0 0 0 
2406500000.0000000000 0.171798735857009887695312500000 -0.005047630053013563156127929688 0.004663537256419658660888671875 -0.000403178157284855788380223407 0 0 0 0 
2406666666.6666665077 0.172180891036987304687500000000 -0.006992368027567864331717206738 0.004637017846107482910156250000 -0.000425520673161372488171177997 0 0 0 0 
2406833333.3333334923 0.172851070761680603027343750000 -0.009088552556931972503662109375 0.004574142862111330032348632812 -0.000431691383710131103366297589 0 0 0 0 
2407000000.0000000000 0.173519700765609713455361884371 -0.010923485271632669621477695898 0.004577918443828821182250976562 -0.000412058725487440824508666992 0 0 0 0 
2407166666.6666665077 0.174321040511131286621093750000 -0.012750106863677499943743320898 0.004505070392042399320120527051 -0.000546449387911707162857055664 0 0 0 0 
2407333333.3333334923 0.174947500228881808181924384371 -0.014586732722818849736223789648 0.004515781998634338378906250000 -0.000621958228293806314468383789 0 0 0 0 
2407500000.0000000000 0.175776690244674710372763115629 -0.016342557966709140432337576954 0.004575226455926895141601562500 -0.000496766297146677970886230469 0 0 0 0 
2407666666.6666665077 0.176530599594116210937500000000 -0.018035210669040679931640625000 0.004267538432031869888305664062 -0.000552636047359555959701538086 0 0 0 0 
2407833333.3333334923 0.177103802561760004241619981258 -0.019736301153898239135742187500 0.004481560550630092620849609375 -0.000668398744892328977584838867 0 0 0 0 
2408000000.0000000000 0.177978307008743286132812500000 -0.021354623138904571533203125000 0.004606758244335651397705078125 -0.000784525123890489339828491211 0 0 0 0 
2408166666.6666665077 0.178613826632499694824218750000 -0.022633399814367290842076485546 0.004432188812643290433401777051 -0.000797075917944312095642089844 0 0 0 0 
2408333333.3333334923 0.179532125592231805999432481258 -0.024131171405315399169921875000 0.004517657682299613952636718750 -0.000828072254080325365066528320 0 0 0 0 
2408500000.0000000000 0.180213317275047302246093750000 -0.025561442598700519907017891796 0.004560002125799655914306640625 -0.000932331080548465251922607422 0 0 0 0 
2408666666.6666665077 0.180753007531166104415731865629 -0.026685120537877079355260079296 0.004392730537801980972290039062 -0.000934834417421370744705200195 0 0 0 0 
2408833333.3333334923 0.181034207344055203536825615629 -0.027969300746917731548268903907 0.004498539492487907409667968750 -0.000956277246586978435516357422 0 0 0 0 
2409000000.0000000000 0.181556776165962191482705634371 -0.028842709958553310739537423046 0.004618929699063301086425781250 -0.001021669944748281998875283350 0 0 0 0 
2409166666.6666665077 0.182072028517723111251669365629 -0.029746426269412040710449218750 0.004724537022411823272705078125 -0.001035422901622951030731201172 0 0 0 0 
2409333333.3333334923 0.182524532079696710784588731258 -0.030544854700565341604212576954 0.004702494945377110567574785449 -0.000963517930358648300170898438 0 0 0 0 
2409500000.0000000000 0.182820126414299011230468750000 -0.031323768198490142822265625000 0.004993665497750043869018554688 -0.001171670272015034935594868237 0 0 0 0 
2409666666.6666665077 0.183041080832481412032919365629 -0.031877037137746810913085937500 0.005006667226552963256835937500 -0.001256512594409286975860595703 0 0 0 0 
2409833333.3333334923 0.183193817734718294998330634371 -0.032324448227882392192800153907 0.005163470283150672912597656250 -0.001329166349023580984828329932 0 0 0 0 
2410000000.0000000000 0.183661654591560391525106865629 -0.032539993524551391601562500000 0.005158847197890281677246093750 -0.001457087695598602078081440503 0 0 0 0 
2410166666.6666665077 0.183567821979522705078125000000 -0.033135399222373962402343750000 0.005109223537147045135498046875 -0.001827330328524112918256450122 0 0 0 0 
2410333333.3333334923 0.183434098958969088455361884371 -0.033397506922483437274973283593 0.005281890742480754852294921875 -0.001860477845184504985809326172 0 0 0 0 
2410500000.0000000000 0.183575719594955388824786268742 -0.033747412264347083354909528907 0.005376219749450683593750000000 -0.002197003457695246176478720557 0 0 0 0 
2410666666.6666665077 0.183426573872566195388955634371 -0.034031398594379431987722028907 0.005532256793230772018432617188 -0.002065566834062337875366210938 0 0 0 0 
2410833333.3333334923 0.183169856667518587967080634371 -0.034186892211437232280690778907 0.005583827849477530393118573926 -0.002388288732618093924281454932 0 0 0 0 
2411000000.0000000000 0.183064877986907986739950615629 -0.034505527466535568237304687500 0.005630100145936012268066406250 -0.002655651187524199919459677588 0 0 0 0 
2411166666.6666665077 0.182619601488113403320312500000 -0.034775357693433761596679687500 0.005775638855993747711181640625 -0.002900937339290976958033896338 0 0 0 0 
2411333333.3333334923 0.182193860411644009689169365629 -0.034894935786724090576171875000 0.005776883102953433990478515625 -0.003184735542163252830505371094 0 0 0 0 
2411500000.0000000000 0.181626766920089693924111884371 -0.035354714840650558471679687500 0.005832209251821041107177734375 -0.003372479695826768875122070312 0 0 0 0 
2411666666.6666665077 0.181052625179290799239950615629 -0.035589829087257392192800153907 0.005714977625757455825805664062 -0.003604147117584944205043173682 0 0 0 0 
2411833333.3333334923 0.180238619446754511077557481258 -0.035929415374994277954101562500 0.005743748508393765363211347363 -0.003990212455391883850097656250 0 0 0 0 
2412000000.0000000000 0.179633826017379788497763115629 -0.036319721490144729614257812500 0.005769720766693353652954101562 -0.004105986095964908599853515625 0 0 0 0 
2412166666.6666665077 0.178635716438293512542401231258 -0.036832388490438461303710937500 0.005663299467414618405813886426 -0.004596439190208911895751953125 0 0 0 0 
2412333333.3333334923 0.177741453051567105392294365629 -0.037315241992473602294921875000 0.005627521313726902008056640625 -0.004955416545271874341482831738 0 0 0 0 
2412500000.0000000000 0.176582932472229003906250000000 -0.037699174135923392559011091407 0.005541656631976366043090820312 -0.005274958908557891845703125000 0 0 0 0 
2412666666.6666665077 0.175704345107078607757244981258 -0.038670111447572708129882812500 0.005556242540478706359863281250 -0.005485923029482364654541015625 0 0 0 0 
2412833333.3333334923 0.174535959959030206878338731258 -0.039234526455402367328684221093 0.005219468846917152404785156250 -0.005782491061836481094360351562 0 0 0 0 
2413000000.0000000000 0.173470124602317810058593750000 -0.040040131658315658569335937500 0.005087100900709629058837890625 -0.006227856967598199844360351562 0 0 0 0 
2413166666.6666665077 0.171976387500762911697549384371 -0.040829636156558990478515625000 0.004835018888115882873535156250 -0.006534192711114883422851562500 0 0 0 0 
2413333333.3333334923 0.170846402645111111739950615629 -0.041762340813875198364257812500 0.004719751887023448944091796875 -0.006746953818947076797485351562 0 0 0 0 
2413500000.0000000000 0.169569522142410306075888115629 -0.042861379683017730712890625000 0.004478100221604108810424804688 -0.006822661031037569046020507812 0 0 0 0 
2413666666.6666665077 0.168281823396682711502236884371 -0.043935049325227737426757812500 0.004249687306582927703857421875 -0.007235503755509853363037109375 0 0 0 0 
2413833333.3333334923 0.166945874691009493728799384371 -0.045098643749952323223073591407 0.003851075191050767898559570312 -0.007565972395241261395926191113 0 0 0 0 
2414000000.0000000000 0.165695443749427795410156250000 -0.046391446143388748168945312500 0.003629855113103985786437988281 -0.007728999946266412734985351562 0 0 0 0 
2414166666.6666665077 0.164602831006050109863281250000 -0.047611992806196212768554687500 0.003413555212318896813633584131 -0.008193355984985828399658203125 0 0 0 0 
2414333333.3333334923 0.163423091173171997070312500000 -0.048957407474517822265625000000 0.003053548047319055037257529150 -0.008296192623674869537353515625 0 0 0 0 
2414500000.0000000000 0.162272945046424893478231865629 -0.050568908452987670898437500000 0.002670590998604894118068076025 -0.008381618186831474304199218750 0 0 0 0 
2414666666.6666665077 0.161093220114708002288494981258 -0.052147101610898971557617187500 0.002259766915813087983372353662 -0.008540930226445198059082031250 0 0 0 0 
2414833333.3333334923 0.160108834505081204513388115629 -0.053836882114410400390625000000 0.001883057761006057045580219800 -0.008773530833423137664794921875 0 0 0 0 
2415000000.0000000000 0.159068256616592407226562500000 -0.055472929030656821514089216407 0.001673769322223960919621132959 -0.008895971812307834625244140625 0 0 0 0 
2415166666.6666665077 0.158127576112747192382812500000 -0.057261981070041663433034528907 0.001124146161600946946385048975 -0.008876003324985504150390625000 0 0 0 0 
2415333333.3333334923 0.157417684793472290039062500000 -0.059164978563785552978515625000 0.000624426465947180986404418945 -0.008953433483839035034179687500 0 0 0 0 
2415500000.0000000000 0.156544566154480008224325615629 -0.061130765825510031963307966407 0.000179369424586184295728960580 -0.009036680683493614196777343750 0 0 0 0 
2415666666.6666665077 0.155933961272239712814169365629 -0.062952995300292968750000000000 -0.000290139869321137720912379132 -0.008913937956094741821289062500 0 0 0 0 
2415833333.3333334923 0.155327618122100802322549384371 -0.064966164529323577880859375000 -0.000643326668068766593933105469 -0.008877729997038841247558593750 0 0 0 0 
2416000000.0000000000 0.154577985405921908279580634371 -0.067097224295139312744140625000 -0.001118067884817719893214560400 -0.008916240185499191284179687500 0 0 0 0 
2416166666.6666665077 0.154241070151329012771768134371 -0.068990737199783325195312500000 -0.001405159593559802012202597510 -0.008805731311440467834472656250 0 0 0 0 
2416333333.3333334923 0.153778597712516812423544365629 -0.071033857762813568115234375000 -0.001834953320212662003160786206 -0.008588204160332679748535156250 0 0 0 0 
2416500000.0000000000 0.153363049030304010589276231258 -0.073118507862091064453125000000 -0.002052119700238109068629599463 -0.008650769479572772979736328125 0 0 0 0 
2416666666.6666665077 0.153014004230499295333700615629 -0.074983261525630950927734375000 -0.002639145124703646139857626807 -0.008503437973558902740478515625 0 0 0 0 
2416833333.3333334923 0.152790710330009488204794365629 -0.077077403664588928222656250000 -0.002943773986771703200099326025 -0.008158903568983078002929687500 0 0 0 0 
2417000000.0000000000 0.152409270405769403655682481258 -0.079001493752002716064453125000 -0.003236545948311686949488974463 -0.008164715953171253204345703125 0 0 0 0 
2417166666.6666665077 0.152340307831764193435830634371 -0.080796279013156890869140625000 -0.003452409524470568136927939307 -0.007870540954172611236572265625 0 0 0 0 
2417333333.3333334923 0.152305260300636291503906250000 -0.082619234919548034667968750000 -0.003809525165706872940063476562 -0.007714493665844202041625976562 0 0 0 0 
2417500000.0000000000 0.152182087302208002288494981258 -0.084453798830509185791015625000 -0.004169137217104434967041015625 -0.007450402248650789260864257812 0 0 0 0 
2417666666.6666665077 0.152349844574928311446981865629 -0.085886999964714050292968750000 -0.004373432137072086334228515625 -0.007348608691245318326468183301 0 0 0 0 
2417833333.3333334923 0.152354747056961087325888115629 -0.087454631924629211425781250000 -0.004695218522101640701293945312 -0.007106628268957138061523437500 0 0 0 0 
2418000000.0000000000 0.152433454990386990646200615629 -0.089061133563518524169921875000 -0.004789327736943960189819335938 -0.006908897310495376586914062500 0 0 0 0 
2418166666.6666665077 0.152393773198127802093182481258 -0.090131007134914398193359375000 -0.004988452419638633728027343750 -0.006551645230501890182495117188 0 0 0 0 
2418333333.3333334923 0.152928188443183898925781250000 -0.091517649590969085693359375000 -0.005159097723662853240966796875 -0.006342102307826280593872070312 0 0 0 0 
2418500000.0000000000 0.152858406305313110351562500000 -0.092601142823696136474609375000 -0.005228975322097539901733398438 -0.006141174118965864181518554688 0 0 0 0 
2418666666.6666665077 0.153173848986625699142294365629 -0.093618467450141906738281250000 -0.005533452145755290985107421875 -0.005902354139834642410278320312 0 0 0 0 
2418833333.3333334923 0.153231874108314486404580634371 -0.094469703733921051025390625000 -0.005697952583432197570800781250 -0.005515291355550289154052734375 0 0 0 0 
2419000000.0000000000 0.153298765420913696289062500000 -0.095267228782176971435546875000 -0.005909443832933902740478515625 -0.005387150216847658157348632812 0 0 0 0 
2419166666.6666665077 0.153650760650634793380575615629 -0.095838136970996856689453125000 -0.005965790711343288421630859375 -0.005326074082404375076293945312 0 0 0 0 
2419333333.3333334923 0.153734251856803894042968750000 -0.096340470016002655029296875000 -0.006067349109798669815063476562 -0.004874870181083679199218750000 0 0 0 0 
2419500000.0000000000 0.153993844985961886306924384371 -0.096871033310890197753906250000 -0.006161637604236602783203125000 -0.004610792268067598342895507812 0 0 0 0 
2419666666.6666665077 0.154168024659156799316406250000 -0.097156696021556854248046875000 -0.006304982583969832334036542676 -0.004452599678188562393188476562 0 0 0 0 
2419833333.3333334923 0.154265195131301907638388115629 -0.097292289137840270996093750000 -0.006514599546790122985839843750 -0.004312722478061913576607988574 0 0 0 0 
