# Version 1.00
#
freq[Hz];re:Trc1_S11;im:Trc1_S11;re:Trc2_S21;im:Trc2_S21;
2.400000000000000E+009;1.552595049142838E-001;1.072333455085754E-001;-5.989112891256809E-003;-1.344536198303103E-003;
2.400166666666667E+009;1.550051718950272E-001;1.047809794545174E-001;-6.096331868320704E-003;-1.344155403785408E-003;
2.400333333333334E+009;1.548295617103577E-001;1.024679616093636E-001;-6.247784011065960E-003;-1.249648979865015E-003;
2.400500000000000E+009;1.551542878150940E-001;9.985838085412979E-002;-6.573985796421766E-003;-1.090266625396907E-003;
2.400666666666667E+009;1.551517695188522E-001;9.733229130506516E-002;-6.517107598483563E-003;-9.213693556375802E-004;
2.400833333333334E+009;1.550966054201126E-001;9.463400393724442E-002;-6.839344743639231E-003;-9.285947890020907E-004;
2.401000000000000E+009;1.551056057214737E-001;9.167035669088364E-002;-6.895714905112982E-003;-7.392975967377424E-004;
2.401166666666667E+009;1.552810817956924E-001;8.889980614185333E-002;-7.060617208480835E-003;-4.335442790761590E-004;
2.401333333333334E+009;1.556617319583893E-001;8.597870171070099E-002;-7.105067372322083E-003;-3.230967267882079E-004;
2.401500000000000E+009;1.560966372489929E-001;8.318883925676346E-002;-7.330752909183502E-003;-1.710325159365311E-004;
2.401666666666667E+009;1.563449203968048E-001;8.027452975511551E-002;-7.485682610422373E-003;3.591354834497906E-005;
2.401833333333334E+009;1.569255292415619E-001;7.742061465978622E-002;-7.595532108098269E-003;3.725342103280127E-004;
2.402000000000000E+009;1.577117890119553E-001;7.471863180398941E-002;-7.829803042113781E-003;5.265587242320180E-004;
2.402166666666667E+009;1.587070375680924E-001;7.222578674554825E-002;-8.001496084034443E-003;8.034750353544951E-004;
2.402333333333334E+009;1.595064103603363E-001;6.934539973735809E-002;-8.099360391497612E-003;1.292951637879014E-003;
2.402500000000000E+009;1.608116030693054E-001;6.705024093389511E-002;-8.270668797194958E-003;1.603618147782981E-003;
2.402666666666667E+009;1.619691848754883E-001;6.459932029247284E-002;-8.387549780309200E-003;1.875038375146687E-003;
2.402833333333334E+009;1.632395386695862E-001;6.207892671227455E-002;-8.414789102971554E-003;2.400092314928770E-003;
2.403000000000000E+009;1.646695286035538E-001;5.975326150655747E-002;-8.353585377335548E-003;2.794241299852729E-003;
2.403166666666667E+009;1.665401160717011E-001;5.745642632246018E-002;-8.324290625751019E-003;3.249727888032794E-003;
2.403333333333334E+009;1.679538190364838E-001;5.515615269541740E-002;-8.384262211620808E-003;3.850582521408796E-003;
2.403500000000000E+009;1.697011888027191E-001;5.330150574445725E-002;-8.280822075903416E-003;4.377868026494980E-003;
2.403666666666667E+009;1.713463515043259E-001;5.120480060577393E-002;-8.139071054756641E-003;4.873144906014204E-003;
2.403833333333334E+009;1.730985045433044E-001;4.933688789606094E-002;-7.887922227382660E-003;5.350007209926844E-003;
2.404000000000000E+009;1.745077073574066E-001;4.756675288081169E-002;-7.643602322787046E-003;5.535798612982035E-003;
2.404166666666667E+009;1.766114383935928E-001;4.597816243767738E-002;-7.351541426032782E-003;6.223951466381550E-003;
2.404333333333334E+009;1.781041026115418E-001;4.442870244383812E-002;-7.061793468892574E-003;6.526908371597529E-003;
2.404500000000000E+009;1.797968596220017E-001;4.284375533461571E-002;-6.487288512289524E-003;6.819262169301510E-003;
2.404666666666667E+009;1.815765053033829E-001;4.192105308175087E-002;-6.178532261401415E-003;7.226623594760895E-003;
2.404833333333334E+009;1.831483691930771E-001;4.059387370944023E-002;-5.760610569268465E-003;7.331164553761482E-003;
2.405000000000000E+009;1.844616085290909E-001;3.999925777316093E-002;-5.307200364768505E-003;7.658185902982950E-003;
2.405166666666667E+009;1.860638260841370E-001;3.912328556180000E-002;-4.854518454521895E-003;7.898731157183647E-003;
2.405333333333334E+009;1.873864382505417E-001;3.867912292480469E-002;-4.471469670534134E-003;7.721267174929380E-003;
2.405500000000000E+009;1.887123137712479E-001;3.819982334971428E-002;-4.046420566737652E-003;7.972462102770805E-003;
2.405666666666667E+009;1.899750679731369E-001;3.775433078408241E-002;-3.796429606154561E-003;8.116855286061764E-003;
2.405833333333334E+009;1.913233399391174E-001;3.738876432180405E-002;-3.440806176513434E-003;8.099779486656189E-003;
2.406000000000000E+009;1.923189014196396E-001;3.727867826819420E-002;-3.008670639246702E-003;8.215201087296009E-003;
2.406166666666667E+009;1.931923776865006E-001;3.707160800695419E-002;-2.597015583887696E-003;8.218908682465553E-003;
2.406333333333334E+009;1.941100805997849E-001;3.717412427067757E-002;-2.208225894719362E-003;8.244091644883156E-003;
2.406500000000000E+009;1.948070973157883E-001;3.723740205168724E-002;-1.931991660967469E-003;8.192013017833233E-003;
2.406666666666667E+009;1.954128295183182E-001;3.723453730344772E-002;-1.558818272314966E-003;8.228098042309284E-003;
2.406833333333334E+009;1.959849596023560E-001;3.720257431268692E-002;-1.075487583875656E-003;8.174304850399494E-003;
2.407000000000000E+009;1.963338106870651E-001;3.751575201749802E-002;-7.790433010086417E-004;8.031222969293594E-003;
2.407166666666667E+009;1.966012269258499E-001;3.729927539825440E-002;-7.211476913653314E-004;7.914142683148384E-003;
2.407333333333334E+009;1.964650750160217E-001;3.743960335850716E-002;-3.807022585533559E-004;7.982118055224419E-003;
2.407500000000000E+009;1.963872760534287E-001;3.753494471311569E-002;-1.047959085553885E-004;7.802638225257397E-003;
2.407666666666667E+009;1.964311599731445E-001;3.753720223903656E-002;1.686635077930987E-004;7.584236562252045E-003;
2.407833333333334E+009;1.958861351013184E-001;3.732407838106155E-002;3.773729549720883E-004;7.469661999493837E-003;
2.408000000000000E+009;1.958052366971970E-001;3.734594210982323E-002;6.825629970990121E-004;7.399572525173426E-003;
2.408166666666667E+009;1.951824575662613E-001;3.698429465293884E-002;9.196985629387200E-004;7.228029426187277E-003;
2.408333333333334E+009;1.947380751371384E-001;3.647223114967346E-002;1.111316727474332E-003;6.984555628150702E-003;
2.408500000000000E+009;1.940372288227081E-001;3.628401085734367E-002;1.311521045863628E-003;6.814945489168167E-003;
2.408666666666667E+009;1.934120804071426E-001;3.570974618196487E-002;1.347162411548197E-003;6.570159457623959E-003;
2.408833333333334E+009;1.927648782730103E-001;3.505568578839302E-002;1.466131070628762E-003;6.470858119428158E-003;
2.409000000000000E+009;1.917318850755692E-001;3.398432210087776E-002;1.519161975011230E-003;6.211593747138977E-003;
2.409166666666667E+009;1.906352788209915E-001;3.310355171561241E-002;1.576673588715494E-003;6.023690104484558E-003;
2.409333333333334E+009;1.898928582668304E-001;3.220245242118835E-002;1.585037563927472E-003;6.056110374629498E-003;
2.409500000000000E+009;1.886915862560272E-001;3.098891302943230E-002;1.551559544168413E-003;5.917602218687534E-003;
2.409666666666667E+009;1.876892745494843E-001;2.951533161103725E-002;1.776041113771498E-003;5.856339354068041E-003;
2.409833333333334E+009;1.865679621696472E-001;2.803308330476284E-002;1.786707667633891E-003;5.679541733115912E-003;
2.410000000000000E+009;1.856269836425781E-001;2.639493346214294E-002;1.769372029229999E-003;5.703075788915157E-003;
2.410166666666667E+009;1.845858395099640E-001;2.458631619811058E-002;1.899005379527807E-003;5.631063133478165E-003;
2.410333333333334E+009;1.835351139307022E-001;2.272962220013142E-002;1.894856221042574E-003;5.718075204640627E-003;
2.410500000000000E+009;1.826021820306778E-001;2.091148681938648E-002;1.942516770213842E-003;5.550503730773926E-003;
2.410666666666667E+009;1.817616075277329E-001;1.863656006753445E-002;2.156129572540522E-003;5.553959868848324E-003;
2.410833333333334E+009;1.810671985149384E-001;1.641121506690979E-002;2.290932694450021E-003;5.358304362744093E-003;
2.411000000000000E+009;1.802932471036911E-001;1.421946380287409E-002;2.349172253161669E-003;5.343009717762470E-003;
2.411166666666667E+009;1.796988397836685E-001;1.202132739126682E-002;2.475685672834516E-003;5.434042308479548E-003;
2.411333333333334E+009;1.791460067033768E-001;9.579677134752274E-003;2.488293452188373E-003;5.141757894307375E-003;
2.411500000000000E+009;1.787745058536530E-001;7.087581325322390E-003;2.790560480207205E-003;5.321130156517029E-003;
2.411666666666667E+009;1.784183382987976E-001;4.884218797087669E-003;2.666467567905784E-003;5.106600001454353E-003;
2.411833333333334E+009;1.781483143568039E-001;2.390544861555100E-003;2.919519552960992E-003;5.051460117101669E-003;
2.412000000000000E+009;1.782791912555695E-001;-2.549692289903760E-004;2.761061536148191E-003;4.998829215764999E-003;
2.412166666666667E+009;1.784723848104477E-001;-2.459243172779679E-003;3.009158419445157E-003;5.035862326622009E-003;
2.412333333333334E+009;1.785683333873749E-001;-5.027281120419502E-003;3.149689408019185E-003;4.962664563208818E-003;
2.412500000000000E+009;1.790013164281845E-001;-7.534170057624579E-003;2.983889309689403E-003;4.711968358606100E-003;
2.412666666666667E+009;1.794701665639877E-001;-9.848958812654018E-003;3.113352460786700E-003;4.662560299038887E-003;
2.412833333333334E+009;1.802221983671188E-001;-1.229155901819468E-002;3.161350497975946E-003;4.771674051880837E-003;
2.413000000000000E+009;1.808630824089050E-001;-1.470160670578480E-002;3.323978278785944E-003;4.666911438107491E-003;
2.413166666666667E+009;1.818904280662537E-001;-1.701579988002777E-002;3.350127255544066E-003;4.660361912101507E-003;
2.413333333333334E+009;1.826842278242111E-001;-1.938099972903729E-002;3.438499988988042E-003;4.806427750736475E-003;
2.413500000000000E+009;1.836692243814468E-001;-2.172993868589401E-002;3.635831875726581E-003;4.682394675910473E-003;
2.413666666666667E+009;1.847979724407196E-001;-2.388918958604336E-002;3.686962183564901E-003;4.858052823692560E-003;
2.413833333333334E+009;1.860873550176621E-001;-2.585786394774914E-002;3.816860262304544E-003;4.843530710786581E-003;
2.414000000000000E+009;1.869795322418213E-001;-2.789849229156971E-002;4.091965500265360E-003;4.740010015666485E-003;
2.414166666666667E+009;1.883001774549484E-001;-2.957177162170410E-002;4.372452851384878E-003;4.773059859871864E-003;
2.414333333333334E+009;1.893626451492310E-001;-3.163653612136841E-002;4.537606146186590E-003;4.686417523771524E-003;
2.414500000000000E+009;1.905963420867920E-001;-3.321334347128868E-002;4.676336888223887E-003;4.544166848063469E-003;
2.414666666666667E+009;1.917355507612228E-001;-3.454241529107094E-002;5.056456662714481E-003;4.453770816326141E-003;
2.414833333333334E+009;1.929907947778702E-001;-3.582362830638886E-002;5.226259585469961E-003;4.258535336703062E-003;
2.415000000000000E+009;1.940519064664841E-001;-3.723699226975441E-002;5.351382307708263E-003;4.008987918496132E-003;
2.415166666666667E+009;1.951524764299393E-001;-3.833145275712013E-002;5.586157552897930E-003;3.820140613242984E-003;
2.415333333333334E+009;1.964563727378845E-001;-3.925321996212006E-002;5.857327487319708E-003;3.706604242324829E-003;
2.415500000000000E+009;1.974959820508957E-001;-3.994225710630417E-002;5.797322373837233E-003;3.494840115308762E-003;
2.415666666666667E+009;1.985229104757309E-001;-4.072679579257965E-002;6.014878861606121E-003;3.304277546703816E-003;
2.415833333333334E+009;1.994922757148743E-001;-4.128987714648247E-002;6.156600546091795E-003;2.957265125587583E-003;
2.416000000000000E+009;2.001618742942810E-001;-4.177583754062653E-002;6.222886033356190E-003;2.779986243695021E-003;
2.416166666666667E+009;2.009462863206863E-001;-4.237630590796471E-002;6.282141897827387E-003;2.631969051435590E-003;
2.416333333333334E+009;2.016341239213944E-001;-4.260433837771416E-002;6.311523262411356E-003;2.513786777853966E-003;
2.416500000000000E+009;2.020329087972641E-001;-4.277903586626053E-002;6.480376236140728E-003;2.120450837537646E-003;
2.416666666666667E+009;2.023049741983414E-001;-4.307151958346367E-002;6.379147525876761E-003;2.067888388410211E-003;
2.416833333333334E+009;2.025855928659439E-001;-4.307375848293304E-002;6.444807164371014E-003;1.988783478736877E-003;
2.417000000000000E+009;2.027618438005447E-001;-4.315355792641640E-002;6.435971707105637E-003;1.767435227520764E-003;
2.417166666666667E+009;2.024058848619461E-001;-4.304492473602295E-002;6.442033220082521E-003;1.631902763620019E-003;
2.417333333333334E+009;2.023649811744690E-001;-4.287548735737801E-002;6.653234362602234E-003;1.542433281429112E-003;
2.417500000000000E+009;2.019824385643005E-001;-4.286701977252960E-002;6.654267664998770E-003;1.297168433666229E-003;
2.417666666666667E+009;2.014956176280975E-001;-4.263289645314217E-002;6.677394732832909E-003;1.269450294785202E-003;
2.417833333333334E+009;2.010869234800339E-001;-4.250832274556160E-002;6.995861418545246E-003;8.570715435780585E-004;
2.418000000000000E+009;2.004112303256989E-001;-4.216628521680832E-002;6.920974701642990E-003;7.876249146647751E-004;
2.418166666666667E+009;1.996522396802902E-001;-4.220993816852570E-002;6.871667224913836E-003;6.556795560754836E-004;
2.418333333333334E+009;1.986615061759949E-001;-4.193176701664925E-002;6.969393696635962E-003;3.311629989184439E-004;
2.418500000000000E+009;1.976572871208191E-001;-4.195098206400871E-002;7.050922606140375E-003;1.673770311754197E-004;
2.418666666666667E+009;1.968156397342682E-001;-4.189123213291168E-002;7.227162364870310E-003;-7.047646067803726E-005;
2.418833333333334E+009;1.954407691955566E-001;-4.213577136397362E-002;7.118786685168743E-003;-4.251855716574937E-004;
2.419000000000000E+009;1.941736489534378E-001;-4.223012179136276E-002;7.220379542559385E-003;-5.605118349194527E-004;
2.419166666666667E+009;1.929455846548080E-001;-4.254589229822159E-002;7.085605058819056E-003;-8.692840929143131E-004;
2.419333333333334E+009;1.915127336978912E-001;-4.302933439612389E-002;7.132529281079769E-003;-1.152320066466928E-003;
2.419500000000000E+009;1.900065988302231E-001;-4.356177896261215E-002;6.892561912536621E-003;-1.345439814031124E-003;
2.419666666666667E+009;1.883993148803711E-001;-4.414073750376701E-002;6.921255029737949E-003;-1.556335831992328E-003;
2.419833333333334E+009;1.868203878402710E-001;-4.491550475358963E-002;6.831020582467318E-003;-1.820835517719388E-003;
2.420000000000000E+009;1.853091418743134E-001;-4.591340944170952E-002;6.807823199778795E-003;-1.910245511680841E-003;
2.420166666666667E+009;1.836690604686737E-001;-4.668721929192543E-002;6.748427636921406E-003;-2.105698920786381E-003;
2.420333333333334E+009;1.821495443582535E-001;-4.799662530422211E-002;6.588159594684839E-003;-2.415176248177886E-003;
2.420500000000000E+009;1.803428381681442E-001;-4.938640072941780E-002;6.556487176567316E-003;-2.519677393138409E-003;
2.420666666666667E+009;1.785821616649628E-001;-5.039483308792114E-002;6.464801728725433E-003;-2.694769762456417E-003;
2.420833333333334E+009;1.771125644445419E-001;-5.193734914064407E-002;6.473958492279053E-003;-2.961298916488886E-003;
2.421000000000000E+009;1.754196882247925E-001;-5.363871529698372E-002;6.418184377253056E-003;-3.069166792556644E-003;
2.421166666666667E+009;1.742199510335922E-001;-5.527843907475472E-002;6.548229139298201E-003;-3.380884416401386E-003;
2.421333333333334E+009;1.725597381591797E-001;-5.671029165387154E-002;6.373155396431685E-003;-3.573269350454211E-003;
2.421500000000000E+009;1.711847186088562E-001;-5.887163802981377E-002;6.248715333640575E-003;-3.851462621241808E-003;
2.421666666666667E+009;1.700267940759659E-001;-6.055682152509689E-002;6.138878408819437E-003;-4.061741754412651E-003;
2.421833333333334E+009;1.687911897897720E-001;-6.255101412534714E-002;5.900394637137651E-003;-4.338938277214766E-003;
2.422000000000000E+009;1.677468568086624E-001;-6.433145701885223E-002;5.816308781504631E-003;-4.550092387944460E-003;
2.422166666666667E+009;1.668359190225601E-001;-6.645166128873825E-002;5.826302804052830E-003;-4.865885246545076E-003;
2.422333333333334E+009;1.657545417547226E-001;-6.847177445888519E-002;5.614755209535360E-003;-5.142932757735252E-003;
2.422500000000000E+009;1.650467962026596E-001;-7.051928341388702E-002;5.324624944478273E-003;-5.365019664168358E-003;
2.422666666666667E+009;1.642937064170837E-001;-7.246837019920349E-002;5.033446475863457E-003;-5.707391537725925E-003;
2.422833333333334E+009;1.639578044414520E-001;-7.474645227193832E-002;4.845470190048218E-003;-5.877160932868719E-003;
2.423000000000000E+009;1.633357107639313E-001;-7.672563195228577E-002;4.480798728764057E-003;-6.045253947377205E-003;
2.423166666666667E+009;1.630877256393433E-001;-7.875751703977585E-002;4.209899343550205E-003;-6.175994873046875E-003;
2.423333333333334E+009;1.627891808748245E-001;-8.075613528490067E-002;3.947022370994091E-003;-6.292972248047590E-003;
2.423500000000000E+009;1.627819985151291E-001;-8.261726051568985E-002;3.520720638334751E-003;-6.554640363901854E-003;
2.423666666666667E+009;1.627776622772217E-001;-8.447263389825821E-002;3.253883449360728E-003;-6.578023079782724E-003;
2.423833333333334E+009;1.627179384231567E-001;-8.642854541540146E-002;2.693460788577795E-003;-6.493282970041037E-003;
2.424000000000000E+009;1.628907620906830E-001;-8.805034309625626E-002;2.443012548610568E-003;-6.611536256968975E-003;
2.424166666666667E+009;1.628289818763733E-001;-8.967811614274979E-002;2.282458590343595E-003;-6.787821650505066E-003;
2.424333333333334E+009;1.631222069263458E-001;-9.136612713336945E-002;1.824654522351921E-003;-6.608205381780863E-003;
2.424500000000000E+009;1.635972112417221E-001;-9.312937408685684E-002;1.586726633831859E-003;-6.783196702599526E-003;
2.424666666666667E+009;1.638899147510529E-001;-9.437891095876694E-002;1.139618223533034E-003;-6.418984849005938E-003;
2.424833333333334E+009;1.642777919769287E-001;-9.571598470211029E-002;9.001818252727389E-004;-6.365411449223757E-003;
2.425000000000000E+009;1.646779328584671E-001;-9.690427035093308E-002;6.588525720871985E-004;-6.246378645300865E-003;
2.425166666666667E+009;1.649857461452484E-001;-9.803278744220734E-002;3.386227763257921E-004;-6.064598448574543E-003;
2.425333333333334E+009;1.654472202062607E-001;-9.890338778495789E-002;-8.173773676389828E-005;-6.134538445621729E-003;
2.425500000000000E+009;1.657752692699432E-001;-9.997837245464325E-002;-1.659329427639023E-004;-5.758741404861212E-003;
2.425666666666667E+009;1.662386804819107E-001;-1.007022932171822E-001;-3.238270001020283E-004;-5.639708600938320E-003;
2.425833333333334E+009;1.665496528148651E-001;-1.014297381043434E-001;-3.688575525302440E-004;-5.621834658086300E-003;
2.426000000000000E+009;1.669549196958542E-001;-1.020135581493378E-001;-5.541214486584067E-004;-5.283858161419630E-003;
2.426166666666667E+009;1.673180311918259E-001;-1.024485453963280E-001;-8.221728494390845E-004;-5.233387462794781E-003;
2.426333333333334E+009;1.673694103956223E-001;-1.029031798243523E-001;-8.469266467727721E-004;-5.160124506801367E-003;
2.426500000000000E+009;1.678175628185272E-001;-1.031399890780449E-001;-1.014323439449072E-003;-4.705260042101145E-003;
2.426666666666667E+009;1.682002544403076E-001;-1.035180166363716E-001;-1.181533094495535E-003;-4.558504093438387E-003;
2.426833333333334E+009;1.682883650064468E-001;-1.037277579307556E-001;-1.297872746363282E-003;-4.304289817810059E-003;
2.427000000000000E+009;1.682291477918625E-001;-1.039311438798904E-001;-1.247705775313079E-003;-4.346737172454596E-003;
2.427166666666667E+009;1.682101190090179E-001;-1.039947345852852E-001;-1.165777328424156E-003;-4.178624600172043E-003;
2.427333333333334E+009;1.681395620107651E-001;-1.041334122419357E-001;-1.345800003036857E-003;-4.129824694246054E-003;
2.427500000000000E+009;1.678874939680100E-001;-1.044014543294907E-001;-1.289013423956931E-003;-3.890634980052710E-003;
2.427666666666667E+009;1.674881428480148E-001;-1.042539700865746E-001;-1.331385807134211E-003;-3.618629882112145E-003;
2.427833333333334E+009;1.671425402164459E-001;-1.044415533542633E-001;-1.391276367940009E-003;-3.674933919683099E-003;
