# Hz S RI R 50
2400000000.0000000000 0.168227329850196810623330634371 0.039656504988670349121093750000 0.002049425384029746055603027344 0.002043025102466344833374023438 0 0 0 0 
2400166666.6666665077 0.169156163930892888824786268742 0.039029516279697418212890625000 0.002062046201899648146388388525 0.001888452563434839031816792065 0 0 0 0 
2400333333.3333334923 0.169555261731147793868856865629 0.038319893181324012065847028907 0.002036561490967870192286826025 0.002087183762341738180873251807 0 0 0 0 
2400500000.0000000000 0.170356452465057400802450615629 0.037213992327451712871511091407 0.002205519471317530112025595557 0.001991686644032597975489951025 0 0 0 0 
2400666666.6666665077 0.170722752809524508377236884371 0.036461837589740753173828125000 0.002451091073453425927403115381 0.002029474359005690054652548682 0 0 0 0 
2400833333.3333334923 0.171399071812629699707031250000 0.035682305693626396869699846093 0.002589118899777532057521201025 0.001932404935359955050824809497 0 0 0 0 
2401000000.0000000000 0.171767070889472989181356865629 0.034849207848310470581054687500 0.002698440104722977118251181494 0.001844125799834728024126362378 0 0 0 0 
2401166666.6666665077 0.171946108341217013260049384371 0.033976145088672637939453125000 0.002910598646849393844604492188 0.001836551236920058944104838794 0 0 0 0 
2401333333.3333334923 0.172170594334602411468182481258 0.033340726047754287719726562500 0.003003424964845180945155478369 0.001752801006659864945652627100 0 0 0 0 
2401500000.0000000000 0.172625198960304288009481865629 0.032614968717098243022878278907 0.003346048528328537940979003906 0.001675112755037843964220356519 0 0 0 0 
2401666666.6666665077 0.172710135579109191894531250000 0.031889278441667556762695312500 0.003470592899248003959655761719 0.001409344142302870967267680591 0 0 0 0 
2401833333.3333334923 0.172973275184631403167401231258 0.031194262206554409372349923046 0.003577416297048329873325966943 0.001222478109411895058275532300 0 0 0 0 
2402000000.0000000000 0.172808334231376703460369981258 0.030253380537033081054687500000 0.003791182534769177003147744287 0.000966149556916207075119018555 0 0 0 0 
2402166666.6666665077 0.172887161374092102050781250000 0.029413707554340359079381173046 0.003644240554422140121459960938 0.000847553194034844636917114258 0 0 0 0 
2402333333.3333334923 0.172893315553665188888388115629 0.028637822717428210866907889454 0.003662018338218330903294228662 0.000535782950464636087417602539 0 0 0 0 
2402500000.0000000000 0.173077240586280794998330634371 0.027547366917133331298828125000 0.003592161461710929870605468750 0.000183100346475839587763109750 0 0 0 0 
2402666666.6666665077 0.172916665673255892654580634371 0.026983965188264850271204764454 0.003702515037730336189270019531 0.000137040988192893591806134634 0 0 0 0 
2402833333.3333334923 0.172933951020240811446981865629 0.026123778894543651235560233204 0.003365745302289723916294716943 0.000077695891377516090869903564 0 0 0 0 
2403000000.0000000000 0.172789394855499295333700615629 0.025146476924419399606724923046 0.003455378348007798194885253906 -0.000221601847442798289373674936 0 0 0 0 
2403166666.6666665077 0.172769501805305508712606865629 0.024059575051069259643554687500 0.003514072857797145843505859375 -0.000133884735987521708011627197 0 0 0 0 
2403333333.3333334923 0.172509163618087796310263115629 0.023125726729631420480748360546 0.003163001500070095062255859375 -0.000347081135259941220283508301 0 0 0 0 
2403500000.0000000000 0.172310158610343905349893134371 0.022108104079961780202845389454 0.003301096381619573073146201025 -0.000481036375276744419902247296 0 0 0 0 
2403666666.6666665077 0.172139316797256497482138115629 0.020809281617403030395507812500 0.003258045529946684837341308594 -0.000467153266072273308604639874 0 0 0 0 
2403833333.3333334923 0.172065302729606600662393134371 0.019684718921780589712122733204 0.003045179648324846787693642725 -0.000564235437195748090744018555 0 0 0 0 
2404000000.0000000000 0.171544656157493591308593750000 0.018544027581810951232910156250 0.003117699408903717994689941406 -0.000573779398109763860702514648 0 0 0 0 
2404166666.6666665077 0.171575158834457397460937500000 0.017162762582302090036412423046 0.003075486049056053161621093750 -0.000671538058668375015258789062 0 0 0 0 
2404333333.3333334923 0.171365350484847994705361884371 0.016164634376764300954798514454 0.003172251163050531907322548975 -0.000609098991844803094863891602 0 0 0 0 
2404500000.0000000000 0.171106234192848205566406250000 0.014658282510936260223388671875 0.003119975794106721878051757812 -0.000684317143168300390243530273 0 0 0 0 
2404666666.6666665077 0.170870676636695889571981865629 0.013248378410935400181780430273 0.003108470700681209997889853369 -0.000887522066477686166763305664 0 0 0 0 
2404833333.3333334923 0.170628175139427212814169365629 0.011897698044776919973353201954 0.003154015168547629876377724756 -0.000810947967693209648132324219 0 0 0 0 
2405000000.0000000000 0.170456483960151700118856865629 0.010232893750071530777900896680 0.003151800250634551048278808594 -0.001083383802324533896205283057 0 0 0 0 
2405166666.6666665077 0.170238539576530512054119981258 0.008861775510013103485107421875 0.003304039826616644859313964844 -0.001040443778038024902343750000 0 0 0 0 
2405333333.3333334923 0.170324042439460809905682481258 0.007183701265603303909301757812 0.003227590117603539986851357568 -0.001107299933210015080095600659 0 0 0 0 
2405500000.0000000000 0.169980421662330599685830634371 0.005751452874392271041870117188 0.003134120954200624985935830225 -0.001506972825154661915422749097 0 0 0 0 
2405666666.6666665077 0.169858634471893310546875000000 0.004034609533846378326416015625 0.003159966086968779997584677588 -0.001504870131611824035644531250 0 0 0 0 
2405833333.3333334923 0.169573813676834106445312500000 0.002469947095960379080531454932 0.003351404098793863816502236475 -0.001716221333481370969059609521 0 0 0 0 
2406000000.0000000000 0.169399663805961608886718750000 0.000552351586520671844482421875 0.003196642966940999031066894531 -0.001882913755252956910374306787 0 0 0 0 
2406166666.6666665077 0.169002637267112704178018134371 -0.000882326567079871892929077148 0.003058124799281359152552939307 -0.002052782336249947981593466650 0 0 0 0 
2406333333.3333334923 0.169041290879249600509481865629 -0.002545867813751101927516318213 0.002966527361422777175903320312 -0.002163329394534229798557900537 0 0 0 0 
2406500000.0000000000 0.168671607971191406250000000000 -0.004316675942391157150268554688 0.002831096528097987174987792969 -0.002314340788871049880981445312 0 0 0 0 
2406666666.6666665077 0.168445467948913601974325615629 -0.005822751671075820922851562500 0.002806237665936350822448730469 -0.002467475133016705946681357275 0 0 0 0 
2406833333.3333334923 0.168330520391464205642861884371 -0.007631115149706602096557617188 0.002712463494390248818638466943 -0.002591944066807628111598349463 0 0 0 0 
2407000000.0000000000 0.168068677186965886871661268742 -0.009130172431468963623046875000 0.002587663708254694938659667969 -0.002666650572791696028468466650 0 0 0 0 
2407166666.6666665077 0.168115168809890802581463731258 -0.010578083805739879608154296875 0.002445833059027791023254394531 -0.002697129733860493139979697119 0 0 0 0 
2407333333.3333334923 0.167734026908874511718750000000 -0.012170658446848390751848789648 0.002395910210907458825352334131 -0.002930483547970653013942099463 0 0 0 0 
2407500000.0000000000 0.167513325810432406326455634371 -0.013510082848370080430000506055 0.002213258761912583871128701318 -0.003048612968996167182922363281 0 0 0 0 
2407666666.6666665077 0.167416498064994812011718750000 -0.014825214631855489558209804102 0.001863666693679987950565957178 -0.003121938323602079911472939600 0 0 0 0 
2407833333.3333334923 0.167217731475830105880575615629 -0.016062986105680469167689139454 0.001698288018815218968632363428 -0.003243716433644295172450400244 0 0 0 0 
2408000000.0000000000 0.167113021016120910644531250000 -0.017396101728081699716588204296 0.001687188865616918043849326025 -0.003186367684975266890284872900 0 0 0 0 
2408166666.6666665077 0.167029336094856289962606865629 -0.018301261588931080209752266796 0.001411627861671149947522807544 -0.003246493870392442183253622900 0 0 0 0 
2408333333.3333334923 0.167328372597694396972656250000 -0.019474646076560020446777343750 0.001056886860169470093370747144 -0.003104396630078554153442382812 0 0 0 0 
2408500000.0000000000 0.167120546102523803710937500000 -0.020599192008376121520996093750 0.000969233689829707254111135217 -0.003098488785326480865478515625 0 0 0 0 
2408666666.6666665077 0.167421892285347012618856865629 -0.021497825160622600210169608204 0.000756031775381416082382202148 -0.003089413512498139901402138818 0 0 0 0 
2408833333.3333334923 0.167545273900031987945880018742 -0.022522229701280590402623360546 0.000578827108256518840789794922 -0.002860447159036993980407714844 0 0 0 0 
2409000000.0000000000 0.167695373296737698654013115629 -0.023376250639557838439941406250 0.000594751210883259773254394531 -0.002944847568869591192958212744 0 0 0 0 
2409166666.6666665077 0.167941823601722689529580634371 -0.024358980357646938669224923046 0.000433576758950948715209960938 -0.002889445284381508827209472656 0 0 0 0 
2409333333.3333334923 0.168380349874496487716513115629 -0.025411687791347500192662423046 0.000370838592061772888332921161 -0.002827874617651104927062988281 0 0 0 0 
2409500000.0000000000 0.168500363826751708984375000000 -0.026490699499845511699636091407 0.000342858373187482411235255109 -0.002692040754482150077819824219 0 0 0 0 
2409666666.6666665077 0.168868824839592007736044365629 -0.027340931817889210092564766796 0.000407126557547599077224731445 -0.002609004732221364974975585938 0 0 0 0 
2409833333.3333334923 0.169025138020515386383380018742 -0.028127577155828479421595389454 0.000259229622315615415573120117 -0.002474677516147493882420205225 0 0 0 0 
2410000000.0000000000 0.169329479336738586425781250000 -0.029056614264845851552943045704 0.000363436440238729119300842285 -0.002424050122499465942382812500 0 0 0 0 
2410166666.6666665077 0.169550761580467196365518134371 -0.029901707544922828674316406250 0.000220022091525606811046600342 -0.002397105097770690917968750000 0 0 0 0 
2410333333.3333334923 0.169570460915565490722656250000 -0.031050061807036399841308593750 0.000481682829558849280506688251 -0.002316334517672657966613769531 0 0 0 0 
2410500000.0000000000 0.169808670878410311599893134371 -0.031793620437383651733398437500 0.000329302420141175389289855957 -0.002343466971069573922398232568 0 0 0 0 
2410666666.6666665077 0.169779643416404696365518134371 -0.032675012946128852153737653907 0.000462303549284115379482823505 -0.002501027425751090049743652344 0 0 0 0 
2410833333.3333334923 0.169837117195129394531250000000 -0.033601284027099609375000000000 0.000575844256673008203506469727 -0.002381631638854742050170898438 0 0 0 0 
2411000000.0000000000 0.169849842786788912674111884371 -0.034303262829780578613281250000 0.000643992796540260314941406250 -0.002630092902109026908874511719 0 0 0 0 
2411166666.6666665077 0.169778764247894287109375000000 -0.035184595733880996704101562500 0.000351230119122192317813319073 -0.002782986499369144006016396631 0 0 0 0 
2411333333.3333334923 0.169791206717491205413494981258 -0.036077175289392471313476562500 0.000414071197155863100856226788 -0.002766382182016969160792685400 0 0 0 0 
2411500000.0000000000 0.169458717107772799392861884371 -0.036864936351776123046875000000 0.000284328940324485301971435547 -0.002937546232715249061584472656 0 0 0 0 
2411666666.6666665077 0.169450357556343106368856865629 -0.037419032305479049682617187500 0.000284866051515564322471618652 -0.002843471011146903038024902344 0 0 0 0 
2411833333.3333334923 0.169204771518707303146200615629 -0.038255449384450912475585937500 0.000135279988171532804339808331 -0.003031353699043393135070800781 0 0 0 0 
2412000000.0000000000 0.169199109077453613281250000000 -0.039160694926977157592773437500 0.000041652318031992763280868530 -0.003059810725972055955174111475 0 0 0 0 
2412166666.6666665077 0.168992444872856112381143134371 -0.040100000798702239990234375000 -0.000080771642387844622135162354 -0.003137939143925904793980263818 0 0 0 0 
2412333333.3333334923 0.168684110045432988922442518742 -0.040921404957771301269531250000 -0.000004200803687126609412482662 -0.003151521785184741020202636719 0 0 0 0 
2412500000.0000000000 0.168312355875968905349893134371 -0.041611414402723312377929687500 -0.000178365051397122388512211932 -0.003296460257843136787414550781 0 0 0 0 
2412666666.6666665077 0.167889326810836791992187500000 -0.042685844004154212261159528907 -0.000309508846839889883995056152 -0.003472437150776385827305459131 0 0 0 0 
2412833333.3333334923 0.167584419250488309005575615629 -0.043399192392826080322265625000 -0.000390055764000862782627659930 -0.003328599035739899115321493994 0 0 0 0 
2413000000.0000000000 0.167038023471832303146200615629 -0.044257517904043197631835937500 -0.000730071100406348705291748047 -0.003340381896123290061950683594 0 0 0 0 
2413166666.6666665077 0.166686251759529113769531250000 -0.045069500803947448730468750000 -0.000868701376020908355712890625 -0.003468637587502599196193076025 0 0 0 0 
2413333333.3333334923 0.166104704141616793533486884371 -0.046195883303880691528320312500 -0.001066586934030055999755859375 -0.003377693006768823103663779150 0 0 0 0 
2413500000.0000000000 0.165646404027938787262286268742 -0.047035600990056991577148437500 -0.001261608442291616959812783350 -0.003346937475726007981541298975 0 0 0 0 
2413666666.6666665077 0.165316611528396606445312500000 -0.047783441841602332378347028907 -0.001416017767041922049281454932 -0.003349067177623509927036904443 0 0 0 0 
2413833333.3333334923 0.164513334631919888595419365629 -0.048660729080438606952707658593 -0.001649975893087685108184814453 -0.003273594891652464866638183594 0 0 0 0 
2414000000.0000000000 0.164053171873092706878338731258 -0.049748171120882027362863908593 -0.001713887555524707057355571216 -0.003225641557946801185607910156 0 0 0 0 
2414166666.6666665077 0.163534328341484097579794365629 -0.050613954663276672363281250000 -0.001984202535822987990138388525 -0.003051156410947442054748535156 0 0 0 0 
2414333333.3333334923 0.163148865103721590896768134371 -0.051374036818742752075195312500 -0.002088882029056549072265625000 -0.002990989014506340026855468750 0 0 0 0 
2414500000.0000000000 0.162910029292106600662393134371 -0.052250258624553680419921875000 -0.002221297938376665115356445312 -0.002880209591239691214320517432 0 0 0 0 
2414666666.6666665077 0.162292167544364901443643134371 -0.053232956677675247192382812500 -0.002377521945163608031031943213 -0.002572518540546298027038574219 0 0 0 0 
2414833333.3333334923 0.161740556359291104415731865629 -0.054255619645118713378906250000 -0.002490006387233734130859375000 -0.002511588158085941834690713037 0 0 0 0 
2415000000.0000000000 0.161502763628959711272869981258 -0.055185835808515548706054687500 -0.002440897747874259948730468750 -0.002425674581900238990783691406 0 0 0 0 
2415166666.6666665077 0.161228403449058504959268134371 -0.056311767548322677612304687500 -0.002640977269038558006286621094 -0.002146691782400012016296386719 0 0 0 0 
2415333333.3333334923 0.161070674657821710784588731258 -0.057463824748992919921875000000 -0.002628022804856299920323037256 -0.002091091359034181074855185400 0 0 0 0 
2415500000.0000000000 0.160699889063835088531817518742 -0.058561407029628746723215471093 -0.002652507042512298063990927588 -0.001839609816670418002484965747 0 0 0 0 
2415666666.6666665077 0.160405695438385009765625000000 -0.059661272913217551494557966407 -0.002716133370995521979091025244 -0.001716212485916912989375449072 0 0 0 0 
2415833333.3333334923 0.160119503736495999435263115629 -0.060963023453950881958007812500 -0.002630853326991200013401650537 -0.001543067279271781010868691553 0 0 0 0 
2416000000.0000000000 0.159724473953247098068075615629 -0.062310934066772460937500000000 -0.002565669827163219885585165869 -0.001471824478358030102373432690 0 0 0 0 
2416166666.6666665077 0.159577906131744412521200615629 -0.063526883721351623535156250000 -0.002592353848740458922145224463 -0.001313804765231906934025429834 0 0 0 0 
2416333333.3333334923 0.159169048070907592773437500000 -0.064718574285507202148437500000 -0.002498362679034471945521689307 -0.001107671763747930960414267432 0 0 0 0 
2416500000.0000000000 0.158829614520072909256143134371 -0.066105939447879791259765625000 -0.002455172594636679129359579932 -0.001338450820185244083404541016 0 0 0 0 
2416666666.6666665077 0.158450096845626803299111884371 -0.067295089364051818847656250000 -0.002548740245401858849766396631 -0.001061817631125449917436909253 0 0 0 0 
2416833333.3333334923 0.158178612589836092849893134371 -0.068687885999679565429687500000 -0.002438052324578166007995605469 -0.001079328008927405097364116138 0 0 0 0 
2417000000.0000000000 0.157532036304473904708700615629 -0.069980256259441375732421875000 -0.002545721363276243209838867188 -0.000962168676778674125671386719 0 0 0 0 
2417166666.6666665077 0.157171592116355895996093750000 -0.070952743291854858398437500000 -0.002555889775976539091822958838 -0.001079626730643213012098002856 0 0 0 0 
2417333333.3333334923 0.156821310520172091385049384371 -0.072173014283180236816406250000 -0.002602897118777037100550986182 -0.000915738637559115886688232422 0 0 0 0 
2417500000.0000000000 0.156563460826873807052450615629 -0.073392137885093688964843750000 -0.002627106383442879156825400244 -0.000888057984411716461181640625 0 0 0 0 
2417666666.6666665077 0.156214073300361605545205634371 -0.074384786188602447509765625000 -0.002567190444096922874450683594 -0.000731140375137329101562500000 0 0 0 0 
2417833333.3333334923 0.155942186713218688964843750000 -0.075297422707080841064453125000 -0.002628425136208533807041787256 -0.000603067514020949602127075195 0 0 0 0 
2418000000.0000000000 0.155468359589576693435830634371 -0.076416045427322387695312500000 -0.002544035436585545973536826025 -0.000525897310581058263778686523 0 0 0 0 
2418166666.6666665077 0.155332535505294799804687500000 -0.077253885567188262939453125000 -0.002749471925199031829833984375 -0.000439276860561221783787327899 0 0 0 0 
2418333333.3333334923 0.155346006155014010330361884371 -0.078216776251792907714843750000 -0.002577186794951558113098144531 -0.000357761251507327014773768292 0 0 0 0 
2418500000.0000000000 0.155025497078895596603231865629 -0.079122632741928100585937500000 -0.002460000570863484902622841943 -0.000317941565299406701892298566 0 0 0 0 
2418666666.6666665077 0.154855027794838007171307481258 -0.080023542046546936035156250000 -0.002275530481711030006408691406 -0.000250388315180316621631068097 0 0 0 0 
2418833333.3333334923 0.154421538114547701736611884371 -0.080921009182929992675781250000 -0.002502159914001822905299521338 -0.000139315670821815702036181039 0 0 0 0 
2419000000.0000000000 0.154196098446846008300781250000 -0.081923022866249084472656250000 -0.002362630330026150183436728369 -0.000194038875633850693702697754 0 0 0 0 
2419166666.6666665077 0.153973057866096496582031250000 -0.082613237202167510986328125000 -0.002164780627936124801635742188 -0.000159471004735678407266893930 0 0 0 0 
2419333333.3333334923 0.153707638382911709884481865629 -0.083133757114410400390625000000 -0.002329297596588730812072753906 -0.000135997688630595803260803223 0 0 0 0 
2419500000.0000000000 0.153474122285842895507812500000 -0.084141843020915985107421875000 -0.002211588667705655097961425781 -0.000213951323530636700704851694 0 0 0 0 
2419666666.6666665077 0.153334110975265502929687500000 -0.084782071411609649658203125000 -0.002115059178322554068324423682 -0.000375216361135244423716944562 0 0 0 0 
2419833333.3333334923 0.152960643172264099121093750000 -0.085352107882499694824218750000 -0.002254789695143700079676962744 -0.000354745832737535184055882587 0 0 0 0 
