# Hz S RI R 50
2400000000.0000000000 0.156322553753852788727130018742 0.060128092765808112407643903907 -0.005702124908566474914550781250 0.000807733274996280670166015625 0 0 0 0 
2400166666.6666665077 0.156426042318344088455361884371 0.058459259569644927978515625000 -0.005642278585582971572875976562 0.001027713180519640012028359521 0 0 0 0 
2400333333.3333334923 0.156389489769935607910156250000 0.056214429438114173198659528907 -0.005583134014159440994262695312 0.000988816376775503158569335938 0 0 0 0 
2400500000.0000000000 0.156503334641456604003906250000 0.054281681776046752929687500000 -0.005659039597958326339721679688 0.001305026118643582084058452075 0 0 0 0 
2400666666.6666665077 0.156533673405647305587606865629 0.052171908318996429443359375000 -0.005558450240641832351684570312 0.001347575685940683104871440356 0 0 0 0 
2400833333.3333334923 0.157177597284316988845986884371 0.050375867635011672973632812500 -0.005482548847794532775878906250 0.001743627130053937001469277490 0 0 0 0 
2401000000.0000000000 0.157286018133163507659588731258 0.048168644309043877338449846093 -0.005470087751746177673339843750 0.001767446869052947001216269385 0 0 0 0 
2401166666.6666665077 0.157777369022369412521200615629 0.046171512454748146747629533593 -0.005240830592811107635498046875 0.002155120717361568970921181787 0 0 0 0 
2401333333.3333334923 0.158057108521461486816406250000 0.043964333832263946533203125000 -0.005468926858156920346731855176 0.002366672269999980926513671875 0 0 0 0 
2401500000.0000000000 0.158733099699020413497763115629 0.041996967047452926635742187500 -0.005453975405544042587280273438 0.002359026810154318809509277344 0 0 0 0 
2401666666.6666665077 0.159222885966300992111044365629 0.040215373039245612407643903907 -0.005223799962550401687622070312 0.002617760095745325088500976562 0 0 0 0 
2401833333.3333334923 0.159839361906051607986611884371 0.038135111331939697265625000000 -0.005257375072687864303588867188 0.002734190784394741058349609375 0 0 0 0 
2402000000.0000000000 0.160408154129981994628906250000 0.036294277757406241680104841407 -0.005314121022820472717285156250 0.002901811385527253150939941406 0 0 0 0 
2402166666.6666665077 0.161238759756088312347088731258 0.034274253994226462627370466407 -0.005124332383275032043457031250 0.003239939687773584885838173975 0 0 0 0 
2402333333.3333334923 0.161851614713668795486611884371 0.032942980527877807617187500000 -0.004994663875550031661987304688 0.003349402220919727845432900537 0 0 0 0 
2402500000.0000000000 0.162993609905242892166299384371 0.031134206801652908325195312500 -0.004854198545217514038085937500 0.003536190371960401968715048682 0 0 0 0 
2402666666.6666665077 0.163620054721832303146200615629 0.029504783451557159423828125000 -0.004712950903922319412231445312 0.003786792280152440071105957031 0 0 0 0 
2402833333.3333334923 0.164598837494850186446981865629 0.028128892183303829538365548046 -0.004487487953156232833862304688 0.003852685680612922148463583838 0 0 0 0 
2403000000.0000000000 0.165494203567504910568075615629 0.026651265099644660949707031250 -0.004460041411221027374267578125 0.004064530599862337112426757812 0 0 0 0 
2403166666.6666665077 0.166541218757629394531250000000 0.025322752073407169687291329296 -0.004322713706642389297485351562 0.004324856214225292205810546875 0 0 0 0 
2403333333.3333334923 0.167437702417373712737713731258 0.024238185957074168813685233204 -0.004133831243962050351614667676 0.004509192891418933868408203125 0 0 0 0 
2403500000.0000000000 0.168192476034164400955361884371 0.023050652816891670227050781250 -0.003965739160776138305664062500 0.004617150407284498214721679688 0 0 0 0 
2403666666.6666665077 0.169316321611404391189736884371 0.021841607987880710256556326954 -0.003757547587156296210048056494 0.004718372132629156112670898438 0 0 0 0 
2403833333.3333334923 0.170343592762947110275106865629 0.020901653915643688547154610546 -0.003530491376295686201808310400 0.004835865460336208343505859375 0 0 0 0 
2404000000.0000000000 0.171206384897232111175213731258 0.019733805209398269653320312500 -0.003445119829848409132716513525 0.004940269049257040023803710938 0 0 0 0 
2404166666.6666665077 0.172271713614463806152343750000 0.019063731655478480947474295704 -0.003263016464188694953918457031 0.005333011969923973083496093750 0 0 0 0 
2404333333.3333334923 0.173101797699928311446981865629 0.018383974209427830087681954296 -0.003032196545973420143127441406 0.005264950450509786605834960938 0 0 0 0 
2404500000.0000000000 0.173858672380447387695312500000 0.017376402392983440053919608204 -0.002939670579507946968078613281 0.005376586690545082092285156250 0 0 0 0 
2404666666.6666665077 0.174785017967224093338174384371 0.016967352479696270334263985546 -0.002523659728467464013340615381 0.005526924971491098403930664062 0 0 0 0 
2404833333.3333334923 0.175610601902008112151776231258 0.016377959400415420532226562500 -0.002376995049417018890380859375 0.005677757319062948226928710938 0 0 0 0 
2405000000.0000000000 0.176386848092079190353231865629 0.015770059078931808471679687500 -0.002247298369184135957005166162 0.005817327182739973068237304688 0 0 0 0 
2405166666.6666665077 0.176928281784057589431924384371 0.015408763661980630702008632227 -0.001851755077950655980351113428 0.005876677576452493667602539062 0 0 0 0 
2405333333.3333334923 0.177618712186813410003338731258 0.014852905645966529846191406250 -0.001803659717552364089368510669 0.005687708500772714614868164062 0 0 0 0 
2405500000.0000000000 0.178220376372337313553018134371 0.014534277841448780405064766796 -0.001554481219500303051592182690 0.006029977928847075376028730176 0 0 0 0 
2405666666.6666665077 0.178616538643837002853231865629 0.014307889156043529510498046875 -0.001144168782047926945927285303 0.006018579006195068359375000000 0 0 0 0 
2405833333.3333334923 0.178987160325050409515057481258 0.014073878526687620335589024023 -0.001047142548486589951756142725 0.005963790696114301681518554688 0 0 0 0 
2406000000.0000000000 0.179357901215553311446981865629 0.013554465025663379323939139454 -0.000655116164125502109527587891 0.005941645242273808392996503613 0 0 0 0 
2406166666.6666665077 0.179512739181518610198651231258 0.013520955108106139791468436329 -0.000501789618283510208129882812 0.005953683052211999893188476562 0 0 0 0 
2406333333.3333334923 0.179903104901313809493856865629 0.013250970281660560262659842579 -0.000270721269771456718444824219 0.005900548771023750305175781250 0 0 0 0 
2406500000.0000000000 0.179788514971733093261718750000 0.012836251407861709594726562500 0.000001238501909028854940669913 0.005894700996577739715576171875 0 0 0 0 
2406666666.6666665077 0.179660752415656987945880018742 0.012580530717968940734863281250 0.000244545633904635906219482422 0.006012944504618644714355468750 0 0 0 0 
2406833333.3333334923 0.179714113473892211914062500000 0.012130218558013439178466796875 0.000462280615465715473324376239 0.005816007498651742935180664062 0 0 0 0 
2407000000.0000000000 0.179716005921363802810830634371 0.011736963875591760117500506055 0.000701188517268747091293334961 0.005894601345062255859375000000 0 0 0 0 
2407166666.6666665077 0.179548576474189813811932481258 0.011460541747510429727574532421 0.000851883727591484785079956055 0.005805971566587687406058027051 0 0 0 0 
2407333333.3333334923 0.179213419556617709060830634371 0.010762448422610759735107421875 0.001183673855848609967472695459 0.005784687586128711700439453125 0 0 0 0 
2407500000.0000000000 0.178803429007530212402343750000 0.010407961905002590524693673046 0.001248914515599607987644814600 0.005577700678259134292602539062 0 0 0 0 
2407666666.6666665077 0.178383469581604003906250000000 0.009795398451387882232666015625 0.001499593723565340042114257812 0.005409743171185255050659179688 0 0 0 0 
2407833333.3333334923 0.177910432219505310058593750000 0.008982599712908267974853515625 0.001668968237936496951459575122 0.005342875607311725616455078125 0 0 0 0 
2408000000.0000000000 0.177427828311920193771200615629 0.008158263750374317169189453125 0.001860749558545649051666259766 0.005211928859353066358084394238 0 0 0 0 
2408166666.6666665077 0.176677182316780090332031250000 0.007445219904184341430664062500 0.001888037659227848052978515625 0.005136762280017138394827558301 0 0 0 0 
2408333333.3333334923 0.176216363906860407073651231258 0.006482709664851427078247070312 0.002099230885505675835850381006 0.005043250508606433868408203125 0 0 0 0 
2408500000.0000000000 0.175602883100509588043536268742 0.005430250428617000579833984375 0.002294933656230568885803222656 0.004817282315343618392944335938 0 0 0 0 
2408666666.6666665077 0.174853801727294894119424384371 0.004236608743667603406424237988 0.002310045063495635986328125000 0.004877922590821981430053710938 0 0 0 0 
2408833333.3333334923 0.174146398901939392089843750000 0.003104266477748752074000693213 0.002583343768492341041564941406 0.004654542542994022369384765625 0 0 0 0 
2409000000.0000000000 0.173521757125854492187500000000 0.001811761176213622093200683594 0.002625390887260437011718750000 0.004571997560560703277587890625 0 0 0 0 
2409166666.6666665077 0.172919914126396206954794365629 0.000314049684675410389900207520 0.002716114046052097840550088037 0.004351442679762840270996093750 0 0 0 0 
2409333333.3333334923 0.172262683510780306717080634371 -0.001096103107556700923322368091 0.002905127592384815216064453125 0.004269533790647984418387128613 0 0 0 0 
2409500000.0000000000 0.171487122774124201018963731258 -0.002856586128473281860351562500 0.002966762054711579842808388818 0.004238008987158536911010742188 0 0 0 0 
2409666666.6666665077 0.170823737978935186188067518742 -0.004201570525765419006347656250 0.003139765467494726181030273438 0.004043703898787499341482831738 0 0 0 0 
2409833333.3333334923 0.170214161276817294021768134371 -0.005846554413437843322753906250 0.003198029939085245132446289062 0.003927418030798435211181640625 0 0 0 0 
2410000000.0000000000 0.169872552156448392013388115629 -0.007571929600089787569527910449 0.003448205767199397087097167969 0.003938381094485521316528320312 0 0 0 0 
2410166666.6666665077 0.169343098998069790939169365629 -0.009380490519106388092041015625 0.003462418913841247992274618994 0.003565745195373892784118652344 0 0 0 0 
2410333333.3333334923 0.168928816914558410644531250000 -0.011065060272812839853306954296 0.003504954045638442039489746094 0.003615008201450109915492392432 0 0 0 0 
2410500000.0000000000 0.168533548712730407714843750000 -0.012884696945548059290875819727 0.003524821251630783081054687500 0.003414949402213097052333212744 0 0 0 0 
2410666666.6666665077 0.168045192956924410720986884371 -0.014939801767468450718889805273 0.003791516879573463959934853662 0.003212661482393742041346884619 0 0 0 0 
2410833333.3333334923 0.167868480086326599121093750000 -0.016770811751484870910644531250 0.003653668798506259918212890625 0.003085669130086898803710937500 0 0 0 0 
2411000000.0000000000 0.167869210243225097656250000000 -0.018777629360556599008580391796 0.003815340343862771987915039062 0.003150561358779668807983398438 0 0 0 0 
2411166666.6666665077 0.167706742882728604415731865629 -0.020854739472270008432408516796 0.003828193759545683860778808594 0.002809075172990560965297079932 0 0 0 0 
2411333333.3333334923 0.167449429631233187576455634371 -0.022471226751804348337193673046 0.003949352540075778961181640625 0.002821830101311206817626953125 0 0 0 0 
2411500000.0000000000 0.167511969804763793945312500000 -0.024785330519080158578892891796 0.004111567512154579162597656250 0.002500421833246945901157998193 0 0 0 0 
2411666666.6666665077 0.167905285954475402832031250000 -0.026560591533780101430872733204 0.004041191190481185913085937500 0.002379882847890257835388183594 0 0 0 0 
2411833333.3333334923 0.168022528290748596191406250000 -0.028338611125946048391321951954 0.004127406515181064605712890625 0.002224029041826725006103515625 0 0 0 0 
2412000000.0000000000 0.168359801173210088531817518742 -0.030546717345714569091796875000 0.004054740536957979202270507812 0.002020231215283275084254599463 0 0 0 0 
2412166666.6666665077 0.168358638882636996170205634371 -0.032370053231716162944753278907 0.004198507871478796005249023438 0.001888947794213891029357910156 0 0 0 0 
2412333333.3333334923 0.169133901596069308181924384371 -0.034196902066469192504882812500 0.004191936925053597363943769238 0.001757501158863306045532226562 0 0 0 0 
2412500000.0000000000 0.169355452060699490646200615629 -0.036070123314857482910156250000 0.004116675816476345062255859375 0.001572102308273314996006631006 0 0 0 0 
2412666666.6666665077 0.170007809996604891678018134371 -0.037906266748905181884765625000 0.004181887954473496350760175488 0.001542474026791750951054238428 0 0 0 0 
2412833333.3333334923 0.170378938317298889160156250000 -0.039406720548868179321289062500 0.004296311177313327789306640625 0.001127224531956017017364501953 0 0 0 0 
2413000000.0000000000 0.170895725488662691970986884371 -0.041114941239357001567800153907 0.004241289105266332626342773438 0.001208533532917499975917197119 0 0 0 0 
2413166666.6666665077 0.171495616436004610916299384371 -0.042814098298549652099609375000 0.004342833533883094787597656250 0.001021309755742549896240234375 0 0 0 0 
2413333333.3333334923 0.172203391790389986892861884371 -0.044255644083023071289062500000 0.004312611185014247894287109375 0.000896283483598381280899047852 0 0 0 0 
2413500000.0000000000 0.172850832343101501464843750000 -0.045751027762889862060546875000 0.004230970516800880432128906250 0.000564622809179127216339111328 0 0 0 0 
2413666666.6666665077 0.173436284065246609786825615629 -0.047077804803848266601562500000 0.004206234123557806015014648438 0.000476889137644320726394653320 0 0 0 0 
2413833333.3333334923 0.173919707536697387695312500000 -0.048334006220102310180664062500 0.004192911088466644287109375000 0.000473385414807125926017761230 0 0 0 0 
2414000000.0000000000 0.174419999122619601150674384371 -0.049625258892774581909179687500 0.004272578284144402417654706738 0.000228518125368282198905944824 0 0 0 0 
2414166666.6666665077 0.175268203020095797439736884371 -0.050690621137619018554687500000 0.004013568628579378128051757812 0.000211951599339954609244746075 0 0 0 0 
2414333333.3333334923 0.175727412104606600662393134371 -0.051775265485048287128488908593 0.004015026614069938659667968750 0.000089389664935879409313201904 0 0 0 0 
2414500000.0000000000 0.176364153623580904861611884371 -0.052603453397750847553293596093 0.003990586847066879272460937500 0.000028447188014979470858370134 0 0 0 0 
2414666666.6666665077 0.176845714449882507324218750000 -0.053353846073150641704518903907 0.003812337294220923943760537256 -0.000190686492715030908584594727 0 0 0 0 
2414833333.3333334923 0.177211493253707913497763115629 -0.054362639784812927246093750000 0.003736682934686541990992880713 -0.000274218065897002816200256348 0 0 0 0 
2415000000.0000000000 0.177611917257308987716513115629 -0.054828587919473648071289062500 0.003646712284535170035121298682 -0.000337542936904355883598327637 0 0 0 0 
2415166666.6666665077 0.178041875362396212478799384371 -0.055554214864969246601145158593 0.003674387233331799940821982275 -0.000536580220796167850494384766 0 0 0 0 
2415333333.3333334923 0.178293764591217013260049384371 -0.056040965020656592632253278907 0.003556015202775598006007529150 -0.000500383670441806316375732422 0 0 0 0 
2415500000.0000000000 0.178510248661041287521200615629 -0.056383989751338958740234375000 0.003422821871936320824864052881 -0.000508128665387630462646484375 0 0 0 0 
2415666666.6666665077 0.178603097796440096756143134371 -0.056836690753698348999023437500 0.003480102634057403044459677588 -0.000565100577659904956817626953 0 0 0 0 
2415833333.3333334923 0.178798794746398898025674384371 -0.057215888053178787231445312500 0.003392300102859735922572470557 -0.000782864575739949941635131836 0 0 0 0 
2416000000.0000000000 0.178620934486389187911825615629 -0.057431954890489578247070312500 0.003472535405308008193969726562 -0.000891688687261193990707397461 0 0 0 0 
2416166666.6666665077 0.178555712103843688964843750000 -0.057848580181598663330078125000 0.003458254737779498100280761719 -0.000880828360095620155334472656 0 0 0 0 
2416333333.3333334923 0.178227648138999911209268134371 -0.057908929884433753276784528907 0.003329457249492406845092773438 -0.000882036809343844652175903320 0 0 0 0 
2416500000.0000000000 0.178101062774658203125000000000 -0.058330275118350982666015625000 0.003397641470655798912048339844 -0.000939917401410639286041259766 0 0 0 0 
2416666666.6666665077 0.177584171295165987869424384371 -0.058461781591176986694335937500 0.003374395659193397001979208838 -0.001022897777147590897203754956 0 0 0 0 
2416833333.3333334923 0.177189186215400695800781250000 -0.058739643543958657001535783593 0.003288693027570844130275107275 -0.001024558558128773949266743237 0 0 0 0 
2417000000.0000000000 0.176461160182952908614950615629 -0.059060819447040557861328125000 0.003236112883314489884617470850 -0.001257329131476581096649169922 0 0 0 0 
2417166666.6666665077 0.175840273499488802810830634371 -0.059046268463134772563893903907 0.003028013976290822029113769531 -0.001273828092962502999546670068 0 0 0 0 
2417333333.3333334923 0.175109401345252990722656250000 -0.059317991137504577636718750000 0.003062695264816284179687500000 -0.001382854417897761084912944263 0 0 0 0 
2417500000.0000000000 0.174220085144042996505575615629 -0.059643574059009552001953125000 0.003183380933478475050685263525 -0.001449650619179009957554482568 0 0 0 0 
2417666666.6666665077 0.173424705862998990157919365629 -0.059810936450958251953125000000 0.003133538644760847091674804688 -0.001712702331133187034009623950 0 0 0 0 
2417833333.3333334923 0.172353491187095586578692518742 -0.060233078896999359130859375000 0.002990804379805922941920615088 -0.001651373342610896067378378760 0 0 0 0 
2418000000.0000000000 0.171317681670188903808593750000 -0.060676068067550659179687500000 0.003016166854649782180786132812 -0.001637826208025217056274414062 0 0 0 0 
2418166666.6666665077 0.170201629400253295898437500000 -0.061025250703096389770507812500 0.002998916665092111067530966650 -0.001807358697988092899322509766 0 0 0 0 
2418333333.3333334923 0.169275954365730313400106865629 -0.061638493090868003154714216407 0.002841985784471035003662109375 -0.001966551644727588133571005713 0 0 0 0 
2418500000.0000000000 0.168021470308303805252236884371 -0.062132731080055236816406250000 0.002871490549296141104457236182 -0.001884099561721086935756064307 0 0 0 0 
2418666666.6666665077 0.166870892047882107833700615629 -0.062732331454753875732421875000 0.002726085251197218894958496094 -0.001980260247364639802220009912 0 0 0 0 
2418833333.3333334923 0.165485948324203491210937500000 -0.063530541956424713134765625000 0.002709833905100822015049599756 -0.002032958203926682905909872900 0 0 0 0 
2419000000.0000000000 0.164080217480659512618856865629 -0.064235560595989227294921875000 0.002652599243447184996363974463 -0.002103435806930065155029296875 0 0 0 0 
2419166666.6666665077 0.163144573569297790527343750000 -0.065083637833595275878906250000 0.002595834434032440185546875000 -0.002341494895517826080322265625 0 0 0 0 
2419333333.3333334923 0.161620497703552301604901231258 -0.065835706889629364013671875000 0.002507932251319289207458496094 -0.002355483127757906913757324219 0 0 0 0 
2419500000.0000000000 0.160427629947662409026776231258 -0.067079000174999237060546875000 0.002462951466441154913661337744 -0.002380822785198688940760947119 0 0 0 0 
2419666666.6666665077 0.159470677375793512542401231258 -0.068216264247894287109375000000 0.002283747307956219153163290869 -0.002445055171847343011143349756 0 0 0 0 
2419833333.3333334923 0.158189386129379300216513115629 -0.069305315613746643066406250000 0.002190044848248362974879599463 -0.002429073443636298179626464844 0 0 0 0 
2420000000.0000000000 0.157149821519851712325888115629 -0.070451617240905761718750000000 0.002110424218699336051940917969 -0.002578460611402988000157021631 0 0 0 0 
