# Hz S RI R 50
2400000000.0000000000 0.168039500713348388671875000000 0.040524825453758239746093750000 0.002254755236208438873291015625 0.000147867045598104596138000488 0 0 0 0 
2400166666.6666665077 0.168810859322547912597656250000 0.039788372814655297016184221093 0.002397424774244428114650107275 0.000196833658264949890688219614 0 0 0 0 
2400333333.3333334923 0.169047385454177911956463731258 0.038885287940502166748046875000 0.002434692811220883889439248193 0.000092178997874725610017776489 0 0 0 0 
2400500000.0000000000 0.169722914695739801604901231258 0.038134556263685233379323591407 0.002492128172889351844787597656 0.000144509016536176204681396484 0 0 0 0 
2400666666.6666665077 0.170216679573059109786825615629 0.037088658660650253295898437500 0.002573671750724316076991415869 0.000009005309948406647890806198 0 0 0 0 
2400833333.3333334923 0.170630946755409212967080634371 0.036255136132240302349050153907 0.002712179906666278839111328125 -0.000080839898146223276853561401 0 0 0 0 
2401000000.0000000000 0.170853108167648287674111884371 0.035580184310674667358398437500 0.002739282092079519791844033350 -0.000127968771266750991344451904 0 0 0 0 
2401166666.6666665077 0.171098768711090087890625000000 0.034562125802040100097656250000 0.002953944960609077973606728662 -0.000121491953905206200763425284 0 0 0 0 
2401333333.3333334923 0.171280711889266995529013115629 0.033868812024593353271484375000 0.002871912671253085136413574219 -0.000454158987849950790405273438 0 0 0 0 
2401500000.0000000000 0.171552076935768099685830634371 0.033011648803949363017995466407 0.002804633229970932006835937500 -0.000539662665687501430511474609 0 0 0 0 
2401666666.6666665077 0.171602234244346590896768134371 0.032283470034599297260324846093 0.002864720067009329795837402344 -0.000717341492418199777603149414 0 0 0 0 
2401833333.3333334923 0.171591237187385586837606865629 0.031252797693014151836354841407 0.002836701460182667212245322119 -0.000838945212308317422866821289 0 0 0 0 
2402000000.0000000000 0.171797156333923312088174384371 0.030335305258631709707239920704 0.003075300483033061027526855469 -0.000957942043896764516830444336 0 0 0 0 
2402166666.6666665077 0.171802207827568109710369981258 0.029439892619848251342773437500 0.002753021894022821946385048975 -0.001124584698118269009831093896 0 0 0 0 
2402333333.3333334923 0.171831548213958712478799384371 0.028582664206624031066894531250 0.002873040735721588134765625000 -0.001131620374508202075958251953 0 0 0 0 
2402500000.0000000000 0.172038614749908502776776231258 0.027809076011180881154993826954 0.002576166065409779982325888525 -0.001396280364133418040034628760 0 0 0 0 
2402666666.6666665077 0.171946212649345397949218750000 0.026787003502249721181849295704 0.002437631832435727119445800781 -0.001323741511441766998888325269 0 0 0 0 
2402833333.3333334923 0.171823680400848388671875000000 0.025883674621582031250000000000 0.002303415210917592048645019531 -0.001322651864029467105865478516 0 0 0 0 
2403000000.0000000000 0.171659737825393704513388115629 0.024792060256004330026646798046 0.002306350506842135949375771631 -0.001353258267045021057128906250 0 0 0 0 
2403166666.6666665077 0.171733558177947998046875000000 0.023604413494467738759974295704 0.002275255741551518006565713037 -0.001412326586432754993438720703 0 0 0 0 
2403333333.3333334923 0.171712949872016906738281250000 0.022532792761921879159947579296 0.002323090564459561867954873193 -0.001327679026871920065638876807 0 0 0 0 
2403500000.0000000000 0.171290874481201199630575615629 0.021277530118823051452636718750 0.002049773931503295898437500000 -0.001597002148628235080121684497 0 0 0 0 
2403666666.6666665077 0.171191230416297912597656250000 0.020190341398119929922083670704 0.002046646783128381209132529150 -0.001303162891417741992353129810 0 0 0 0 
2403833333.3333334923 0.171297818422317504882812500000 0.018740376457571979867955391796 0.002097627380862832069396972656 -0.001454790821298957087873149341 0 0 0 0 
2404000000.0000000000 0.170988142490386990646200615629 0.017615603283047679555872733204 0.002072443952783941788914345850 -0.001239859731867908997776650537 0 0 0 0 
2404166666.6666665077 0.170916214585304288009481865629 0.016103506088256839406946951954 0.002132106572389603094813681494 -0.001351267914287745952606201172 0 0 0 0 
2404333333.3333334923 0.170831441879272488693075615629 0.015041823498904710251777849805 0.002211613347753881974461220850 -0.001466844463720917918561625903 0 0 0 0 
2404500000.0000000000 0.170440465211868286132812500000 0.013526253402233120309849923046 0.002388629131019115014317177881 -0.001299404655583203055738139575 0 0 0 0 
2404666666.6666665077 0.170408785343170193771200615629 0.012151592411100859206229962695 0.002318617654964327812194824219 -0.001447114977054297924041748047 0 0 0 0 
2404833333.3333334923 0.170386582612991305252236884371 0.010659334249794479715367501171 0.002492059022188187079188681494 -0.001621778705157340006587363135 0 0 0 0 
2405000000.0000000000 0.170155331492424011230468750000 0.009199623949825763702392578125 0.002442647237330675125122070312 -0.001643049414269625923754047925 0 0 0 0 
2405166666.6666665077 0.170195668935775812347088731258 0.007563960272818803787231445312 0.002550007309764624075648642432 -0.001946614007465540929081582178 0 0 0 0 
2405333333.3333334923 0.170242846012115506271200615629 0.006070351693779230117797851562 0.002499206457287073135375976562 -0.001901677460409701087354350513 0 0 0 0 
2405500000.0000000000 0.170133247971534701248330634371 0.004465863108634948730468750000 0.002565908711403607888462685693 -0.002272414509207009835484170068 0 0 0 0 
2405666666.6666665077 0.170065045356750488281250000000 0.002999875694513320922851562500 0.002467105165123939947841025244 -0.002620354527607560157775878906 0 0 0 0 
2405833333.3333334923 0.169877618551254300216513115629 0.001327623962424695925471640479 0.002480918308719993071315146338 -0.002715760609135032133815146338 0 0 0 0 
2406000000.0000000000 0.169983968138694790939169365629 -0.000338383310008794123500269757 0.002291200915351510047912597656 -0.003091616323217750029322958838 0 0 0 0 
2406166666.6666665077 0.169623792171478299239950615629 -0.001863101264461874961853027344 0.002281905384734272956848144531 -0.003219605190679430961608886719 0 0 0 0 
2406333333.3333334923 0.169667422771453912933026231258 -0.003501798026263713836669921875 0.001921103103086351914646767725 -0.003339318558573722839355468750 0 0 0 0 
2406500000.0000000000 0.169493153691291809082031250000 -0.005055552348494529724121093750 0.001899398048408329920527792822 -0.003469039918854833082911826025 0 0 0 0 
2406666666.6666665077 0.169186428189277704436932481258 -0.006676558870822191238403320312 0.001626387587748467922210693359 -0.003498520003631711006164550781 0 0 0 0 
2406833333.3333334923 0.169005006551742609222088731258 -0.008076925761997699737548828125 0.001111806253902613899828266675 -0.003664731979370117187500000000 0 0 0 0 
2407000000.0000000000 0.168966859579086303710937500000 -0.009747826494276523590087890625 0.001120343571528791947605752100 -0.003579442854970694021937704932 0 0 0 0 
2407166666.6666665077 0.168900892138481112381143134371 -0.011119623668491840362548828125 0.000601658015511929988861083984 -0.003735607024282217025756835938 0 0 0 0 
2407333333.3333334923 0.168574512004852294921875000000 -0.012596905231475830078125000000 0.000396065443055704181820469989 -0.003525365609675645828247070312 0 0 0 0 
2407500000.0000000000 0.168390586972236605545205634371 -0.013919613324105739593505859375 0.000172226864378899308756151743 -0.003336391411721705956699990381 0 0 0 0 
2407666666.6666665077 0.168328657746315002441406250000 -0.015089240856468679255475429102 -0.000069208988861646503210067749 -0.003255792893469334082362509619 0 0 0 0 
2407833333.3333334923 0.168040156364440890213174384371 -0.016346264630556110036829764454 -0.000145644953590817803710383282 -0.003139986423775554136988974463 0 0 0 0 
2408000000.0000000000 0.167954176664352389236611884371 -0.017451643943786621093750000000 -0.000241613146499730700820368634 -0.002969016786664723916294716943 0 0 0 0 
2408166666.6666665077 0.167875424027442904373330634371 -0.018337778747081760061243826954 -0.000401969766244292313426417218 -0.002640474122017621994018554688 0 0 0 0 
2408333333.3333334923 0.168148636817932101150674384371 -0.019355326890945441509206403907 -0.000427695136750116890102940692 -0.002673091832548379898071289062 0 0 0 0 
2408500000.0000000000 0.167884573340416010100994981258 -0.020260021090507510793665701954 -0.000377646356355398893356323242 -0.002481748582795261903050088037 0 0 0 0 
2408666666.6666665077 0.168012782931327792068643134371 -0.021308906376361850393275076954 -0.000293917342787608504295349121 -0.002410596702247858047485351562 0 0 0 0 
2408833333.3333334923 0.168091461062431307693643134371 -0.022201936691999438894251639454 -0.000446331687271595001220703125 -0.002224261406809092001674033057 0 0 0 0 
2409000000.0000000000 0.168090745806694003006143134371 -0.022950129583477970468541329296 -0.000312874210067093426555079327 -0.002000442706048489050624228369 0 0 0 0 
2409166666.6666665077 0.168289452791213989257812500000 -0.023895489051938060415247733204 -0.000271612283540889620780944824 -0.001992291770875453948974609375 0 0 0 0 
2409333333.3333334923 0.168610483407974187652911268742 -0.024745764210820201528528983204 -0.000194042382645420703008928842 -0.001917732413858175060869526440 0 0 0 0 
2409500000.0000000000 0.168670833110809298416299384371 -0.025740114971995350229283516796 -0.000183884330908767906114301138 -0.001831686124205589077593159253 0 0 0 0 
2409666666.6666665077 0.168868198990821810623330634371 -0.026477580890059471130371093750 0.000086687381553929299116134644 -0.001954535255208611922023154150 0 0 0 0 
2409833333.3333334923 0.169087618589401300628338731258 -0.027391109615564349782923514454 0.000224775125388987389489850455 -0.001788989873602985902073525537 0 0 0 0 
2410000000.0000000000 0.169221431016921997070312500000 -0.028344497084617621684987653907 0.000107821433630306300803861075 -0.001980920555070043043849326025 0 0 0 0 
2410166666.6666665077 0.169226631522178705413494981258 -0.029198469594120979309082031250 0.000194324122276157086521702899 -0.001964254537597299055812216650 0 0 0 0 
2410333333.3333334923 0.169354051351547213455361884371 -0.029990907758474349975585937500 0.000208226134418509900569915771 -0.002076104050502181053161621094 0 0 0 0 
2410500000.0000000000 0.169345572590827886383380018742 -0.030929923057556148874303048046 0.000255963968811556696891784668 -0.002142544602975248856785439600 0 0 0 0 
2410666666.6666665077 0.169241517782211303710937500000 -0.032025091350078582763671875000 0.000338265701429918408393859863 -0.002201449358835815949680947412 0 0 0 0 
2410833333.3333334923 0.169161275029182406326455634371 -0.032715182751417160034179687500 0.000216150147025473388746538705 -0.002366458065807818932774209131 0 0 0 0 
2411000000.0000000000 0.169022902846336392501669365629 -0.033664815127849578857421875000 0.000210198311833664801999768668 -0.002194062806665896935703896631 0 0 0 0 
2411166666.6666665077 0.169072180986404391189736884371 -0.034611053764820098876953125000 0.000185471522854641107007703238 -0.002424506703391671180725097656 0 0 0 0 
2411333333.3333334923 0.168709307909011813064736884371 -0.035303700715303421020507812500 0.000197461005882359986931401385 -0.002597758313640952110290527344 0 0 0 0 
2411500000.0000000000 0.168528184294700594803018134371 -0.036334041506052017211914062500 0.000181065362994559109210968018 -0.002543742069974542097804404150 0 0 0 0 
2411666666.6666665077 0.168452844023704501053018134371 -0.037085045129060752178151716407 0.000070427595346700400114059448 -0.002668810542672872977015829932 0 0 0 0 
2411833333.3333334923 0.168133154511451693435830634371 -0.037886667996644966815988908593 0.000188190577318891910001477652 -0.002768382430076599121093750000 0 0 0 0 
2412000000.0000000000 0.168060764670372009277343750000 -0.038938432931900017475168596093 0.000018416689272271469235420227 -0.002918176120147109031677246094 0 0 0 0 
2412166666.6666665077 0.167471438646316500564736884371 -0.039811477065086371684987653907 -0.000131602646433748304843902588 -0.003082770155742764906642294775 0 0 0 0 
2412333333.3333334923 0.167443737387657193282919365629 -0.040485341101884841918945312500 -0.000124896934721618890762329102 -0.003148331074044107957127236475 0 0 0 0 
2412500000.0000000000 0.166923150420188903808593750000 -0.041498541831970221782643903907 -0.000296947837341576814651489258 -0.003185040084645152091979980469 0 0 0 0 
2412666666.6666665077 0.166551843285560607910156250000 -0.042706098407506942749023437500 -0.000388347980333492214053553448 -0.003533259034156798882725381006 0 0 0 0 
2412833333.3333334923 0.166277572512626703460369981258 -0.043440327048301696777343750000 -0.000563850218895822763442993164 -0.003610436571761966185328818213 0 0 0 0 
2413000000.0000000000 0.165731057524681091308593750000 -0.044430363923311226581613908593 -0.000728226325009018182754516602 -0.003571592969819902940037392725 0 0 0 0 
2413166666.6666665077 0.165202513337135287185830634371 -0.045481942594051361083984375000 -0.001044061034917830987217568506 -0.003672405146062374114990234375 0 0 0 0 
2413333333.3333334923 0.164694949984550503829794365629 -0.046404343098402023315429687500 -0.001222923514433204910875629956 -0.003669938305392860932591103662 0 0 0 0 
2413500000.0000000000 0.164216339588165310958700615629 -0.047427989542484283447265625000 -0.001432666671462357044219970703 -0.003557276446372271017787314307 0 0 0 0 
2413666666.6666665077 0.164020001888275201995526231258 -0.048474222421646118164062500000 -0.001679168082773686105843569116 -0.003683171700686215920689248193 0 0 0 0 
2413833333.3333334923 0.163327738642692593673544365629 -0.049449145793914801860768903907 -0.001936999149620532989501953125 -0.003798856865614653067347861182 0 0 0 0 
2414000000.0000000000 0.162766709923744201660156250000 -0.050377875566482537006418596093 -0.002167141996324061913731240381 -0.003664798568934202194213867188 0 0 0 0 
2414166666.6666665077 0.162360444664955111404580634371 -0.051238659769296653057057966407 -0.002427202649414538903477334131 -0.003557399846613407135009765625 0 0 0 0 
2414333333.3333334923 0.161977171897888211349325615629 -0.052309781312942511821706403907 -0.002527367090806365013122558594 -0.003203345462679862976074218750 0 0 0 0 
2414500000.0000000000 0.161828443408012390136718750000 -0.053296219557523727416992187500 -0.002876697340980172157287597656 -0.003195406170561910109279013525 0 0 0 0 
2414666666.6666665077 0.161376312375068692306356865629 -0.054229333996772773052175153907 -0.003000502008944749832153320312 -0.003074830397963523864746093750 0 0 0 0 
2414833333.3333334923 0.161031886935234097579794365629 -0.055343925952911376953125000000 -0.003212636569514871077296591650 -0.003011671360582112832310341943 0 0 0 0 
2415000000.0000000000 0.160847947001457186599893134371 -0.056260641664266593242604841407 -0.003358914982527493996861123193 -0.002741354051977396011352539062 0 0 0 0 
2415166666.6666665077 0.160603165626525906661825615629 -0.057291559875011437152902971093 -0.003535815281793475151062011719 -0.002571592340245842933654785156 0 0 0 0 
2415333333.3333334923 0.160501360893249511718750000000 -0.058503340929746627807617187500 -0.003684995928779243989231728662 -0.002284845802932978110072470557 0 0 0 0 
2415500000.0000000000 0.160313278436660794357138115629 -0.059636108577251427387277971093 -0.003627868369221686883213662256 -0.001914523541927338080165243994 0 0 0 0 
2415666666.6666665077 0.160083755850791903396768134371 -0.060716859996318817138671875000 -0.003543874016031622886657714844 -0.001693695550784469084498740088 0 0 0 0 
2415833333.3333334923 0.159978136420249911209268134371 -0.061825312674045562744140625000 -0.003684786381199955940246582031 -0.001440303516574203968048095703 0 0 0 0 
2416000000.0000000000 0.159564569592475891113281250000 -0.063244089484214782714843750000 -0.003733196528628468947169638525 -0.001279207412153482003452920068 0 0 0 0 
2416166666.6666665077 0.159503236413001986404580634371 -0.064475573599338531494140625000 -0.003548385109752417044398642432 -0.001031209132634103081346821362 0 0 0 0 
2416333333.3333334923 0.159122869372367886642294365629 -0.065616846084594726562500000000 -0.003513341536745429039001464844 -0.000870161282364279031753540039 0 0 0 0 
2416500000.0000000000 0.158933445811271695236044365629 -0.066959232091903686523437500000 -0.003338803770020604133605957031 -0.000819478707853704690933227539 0 0 0 0 
2416666666.6666665077 0.158615484833717401702557481258 -0.068138934671878814697265625000 -0.003216059645637869834899902344 -0.000665105122607201337814331055 0 0 0 0 
2416833333.3333334923 0.158446729183196993728799384371 -0.069417968392372131347656250000 -0.003178160404786467985865927588 -0.000628912064712494611740112305 0 0 0 0 
2417000000.0000000000 0.157936334609985407073651231258 -0.070441097021102905273437500000 -0.003162490436807274818420410156 -0.000489833997562527656555175781 0 0 0 0 
2417166666.6666665077 0.157611370086669894119424384371 -0.071528851985931396484375000000 -0.003101919312030076980590820312 -0.000779286667238920927047729492 0 0 0 0 
2417333333.3333334923 0.157300293445587213714276231258 -0.072492137551307678222656250000 -0.003146575530990958213806152344 -0.000604860077146440744400024414 0 0 0 0 
2417500000.0000000000 0.156904608011245699783486884371 -0.073591470718383789062500000000 -0.003208328736945987181422568213 -0.000466625788249075412750244141 0 0 0 0 
2417666666.6666665077 0.156671762466430691818075615629 -0.074465923011302947998046875000 -0.003226624336093664169311523438 -0.000369614630471915006637573242 0 0 0 0 
2417833333.3333334923 0.156407922506332397460937500000 -0.075338773429393768310546875000 -0.003125928575173019929173134912 -0.000394873524783179218142908917 0 0 0 0 
2418000000.0000000000 0.156087249517440795898437500000 -0.076432526111602783203125000000 -0.003273652167990804152247763525 -0.000410275155445560812950134277 0 0 0 0 
2418166666.6666665077 0.155780836939811706542968750000 -0.077161744236946105957031250000 -0.003333872184157371954676962744 -0.000225489638978615403175354004 0 0 0 0 
2418333333.3333334923 0.155735462903976412674111884371 -0.077991984784603118896484375000 -0.003175337566062808036804199219 -0.000224677700316533500522059308 0 0 0 0 
2418500000.0000000000 0.155355513095855712890625000000 -0.078855112195014953613281250000 -0.003276458941400051116943359375 0.000018741075109574009070192643 0 0 0 0 
2418666666.6666665077 0.155192300677299499511718750000 -0.079665936529636383056640625000 -0.003388345474377274946925497900 0.000002835695113390102051198483 0 0 0 0 
2418833333.3333334923 0.154813319444656399825888115629 -0.080389067530632019042968750000 -0.003517936682328581809997558594 0.000092964270152151584625244141 0 0 0 0 
2419000000.0000000000 0.154486373066902188400106865629 -0.081118650734424591064453125000 -0.003326441859826446013209677588 0.000277053128229454213946741925 0 0 0 0 
2419166666.6666665077 0.154321894049644497970419365629 -0.081903822720050811767578125000 -0.003258283017203211784362792969 0.000396540854126214981079101562 0 0 0 0 
2419333333.3333334923 0.153740242123603793045205634371 -0.082430675625801086425781250000 -0.003311875043436884880065917969 0.000535193248651921749114990234 0 0 0 0 
2419500000.0000000000 0.153405070304870605468750000000 -0.083193324506282806396484375000 -0.003430217504501343207118368994 0.000669442641083151102066040039 0 0 0 0 
2419666666.6666665077 0.153331220149993896484375000000 -0.083931528031826019287109375000 -0.003421504516154528097865439307 0.000824058777652680873870849609 0 0 0 0 
2419833333.3333334923 0.152862593531608609298544365629 -0.084268130362033843994140625000 -0.003278457792475820021388388525 0.000985714257694780826568603516 0 0 0 0 
