# Hz S RI R 50
2400000000.0000000000 0.162700951099395807464276231258 0.052690867334604263305664062500 0.000054470445320475853305270536 0.003853950183838605880737304688 0 0 0 0 
2400166666.6666665077 0.162694230675697298904580634371 0.051032457500696182250976562500 0.000038697537092957652430941923 0.003765310393646359009983681787 0 0 0 0 
2400333333.3333334923 0.162429258227348299881143134371 0.049196448177099227905273437500 0.000139072057208977612570086069 0.003908649086952210340017987988 0 0 0 0 
2400500000.0000000000 0.162405699491500910003338731258 0.047205314040184020996093750000 0.000385297229513526017039698468 0.003807786852121353149414062500 0 0 0 0 
2400666666.6666665077 0.162611126899719210525674384371 0.045001581311225891113281250000 0.000230507037485949695110321045 0.003953082952648401260375976562 0 0 0 0 
2400833333.3333334923 0.162445366382598904708700615629 0.043403472751379013061523437500 0.000280641252174973487854003906 0.004030512645840644836425781250 0 0 0 0 
2401000000.0000000000 0.162508606910705594161825615629 0.041299287229776382446289062500 0.000518400163855403661727905273 0.004048729781061410903930664062 0 0 0 0 
2401166666.6666665077 0.162557318806648309905682481258 0.039285689592361450195312500000 0.000566784350667148828506469727 0.004106658045202493667602539062 0 0 0 0 
2401333333.3333334923 0.162407577037811307052450615629 0.037190549075603492046315778907 0.000738353410270065069198608398 0.004042999818921089172363281250 0 0 0 0 
2401500000.0000000000 0.163024306297302301604901231258 0.035059709101915359497070312500 0.000718239927664399147033691406 0.004089712165296077728271484375 0 0 0 0 
2401666666.6666665077 0.163201913237571688553018134371 0.033130623400211327289621721093 0.001077037304639816067339253003 0.004240982234477996826171875000 0 0 0 0 
2401833333.3333334923 0.163449287414550809005575615629 0.031058065593242648733118826954 0.001150850905105472044703818213 0.004288826137781143188476562500 0 0 0 0 
2402000000.0000000000 0.163733661174774197677450615629 0.029160657897591590881347656250 0.001573265297338366942164755713 0.004354513250291348371023847363 0 0 0 0 
2402166666.6666665077 0.163999930024147005935830634371 0.027170727029442790639857108204 0.001639876631088555076001811450 0.004157476592808961868286132812 0 0 0 0 
2402333333.3333334923 0.164514079689979608733807481258 0.025066714733839038503626639454 0.001602057018317281983019184644 0.004370391834527254104614257812 0 0 0 0 
2402500000.0000000000 0.165215507149696405608807481258 0.023445548489689830434778983204 0.001911743660457432053209614331 0.004290584474802017211914062500 0 0 0 0 
2402666666.6666665077 0.165875002741813687423544365629 0.021482875570654869079589843750 0.002184177981689571900608681787 0.004106577951461076736450195312 0 0 0 0 
2402833333.3333334923 0.166347235441207913497763115629 0.019737390801310539245605468750 0.002538517815992236137390136719 0.004297165665775538358206464551 0 0 0 0 
2403000000.0000000000 0.166879355907440213302450615629 0.018037851899862289428710937500 0.002623883541673421859741210938 0.004186596721410751342773437500 0 0 0 0 
2403166666.6666665077 0.167747214436531094650106865629 0.016505040228366848337193673046 0.002708730986341834068298339844 0.004162037745118141174316406250 0 0 0 0 
2403333333.3333334923 0.168633162975311307052450615629 0.014831402339041229593297188671 0.002942620078101754188537597656 0.004048577975481748580932617188 0 0 0 0 
2403500000.0000000000 0.169219925999641390701455634371 0.013473764993250370025634765625 0.003224117448553442955017089844 0.003875898662954568862915039062 0 0 0 0 
2403666666.6666665077 0.170123398303985595703125000000 0.012103105895221229898472969921 0.003494961420074104829075478662 0.003912624903023242950439453125 0 0 0 0 
2403833333.3333334923 0.170773774385452298263388115629 0.010736779309809209650983241602 0.003697843756526709036586142432 0.003663368523120880126953125000 0 0 0 0 
2404000000.0000000000 0.171689450740814208984375000000 0.009519061073660850524902343750 0.003949560225009918212890625000 0.003525093430653214888331747900 0 0 0 0 
2404166666.6666665077 0.172342300415039090255575615629 0.008385314606130123138427734375 0.004028412513434886932373046875 0.003312155837193131013157509912 0 0 0 0 
2404333333.3333334923 0.173174649477005004882812500000 0.007265381515026093396658612988 0.004253368359059095382690429688 0.003160083433613181114196777344 0 0 0 0 
2404500000.0000000000 0.173777014017105102539062500000 0.006151420995593070983886718750 0.004498650319874286651611328125 0.002833304693922400908229208838 0 0 0 0 
2404666666.6666665077 0.174837365746498107910156250000 0.005486158654093742370605468750 0.004705956671386957168579101562 0.002703414298593997955322265625 0 0 0 0 
2404833333.3333334923 0.175514146685600308517294365629 0.004694095812737941741943359375 0.004624245688319206237792968750 0.002303319983184338049647665869 0 0 0 0 
2405000000.0000000000 0.176138579845428494552450615629 0.003786331973969935937168740381 0.004877500236034393310546875000 0.002027799841016530990600585938 0 0 0 0 
2405166666.6666665077 0.176955163478851290603799384371 0.003322771750390530066249228369 0.004906226880848407745361328125 0.001743900240398942990543984521 0 0 0 0 
2405333333.3333334923 0.177535668015480013748330634371 0.002556493040174245834350585938 0.005109504330903291702270507812 0.001456371857784688906428671729 0 0 0 0 
2405500000.0000000000 0.178249597549438504318075615629 0.002118036849424242973327636719 0.004997728858143091201782226562 0.001364246476441621997235942310 0 0 0 0 
2405666666.6666665077 0.178728535771369906326455634371 0.001699894201010466055629111182 0.004936931654810906323904706738 0.001081459457054734013201069409 0 0 0 0 
2405833333.3333334923 0.179083138704299899002236884371 0.001368700526654720089556049878 0.005096815992146730422973632812 0.000766652286984026432037353516 0 0 0 0 
2406000000.0000000000 0.179673194885253906250000000000 0.000896597863174974918365478516 0.005089338403195142745971679688 0.000534389109816402196884155273 0 0 0 0 
2406166666.6666665077 0.179839625954627990722656250000 0.000721609161701053380966186523 0.004997580777853727340698242188 0.000157733345986343893125811166 0 0 0 0 
2406333333.3333334923 0.180255070328712491134481865629 0.000387570791644975488812047137 0.004945140331983566284179687500 0.000014596341316064350644146272 0 0 0 0 
2406500000.0000000000 0.180490434169769287109375000000 0.000183028983883559703826904297 0.004807106219232082366943359375 -0.000412109802709892392158508301 0 0 0 0 
2406666666.6666665077 0.180508121848106412032919365629 -0.000068226843723095953464508057 0.004829026293009519577026367188 -0.000561718596145510673522949219 0 0 0 0 
2406833333.3333334923 0.180673331022262600997763115629 -0.000512725557200610637664794922 0.004681521560996770858764648438 -0.000724862969946116209030151367 0 0 0 0 
2407000000.0000000000 0.180845752358436612228231865629 -0.000712499895598739385604858398 0.004587887786328792572021484375 -0.001006642123684287071228027344 0 0 0 0 
2407166666.6666665077 0.180724352598190307617187500000 -0.000873086450155824422836303711 0.004403068218380212783813476562 -0.001134732854552567005157470703 0 0 0 0 
2407333333.3333334923 0.180501535534858703613281250000 -0.001290369313210248947143554688 0.004406879656016826629638671875 -0.001223962986841798045514750903 0 0 0 0 
2407500000.0000000000 0.180309712886810302734375000000 -0.001591266598552465005161904443 0.004294633399695158004760742188 -0.001424197922460735061048198169 0 0 0 0 
2407666666.6666665077 0.180172353982925387283486884371 -0.001888437429443001963971782153 0.004291969817131757736206054688 -0.001605430501513182900072407300 0 0 0 0 
2407833333.3333334923 0.179508626461029108245526231258 -0.002483585616573690934422158350 0.004055250436067581176757812500 -0.001683909213170408985735249097 0 0 0 0 
2408000000.0000000000 0.179178923368454007247763115629 -0.003000435652211308912989951025 0.003974781371653079986572265625 -0.001930057187564671039581298828 0 0 0 0 
2408166666.6666665077 0.178752362728118896484375000000 -0.003366769058629869981053017725 0.003730178810656071142909384619 -0.002045515924692153930664062500 0 0 0 0 
2408333333.3333334923 0.178313389420509310623330634371 -0.004044720903038978576660156250 0.003508382942527533011195517432 -0.002393321832641959190368652344 0 0 0 0 
2408500000.0000000000 0.177608206868171691894531250000 -0.004778018686920403566842363574 0.003455029102042316956761025537 -0.002318255370482801957371377100 0 0 0 0 
2408666666.6666665077 0.176925569772720309158486884371 -0.005707173142582178115844726562 0.003348943311721086935756064307 -0.002520900452509522004368447412 0 0 0 0 
2408833333.3333334923 0.176156282424926813323651231258 -0.006430204492062330245971679688 0.003119409549981356100795126807 -0.002653931966051458878758095850 0 0 0 0 
2409000000.0000000000 0.175400167703628512283486884371 -0.007451319601386786374563886426 0.002969229128211737112758017432 -0.002669587265700101852416992188 0 0 0 0 
2409166666.6666665077 0.174847334623336791992187500000 -0.008478413335978984832763671875 0.002720689168199896812438964844 -0.002730908803641796112060546875 0 0 0 0 
2409333333.3333334923 0.174180790781974792480468750000 -0.009699190966784954071044921875 0.002623125910758972167968750000 -0.002726342529058455987217568506 0 0 0 0 
2409500000.0000000000 0.173206269741058405120526231258 -0.010847382247447969264020350977 0.002355967415496706962585449219 -0.002802319824695587158203125000 0 0 0 0 
2409666666.6666665077 0.172350585460662786285723768742 -0.012166226282715799159039882227 0.002281372435390948815586709131 -0.002757411450147628784179687500 0 0 0 0 
2409833333.3333334923 0.171565920114517211914062500000 -0.013529411517083650071113787305 0.002111093373969196839573525537 -0.002784665441140532927272177588 0 0 0 0 
2410000000.0000000000 0.171037971973419189453125000000 -0.014810715802013870584508126171 0.001962060341611504988429404150 -0.002866508206352591948268271338 0 0 0 0 
2410166666.6666665077 0.170344278216361999511718750000 -0.016372246667742729187011718750 0.001729512237943708896636962891 -0.002781364368274807929992675781 0 0 0 0 
2410333333.3333334923 0.169604897499084500411825615629 -0.017857231199741360055943673046 0.001425208640284836075426411206 -0.002878380939364432854893349756 0 0 0 0 
2410500000.0000000000 0.169041395187377901931924384371 -0.019683903083205219614049141796 0.001378397108055650971056294019 -0.002852039644494653181788779150 0 0 0 0 
2410666666.6666665077 0.168303653597831698318643134371 -0.021514449268579479562779610546 0.001379808876663445992710732568 -0.002936174860224128203151083838 0 0 0 0 
2410833333.3333334923 0.167848795652389498611611884371 -0.023153990507125851022740548046 0.001305618672631680965423583984 -0.002900099381804465813877724756 0 0 0 0 
2411000000.0000000000 0.167351454496383694747763115629 -0.024918796494603160512903983204 0.001153712393715978102443076025 -0.002842980436980723901035927881 0 0 0 0 
2411166666.6666665077 0.166994467377662686446981865629 -0.026802401989698410034179687500 0.000869882351253181695938110352 -0.002677754266187549071071005713 0 0 0 0 
2411333333.3333334923 0.166531085968017605880575615629 -0.028714925050735470163365548046 0.000854804937262088060379028320 -0.002598499180749059157130576025 0 0 0 0 
2411500000.0000000000 0.166192233562469510177450615629 -0.030917864292860031127929687500 0.000842261826619505882263183594 -0.002666654996573925018310546875 0 0 0 0 
2411666666.6666665077 0.166061729192733792404013115629 -0.032697603106498718261718750000 0.000763465766794979572296142578 -0.002624797401949762864353798975 0 0 0 0 
2411833333.3333334923 0.165869340300559997558593750000 -0.034703090786933898925781250000 0.000665827130433171987533569336 -0.002523650880903006033656454932 0 0 0 0 
2412000000.0000000000 0.165877893567085293868856865629 -0.036706533282995217060129533593 0.000731312902644276618957519531 -0.002607884583994746208190917969 0 0 0 0 
2412166666.6666665077 0.165732175111770602127236884371 -0.038754429668188102031667341407 0.000533741607796400785446166992 -0.002437828807160257859470986475 0 0 0 0 
2412333333.3333334923 0.165813893079757690429687500000 -0.040598165243864059448242187500 0.000407891784561797976493835449 -0.002447746694087982177734375000 0 0 0 0 
2412500000.0000000000 0.165794163942337008377236884371 -0.042328607290983200073242187500 0.000479115260532125776440220966 -0.002490700921043754057643271338 0 0 0 0 
2412666666.6666665077 0.165948167443275507171307481258 -0.044645890593528747558593750000 0.000332947995048016309738159180 -0.002314637415111064910888671875 0 0 0 0 
2412833333.3333334923 0.166342958807945306975994981258 -0.046520452946424477314035783593 0.000179973270860500606611528940 -0.002369688125327229933497763525 0 0 0 0 
2413000000.0000000000 0.166564032435417203048544365629 -0.048278659582138061523437500000 0.000291688716970384120941162109 -0.002377877710387111143824911963 0 0 0 0 
2413166666.6666665077 0.166919559240341186523437500000 -0.050042446702718741680104841407 0.000307337788399308919906616211 -0.002290976699441670937779091943 0 0 0 0 
2413333333.3333334923 0.167176142334938104827557481258 -0.051772832870483398437500000000 0.000056843196944100782275199890 -0.002214163308963180021998740088 0 0 0 0 
2413500000.0000000000 0.167616039514541598220986884371 -0.053554486483335501934011091407 0.000164055192726664299338740216 -0.002112823305651545958278036963 0 0 0 0 
2413666666.6666665077 0.168115437030792208572549384371 -0.055094879120588302612304687500 -0.000058470839576330042701175077 -0.002240870846435428099391318213 0 0 0 0 
2413833333.3333334923 0.168516933917999295333700615629 -0.056699573993682861328125000000 0.000010196511539106719533001252 -0.002420142991468309922459267725 0 0 0 0 
2414000000.0000000000 0.168943807482719393631143134371 -0.058175690472126007080078125000 -0.000183737647603265886932927264 -0.002191195031628013090846396338 0 0 0 0 
2414166666.6666665077 0.169460117816925104339276231258 -0.059512607753276831890065778907 -0.000165895762620493796750745230 -0.002227943157777190208435058594 0 0 0 0 
2414333333.3333334923 0.170001521706581087967080634371 -0.060784544795751571655273437500 -0.000207730045076459700435084210 -0.002193026943132280869724892725 0 0 0 0 
2414500000.0000000000 0.170653522014617892166299384371 -0.061933431774377822875976562500 -0.000234336752328090396806439810 -0.002117464086040854887721396338 0 0 0 0 
2414666666.6666665077 0.170982301235199002364950615629 -0.062969610095024108886718750000 -0.000234832652495242709487360822 -0.002140177879482508139369345557 0 0 0 0 
2414833333.3333334923 0.171433329582214410979901231258 -0.064037248492240905761718750000 -0.000292289216304197907447814941 -0.002189771505072712898254394531 0 0 0 0 
2415000000.0000000000 0.171817600727081298828125000000 -0.064876563847064971923828125000 -0.000499836751259863376617431641 -0.002036096761003137068507529150 0 0 0 0 
2415166666.6666665077 0.172308877110481289962606865629 -0.065675348043441772460937500000 -0.000538576801773160696029663086 -0.002026553032919764952418661963 0 0 0 0 
2415333333.3333334923 0.172791525721549987792968750000 -0.066374294459819793701171875000 -0.000371225498383864814608973370 -0.001881652162410319068311381763 0 0 0 0 
2415500000.0000000000 0.173145547509193392654580634371 -0.067047432065010070800781250000 -0.000434460031101480126380920410 -0.002058540005236864089965820312 0 0 0 0 
2415666666.6666665077 0.173197180032730102539062500000 -0.067482940852642059326171875000 -0.000585040543228387832641601562 -0.001921123242937027974369668115 0 0 0 0 
2415833333.3333334923 0.173710227012634305099325615629 -0.068047456443309783935546875000 -0.000710753200110048055648803711 -0.001958630280569196181056357275 0 0 0 0 
2416000000.0000000000 0.173658847808837890625000000000 -0.068575918674468994140625000000 -0.000851033488288521766662597656 -0.002077192068099976019618368994 0 0 0 0 
2416166666.6666665077 0.173946157097816495040731865629 -0.068861521780490875244140625000 -0.000768837344367057085037231445 -0.001905573648400604941724467700 0 0 0 0 
2416333333.3333334923 0.173995375633239801604901231258 -0.069166548550128936767578125000 -0.000910403905436396598815917969 -0.001917492016218603090998984229 0 0 0 0 
2416500000.0000000000 0.173898190259933499435263115629 -0.069477736949920654296875000000 -0.001018338720314204909681010669 -0.001917630899697541973711323315 0 0 0 0 
2416666666.6666665077 0.173653483390808105468750000000 -0.069456733763217926025390625000 -0.000954274204559624195098876953 -0.001841664314270019964930868994 0 0 0 0 
2416833333.3333334923 0.173442065715789794921875000000 -0.069899156689643859863281250000 -0.000927161367144435644149780273 -0.001726035377942026095149374854 0 0 0 0 
2417000000.0000000000 0.173084378242492703536825615629 -0.070078566670417785644531250000 -0.001174874952994287014007568359 -0.001762047293595969893811870044 0 0 0 0 
2417166666.6666665077 0.172662958502769497970419365629 -0.070075318217277526855468750000 -0.001132766599766910076141357422 -0.001651383587159215970280312646 0 0 0 0 
2417333333.3333334923 0.172177359461784390548544365629 -0.070282414555549621582031250000 -0.001153882709331810908076620947 -0.001544920727610588073730468750 0 0 0 0 
2417500000.0000000000 0.171508535742759704589843750000 -0.070574022829532623291015625000 -0.001384699833579361005070351709 -0.001648475998081267096875834888 0 0 0 0 
2417666666.6666665077 0.170940712094307001311932481258 -0.070399954915046691894531250000 -0.001296202768571675040601420825 -0.001416389830410480932948447119 0 0 0 0 
2417833333.3333334923 0.170144200325012207031250000000 -0.070602580904960632324218750000 -0.001149446936324238994001079028 -0.001414438942447304942487407153 0 0 0 0 
2418000000.0000000000 0.169224575161933898925781250000 -0.070920437574386596679687500000 -0.001342128147371113083483051831 -0.001287937513552606105804443359 0 0 0 0 
2418166666.6666665077 0.168280482292175292968750000000 -0.071040242910385131835937500000 -0.001487221335992217063903808594 -0.001209991634823381900787353516 0 0 0 0 
2418333333.3333334923 0.167492911219596890548544365629 -0.071519874036312103271484375000 -0.001422749715857207991956401294 -0.001154071651399136023280478369 0 0 0 0 
2418500000.0000000000 0.166291177272796603103799384371 -0.071753278374671936035156250000 -0.001438179751858114979387592847 -0.001045798882842063903808593750 0 0 0 0 
2418666666.6666665077 0.165364965796470586578692518742 -0.072171077132225036621093750000 -0.001300880918279289982439350659 -0.001032047672197222926496196216 0 0 0 0 
2418833333.3333334923 0.163928508758544894119424384371 -0.072536312043666839599609375000 -0.001491760485805571079254150391 -0.000924335152376443147659301758 0 0 0 0 
2419000000.0000000000 0.162708863615989712814169365629 -0.073107182979583740234375000000 -0.001473286072723567919490195166 -0.000872265605721622705459594727 0 0 0 0 
2419166666.6666665077 0.161509230732917813400106865629 -0.073652178049087524414062500000 -0.001451634336262940926792763818 -0.000878055521752685308456420898 0 0 0 0 
2419333333.3333334923 0.160175532102584811111611884371 -0.074092194437980651855468750000 -0.001422810833901166915893554688 -0.000842112698592245578765869141 0 0 0 0 
2419500000.0000000000 0.158964976668357904632244981258 -0.075016796588897705078125000000 -0.001430135336704551956774067456 -0.000868133094627410173416137695 0 0 0 0 
2419666666.6666665077 0.157655745744705200195312500000 -0.075764194130897521972656250000 -0.001238587195985018990160297925 -0.000704818929079920053482055664 0 0 0 0 
2419833333.3333334923 0.156299740076065091232138115629 -0.076552391052246093750000000000 -0.001426362199708818955662392725 -0.000696619914378970861434936523 0 0 0 0 
