# Hz S RI R 50
2400000000.0000000000 0.155225098133087213714276231258 0.106361202895641299148721259371 -0.002775415312498807907104492188 -0.008354130201041698455810546875 0 0 0 0 
2400166666.6666665077 0.154967784881591796875000000000 0.104069888591766399055238423443 -0.003035089932382107214686728369 -0.008047830313444137573242187500 0 0 0 0 
2400333333.3333334923 0.154918923974037198165731865629 0.101672194898128495643696567186 -0.003263867227360606193542480469 -0.007905042730271816253662109375 0 0 0 0 
2400500000.0000000000 0.154960870742797907073651231258 0.099068187177181243896484375000 -0.003615898080170155005214072119 -0.007631767541170120239257812500 0 0 0 0 
2400666666.6666665077 0.155017614364623995681924384371 0.096378214657306671142578125000 -0.003744412213563919067382812500 -0.007575244177132844924926757812 0 0 0 0 
2400833333.3333334923 0.155098453164100702483807481258 0.093686185777187347412109375000 -0.004029490519315004348754882812 -0.007283909246325492858886718750 0 0 0 0 
2401000000.0000000000 0.155186653137207003494424384371 0.090745359659194946289062500000 -0.004143068101257085800170898438 -0.007010948378592729568481445312 0 0 0 0 
2401166666.6666665077 0.155130773782730102539062500000 0.088179722428321838378906250000 -0.004350468516349793347830487988 -0.006827251985669136047363281250 0 0 0 0 
2401333333.3333334923 0.155654385685920687576455634371 0.085243463516235351562500000000 -0.004451092798262835416311933301 -0.006814224179834127426147460938 0 0 0 0 
2401500000.0000000000 0.156228601932525607010049384371 0.082310013473033905029296875000 -0.004397441167384386062622070312 -0.006497119553387165069580078125 0 0 0 0 
2401666666.6666665077 0.156497716903686495681924384371 0.079608716070652008056640625000 -0.004798323381692171096801757812 -0.006356476806104183197021484375 0 0 0 0 
2401833333.3333334923 0.157019436359405489822549384371 0.076842650771141052246093750000 -0.004892458207905293378348066113 -0.006316836923360824584960937500 0 0 0 0 
2402000000.0000000000 0.158000126481056213378906250000 0.073994383215904235839843750000 -0.004924866370856761932373046875 -0.006229116581380367279052734375 0 0 0 0 
2402166666.6666665077 0.158760771155357388595419365629 0.071467414498329162597656250000 -0.005312790628522635373587323926 -0.006199029274284839630126953125 0 0 0 0 
2402333333.3333334923 0.159706771373748807052450615629 0.068794079124927520751953125000 -0.005635144654661417007446289062 -0.006067281588912010192871093750 0 0 0 0 
2402500000.0000000000 0.160892441868781987945880018742 0.066272959113121032714843750000 -0.005611646920442581176757812500 -0.005842039361596108350271894238 0 0 0 0 
2402666666.6666665077 0.161928161978721590896768134371 0.064038969576358795166015625000 -0.005939038470387458801269531250 -0.005647450219839811325073242188 0 0 0 0 
2402833333.3333334923 0.163351431488990811446981865629 0.061640664935111999511718750000 -0.005935037042945623397827148438 -0.005555930547416210174560546875 0 0 0 0 
2403000000.0000000000 0.164927482604980496505575615629 0.059254247695207602764089216407 -0.006414727307856082916259765625 -0.005171045660972595214843750000 0 0 0 0 
2403166666.6666665077 0.166393399238586398025674384371 0.057006172835826866840402971093 -0.006638476159423589706420898438 -0.004975771997123956680297851562 0 0 0 0 
2403333333.3333334923 0.167878270149231012542401231258 0.054761514067649841308593750000 -0.006871262565255165100097656250 -0.004710406996309757232666015625 0 0 0 0 
2403500000.0000000000 0.169649556279182406326455634371 0.052879408001899719238281250000 -0.007063731551170349121093750000 -0.004329526796936988830566406250 0 0 0 0 
2403666666.6666665077 0.171472534537315396407919365629 0.050852105021476752544362653907 -0.007221752777695655822753906250 -0.004027375485748052597045898438 0 0 0 0 
2403833333.3333334923 0.173010230064392089843750000000 0.049143016338348388671875000000 -0.007498447317630052566528320312 -0.003747957292944192886352539062 0 0 0 0 
2404000000.0000000000 0.174494788050651605804119981258 0.047304265201091773296315778907 -0.007603841368108987808227539062 -0.003220032667741179899928427588 0 0 0 0 
2404166666.6666665077 0.176387891173362704178018134371 0.045915581285953521728515625000 -0.007592245470732451352591230176 -0.002952779876068234009983681787 0 0 0 0 
2404333333.3333334923 0.177815333008766202071981865629 0.044432826340198516845703125000 -0.007673454936593770980834960938 -0.002435494679957627816441201318 0 0 0 0 
2404500000.0000000000 0.179464712738990811446981865629 0.042965635657310492778737653907 -0.007475043646991252899169921875 -0.002249667188152670860290527344 0 0 0 0 
2404666666.6666665077 0.181232541799545288085937500000 0.041793894022703170776367187500 -0.007418673485517501831054687500 -0.001914631226100027994868613135 0 0 0 0 
2404833333.3333334923 0.182921841740608187576455634371 0.040891733020544052124023437500 -0.007251979317516089353079511426 -0.001443109591491519971134804834 0 0 0 0 
2405000000.0000000000 0.184219717979431207854901231258 0.040211778134107589721679687500 -0.007199716288596391677856445312 -0.001219361205585300922393798828 0 0 0 0 
2405166666.6666665077 0.185646608471870394607705634371 0.039413128048181526874582658593 -0.007028149440884590148925781250 -0.000989067484624683856964111328 0 0 0 0 
2405333333.3333334923 0.187121197581291198730468750000 0.038937315344810492778737653907 -0.007109106983989477157592773438 -0.000734977191314101219177246094 0 0 0 0 
2405500000.0000000000 0.188517123460769708831463731258 0.038560338318347930908203125000 -0.006862227804958820343017578125 -0.000702669727616012096405029297 0 0 0 0 
2405666666.6666665077 0.189661428332328796386718750000 0.038000214844942092895507812500 -0.006817153654992580413818359375 -0.000360745412763208205073756085 0 0 0 0 
2405833333.3333334923 0.190868154168128995040731865629 0.037904191762208938598632812500 -0.006779689341783524426932050488 -0.000228876306209713193491259164 0 0 0 0 
2406000000.0000000000 0.191962823271751403808593750000 0.037732843309640877460520158593 -0.006899409927427768707275390625 0.000021764750272268429398536682 0 0 0 0 
2406166666.6666665077 0.192921161651611300369424384371 0.037506159394979476928710937500 -0.006566841155290603637695312500 0.000008784872989053837954998016 0 0 0 0 
2406333333.3333334923 0.193756371736526489257812500000 0.037561610341072082519531250000 -0.006649599410593509674072265625 0.000339551246725022792816162109 0 0 0 0 
2406500000.0000000000 0.194586977362632806975994981258 0.037563350051641457294504533593 -0.006430951412767171859741210938 0.000544797221664339303970336914 0 0 0 0 
2406666666.6666665077 0.195240557193756103515625000000 0.037582937628030776977539062500 -0.006331413984298706054687500000 0.000688726024236530065536499023 0 0 0 0 
2406833333.3333334923 0.195704549551010104080361884371 0.037486013025045401836354841407 -0.006210531573742628097534179688 0.000693230598699301481246948242 0 0 0 0 
2407000000.0000000000 0.195843636989593505859375000000 0.037710536271333687519113908593 -0.006099182181060314178466796875 0.000807511620223522186279296875 0 0 0 0 
2407166666.6666665077 0.196285426616668701171875000000 0.037495475262403488159179687500 -0.006031872704625129699707031250 0.001013649743981658978703164209 0 0 0 0 
2407333333.3333334923 0.196241632103920010665731865629 0.037574239075183868408203125000 -0.005902882665395736694335937500 0.001087901880964637019513774341 0 0 0 0 
2407500000.0000000000 0.196136042475700406173544365629 0.037742797285318381572682966407 -0.005759494379162788391113281250 0.001121193519793451049207377856 0 0 0 0 
2407666666.6666665077 0.196113914251327486892861884371 0.037500590085983283306081403907 -0.005538299679756165418142987988 0.001138658495619893074035644531 0 0 0 0 
2407833333.3333334923 0.195663601160049410720986884371 0.037429258227348327636718750000 -0.005512920208275318145751953125 0.001112399389967321915867470850 0 0 0 0 
2408000000.0000000000 0.195442482829093905349893134371 0.037190303206443786621093750000 -0.005170035641640424728393554688 0.001304649980738759040832519531 0 0 0 0 
2408166666.6666665077 0.194806247949600191970986884371 0.036971520632505416870117187500 -0.005104199517518281936645507812 0.001314157736487687067744589697 0 0 0 0 
2408333333.3333334923 0.194495350122451809982138115629 0.036446277052164077758789062500 -0.005274027585983276367187500000 0.001315469620749353928806923975 0 0 0 0 
2408500000.0000000000 0.193666875362396212478799384371 0.036188244819641113281250000000 -0.005032242741435766220092773438 0.001254880102351308085797954028 0 0 0 0 
2408666666.6666665077 0.192985892295837402343750000000 0.035571642220020287250559221093 -0.005013247486203908920288085938 0.001232857466675340912462544019 0 0 0 0 
2408833333.3333334923 0.192198574542999295333700615629 0.034769631922245032573659528907 -0.005118691362440586090087890625 0.001119867782108485915540385669 0 0 0 0 
2409000000.0000000000 0.191215977072715787032919365629 0.033746987581253051757812500000 -0.004938038066029548645019531250 0.001139947678893804983851767432 0 0 0 0 
2409166666.6666665077 0.190304234623908996582031250000 0.032990753650665283203125000000 -0.005127041134983301162719726562 0.001064812182448803944828652490 0 0 0 0 
2409333333.3333334923 0.189352691173553494552450615629 0.031918607652187347412109375000 -0.005202560685575008392333984375 0.001114009530283510901807475513 0 0 0 0 
2409500000.0000000000 0.188178524374961908538494981258 0.030601650476455688476562500000 -0.005257294513285160064697265625 0.001195815042592585086822509766 0 0 0 0 
2409666666.6666665077 0.187179535627365112304687500000 0.029171099886298179626464843750 -0.005403987132012844085693359375 0.001263372832909225983860634912 0 0 0 0 
2409833333.3333334923 0.186175927519798306564169365629 0.027712825685739520681361014454 -0.005393959116190671920776367188 0.001411633566021919033647846753 0 0 0 0 
2410000000.0000000000 0.185171023011207608321981865629 0.026137398555874831462819685157 -0.005506344605237246427054120801 0.001432019285857677893397665869 0 0 0 0 
2410166666.6666665077 0.184250667691230801681356865629 0.024373324587941169738769531250 -0.005568054039031267166137695312 0.001616516849026083946228027344 0 0 0 0 
2410333333.3333334923 0.183154314756393404861611884371 0.022546142339706420898437500000 -0.005636274348944425582885742188 0.001721901702694595076917338794 0 0 0 0 
2410500000.0000000000 0.182121604681014986892861884371 0.020596796646714210510253906250 -0.005566483829170466336722089551 0.001850319909863173961639404297 0 0 0 0 
2410666666.6666665077 0.181524217128753689864950615629 0.018333761021494868886927420704 -0.005579513031989336013793945312 0.001964385854080318970921181787 0 0 0 0 
2410833333.3333334923 0.180651083588600186446981865629 0.016268942505121231079101562500 -0.005759268533438444137573242188 0.002196030458435415787937783350 0 0 0 0 
2411000000.0000000000 0.180012047290802001953125000000 0.014123850502073770005195818555 -0.005580305587500333786010742188 0.002305060625076293945312500000 0 0 0 0 
2411166666.6666665077 0.179292544722557095626669365629 0.011855419725179670506487461523 -0.005637314636260271072387695312 0.002464085817337036132812500000 0 0 0 0 
2411333333.3333334923 0.178961634635925292968750000000 0.009343898855149745941162109375 -0.005719511304050683975219726562 0.002621624385938047929051064600 0 0 0 0 
2411500000.0000000000 0.178373336791992187500000000000 0.007022248115390539169311523438 -0.005730411037802696228027343750 0.002715423936024308204650878906 0 0 0 0 
2411666666.6666665077 0.178180322051048306564169365629 0.004725615493953227996826171875 -0.005825019441545009613037109375 0.002788362093269824981689453125 0 0 0 0 
2411833333.3333334923 0.177842095494270296951455634371 0.002309171715751289887669228662 -0.005597796291112899780273437500 0.002965012332424521012547158350 0 0 0 0 
2412000000.0000000000 0.177923187613487188141192518742 -0.000154424138600006699562072754 -0.005667298566550016403198242188 0.003052884712815285162684775244 0 0 0 0 
2412166666.6666665077 0.178050339221954401214276231258 -0.002493818523362278938293457031 -0.005705080460757017135620117188 0.003116284031420946121215820312 0 0 0 0 
2412333333.3333334923 0.178255796432495089431924384371 -0.005111143924295902252197265625 -0.005661238916218280792236328125 0.003372606821358203887939453125 0 0 0 0 
2412500000.0000000000 0.178822621703147888183593750000 -0.007348897401243448257446289062 -0.005892925430089235305786132812 0.003524722298607230186462402344 0 0 0 0 
2412666666.6666665077 0.179467394948005704025106865629 -0.009864292107522487640380859375 -0.005810246802866458892822265625 0.003701631445437670187709189307 0 0 0 0 
2412833333.3333334923 0.180030986666679410079794365629 -0.012261169962584970646868320898 -0.005878240335732697573190019824 0.003810158930718899206874228369 0 0 0 0 
2413000000.0000000000 0.180916026234626797775106865629 -0.014585221186280250549316406250 -0.005905842874199151992797851562 0.004312552046030759811401367188 0 0 0 0 
2413166666.6666665077 0.181494012475013705154580634371 -0.016600586473941799509068673046 -0.006134593859314919385428144238 0.004474239423871040344238281250 0 0 0 0 
2413333333.3333334923 0.182615399360656710525674384371 -0.018967805430293079721471016796 -0.006025218870490789413452148438 0.004790670704096555709838867188 0 0 0 0 
2413500000.0000000000 0.183480903506278991699218750000 -0.021119592711329460144042968750 -0.006080792285501956939697265625 0.005104163661599159240722656250 0 0 0 0 
2413666666.6666665077 0.184858024120330810546875000000 -0.023452691733837131154993826954 -0.005868631880730391416067792676 0.005469404160976409912109375000 0 0 0 0 
2413833333.3333334923 0.185796067118644686599893134371 -0.025332042947411540639857108204 -0.006007022224366664886474609375 0.005862384568899869918823242188 0 0 0 0 
2414000000.0000000000 0.186964616179466303069744981258 -0.027236221358180049550989920704 -0.005824848078191280364990234375 0.006315277889370918273925781250 0 0 0 0 
2414166666.6666665077 0.188162878155708312988281250000 -0.028969747945666309701939766796 -0.005717367399483919143676757812 0.006632117554545403394217206738 0 0 0 0 
2414333333.3333334923 0.189406663179397610763388115629 -0.030932674184441569936732108204 -0.005378324538469314575195312500 0.007180240005254746350760175488 0 0 0 0 
2414500000.0000000000 0.190614938735961886306924384371 -0.032553885132074363017995466407 -0.005110698286443948745727539062 0.007687213830649852752685546875 0 0 0 0 
2414666666.6666665077 0.191896304488182095626669365629 -0.033896010369062416767160783593 -0.004660833626985549926757812500 0.008014609105885028839111328125 0 0 0 0 
2414833333.3333334923 0.192937910556793212890625000000 -0.035241194069385528564453125000 -0.004213925451040267944335937500 0.008346479386091232299804687500 0 0 0 0 
2415000000.0000000000 0.194154053926467895507812500000 -0.036484580487012863159179687500 -0.003688203403726220130920410156 0.008532573468983173370361328125 0 0 0 0 
2415166666.6666665077 0.195391312241554288009481865629 -0.037577137351036071777343750000 -0.003228553570806980133056640625 0.008707446977496147155761718750 0 0 0 0 
2415333333.3333334923 0.196468234062194796463174384371 -0.038606438785791397094726562500 -0.002771885367110372023341513525 0.008854693733155727386474609375 0 0 0 0 
2415500000.0000000000 0.197562336921691894531250000000 -0.039181169122457497333567033593 -0.002506616991013288931605673682 0.008998718112707138061523437500 0 0 0 0 
2415666666.6666665077 0.198549851775169400314169365629 -0.040049687027931213378906250000 -0.002042634179815649986267089844 0.009153694845736026763916015625 0 0 0 0 
2415833333.3333334923 0.199443012475967407226562500000 -0.040711302310228347778320312500 -0.001592290354892611937281943213 0.009183496236801147460937500000 0 0 0 0 
2416000000.0000000000 0.200161471962928799728231865629 -0.041204452514648437500000000000 -0.001064011710695921941044472803 0.009359935298562049865722656250 0 0 0 0 
2416166666.6666665077 0.201011821627616910079794365629 -0.041830386966466896747629533593 -0.000807007600087672472000122070 0.009269902482628822326660156250 0 0 0 0 
2416333333.3333334923 0.201520442962646512130575615629 -0.042101882398128509521484375000 -0.000219920213567092987612047739 0.009105043485760688781738281250 0 0 0 0 
2416500000.0000000000 0.202007964253425598144531250000 -0.042375680059194571758229841407 0.000164283323101699406474512921 0.009121528826653957366943359375 0 0 0 0 
2416666666.6666665077 0.202291026711463900467080634371 -0.042727906256914138793945312500 0.000614887510892003774642944336 0.009185862727463245391845703125 0 0 0 0 
2416833333.3333334923 0.202394023537635803222656250000 -0.042693134397268302226979841407 0.000890230759978294372558593750 0.009089927189052104949951171875 0 0 0 0 
2417000000.0000000000 0.202444657683372497558593750000 -0.042926184833049767231027971093 0.001142677036114037036895751953 0.009130652993917465209960937500 0 0 0 0 
2417166666.6666665077 0.202198863029480008224325615629 -0.042837988585233688354492187500 0.001755559467710555033442831885 0.008789272047579288482666015625 0 0 0 0 
2417333333.3333334923 0.201847553253173800369424384371 -0.042713172733783721923828125000 0.002201710361987351937534951318 0.008679875172674655914306640625 0 0 0 0 
2417500000.0000000000 0.201582744717597989181356865629 -0.042677957564592361450195312500 0.002416367409750819206237792969 0.008626636117696762084960937500 0 0 0 0 
2417666666.6666665077 0.201033264398574801345986884371 -0.042424671351909637451171875000 0.002800013870000838799717568506 0.008334390819072723388671875000 0 0 0 0 
2417833333.3333334923 0.200620040297508211990518134371 -0.042277831584215157245676408593 0.003009108128026127815246582031 0.008044382557272911071777343750 0 0 0 0 
2418000000.0000000000 0.199893116950988797286825615629 -0.042026944458484649658203125000 0.003339346032589673995971679688 0.007869811728596687316894531250 0 0 0 0 
2418166666.6666665077 0.199068740010261507888955634371 -0.041905976831912987445871721093 0.003533819923177361922023154150 0.007571571040898562345022870801 0 0 0 0 
2418333333.3333334923 0.198138937354087801834268134371 -0.041854243725538246845285783593 0.003824681974947452978846884619 0.007324039004743099212646484375 0 0 0 0 
2418500000.0000000000 0.197045028209686307052450615629 -0.041843011975288391113281250000 0.004092848394066095352172851562 0.006935241632163524627685546875 0 0 0 0 
2418666666.6666665077 0.196056485176086398025674384371 -0.041668511927127838134765625000 0.004321345593780279159545898438 0.006776989437639713287353515625 0 0 0 0 
2418833333.3333334923 0.194709479808807400802450615629 -0.041846744716167449951171875000 0.004317580256611108779907226562 0.006427111569792032241821289062 0 0 0 0 
2419000000.0000000000 0.193470001220703097244424384371 -0.042022321373224258422851562500 0.004499865695834159851074218750 0.006217753048986197385306073926 0 0 0 0 
2419166666.6666665077 0.192059174180030794998330634371 -0.042374432086944580078125000000 0.004581925924867391586303710938 0.006004565395414829254150390625 0 0 0 0 
2419333333.3333334923 0.190868884325027493575888115629 -0.042823649942874908447265625000 0.004623563494533300399780273438 0.005628062412142753601074218750 0 0 0 0 
2419500000.0000000000 0.189365521073341397384481865629 -0.043180193752050399780273437500 0.004830214194953441619873046875 0.005386128555983304977416992188 0 0 0 0 
2419666666.6666665077 0.187744453549385098556356865629 -0.044001847505569458007812500000 0.004823203664273023605346679688 0.005143055692315101623535156250 0 0 0 0 
2419833333.3333334923 0.186155125498771695236044365629 -0.044692985713481903076171875000 0.004872376564890146255493164062 0.004860270302742719650268554688 0 0 0 0 
