# Hz S RI R 50
2400000000.0000000000 0.169107630848884610275106865629 0.040254779160022742534597028907 0.002891137264668941931483603369 0.000616867095232009887695312500 0 0 0 0 
2400166666.6666665077 0.169775530695915194412393134371 0.039608407765626907348632812500 0.002784962533041834831237792969 0.000602353946305811405181884766 0 0 0 0 
2400333333.3333334923 0.170316711068153409103231865629 0.038819048553705222392995466407 0.002819980727508664131164550781 0.000555282458662986755371093750 0 0 0 0 
2400500000.0000000000 0.170921221375465393066406250000 0.037918698042631149291992187500 0.002911989577114582061767578125 0.000465051125502213781506138934 0 0 0 0 
2400666666.6666665077 0.171303287148475702483807481258 0.037197683006525039672851562500 0.002862565917894244194030761719 0.000422204146161675507396143781 0 0 0 0 
2400833333.3333334923 0.171727001667022705078125000000 0.036531224846839911724050153907 0.003030342748388648033142089844 0.000461007090052589774131774902 0 0 0 0 
2401000000.0000000000 0.171958848834037808517294365629 0.035714875906705863262136091407 0.002919150982052087783813476562 0.000104645689134486006058831487 0 0 0 0 
2401166666.6666665077 0.172258898615837097167968750000 0.034751664847135536884348283593 0.002880970481783152060267783057 0.000049451435188530012965202332 0 0 0 0 
2401333333.3333334923 0.172391951084136990646200615629 0.034094262868165969848632812500 0.002637071767821907997131347656 -0.000027360963940736841073239974 0 0 0 0 
2401500000.0000000000 0.172622397541999789138955634371 0.033485691994428641582448591407 0.003000996075570582909824990381 0.000008990385140350554138422012 0 0 0 0 
2401666666.6666665077 0.172599643468856811523437500000 0.032841142266988747333567033593 0.002893836703151464895961142432 -0.000114138143544550998650412288 0 0 0 0 
2401833333.3333334923 0.172837525606155395507812500000 0.031884308904409408569335937500 0.002854259917512536048889160156 -0.000063483312260359525680541992 0 0 0 0 
2402000000.0000000000 0.172658905386924688141192518742 0.031136203557252880441685860546 0.002928357338532805009129189600 -0.000226735137403011294916430063 0 0 0 0 
2402166666.6666665077 0.172481343150138910491619981258 0.030142657458782199514368826954 0.002961453748866916136500693213 -0.000258723535807803273200988770 0 0 0 0 
2402333333.3333334923 0.172463655471801813323651231258 0.029384797438979148864746093750 0.002761822426691650910618447412 -0.000451731524663046002388000488 0 0 0 0 
2402500000.0000000000 0.172617599368095397949218750000 0.028681244701147079467773437500 0.002786008641123772101161337744 -0.000428979896241798996925354004 0 0 0 0 
2402666666.6666665077 0.172481715679168701171875000000 0.027748771011829379690150076954 0.002580473199486732916591025244 -0.000403063808334991281658726825 0 0 0 0 
2402833333.3333334923 0.172051176428794888595419365629 0.026758912950754169118861014454 0.002926568733528255982639931787 -0.000594217272009700536727905273 0 0 0 0 
2403000000.0000000000 0.172025427222251892089843750000 0.025790415704250339162806326954 0.002892886521294713020324707031 -0.000546958297491073608398437500 0 0 0 0 
2403166666.6666665077 0.171800553798675509353799384371 0.024730106815695759164830391796 0.002713115420192480087280273438 -0.000510227924678474664688110352 0 0 0 0 
2403333333.3333334923 0.171614527702331487457598768742 0.023602196946740150451660156250 0.002829209202900528907775878906 -0.000844099733512848615646362305 0 0 0 0 
2403500000.0000000000 0.171397909522056607345419365629 0.022353257983922958374023437500 0.002823578426614404158351279150 -0.000749889237340539693832397461 0 0 0 0 
2403666666.6666665077 0.171004071831703213790731865629 0.021111177280545241619069685157 0.002892912598326801820042275537 -0.000834905426017940044403076172 0 0 0 0 
2403833333.3333334923 0.170893549919128390213174384371 0.019912550225853919982910156250 0.002980835968628526167628622900 -0.000857015140354633331298828125 0 0 0 0 
2404000000.0000000000 0.170657515525817898849325615629 0.018687034025788310659388358204 0.002925570588558911843540810693 -0.000965269340667873620986938477 0 0 0 0 
2404166666.6666665077 0.170510575175285311599893134371 0.017247000709176060068150704296 0.002934754127636551856994628906 -0.000955977360717952251434326172 0 0 0 0 
2404333333.3333334923 0.170177444815635708907919365629 0.015889473259449008596400076954 0.003014431567862629890441894531 -0.001200132304802536964416503906 0 0 0 0 
2404500000.0000000000 0.169809252023696899414062500000 0.014468361623585220682164376171 0.003013639710843563079833984375 -0.001250192872248589992523193359 0 0 0 0 
2404666666.6666665077 0.169691011309623690506143134371 0.012988808564841750753382498829 0.003010853426530956788303994287 -0.001346306875348090908647846753 0 0 0 0 
2404833333.3333334923 0.169674932956695612151776231258 0.011442971415817739314069179102 0.002946656430140138106105185400 -0.001575942733325063965441059644 0 0 0 0 
2405000000.0000000000 0.169389396905899103362713731258 0.009865316562354564666748046875 0.002915876917541027069091796875 -0.001640439732000231959699321216 0 0 0 0 
2405166666.6666665077 0.169431820511817904373330634371 0.008277280256152153015136718750 0.002861067885532975196838378906 -0.001739606726914644024492573315 0 0 0 0 
2405333333.3333334923 0.169404163956642206390057481258 0.006564679089933633804321289062 0.002794822910800576210021972656 -0.001880167168565094904658652197 0 0 0 0 
2405500000.0000000000 0.169328942894935607910156250000 0.005008470267057418823242187500 0.002788607962429523901698447119 -0.002044422086328268051147460938 0 0 0 0 
2405666666.6666665077 0.169130638241767911056356865629 0.003356817411258817152736044775 0.002707240171730517907383584131 -0.002179261064156889915466308594 0 0 0 0 
2405833333.3333334923 0.168894633650779696365518134371 0.001750787138007581017137836987 0.002715130802243947982788085938 -0.002385700121521950201747275244 0 0 0 0 
2406000000.0000000000 0.168851479887962313553018134371 -0.000169188817380927503108978271 0.002586826216429471969604492188 -0.002464633900672196908238076318 0 0 0 0 
2406166666.6666665077 0.168777391314506503006143134371 -0.001718160463497043089625693213 0.002537554828450084166285849463 -0.002415999537333846092224121094 0 0 0 0 
2406333333.3333334923 0.168854385614395113845986884371 -0.003528859699144959016087197412 0.002411114284768701033351279150 -0.002620889339596033096313476562 0 0 0 0 
2406500000.0000000000 0.168687164783477810958700615629 -0.005148609168827533721923828125 0.002310733543708920912501669775 -0.002747616963461041884181357275 0 0 0 0 
2406666666.6666665077 0.168373286724090603927450615629 -0.006752429064363241195678710938 0.002085690386593341827392578125 -0.002743750577792524857762002100 0 0 0 0 
2406833333.3333334923 0.168383330106735201736611884371 -0.008583656512200832366943359375 0.001976498402655125097987509619 -0.002743843942880630926844931494 0 0 0 0 
2407000000.0000000000 0.168334573507308987716513115629 -0.010040976107120510446568673046 0.001806261250749229951145791162 -0.002937811193987727165222167969 0 0 0 0 
2407166666.6666665077 0.168319091200828607757244981258 -0.011619120836257939774482927930 0.001779538812115788893458701025 -0.002918196376413106918334960938 0 0 0 0 
2407333333.3333334923 0.168130472302436800857705634371 -0.013209464028477670496930507227 0.001639148453250526948216103662 -0.002940725535154343085048056494 0 0 0 0 
2407500000.0000000000 0.168031409382820101638955634371 -0.014537587761878970754603201954 0.001567648258060216903686523438 -0.002994832582771778106689453125 0 0 0 0 
2407666666.6666665077 0.168025955557823208907919365629 -0.015643980354070659982701485546 0.001521172700449823899510048975 -0.003015410155057907104492187500 0 0 0 0 
2407833333.3333334923 0.167987674474716186523437500000 -0.016948699951171878469446951954 0.001354024861939250989201211084 -0.003032274311408400969264365088 0 0 0 0 
2408000000.0000000000 0.167884603142738286774005018742 -0.018166035413742068899134451954 0.001172733027487993023516010815 -0.003234937554225326018092490088 0 0 0 0 
2408166666.6666665077 0.167903587222099304199218750000 -0.019107194617390629159947579296 0.001141702872700989029527973706 -0.003308883169665933089015341650 0 0 0 0 
2408333333.3333334923 0.168223947286605807205361884371 -0.020205190405249599111536795704 0.001089995261281728961347270435 -0.003324205288663506941554404150 0 0 0 0 
2408500000.0000000000 0.168134614825248690506143134371 -0.021295551210641860961914062500 0.000933289469685405492782592773 -0.003213817952200769944431923975 0 0 0 0 
2408666666.6666665077 0.168276041746139498611611884371 -0.022204961627721789968470389454 0.000773652340285480022430419922 -0.003334508277475833892822265625 0 0 0 0 
2408833333.3333334923 0.168444782495498712737713731258 -0.023061310872435569763183593750 0.000648356450255960226058959961 -0.003438308369368315176722861182 0 0 0 0 
2409000000.0000000000 0.168645516037941006759481865629 -0.024035030975937839853306954296 0.000531201018020510673522949219 -0.003283110447227954864501953125 0 0 0 0 
2409166666.6666665077 0.168898284435272189041299384371 -0.024694850668311119079589843750 0.000403827143600210601657313214 -0.003431796096265316009521484375 0 0 0 0 
2409333333.3333334923 0.169275134801864596267861884371 -0.025635289028286930429478829296 0.000187790690688416388913831168 -0.003452697768807411193847656250 0 0 0 0 
2409500000.0000000000 0.169340223073959406097088731258 -0.026553794741630550729771798046 0.000212156461202539503574371338 -0.003595793852582573890686035156 0 0 0 0 
2409666666.6666665077 0.169394209980964688400106865629 -0.027413707226514819753626639454 -0.000106709056126419495470585008 -0.003470245283097029165980673682 0 0 0 0 
2409833333.3333334923 0.169610455632209805587606865629 -0.027950024232268329965611641796 -0.000183485361048951799243372784 -0.003362158313393592834472656250 0 0 0 0 
2410000000.0000000000 0.169999599456787109375000000000 -0.028681240975856781005859375000 -0.000278551859082654118537902832 -0.003369658486917614936828613281 0 0 0 0 
2410166666.6666665077 0.170142948627471896072549384371 -0.029682504013180729257603829296 -0.000435815192759037017822265625 -0.003394029801711440086364746094 0 0 0 0 
2410333333.3333334923 0.170206144452095003982705634371 -0.030389210209250450134277343750 -0.000631850678473711013793945312 -0.003294289810582994981053017725 0 0 0 0 
2410500000.0000000000 0.170063167810440091232138115629 -0.031388279050588607788085937500 -0.000668024586047977209091186523 -0.003282429883256555037257529150 0 0 0 0 
2410666666.6666665077 0.170011594891548212249432481258 -0.032084070146083831787109375000 -0.000913097464945167303085327148 -0.003134891390800476074218750000 0 0 0 0 
2410833333.3333334923 0.170200288295745905120526231258 -0.032768607139587402343750000000 -0.001021132105961441993713378906 -0.002989963395521045164821005713 0 0 0 0 
2411000000.0000000000 0.170072004199027987381143134371 -0.033530309796333312988281250000 -0.001100641442462801933288574219 -0.002935962285846471786499023438 0 0 0 0 
2411166666.6666665077 0.169894382357597406585369981258 -0.034332871437072746967356096093 -0.001146987662650644996045756763 -0.002757302485406399206874228369 0 0 0 0 
2411333333.3333334923 0.169645518064498901367187500000 -0.035107649862766272808034528907 -0.001371175982058048031450581128 -0.002662616781890391869785927881 0 0 0 0 
2411500000.0000000000 0.169431477785110501388388115629 -0.035800326615571982646901716407 -0.001374775543808937072753906250 -0.002528517274186015129089355469 0 0 0 0 
2411666666.6666665077 0.169356867671012906173544365629 -0.036634720861911766742746721093 -0.001334412023425102017046284253 -0.002387408167123794989344931494 0 0 0 0 
2411833333.3333334923 0.169016867876052911956463731258 -0.037273775786161422729492187500 -0.001276092254556715922114706885 -0.002152174711227416992187500000 0 0 0 0 
2412000000.0000000000 0.168886989355087308029013115629 -0.038131475448608398437500000000 -0.001292233122512697956682514722 -0.002136446302756667137145996094 0 0 0 0 
2412166666.6666665077 0.168547496199607904632244981258 -0.038774341344833367084543596093 -0.001226436463184654929517436450 -0.001967772841453551812412881006 0 0 0 0 
2412333333.3333334923 0.168555095791816711425781250000 -0.039620041847228996967356096093 -0.001146418391726911067962646484 -0.001935690757818520069122314453 0 0 0 0 
2412500000.0000000000 0.167713865637779208084268134371 -0.040505308657884597778320312500 -0.001196671160869299931767129053 -0.001836784998886286995531391675 0 0 0 0 
2412666666.6666665077 0.167478457093238802810830634371 -0.041571281850337982177734375000 -0.001204765983857215101357485132 -0.001757646445184946060180664062 0 0 0 0 
2412833333.3333334923 0.167047217488288907150106865629 -0.042533665895462043071706403907 -0.000977533520199358463287353516 -0.001675714738667011044145893628 0 0 0 0 
2413000000.0000000000 0.166437879204750088790731865629 -0.043388664722442626953125000000 -0.000715499743819236755371093750 -0.001804312109015882015228271484 0 0 0 0 
2413166666.6666665077 0.165952146053314208984375000000 -0.044251233339309692382812500000 -0.000834474863950163125991821289 -0.002015277277678250832798623193 0 0 0 0 
2413333333.3333334923 0.165278270840644808670205634371 -0.045358803123235702514648437500 -0.000857225444633513689041137695 -0.001970096724107861952540732275 0 0 0 0 
2413500000.0000000000 0.164749965071678189376669365629 -0.046307466924190521240234375000 -0.000772090104874223470687866211 -0.002142043085768818855285644531 0 0 0 0 
2413666666.6666665077 0.164092421531677301604901231258 -0.047226339578628540039062500000 -0.000829417840577661991119384766 -0.002168633742257953123805380713 0 0 0 0 
2413833333.3333334923 0.163522541522979708572549384371 -0.048248291015625000000000000000 -0.000871660362463444471359252930 -0.002334079938009380860569619287 0 0 0 0 
2414000000.0000000000 0.163006052374839810470419365629 -0.049315191805362701416015625000 -0.000938258483074605464935302734 -0.002221269998699427084681845557 0 0 0 0 
2414166666.6666665077 0.162574753165245111663494981258 -0.050225101411342620849609375000 -0.001034322427585721015930175781 -0.002309760078787804083583212744 0 0 0 0 
2414333333.3333334923 0.161966264247894287109375000000 -0.051273953169584267353098283593 -0.001163794426247477965113974463 -0.002681457204744220213649130713 0 0 0 0 
2414500000.0000000000 0.161762624979019192794638115629 -0.052257753908634192729909528907 -0.001325211254879832050920795972 -0.002637399826198815865757607568 0 0 0 0 
2414666666.6666665077 0.161175683140754699707031250000 -0.053128089755773537372629533593 -0.001540907658636569976806640625 -0.002480505965650082068202353369 0 0 0 0 
2414833333.3333334923 0.160832121968269403655682481258 -0.054320983588695533061940778907 -0.001634493353776633956311870044 -0.002478395123034716086146689307 0 0 0 0 
2415000000.0000000000 0.160544037818908691406250000000 -0.055422056466341018676757812500 -0.001617789850570261912104941260 -0.002404734492301940917968750000 0 0 0 0 
2415166666.6666665077 0.160172879695892306228799384371 -0.056586585938930511474609375000 -0.001909989747218788103816367041 -0.002566251205280423164367675781 0 0 0 0 
2415333333.3333334923 0.160138413310050992111044365629 -0.057849343866109848022460937500 -0.002008356386795639991760253906 -0.002528372919186950163600302588 0 0 0 0 
2415500000.0000000000 0.159892112016677911956463731258 -0.059042651206254959106445312500 -0.002224729862064123153686523438 -0.002399546327069402174708701025 0 0 0 0 
2415666666.6666665077 0.159614488482475308517294365629 -0.060294676572084426879882812500 -0.002212718594819306893589638818 -0.002283044159412384033203125000 0 0 0 0 
2415833333.3333334923 0.159288004040718106368856865629 -0.061645299196243293071706403907 -0.002505691722035408020019531250 -0.002159613417461514906642294775 0 0 0 0 
2416000000.0000000000 0.158945500850677490234375000000 -0.062903046607971191406250000000 -0.002496452769264578819274902344 -0.002036369172856212095973349463 0 0 0 0 
2416166666.6666665077 0.159011974930763189117755018742 -0.064281985163688659667968750000 -0.002553692087531090216395712744 -0.002149150008335710005519247900 0 0 0 0 
2416333333.3333334923 0.158634573221206692794638115629 -0.065582707524299621582031250000 -0.002705759601667522950413369287 -0.001895215362310409979579306494 0 0 0 0 
2416500000.0000000000 0.158467724919319208343182481258 -0.066987417638301849365234375000 -0.002681068144738674163818359375 -0.001791974646039306900621723706 0 0 0 0 
2416666666.6666665077 0.158111989498138399978799384371 -0.068135067820549011230468750000 -0.002676779869943857192993164062 -0.001833385904319583935978554834 0 0 0 0 
2416833333.3333334923 0.157848775386810302734375000000 -0.069702163338661193847656250000 -0.002828564960509539084193564307 -0.001549127511680125973345112378 0 0 0 0 
2417000000.0000000000 0.157416731119155911544638115629 -0.070929072797298431396484375000 -0.002867474220693110985996865381 -0.001672575017437339045880961841 0 0 0 0 
2417166666.6666665077 0.157211914658546503265057481258 -0.071993187069892883300781250000 -0.002913048490881919860839843750 -0.001590825268067419962642050635 0 0 0 0 
2417333333.3333334923 0.156877130270004300216513115629 -0.073160856962203979492187500000 -0.003056042594835162162780761719 -0.001618916983716190078138041919 0 0 0 0 
2417500000.0000000000 0.156621903181076105315838731258 -0.074410080909729003906250000000 -0.003125339280813931985142373193 -0.001464776578359306075452495044 0 0 0 0 
2417666666.6666665077 0.156446635723114013671875000000 -0.075280487537384033203125000000 -0.003263270016759634017944335938 -0.001458199461922049956080771338 0 0 0 0 
2417833333.3333334923 0.156225457787513705154580634371 -0.076367311179637908935546875000 -0.003315633395686746077296591650 -0.001240581157617270946502685547 0 0 0 0 
2418000000.0000000000 0.155775293707847595214843750000 -0.077336989343166351318359375000 -0.003453101497143507003784179688 -0.001184119610115885951398539966 0 0 0 0 
2418166666.6666665077 0.155553445219993591308593750000 -0.078118257224559783935546875000 -0.003647663164883852005004882812 -0.001099996501579880931256938403 0 0 0 0 
2418333333.3333334923 0.155690535902976989746093750000 -0.079215899109840393066406250000 -0.003612181171774864196777343750 -0.000855388352647423744201660156 0 0 0 0 
2418500000.0000000000 0.155440434813499506194744981258 -0.079964943230152130126953125000 -0.003728935960680245919468545068 -0.000653400609735399484634399414 0 0 0 0 
2418666666.6666665077 0.155274584889411898513955634371 -0.080939263105392456054687500000 -0.003796028438955544991734170068 -0.000586235255468636751174926758 0 0 0 0 
2418833333.3333334923 0.154977813363075311858807481258 -0.081624329090118408203125000000 -0.003733420278877019882202148438 -0.000320802122587338089942932129 0 0 0 0 
2419000000.0000000000 0.154765322804450988769531250000 -0.082319654524326324462890625000 -0.003926862962543964385986328125 -0.000098522781627252697944641113 0 0 0 0 
2419166666.6666665077 0.154419019818305996993856865629 -0.083154886960983276367187500000 -0.003752715187147260145900107275 0.000158104856382124098852434702 0 0 0 0 
2419333333.3333334923 0.154061034321785000900106865629 -0.083491116762161254882812500000 -0.003906229045242071151733398438 0.000155485337018035406440180646 0 0 0 0 
2419500000.0000000000 0.153968378901481600662393134371 -0.084486275911331176757812500000 -0.003794438904151320891139365088 0.000339280581101775223582667218 0 0 0 0 
2419666666.6666665077 0.153776705265045193771200615629 -0.084912784397602081298828125000 -0.003498675068840384917018271338 0.000609136128332465887069702148 0 0 0 0 
2419833333.3333334923 0.153616175055503900725994981258 -0.085443168878555297851562500000 -0.003542269580066204071044921875 0.000708069128450006246566772461 0 0 0 0 
