# Version 1.00
#
freq[Hz];re:Trc1_S11;im:Trc1_S11;re:Trc2_S21;im:Trc2_S21;
2.400000000000000E+009;1.561775654554367E-001;1.111974641680718E-001;2.683120779693127E-003;-2.585050533525646E-004;
2.400166666666667E+009;1.555961966514587E-001;1.089428439736366E-001;2.785069402307272E-003;-3.560754412319511E-004;
2.400333333333334E+009;1.553700864315033E-001;1.064595058560371E-001;2.764580538496375E-003;-6.682426901534200E-004;
2.400500000000000E+009;1.550861448049545E-001;1.038379445672035E-001;2.679265802726150E-003;-8.827628917060792E-004;
2.400666666666667E+009;1.548859328031540E-001;1.014767885208130E-001;2.788604702800512E-003;-1.048565260134637E-003;
2.400833333333334E+009;1.546041518449783E-001;9.857533127069473E-002;2.552727237343788E-003;-1.246079453267157E-003;
2.401000000000000E+009;1.545060873031616E-001;9.565734118223190E-002;2.766686026006937E-003;-1.361890928819776E-003;
2.401166666666667E+009;1.542695015668869E-001;9.282303601503372E-002;2.387126907706261E-003;-1.497150165960193E-003;
2.401333333333334E+009;1.544203311204910E-001;8.996396511793137E-002;2.241936745122075E-003;-1.713310019113123E-003;
2.401500000000000E+009;1.545943468809128E-001;8.701965212821960E-002;2.184433396905661E-003;-1.842170837335289E-003;
2.401666666666667E+009;1.546190381050110E-001;8.390992134809494E-002;1.958957640454173E-003;-2.062227576971054E-003;
2.401833333333334E+009;1.549952328205109E-001;8.114063739776611E-002;1.833968213759363E-003;-2.101550344377756E-003;
2.402000000000000E+009;1.556255817413330E-001;7.793888449668884E-002;1.476951409131289E-003;-2.162233693525195E-003;
2.402166666666667E+009;1.563316136598587E-001;7.538315653800964E-002;1.308258273638785E-003;-2.141368808224797E-003;
2.402333333333334E+009;1.570441275835037E-001;7.228691875934601E-002;1.165203168056905E-003;-2.097450662404299E-003;
2.402500000000000E+009;1.580810248851776E-001;6.943791359663010E-002;1.047988422214985E-003;-2.109052147716284E-003;
2.402666666666667E+009;1.590295284986496E-001;6.701166182756424E-002;9.632716537453234E-004;-2.148200757801533E-003;
2.402833333333334E+009;1.603048592805862E-001;6.422746181488037E-002;6.282831309363246E-004;-1.910386257804930E-003;
2.403000000000000E+009;1.616622954607010E-001;6.172867864370346E-002;6.999142351560295E-004;-1.717365579679608E-003;
2.403166666666667E+009;1.634518057107925E-001;5.926745757460594E-002;6.586865638382733E-004;-1.806793618015945E-003;
2.403333333333334E+009;1.647350043058395E-001;5.656079202890396E-002;5.906107835471630E-004;-1.797009492293000E-003;
2.403500000000000E+009;1.665698289871216E-001;5.445824936032295E-002;6.989000248722732E-004;-1.604070654138923E-003;
2.403666666666667E+009;1.684505641460419E-001;5.233251675963402E-002;6.912555545568466E-004;-1.729787793010473E-003;
2.403833333333334E+009;1.701395362615585E-001;5.009377002716065E-002;7.514046155847609E-004;-1.570596359670162E-003;
2.404000000000000E+009;1.716576516628265E-001;4.795936495065689E-002;6.249535945244134E-004;-1.685827272012830E-003;
2.404166666666667E+009;1.737414151430130E-001;4.637477174401283E-002;7.396781002171338E-004;-1.594399800524116E-003;
2.404333333333334E+009;1.753892451524735E-001;4.465979337692261E-002;7.268069311976433E-004;-1.865334343165159E-003;
2.404500000000000E+009;1.771737337112427E-001;4.310061410069466E-002;6.105533102527261E-004;-1.906304736621678E-003;
2.404666666666667E+009;1.791969537734985E-001;4.182711988687515E-002;4.859194159507752E-004;-1.982287736609578E-003;
2.404833333333334E+009;1.809353977441788E-001;4.043537378311157E-002;4.218261165078729E-004;-2.023066394031048E-003;
2.405000000000000E+009;1.824214458465576E-001;3.982332721352577E-002;3.689747245516628E-004;-2.139296382665634E-003;
2.405166666666667E+009;1.842030882835388E-001;3.880142048001289E-002;1.966183190234006E-004;-2.287223003804684E-003;
2.405333333333334E+009;1.857365071773529E-001;3.840098530054092E-002;1.653623621677980E-004;-2.439846517518163E-003;
2.405500000000000E+009;1.874700933694840E-001;3.790624067187309E-002;-9.779688298294786E-006;-2.254405524581671E-003;
2.405666666666667E+009;1.891006082296372E-001;3.740701451897621E-002;-1.955216866917908E-004;-2.272054320201278E-003;
2.405833333333334E+009;1.905439645051956E-001;3.704656288027763E-002;-4.456556343939155E-004;-2.276014303788543E-003;
2.406000000000000E+009;1.917440742254257E-001;3.705430403351784E-002;-6.830702768638730E-004;-2.145020291209221E-003;
2.406166666666667E+009;1.930874437093735E-001;3.694739192724228E-002;-6.455778493545950E-004;-2.024810062721372E-003;
2.406333333333334E+009;1.942352652549744E-001;3.703850880265236E-002;-8.234292617999017E-004;-1.952544786036015E-003;
2.406500000000000E+009;1.953290551900864E-001;3.723771125078201E-002;-8.749316912144423E-004;-1.846351311542094E-003;
2.406666666666667E+009;1.961305737495422E-001;3.733506798744202E-002;-1.100192195735872E-003;-1.836489303968847E-003;
2.406833333333334E+009;1.969392746686935E-001;3.756119683384895E-002;-1.175922807306051E-003;-1.526826992630959E-003;
2.407000000000000E+009;1.973997205495834E-001;3.791676834225655E-002;-9.398466791026294E-004;-1.485571963712573E-003;
2.407166666666667E+009;1.979424357414246E-001;3.796814382076263E-002;-9.798038518056274E-004;-1.346592791378498E-003;
2.407333333333334E+009;1.980607211589813E-001;3.828873112797737E-002;-1.027678721584380E-003;-1.285250065848231E-003;
2.407500000000000E+009;1.983025223016739E-001;3.859699517488480E-002;-1.136376173235476E-003;-1.105548115447164E-003;
2.407666666666667E+009;1.985365748405457E-001;3.885720670223236E-002;-1.020204043015838E-003;-9.229581919498742E-004;
2.407833333333334E+009;1.982047259807587E-001;3.900077939033508E-002;-9.748826269060373E-004;-9.945419151335955E-004;
2.408000000000000E+009;1.981184929609299E-001;3.924847394227982E-002;-9.901197627186775E-004;-8.522376301698387E-004;
2.408166666666667E+009;1.975462585687637E-001;3.919757157564163E-002;-1.052320236340165E-003;-8.338884217664599E-004;
2.408333333333334E+009;1.971790939569473E-001;3.904928639531136E-002;-8.857693755999208E-004;-6.253818864934146E-004;
2.408500000000000E+009;1.964123696088791E-001;3.905058279633522E-002;-8.710463298484683E-004;-5.850821617059410E-004;
2.408666666666667E+009;1.958285421133041E-001;3.879812359809876E-002;-6.295181810855866E-004;-5.515518132597208E-004;
2.408833333333334E+009;1.951071768999100E-001;3.831286728382111E-002;-5.584986065514386E-004;-5.369060672819614E-004;
2.409000000000000E+009;1.939369589090347E-001;3.768362849950790E-002;-5.783566739410162E-004;-4.755803383886814E-004;
2.409166666666667E+009;1.929842829704285E-001;3.708084300160408E-002;-4.881384375039488E-004;-6.334679201245308E-004;
2.409333333333334E+009;1.919042766094208E-001;3.638682514429092E-002;-4.965682164765894E-004;-6.658714264631271E-004;
2.409500000000000E+009;1.906106919050217E-001;3.551163896918297E-002;-3.055270353797823E-004;-8.089309558272362E-004;
2.409666666666667E+009;1.894226074218750E-001;3.430570289492607E-002;-4.260079003870487E-004;-7.414837018586695E-004;
2.409833333333334E+009;1.881309151649475E-001;3.305344283580780E-002;-2.670110552571714E-004;-9.244109387509525E-004;
2.410000000000000E+009;1.871206611394882E-001;3.176881372928619E-002;-2.870909811463207E-004;-8.933706558309495E-004;
2.410166666666667E+009;1.858773678541184E-001;3.004604205489159E-002;-3.655603504739702E-004;-9.593279683031142E-004;
2.410333333333334E+009;1.845398545265198E-001;2.860499359667301E-002;-4.226975142955780E-004;-9.092396358028054E-004;
2.410500000000000E+009;1.833857595920563E-001;2.680679038167000E-002;-3.900164738297463E-004;-1.131285447627306E-003;
2.410666666666667E+009;1.824015080928803E-001;2.458190359175205E-002;-2.587528142612428E-004;-1.222511287778616E-003;
2.410833333333334E+009;1.814555227756500E-001;2.263079583644867E-002;-5.085560260340571E-004;-1.191614428535104E-003;
2.411000000000000E+009;1.803988665342331E-001;2.052745036780834E-002;-5.122657748870552E-004;-1.404828624799848E-003;
2.411166666666667E+009;1.793917864561081E-001;1.835579797625542E-002;-6.018896820023656E-004;-1.429238589480519E-003;
2.411333333333334E+009;1.787197589874268E-001;1.577319949865341E-002;-7.036278257146478E-004;-1.390839694067836E-003;
2.411500000000000E+009;1.779993325471878E-001;1.346808951348066E-002;-7.473352598026395E-004;-1.424726680852473E-003;
2.411666666666667E+009;1.774687767028809E-001;1.110217534005642E-002;-8.462656987830997E-004;-1.418834901414812E-003;
2.411833333333334E+009;1.771180480718613E-001;8.546687662601471E-003;-9.966165525838733E-004;-1.395313884131610E-003;
2.412000000000000E+009;1.769931465387344E-001;5.852953530848026E-003;-1.157414750196040E-003;-1.412613200955093E-003;
2.412166666666667E+009;1.768995821475983E-001;3.453131765127182E-003;-1.231715315952897E-003;-1.253872178494930E-003;
2.412333333333334E+009;1.768221110105515E-001;8.142606238834560E-004;-1.421601977199316E-003;-1.319609931670129E-003;
2.412500000000000E+009;1.772863864898682E-001;-1.763766282238066E-003;-1.457078615203500E-003;-1.186750829219818E-003;
2.412666666666667E+009;1.775843948125839E-001;-4.396170843392611E-003;-1.489425776526332E-003;-1.093369326554239E-003;
2.412833333333334E+009;1.783660352230072E-001;-6.960034370422363E-003;-1.814052928239107E-003;-9.929736843332648E-004;
2.413000000000000E+009;1.789824366569519E-001;-9.667109698057175E-003;-1.722453278489411E-003;-7.617998053319752E-004;
2.413166666666667E+009;1.797685474157333E-001;-1.203217078000307E-002;-1.622501178644598E-003;-6.667063571512699E-004;
2.413333333333334E+009;1.808598786592484E-001;-1.470831595361233E-002;-1.565697952173650E-003;-5.753476871177554E-004;
2.413500000000000E+009;1.815354526042938E-001;-1.717232167720795E-002;-1.693326514214277E-003;-3.868135681841523E-004;
2.413666666666667E+009;1.827935278415680E-001;-1.968858018517494E-002;-1.709871343336999E-003;-4.424166691023856E-004;
2.413833333333334E+009;1.839312762022018E-001;-2.172034792602062E-002;-1.726524671539664E-003;-1.759053120622411E-004;
2.414000000000000E+009;1.851906031370163E-001;-2.405491471290588E-002;-1.495759584940970E-003;-1.254079979844391E-004;
2.414166666666667E+009;1.864635348320007E-001;-2.612208761274815E-002;-1.577085815370083E-003;-1.434989244444296E-004;
2.414333333333334E+009;1.875849515199661E-001;-2.834252268075943E-002;-1.469170558266342E-003;-2.370594847889151E-005;
2.414500000000000E+009;1.890812218189240E-001;-2.988701313734055E-002;-1.367106800898910E-003;5.356367910280824E-005;
2.414666666666667E+009;1.903672665357590E-001;-3.171986341476440E-002;-1.448704628273845E-003;-4.039890336571261E-005;
2.414833333333334E+009;1.916996389627457E-001;-3.319184482097626E-002;-1.336286892183125E-003;-7.902250945335254E-005;
2.415000000000000E+009;1.929986923933029E-001;-3.470154851675034E-002;-1.262426842004061E-003;-8.147346670739353E-005;
2.415166666666667E+009;1.945779323577881E-001;-3.610751405358315E-002;-1.381795387715101E-003;-1.618430833332241E-004;
2.415333333333334E+009;1.958032846450806E-001;-3.711305558681488E-002;-1.247571664862335E-003;2.919868529716041E-005;
2.415500000000000E+009;1.971729993820190E-001;-3.796433657407761E-002;-1.434260397218168E-003;6.245690019568428E-005;
2.415666666666667E+009;1.984051764011383E-001;-3.883942961692810E-002;-1.383544644340873E-003;-1.972282334463671E-004;
2.415833333333334E+009;1.996410638093948E-001;-3.949192166328430E-002;-1.450238167308271E-003;-4.188239108771086E-005;
2.416000000000000E+009;2.007366865873337E-001;-4.026165977120400E-002;-1.490874448791146E-003;4.109352812520228E-005;
2.416166666666667E+009;2.017627954483032E-001;-4.085325822234154E-002;-1.620128750801086E-003;8.060406253207475E-005;
2.416333333333334E+009;2.026780843734741E-001;-4.114865511655808E-002;-1.652888720855117E-003;1.984816044569016E-004;
2.416500000000000E+009;2.034860551357269E-001;-4.141441732645035E-002;-1.699027023278177E-003;2.606843481771648E-004;
2.416666666666667E+009;2.040438205003738E-001;-4.172126203775406E-002;-1.597523805685341E-003;2.434554335195571E-004;
2.416833333333334E+009;2.046545892953873E-001;-4.170582443475723E-002;-1.559345750138164E-003;4.532130551524460E-004;
2.417000000000000E+009;2.050174921751022E-001;-4.176799580454826E-002;-1.619062619283795E-003;4.707321932073683E-004;
2.417166666666667E+009;2.050001323223114E-001;-4.165428876876831E-002;-1.625797012820840E-003;6.703186081722379E-004;
2.417333333333334E+009;2.050811946392059E-001;-4.126726090908051E-002;-1.569014857523143E-003;6.430798093788326E-004;
2.417500000000000E+009;2.051543444395065E-001;-4.129181802272797E-002;-1.440893509425223E-003;6.916266283951700E-004;
2.417666666666667E+009;2.047745287418366E-001;-4.094883427023888E-002;-1.318045775406063E-003;9.022614685818553E-004;
2.417833333333334E+009;2.045329958200455E-001;-4.049498960375786E-002;-1.314303488470614E-003;8.192187524400652E-004;
2.418000000000000E+009;2.041862010955811E-001;-4.006666317582130E-002;-1.248927554115653E-003;7.698524277657270E-004;
2.418166666666667E+009;2.035412788391113E-001;-3.986740112304688E-002;-1.217948971316218E-003;9.134032879956067E-004;
2.418333333333334E+009;2.027117908000946E-001;-3.944201767444611E-002;-1.206614193506539E-003;9.861825965344906E-004;
2.418500000000000E+009;2.018118500709534E-001;-3.919832408428192E-002;-1.207243651151657E-003;9.470228687860072E-004;
2.418666666666667E+009;2.010132223367691E-001;-3.899073973298073E-002;-1.082204980775714E-003;9.472498786635697E-004;
2.418833333333334E+009;1.998488456010819E-001;-3.889814391732216E-002;-1.039975206367672E-003;8.005300769582391E-004;
2.419000000000000E+009;1.986050754785538E-001;-3.885904699563980E-002;-1.090810634195805E-003;9.096853318624198E-004;
2.419166666666667E+009;1.973198652267456E-001;-3.881556913256645E-002;-1.026586978696287E-003;9.035169496200979E-004;
2.419333333333334E+009;1.958801597356796E-001;-3.918680176138878E-002;-9.124788921326399E-004;8.999605779536068E-004;
2.419500000000000E+009;1.943692862987518E-001;-3.942818194627762E-002;-1.009183120913804E-003;8.208150975406170E-004;
2.419666666666667E+009;1.929023861885071E-001;-3.998832032084465E-002;-8.539629634469748E-004;9.264526306651533E-004;
2.419833333333334E+009;1.911316812038422E-001;-4.044377431273460E-002;-9.984654607251287E-004;9.318059310317040E-004;
2.420000000000000E+009;1.894486695528030E-001;-4.118540510535240E-002;-1.092996681109071E-003;1.041251001879573E-003;
2.420166666666667E+009;1.877601742744446E-001;-4.195366799831390E-002;-1.089879311621189E-003;9.756895597092807E-004;
2.420333333333334E+009;1.859922856092453E-001;-4.300887510180473E-002;-1.205830718390644E-003;1.068123849108815E-003;
2.420500000000000E+009;1.841105669736862E-001;-4.415557906031609E-002;-1.142255030572414E-003;1.059107598848641E-003;
2.420666666666667E+009;1.823743432760239E-001;-4.520518332719803E-002;-1.170342438854277E-003;1.125747454352677E-003;
2.420833333333334E+009;1.805220395326614E-001;-4.663435742259026E-002;-1.003753859549761E-003;1.447806018404663E-003;
2.421000000000000E+009;1.789842993021011E-001;-4.809249192476273E-002;-1.041371258907020E-003;1.478033373132348E-003;
2.421166666666667E+009;1.773101985454559E-001;-4.975711926817894E-002;-8.561174618080258E-004;1.510346075519919E-003;
2.421333333333334E+009;1.755594015121460E-001;-5.124508216977119E-002;-8.748781983740628E-004;1.687646028585732E-003;
2.421500000000000E+009;1.739978492259979E-001;-5.308531224727631E-002;-6.218609050847590E-004;1.741717685945332E-003;
2.421666666666667E+009;1.726063787937164E-001;-5.505369976162911E-002;-5.582268349826336E-004;1.597037888132036E-003;
2.421833333333334E+009;1.711178719997406E-001;-5.718758329749107E-002;-3.609899140428752E-004;1.670862664468586E-003;
2.422000000000000E+009;1.698224991559982E-001;-5.918696895241737E-002;-3.527592343743891E-004;1.675821142271161E-003;
2.422166666666667E+009;1.686422973871231E-001;-6.125407665967941E-002;-2.344431268284097E-004;1.648665871471167E-003;
2.422333333333334E+009;1.676232963800430E-001;-6.358692049980164E-002;-2.279973414260894E-004;1.715405262075365E-003;
2.422500000000000E+009;1.666002720594406E-001;-6.544738262891769E-002;-1.324904151260853E-004;1.491267234086990E-003;
2.422666666666667E+009;1.657172441482544E-001;-6.784360855817795E-002;-7.835464543859416E-007;1.458454411476851E-003;
2.422833333333334E+009;1.651581972837448E-001;-7.011312991380692E-002;3.570294575183652E-005;1.449328497983515E-003;
2.423000000000000E+009;1.643765270709992E-001;-7.242868095636368E-002;-2.324437809875235E-005;1.291870838031173E-003;
2.423166666666667E+009;1.639240086078644E-001;-7.460498809814453E-002;1.180246181320399E-004;1.284443307667971E-003;
2.423333333333334E+009;1.636896133422852E-001;-7.671261578798294E-002;-1.008411418297328E-004;1.334660570137203E-003;
2.423500000000000E+009;1.635051667690277E-001;-7.901732623577118E-002;3.253198519814760E-005;1.281421398743987E-003;
2.423666666666667E+009;1.634808331727982E-001;-8.109896630048752E-002;3.065629789489321E-005;1.318209455348551E-003;
2.423833333333334E+009;1.633683294057846E-001;-8.304616063833237E-002;3.043476499442477E-005;1.292046392336488E-003;
2.424000000000000E+009;1.635486930608749E-001;-8.506915718317032E-002;7.454063597833738E-005;1.434409525245428E-003;
2.424166666666667E+009;1.636766493320465E-001;-8.688359707593918E-002;1.252002257388085E-004;1.499224803410471E-003;
2.424333333333334E+009;1.639343798160553E-001;-8.886451274156570E-002;3.078405279666185E-004;1.527974265627563E-003;
2.424500000000000E+009;1.643721461296082E-001;-9.075573831796646E-002;3.672787279356271E-004;1.321665360592306E-003;
2.424666666666667E+009;1.646425127983093E-001;-9.227985143661499E-002;5.332895671017468E-004;1.394836814142764E-003;
2.424833333333334E+009;1.652157157659531E-001;-9.387767314910889E-002;3.920671006198973E-004;1.447428483515978E-003;
2.425000000000000E+009;1.657437682151794E-001;-9.531208127737045E-002;6.400071433745325E-004;1.373328617773950E-003;
2.425166666666667E+009;1.662867516279221E-001;-9.658287465572357E-002;5.576185067184269E-004;1.352695282548666E-003;
2.425333333333334E+009;1.667311638593674E-001;-9.771917760372162E-002;8.289529359899461E-004;1.036610221490264E-003;
2.425500000000000E+009;1.673597246408463E-001;-9.882768988609314E-002;7.279991405084729E-004;1.335650100372732E-003;
2.425666666666667E+009;1.680224984884262E-001;-9.983967244625092E-002;6.461082375608385E-004;1.083688461221755E-003;
2.425833333333334E+009;1.685702204704285E-001;-1.007383093237877E-001;8.371403673663735E-004;1.077372580766678E-003;
2.426000000000000E+009;1.692432761192322E-001;-1.013004854321480E-001;7.649012841284275E-004;1.024399884045124E-003;
2.426166666666667E+009;1.699351072311401E-001;-1.019265502691269E-001;9.102797484956682E-004;9.181547793559730E-004;
2.426333333333334E+009;1.702112108469009E-001;-1.024886071681976E-001;9.478409192524850E-004;9.321863763034344E-004;
2.426500000000000E+009;1.709339320659638E-001;-1.029741540551186E-001;9.407913312315941E-004;8.154581300914288E-004;
2.426666666666667E+009;1.714371442794800E-001;-1.031785905361176E-001;8.318820036947727E-004;7.739288266748190E-004;
2.426833333333334E+009;1.718491762876511E-001;-1.035958006978035E-001;9.211669093929231E-004;7.124380790628493E-004;
2.427000000000000E+009;1.720735877752304E-001;-1.038408800959587E-001;8.060878026299179E-004;6.926089990884066E-004;
2.427166666666667E+009;1.724391281604767E-001;-1.038116812705994E-001;8.275403524748981E-004;5.641772877424955E-004;
2.427333333333334E+009;1.726104468107224E-001;-1.040334478020668E-001;8.655582787469029E-004;4.997569485567510E-004;
2.427500000000000E+009;1.725340634584427E-001;-1.041349619626999E-001;9.183555375784636E-004;5.477250670082867E-004;
2.427666666666667E+009;1.724743098020554E-001;-1.041691154241562E-001;8.379520149901509E-004;4.880387568846345E-004;
