# Hz S RI R 50
2400000000.0000000000 0.156103536486625699142294365629 0.059854533523321151733398437500 -0.002370974747464060783386230469 -0.001236519543454051017761230469 0 0 0 0 
2400166666.6666665077 0.156124830245971707443075615629 0.058130394667387008666992187500 -0.002199377166107296943664550781 -0.001180438324809073968174599756 0 0 0 0 
2400333333.3333334923 0.156286999583244295974893134371 0.056085158139467239379882812500 -0.002354223979637026786804199219 -0.000950864574406296014785766602 0 0 0 0 
2400500000.0000000000 0.156473681330680902679119981258 0.054113566875457756732981096093 -0.002085562562569975852966308594 -0.001027120975777507045148539966 0 0 0 0 
2400666666.6666665077 0.156618878245353698730468750000 0.051993843168020248413085937500 -0.002199430484324694113490439307 -0.000936813245061784982681274414 0 0 0 0 
2400833333.3333334923 0.156956270337104797363281250000 0.050106287002563476562500000000 -0.002104244427755475044250488281 -0.000846960756462067365646362305 0 0 0 0 
2401000000.0000000000 0.157297745347023010253906250000 0.047729998826980590820312500000 -0.002096414566040039062500000000 -0.000693508074618875980377197266 0 0 0 0 
2401166666.6666665077 0.157861977815628107268963731258 0.045532181859016418457031250000 -0.002123708371073008017299033057 -0.000670597073622047901153564453 0 0 0 0 
2401333333.3333334923 0.158075243234634399414062500000 0.043656073510646820068359375000 -0.001996527658775448799133300781 -0.000702825607731938362121582031 0 0 0 0 
2401500000.0000000000 0.158909499645233209808026231258 0.041695989668369293212890625000 -0.001899922732263803915736533057 -0.000591568183153867721557617188 0 0 0 0 
2401666666.6666665077 0.159450739622116088867187500000 0.039766937494277947162668596093 -0.001924875308759510950801230322 -0.000509325705934315919876098633 0 0 0 0 
2401833333.3333334923 0.160012543201446505447549384371 0.037660215049982070922851562500 -0.001977179199457169012782431494 -0.000707999104633927453696096155 0 0 0 0 
2402000000.0000000000 0.160618260502815302093182481258 0.035790260881185531616210937500 -0.001778006670065223953844379956 -0.000487430865177884697914123535 0 0 0 0 
2402166666.6666665077 0.161418259143829401214276231258 0.033974081277847290039062500000 -0.001755637698806822083116840894 -0.000306435395032167380482274188 0 0 0 0 
2402333333.3333334923 0.162096604704856900314169365629 0.032302930951118469238281250000 -0.001662039896473288969752646338 -0.000376804178813472390174865723 0 0 0 0 
2402500000.0000000000 0.163224160671234103103799384371 0.030788239091634750366210937500 -0.001630539773032068989397358472 -0.000360101665137335712283533917 0 0 0 0 
2402666666.6666665077 0.163933634757995605468750000000 0.029231915250420570373535156250 -0.001676540938206017017364501953 -0.000434040150139480775028782977 0 0 0 0 
2402833333.3333334923 0.164900079369545010665731865629 0.027722470462322238576868826954 -0.001673819730058311982395791162 -0.000464556098449975306361597882 0 0 0 0 
2403000000.0000000000 0.165757775306701687911825615629 0.026218524202704429626464843750 -0.001709064235910773060442280347 -0.000471109407953917980194091797 0 0 0 0 
2403166666.6666665077 0.166901081800460787674111884371 0.024962795898318290710449218750 -0.001740292063914238972904824365 -0.000483737268950790221064967023 0 0 0 0 
2403333333.3333334923 0.167728424072265597244424384371 0.023669416084885600698450858204 -0.001674421364441514015197753906 -0.000575983314774930477142333984 0 0 0 0 
2403500000.0000000000 0.168651118874549893478231865629 0.022515105083584788930872733204 -0.001618550275452435016632080078 -0.000512327998876571655273437500 0 0 0 0 
2403666666.6666665077 0.169646680355071993728799384371 0.021495265886187549936314766796 -0.001669516786932945034624409253 -0.000437028706073760986328125000 0 0 0 0 
2403833333.3333334923 0.170666277408599909026776231258 0.020334791392087939870814139454 -0.001733824377879499955418252100 -0.000522643618751317262649536133 0 0 0 0 
2404000000.0000000000 0.171644896268844604492187500000 0.019514337182044979440709298046 -0.001627963501960038921953510815 -0.000455603701993823105662745343 0 0 0 0 
2404166666.6666665077 0.172496169805526705642861884371 0.018726166337728500366210937500 -0.001740461215376853942871093750 -0.000483654439449310302734375000 0 0 0 0 
2404333333.3333334923 0.173421338200569208343182481258 0.017916813492774959909459298046 -0.001588775310665369033813476562 -0.000389786728192120790481567383 0 0 0 0 
2404500000.0000000000 0.174120232462882995605468750000 0.017255445942282680166224295704 -0.001652594073675573089002299731 -0.000429473264375701600879114972 0 0 0 0 
2404666666.6666665077 0.175082877278327886383380018742 0.016680557280778888357142264454 -0.001651835627853869958164834131 -0.000421298202127218300670069562 0 0 0 0 
2404833333.3333334923 0.175835967063903808593750000000 0.016255443915724750864049141796 -0.001784146297723055102704692310 -0.000416468217736110091209411621 0 0 0 0 
2405000000.0000000000 0.176476418972015408614950615629 0.015724532306194308889368826954 -0.001630823593586683056474995190 -0.000313811236992478424876612531 0 0 0 0 
2405166666.6666665077 0.177237913012504605392294365629 0.015137380920350549870501133398 -0.001762568135745822949650429834 -0.000404281221562996506690979004 0 0 0 0 
2405333333.3333334923 0.177744850516319302657919365629 0.014827727340161800384521484375 -0.001748663140460849025129008716 -0.000425971724325791001319885254 0 0 0 0 
2405500000.0000000000 0.178382411599159212967080634371 0.014559522271156309300432774023 -0.001702561858110130050061870044 -0.000510876358021050691604614258 0 0 0 0 
2405666666.6666665077 0.178834095597267206390057481258 0.014353423379361629486083984375 -0.001907119760289788029314350659 -0.000385675317374989390373229980 0 0 0 0 
2405833333.3333334923 0.179098576307296808440838731258 0.014018950983881950378417968750 -0.001885290839709341959712363135 -0.000212145911063998910501757211 0 0 0 0 
2406000000.0000000000 0.179373368620872497558593750000 0.013495090417563920456855974805 -0.001867618411779403903363871997 -0.000361593993147835081249791278 0 0 0 0 
2406166666.6666665077 0.179452359676361111739950615629 0.013536188751459119969378086523 -0.001963288523256779150721884619 -0.000245655624894425272941589355 0 0 0 0 
2406333333.3333334923 0.179753363132476806640625000000 0.013168910518288610630999180273 -0.001895450172014534907100058447 -0.000138837567646987709120073862 0 0 0 0 
2406500000.0000000000 0.179722964763641412933026231258 0.012874983251094819849957850977 -0.001969669945538043975830078125 -0.000176455898326821598127642221 0 0 0 0 
2406666666.6666665077 0.179604604840278597732705634371 0.012676240876317020761510079296 -0.001949128578417002937914204175 0.000014893059415044259617124864 0 0 0 0 
2406833333.3333334923 0.179643586277961703201455634371 0.012387271970510479318638985546 -0.002078516175970435142517089844 -0.000111952074803412001259388109 0 0 0 0 
2407000000.0000000000 0.179507404565811212737713731258 0.011879811994731429708460623829 -0.001858769450336694934247661060 -0.000177898036781698492452344351 0 0 0 0 
2407166666.6666665077 0.179311767220497103592080634371 0.011535529978573320561419102148 -0.001917073735967278914210654150 0.000062420433096121996641159058 0 0 0 0 
2407333333.3333334923 0.178888961672782897949218750000 0.010949797928333280735979649023 -0.002123051788657904104945517432 0.000110983040940482196494779044 0 0 0 0 
2407500000.0000000000 0.178576037287712097167968750000 0.010484614409506319218645664648 -0.002085308078676462173461914062 0.000095490388048347085714340210 0 0 0 0 
2407666666.6666665077 0.178211361169815091232138115629 0.009989850223064422607421875000 -0.002108068671077489852905273438 0.000073696697654668241739273071 0 0 0 0 
2407833333.3333334923 0.177425220608711187164630018742 0.009098147973418235778808593750 -0.002007814822718501091003417969 0.000166425845236517488956451416 0 0 0 0 
2408000000.0000000000 0.177005156874656705001669365629 0.008332301862537860870361328125 -0.001919131958857178904889750903 0.000137078794068656888887128287 0 0 0 0 
2408166666.6666665077 0.176229193806648309905682481258 0.007524731568992137908935546875 -0.001947273733094335036036826025 0.000348598376149311715930384503 0 0 0 0 
2408333333.3333334923 0.176030784845352200607138115629 0.006521107628941535949707031250 -0.002034900709986687140223837744 0.000324034452205523902743738995 0 0 0 0 
2408500000.0000000000 0.175221055746078491210937500000 0.005426422692835330963134765625 -0.002046146430075169043300009619 0.000414342619478702599376124249 0 0 0 0 
2408666666.6666665077 0.174476847052574213225994981258 0.004324541427195072174072265625 -0.001989282900467514991760253906 0.000470630679046735221713465558 0 0 0 0 
2408833333.3333334923 0.173562571406364413162393134371 0.003031615866348146958592080225 -0.001867150305770338015315390479 0.000545334478374570608139038086 0 0 0 0 
2409000000.0000000000 0.173057451844215393066406250000 0.001853262190707027912139892578 -0.001733720186166465065599751050 0.000609166279900819063186645508 0 0 0 0 
2409166666.6666665077 0.172309651970863286774005018742 0.000413499656133353710174560547 -0.001753105781972408077837299878 0.000490571430418640375137329102 0 0 0 0 
2409333333.3333334923 0.171681702136993408203125000000 -0.001126998686231672980664897388 -0.001776638207957148985621786963 0.000519495748449117053686940881 0 0 0 0 
2409500000.0000000000 0.171047210693359402755575615629 -0.002639581216499208970310830225 -0.001787023385986685969709086841 0.000650075788144022226333618164 0 0 0 0 
2409666666.6666665077 0.170260176062583895584268134371 -0.004214334767311810579781816699 -0.001725388923659920909284282153 0.000536657928023487329483032227 0 0 0 0 
2409833333.3333334923 0.169743403792381286621093750000 -0.005748023279011250409598066113 -0.001651575788855553107020712744 0.000490869046188890933990478516 0 0 0 0 
2410000000.0000000000 0.169326826930046109298544365629 -0.007430156227201223373413085938 -0.001559984870254993005039834131 0.000550014956388622522354125977 0 0 0 0 
2410166666.6666665077 0.168729573488235501388388115629 -0.009448889642953872680664062500 -0.001541520701721311049220419775 0.000587845162954181432723999023 0 0 0 0 
2410333333.3333334923 0.168245896697044400314169365629 -0.011126181110739709681500819727 -0.001666527823545038916944194263 0.000510488811414688825607299805 0 0 0 0 
2410500000.0000000000 0.168117120862007113357705634371 -0.013014973141252999741523943555 -0.001673926599323749975917197119 0.000561432854738086462020874023 0 0 0 0 
2410666666.6666665077 0.167588487267494201660156250000 -0.015165834687650200235387032421 -0.001654478837735950946807861328 0.000471029052278026884228306903 0 0 0 0 
2410833333.3333334923 0.167518302798271206954794365629 -0.016996063292026519775390625000 -0.001733298646286129951477050781 0.000563617155421525239944458008 0 0 0 0 
2411000000.0000000000 0.167365506291389493087606865629 -0.018881134688854220998743826954 -0.001789388596080244021174765479 0.000570034026168286800384521484 0 0 0 0 
2411166666.6666665077 0.167181834578514099121093750000 -0.020984321832656860351562500000 -0.001568926614709198908564902197 0.000607736990787088871002197266 0 0 0 0 
2411333333.3333334923 0.167104840278625488281250000000 -0.023003578186035159719446951954 -0.001721400534734129905700683594 0.000575460086110979318618774414 0 0 0 0 
2411500000.0000000000 0.167289301753044100662393134371 -0.024969073012471199035644531250 -0.001720603206194937012316059644 0.000563598645385354757308959961 0 0 0 0 
2411666666.6666665077 0.167512759566307095626669365629 -0.026743255555629730224609375000 -0.001722726505249738910077739185 0.000554178957827389240264892578 0 0 0 0 
2411833333.3333334923 0.167682483792304992675781250000 -0.028690336272120479238489920704 -0.001770956325344740910771035303 0.000679956399835646152496337891 0 0 0 0 
2412000000.0000000000 0.167982563376426696777343750000 -0.030724005773663520812988281250 -0.001968723256140946908238076318 0.000666665204335004091262817383 0 0 0 0 
2412166666.6666665077 0.168197140097618103027343750000 -0.032684754580259323120117187500 -0.002097192220389842987060546875 0.000679517223034054040908813477 0 0 0 0 
2412333333.3333334923 0.168981343507766695877236884371 -0.034506112337112426757812500000 -0.001891668071039021015167236328 0.000803042843472212553024291992 0 0 0 0 
2412500000.0000000000 0.169318243861198397537393134371 -0.036097053438425057148020158593 -0.001949758385308087088941264575 0.000661798927467316389083862305 0 0 0 0 
2412666666.6666665077 0.169827803969383211990518134371 -0.038037732243537902832031250000 -0.002157442970201373100280761719 0.000948930101003497838973999023 0 0 0 0 
2412833333.3333334923 0.170491114258766202071981865629 -0.039775907993316650390625000000 -0.001959149260073899789097451318 0.000930492358747869729995727539 0 0 0 0 
2413000000.0000000000 0.170925930142402704436932481258 -0.041368089616298682476003278907 -0.002029938390478492216822958838 0.000996140763163566589355468750 0 0 0 0 
2413166666.6666665077 0.171749353408813504318075615629 -0.042929127812385559082031250000 -0.002088549081236124038696289062 0.001127605442889034964917827075 0 0 0 0 
2413333333.3333334923 0.172255560755729703048544365629 -0.044311270117759711528737653907 -0.002079535042867064909694052588 0.001312523963861166997196816553 0 0 0 0 
2413500000.0000000000 0.172882065176963806152343750000 -0.045908857136964797973632812500 -0.002214173553511499924900673975 0.001189994276501237912418984521 0 0 0 0 
2413666666.6666665077 0.173713237047195406814736884371 -0.047236040234565741802175153907 -0.002324601635336875915527343750 0.001326602767221630053279257666 0 0 0 0 
2413833333.3333334923 0.174242004752159090896768134371 -0.048601284623146057128906250000 -0.002202580915763974189758300781 0.001266818726435303904889750903 0 0 0 0 
2414000000.0000000000 0.174643203616142300704794365629 -0.049816638231277472759206403907 -0.002331215189769864082336425781 0.001583591219969094016431498950 0 0 0 0 
2414166666.6666665077 0.175440520048141507247763115629 -0.050727445632219321514089216407 -0.002299026818946003913879394531 0.001470259972847997925401997144 0 0 0 0 
2414333333.3333334923 0.176098674535751287262286268742 -0.051906220614910132671315778907 -0.002233165083453059196472167969 0.001625880482606590010999370044 0 0 0 0 
2414500000.0000000000 0.176713109016418512542401231258 -0.052743449807167053222656250000 -0.002310045296326280073878622900 0.001845293678343296051025390625 0 0 0 0 
2414666666.6666665077 0.177118375897407503982705634371 -0.053479436784982681274414062500 -0.002200288465246558189392089844 0.001870599109679460959193564307 0 0 0 0 
2414833333.3333334923 0.177459850907325689117755018742 -0.054135814309120178222656250000 -0.002083076396957039833068847656 0.001882177079096436934230185400 0 0 0 0 
2415000000.0000000000 0.177912235260009793380575615629 -0.054821573197841637348215471093 -0.002076880773529409928562783350 0.002139203250408173041102743994 0 0 0 0 
2415166666.6666665077 0.178293555974960299392861884371 -0.055404245853424072265625000000 -0.001840116223320364952087402344 0.002104062819853425025939941406 0 0 0 0 
2415333333.3333334923 0.178559318184852600097656250000 -0.056032907217741012573242187500 -0.001990279881283640861511230469 0.002123365877196193175074911963 0 0 0 0 
2415500000.0000000000 0.178956076502799987792968750000 -0.056439474225044250488281250000 -0.002001526765525341033935546875 0.002419781172648071809055947412 0 0 0 0 
2415666666.6666665077 0.178939759731292696853799384371 -0.056787710636854171752929687500 -0.001908712554723023934605263818 0.002541406080126761956455849756 0 0 0 0 
2415833333.3333334923 0.178989216685295104980468750000 -0.057090792804956443096120466407 -0.001862230012193321964861225659 0.002579101826995611190795898438 0 0 0 0 
2416000000.0000000000 0.178797230124473599532919365629 -0.057451669126749038696289062500 -0.001790713984519243023516010815 0.002795851789414883093592978369 0 0 0 0 
2416166666.6666665077 0.178903326392173794845419365629 -0.057553187012672417377512346093 -0.001722501008771359920501708984 0.002749745734035969214198447119 0 0 0 0 
2416333333.3333334923 0.178488373756408691406250000000 -0.057838778942823410034179687500 -0.001540468772873281998875283350 0.002931401366367936134338378906 0 0 0 0 
2416500000.0000000000 0.178323537111282404143963731258 -0.058179758489131927490234375000 -0.001471895258873701095581054688 0.002885569818317890167236328125 0 0 0 0 
2416666666.6666665077 0.177761033177375793457031250000 -0.058166611939668662334401716407 -0.001386021380312741019605327075 0.003028820734471083121058798682 0 0 0 0 
2416833333.3333334923 0.177372187376022311111611884371 -0.058601696044206619262695312500 -0.001344379386864602999446249854 0.003124517155811191038844443213 0 0 0 0 
2417000000.0000000000 0.176545321941375704666299384371 -0.058752261102199547504465471093 -0.001278213574551045894622802734 0.003203713102266192002537392725 0 0 0 0 
2417166666.6666665077 0.175925120711326599121093750000 -0.058782175183296196674387346093 -0.001141486689448357062098837744 0.003349827136844397024867392432 0 0 0 0 
2417333333.3333334923 0.175210282206535311599893134371 -0.059031944721937179565429687500 -0.000972752517554908990859985352 0.003373274812474846839904785156 0 0 0 0 
2417500000.0000000000 0.174336776137351989746093750000 -0.059498135000467300415039062500 -0.000796631153207272291183471680 0.003411148674786090850830078125 0 0 0 0 
2417666666.6666665077 0.173540562391281100174111884371 -0.059647634625434882427175153907 -0.000636255368590354919433593750 0.003406209871172904968261718750 0 0 0 0 
2417833333.3333334923 0.172443836927413912674111884371 -0.060064241290092468261718750000 -0.000505828473251312971115112305 0.003413205966353416009190224756 0 0 0 0 
2418000000.0000000000 0.171258777379989596267861884371 -0.060620944947004318237304687500 -0.000351304101059213280677795410 0.003336249152198433876037597656 0 0 0 0 
2418166666.6666665077 0.170271039009094210525674384371 -0.060927636921405792236328125000 -0.000261976732872426509857177734 0.003383273491635919050929404150 0 0 0 0 
2418333333.3333334923 0.169331371784210205078125000000 -0.061503887176513671875000000000 -0.000170873099705204394742688589 0.003375690197572112083435058594 0 0 0 0 
2418500000.0000000000 0.167929753661155700683593750000 -0.062103245407342910766601562500 -0.000002903077074734028005276480 0.003467105329036713080165243994 0 0 0 0 
2418666666.6666665077 0.166811510920524597167968750000 -0.062714532017707824707031250000 0.000090183835709467530250549316 0.003392405342310667037963867188 0 0 0 0 
2418833333.3333334923 0.165357813239097595214843750000 -0.063436686992645263671875000000 0.000265795824816450476646423340 0.003418020205572247938868857275 0 0 0 0 
2419000000.0000000000 0.164076045155525207519531250000 -0.064281441271305084228515625000 0.000395706156268715912669581281 0.003321974305436015129089355469 0 0 0 0 
2419166666.6666665077 0.162836462259292602539062500000 -0.065206050872802734375000000000 0.000384788174415007179409581317 0.003296878887340426011326455225 0 0 0 0 
2419333333.3333334923 0.161560088396072387695312500000 -0.066022463142871856689453125000 0.000486549513880163376957493915 0.003232861170545219941380166162 0 0 0 0 
2419500000.0000000000 0.160390093922615106780682481258 -0.067209564149379730224609375000 0.000633563904557377099990844727 0.003301297780126332803013466943 0 0 0 0 
2419666666.6666665077 0.159202978014946011642294365629 -0.068290658295154571533203125000 0.000605947454459965229034423828 0.003263225313276052908656454932 0 0 0 0 
2419833333.3333334923 0.157821491360664395431356865629 -0.069346144795417785644531250000 0.000859614810906350612640380859 0.003170375246554613113403320312 0 0 0 0 
