# Hz S RI R 50
2400000000.0000000000 0.167583644390106201171875000000 0.040880419313907623291015625000 0.001757903723046184019801474463 0.000636059558019042015075683594 0 0 0 0 
2400166666.6666665077 0.168263703584670992752236884371 0.040247417986392981792409528907 0.001937257125973701910731650244 0.000807126460131257772445678711 0 0 0 0 
2400333333.3333334923 0.168724492192268399337606865629 0.039363246411085128784179687500 0.001977635780349373817443847656 0.000803558854386210441589355469 0 0 0 0 
2400500000.0000000000 0.169155985116958590408486884371 0.038372069597244262695312500000 0.002188824582844973044154501807 0.000638946134131401777267456055 0 0 0 0 
2400666666.6666665077 0.169575229287147494217080634371 0.037500239908695220947265625000 0.002407989930361508889439248193 0.000751529179979115724563598633 0 0 0 0 
2400833333.3333334923 0.169937774538993807693643134371 0.036901365965604782104492187500 0.002477234695106745199916220557 0.000600355037022382020950317383 0 0 0 0 
2401000000.0000000000 0.170261129736900301834268134371 0.035737466067075729370117187500 0.002510841004550457000732421875 0.000648821063805371522903442383 0 0 0 0 
2401166666.6666665077 0.170506164431571988204794365629 0.035074207931756973266601562500 0.002798827365040779113769531250 0.000559820036869496107101440430 0 0 0 0 
2401333333.3333334923 0.170521914958953912933026231258 0.033915687352418899536132812500 0.002790271304547787146327353369 0.000411858316510915810435694562 0 0 0 0 
2401500000.0000000000 0.170972809195518493652343750000 0.033275593072175979614257812500 0.003164177294820547103881835938 0.000410528271459043025970458984 0 0 0 0 
2401666666.6666665077 0.170995309948921203613281250000 0.032537899911403662944753278907 0.002987169194966555075404501807 0.000019922841602237898519242934 0 0 0 0 
2401833333.3333334923 0.171194836497306795974893134371 0.031377851963043212890625000000 0.003057138528674840927124023438 -0.000016343579773092639038358995 0 0 0 0 
2402000000.0000000000 0.171124875545501708984375000000 0.030651096254587169992467110546 0.003161124652251600785496377100 -0.000168398677487857612684526987 0 0 0 0 
2402166666.6666665077 0.171232536435127313811932481258 0.029467036947607990610142891796 0.003127986565232276916503906250 -0.000445486453827470486790257587 0 0 0 0 
2402333333.3333334923 0.171274825930595397949218750000 0.028748553246259689331054687500 0.003048411803320049805882119287 -0.000653352413792163133621215820 0 0 0 0 
2402500000.0000000000 0.171493485569953890701455634371 0.027621790766715999948521798046 0.002958485390990972952601767432 -0.000819724868051707744598388672 0 0 0 0 
2402666666.6666665077 0.171172812581062289138955634371 0.026709023863077160226842110546 0.002921789186075330214259482275 -0.000774693151470273733139038086 0 0 0 0 
2402833333.3333334923 0.171386986970901489257812500000 0.025614991784095760690709298046 0.002593861659988760948181152344 -0.000973156769759953022003173828 0 0 0 0 
2403000000.0000000000 0.171251893043518094161825615629 0.024379530921578410757044608204 0.002701728837564588026759482275 -0.001102531910873949961421347510 0 0 0 0 
2403166666.6666665077 0.171443447470665005782919365629 0.023242516443133350717564766796 0.002579020801931620077845908057 -0.001106196898035705089569091797 0 0 0 0 
2403333333.3333334923 0.171268597245216397384481865629 0.022249387577176090585728829296 0.002307759830728172822239541162 -0.001101638539694250063655234229 0 0 0 0 
2403500000.0000000000 0.171055063605308504959268134371 0.021096654236316680908203125000 0.002365625463426113128662109375 -0.000984627637080848217010498047 0 0 0 0 
2403666666.6666665077 0.170858308672904996017294365629 0.019681857898831370962122733204 0.002327541355043650107142783057 -0.001006948179565370082855224609 0 0 0 0 
2403833333.3333334923 0.170844674110412597656250000000 0.018494511023163798940638358204 0.002313201781362295150756835938 -0.000976675772108137607574462891 0 0 0 0 
2404000000.0000000000 0.170941293239593505859375000000 0.017268417403101921081542968750 0.002417912473902105851414345850 -0.001036802772432565905927348560 0 0 0 0 
2404166666.6666665077 0.170724973082542391678018134371 0.015903491526842120779017264454 0.002372143557295203208923339844 -0.000913878029678016901016235352 0 0 0 0 
2404333333.3333334923 0.170558512210846002776776231258 0.014564536511898040771484375000 0.002586870454251766204833984375 -0.000922056380659341812133789062 0 0 0 0 
2404500000.0000000000 0.170487612485885592361611884371 0.013056195341050630051582537305 0.002693390240892767906188964844 -0.001035489840433001951930380713 0 0 0 0 
2404666666.6666665077 0.170388996601104708572549384371 0.011852432042360309255579764454 0.002801197115331888198852539062 -0.000927409564610570669174194336 0 0 0 0 
2404833333.3333334923 0.170279264450073186676348768742 0.010443376377224920445452305273 0.002881020540371537208557128906 -0.001069448073394597010371542822 0 0 0 0 
2405000000.0000000000 0.170337527990341186523437500000 0.009001359343528747558593750000 0.003140782471746205849888466943 -0.001241766498424113013623881763 0 0 0 0 
2405166666.6666665077 0.170220121741294888595419365629 0.007613462861627340316772460938 0.003186401445418595834019326318 -0.001328652026131748936296772534 0 0 0 0 
2405333333.3333334923 0.170371636748313903808593750000 0.005816173739731311798095703125 0.003161543048918246789219521631 -0.001621111296117305972455668872 0 0 0 0 
2405500000.0000000000 0.170266941189765902420205634371 0.004403542261570692062377929688 0.003310317639261484146118164062 -0.001659799017943442084668803638 0 0 0 0 
2405666666.6666665077 0.170287385582923889160156250000 0.002914717886596918106079101562 0.003300090786069632010218954932 -0.001916510402224957942962646484 0 0 0 0 
2405833333.3333334923 0.170000344514846801757812500000 0.001416349085047841072082519531 0.003065195633098483085632324219 -0.002014726400375366210937500000 0 0 0 0 
2406000000.0000000000 0.170114889740943908691406250000 -0.000345910637406632304191589355 0.003160587279126048088073730469 -0.002368005691096187071559286963 0 0 0 0 
2406166666.6666665077 0.169845581054687500000000000000 -0.001725961803458631038665771484 0.003403909737244247956516884912 -0.002579423133283853964564658057 0 0 0 0 
2406333333.3333334923 0.169908955693244906326455634371 -0.003329900791868567900416708838 0.003142632544040679931640625000 -0.002793310442939401106593466650 0 0 0 0 
2406500000.0000000000 0.169742435216903686523437500000 -0.004889489151537418365478515625 0.002998479641973971886875771631 -0.003011455526575446128845214844 0 0 0 0 
2406666666.6666665077 0.169454514980316189864950615629 -0.006317237857729197415823652051 0.002807291690260171890258789062 -0.003169042989611626105067587744 0 0 0 0 
2406833333.3333334923 0.169403195381164606292401231258 -0.007773514371365308761596679688 0.002637705067172646956202841650 -0.003400642191991209983825683594 0 0 0 0 
2407000000.0000000000 0.169348433613777188400106865629 -0.009295496158301830291748046875 0.002627731068059802055358886719 -0.003652228042483330206630087744 0 0 0 0 
2407166666.6666665077 0.169204413890838595291299384371 -0.010638923384249210357666015625 0.002330539748072624206542968750 -0.003763120621442794799804687500 0 0 0 0 
2407333333.3333334923 0.168955624103546087066973768742 -0.012146789580583570652971836523 0.002232948550954461097717285156 -0.003864915808662772178649902344 0 0 0 0 
2407500000.0000000000 0.168755635619163513183593750000 -0.013353512622416019439697265625 0.002059896476566791968104697119 -0.004024092108011245727539062500 0 0 0 0 
2407666666.6666665077 0.168623983860015896896200615629 -0.014518257230520250147809413477 0.001810112386010586998583149487 -0.004076911136507987976074218750 0 0 0 0 
2407833333.3333334923 0.168280050158500699142294365629 -0.015803482383489608764648437500 0.001705208560451864979387592847 -0.004240357317030429840087890625 0 0 0 0 
2408000000.0000000000 0.168287947773933410644531250000 -0.016883136704564101482350935157 0.001369045348837971904157329028 -0.004492125939577817916870117188 0 0 0 0 
2408166666.6666665077 0.168104007840156610686932481258 -0.017735041677951809274693673046 0.001240945537574589035631489331 -0.004464847501367331418509198926 0 0 0 0 
2408333333.3333334923 0.168283373117446899414062500000 -0.018755804747343059885045235546 0.000806715455837547779083251953 -0.004392522387206554412841796875 0 0 0 0 
2408500000.0000000000 0.168127283453941400725994981258 -0.019734038040041920053502266796 0.000605482026003301143646240234 -0.004563415423035621643066406250 0 0 0 0 
2408666666.6666665077 0.168149217963218688964843750000 -0.020491445437073711050013358204 0.000429967883974313681751805438 -0.004544479306787252426147460938 0 0 0 0 
2408833333.3333334923 0.168271243572235107421875000000 -0.021396081894636150705357735546 0.000007174597158154938369989395 -0.004533032421022653579711914062 0 0 0 0 
2409000000.0000000000 0.168272361159324701507244981258 -0.022225575521588328969935233204 -0.000270491640549153089523315430 -0.004523206967860460281372070312 0 0 0 0 
2409166666.6666665077 0.168454229831695612151776231258 -0.023120412603020671499232108204 -0.000537308689672499895095825195 -0.004364900290966033935546875000 0 0 0 0 
2409333333.3333334923 0.168682187795639010330361884371 -0.024035932496190071105957031250 -0.000613408861681818962097167969 -0.004180022981017827987670898438 0 0 0 0 
2409500000.0000000000 0.168820813298225402832031250000 -0.025127639994025230407714843750 -0.000928569643292576074600219727 -0.004230122081935405731201171875 0 0 0 0 
2409666666.6666665077 0.168854206800460787674111884371 -0.026004789397120479238489920704 -0.001044365926645695946337055737 -0.004150142893195152282714843750 0 0 0 0 
2409833333.3333334923 0.168954357504844693282919365629 -0.026646817103028300893763358204 -0.001196744851768017032025981372 -0.003827458946034311814549111475 0 0 0 0 
2410000000.0000000000 0.169146716594695989410723768742 -0.027642196044325828552246093750 -0.001380148227326571941375732422 -0.003576988587155938148498535156 0 0 0 0 
2410166666.6666665077 0.169108495116233797928018134371 -0.028676496818661689758300781250 -0.001548912725411355929133749854 -0.003484805580228567123413085938 0 0 0 0 
2410333333.3333334923 0.169074848294258089920205634371 -0.029579898342490199697474295704 -0.001772245392203330993652343750 -0.003344437340274453163146972656 0 0 0 0 
2410500000.0000000000 0.169104188680648803710937500000 -0.030387740582227710378626639454 -0.001765307271853088898899697412 -0.002904054475948214964625693213 0 0 0 0 
2410666666.6666665077 0.168993681669235201736611884371 -0.031563498079776756977121721093 -0.001746156834997236945508647388 -0.002827328396961092948913574219 0 0 0 0 
2410833333.3333334923 0.169030204415321405608807481258 -0.032290577888488769531250000000 -0.001831172849051653905155800928 -0.002816827502101660208461142432 0 0 0 0 
2411000000.0000000000 0.168644621968269403655682481258 -0.033298268914222717285156250000 -0.001842684578150511004804301685 -0.002562111243605614142176962744 0 0 0 0 
2411166666.6666665077 0.168603494763374300857705634371 -0.034044343978166580200195312500 -0.001777584548108279921888041919 -0.002433186164125800132751464844 0 0 0 0 
2411333333.3333334923 0.168500155210494995117187500000 -0.035021886229515082622487653907 -0.001754610100761055946350097656 -0.002123725833371282057521201025 0 0 0 0 
2411500000.0000000000 0.168138667941093389313067518742 -0.036063477396965026855468750000 -0.001617438974790275096893310547 -0.002176495036110281944274902344 0 0 0 0 
2411666666.6666665077 0.167894974350929288009481865629 -0.036958057433366782451589216407 -0.001587132923305035071132040869 -0.002080684294924139976501464844 0 0 0 0 
2411833333.3333334923 0.167673915624618502517861884371 -0.037927318364381790161132812500 -0.001463130116462707953212118994 -0.002082258230075240135192871094 0 0 0 0 
2412000000.0000000000 0.167606517672538812835369981258 -0.038749426603317260742187500000 -0.001363930525258183912989951025 -0.002074885414913297133204794775 0 0 0 0 
2412166666.6666665077 0.167080208659172113616619981258 -0.039674766361713409423828125000 -0.001273015979677438952802348560 -0.002116444520652294158935546875 0 0 0 0 
2412333333.3333334923 0.167090356349945096114950615629 -0.040555942803621292114257812500 -0.001289969193749129989026713794 -0.002125002443790435791015625000 0 0 0 0 
2412500000.0000000000 0.166552931070327786544638115629 -0.041819669306278228759765625000 -0.001233845367096364931819296729 -0.002096349606290460066554404150 0 0 0 0 
2412666666.6666665077 0.166165173053741510589276231258 -0.042813058942556381225585937500 -0.001047419267706573009490966797 -0.002117956057190895080566406250 0 0 0 0 
2412833333.3333334923 0.165880620479583712478799384371 -0.043806105852127082134206403907 -0.001116324681788682937622070312 -0.002338979626074432893040322412 0 0 0 0 
2413000000.0000000000 0.165377348661422701736611884371 -0.044812459498643882060964216407 -0.001258819829672574996948242188 -0.002432208973914384841918945312 0 0 0 0 
2413166666.6666665077 0.165001839399337796310263115629 -0.045901246368885040283203125000 -0.001463607768528162999394082178 -0.002442963887006043954136513818 0 0 0 0 
2413333333.3333334923 0.164406254887580899337606865629 -0.046795707195997238159179687500 -0.001440916443243622996686625903 -0.002520142355933785004856728662 0 0 0 0 
2413500000.0000000000 0.163968801498413113693075615629 -0.047853898257017142559011091407 -0.001591831445693969943402934497 -0.002626378787681459946873330225 0 0 0 0 
2413666666.6666665077 0.163598239421844510177450615629 -0.048816330730915069580078125000 -0.001704058726318180994746542822 -0.002507575321942567825317382812 0 0 0 0 
2413833333.3333334923 0.163104921579360989669638115629 -0.049750000238418579101562500000 -0.001911739585921167893650673975 -0.002540256362408400015590048682 0 0 0 0 
2414000000.0000000000 0.162540525197982788085937500000 -0.050874296575784683227539062500 -0.001992247300222516059875488281 -0.002540116198360919952392578125 0 0 0 0 
2414166666.6666665077 0.162261888384819003006143134371 -0.051776472479105002666432966407 -0.002233765786513686180114746094 -0.002368368441238998933079384912 0 0 0 0 
2414333333.3333334923 0.161878436803817804534588731258 -0.052740607410669326782226562500 -0.002422923222184181213378906250 -0.002278355415910481972935341943 0 0 0 0 
2414500000.0000000000 0.161661401391029413421307481258 -0.053778830915689468383789062500 -0.002423332072794436974766396631 -0.002075025578960775895359658350 0 0 0 0 
2414666666.6666665077 0.161275327205657986739950615629 -0.054525002837181091308593750000 -0.002464459976181387901306152344 -0.002017506631091237068176269531 0 0 0 0 
2414833333.3333334923 0.160882025957107488434161268742 -0.055674482136964797973632812500 -0.002604444511234759850742959131 -0.001877882634289562919019389575 0 0 0 0 
2415000000.0000000000 0.160649076104164095779580634371 -0.056556005030870437622070312500 -0.002798500470817089080810546875 -0.001642109011299907944322895581 0 0 0 0 
2415166666.6666665077 0.160533010959625188629473768742 -0.057674236595630652690847028907 -0.002726357663050293922424316406 -0.001389540731906891085981059497 0 0 0 0 
2415333333.3333334923 0.160563409328460693359375000000 -0.058885477483272552490234375000 -0.002888358896598219871520996094 -0.001315816771239042065264057690 0 0 0 0 
2415500000.0000000000 0.160252571105957003494424384371 -0.059741921722888946533203125000 -0.002737433416768908934352255713 -0.001242711092345416979548788916 0 0 0 0 
2415666666.6666665077 0.160179033875465393066406250000 -0.061012037098407752300222028907 -0.002793116262182592911961220850 -0.001054212800227106051204062354 0 0 0 0 
2415833333.3333334923 0.160117730498313903808593750000 -0.062116708606481552124023437500 -0.002602039370685815811157226562 -0.000845451839268207550048828125 0 0 0 0 
2416000000.0000000000 0.159672439098358209808026231258 -0.063349410891532897949218750000 -0.002409588778391480012180947412 -0.000731379899661988019943237305 0 0 0 0 
2416166666.6666665077 0.159786790609359713455361884371 -0.064475648105144500732421875000 -0.002331186085939406914951943506 -0.000675833318382501602172851562 0 0 0 0 
2416333333.3333334923 0.159544423222541809082031250000 -0.065580464899539947509765625000 -0.002235599793493748144862509619 -0.000630131922662258148193359375 0 0 0 0 
2416500000.0000000000 0.159216344356536892989950615629 -0.066888123750686645507812500000 -0.002144358586519957022425986182 -0.000641162740066647529602050781 0 0 0 0 
2416666666.6666665077 0.158933714032173212249432481258 -0.067924655973911285400390625000 -0.002164679346606134934666298975 -0.000740432529710233211517333984 0 0 0 0 
2416833333.3333334923 0.158738136291503906250000000000 -0.069203160703182220458984375000 -0.002004397334530950026271201025 -0.000712051521986722946166992188 0 0 0 0 
2417000000.0000000000 0.158208861947059603592080634371 -0.070375129580497741699218750000 -0.001875273417681456045863486182 -0.000725835852790623903274536133 0 0 0 0 
2417166666.6666665077 0.158048316836357088943643134371 -0.071298852562904357910156250000 -0.002018087077885866165161132812 -0.000717805698513984680175781250 0 0 0 0 
2417333333.3333334923 0.157710716128349304199218750000 -0.072316363453865051269531250000 -0.001893763314001261971117329175 -0.000801928399596363306045532227 0 0 0 0 
2417500000.0000000000 0.157373681664466913421307481258 -0.073382295668125152587890625000 -0.002047929912805556817295693506 -0.001055480563081800937652587891 0 0 0 0 
2417666666.6666665077 0.157045930624008206466513115629 -0.074151061475276947021484375000 -0.002182073425501585006713867188 -0.000987366074696183204650878906 0 0 0 0 
2417833333.3333334923 0.156741768121719388107138115629 -0.075102403759956359863281250000 -0.002083222148939967155456542969 -0.000944033497944474220275878906 0 0 0 0 
2418000000.0000000000 0.156301453709602411468182481258 -0.076087281107902526855468750000 -0.002394210547208786010742187500 -0.000929237983655184507369995117 0 0 0 0 
2418166666.6666665077 0.156082198023796109298544365629 -0.076663270592689514160156250000 -0.002230584621429442925694131006 -0.001087061828002334074733115088 0 0 0 0 
2418333333.3333334923 0.155929431319236810882244981258 -0.077683009207248687744140625000 -0.002389690605923533005955361475 -0.000938015815336257219314575195 0 0 0 0 
2418500000.0000000000 0.155684024095535306075888115629 -0.078404672443866729736328125000 -0.002468729624524712996241904150 -0.000944013299886137247085571289 0 0 0 0 
2418666666.6666665077 0.155360072851181002517861884371 -0.079233437776565551757812500000 -0.002684848615899682044982910156 -0.000866012414917349815368652344 0 0 0 0 
2418833333.3333334923 0.154912829399108886718750000000 -0.079865127801895141601562500000 -0.002777245827019215063807822119 -0.000860477972310036420822143555 0 0 0 0 
2419000000.0000000000 0.154602915048599187652911268742 -0.080698013305664062500000000000 -0.002844798844307661056518554688 -0.000716428912710398435592651367 0 0 0 0 
2419166666.6666665077 0.154252439737320001800213731258 -0.081383034586906433105468750000 -0.002901629311963915824890136719 -0.000724408251699060201644897461 0 0 0 0 
2419333333.3333334923 0.153868228197097806075888115629 -0.081790991127490997314453125000 -0.002861788962036370797398232568 -0.000475520762847736477851867676 0 0 0 0 
2419500000.0000000000 0.153538361191749600509481865629 -0.082859374582767486572265625000 -0.003150967881083488898036337744 -0.000261502951616421287685948505 0 0 0 0 
2419666666.6666665077 0.153282746672630310058593750000 -0.083350613713264465332031250000 -0.003109720302745699882507324219 -0.000283642992144450599521082745 0 0 0 0 
2419833333.3333334923 0.152663126587867709060830634371 -0.083789080381393432617187500000 -0.003042193362489343123195029150 0.000062563209212385118007659912 0 0 0 0 
