# Version 1.00
#
freq[Hz];re:Trc1_S11;im:Trc1_S11;re:Trc2_S21;im:Trc2_S21;
2.400000000000000E+009;1.732819378376007E-001;4.851191863417625E-002;7.624072954058647E-003;5.194696597754955E-003;
2.400166666666667E+009;1.739009469747543E-001;4.803685843944550E-002;7.848259992897511E-003;5.054069682955742E-003;
2.400333333333334E+009;1.743362396955490E-001;4.715386778116226E-002;8.274486288428307E-003;4.877035040408373E-003;
2.400500000000000E+009;1.747696399688721E-001;4.642394557595253E-002;8.444206789135933E-003;4.671127535402775E-003;
2.400666666666667E+009;1.749756038188934E-001;4.574257135391235E-002;8.544175885617733E-003;4.732721950858831E-003;
2.400833333333334E+009;1.755291223526001E-001;4.530799761414528E-002;8.905454538762569E-003;4.389596171677113E-003;
2.401000000000000E+009;1.754302531480789E-001;4.474456235766411E-002;9.101035073399544E-003;4.046916961669922E-003;
2.401166666666667E+009;1.758513748645783E-001;4.399688914418221E-002;9.359439834952354E-003;3.814148949459195E-003;
2.401333333333334E+009;1.759196966886520E-001;4.339032992720604E-002;9.827585890889168E-003;3.650259226560593E-003;
2.401500000000000E+009;1.760149002075195E-001;4.263130575418472E-002;9.964065626263619E-003;3.345827106386423E-003;
2.401666666666667E+009;1.759108752012253E-001;4.204694181680679E-002;1.026558317244053E-002;2.926334971562028E-003;
2.401833333333334E+009;1.759238690137863E-001;4.156512022018433E-002;1.066402439028025E-002;2.310249721631408E-003;
2.402000000000000E+009;1.755533218383789E-001;4.011862725019455E-002;1.068306434899569E-002;2.454269211739302E-003;
2.402166666666667E+009;1.750947088003159E-001;3.959156945347786E-002;1.138150040060282E-002;1.705214846879244E-003;
2.402333333333334E+009;1.747890114784241E-001;3.918426483869553E-002;1.160045620054007E-002;8.767229155637324E-004;
2.402500000000000E+009;1.753799170255661E-001;3.735012561082840E-002;1.111357100307941E-002;9.986184304580092E-004;
2.402666666666667E+009;1.751641184091568E-001;3.623460233211517E-002;1.104578562080860E-002;6.049184012226760E-004;
2.402833333333334E+009;1.742345392704010E-001;3.515827283263207E-002;1.143834739923477E-002;1.340502785751596E-004;
2.403000000000000E+009;1.731933504343033E-001;3.453264385461807E-002;1.210997346788645E-002;-9.385024313814938E-004;
2.403166666666667E+009;1.750942766666412E-001;3.324770927429199E-002;1.045875623822212E-002;-9.461997542530298E-004;
2.403333333333334E+009;1.751698255538940E-001;3.201270475983620E-002;1.019064988940954E-002;-1.542934682220221E-003;
2.403500000000000E+009;1.735689193010330E-001;2.937638387084007E-002;1.112976018339396E-002;-1.421898487024009E-003;
2.403666666666667E+009;1.731529980897903E-001;2.851540595293045E-002;1.092007383704186E-002;-2.338828984647989E-003;
2.403833333333334E+009;1.723994761705399E-001;2.593305706977844E-002;1.143097691237927E-002;-2.521884394809604E-003;
2.404000000000000E+009;1.725947856903076E-001;2.581470273435116E-002;1.017507445067167E-002;-3.507296089082956E-003;
2.404166666666667E+009;1.715074926614761E-001;2.349716424942017E-002;1.067776139825583E-002;-4.202364943921566E-003;
2.404333333333334E+009;1.716771572828293E-001;2.210463024675846E-002;9.971621446311474E-003;-4.643340595066547E-003;
2.404500000000000E+009;1.715080887079239E-001;2.060197852551937E-002;9.172754362225533E-003;-5.044943653047085E-003;
2.404666666666667E+009;1.702203750610352E-001;1.786324754357338E-002;1.025554444640875E-002;-5.604640580713749E-003;
2.404833333333334E+009;1.700213402509689E-001;1.533834170550108E-002;1.045861653983593E-002;-5.474116653203964E-003;
2.405000000000000E+009;1.706413030624390E-001;1.402666792273521E-002;9.071691893041134E-003;-5.667818244546652E-003;
2.405166666666667E+009;1.704642474651337E-001;1.183537952601910E-002;8.912093006074429E-003;-5.879907403141260E-003;
2.405333333333334E+009;1.705772876739502E-001;9.732356294989586E-003;8.609749376773834E-003;-6.351825781166554E-003;
2.405500000000000E+009;1.705861985683441E-001;7.932284846901894E-003;8.281114511191845E-003;-6.822264753282070E-003;
2.405666666666667E+009;1.706166863441467E-001;5.971768870949745E-003;7.918077521026135E-003;-6.782348733395338E-003;
2.405833333333334E+009;1.706947982311249E-001;3.855448681861162E-003;7.596047595143318E-003;-7.019728422164917E-003;
2.406000000000000E+009;1.710060983896256E-001;1.694653998129070E-003;7.294139824807644E-003;-7.255311589688063E-003;
2.406166666666667E+009;1.712035983800888E-001;-1.964897383004427E-004;6.944404449313879E-003;-7.424427196383476E-003;
2.406333333333334E+009;1.717960536479950E-001;-2.177852904424071E-003;6.613686680793762E-003;-7.634583394974470E-003;
2.406500000000000E+009;1.720612198114395E-001;-4.264302086085081E-003;6.402322556823492E-003;-7.619206793606281E-003;
2.406666666666667E+009;1.724139600992203E-001;-6.163222249597311E-003;5.849072244018316E-003;-7.747840136289597E-003;
2.406833333333334E+009;1.730031520128250E-001;-8.268859237432480E-003;5.663785617798567E-003;-7.839880883693695E-003;
2.407000000000000E+009;1.737108826637268E-001;-1.017284113913775E-002;5.324565805494785E-003;-8.048942312598229E-003;
2.407166666666667E+009;1.745377331972122E-001;-1.196725852787495E-002;5.020351149141789E-003;-7.917100563645363E-003;
2.407333333333334E+009;1.749728769063950E-001;-1.402629073709250E-002;4.774200730025768E-003;-8.231503888964653E-003;
2.407500000000000E+009;1.756671071052551E-001;-1.567701809108257E-002;4.461049567908049E-003;-8.268347010016441E-003;
2.407666666666667E+009;1.765247434377670E-001;-1.748492196202278E-002;4.242322407662869E-003;-8.433340117335320E-003;
2.407833333333334E+009;1.770987212657929E-001;-1.929703354835510E-002;3.959844354540110E-003;-8.469203487038612E-003;
2.408000000000000E+009;1.779051125049591E-001;-2.101905643939972E-002;3.746015019714832E-003;-8.624193258583546E-003;
2.408166666666667E+009;1.784830838441849E-001;-2.247796393930912E-002;3.350486280396581E-003;-8.520953357219696E-003;
2.408333333333334E+009;1.793615669012070E-001;-2.393681928515434E-002;3.184163710102439E-003;-8.714301511645317E-003;
2.408500000000000E+009;1.799017190933228E-001;-2.539898268878460E-002;2.863724017515779E-003;-8.751463145017624E-003;
2.408666666666667E+009;1.805552840232849E-001;-2.669111825525761E-002;2.567092655226588E-003;-8.829316124320030E-003;
2.408833333333334E+009;1.809957474470139E-001;-2.800678275525570E-002;2.101988764479756E-003;-8.870136924088001E-003;
2.409000000000000E+009;1.814275234937668E-001;-2.895919047296047E-002;1.757859135977924E-003;-8.920806460082531E-003;
2.409166666666667E+009;1.817825138568878E-001;-2.991253323853016E-002;1.643750001676381E-003;-8.843757212162018E-003;
2.409333333333334E+009;1.823266297578812E-001;-3.098816238343716E-002;1.245533581823111E-003;-8.711653761565685E-003;
2.409500000000000E+009;1.826256811618805E-001;-3.186383098363876E-002;9.760192479006946E-004;-8.926817215979099E-003;
2.409666666666667E+009;1.829915046691895E-001;-3.251948580145836E-002;5.888240411877632E-004;-8.791029453277588E-003;
2.409833333333334E+009;1.830302625894547E-001;-3.280488029122353E-002;3.223236708436161E-004;-8.801567368209362E-003;
2.410000000000000E+009;1.833887696266174E-001;-3.354325518012047E-002;9.091124411497731E-006;-8.530139923095703E-003;
2.410166666666667E+009;1.836024969816208E-001;-3.389070555567741E-002;-3.435503167565912E-004;-8.633357472717762E-003;
2.410333333333334E+009;1.835764348506928E-001;-3.427898883819580E-002;-5.735731683671475E-004;-8.687397465109825E-003;
2.410500000000000E+009;1.835571229457855E-001;-3.459171205759049E-002;-7.336302660405636E-004;-8.625686168670654E-003;
2.410666666666667E+009;1.835613399744034E-001;-3.495763987302780E-002;-1.075018313713372E-003;-8.545250631868839E-003;
2.410833333333334E+009;1.835059076547623E-001;-3.512417897582054E-002;-1.369530335068703E-003;-8.503375574946404E-003;
2.411000000000000E+009;1.832787841558456E-001;-3.536426275968552E-002;-1.637588022276759E-003;-8.324133232235909E-003;
2.411166666666667E+009;1.830457448959351E-001;-3.580542281270027E-002;-1.958383247256279E-003;-8.165429346263409E-003;
2.411333333333334E+009;1.826564669609070E-001;-3.606685250997543E-002;-2.145781880244613E-003;-8.028243668377399E-003;
2.411500000000000E+009;1.822702586650848E-001;-3.648935258388519E-002;-2.433496993035078E-003;-7.875404320657253E-003;
2.411666666666667E+009;1.817528009414673E-001;-3.697574138641357E-002;-2.717856084927917E-003;-7.803576998412609E-003;
2.411833333333334E+009;1.808401346206665E-001;-3.735820204019547E-002;-2.910858951508999E-003;-7.623149547725916E-003;
2.412000000000000E+009;1.802737712860107E-001;-3.757042437791824E-002;-3.164547728374600E-003;-7.440645247697830E-003;
2.412166666666667E+009;1.793920695781708E-001;-3.820036351680756E-002;-3.562405239790678E-003;-7.228751666843891E-003;
2.412333333333334E+009;1.784569174051285E-001;-3.851791098713875E-002;-3.649483667686582E-003;-7.170503493398428E-003;
2.412500000000000E+009;1.775455623865128E-001;-3.907188773155212E-002;-3.798381425440311E-003;-6.896025035530329E-003;
2.412666666666667E+009;1.765688955783844E-001;-3.986976295709610E-002;-4.039272665977478E-003;-6.629633717238903E-003;
2.412833333333334E+009;1.753650754690170E-001;-4.039935395121574E-002;-4.268662072718144E-003;-6.255848798900843E-003;
2.413000000000000E+009;1.741615235805512E-001;-4.103949293494225E-002;-4.298626445233822E-003;-6.133835297077894E-003;
2.413166666666667E+009;1.728204041719437E-001;-4.200732707977295E-002;-4.452066961675882E-003;-5.858471617102623E-003;
2.413333333333334E+009;1.715751737356186E-001;-4.291362687945366E-002;-4.568442702293396E-003;-5.596587900072336E-003;
2.413500000000000E+009;1.703937053680420E-001;-4.389365389943123E-002;-4.620172083377838E-003;-5.257802084088326E-003;
2.413666666666667E+009;1.692261993885040E-001;-4.495074972510338E-002;-4.661480430513620E-003;-5.109555553644896E-003;
2.413833333333334E+009;1.677020043134689E-001;-4.594613984227181E-002;-4.704114980995655E-003;-4.797094967216253E-003;
2.414000000000000E+009;1.662943661212921E-001;-4.724953323602676E-002;-4.688660614192486E-003;-4.713661968708038E-003;
2.414166666666667E+009;1.652745902538300E-001;-4.848884046077728E-002;-4.810883663594723E-003;-4.295046441257000E-003;
2.414333333333334E+009;1.638621538877487E-001;-4.967130348086357E-002;-4.790890496224165E-003;-4.255041945725679E-003;
2.414500000000000E+009;1.630106419324875E-001;-5.124703794717789E-002;-4.788374993950129E-003;-3.973992075771093E-003;
2.414666666666667E+009;1.616445481777191E-001;-5.254741758108139E-002;-4.864875227212906E-003;-3.907570149749517E-003;
2.414833333333334E+009;1.606417745351791E-001;-5.426084995269775E-002;-4.846361000090838E-003;-3.761357860639691E-003;
2.415000000000000E+009;1.595486253499985E-001;-5.588197335600853E-002;-4.743012599647045E-003;-3.763234475627542E-003;
2.415166666666667E+009;1.585615873336792E-001;-5.750996246933937E-002;-4.577360115945339E-003;-3.515599062666297E-003;
2.415333333333334E+009;1.578502058982849E-001;-5.930655822157860E-002;-4.831962753087282E-003;-3.454818855971098E-003;
2.415500000000000E+009;1.569953858852387E-001;-6.111855804920197E-002;-4.767486825585365E-003;-3.187287366017699E-003;
2.415666666666667E+009;1.561249792575836E-001;-6.292167305946350E-002;-4.861208144575357E-003;-3.287770552560687E-003;
2.415833333333334E+009;1.554637700319290E-001;-6.486159563064575E-002;-4.782505333423615E-003;-3.025410696864128E-003;
2.416000000000000E+009;1.546443551778793E-001;-6.686618924140930E-002;-4.843584261834621E-003;-2.918247831985354E-003;
2.416166666666667E+009;1.543177068233490E-001;-6.894587725400925E-002;-4.880874883383513E-003;-2.862601773813367E-003;
2.416333333333334E+009;1.537427008152008E-001;-7.068372517824173E-002;-4.872802644968033E-003;-2.832388505339623E-003;
2.416500000000000E+009;1.532923728227615E-001;-7.280795276165009E-002;-4.957335069775581E-003;-2.661583246663213E-003;
2.416666666666667E+009;1.528786718845367E-001;-7.466403394937515E-002;-4.943138919770718E-003;-2.615558216348290E-003;
2.416833333333334E+009;1.525961905717850E-001;-7.676915079355240E-002;-4.878051113337278E-003;-2.355739707127214E-003;
2.417000000000000E+009;1.521973460912705E-001;-7.871786504983902E-002;-5.044575780630112E-003;-2.488260855898261E-003;
2.417166666666667E+009;1.520366966724396E-001;-8.044304698705673E-002;-4.951596260070801E-003;-2.082130638882518E-003;
2.417333333333334E+009;1.518882513046265E-001;-8.216013014316559E-002;-5.052083637565374E-003;-2.201959490776062E-003;
2.417500000000000E+009;1.517604589462280E-001;-8.412782102823257E-002;-5.164343863725662E-003;-1.944592222571373E-003;
2.417666666666667E+009;1.519300043582916E-001;-8.550274372100830E-002;-5.088279489427805E-003;-1.902953837998211E-003;
2.417833333333334E+009;1.518256068229675E-001;-8.707000315189362E-002;-5.165338050574064E-003;-1.780951046384871E-003;
2.418000000000000E+009;1.517414152622223E-001;-8.879882097244263E-002;-5.215098615735769E-003;-1.669407589361072E-003;
2.418166666666667E+009;1.519214063882828E-001;-8.990389108657837E-002;-5.316378083080053E-003;-1.447355607524514E-003;
2.418333333333334E+009;1.522475332021713E-001;-9.121315181255341E-002;-5.214042495936155E-003;-1.460275379940867E-003;
2.418500000000000E+009;1.521629095077515E-001;-9.239012748003006E-002;-5.429438315331936E-003;-1.253610826097429E-003;
2.418666666666667E+009;1.524719744920731E-001;-9.349320083856583E-002;-5.460646934807301E-003;-1.094012986868620E-003;
2.418833333333334E+009;1.525626629590988E-001;-9.444470703601837E-002;-5.544665735214949E-003;-7.744667236693203E-004;
2.419000000000000E+009;1.526512354612351E-001;-9.526151418685913E-002;-5.504983477294445E-003;-5.748130497522652E-004;
2.419166666666667E+009;1.529929786920548E-001;-9.601373225450516E-002;-5.631257779896259E-003;-5.027861916460097E-004;
2.419333333333334E+009;1.531468927860260E-001;-9.630411863327026E-002;-5.594761110842228E-003;-2.809452707879245E-004;
2.419500000000000E+009;1.532733142375946E-001;-9.695639461278915E-002;-5.498514510691166E-003;-1.063930467353202E-004;
2.419666666666667E+009;1.534605473279953E-001;-9.747112542390823E-002;-5.458863917738199E-003;1.660672278376296E-004;
2.419833333333334E+009;1.535857319831848E-001;-9.752377122640610E-002;-5.477430764585733E-003;4.862862406298518E-004;
2.420000000000000E+009;1.538448929786682E-001;-9.767698496580124E-002;-5.226447246968746E-003;5.945516750216484E-004;
2.420166666666667E+009;1.539978384971619E-001;-9.765408933162689E-002;-5.165101028978825E-003;9.327934239991009E-004;
2.420333333333334E+009;1.540948003530502E-001;-9.791979193687439E-002;-5.093112122267485E-003;1.064516720362008E-003;
2.420500000000000E+009;1.541463285684586E-001;-9.770439565181732E-002;-4.976595286279917E-003;1.166976988315582E-003;
2.420666666666667E+009;1.541320234537125E-001;-9.738254547119141E-002;-4.698475357145071E-003;1.212751609273255E-003;
2.420833333333334E+009;1.540788114070892E-001;-9.727741032838821E-002;-4.708115942776203E-003;1.424371148459613E-003;
2.421000000000000E+009;1.538559347391129E-001;-9.703440964221954E-002;-4.542449023574591E-003;1.420963788405061E-003;
2.421166666666667E+009;1.537792384624481E-001;-9.668894857168198E-002;-4.375702701508999E-003;1.682800124399364E-003;
2.421333333333334E+009;1.536576002836227E-001;-9.647528082132340E-002;-4.303378053009510E-003;1.643612980842590E-003;
2.421500000000000E+009;1.531817317008972E-001;-9.613291174173355E-002;-4.085258115082979E-003;1.737231388688088E-003;
2.421666666666667E+009;1.528509706258774E-001;-9.588871896266937E-002;-4.060080274939537E-003;1.679414301179349E-003;
2.421833333333334E+009;1.523716300725937E-001;-9.572142362594605E-002;-3.799086436629295E-003;1.835633185692132E-003;
2.422000000000000E+009;1.515278071165085E-001;-9.526056796312332E-002;-3.718569409102202E-003;1.927864272147417E-003;
2.422166666666667E+009;1.507122069597244E-001;-9.517927467823029E-002;-3.584371414035559E-003;1.900612725876272E-003;
2.422333333333334E+009;1.499287337064743E-001;-9.493382275104523E-002;-3.528692526742816E-003;1.854634028859437E-003;
2.422500000000000E+009;1.488719731569290E-001;-9.461657702922821E-002;-3.428046824410558E-003;1.881110831163824E-003;
2.422666666666667E+009;1.478596925735474E-001;-9.463536739349365E-002;-3.325783181935549E-003;2.198320114985108E-003;
2.422833333333334E+009;1.465829759836197E-001;-9.445057809352875E-002;-3.178493352606893E-003;2.109054941684008E-003;
2.423000000000000E+009;1.453568190336227E-001;-9.428911656141281E-002;-3.050615312531591E-003;2.129624830558896E-003;
2.423166666666667E+009;1.442135572433472E-001;-9.447365999221802E-002;-3.048483980819583E-003;2.100144745782018E-003;
2.423333333333334E+009;1.427954584360123E-001;-9.423186630010605E-002;-2.663402352482081E-003;2.194364089518786E-003;
2.423500000000000E+009;1.412602514028549E-001;-9.437721967697144E-002;-2.524834359064698E-003;2.070773160085082E-003;
2.423666666666667E+009;1.396179646253586E-001;-9.464674443006516E-002;-2.629534574225545E-003;1.974536338821054E-003;
2.423833333333334E+009;1.383231431245804E-001;-9.481762349605560E-002;-2.555484417825937E-003;1.834499998949468E-003;
2.424000000000000E+009;1.367370486259460E-001;-9.496300667524338E-002;-2.350578550249338E-003;1.862624892964959E-003;
2.424166666666667E+009;1.350936740636826E-001;-9.532970190048218E-002;-2.272005192935467E-003;1.675383071415126E-003;
2.424333333333334E+009;1.337663382291794E-001;-9.565399587154388E-002;-2.224831376224756E-003;1.614188775420189E-003;
2.424500000000000E+009;1.321696043014526E-001;-9.617772698402405E-002;-2.147824969142675E-003;1.382120186462998E-003;
2.424666666666667E+009;1.308113485574722E-001;-9.661193192005158E-002;-2.134105656296015E-003;1.444105175323784E-003;
2.424833333333334E+009;1.293214112520218E-001;-9.738994389772415E-002;-2.258734079077840E-003;1.447549089789391E-003;
2.425000000000000E+009;1.278963834047318E-001;-9.819095581769943E-002;-2.234374638646841E-003;1.212046016007662E-003;
2.425166666666667E+009;1.264195442199707E-001;-9.908793866634369E-002;-2.457203576341271E-003;1.230776193551719E-003;
2.425333333333334E+009;1.251334100961685E-001;-1.001698523759842E-001;-2.269051969051361E-003;1.130493241362274E-003;
2.425500000000000E+009;1.240787431597710E-001;-1.013240590691567E-001;-2.516385866329074E-003;1.124908216297627E-003;
2.425666666666667E+009;1.227628961205483E-001;-1.025264561176300E-001;-2.587158465757966E-003;9.599673212505877E-004;
2.425833333333334E+009;1.216114163398743E-001;-1.037361025810242E-001;-2.631639363244176E-003;1.124857808463275E-003;
2.426000000000000E+009;1.206427067518234E-001;-1.051459982991219E-001;-2.729503670707345E-003;9.866044856607914E-004;
2.426166666666667E+009;1.197015196084976E-001;-1.065625101327896E-001;-2.858779625967145E-003;1.018340932205319E-003;
2.426333333333334E+009;1.187724843621254E-001;-1.079291701316834E-001;-3.023892408236861E-003;1.336002955213189E-003;
2.426500000000000E+009;1.179900839924812E-001;-1.094149649143219E-001;-3.263421356678009E-003;1.147713977843523E-003;
2.426666666666667E+009;1.173925697803497E-001;-1.108977720141411E-001;-3.243848215788603E-003;1.366496202535927E-003;
2.426833333333334E+009;1.167395934462547E-001;-1.126044467091560E-001;-3.024555975571275E-003;1.481620245613158E-003;
2.427000000000000E+009;1.159645244479179E-001;-1.142059266567230E-001;-3.127288771793246E-003;1.532572554424405E-003;
2.427166666666667E+009;1.156047582626343E-001;-1.157027706503868E-001;-3.373067593201995E-003;1.629635691642761E-003;
2.427333333333334E+009;1.151243001222611E-001;-1.172057911753655E-001;-3.452026983723044E-003;1.712452853098512E-003;
2.427500000000000E+009;1.148909032344818E-001;-1.189443469047546E-001;-3.296988550573587E-003;1.773794181644917E-003;
2.427666666666667E+009;1.146516129374504E-001;-1.205273270606995E-001;-3.302913624793291E-003;2.006676048040390E-003;
