# Version 1.00
#
freq[Hz];re:Trc1_S11;im:Trc1_S11;re:Trc2_S21;im:Trc2_S21;
2.400000000000000E+009;1.572658717632294E-001;1.119830608367920E-001;6.457070354372263E-003;2.913428936153650E-003;
2.400166666666667E+009;1.566020697355270E-001;1.098889186978340E-001;6.751832086592913E-003;2.788527403026819E-003;
2.400333333333334E+009;1.563820242881775E-001;1.076682358980179E-001;6.856904830783606E-003;2.339093247428536E-003;
2.400500000000000E+009;1.559335440397263E-001;1.051167771220207E-001;6.869442760944367E-003;1.834929804317653E-003;
2.400666666666667E+009;1.557044237852097E-001;1.027454435825348E-001;6.905416492372751E-003;1.436322345398367E-003;
2.400833333333334E+009;1.553329229354858E-001;1.000123247504234E-001;7.056429050862789E-003;1.048890640959144E-003;
2.401000000000000E+009;1.551607549190521E-001;9.712807089090347E-002;7.016336079686880E-003;7.152489852160215E-004;
2.401166666666667E+009;1.549350321292877E-001;9.418854862451553E-002;6.726206745952368E-003;1.570673921378329E-004;
2.401333333333334E+009;1.549457162618637E-001;9.145734459161758E-002;6.535529624670744E-003;-4.547797288978472E-005;
2.401500000000000E+009;1.549389511346817E-001;8.831154555082321E-002;6.475994363427162E-003;-3.808865731116384E-004;
2.401666666666667E+009;1.551802754402161E-001;8.527690172195435E-002;6.268089637160301E-003;-5.738474428653717E-004;
2.401833333333334E+009;1.553139686584473E-001;8.242254704236984E-002;6.003742106258869E-003;-7.494507590308785E-004;
2.402000000000000E+009;1.558836847543716E-001;7.930467277765274E-002;5.927801597863436E-003;-8.912716293707490E-004;
2.402166666666667E+009;1.562931686639786E-001;7.656760513782501E-002;5.691149737685919E-003;-1.156967366114259E-003;
2.402333333333334E+009;1.571177691221237E-001;7.349509000778198E-002;5.486309994012117E-003;-1.117567298933864E-003;
2.402500000000000E+009;1.579469740390778E-001;7.068739831447601E-002;5.167217459529638E-003;-1.287589780986309E-003;
2.402666666666667E+009;1.589523553848267E-001;6.800662726163864E-002;4.929694812744856E-003;-1.358374836854637E-003;
2.402833333333334E+009;1.600434929132462E-001;6.531644612550736E-002;4.783645737916231E-003;-1.300097908824682E-003;
2.403000000000000E+009;1.613137722015381E-001;6.245981156826019E-002;4.818732850253582E-003;-1.431641052477062E-003;
2.403166666666667E+009;1.629528105258942E-001;5.984610691666603E-002;4.555511754006147E-003;-1.538837794214487E-003;
2.403333333333334E+009;1.642743200063705E-001;5.730193108320236E-002;4.451348446309567E-003;-1.406934112310410E-003;
2.403500000000000E+009;1.658677905797958E-001;5.488860234618187E-002;4.396150819957256E-003;-1.359165413305163E-003;
2.403666666666667E+009;1.677827239036560E-001;5.263352394104004E-002;4.398159682750702E-003;-1.465532579459250E-003;
2.403833333333334E+009;1.693956106901169E-001;5.033611133694649E-002;4.454140551388264E-003;-1.552363624796271E-003;
2.404000000000000E+009;1.709773987531662E-001;4.827025532722473E-002;4.239353351294994E-003;-1.357323839329183E-003;
2.404166666666667E+009;1.729122400283814E-001;4.625595360994339E-002;4.291014280170202E-003;-1.711781020276249E-003;
2.404333333333334E+009;1.745872646570206E-001;4.441117867827416E-002;4.375805146992207E-003;-1.465156325139105E-003;
2.404500000000000E+009;1.763421893119812E-001;4.266427457332611E-002;4.411770030856133E-003;-1.733343815430999E-003;
2.404666666666667E+009;1.784188151359558E-001;4.145056009292603E-002;4.392282105982304E-003;-1.685720519162715E-003;
2.404833333333334E+009;1.801805347204208E-001;3.993349522352219E-002;4.397045355290175E-003;-1.738998806104064E-003;
2.405000000000000E+009;1.816658973693848E-001;3.891905769705772E-002;4.377136938273907E-003;-2.026958856731653E-003;
2.405166666666667E+009;1.834407895803452E-001;3.808850422501564E-002;4.381974693387747E-003;-1.901262905448675E-003;
2.405333333333334E+009;1.852056086063385E-001;3.730238974094391E-002;4.335769917815924E-003;-2.270397497341037E-003;
2.405500000000000E+009;1.869790703058243E-001;3.658406063914299E-002;4.242416936904192E-003;-2.342932857573032E-003;
2.405666666666667E+009;1.885038167238236E-001;3.620056435465813E-002;4.126258660107851E-003;-2.431905828416348E-003;
2.405833333333334E+009;1.900533735752106E-001;3.576981648802757E-002;4.090620204806328E-003;-2.588607603684068E-003;
2.406000000000000E+009;1.914228647947311E-001;3.564037382602692E-002;3.953547682613134E-003;-2.680827165022492E-003;
2.406166666666667E+009;1.927361786365509E-001;3.543774038553238E-002;3.927214536815882E-003;-2.742941956967115E-003;
2.406333333333334E+009;1.940674334764481E-001;3.561872616410255E-002;3.710036864504218E-003;-2.932376461103559E-003;
2.406500000000000E+009;1.952267140150070E-001;3.565683215856552E-002;3.740899264812470E-003;-2.870456082746387E-003;
2.406666666666667E+009;1.962020248174667E-001;3.573480248451233E-002;3.796614473685622E-003;-3.017530078068376E-003;
2.406833333333334E+009;1.970704048871994E-001;3.593802079558373E-002;3.718477440997958E-003;-2.897552447393537E-003;
2.407000000000000E+009;1.977031677961350E-001;3.633386269211769E-002;3.687945427373052E-003;-2.918484620749950E-003;
2.407166666666667E+009;1.985665559768677E-001;3.644185885787010E-002;3.761252388358116E-003;-3.141795750707388E-003;
2.407333333333334E+009;1.987852454185486E-001;3.680478408932686E-002;3.730787895619869E-003;-3.146629780530930E-003;
2.407500000000000E+009;1.991102993488312E-001;3.711816295981407E-002;3.846454434096813E-003;-3.088914323598146E-003;
2.407666666666667E+009;1.993631869554520E-001;3.737498074769974E-002;3.856610041111708E-003;-3.401262219995260E-003;
2.407833333333334E+009;1.990729570388794E-001;3.759307414293289E-002;3.879245603457093E-003;-3.382870694622397E-003;
2.408000000000000E+009;1.992882937192917E-001;3.787788748741150E-002;3.852598601952195E-003;-3.602682147175074E-003;
2.408166666666667E+009;1.989149153232575E-001;3.795640543103218E-002;3.885738318786025E-003;-3.803923027589917E-003;
2.408333333333334E+009;1.985580176115036E-001;3.774072602391243E-002;3.747759154066443E-003;-3.936029039323330E-003;
2.408500000000000E+009;1.979538500308991E-001;3.790794685482979E-002;3.894189139828086E-003;-4.265757743269205E-003;
2.408666666666667E+009;1.974885463714600E-001;3.780499845743179E-002;3.827926469966769E-003;-4.265269264578819E-003;
2.408833333333334E+009;1.968220174312592E-001;3.735870122909546E-002;3.735711798071861E-003;-4.458618350327015E-003;
2.409000000000000E+009;1.958796977996826E-001;3.695362806320190E-002;3.644466632977128E-003;-4.977731499820948E-003;
2.409166666666667E+009;1.950749456882477E-001;3.647520765662193E-002;3.518427256494761E-003;-5.208730697631836E-003;
2.409333333333334E+009;1.939887106418610E-001;3.587441891431809E-002;3.369782585650682E-003;-5.496009252965450E-003;
2.409500000000000E+009;1.927770972251892E-001;3.486722707748413E-002;3.178312210366130E-003;-5.750401876866818E-003;
2.409666666666667E+009;1.915076076984406E-001;3.382628783583641E-002;2.899859100580216E-003;-5.752799566835165E-003;
2.409833333333334E+009;1.905351728200913E-001;3.271313756704330E-002;2.826537471264601E-003;-6.004486698657274E-003;
2.410000000000000E+009;1.892766654491425E-001;3.153993561863899E-002;2.530585974454880E-003;-6.171417888253927E-003;
2.410166666666667E+009;1.880789697170258E-001;2.990980446338654E-002;2.139192773029208E-003;-6.304615642875433E-003;
2.410333333333334E+009;1.868306547403336E-001;2.844476699829102E-002;1.985891489312053E-003;-6.469196639955044E-003;
2.410500000000000E+009;1.856940090656281E-001;2.678347937762737E-002;1.693950849585235E-003;-6.648665294051170E-003;
2.410666666666667E+009;1.844519972801209E-001;2.479021437466145E-002;1.427599228918552E-003;-6.730427965521812E-003;
2.410833333333334E+009;1.835023760795593E-001;2.264328859746456E-002;1.168354647234082E-003;-6.756274495273829E-003;
2.411000000000000E+009;1.823375076055527E-001;2.072212658822537E-002;8.151401416398585E-004;-6.799333263188601E-003;
2.411166666666667E+009;1.814066320657730E-001;1.851586624979973E-002;7.285538013093174E-004;-6.775374524295330E-003;
2.411333333333334E+009;1.806093156337738E-001;1.593740284442902E-002;2.684843784663826E-004;-6.939013488590717E-003;
2.411500000000000E+009;1.799841374158859E-001;1.376987714320421E-002;1.175970373878954E-005;-7.099965121597052E-003;
2.411666666666667E+009;1.793354898691177E-001;1.132806669920683E-002;-2.451825712341815E-004;-6.989066023379564E-003;
2.411833333333334E+009;1.786549687385559E-001;8.734356611967087E-003;-7.213499047793448E-004;-6.859559100121260E-003;
2.412000000000000E+009;1.785310059785843E-001;6.092725321650505E-003;-1.042190589942038E-003;-6.804629229009152E-003;
2.412166666666667E+009;1.782620996236801E-001;3.601172706112266E-003;-1.264529186300933E-003;-6.848298478871584E-003;
2.412333333333334E+009;1.781741231679916E-001;9.080069139599800E-004;-1.542942714877427E-003;-6.824254989624023E-003;
2.412500000000000E+009;1.783194839954376E-001;-1.689842087216675E-003;-1.867461018264294E-003;-6.788590922951698E-003;
2.412666666666667E+009;1.784348785877228E-001;-4.545063246041536E-003;-2.198831178247929E-003;-6.743515376001597E-003;
2.412833333333334E+009;1.789189577102661E-001;-7.005753461271524E-003;-2.464154269546270E-003;-6.562749389559031E-003;
2.413000000000000E+009;1.793506443500519E-001;-9.642527438700199E-003;-2.913589822128415E-003;-6.430453155189753E-003;
2.413166666666667E+009;1.799766123294830E-001;-1.210253871977329E-002;-3.149645635858178E-003;-6.306528113782406E-003;
2.413333333333334E+009;1.809206604957581E-001;-1.478685531765223E-002;-3.568806918337941E-003;-5.954788066446781E-003;
2.413500000000000E+009;1.816768944263458E-001;-1.727350242435932E-002;-3.795081749558449E-003;-5.668499972671270E-003;
2.413666666666667E+009;1.826961189508438E-001;-1.992856152355671E-002;-3.793907817453146E-003;-5.345352459698916E-003;
2.413833333333334E+009;1.837184578180313E-001;-2.208051830530167E-002;-4.201411269605160E-003;-5.068484228104353E-003;
2.414000000000000E+009;1.848583221435547E-001;-2.443243004381657E-002;-4.403817933052778E-003;-4.814757034182549E-003;
2.414166666666667E+009;1.861844360828400E-001;-2.666303515434265E-002;-4.457541741430759E-003;-4.706337582319975E-003;
2.414333333333334E+009;1.873735934495926E-001;-2.883934788405895E-002;-4.596268758177757E-003;-4.317352548241615E-003;
2.414500000000000E+009;1.886106729507446E-001;-3.065532073378563E-002;-4.691805690526962E-003;-3.993051126599312E-003;
2.414666666666667E+009;1.899616718292236E-001;-3.247243911027908E-002;-4.559483379125595E-003;-3.728166688233614E-003;
2.414833333333334E+009;1.912656426429749E-001;-3.414497151970863E-002;-4.928478039801121E-003;-3.548870328813791E-003;
2.415000000000000E+009;1.925699412822723E-001;-3.578279912471771E-002;-4.731988068670034E-003;-3.358111483976245E-003;
2.415166666666667E+009;1.940663754940033E-001;-3.713050112128258E-002;-4.911988042294979E-003;-3.139746142551303E-003;
2.415333333333334E+009;1.952748149633408E-001;-3.832016885280609E-002;-4.858618136495352E-003;-2.831832040101290E-003;
2.415500000000000E+009;1.967823505401611E-001;-3.923145309090614E-002;-5.048010963946581E-003;-2.643518149852753E-003;
2.415666666666667E+009;1.979121863842011E-001;-4.027695208787918E-002;-4.981788806617260E-003;-2.330823568627238E-003;
2.415833333333334E+009;1.991523057222366E-001;-4.104800522327423E-002;-4.939384292811155E-003;-2.149724401533604E-003;
2.416000000000000E+009;2.001751214265823E-001;-4.183553904294968E-002;-5.030937958508730E-003;-1.853080000728369E-003;
2.416166666666667E+009;2.013820707798004E-001;-4.252325743436813E-002;-4.990768153220415E-003;-1.603484735824168E-003;
2.416333333333334E+009;2.022193670272827E-001;-4.276271909475327E-002;-4.923406988382340E-003;-1.242376980371773E-003;
2.416500000000000E+009;2.031071335077286E-001;-4.322918131947517E-002;-4.829073790460825E-003;-1.103641581721604E-003;
2.416666666666667E+009;2.038605511188507E-001;-4.348656535148621E-002;-4.808767698705196E-003;-9.016685071401298E-004;
2.416833333333334E+009;2.044134885072708E-001;-4.357286915183067E-002;-4.544423427432776E-003;-6.619952619075775E-004;
2.417000000000000E+009;2.048719376325607E-001;-4.366208985447884E-002;-4.522640258073807E-003;-6.459691212512553E-004;
2.417166666666667E+009;2.048829942941666E-001;-4.339537024497986E-002;-4.347459413111210E-003;-5.192586104385555E-004;
2.417333333333334E+009;2.050874680280685E-001;-4.324005171656609E-002;-4.016555845737457E-003;-3.847448388114572E-004;
2.417500000000000E+009;2.051436901092529E-001;-4.317306727170944E-002;-3.796423785388470E-003;-2.960423589684069E-004;
2.417666666666667E+009;2.049200683832169E-001;-4.278835654258728E-002;-3.616089699789882E-003;-4.929891438223422E-004;
2.417833333333334E+009;2.047793567180634E-001;-4.250577837228775E-002;-3.748338203877211E-003;-5.827101413160563E-004;
2.418000000000000E+009;2.045398205518723E-001;-4.197810217738152E-002;-3.658816451206803E-003;-5.873566842637956E-004;
2.418166666666667E+009;2.039837986230850E-001;-4.183275997638702E-002;-3.466274589300156E-003;-5.573688540607691E-004;
2.418333333333334E+009;2.032265216112137E-001;-4.141167551279068E-002;-3.763464279472828E-003;-5.327894468791783E-004;
2.418500000000000E+009;2.023265212774277E-001;-4.106013476848602E-002;-3.740135580301285E-003;-6.411595968529582E-004;
2.418666666666667E+009;2.016515731811523E-001;-4.078315943479538E-002;-3.763819811865687E-003;-6.201128708198667E-004;
2.418833333333334E+009;2.005025148391724E-001;-4.066371545195580E-002;-3.815386211499572E-003;-5.704769864678383E-004;
2.419000000000000E+009;1.992664784193039E-001;-4.047336056828499E-002;-4.004133865237236E-003;-6.419539568014443E-004;
2.419166666666667E+009;1.980736702680588E-001;-4.044293239712715E-002;-4.107358865439892E-003;-3.785748558584601E-004;
2.419333333333334E+009;1.966765075922012E-001;-4.074054583907127E-002;-4.142940044403076E-003;-2.852286561392248E-004;
2.419500000000000E+009;1.952638775110245E-001;-4.086436331272125E-002;-4.355727229267359E-003;-1.442279608454555E-004;
2.419666666666667E+009;1.936125904321671E-001;-4.137993603944778E-002;-4.273517522960901E-003;1.465213426854461E-005;
2.419833333333334E+009;1.918310374021530E-001;-4.181525856256485E-002;-4.400501959025860E-003;1.223751169163734E-004;
2.420000000000000E+009;1.902290582656860E-001;-4.227155074477196E-002;-4.263478331267834E-003;3.701577952597290E-004;
2.420166666666667E+009;1.885430365800858E-001;-4.304100200533867E-002;-4.277622792869806E-003;5.600358708761632E-004;
2.420333333333334E+009;1.866735219955444E-001;-4.386252164840698E-002;-4.192639607936144E-003;6.845298339612782E-004;
2.420500000000000E+009;1.846414506435394E-001;-4.492912441492081E-002;-4.100552294403315E-003;7.931694271974266E-004;
2.420666666666667E+009;1.830493658781052E-001;-4.599492624402046E-002;-4.016839899122715E-003;9.805401787161827E-004;
2.420833333333334E+009;1.811703443527222E-001;-4.728846624493599E-002;-3.993626683950424E-003;1.106483861804009E-003;
2.421000000000000E+009;1.793280243873596E-001;-4.868961870670319E-002;-3.844639984890819E-003;1.241542864590883E-003;
2.421166666666667E+009;1.776807010173798E-001;-5.026757344603539E-002;-3.663279814645648E-003;1.149590127170086E-003;
2.421333333333334E+009;1.754839569330216E-001;-5.172171071171761E-002;-3.586866427212954E-003;1.240142853930593E-003;
2.421500000000000E+009;1.740907877683640E-001;-5.364941060543060E-002;-3.417318221181631E-003;1.231798785738647E-003;
2.421666666666667E+009;1.724716424942017E-001;-5.544262006878853E-002;-3.247408894822002E-003;1.386822201311588E-003;
2.421833333333334E+009;1.709573417901993E-001;-5.732199922204018E-002;-3.241840982809663E-003;1.491612405516207E-003;
2.422000000000000E+009;1.695169508457184E-001;-5.923384055495262E-002;-3.228849265724421E-003;1.363080111332238E-003;
2.422166666666667E+009;1.683549135923386E-001;-6.159638240933418E-002;-3.115232568234205E-003;1.299279159866273E-003;
2.422333333333334E+009;1.670933514833450E-001;-6.364937126636505E-002;-3.150493139401078E-003;1.364329829812050E-003;
2.422500000000000E+009;1.657966971397400E-001;-6.569723784923554E-002;-3.161962144076824E-003;1.403236994519830E-003;
2.422666666666667E+009;1.651626527309418E-001;-6.796921789646149E-002;-3.036930691450834E-003;1.312135951593518E-003;
2.422833333333334E+009;1.642729640007019E-001;-7.033166289329529E-002;-3.197994083166122E-003;1.398080727085471E-003;
2.423000000000000E+009;1.634815931320190E-001;-7.240117341279984E-002;-3.219916252419353E-003;1.503849751316011E-003;
2.423166666666667E+009;1.628144681453705E-001;-7.474151998758316E-002;-3.498938400298357E-003;1.494212541729212E-003;
2.423333333333334E+009;1.624690294265747E-001;-7.679173350334168E-002;-3.402498783543706E-003;1.451526186428964E-003;
2.423500000000000E+009;1.622456163167954E-001;-7.886696606874466E-002;-3.486996749415994E-003;1.588327926583588E-003;
2.423666666666667E+009;1.621308624744415E-001;-8.132705837488174E-002;-3.571804612874985E-003;1.790507812984288E-003;
2.423833333333334E+009;1.617846190929413E-001;-8.318723738193512E-002;-3.490445902571082E-003;2.004612237215042E-003;
2.424000000000000E+009;1.618945002555847E-001;-8.540949225425720E-002;-3.576287534087896E-003;2.063233638182282E-003;
2.424166666666667E+009;1.619180291891098E-001;-8.731771260499954E-002;-3.626999910920858E-003;2.149862004444003E-003;
2.424333333333334E+009;1.621151864528656E-001;-8.913715928792954E-002;-3.444871166720986E-003;2.318522660061717E-003;
2.424500000000000E+009;1.625590175390244E-001;-9.117075055837631E-002;-3.444906789809465E-003;2.523397095501423E-003;
2.424666666666667E+009;1.628952026367188E-001;-9.285581111907959E-002;-3.251043614000082E-003;2.802809467539191E-003;
2.424833333333334E+009;1.635247319936752E-001;-9.443761408329010E-002;-3.390935948118568E-003;2.961448160931468E-003;
2.425000000000000E+009;1.639193594455719E-001;-9.598247706890106E-002;-3.152979305014014E-003;3.028985112905502E-003;
2.425166666666667E+009;1.645528376102448E-001;-9.737765043973923E-002;-3.056410700082779E-003;3.273158334195614E-003;
2.425333333333334E+009;1.648753881454468E-001;-9.858935326337814E-002;-2.775249537080526E-003;3.380345413461328E-003;
2.425500000000000E+009;1.657339930534363E-001;-9.980103373527527E-002;-2.854887396097183E-003;3.456668695434928E-003;
2.425666666666667E+009;1.663208454847336E-001;-1.007221639156342E-001;-2.405636012554169E-003;3.473079297691584E-003;
2.425833333333334E+009;1.667983084917069E-001;-1.018508449196816E-001;-2.322482643648982E-003;3.613427979871631E-003;
2.426000000000000E+009;1.675173640251160E-001;-1.025043353438377E-001;-2.229955978691578E-003;3.553043585270643E-003;
2.426166666666667E+009;1.681821644306183E-001;-1.031784638762474E-001;-1.980773173272610E-003;3.758033039048314E-003;
2.426333333333334E+009;1.686469912528992E-001;-1.038306057453156E-001;-2.005399903282523E-003;3.738119266927242E-003;
2.426500000000000E+009;1.693329811096191E-001;-1.042533218860626E-001;-1.905178884044290E-003;3.740791697055101E-003;
2.426666666666667E+009;1.699627041816711E-001;-1.046893671154976E-001;-1.725274487398565E-003;3.841266501694918E-003;
2.426833333333334E+009;1.705371290445328E-001;-1.049987450242043E-001;-1.482161576859653E-003;3.751435084268451E-003;
2.427000000000000E+009;1.708622872829437E-001;-1.052550897002220E-001;-1.432351884432137E-003;3.735935781151056E-003;
2.427166666666667E+009;1.712698340415955E-001;-1.053853183984757E-001;-1.352014369331300E-003;3.664008574560285E-003;
2.427333333333334E+009;1.714465022087097E-001;-1.055360212922096E-001;-1.236437237821519E-003;3.799189114943147E-003;
2.427500000000000E+009;1.715582460165024E-001;-1.057381331920624E-001;-1.143941888585687E-003;3.688728436827660E-003;
2.427666666666667E+009;1.716486364603043E-001;-1.056953147053719E-001;-1.037237350828946E-003;3.817520570009947E-003;
