# Version 1.00
#
freq[Hz];re:Trc1_S11;im:Trc1_S11;re:Trc2_S21;im:Trc2_S21;
2.400000000000000E+009;1.615387499332428E-001;5.838315561413765E-002;1.730908843455836E-004;1.001744181849062E-003;
2.400166666666667E+009;1.615685373544693E-001;5.691091716289520E-002;2.654426789376885E-004;1.073198975063860E-003;
2.400333333333334E+009;1.615556925535202E-001;5.505794286727905E-002;1.614070060895756E-004;1.053308835253120E-003;
2.400500000000000E+009;1.615026891231537E-001;5.341436713933945E-002;3.437827981542796E-004;9.837242541834712E-004;
2.400666666666667E+009;1.613898277282715E-001;5.146472156047821E-002;4.566608695313335E-004;1.239248784258962E-003;
2.400833333333334E+009;1.615602821111679E-001;4.956420883536339E-002;4.858936590608209E-004;1.276053721085191E-003;
2.401000000000000E+009;1.619031280279160E-001;4.773838073015213E-002;6.320453248918057E-004;1.356469583697617E-003;
2.401166666666667E+009;1.619685739278793E-001;4.576946049928665E-002;7.277466356754303E-004;1.279359916225076E-003;
2.401333333333334E+009;1.620126366615295E-001;4.388558864593506E-002;7.306928746402264E-004;1.382880029268563E-003;
2.401500000000000E+009;1.625367403030396E-001;4.180905595421791E-002;9.543261840008199E-004;1.364241237752140E-003;
2.401666666666667E+009;1.625489443540573E-001;4.015366360545158E-002;9.769254829734564E-004;1.318164751864970E-003;
2.401833333333334E+009;1.629345417022705E-001;3.814681246876717E-002;1.145417452789843E-003;1.290231826715171E-003;
2.402000000000000E+009;1.632198095321655E-001;3.621536120772362E-002;9.065332124009728E-004;1.220324193127453E-003;
2.402166666666667E+009;1.635618358850479E-001;3.434862196445465E-002;1.221933169290423E-003;1.315584871917963E-003;
2.402333333333334E+009;1.640657186508179E-001;3.253308683633804E-002;1.397929387167096E-003;1.292691798880696E-003;
2.402500000000000E+009;1.646798551082611E-001;3.091379255056381E-002;1.411623321473599E-003;1.146391499787569E-003;
2.402666666666667E+009;1.651614606380463E-001;2.917008101940155E-002;1.520692720077932E-003;1.246429863385856E-003;
2.402833333333334E+009;1.657506227493286E-001;2.749091386795044E-002;1.362863578833640E-003;1.070901053026319E-003;
2.403000000000000E+009;1.663365066051483E-001;2.602755464613438E-002;1.478874124586582E-003;1.057026674970985E-003;
2.403166666666667E+009;1.670093983411789E-001;2.443159371614456E-002;1.659153378568590E-003;8.565125172026455E-004;
2.403333333333334E+009;1.676468700170517E-001;2.315885387361050E-002;1.696579274721444E-003;8.797029149718583E-004;
2.403500000000000E+009;1.683569997549057E-001;2.157175354659557E-002;1.804358791559935E-003;8.971663191914558E-004;
2.403666666666667E+009;1.692001670598984E-001;2.023895643651485E-002;1.697062165476382E-003;7.035380112938583E-004;
2.403833333333334E+009;1.699778735637665E-001;1.909863203763962E-002;1.831205096095800E-003;6.904813926666975E-004;
2.404000000000000E+009;1.706308424472809E-001;1.787371374666691E-002;1.724553760141134E-003;6.270268349908292E-004;
2.404166666666667E+009;1.713103801012039E-001;1.665956899523735E-002;1.834436785429716E-003;6.036509876139462E-004;
2.404333333333334E+009;1.720583289861679E-001;1.573861204087734E-002;1.835679868236184E-003;4.368819645605981E-004;
2.404500000000000E+009;1.726889759302139E-001;1.481445785611868E-002;1.812173402868211E-003;4.294737009331584E-004;
2.404666666666667E+009;1.733849495649338E-001;1.385904103517532E-002;1.593032269738615E-003;3.157994069624692E-004;
2.404833333333334E+009;1.740716695785523E-001;1.307701505720615E-002;1.735850120894611E-003;2.541264984756708E-004;
2.405000000000000E+009;1.747482568025589E-001;1.229743938893080E-002;1.641171053051949E-003;1.416545710526407E-004;
2.405166666666667E+009;1.753011941909790E-001;1.159908063709736E-002;1.653347047977150E-003;2.351960865780711E-004;
2.405333333333334E+009;1.760600507259369E-001;1.096119638532400E-002;1.796320779249072E-003;2.148881758330390E-004;
2.405500000000000E+009;1.764754801988602E-001;1.047016214579344E-002;1.555629423819482E-003;1.314102701144293E-004;
2.405666666666667E+009;1.769819110631943E-001;9.910233318805695E-003;1.768920803442597E-003;9.848221088759601E-005;
2.405833333333334E+009;1.772397905588150E-001;9.503893554210663E-003;1.513061928562820E-003;2.063967986032367E-004;
2.406000000000000E+009;1.777491271495819E-001;9.020215831696987E-003;1.567629980854690E-003;1.220395060954616E-004;
2.406166666666667E+009;1.780607551336289E-001;8.642067201435566E-003;1.454147510230541E-003;1.284852041862905E-004;
2.406333333333334E+009;1.783575713634491E-001;8.312203921377659E-003;1.601730240508914E-003;1.130860182456672E-004;
2.406500000000000E+009;1.785215884447098E-001;7.892764173448086E-003;1.588067039847374E-003;2.111498761223629E-004;
2.406666666666667E+009;1.786510199308395E-001;7.637248374521732E-003;1.386340707540512E-003;1.981096575036645E-004;
2.406833333333334E+009;1.788375675678253E-001;7.155824918299913E-003;1.693844445981085E-003;1.277976698474959E-004;
2.407000000000000E+009;1.788861751556397E-001;6.793935317546129E-003;1.685631461441517E-003;-2.062109342659824E-005;
2.407166666666667E+009;1.789991855621338E-001;6.426706444472075E-003;1.758074038662016E-003;2.103551378240809E-004;
2.407333333333334E+009;1.787327080965042E-001;5.866876337677240E-003;1.651435391977429E-003;2.776555193122476E-004;
2.407500000000000E+009;1.785674244165421E-001;5.472392309457064E-003;1.710560522042215E-003;1.908870908664540E-004;
2.407666666666667E+009;1.783658266067505E-001;5.050878506153822E-003;1.845844439230859E-003;4.761230593430810E-005;
2.407833333333334E+009;1.780447214841843E-001;4.310782998800278E-003;1.946554169990122E-003;9.890340879792348E-005;
2.408000000000000E+009;1.776052713394165E-001;3.505476284772158E-003;1.821710029616952E-003;1.062402880052105E-004;
2.408166666666667E+009;1.773048639297485E-001;3.035288769751787E-003;1.950819278135896E-003;-1.720166619634256E-004;
2.408333333333334E+009;1.770202964544296E-001;2.312293043360114E-003;2.047256566584110E-003;-1.166899455711246E-004;
2.408500000000000E+009;1.763757169246674E-001;1.386660267598927E-003;1.963627524673939E-003;-1.052808802342042E-004;
2.408666666666667E+009;1.759760826826096E-001;5.157294799573720E-004;2.146687358617783E-003;-1.347229117527604E-004;
2.408833333333334E+009;1.753288358449936E-001;-5.130696808919311E-004;2.049369271844626E-003;-2.408795262454078E-004;
2.409000000000000E+009;1.746068447828293E-001;-1.463076565414667E-003;2.080496866255999E-003;-1.362540642730892E-004;
2.409166666666667E+009;1.741495728492737E-001;-2.648032270371914E-003;2.149572130292654E-003;-3.014581743627787E-004;
2.409333333333334E+009;1.735291779041290E-001;-3.816437674686313E-003;2.190402243286371E-003;-4.248049517627806E-004;
2.409500000000000E+009;1.729537844657898E-001;-5.273612681776285E-003;2.226891927421093E-003;-4.943679086863995E-004;
2.409666666666667E+009;1.723678261041641E-001;-6.488862447440624E-003;2.105209976434708E-003;-4.836401494685561E-004;
2.409833333333334E+009;1.717081069946289E-001;-7.812057621777058E-003;2.252826467156410E-003;-4.631622286979109E-004;
2.410000000000000E+009;1.712011694908142E-001;-9.300250560045242E-003;2.180492738261819E-003;-4.739385913126171E-004;
2.410166666666667E+009;1.706122457981110E-001;-1.093846745789051E-002;2.076848642900586E-003;-6.183666409924626E-004;
2.410333333333334E+009;1.701976507902145E-001;-1.233214605599642E-002;2.416896866634488E-003;-7.503074011765420E-004;
2.410500000000000E+009;1.696822345256805E-001;-1.400506682693958E-002;2.367506967857480E-003;-6.447475752793253E-004;
2.410666666666667E+009;1.691854298114777E-001;-1.591897383332253E-002;2.333110198378563E-003;-7.981135859154165E-004;
2.410833333333334E+009;1.688105911016464E-001;-1.733992993831635E-002;2.440307522192597E-003;-7.690546917729080E-004;
2.411000000000000E+009;1.685550063848496E-001;-1.931471191346645E-002;2.438385272398591E-003;-1.011256827041507E-003;
2.411166666666667E+009;1.682894378900528E-001;-2.126490883529186E-002;2.470186911523342E-003;-9.481110610067844E-004;
2.411333333333334E+009;1.679983586072922E-001;-2.295771986246109E-002;2.381418365985155E-003;-1.054288353770971E-003;
2.411500000000000E+009;1.678036302328110E-001;-2.505225129425526E-002;2.545519964769483E-003;-1.185455825179815E-003;
2.411666666666667E+009;1.676897108554840E-001;-2.676697075366974E-002;2.404247643426061E-003;-1.383910886943340E-003;
2.411833333333334E+009;1.676596999168396E-001;-2.861620113253593E-002;2.504119416698813E-003;-1.580186537466943E-003;
2.412000000000000E+009;1.679219603538513E-001;-3.073936328291893E-002;2.575513673946261E-003;-1.634337706491351E-003;
2.412166666666667E+009;1.677234321832657E-001;-3.247174620628357E-002;2.409708919003606E-003;-1.750522176735103E-003;
2.412333333333334E+009;1.681639105081558E-001;-3.432101011276245E-002;2.328448463231325E-003;-1.985131530091167E-003;
2.412500000000000E+009;1.681972146034241E-001;-3.611639514565468E-002;2.382188569754362E-003;-2.036163583397865E-003;
2.412666666666667E+009;1.686069518327713E-001;-3.810225799679756E-002;2.151631517335773E-003;-2.080611884593964E-003;
2.412833333333334E+009;1.687033027410507E-001;-4.008240625262260E-002;2.123540267348290E-003;-2.317715669050813E-003;
2.413000000000000E+009;1.690967082977295E-001;-4.162272810935974E-002;1.994575140997767E-003;-2.563959453254938E-003;
2.413166666666667E+009;1.694794595241547E-001;-4.336925595998764E-002;1.908453647047281E-003;-2.605121815577149E-003;
2.413333333333334E+009;1.698920726776123E-001;-4.492410644888878E-002;1.791398855857551E-003;-2.761671552434564E-003;
2.413500000000000E+009;1.704814583063126E-001;-4.655596986413002E-002;1.665235031396151E-003;-2.757495269179344E-003;
2.413666666666667E+009;1.709563732147217E-001;-4.822614416480064E-002;1.420711399987340E-003;-2.999354619532824E-003;
2.413833333333334E+009;1.714950501918793E-001;-4.970937222242355E-002;1.319254399277270E-003;-2.977485768496990E-003;
2.414000000000000E+009;1.719248890876770E-001;-5.105493590235710E-002;1.250391243956983E-003;-3.043479053303599E-003;
2.414166666666667E+009;1.726065725088120E-001;-5.230247601866722E-002;1.117522828280926E-003;-3.059095935896039E-003;
2.414333333333334E+009;1.728922575712204E-001;-5.348432809114456E-002;8.030058233998716E-004;-3.067948855459690E-003;
2.414500000000000E+009;1.736901551485062E-001;-5.453075468540192E-002;6.648125126957893E-004;-3.127684351056814E-003;
2.414666666666667E+009;1.739486008882523E-001;-5.556832253932953E-002;5.868737935088575E-004;-3.021561075001955E-003;
2.414833333333334E+009;1.744863390922546E-001;-5.657436698675156E-002;4.638920363504440E-004;-3.009037114679813E-003;
2.415000000000000E+009;1.748726367950440E-001;-5.739821121096611E-002;3.061266615986824E-004;-2.923121908679605E-003;
2.415166666666667E+009;1.752717792987824E-001;-5.829096585512161E-002;8.920507389120758E-005;-2.948517678305507E-003;
2.415333333333334E+009;1.757529824972153E-001;-5.897248536348343E-002;5.961577699054033E-006;-2.983836224302650E-003;
2.415500000000000E+009;1.760147809982300E-001;-5.953158065676689E-002;-9.946627687895671E-005;-2.852990757673979E-003;
2.415666666666667E+009;1.762567758560181E-001;-6.009001284837723E-002;-1.371218822896481E-004;-2.957730786874890E-003;
2.415833333333334E+009;1.765232980251312E-001;-6.053920090198517E-002;-4.699489800259471E-004;-2.881168154999614E-003;
2.416000000000000E+009;1.764031350612640E-001;-6.098071858286858E-002;-3.925593919120729E-004;-2.698594005778432E-003;
2.416166666666667E+009;1.767379343509674E-001;-6.138645485043526E-002;-5.294887232594192E-004;-2.684681210666895E-003;
2.416333333333334E+009;1.766474992036820E-001;-6.164106354117394E-002;-6.153945578262210E-004;-2.709854394197464E-003;
2.416500000000000E+009;1.766136437654495E-001;-6.198798492550850E-002;-6.765151629224420E-004;-2.682518679648638E-003;
2.416666666666667E+009;1.763996332883835E-001;-6.226127967238426E-002;-6.175583694130182E-004;-2.366644795984030E-003;
2.416833333333334E+009;1.761711835861206E-001;-6.262604892253876E-002;-9.828344918787479E-004;-2.332858275622129E-003;
2.417000000000000E+009;1.756973564624786E-001;-6.274377554655075E-002;-9.156645392067730E-004;-2.427131403237581E-003;
2.417166666666667E+009;1.752822846174240E-001;-6.287967413663864E-002;-9.239977807737887E-004;-2.324659377336502E-003;
2.417333333333334E+009;1.748531460762024E-001;-6.295183300971985E-002;-1.088515156880021E-003;-2.179760253056884E-003;
2.417500000000000E+009;1.741768717765808E-001;-6.343216449022293E-002;-9.181817877106369E-004;-2.079253550618887E-003;
2.417666666666667E+009;1.735397577285767E-001;-6.345728784799576E-002;-1.020940719172359E-003;-1.979890977963805E-003;
2.417833333333334E+009;1.727371215820313E-001;-6.372401863336563E-002;-9.544197819195688E-004;-2.021622844040394E-003;
2.418000000000000E+009;1.718688905239105E-001;-6.408695876598358E-002;-9.011485381051898E-004;-1.859873882494867E-003;
2.418166666666667E+009;1.709770709276199E-001;-6.404545903205872E-002;-9.823489235714078E-004;-1.875704154372215E-003;
2.418333333333334E+009;1.701877266168594E-001;-6.464001536369324E-002;-1.125423237681389E-003;-1.889909850433469E-003;
2.418500000000000E+009;1.691169589757919E-001;-6.501409411430359E-002;-9.539669845253229E-004;-1.805431325919926E-003;
2.418666666666667E+009;1.680797338485718E-001;-6.531598418951035E-002;-1.003596000373364E-003;-1.887795282527804E-003;
2.418833333333334E+009;1.667951643466950E-001;-6.585013866424561E-002;-9.432239457964897E-004;-1.777435187250376E-003;
2.419000000000000E+009;1.655072718858719E-001;-6.634311378002167E-002;-9.661673684604466E-004;-1.526677282527089E-003;
2.419166666666667E+009;1.645179390907288E-001;-6.708226352930069E-002;-1.051944564096630E-003;-1.620579743757844E-003;
2.419333333333334E+009;1.631898432970047E-001;-6.750366091728210E-002;-1.092403894290328E-003;-1.708859810605645E-003;
2.419500000000000E+009;1.620065122842789E-001;-6.842135637998581E-002;-9.351978078484535E-004;-1.625991426408291E-003;
2.419666666666667E+009;1.608063876628876E-001;-6.928139925003052E-002;-1.059291884303093E-003;-1.402980065904558E-003;
2.419833333333334E+009;1.596290916204453E-001;-7.009606063365936E-002;-1.139613916166127E-003;-1.455410849303007E-003;
2.420000000000000E+009;1.584780067205429E-001;-7.097879052162170E-002;-1.052051433362067E-003;-1.546748564578593E-003;
2.420166666666667E+009;1.573114544153214E-001;-7.201813161373138E-002;-1.115422579459846E-003;-1.466414891183376E-003;
2.420333333333334E+009;1.560332477092743E-001;-7.332513481378555E-002;-1.042299903929234E-003;-1.494074938818812E-003;
2.420500000000000E+009;1.550058424472809E-001;-7.426384091377258E-002;-1.059997477568686E-003;-1.566934515722096E-003;
2.420666666666667E+009;1.540224105119705E-001;-7.557918876409531E-002;-1.100850058719516E-003;-1.282818731851876E-003;
2.420833333333334E+009;1.530692875385284E-001;-7.709518074989319E-002;-1.119282213039696E-003;-1.227186410687864E-003;
2.421000000000000E+009;1.519404202699661E-001;-7.833045721054077E-002;-1.123006455600262E-003;-1.242214464582503E-003;
2.421166666666667E+009;1.512170881032944E-001;-7.990995794534683E-002;-1.151059637777507E-003;-1.309481682255864E-003;
2.421333333333334E+009;1.504189521074295E-001;-8.130365610122681E-002;-1.221211510710418E-003;-1.316433539614081E-003;
2.421500000000000E+009;1.496121585369110E-001;-8.294681459665299E-002;-1.009644824080169E-003;-1.328624319285154E-003;
2.421666666666667E+009;1.488194614648819E-001;-8.461739867925644E-002;-9.261996601708233E-004;-1.279309508390725E-003;
2.421833333333334E+009;1.483083963394165E-001;-8.617883175611496E-002;-9.394800290465355E-004;-1.304416684433818E-003;
2.422000000000000E+009;1.478535085916519E-001;-8.793293684720993E-002;-1.020772266201675E-003;-1.150950905866921E-003;
2.422166666666667E+009;1.474163383245468E-001;-8.992461115121841E-002;-1.087714917957783E-003;-1.228438923135400E-003;
2.422333333333334E+009;1.470223814249039E-001;-9.137000888586044E-002;-8.693186100572348E-004;-1.364175928756595E-003;
2.422500000000000E+009;1.467887759208679E-001;-9.293955564498901E-002;-1.052670297212899E-003;-1.362196053378284E-003;
2.422666666666667E+009;1.465687453746796E-001;-9.487032890319824E-002;-1.083860988728702E-003;-1.289318199269474E-003;
2.422833333333334E+009;1.465271711349487E-001;-9.668812900781632E-002;-1.105985138565302E-003;-1.348288729786873E-003;
2.423000000000000E+009;1.463704705238342E-001;-9.828461706638336E-002;-1.145604066550732E-003;-1.397939864546061E-003;
2.423166666666667E+009;1.465363949537277E-001;-9.995722770690918E-002;-1.048443606123328E-003;-1.518088160082698E-003;
2.423333333333334E+009;1.467048525810242E-001;-1.015201583504677E-001;-1.255367533303797E-003;-1.359098241664469E-003;
2.423500000000000E+009;1.467960625886917E-001;-1.032169386744499E-001;-1.290752319619060E-003;-1.449003815650940E-003;
2.423666666666667E+009;1.469410359859467E-001;-1.048586741089821E-001;-1.160189043730497E-003;-1.418099156580865E-003;
2.423833333333334E+009;1.474060714244843E-001;-1.065262407064438E-001;-1.284908736124635E-003;-1.414020778611302E-003;
2.424000000000000E+009;1.475307941436768E-001;-1.078068390488625E-001;-1.375866937451065E-003;-1.511591835878789E-003;
2.424166666666667E+009;1.478221416473389E-001;-1.092132553458214E-001;-1.625041943043470E-003;-1.401938847266138E-003;
2.424333333333334E+009;1.482769995927811E-001;-1.104870066046715E-001;-1.658891676925123E-003;-1.414076774381101E-003;
2.424500000000000E+009;1.487486362457275E-001;-1.118003651499748E-001;-1.630664803087711E-003;-1.330762403085828E-003;
2.424666666666667E+009;1.491924971342087E-001;-1.129594519734383E-001;-1.756011391989887E-003;-1.307981205172837E-003;
2.424833333333334E+009;1.495133340358734E-001;-1.140780374407768E-001;-1.659308909438551E-003;-1.210557413287461E-003;
2.425000000000000E+009;1.499453485012054E-001;-1.151852458715439E-001;-1.970569603145123E-003;-1.153890043497086E-003;
2.425166666666667E+009;1.501553803682327E-001;-1.159728243947029E-001;-1.876528142020106E-003;-1.136261736974120E-003;
2.425333333333334E+009;1.506095528602600E-001;-1.168602034449577E-001;-1.891652820631862E-003;-9.992356644943357E-004;
2.425500000000000E+009;1.508996188640595E-001;-1.176795437932015E-001;-2.036041347309947E-003;-8.451572502963245E-004;
2.425666666666667E+009;1.510247439146042E-001;-1.184948831796646E-001;-2.126086270436645E-003;-9.311234462074935E-004;
2.425833333333334E+009;1.513644307851791E-001;-1.190198510885239E-001;-2.000402659177780E-003;-7.977206842042506E-004;
2.426000000000000E+009;1.514918804168701E-001;-1.196823269128799E-001;-2.128948457539082E-003;-8.259246824309230E-004;
2.426166666666667E+009;1.520331352949143E-001;-1.201429814100266E-001;-2.002011984586716E-003;-7.046597893349826E-004;
2.426333333333334E+009;1.518061757087708E-001;-1.206097081303597E-001;-1.929649268276990E-003;-5.042288685217500E-004;
2.426500000000000E+009;1.519458442926407E-001;-1.208696290850639E-001;-1.979288877919316E-003;-5.776083562523127E-004;
2.426666666666667E+009;1.520491540431976E-001;-1.210348531603813E-001;-1.917244866490364E-003;-3.773757198359817E-004;
2.426833333333334E+009;1.518354862928391E-001;-1.213626340031624E-001;-1.999455504119396E-003;-4.835363943129778E-004;
2.427000000000000E+009;1.516223251819611E-001;-1.216261759400368E-001;-1.834327122196555E-003;-3.479179285932332E-004;
2.427166666666667E+009;1.511992812156677E-001;-1.216683238744736E-001;-1.776660094037652E-003;-3.736834332812578E-004;
2.427333333333334E+009;1.507916003465653E-001;-1.218977943062782E-001;-1.863013021647930E-003;-3.845707979053259E-004;
2.427500000000000E+009;1.504549831151962E-001;-1.220292523503304E-001;-1.702186069451273E-003;-3.577382012736052E-004;
2.427666666666667E+009;1.498558819293976E-001;-1.222179830074310E-001;-1.814335701055825E-003;-3.967639349866658E-004;
