# Hz S RI R 50
2400000000.0000000000 0.173151925206184387207031250000 0.049354560673236846923828125000 0.007015700452029705047607421875 0.002291948767378925843479775537 0 0 0 0 
2400166666.6666665077 0.173776760697364807128906250000 0.048814311623573303222656250000 0.006977194454520940780639648438 0.002050022594630717797520302881 0 0 0 0 
2400333333.3333334923 0.174210339784622192382812500000 0.047958690673112869262695312500 0.006901685148477554321289062500 0.001758248079568148092982626807 0 0 0 0 
2400500000.0000000000 0.174448117613792391678018134371 0.047311268746852881694753278907 0.006986228749155998229980468750 0.001611941377632319927215576172 0 0 0 0 
2400666666.6666665077 0.174700766801834106445312500000 0.046535711735486977314035783593 0.006902586203068494796752929688 0.001244968269020318984985351562 0 0 0 0 
2400833333.3333334923 0.175033345818519592285156250000 0.046181008219718933105468750000 0.006891672499477863311767578125 0.001083989161998033957240439307 0 0 0 0 
2401000000.0000000000 0.175270035862922696212606865629 0.045443769544363021850585937500 0.007111042272299528121948242188 0.000988530111499130725860595703 0 0 0 0 
2401166666.6666665077 0.175395950675010708907919365629 0.044796414673328399658203125000 0.006944890134036540985107421875 0.000615865399595350027084350586 0 0 0 0 
2401333333.3333334923 0.175311923027038601974325615629 0.043923810124397277832031250000 0.006958837620913982391357421875 0.000534295220859348773956298828 0 0 0 0 
2401500000.0000000000 0.175562918186187688629473768742 0.043296955525875091552734375000 0.006950160488486289978027343750 0.000408396590501070022583007812 0 0 0 0 
2401666666.6666665077 0.175276115536689813811932481258 0.042945567518472671508789062500 0.006975443568080663681030273438 0.000045439424866344779729843140 0 0 0 0 
2401833333.3333334923 0.175472468137741088867187500000 0.041884414851665496826171875000 0.006953625939786434173583984375 0.000023011218218016441574300460 0 0 0 0 
2402000000.0000000000 0.175287559628486605545205634371 0.040936335921287536621093750000 0.007249748799949884414672851562 -0.000285531044937670176655369891 0 0 0 0 
2402166666.6666665077 0.174977242946624811370526231258 0.040113423019647598266601562500 0.007279426325112581253051757812 -0.000286986905848607420921325684 0 0 0 0 
2402333333.3333334923 0.174779459834098788162393134371 0.039304569363594062114675153907 0.007058086339384317398071289062 -0.000595117744524031877517700195 0 0 0 0 
2402500000.0000000000 0.174828737974166897872763115629 0.038207549601793289184570312500 0.006964577361941337585449218750 -0.000960554229095578193664550781 0 0 0 0 
2402666666.6666665077 0.174454361200332613845986884371 0.037084363400936126708984375000 0.007155257742851972579956054688 -0.001187963294796646075007773291 0 0 0 0 
2402833333.3333334923 0.174280643463134793380575615629 0.035841617733240127563476562500 0.007178763393312692642211914062 -0.001462401705794035954716347803 0 0 0 0 
2403000000.0000000000 0.174001798033714294433593750000 0.034736316651105880737304687500 0.007051140535622835159301757812 -0.001766181900165975093841552734 0 0 0 0 
2403166666.6666665077 0.173721730709075899978799384371 0.033173602074384689331054687500 0.006862686481326819333548261426 -0.001994937891140580177307128906 0 0 0 0 
2403333333.3333334923 0.173399195075035095214843750000 0.031756583601236343383789062500 0.006941022817045450210571289062 -0.002220398746430873870849609375 0 0 0 0 
2403500000.0000000000 0.172750309109687805175781250000 0.030190166085958480834960937500 0.006846018601208925247192382812 -0.002503090770915151076075888525 0 0 0 0 
2403666666.6666665077 0.172482386231422396560830634371 0.028590509667992588388463204296 0.006770136300474405288696289062 -0.002902580192312597794773720850 0 0 0 0 
2403833333.3333334923 0.172431483864784212967080634371 0.026921136304736140859583670704 0.006658466067165136337280273438 -0.003124608192592858834507607568 0 0 0 0 
2404000000.0000000000 0.171971604228019686599893134371 0.025124639272689819335937500000 0.006290696561336517333984375000 -0.003350090002641081809997558594 0 0 0 0 
2404166666.6666665077 0.171516671776771600921307481258 0.023168008774518970144251639454 0.006125998683273792266845703125 -0.003481201129034162001368857275 0 0 0 0 
2404333333.3333334923 0.171255826950073186676348768742 0.021514721214771270751953125000 0.005952310748398303985595703125 -0.003750644624233245849609375000 0 0 0 0 
2404500000.0000000000 0.170953646302223205566406250000 0.019187742844223979604700858204 0.005993278231471776962280273438 -0.004020009655505418777465820312 0 0 0 0 
2404666666.6666665077 0.170705303549766512771768134371 0.017415767535567280160924141796 0.005786468274891377362723066113 -0.004220288712531328201293945312 0 0 0 0 
2404833333.3333334923 0.170569926500320406814736884371 0.015532854013144969940185546875 0.005605038255453109741210937500 -0.004282404668629170331473066113 0 0 0 0 
2405000000.0000000000 0.170420065522193908691406250000 0.013499732129275800532330897852 0.005312176421284675598144531250 -0.004549830220639705657958984375 0 0 0 0 
2405166666.6666665077 0.170378327369689913650674384371 0.011447300203144550323486328125 0.005163027904927731427664472363 -0.004671576898545026779174804688 0 0 0 0 
2405333333.3333334923 0.170305982232093811035156250000 0.009323171339929103851318359375 0.004985900595784187316894531250 -0.004766794387251138687133789062 0 0 0 0 
2405500000.0000000000 0.170325115323066711425781250000 0.007307922001928091049194335938 0.004739057738333941373343183301 -0.004846042022109031677246093750 0 0 0 0 
2405666666.6666665077 0.170513540506362887283486884371 0.005311910063028335571289062500 0.004414507653564214706420898438 -0.004996658302843570709228515625 0 0 0 0 
2405833333.3333334923 0.170524194836616488357705634371 0.003429443109780550003051757812 0.004362074658274650573730468750 -0.004960254766047000885009765625 0 0 0 0 
2406000000.0000000000 0.170975223183631896972656250000 0.001223361003212630965589213794 0.004213593900203704833984375000 -0.005065106321126222610473632812 0 0 0 0 
2406166666.6666665077 0.171095043420791598220986884371 -0.000726489059161394834518432617 0.003732151119038463072535849463 -0.005129806231707335385794355176 0 0 0 0 
2406333333.3333334923 0.171754360198974609375000000000 -0.002688921755179762840270996094 0.003598398994654417037963867188 -0.005257068201899529370779706738 0 0 0 0 
2406500000.0000000000 0.172052904963493402679119981258 -0.004750518128275871276855468750 0.003524088999256492094752646338 -0.005248423200100660324096679688 0 0 0 0 
2406666666.6666665077 0.172276630997657803634481865629 -0.006708757951855660352225019238 0.003567658131942152976989746094 -0.005251685623079538345336914062 0 0 0 0 
2406833333.3333334923 0.172967419028282193282919365629 -0.008657748810946941375732421875 0.003338248701766132874729775537 -0.005487634334713220596313476562 0 0 0 0 
2407000000.0000000000 0.173577189445495605468750000000 -0.010534908622503280639648437500 0.003006359562277793884277343750 -0.005453960970044136047363281250 0 0 0 0 
2407166666.6666665077 0.174351140856742886642294365629 -0.012244545854628089559534842579 0.002878462895750999884364462744 -0.005492980126291512575631426074 0 0 0 0 
2407333333.3333334923 0.174940109252929687500000000000 -0.014087826013565060007115548046 0.002802588744089006943943642725 -0.005548512563109397888183593750 0 0 0 0 
2407500000.0000000000 0.175634086132049588302450615629 -0.015823123976588249206542968750 0.002582815010100603103637695312 -0.005771202035248279571533203125 0 0 0 0 
2407666666.6666665077 0.176439538598060607910156250000 -0.017372293397784229623814766796 0.002556554973125458197352743994 -0.005728368181735277175903320312 0 0 0 0 
2407833333.3333334923 0.177166581153869601150674384371 -0.019117748364806178701380545704 0.002348504494875669913050986182 -0.005807913839817047119140625000 0 0 0 0 
2408000000.0000000000 0.177776888012886102874432481258 -0.020793225616216659545898437500 0.002221115399152040915248251807 -0.005902042612433434400076581738 0 0 0 0 
2408166666.6666665077 0.178713575005531311035156250000 -0.022023199126124378549596016796 0.002021020511165260834934853662 -0.006140006240457296371459960938 0 0 0 0 
2408333333.3333334923 0.179532051086425809005575615629 -0.023531924933195110666295235546 0.001837364514358341910718608325 -0.006263440474867820739746093750 0 0 0 0 
2408500000.0000000000 0.180023416876792907714843750000 -0.024936484172940250741978829296 0.001464260043576359965680766528 -0.006288133561611176404471112988 0 0 0 0 
2408666666.6666665077 0.180686384439468411544638115629 -0.026359410956501960754394531250 0.001345591736026108048082661206 -0.006427809130400419235229492188 0 0 0 0 
2408833333.3333334923 0.181186869740486200530682481258 -0.027584802359342578542689139454 0.001045089797116816043853759766 -0.006425273139029741287231445312 0 0 0 0 
2409000000.0000000000 0.181564882397651700118856865629 -0.028386266902089118957519531250 0.000686864659655839204788208008 -0.006484924349933862686157226562 0 0 0 0 
2409166666.6666665077 0.182271718978881808181924384371 -0.029425511136651039123535156250 0.000490557693410664796829223633 -0.006506777368485927581787109375 0 0 0 0 
2409333333.3333334923 0.182617872953414889236611884371 -0.030338453128933910024622733204 0.000122930345241911709308624268 -0.006681370083242654800415039062 0 0 0 0 
2409500000.0000000000 0.182876944541931207854901231258 -0.031206382438540458679199218750 -0.000203942021471448188454228534 -0.006758723407983779907226562500 0 0 0 0 
2409666666.6666665077 0.183083504438400296310263115629 -0.031715642660856246948242187500 -0.000634851749055087566375732422 -0.006608957424759864807128906250 0 0 0 0 
2409833333.3333334923 0.183269962668418912032919365629 -0.032166544348001480102539062500 -0.000895590696018189191818237305 -0.006490163970738649368286132812 0 0 0 0 
2410000000.0000000000 0.183657020330429104904013115629 -0.032665263861417770385742187500 -0.001099586253985763029811240088 -0.006542525719851255416870117188 0 0 0 0 
2410166666.6666665077 0.183694660663604708572549384371 -0.033058393746614463115651716407 -0.001484491396695375008824013818 -0.006121247075498104095458984375 0 0 0 0 
2410333333.3333334923 0.183629617094993591308593750000 -0.033479228615760803222656250000 -0.001762145198881625912309956128 -0.006083597894757986068725585938 0 0 0 0 
2410500000.0000000000 0.183703809976577786544638115629 -0.033889774233102798461914062500 -0.001946009462699294090270996094 -0.005871406290680170059204101562 0 0 0 0 
2410666666.6666665077 0.183489114046096801757812500000 -0.034382816404104232788085937500 -0.002292932476848363876342773438 -0.005608824081718921661376953125 0 0 0 0 
2410833333.3333334923 0.183575585484504699707031250000 -0.034495163708925247192382812500 -0.002422520658001304106471396338 -0.005540531128644943237304687500 0 0 0 0 
2411000000.0000000000 0.183198705315589904785156250000 -0.034852467477321631694753278907 -0.002718137577176094055175781250 -0.005340284202247858047485351562 0 0 0 0 
2411166666.6666665077 0.182793170213699313064736884371 -0.035235214978456497192382812500 -0.002854390768334269957301474463 -0.005115659907460212707519531250 0 0 0 0 
2411333333.3333334923 0.182407051324844388107138115629 -0.035402797162532813335378278907 -0.002969267312437295913696289062 -0.004908592440187931060791015625 0 0 0 0 
2411500000.0000000000 0.181896582245826693435830634371 -0.035770248621702187274973283593 -0.003118020249530673027038574219 -0.004727850668132305145263671875 0 0 0 0 
2411666666.6666665077 0.181427970528602600097656250000 -0.036305733025074012065847028907 -0.003263311227783561186549521338 -0.004534448496997356414794921875 0 0 0 0 
2411833333.3333334923 0.180732697248458890060263115629 -0.036599729210138320922851562500 -0.003528165863826870918273925781 -0.004026811569929122924804687500 0 0 0 0 
2412000000.0000000000 0.179936364293098505218182481258 -0.037167109549045562744140625000 -0.003481532679870725111720419775 -0.003931807354092597961425781250 0 0 0 0 
2412166666.6666665077 0.178929492831230191329794365629 -0.037578362971544272685964216407 -0.003651444800198078155517578125 -0.003678326029330492019653320312 0 0 0 0 
2412333333.3333334923 0.178263708949089105804119981258 -0.038089931011199951171875000000 -0.003659963374957441849949502100 -0.003180272178724408149719238281 0 0 0 0 
2412500000.0000000000 0.177034214138984707931356865629 -0.038599085062742233276367187500 -0.003581766039133071899414062500 -0.003051516367122530937194824219 0 0 0 0 
2412666666.6666665077 0.175935149192810086349325615629 -0.039354342967271811748464216407 -0.003669569734483956856968545068 -0.002704886021092534065246582031 0 0 0 0 
2412833333.3333334923 0.174800291657447787185830634371 -0.039975207298994057392160783593 -0.003588588908314704895019531250 -0.002515033120289444923400878906 0 0 0 0 
2413000000.0000000000 0.173636823892593411544638115629 -0.040776252746582031250000000000 -0.003347541904076933860778808594 -0.002224643016234039826634072412 0 0 0 0 
2413166666.6666665077 0.172295466065406799316406250000 -0.041592910885810852050781250000 -0.003283626632764935927150107275 -0.002098591532558203177211142432 0 0 0 0 
2413333333.3333334923 0.170987665653228787521200615629 -0.042421873658895492553710937500 -0.003266741987317800955531454932 -0.001895398134365678050397563403 0 0 0 0 
2413500000.0000000000 0.169799804687500000000000000000 -0.043618075549602508544921875000 -0.003067688783630729155299521338 -0.001568556763231754086138081128 0 0 0 0 
2413666666.6666665077 0.168524235486984308440838731258 -0.044718217104673392559011091407 -0.002996019087731837792637490381 -0.001516451244242488904240273584 0 0 0 0 
2413833333.3333334923 0.167189821600914001464843750000 -0.045738857239484786987304687500 -0.002792630810290575027465820312 -0.001374354935251175923588418115 0 0 0 0 
2414000000.0000000000 0.165714651346206692794638115629 -0.047057647258043289184570312500 -0.002650196664035319848301552881 -0.001321036019362509033800434644 0 0 0 0 
2414166666.6666665077 0.164534509181976290603799384371 -0.048231780529022216796875000000 -0.002489708829671144919154501807 -0.001322435797192156098009419019 0 0 0 0 
2414333333.3333334923 0.163313522934913607498330634371 -0.049668777734041207050363908593 -0.002258884254842997030970908057 -0.001319903065450489954707480322 0 0 0 0 
2414500000.0000000000 0.162511318922042902190838731258 -0.051060885190963752056081403907 -0.002133235102519392967224121094 -0.001272592111490667083142924731 0 0 0 0 
2414666666.6666665077 0.161319673061370905120526231258 -0.052581101655960083007812500000 -0.001970838988199830055236816406 -0.001271239947527647018432617188 0 0 0 0 
2414833333.3333334923 0.160014972090721102615518134371 -0.054205428808927542949636091407 -0.002077739918604493141174316406 -0.001205189153552054925205849756 0 0 0 0 
2415000000.0000000000 0.159016251564025906661825615629 -0.055805195122957229614257812500 -0.001783057465218007998225546729 -0.001265886472538114027736044775 0 0 0 0 
2415166666.6666665077 0.158028602600097711761151231258 -0.057551268488168723369557966407 -0.001783394720405339977861713940 -0.001220975769683718898175883716 0 0 0 0 
2415333333.3333334923 0.157270193099975613693075615629 -0.059319611638784408569335937500 -0.001769480062648653984069824219 -0.001323707285337150096893310547 0 0 0 0 
2415500000.0000000000 0.156478941440582303146200615629 -0.061111871153116233135182966407 -0.001529946574009954929351806641 -0.001344265067018568949458456885 0 0 0 0 
2415666666.6666665077 0.155692398548126192947549384371 -0.063021913170814514160156250000 -0.001608578255400062041041708838 -0.001372397411614656014683388818 0 0 0 0 
2415833333.3333334923 0.155212536454200689117755018742 -0.064889900386333465576171875000 -0.001520800753496587059618305737 -0.001350772567093371911289834131 0 0 0 0 
2416000000.0000000000 0.154410153627395602127236884371 -0.066817097365856170654296875000 -0.001471087103709578947779990088 -0.001456015976145863966700888525 0 0 0 0 
2416166666.6666665077 0.154068812727928189376669365629 -0.068852819502353668212890625000 -0.001381064066663384003880166162 -0.001442705863155425028560019385 0 0 0 0 
2416333333.3333334923 0.153622418642044095138388115629 -0.070721298456192016601562500000 -0.001240998506546020941493368994 -0.001569127780385314984562539209 0 0 0 0 
2416500000.0000000000 0.153225362300872802734375000000 -0.072786502540111541748046875000 -0.001439237967133522033691406250 -0.001628512167371809916255331885 0 0 0 0 
2416666666.6666665077 0.152811676263809204101562500000 -0.074515439569950103759765625000 -0.001384958974085747978807758862 -0.001643093070015311024309467847 0 0 0 0 
2416833333.3333334923 0.152523219585418701171875000000 -0.076596610248088836669921875000 -0.001221970887854695103288960034 -0.001683230162598192908643413013 0 0 0 0 
2417000000.0000000000 0.152162760496139498611611884371 -0.078464463353157043457031250000 -0.001267634797841310934779501807 -0.001862967619672418074366904150 0 0 0 0 
2417166666.6666665077 0.152178466320037786285723768742 -0.080187663435935974121093750000 -0.001281804405152797915815043872 -0.002001787768676877021789550781 0 0 0 0 
2417333333.3333334923 0.152112156152725191970986884371 -0.081965327262878417968750000000 -0.001151936827227473042131733472 -0.001993233570829033851623535156 0 0 0 0 
2417500000.0000000000 0.152055054903030395507812500000 -0.083763793110847473144531250000 -0.001240760553628206036211323315 -0.002070943126454948945286416162 0 0 0 0 
2417666666.6666665077 0.152098044753074701507244981258 -0.085292629897594451904296875000 -0.001240581041201948902727436597 -0.002219545189291238784790039062 0 0 0 0 
2417833333.3333334923 0.152131929993629511077557481258 -0.086704678833484649658203125000 -0.001290609361603856086730957031 -0.002456559566780924797058105469 0 0 0 0 
2418000000.0000000000 0.152191326022148104568643134371 -0.088311612606048583984375000000 -0.001246277242898941040039062500 -0.002608762821182609038112021338 0 0 0 0 
2418166666.6666665077 0.152295246720313998123330634371 -0.089467033743858337402343750000 -0.001293096225708723068237304688 -0.002719972748309373855590820312 0 0 0 0 
2418333333.3333334923 0.152784794569015502929687500000 -0.090853199362754821777343750000 -0.001446523121558130004285502856 -0.002908414928242564201354980469 0 0 0 0 
2418500000.0000000000 0.152724608778953607757244981258 -0.092001557350158691406250000000 -0.001587040722370147921918559497 -0.003040341427549719810485839844 0 0 0 0 
2418666666.6666665077 0.153106093406677301604901231258 -0.093002796173095703125000000000 -0.001864151912741363048553466797 -0.003217648481950163841247558594 0 0 0 0 
2418833333.3333334923 0.153086617588996887207031250000 -0.093923330307006835937500000000 -0.002050029579550027847290039062 -0.003336552530527114868164062500 0 0 0 0 
2419000000.0000000000 0.153257787227630587478799384371 -0.094743922352790832519531250000 -0.002353495685383677916285849463 -0.003276272444054483933689736475 0 0 0 0 
2419166666.6666665077 0.153463423252105712890625000000 -0.095492094755172729492187500000 -0.002538788598030806021449423682 -0.003443163586780428886413574219 0 0 0 0 
2419333333.3333334923 0.153601050376892089843750000000 -0.095952376723289489746093750000 -0.002914801705628633932826376807 -0.003547696862369776205775595557 0 0 0 0 
2419500000.0000000000 0.153885677456855801681356865629 -0.096419543027877807617187500000 -0.003001530654728413061854697119 -0.003527177032083272933959960938 0 0 0 0 
2419666666.6666665077 0.154164940118789700607138115629 -0.096835315227508544921875000000 -0.003346325596794486045837402344 -0.003423538990318775177001953125 0 0 0 0 
2419833333.3333334923 0.154244810342788696289062500000 -0.097098276019096374511718750000 -0.003706168383359909057617187500 -0.003388884011656045913696289062 0 0 0 0 
