# Hz S RI R 50
2400000000.0000000000 0.154946863651275607010049384371 0.106501564383506802657919365629 -0.002320521976798772811889648438 -0.003397724358364940123317099463 0 0 0 0 
2400166666.6666665077 0.154593706130981500823651231258 0.104200698435306604583416856258 -0.002190289786085485978367470850 -0.003498394042253493829014443506 0 0 0 0 
2400333333.3333334923 0.154575884342193603515625000000 0.101861342787742600868305942186 -0.002290094969794154167175292969 -0.003598660463467239899876259912 0 0 0 0 
2400500000.0000000000 0.154467180371284512618856865629 0.099096804857254028320312500000 -0.002499603200703858895542763818 -0.003669012570753694014308310400 0 0 0 0 
2400666666.6666665077 0.154741361737251309493856865629 0.096701942384243011474609375000 -0.002654507989063858985900878906 -0.003682662500068544907810830225 0 0 0 0 
2400833333.3333334923 0.154481664299964904785156250000 0.093593813478946685791015625000 -0.002788557903841137886047363281 -0.003780955215916037993190146338 0 0 0 0 
2401000000.0000000000 0.154782250523567199707031250000 0.090807981789112091064453125000 -0.003131660865619779066798544775 -0.003812844166532158851623535156 0 0 0 0 
2401166666.6666665077 0.154806852340698186676348768742 0.088135592639446258544921875000 -0.003411564277485013008117675781 -0.003873202484101057052612304688 0 0 0 0 
2401333333.3333334923 0.155173167586326599121093750000 0.085220932960510253906250000000 -0.003684622235596179962158203125 -0.003824440995231270790100097656 0 0 0 0 
2401500000.0000000000 0.155690148472786005218182481258 0.082275837659835815429687500000 -0.003630502847954630851745605469 -0.003845928004011511802673339844 0 0 0 0 
2401666666.6666665077 0.155926078557968111892861884371 0.079433836042881011962890625000 -0.003934415057301521301269531250 -0.003644793294370173974278115381 0 0 0 0 
2401833333.3333334923 0.156356647610664395431356865629 0.076882928609848022460937500000 -0.004220431204885244369506835938 -0.003627958241850138144252158057 0 0 0 0 
2402000000.0000000000 0.157238051295280512054119981258 0.074033759534358978271484375000 -0.004303654190152884397024823926 -0.003364038420841097831726074219 0 0 0 0 
2402166666.6666665077 0.158074706792831393142861884371 0.071433864533901214599609375000 -0.004567026626318693161010742188 -0.003274539951235055923461914062 0 0 0 0 
2402333333.3333334923 0.158945202827453613281250000000 0.068762034177780151367187500000 -0.004749488551169633865356445312 -0.003028023755177855925319052588 0 0 0 0 
2402500000.0000000000 0.160096645355224609375000000000 0.066301047801971435546875000000 -0.004871487617492675781250000000 -0.002823075978085399107692099463 0 0 0 0 
2402666666.6666665077 0.161254271864891107757244981258 0.064083248376846313476562500000 -0.005207593552768229570870683887 -0.002829803153872489929199218750 0 0 0 0 
2402833333.3333334923 0.162476316094398498535156250000 0.061563774943351752544362653907 -0.005390819162130355834960937500 -0.002557410625740886168238974463 0 0 0 0 
2403000000.0000000000 0.163889169692993191818075615629 0.059234000742435462261159528907 -0.005353779997676610946655273438 -0.002239771420136094093322753906 0 0 0 0 
2403166666.6666665077 0.165552407503128107268963731258 0.057053193449974060058593750000 -0.005494044162333011627197265625 -0.002137770177796483039855957031 0 0 0 0 
2403333333.3333334923 0.167102694511413601974325615629 0.054891735315322882915456403907 -0.005644230637699365615844726562 -0.001788163208402693054796528394 0 0 0 0 
2403500000.0000000000 0.168552532792091397384481865629 0.052913893014192581176757812500 -0.005718706175684928894042968750 -0.001567926025018095970153808594 0 0 0 0 
2403666666.6666665077 0.170636042952537508865518134371 0.050928305834531777118723283593 -0.005608155857771635055541992188 -0.001447643269784748987910605322 0 0 0 0 
2403833333.3333334923 0.172115132212638910491619981258 0.049096278846263892436940778907 -0.005706137977540493011474609375 -0.001101592439226805946947407300 0 0 0 0 
2404000000.0000000000 0.173795744776725796798544365629 0.047420378774404532695729841407 -0.005802079569548369321341230176 -0.000902312051039189100265502930 0 0 0 0 
2404166666.6666665077 0.175667032599449213225994981258 0.046014156192541122436523437500 -0.005746547598391771316528320312 -0.000747217156458646059036254883 0 0 0 0 
2404333333.3333334923 0.177286460995674105545205634371 0.044505227357149117206613908593 -0.005774480756372213363647460938 -0.000601731298957020044326782227 0 0 0 0 
2404500000.0000000000 0.178947702050209100921307481258 0.043092437088489532470703125000 -0.005657208617776632308959960938 -0.000375427014660090208053588867 0 0 0 0 
2404666666.6666665077 0.180672883987426813323651231258 0.042062684893608093261718750000 -0.005659790243953466415405273438 -0.000221819427679292911857050763 0 0 0 0 
2404833333.3333334923 0.182317525148391695877236884371 0.040897451341152191162109375000 -0.005672960542142391204833984375 0.000026053299734485339036191634 0 0 0 0 
2405000000.0000000000 0.183664426207542391678018134371 0.040382675826549530029296875000 -0.005786899011582136154174804688 0.000021130614186404269525801011 0 0 0 0 
2405166666.6666665077 0.185128450393676813323651231258 0.039581943303346626972238908593 -0.005677754059433937072753906250 0.000310402421746402978897094727 0 0 0 0 
2405333333.3333334923 0.186705559492111206054687500000 0.038977712392807006835937500000 -0.005698786117136478424072265625 0.000580616993829607963562011719 0 0 0 0 
2405500000.0000000000 0.188023850321769686599893134371 0.038616325706243521953542341407 -0.005691841710358858108520507812 0.000740420771762728691101074219 0 0 0 0 
2405666666.6666665077 0.189432814717292813400106865629 0.038266681134700782085378278907 -0.005737427622079849243164062500 0.000894723518285900354385375977 0 0 0 0 
2405833333.3333334923 0.190564751625061007400674384371 0.038085531443357467651367187500 -0.005713033024221658706665039062 0.000900467101018875837326049805 0 0 0 0 
2406000000.0000000000 0.191622018814086886306924384371 0.037932902574539191509206403907 -0.005706920754164457321166992188 0.001332531915977597019792866284 0 0 0 0 
2406166666.6666665077 0.192632779479026794433593750000 0.037785615772008902812917341407 -0.005715403705835342407226562500 0.001471854047849773926975869287 0 0 0 0 
2406333333.3333334923 0.193587914109230013748330634371 0.037748966366052627563476562500 -0.005598779767751693725585937500 0.001837191986851393959642719800 0 0 0 0 
2406500000.0000000000 0.194475650787353487869424384371 0.037777952849864959716796875000 -0.005501835141330957412719726562 0.002019051229581236839294433594 0 0 0 0 
2406666666.6666665077 0.194908246397972106933593750000 0.037841562181711196899414062500 -0.005438236985355615615844726562 0.002069507027044891877415322412 0 0 0 0 
2406833333.3333334923 0.195483639836311312576455634371 0.037963785231113426898996721093 -0.005249020177870988845825195312 0.002382459817454218864440917969 0 0 0 0 
2407000000.0000000000 0.195703387260437011718750000000 0.038168657571077346801757812500 -0.005194098223000764846801757812 0.002749194391071795983555459131 0 0 0 0 
2407166666.6666665077 0.196203425526619013030682481258 0.038075052201747887348215471093 -0.005067533813416957855224609375 0.002816702704876660866978310693 0 0 0 0 
2407333333.3333334923 0.196083977818489102462606865629 0.038316603749990463256835937500 -0.004759327974170446395874023438 0.003008412895724176926853798975 0 0 0 0 
2407500000.0000000000 0.196097075939178494552450615629 0.038456853479146957397460937500 -0.004641465377062559127807617188 0.003210318507626653151271201025 0 0 0 0 
2407666666.6666665077 0.196111306548118591308593750000 0.038400132209062583232839216407 -0.004589148331433534622192382812 0.003311765380203723907470703125 0 0 0 0 
2407833333.3333334923 0.195588245987892206390057481258 0.038205824792385101318359375000 -0.004275273997336626052856445312 0.003232829971238971190211630713 0 0 0 0 
2408000000.0000000000 0.195603132247924804687500000000 0.038090229034423828125000000000 -0.004133876413106918334960937500 0.003441100008785725073573447119 0 0 0 0 
2408166666.6666665077 0.194933146238326998611611884371 0.037807058542966842651367187500 -0.003885410260409117178675986182 0.003445554757490754127502441406 0 0 0 0 
2408333333.3333334923 0.194554209709167508224325615629 0.037395149469375610351562500000 -0.003867830382660030884983681787 0.003635851899161934852600097656 0 0 0 0 
2408500000.0000000000 0.194050729274749811370526231258 0.037064444273710250854492187500 -0.003625836223363875909092568506 0.003687479300424457030055380713 0 0 0 0 
2408666666.6666665077 0.193340897560119601150674384371 0.036564163863658911968190778907 -0.003457156009972095923182822119 0.003715532599017024040222167969 0 0 0 0 
2408833333.3333334923 0.192564606666564913650674384371 0.035855114459991462017018903907 -0.003321970812976359887364052881 0.003758902661502360863926552881 0 0 0 0 
2409000000.0000000000 0.191649094223976107498330634371 0.034881550818681716918945312500 -0.003198552876710892157313681494 0.003756975289434194998500204932 0 0 0 0 
2409166666.6666665077 0.190787255764007596114950615629 0.034012909978628158569335937500 -0.003000532276928424835205078125 0.003940312657505273818969726562 0 0 0 0 
2409333333.3333334923 0.189922004938125610351562500000 0.032792545855045318603515625000 -0.002887164009734988212585449219 0.003797532990574837164637900244 0 0 0 0 
2409500000.0000000000 0.188784107565879794021768134371 0.031566169112920761108398437500 -0.002743090502917767004725790869 0.003783102147281169891357421875 0 0 0 0 
2409666666.6666665077 0.187786743044853210449218750000 0.030241072177886959421178048046 -0.002668966772034763856175088037 0.003952406346797943115234375000 0 0 0 0 
2409833333.3333334923 0.186901718378066988845986884371 0.028735440224409099924107735546 -0.002609961433336139158961630713 0.004011169075965881347656250000 0 0 0 0 
2410000000.0000000000 0.185860827565193204025106865629 0.027089541777968410146693045704 -0.002456350717693566842320107568 0.003824838437139987945556640625 0 0 0 0 
2410166666.6666665077 0.184869900345802307128906250000 0.025167418643832210195521170704 -0.002304617548361421065089560400 0.003933253232389689359183027051 0 0 0 0 
2410333333.3333334923 0.183975204825401306152343750000 0.023348653689026829111119454296 -0.002043088898062705993652343750 0.003815370379015802903416298975 0 0 0 0 
2410500000.0000000000 0.183020710945129394531250000000 0.021420286968350410461425781250 -0.002027264563366771178004599463 0.003918610978871583938598632812 0 0 0 0 
2410666666.6666665077 0.182180047035217312911825615629 0.019057437777519229543665701954 -0.001944881281815469048143696362 0.003777541453018784956691122900 0 0 0 0 
2410833333.3333334923 0.181495413184166010100994981258 0.016930652782320979726771170704 -0.001931275008246303038356161963 0.003713383339345455169677734375 0 0 0 0 
2411000000.0000000000 0.180657148361206110198651231258 0.014623457565903660165806954296 -0.001778867212124169089673686450 0.003853048197925090789794921875 0 0 0 0 
2411166666.6666665077 0.180199354887008694747763115629 0.012296709232032300776471522852 -0.001627551624551415009739541162 0.003871291177347302003147744287 0 0 0 0 
2411333333.3333334923 0.179509952664375305175781250000 0.009876590222120285034179687500 -0.001613543718121946074842143481 0.003843057900667190985438681494 0 0 0 0 
2411500000.0000000000 0.179195895791053799728231865629 0.007444045506417751312255859375 -0.001362450071610509915592812646 0.003826654516160488128662109375 0 0 0 0 
2411666666.6666665077 0.179026409983635004241619981258 0.005213254131376743316650390625 -0.001381897251121700026868510669 0.003748158924281597137451171875 0 0 0 0 
2411833333.3333334923 0.178602725267410306075888115629 0.002732575638219714164733886719 -0.001214027986861764950993203271 0.003572274232283235029933310400 0 0 0 0 
2412000000.0000000000 0.178837105631828308105468750000 0.000099631797638721764087677002 -0.001084808609448373100878071362 0.003571004141122103171107626807 0 0 0 0 
2412166666.6666665077 0.178808331489562988281250000000 -0.002211179351434112028834677588 -0.001046167337335645935655903394 0.003561064135283232168910361182 0 0 0 0 
2412333333.3333334923 0.179188042879104586502236884371 -0.004928246606141328811645507812 -0.001135509926825762011884379810 0.003469153074547647996189736475 0 0 0 0 
2412500000.0000000000 0.179569751024246188064736884371 -0.007415222935378552350516034863 -0.001156695303507149002672504956 0.003336209338158369064331054688 0 0 0 0 
2412666666.6666665077 0.180030196905136108398437500000 -0.009995380416512489318847656250 -0.001071854960173369104500795679 0.003343106480315328078029013525 0 0 0 0 
2412833333.3333334923 0.180720150470733587066973768742 -0.012465076521039010828961757227 -0.001106734620407223918317485278 0.003368854057043790817260742188 0 0 0 0 
2413000000.0000000000 0.181411653757095309158486884371 -0.014711930416524410247802734375 -0.001065314048901200077654194409 0.003361325711011887030360556494 0 0 0 0 
2413166666.6666665077 0.182209983468055697342080634371 -0.017054529860615730285644531250 -0.001101705478504299900652241284 0.003252624999731779098510742188 0 0 0 0 
2413333333.3333334923 0.183382868766784695724325615629 -0.019382838159799579275111014454 -0.001190227223560214042663574219 0.003365854267030953927281045068 0 0 0 0 
2413500000.0000000000 0.184365347027778597732705634371 -0.021788751706480979919433593750 -0.001161611289717257022857666016 0.003557591000571846961975097656 0 0 0 0 
2413666666.6666665077 0.185460850596427889724893134371 -0.023884141817688938486119454296 -0.001135839964263140938402485425 0.003534263232722878889796591650 0 0 0 0 
2413833333.3333334923 0.186506405472755404373330634371 -0.025925306603312488901158516796 -0.001049741287715733051300048828 0.003621383802965282960178994287 0 0 0 0 
2414000000.0000000000 0.187750324606895502288494981258 -0.027877470478415489196777343750 -0.001103481510654092051862407153 0.003834057133644818825962685693 0 0 0 0 
2414166666.6666665077 0.189041316509246798416299384371 -0.029814824461936950683593750000 -0.000934306241106241941452026367 0.003722810419276357130763388525 0 0 0 0 
2414333333.3333334923 0.190069794654846191406250000000 -0.031814768910408020019531250000 -0.000617940735537558794021606445 0.003750299103558063940760947119 0 0 0 0 
2414500000.0000000000 0.191327631473541287521200615629 -0.033174581825733191753347028907 -0.000685816048644483089447021484 0.003785046050325036048889160156 0 0 0 0 
2414666666.6666665077 0.192316368222236605545205634371 -0.034712642431259162212331403907 -0.000523815397173166275024414062 0.003781980136409401893615722656 0 0 0 0 
2414833333.3333334923 0.193649277091026306152343750000 -0.036135420203208923339843750000 -0.000511398480739444494247436523 0.003955028951168060302734375000 0 0 0 0 
2415000000.0000000000 0.194631919264793395996093750000 -0.037544708698987960815429687500 -0.000421467295382171923488062726 0.003792474977672100067138671875 0 0 0 0 
2415166666.6666665077 0.195967942476272610763388115629 -0.038571104407310492778737653907 -0.000319983490044251084327697754 0.003889746032655239105224609375 0 0 0 0 
2415333333.3333334923 0.197071641683578491210937500000 -0.039559114724397659301757812500 -0.000318023376166820526123046875 0.003928297664970160398001386426 0 0 0 0 
2415500000.0000000000 0.198255315423011807540731865629 -0.040262967348098761821706403907 -0.000229536410188302397727966309 0.004070746712386608123779296875 0 0 0 0 
2415666666.6666665077 0.199144601821899386306924384371 -0.041126810014247887348215471093 -0.000342701707268133813708704816 0.004137226846069098386282636426 0 0 0 0 
2415833333.3333334923 0.199948757886886596679687500000 -0.041652549058198928833007812500 -0.000296271435217931920855921613 0.004031807649880647659301757812 0 0 0 0 
2416000000.0000000000 0.200783520936965886871661268742 -0.042426001280546188354492187500 -0.000108540101791731999673028264 0.004143443424254655838012695312 0 0 0 0 
2416166666.6666665077 0.201541572809219388107138115629 -0.042945798486471183086354841407 0.000011191115845576860010623932 0.004287743009626865386962890625 0 0 0 0 
2416333333.3333334923 0.202057465910911587814169365629 -0.043186329305171966552734375000 -0.000104781647678464705317896710 0.004240674898028373718261718750 0 0 0 0 
2416500000.0000000000 0.202495694160461398025674384371 -0.043345637619495391845703125000 0.000079645229561720043420791626 0.004277642816305161389822675488 0 0 0 0 
2416666666.6666665077 0.202630266547203091720419365629 -0.043885614722967147827148437500 0.000208639758056960999965667725 0.004390906542539597424978925488 0 0 0 0 
2416833333.3333334923 0.202783554792404202560263115629 -0.043729301542043692851979841407 0.000354357238393276875645238055 0.004642117768526077270507812500 0 0 0 0 
2417000000.0000000000 0.202927827835083007812500000000 -0.043878953903913497924804687500 0.000423410587245598381191807880 0.004748748149722815427298261426 0 0 0 0 
2417166666.6666665077 0.202613532543182400802450615629 -0.043703988194465637207031250000 0.000620219332631677389144897461 0.004779086448252201080322265625 0 0 0 0 
2417333333.3333334923 0.202394440770149203201455634371 -0.043491482734680182720143903907 0.000796931504737585783004760742 0.004826847929507493972778320312 0 0 0 0 
2417500000.0000000000 0.201981857419014004806356865629 -0.043505631387233727191965471093 0.001113044098019599914550781250 0.004797230940312147140502929688 0 0 0 0 
2417666666.6666665077 0.201547205448150607010049384371 -0.043292775750160217285156250000 0.001240231795236468098284077222 0.004847016651183366775512695312 0 0 0 0 
2417833333.3333334923 0.201023548841476412674111884371 -0.043059397488832466815988908593 0.001345889410004019954084086841 0.004797471687197685241699218750 0 0 0 0 
2418000000.0000000000 0.200265333056449890136718750000 -0.042763382196426391601562500000 0.001616135821677743954899453271 0.004889830946922302246093750000 0 0 0 0 
2418166666.6666665077 0.199443489313125610351562500000 -0.042731612920761108398437500000 0.001836466486565768935559916919 0.004682104103267192840576171875 0 0 0 0 
2418333333.3333334923 0.198525995016097994705361884371 -0.042575567960739142681081403907 0.001890104380436242060420370947 0.004768421873450279235839843750 0 0 0 0 
2418500000.0000000000 0.197493284940719604492187500000 -0.042541284114122390747070312500 0.002216568682342768149134970557 0.004767729900777339935302734375 0 0 0 0 
2418666666.6666665077 0.196535766124725286285723768742 -0.042472608387470252300222028907 0.002198729896917939186096191406 0.004606323782354593276977539062 0 0 0 0 
2418833333.3333334923 0.195262283086776705642861884371 -0.042706232517957687377929687500 0.002550991252064704895019531250 0.004595822654664515581612871387 0 0 0 0 
2419000000.0000000000 0.193823859095573397537393134371 -0.042770348489284522319753278907 0.002553753554821013970616006006 0.004418852273374795913696289062 0 0 0 0 
2419166666.6666665077 0.192469969391822787185830634371 -0.043069101870059967041015625000 0.002685884712263942198512411963 0.004469902720302343368530273438 0 0 0 0 
2419333333.3333334923 0.190970569849014309982138115629 -0.043507765978574752807617187500 0.003014269052073359923121786963 0.004351894371211528778076171875 0 0 0 0 
2419500000.0000000000 0.189628601074218805511151231258 -0.043978549540042877197265625000 0.003038205206394195990321493994 0.004219299647957087430472089551 0 0 0 0 
2419666666.6666665077 0.187949225306510897537393134371 -0.044906336814165122295339216407 0.003216883866116404967067099463 0.004154445603489875793457031250 0 0 0 0 
2419833333.3333334923 0.186376169323921203613281250000 -0.045511476695537567138671875000 0.003368547884747385978698730469 0.003925462719053030014038085938 0 0 0 0 
