# Hz S RI R 
2400000000.0000000000 0.168931528925895690917968750000 0.040290873497724533081054687500 -0.001787743880413473086116171729 -0.001078393193893135027644492041 0 0 0 0 
2400166666.6666665077 0.169508144259452792068643134371 0.039825286716222763061523437500 -0.001923151081427932002423930591 -0.001182519481517374949214316260 0 0 0 0 
2400333333.3333334923 0.170099094510078402420205634371 0.038820892572402947162668596093 -0.002132032532244921164271689307 -0.000948166998568922281265258789 0 0 0 0 
2400500000.0000000000 0.170718893408775301834268134371 0.037954188883304602886159528907 -0.002191206673160194916966103662 -0.000935529125854372978210449219 0 0 0 0 
2400666666.6666665077 0.170892491936683710296307481258 0.037070386111736297607421875000 -0.002350137103348969979527138818 -0.000827415846288204193115234375 0 0 0 0 
2400833333.3333334923 0.171206161379814203460369981258 0.036642570048570632934570312500 -0.002371006645262240929844521631 -0.000785084266681224107742309570 0 0 0 0 
2401000000.0000000000 0.171561107039451599121093750000 0.035697069019079208374023437500 -0.002416530158370732827427529443 -0.000614897464402019977569580078 0 0 0 0 
2401166666.6666665077 0.171836212277412386795205634371 0.034835886210203170776367187500 -0.002390837529674171967747353662 -0.000448269012849777882725316180 0 0 0 0 
2401333333.3333334923 0.171883761882782010177450615629 0.034042149782180793071706403907 -0.002670980291441082954406738281 -0.000488538062199950218200683594 0 0 0 0 
2401500000.0000000000 0.172135427594184903243856865629 0.033259902149438858032226562500 -0.002482575830072164969203329932 -0.000394584290916100090176182880 0 0 0 0 
2401666666.6666665077 0.172048628330230712890625000000 0.032601967453956597065012346093 -0.002558188978582621054408408057 -0.000219397392356768304675501691 0 0 0 0 
2401833333.3333334923 0.172142282128334100921307481258 0.031861089169979102397878278907 -0.002603021450340747833251953125 -0.000197174667846411493703565054 0 0 0 0 
2402000000.0000000000 0.171951264142990112304687500000 0.030974335968494418752650076954 -0.002502572722733021216151572119 0.000022378402718459259381498030 0 0 0 0 
2402166666.6666665077 0.171906769275665310958700615629 0.030032996088266369211217110546 -0.002444070763885974884033203125 -0.000033476062526460736989974976 0 0 0 0 
2402333333.3333334923 0.171901226043701199630575615629 0.029356554150581359863281250000 -0.002317753853276371955871582031 0.000114172515168320401154379573 0 0 0 0 
2402500000.0000000000 0.171859756112098693847656250000 0.028379913419485088693638985546 -0.002396647352725266976597451318 0.000051461109251249581575393677 0 0 0 0 
2402666666.6666665077 0.171863481402397211272869981258 0.027492953464388850820521170704 -0.002385968808084725899937295068 0.000198484995053149786874494009 0 0 0 0 
2402833333.3333334923 0.171829566359519986251669365629 0.026607770472764968872070312500 -0.002349864691495894952061318506 0.000100639736047014594078063965 0 0 0 0 
2403000000.0000000000 0.171522811055183410644531250000 0.025407178327441218984583670704 -0.002460378920659422874450683594 0.000245786417508497779995518817 0 0 0 0 
2403166666.6666665077 0.171498507261276300628338731258 0.024441394954919818532923514454 -0.002464600140228867964503622900 0.000030161976610543209722245864 0 0 0 0 
2403333333.3333334923 0.171370074152946499923544365629 0.023489324375987049448033516796 -0.002516660839319229125976562500 0.000300209212582558393478393555 0 0 0 0 
2403500000.0000000000 0.171125054359436007400674384371 0.022126609459519389760950858204 -0.002471626736223698096034384619 0.000374698895029723590046483173 0 0 0 0 
2403666666.6666665077 0.170991942286491394042968750000 0.020948704332113269460657889454 -0.002626867266371846199035644531 0.000410515553085133379131871356 0 0 0 0 
2403833333.3333334923 0.170619174838066101074218750000 0.019774695858359340322474295704 -0.002634336007758975028991699219 0.000475266831927001476287841797 0 0 0 0 
2404000000.0000000000 0.170498669147491510589276231258 0.018416512757539749145507812500 -0.002739759162068367004394531250 0.000574089121073484420776367188 0 0 0 0 
2404166666.6666665077 0.170352473855018587967080634371 0.017033543437719348562220389454 -0.002778518013656138940098427881 0.000646708707790821790695190430 0 0 0 0 
2404333333.3333334923 0.170138224959373501876669365629 0.015843665227293971670130545704 -0.002594915684312582015991210938 0.000762877753004431724548339844 0 0 0 0 
2404500000.0000000000 0.170070886611938504318075615629 0.014183081686496739823311052930 -0.002578287385404109954833984375 0.000891766452696174383163452148 0 0 0 0 
2404666666.6666665077 0.169908300042152404785156250000 0.012901583686470990616768084180 -0.002713297260925174193141318213 0.000820579822175204753875732422 0 0 0 0 
2404833333.3333334923 0.169745117425918606857138115629 0.011348968371748920785924141796 -0.002672786125913261933567666162 0.001124748028814793066737509619 0 0 0 0 
2405000000.0000000000 0.169701442122459411621093750000 0.009758513420820236206054687500 -0.002660662401467562155482626807 0.001050380873493850014330219800 0 0 0 0 
2405166666.6666665077 0.169697195291519192794638115629 0.008147128857672214508056640625 -0.002525822259485722021815634619 0.001182853244245051903965615381 0 0 0 0 
2405333333.3333334923 0.169611915946006802657919365629 0.006324293557554483413696289062 -0.002731775864958763122558593750 0.001343992771580815098406147534 0 0 0 0 
2405500000.0000000000 0.169480770826339693924111884371 0.004845481365919113159179687500 -0.002523457165807486014125204932 0.001464968197979032993316650391 0 0 0 0 
2405666666.6666665077 0.169390544295311001876669365629 0.003039452945813537077662802588 -0.002647333079949020905735634912 0.001726580783724785067914653247 0 0 0 0 
2405833333.3333334923 0.169274732470512390136718750000 0.001549317035824060006382607568 -0.002617544028908013863804482568 0.001628068741410970904706645435 0 0 0 0 
2406000000.0000000000 0.169075086712837191482705634371 -0.000335057702613994479179382324 -0.002579882042482494874241494287 0.001820158096961677074432373047 0 0 0 0 
2406166666.6666665077 0.168886721134185791015625000000 -0.001879862160421907901763916016 -0.002518863650038837952854775537 0.002210028003901243209838867188 0 0 0 0 
2406333333.3333334923 0.169011339545249911209268134371 -0.003557972842827438874485634912 -0.002476041670888661904575966943 0.002312996191903948783874511719 0 0 0 0 
2406500000.0000000000 0.168964207172393798828125000000 -0.005164118483662605285644531250 -0.002329265698790549798252724756 0.002463453216478229002711630713 0 0 0 0 
2406666666.6666665077 0.168586909770965603927450615629 -0.006733586080372334393973066113 -0.002171361586079000993015908350 0.002541497582569717927220009912 0 0 0 0 
2406833333.3333334923 0.168652772903442410568075615629 -0.008481782861053943634033203125 -0.002088353736326098008396767725 0.002725889673456550078151083838 0 0 0 0 
2407000000.0000000000 0.168635413050651605804119981258 -0.010033768601715569931953631055 -0.001755591365508734963060688550 0.002605500863865017890930175781 0 0 0 0 
2407166666.6666665077 0.168586730957031305511151231258 -0.011428404599428180349329764454 -0.001659243949688971042633056641 0.002711547305807470841648720850 0 0 0 0 
2407333333.3333334923 0.168357044458389309982138115629 -0.012908070348203180485735508398 -0.001479137106798589012743305737 0.002782898955047131018397665869 0 0 0 0 
2407500000.0000000000 0.168216317892074612716513115629 -0.014178667217493060720423514454 -0.001378220156766474030138325269 0.002779882168397306962254189600 0 0 0 0 
2407666666.6666665077 0.168172851204872103592080634371 -0.015453356318175789224644844921 -0.001130925258621573014500283350 0.002971653360873461203334189307 0 0 0 0 
2407833333.3333334923 0.167951092123985290527343750000 -0.016745997592806819570521170704 -0.000983138685114681720733642578 0.003038598457351326942443847656 0 0 0 0 
2408000000.0000000000 0.168223530054092407226562500000 -0.017909361049532890319824218750 -0.000855699763633310794830322266 0.002794762374833226203918457031 0 0 0 0 
2408166666.6666665077 0.168094754219055203536825615629 -0.018762569874525070190429687500 -0.000726774160284548997879028320 0.003025253303349018096923828125 0 0 0 0 
2408333333.3333334923 0.168366774916648892501669365629 -0.019757803529500961303710937500 -0.000431925669545307809680384503 0.002901711268350481986999511719 0 0 0 0 
2408500000.0000000000 0.168290719389915494064169365629 -0.020834162831306460988978201954 -0.000401006138417869806289672852 0.002838035579770803885218954932 0 0 0 0 
2408666666.6666665077 0.168466508388519287109375000000 -0.021662887185811999929407889454 -0.000289860297925770282745361328 0.002694554161280394034144736182 0 0 0 0 
2408833333.3333334923 0.168514892458915710449218750000 -0.022537572309374809265136718750 -0.000216286833165213492795667105 0.002746765967458486990687704932 0 0 0 0 
2409000000.0000000000 0.168814599514007596114950615629 -0.023312849923968318593958670704 -0.000023692566173849630763734511 0.002746516605839132828953408350 0 0 0 0 
2409166666.6666665077 0.168947219848632812500000000000 -0.024227442219853401184082031250 -0.000091391142632346600294113159 0.002451175823807715935948037256 0 0 0 0 
2409333333.3333334923 0.169244483113288907150106865629 -0.025170737877488139760950858204 -0.000056559518270660191774368286 0.002593919401988387107849121094 0 0 0 0 
2409500000.0000000000 0.169488742947578402420205634371 -0.026121616363525390625000000000 0.000248262687819078618853968488 0.002383301267400383949279785156 0 0 0 0 
2409666666.6666665077 0.169502153992652893066406250000 -0.026834910735487941396693045704 0.000229658442549407509252271109 0.002316965954378246827366494287 0 0 0 0 
2409833333.3333334923 0.169912189245223999023437500000 -0.027695408090949058532714843750 0.000176528832525946199893951416 0.002135601360350846810581826318 0 0 0 0 
2410000000.0000000000 0.169988527894020108321981865629 -0.028545623645186420785924141796 0.000363103928975760882526951923 0.002132480265572667121887207031 0 0 0 0 
2410166666.6666665077 0.170065939426422091385049384371 -0.029434550553560260427454764454 0.000337042758474126512378138409 0.002152136759832500977757119287 0 0 0 0 
2410333333.3333334923 0.170012310147285489181356865629 -0.030052224174141880380650704296 0.000200546783162280890062609262 0.001927507575601338906529091943 0 0 0 0 
2410500000.0000000000 0.170171663165092496017294365629 -0.030970083549618721008300781250 0.000406983890570700222819727765 0.001948741381056606986402202075 0 0 0 0 
2410666666.6666665077 0.170044794678688104827557481258 -0.032025113701820366596262346093 0.000310187257127836400836390363 0.001788782305084168910980224609 0 0 0 0 
2410833333.3333334923 0.170103117823600796798544365629 -0.032587788999080657958984375000 0.000213787978282198309898376465 0.001885244273580610968946147388 0 0 0 0 
2411000000.0000000000 0.169903963804244995117187500000 -0.033206038177013397216796875000 0.000223243856453336802407941275 0.001774237840436398983001708984 0 0 0 0 
2411166666.6666665077 0.169650644063949612716513115629 -0.034204721450805657123606096093 0.000183510419446974992752075195 0.001784712774679064967511821216 0 0 0 0 
2411333333.3333334923 0.169618248939514187911825615629 -0.035106699913740158081054687500 0.000181900075403973487302503043 0.001597569207660854079602885669 0 0 0 0 
2411500000.0000000000 0.169254690408706692794638115629 -0.035713717341423041606862653907 0.000170480576343834400177001953 0.001665133633650838895085000146 0 0 0 0 
2411666666.6666665077 0.169112280011177090743856865629 -0.036509320139884948730468750000 0.000094952854851726442575454712 0.001822478487156331972834921729 0 0 0 0 
2411833333.3333334923 0.168706431984901400467080634371 -0.037254638969898216938059221093 0.000147541097248904407024383545 0.001764709944836794896366738428 0 0 0 0 
2412000000.0000000000 0.168533667922019986251669365629 -0.038133442401885993267018903907 -0.000077563148806802928447723389 0.001767611363902688026428222656 0 0 0 0 
2412166666.6666665077 0.168232962489128112792968750000 -0.039012551307678222656250000000 -0.000066286906076129525899887085 0.001896434812806546904920268481 0 0 0 0 
2412333333.3333334923 0.167982369661331204513388115629 -0.039898395538330078125000000000 -0.000329138449160382205813807355 0.001819870667532085938694619287 0 0 0 0 
2412500000.0000000000 0.167445972561836187164630018742 -0.040673360228538513183593750000 -0.000272472214419394677311497821 0.002075247233733534812927246094 0 0 0 0 
2412666666.6666665077 0.167085081338882501800213731258 -0.041804492473602301860768903907 -0.000320905237458646297454833984 0.002057944890111684799194335938 0 0 0 0 
2412833333.3333334923 0.166731372475624112228231865629 -0.042700655758380889892578125000 -0.000235762869124300805017194205 0.002136335475370287895202636719 0 0 0 0 
2413000000.0000000000 0.166203320026397705078125000000 -0.043576370924711227416992187500 -0.000152964668814092901632031851 0.002208183053880929946899414062 0 0 0 0 
2413166666.6666665077 0.165677055716514587402343750000 -0.044449727982282638549804687500 -0.000102968559076543897390365601 0.002530490979552268981933593750 0 0 0 0 
2413333333.3333334923 0.165040671825408907791299384371 -0.045595884323120117187500000000 -0.000054289910622173920273780823 0.002527590841054915948155068506 0 0 0 0 
2413500000.0000000000 0.164553850889205904861611884371 -0.046505793929100036621093750000 0.000131099397549405694007873535 0.002573185600340365929844521631 0 0 0 0 
2413666666.6666665077 0.164181292057037409026776231258 -0.047590635716915130615234375000 0.000199389964109286693021497183 0.002770547289401292800903320312 0 0 0 0 
2413833333.3333334923 0.163464546203613309005575615629 -0.048541873693466193462331403907 0.000380153302103281021118164062 0.002898901002481580214259482275 0 0 0 0 
2414000000.0000000000 0.162890523672103909591513115629 -0.049600858241319663310964216407 0.000571931770537048578262329102 0.003200365230441093011143349756 0 0 0 0 
2414166666.6666665077 0.162574380636215209960937500000 -0.050510495901107788085937500000 0.000714215275365859270095825195 0.003110610647127031846287392725 0 0 0 0 
2414333333.3333334923 0.161885589361190795898437500000 -0.051507860422134399414062500000 0.000868867209646850824356079102 0.003143988549709320068359375000 0 0 0 0 
2414500000.0000000000 0.161775335669517489334268134371 -0.052503623068332672119140625000 0.001124748494476079940795898438 0.003082887968048452897312783350 0 0 0 0 
2414666666.6666665077 0.161243453621864291092080634371 -0.053670451045036322856862653907 0.001386149669997394084930419922 0.003269207663834095001220703125 0 0 0 0 
2414833333.3333334923 0.160799816250801086425781250000 -0.054742172360420227050781250000 0.001680667046457529067993164062 0.003021634416654706001281738281 0 0 0 0 
2415000000.0000000000 0.160585746169090298751669365629 -0.055838610976934432983398437500 0.001723881927318871021270751953 0.002939270110800861878636025537 0 0 0 0 
2415166666.6666665077 0.160216748714446993728799384371 -0.057067956775426871562917341407 0.002034018281847238974330283057 0.002749851904809474945068359375 0 0 0 0 
2415333333.3333334923 0.160102024674415588378906250000 -0.058227099478244781494140625000 0.002093818271532655195948935400 0.002575868740677833990809775244 0 0 0 0 
2415500000.0000000000 0.159844040870666503906250000000 -0.059378419071435928344726562500 0.002227792050689458847045898438 0.002560087479650973840000771631 0 0 0 0 
2415666666.6666665077 0.159617528319358797928018134371 -0.060542132705450057983398437500 0.002300770021975040002110146631 0.002426682505756617026088095557 0 0 0 0 
2415833333.3333334923 0.159544572234153803069744981258 -0.061909794807434082031250000000 0.002255809027701615853550576318 0.002297885948792099952697753906 0 0 0 0 
2416000000.0000000000 0.159104362130165100097656250000 -0.063209749758243560791015625000 0.002403698395937681198120117188 0.002116144401952623887303017725 0 0 0 0 
2416166666.6666665077 0.159119620919227600097656250000 -0.064466878771781921386718750000 0.002489033387973905043361044775 0.001869635772891343073603964697 0 0 0 0 
2416333333.3333334923 0.158734515309333801269531250000 -0.065775752067565917968750000000 0.002434320980682969093322753906 0.001857802621088922023773193359 0 0 0 0 
2416500000.0000000000 0.158509403467178289215411268742 -0.067246913909912109375000000000 0.002561349654570221900939941406 0.001794761163182557062861777197 0 0 0 0 
2416666666.6666665077 0.158204749226570101638955634371 -0.068395815789699554443359375000 0.002519783563911914825439453125 0.001743080443702637932421040112 0 0 0 0 
2416833333.3333334923 0.157962977886200006683026231258 -0.069746673107147216796875000000 0.002473734319210052923915243994 0.001659501460380852005602192456 0 0 0 0 
2417000000.0000000000 0.157457858324050903320312500000 -0.070874914526939392089843750000 0.002548455726355313821079873193 0.001533137867227196910260844653 0 0 0 0 
2417166666.6666665077 0.157292738556861905196981865629 -0.072012998163700103759765625000 0.002526134019717574119567871094 0.001642540097236633083940815503 0 0 0 0 
2417333333.3333334923 0.157029151916503906250000000000 -0.072979561984539031982421875000 0.002634017495438456969020224463 0.001545049250125885009765625000 0 0 0 0 
2417500000.0000000000 0.156842142343521090408486884371 -0.074241988360881805419921875000 0.002595928497612475915196084131 0.001452666940167546055437397534 0 0 0 0 
2417666666.6666665077 0.156596153974533108810263115629 -0.075047314167022705078125000000 0.002722568111494183974025107275 0.001478350604884326891658163916 0 0 0 0 
2417833333.3333334923 0.156306147575378390213174384371 -0.076175577938556671142578125000 0.003043135395273565812351845850 0.001396661391481756947161030347 0 0 0 0 
2418000000.0000000000 0.155981734395027188400106865629 -0.077119052410125732421875000000 0.002964593702927231788635253906 0.001235416508279741027234721606 0 0 0 0 
2418166666.6666665077 0.155846953392028808593750000000 -0.077825404703617095947265625000 0.003159391228109598159790039062 0.001057272660546004989026713794 0 0 0 0 
2418333333.3333334923 0.155835047364234896560830634371 -0.078880473971366882324218750000 0.003222768660634756088256835938 0.001220400677993894057032919775 0 0 0 0 
2418500000.0000000000 0.155663713812828091720419365629 -0.079617388546466827392578125000 0.003191055264323949813842773438 0.001022585900500416972516704028 0 0 0 0 
2418666666.6666665077 0.155549675226211603362713731258 -0.080518692731857299804687500000 0.003314649220556021170375204932 0.000738747126888483762741088867 0 0 0 0 
2418833333.3333334923 0.155089661478996304611044365629 -0.081273801624774932861328125000 0.003406988224014639854431152344 0.000744649034459143877029418945 0 0 0 0 
2419000000.0000000000 0.154862105846405001541299384371 -0.081848315894603729248046875000 0.003458235412836074829101562500 0.000727380043826997280120849609 0 0 0 0 
2419166666.6666665077 0.154583692550659207443075615629 -0.082740716636180877685546875000 0.003423642832785844802856445312 0.000479468406410887783199864520 0 0 0 0 
2419333333.3333334923 0.154184520244598388671875000000 -0.083228334784507751464843750000 0.003655353793874382972717285156 0.000121746474178507896974840707 0 0 0 0 
2419500000.0000000000 0.154061377048492403885049384371 -0.084053829312324523925781250000 0.003518065204843879179713583838 -0.000113089132355526103220801082 0 0 0 0 
2419666666.6666665077 0.153921306133270291427450615629 -0.084627874195575714111328125000 0.003591189160943030877354287256 -0.000147558021126314997673034668 0 0 0 0 
2419833333.3333334923 0.153485521674156188964843750000 -0.085137091577053070068359375000 0.003581035649403930144069052588 -0.000376202136976644396781921387 0 0 0 0 
