# Hz S RI R 50
2400000000.0000000000 0.168905034661293002029580634371 0.040269602090120322490651716407 -0.001769738970324397087097167969 -0.001146725378930568911908793872 0 0 0 0 
2400166666.6666665077 0.169635340571403503417968750000 0.039650712162256240844726562500 -0.001872774329967797019361186450 -0.001083592302165925936457968604 0 0 0 0 
2400333333.3333334923 0.170175164937972994705361884371 0.038939498364925391460378278907 -0.001997079933062196211573935400 -0.001024712109938263893127441406 0 0 0 0 
2400500000.0000000000 0.170570939779281588455361884371 0.038084167987108230590820312500 -0.002213191241025925116298056494 -0.000955711584538221359252929688 0 0 0 0 
2400666666.6666665077 0.170971781015396090408486884371 0.037240684032440192485768903907 -0.002236138796433805985691689600 -0.000939993944484740495681762695 0 0 0 0 
2400833333.3333334923 0.171315506100654602050781250000 0.036403328180313110351562500000 -0.002439073054119945006129599463 -0.000880865612998604774475097656 0 0 0 0 
2401000000.0000000000 0.171567693352699307540731865629 0.035563956946134567260742187500 -0.002434323308989406065699911963 -0.000763385789468884468078613281 0 0 0 0 
2401166666.6666665077 0.171727314591407803634481865629 0.034989666193723678588867187500 -0.002513757906854153113124228369 -0.000546978961210697889328002930 0 0 0 0 
2401333333.3333334923 0.171764507889747591873330634371 0.034090299159288413310964216407 -0.002603915752843021912815713037 -0.000426672660978510975837707520 0 0 0 0 
2401500000.0000000000 0.172082930803299005706463731258 0.033265255391597747802734375000 -0.002491488819941877885105752100 -0.000354764051735401207774561749 0 0 0 0 
2401666666.6666665077 0.172066122293472290039062500000 0.032476145774126052856445312500 -0.002462917938828467889073037256 -0.000250958022661507075459080829 0 0 0 0 
2401833333.3333334923 0.172073200345039395431356865629 0.031871013343334197998046875000 -0.002483965130522847175598144531 -0.000091948415501974523067474365 0 0 0 0 
2402000000.0000000000 0.172007918357849093338174384371 0.031181577593088150024414062500 -0.002436852315440773963928222656 0.000038111877074697993021418913 0 0 0 0 
2402166666.6666665077 0.171998456120491000076455634371 0.030107123777270320547083670704 -0.002410565502941607995274209131 -0.000069542053097393363714218140 0 0 0 0 
2402333333.3333334923 0.171865731477737399002236884371 0.029163653030991550790806954296 -0.002357211196795105934143066406 -0.000003724220960066304965640745 0 0 0 0 
2402500000.0000000000 0.171886831521987887283486884371 0.028450561687350269662877266796 -0.002344743814319372177124023438 0.000130138883832842111587524414 0 0 0 0 
2402666666.6666665077 0.171952128410339410979901231258 0.027616811916232109069824218750 -0.002460721880197525024414062500 0.000162827724125236299916943961 0 0 0 0 
2402833333.3333334923 0.171766698360443087478799384371 0.026559520512819290161132812500 -0.002297041704878211021423339844 0.000228960445383563610628405161 0 0 0 0 
2403000000.0000000000 0.171424597501754788497763115629 0.025475827977061271667480468750 -0.002395630581304430961608886719 0.000161343923537060591295519418 0 0 0 0 
2403166666.6666665077 0.171302735805511502364950615629 0.024471122771501541137695312500 -0.002563274931162596182582236182 0.000199378715478815111234942026 0 0 0 0 
2403333333.3333334923 0.171271443367004394531250000000 0.023329192772507671010950858204 -0.002500701462849975065944052588 0.000201214119442738592624664307 0 0 0 0 
2403500000.0000000000 0.170872941613197298904580634371 0.022241080179810520517369454296 -0.002658568555489182905909872900 0.000329235597746446674496251239 0 0 0 0 
2403666666.6666665077 0.170852914452552795410156250000 0.020941874012351039541224295704 -0.002532649086788297133204794775 0.000311099021928384900093078613 0 0 0 0 
2403833333.3333334923 0.170829892158508300781250000000 0.019727624952793121337890625000 -0.002601727144792675971984863281 0.000447255326434969902038574219 0 0 0 0 
2404000000.0000000000 0.170613199472427395919638115629 0.018712935969233509408971016796 -0.002673396142199635939357138525 0.000534208258613944053649902344 0 0 0 0 
2404166666.6666665077 0.170420944690704401214276231258 0.017100965604186061513880545704 -0.002762544667348266081569052588 0.000738726288545876741409301758 0 0 0 0 
2404333333.3333334923 0.170137792825698908050213731258 0.015849480405449870717982108204 -0.002671353053301572799682617188 0.000777826644480228424072265625 0 0 0 0 
2404500000.0000000000 0.170003131031990106780682481258 0.014252179302275180816650390625 -0.002498851623386145071742392432 0.000904465909115970134735107422 0 0 0 0 
2404666666.6666665077 0.169918566942214993575888115629 0.012915701605379579716692539648 -0.002578347455710173086879111182 0.000833685160614550113677978516 0 0 0 0 
2404833333.3333334923 0.169749096035957308670205634371 0.011286665685474870854387852148 -0.002646830165758728981018066406 0.001070533762685955004451132666 0 0 0 0 
2405000000.0000000000 0.169636338949203491210937500000 0.009685808792710304260253906250 -0.002503654686734079880955361475 0.001176574034616350910784077222 0 0 0 0 
2405166666.6666665077 0.169703170657157897949218750000 0.008107602596282958984375000000 -0.002689767163246870040893554688 0.001354987733066082000732421875 0 0 0 0 
2405333333.3333334923 0.169599249958992004394531250000 0.006369771435856819152832031250 -0.002678141696378589110133505713 0.001530242036096751906751323169 0 0 0 0 
2405500000.0000000000 0.169559732079505892654580634371 0.004790453240275382995605468750 -0.002509046113118528886082314600 0.001529997680336236953735351562 0 0 0 0 
2405666666.6666665077 0.169447571039199801345986884371 0.003160371212288736863377236475 -0.002705849474295974211451865088 0.001557948533445596911786723560 0 0 0 0 
2405833333.3333334923 0.169338971376419095138388115629 0.001416745828464627049089741284 -0.002590514020994306044337607275 0.001680824207141994996311806787 0 0 0 0 
2406000000.0000000000 0.169371560215950012207031250000 -0.000301075138850137591361999512 -0.002482263604179025130030966650 0.001934837666340172073961567456 0 0 0 0 
2406166666.6666665077 0.169027879834175109863281250000 -0.001930027618072926998138427734 -0.002405409002676606178283691406 0.002156723290681838989257812500 0 0 0 0 
2406333333.3333334923 0.169121190905571011642294365629 -0.003566987579688429832458496094 -0.002351127797737718062159872900 0.002348674228414893150329589844 0 0 0 0 
2406500000.0000000000 0.168970227241516113281250000000 -0.005295169539749622344970703125 -0.002365120220929383797886513818 0.002438085153698921203613281250 0 0 0 0 
2406666666.6666665077 0.168757423758506802657919365629 -0.006879957392811775207519531250 -0.002191776875406504111049033057 0.002662287559360266165492392432 0 0 0 0 
2406833333.3333334923 0.168686404824256896972656250000 -0.008517106063663959503173828125 -0.002058163518086076216456747900 0.002673154696822166009190224756 0 0 0 0 
2407000000.0000000000 0.168637394905090304275674384371 -0.010132216848433019465436366602 -0.001899607712402940013288188403 0.002726998645812273025512695312 0 0 0 0 
2407166666.6666665077 0.168572857975959805587606865629 -0.011483419686555860692034336523 -0.001639438210986555056331015479 0.002792540704831480979919433594 0 0 0 0 
2407333333.3333334923 0.168337091803550692459268134371 -0.012979231774806979787806326954 -0.001598785165697335980058979565 0.002926941961050034003016806494 0 0 0 0 
2407500000.0000000000 0.168333947658538790603799384371 -0.014325059019029140472412109375 -0.001253673806786536953569721753 0.002813545987010002136230468750 0 0 0 0 
2407666666.6666665077 0.168221950531005887130575615629 -0.015461518429219719278355782421 -0.001196608063764869949938129956 0.002927464665845036940333701025 0 0 0 0 
2407833333.3333334923 0.168028771877288790603799384371 -0.016768408939242359506627266796 -0.000975965580437332391738891602 0.003034504596143960952758789062 0 0 0 0 
2408000000.0000000000 0.167974174022674588302450615629 -0.017903150990605350839635079296 -0.000812039419542998075485229492 0.002875033998861908912658691406 0 0 0 0 
2408166666.6666665077 0.167971640825271606445312500000 -0.018875429406762119638463204296 -0.000740964547730982303619384766 0.002808039076626300811767578125 0 0 0 0 
2408333333.3333334923 0.168329313397407503982705634371 -0.019928233698010451580007185157 -0.000512230268213897943496704102 0.002777490299195051193237304688 0 0 0 0 
2408500000.0000000000 0.168276131153106689453125000000 -0.020899623632431030273437500000 -0.000430424261139705777168273926 0.002699911594390869140625000000 0 0 0 0 
2408666666.6666665077 0.168448522686958312988281250000 -0.021927848458290100097656250000 -0.000342131883371621424525660382 0.002797138644382358031031943213 0 0 0 0 
2408833333.3333334923 0.168442726135253906250000000000 -0.022839399054646488534947579296 -0.000244170689256861805915832520 0.002690493129193782806396484375 0 0 0 0 
2409000000.0000000000 0.168654724955558804611044365629 -0.023550279438495639455775076954 -0.000175400055013597011566162109 0.002569386502727866172790527344 0 0 0 0 
2409166666.6666665077 0.168905809521675109863281250000 -0.024357000365853309631347656250 0.000063291103288065642118453979 0.002605934394523500962498330225 0 0 0 0 
2409333333.3333334923 0.169183447957038907150106865629 -0.025285797193646430969238281250 0.000103136837424244704559603281 0.002498128451406956152675009619 0 0 0 0 
2409500000.0000000000 0.169418945908546503265057481258 -0.026205044239759448659876639454 0.000178254733327776193618774414 0.002443302422761917114257812500 0 0 0 0 
2409666666.6666665077 0.169418260455131503006143134371 -0.027011560276150699960728829296 0.000296459591481834704249781476 0.002200118033215403990504599463 0 0 0 0 
2409833333.3333334923 0.169649258255958612640057481258 -0.027773322537541389465332031250 0.000243127506109885898515424185 0.002324766479432582855224609375 0 0 0 0 
2410000000.0000000000 0.169997528195381192306356865629 -0.028498956933617588388463204296 0.000240467590629123205512446271 0.002099792938679457144496298682 0 0 0 0 
2410166666.6666665077 0.169989168643951388260049384371 -0.029253661632537838327428048046 0.000215000836760737001895904541 0.001973202219232916831970214844 0 0 0 0 
2410333333.3333334923 0.169980570673942593673544365629 -0.030196862295269969594935233204 0.000299670733511447906494140625 0.001793892821297049956080771338 0 0 0 0 
2410500000.0000000000 0.170116811990737887283486884371 -0.031109113246202468872070312500 0.000456574955023825222819727765 0.001922847470268606922746967847 0 0 0 0 
2410666666.6666665077 0.169946566224098205566406250000 -0.031996589154005050659179687500 0.000243843955104239312097272330 0.001897782785817980983136821216 0 0 0 0 
2410833333.3333334923 0.170032218098640386383380018742 -0.032529626041650772094726562500 0.000303766661090776324272155762 0.001914694788865745067596435547 0 0 0 0 
2411000000.0000000000 0.169819563627242986481036268742 -0.033419393002986907958984375000 0.000127500999951735111788073129 0.001764911226928234100341796875 0 0 0 0 
2411166666.6666665077 0.169681653380394009689169365629 -0.034333460032939910888671875000 0.000158333379658870398998260498 0.001686036819592118046404194409 0 0 0 0 
2411333333.3333334923 0.169547468423843411544638115629 -0.035027306526899337768554687500 0.000065289510530419647693634033 0.001557885087095201015472412109 0 0 0 0 
2411500000.0000000000 0.169301018118858309646768134371 -0.035918418318033218383789062500 0.000096828545792959630489349365 0.001611127518117428042768168872 0 0 0 0 
2411666666.6666665077 0.169204726815223693847656250000 -0.036565814167261116718332658593 0.000079286612162832170724868774 0.001664336887188256003736186450 0 0 0 0 
2411833333.3333334923 0.168794050812721307952557481258 -0.037219975143671042705495466407 -0.000023392034563585191290786131 0.001747675356455147049547504956 0 0 0 0 
2412000000.0000000000 0.168573603034019497970419365629 -0.038194626569747931743581403907 0.000000763198727327107917517424 0.001674421480856836058973002856 0 0 0 0 
2412166666.6666665077 0.168167591094970703125000000000 -0.039057340472936630249023437500 -0.000212180908420123186990460806 0.001770022208802402019500732422 0 0 0 0 
2412333333.3333334923 0.168095663189888000488281250000 -0.039770059287548072124440778907 -0.000224455419811420088440495624 0.001879559014923870997187949072 0 0 0 0 
2412500000.0000000000 0.167593851685523986816406250000 -0.040685940533876419067382812500 -0.000170463245012797388151445932 0.001949635450728238062617636572 0 0 0 0 
2412666666.6666665077 0.167173892259597806075888115629 -0.041717499494552612304687500000 -0.000222892238525673801272791730 0.002272198908030986785888671875 0 0 0 0 
2412833333.3333334923 0.166660785675048800369424384371 -0.042717672884464256977121721093 -0.000214170184335671392366132193 0.002163291443139315085170126807 0 0 0 0 
2413000000.0000000000 0.166204929351806612869424384371 -0.043601367622613906860351562500 -0.000242917158175259801462450571 0.002391338348388671875000000000 0 0 0 0 
2413166666.6666665077 0.165749266743660000900106865629 -0.044591531157493591308593750000 -0.000147634884342551204279223032 0.002458238042891025976893759619 0 0 0 0 
2413333333.3333334923 0.165269479155540494064169365629 -0.045522179454565048217773437500 -0.000107369327452033798821033617 0.002582428278401494026184082031 0 0 0 0 
2413500000.0000000000 0.164655163884162902832031250000 -0.046520732343196868896484375000 0.000185879325727000805452623911 0.002656219992786645889282226562 0 0 0 0 
2413666666.6666665077 0.164124116301536587814169365629 -0.047622770071029663085937500000 0.000103369529824703904703417368 0.002757448470219970183131552588 0 0 0 0 
2413833333.3333334923 0.163574531674385098556356865629 -0.048608765006065368652343750000 0.000321616738801822120517176495 0.002980296732857822938206338037 0 0 0 0 
2414000000.0000000000 0.163070738315582303146200615629 -0.049611981958150856708567033593 0.000722793862223625183105468750 0.002948537003248929977416992188 0 0 0 0 
2414166666.6666665077 0.162494748830795288085937500000 -0.050609152764081961894948591407 0.001043030293658375956891704028 0.003111374098807572884800576318 0 0 0 0 
2414333333.3333334923 0.161960631608963012695312500000 -0.051692884415388107299804687500 0.000985547550953924655914306641 0.002996367635205388069152832031 0 0 0 0 
2414500000.0000000000 0.161695122718811007400674384371 -0.052823383361101150512695312500 0.001359301502816379070281982422 0.003042035037651658058166503906 0 0 0 0 
2414666666.6666665077 0.161056429147720309158486884371 -0.053601663559675216674804687500 0.001392038073390722057939838940 0.003184708533808588981628417969 0 0 0 0 
2414833333.3333334923 0.160844326019287109375000000000 -0.054847743362188339233398437500 0.001479237573221326091169047778 0.003093347186222672896144247900 0 0 0 0 
2415000000.0000000000 0.160402700304985101897869981258 -0.055906105786561972881276716407 0.001859026728197932026506733472 0.002959004137665032906773232568 0 0 0 0 
2415166666.6666665077 0.160180449485778808593750000000 -0.057128261774778373027761091407 0.001849094638600945906398154150 0.002747352002188562913181923975 0 0 0 0 
2415333333.3333334923 0.160194829106330899337606865629 -0.058272931724786758422851562500 0.002155543770641088919398642432 0.002567495452240109009983681787 0 0 0 0 
2415500000.0000000000 0.159809276461601312835369981258 -0.059448517858982093120534528907 0.002320752479135990142822265625 0.002494654385372995896580361475 0 0 0 0 
2415666666.6666665077 0.159650325775146512130575615629 -0.060712531208991997455637346093 0.002475260291248559951782226562 0.002494446234777570204493857275 0 0 0 0 
2415833333.3333334923 0.159488856792450006683026231258 -0.061927489936351783061940778907 0.002138142706826328797581338037 0.002207241486757994131800986182 0 0 0 0 
2416000000.0000000000 0.159048885107040405273437500000 -0.063318416476249694824218750000 0.002699964912608265876770019531 0.001926473341882229068158793872 0 0 0 0 
2416166666.6666665077 0.159109190106391906738281250000 -0.064619302749633789062500000000 0.002482680603861809210536337744 0.001873956294730306105372763525 0 0 0 0 
2416333333.3333334923 0.158726587891578702071981865629 -0.065997011959552764892578125000 0.002501820912584662003758095850 0.001778463018126785971997905200 0 0 0 0 
2416500000.0000000000 0.158485338091850308517294365629 -0.067177198827266693115234375000 0.002518208231776953177211142432 0.001769540482200681946398090894 0 0 0 0 
2416666666.6666665077 0.158180490136146600921307481258 -0.068516731262207031250000000000 0.002513817278668283982517861475 0.001685060677118598981144570459 0 0 0 0 
2416833333.3333334923 0.158128008246421786209268134371 -0.069845415651798248291015625000 0.002527488628402351899387978662 0.001777066150680183930637978662 0 0 0 0 
2417000000.0000000000 0.157416775822639493087606865629 -0.071082845330238342285156250000 0.002409821143373847007751464844 0.001706297858618200042127299731 0 0 0 0 
2417166666.6666665077 0.157304033637046786209268134371 -0.072030656039714813232421875000 0.002581369364634155793430947412 0.001519605168141425089595175635 0 0 0 0 
2417333333.3333334923 0.156967222690582303146200615629 -0.073108829557895660400390625000 0.002586446702480316162109375000 0.001618972397409379915950156104 0 0 0 0 
2417500000.0000000000 0.156692072749137906173544365629 -0.074314743280410766601562500000 0.002721516881138085885288857568 0.001493101124651730060577392578 0 0 0 0 
2417666666.6666665077 0.156509146094322204589843750000 -0.075143538415431976318359375000 0.002823087852448225021362304688 0.001440042397007345936418842847 0 0 0 0 
2417833333.3333334923 0.156264439225196810623330634371 -0.076186820864677429199218750000 0.002978143049404025077819824219 0.001338271540589631037471152197 0 0 0 0 
2418000000.0000000000 0.156081259250640896896200615629 -0.077208869159221649169921875000 0.002850211691111325783970498193 0.001375208375975490050074911963 0 0 0 0 
2418166666.6666665077 0.155715122818946810623330634371 -0.077882558107376098632812500000 0.003050477942451835112330771338 0.001200882485136389949201274341 0 0 0 0 
2418333333.3333334923 0.155857771635055486481036268742 -0.078842140734195709228515625000 0.003327874699607491926905966650 0.001088145654648541970493935693 0 0 0 0 
2418500000.0000000000 0.155588567256927490234375000000 -0.079579152166843414306640625000 0.003203104482963680787327431787 0.000988658517599105834960937500 0 0 0 0 
2418666666.6666665077 0.155393645167350796798544365629 -0.080528132617473602294921875000 0.003342634532600640816929482568 0.000869160983711481094360351562 0 0 0 0 
2418833333.3333334923 0.155103802680969210525674384371 -0.081294670701026916503906250000 0.003444792237132788138148642432 0.000732957385480403900146484375 0 0 0 0 
2419000000.0000000000 0.154878407716751098632812500000 -0.081983216106891632080078125000 0.003586515551432967185974121094 0.000444872421212494373321533203 0 0 0 0 
2419166666.6666665077 0.154666662216186495681924384371 -0.082779698073863983154296875000 0.003485779976472259001490927588 0.000363746279617771506309509277 0 0 0 0 
2419333333.3333334923 0.154234409332275390625000000000 -0.083262681961059570312500000000 0.003551559755578637123107910156 0.000144853882375173297807416373 0 0 0 0 
2419500000.0000000000 0.154090672731399508377236884371 -0.083991102874279022216796875000 0.003525975393131374879124306787 -0.000175584966200403896257123404 0 0 0 0 
2419666666.6666665077 0.153940320014953613281250000000 -0.084638021886348724365234375000 0.003577290801331400871276855469 -0.000345306063536554574966430664 0 0 0 0 
2419833333.3333334923 0.153367966413497897049111884371 -0.085017301142215728759765625000 0.003427201183512806892395019531 -0.000424346362706273794174194336 0 0 0 0 
