# Version 1.00
#
freq[Hz];re:Trc1_S11;im:Trc1_S11;re:Trc2_S21;im:Trc2_S21;
2.400000000000000E+009;1.564093530178070E-001;6.039981544017792E-002;-2.262716880068183E-003;-2.743287943303585E-003;
2.400166666666667E+009;1.564934104681015E-001;5.870644748210907E-002;-2.291802549734712E-003;-2.693390240892768E-003;
2.400333333333334E+009;1.564625352621079E-001;5.659605562686920E-002;-2.472173422574997E-003;-2.660606522113085E-003;
2.400500000000000E+009;1.568482667207718E-001;5.460456758737564E-002;-2.475720597431064E-003;-2.546740695834160E-003;
2.400666666666667E+009;1.569154560565949E-001;5.256358161568642E-002;-2.572684548795223E-003;-2.525816205888987E-003;
2.400833333333334E+009;1.572515070438385E-001;5.055602267384529E-002;-2.554212231189013E-003;-2.472147112712264E-003;
2.401000000000000E+009;1.575728505849838E-001;4.841643199324608E-002;-2.649963134899736E-003;-2.333877375349402E-003;
2.401166666666667E+009;1.580988615751267E-001;4.633374512195587E-002;-2.743751741945744E-003;-2.356849843636155E-003;
2.401333333333334E+009;1.584495753049851E-001;4.423478618264198E-002;-2.750111278146505E-003;-2.240392146632075E-003;
2.401500000000000E+009;1.590684950351715E-001;4.212201759219170E-002;-2.925303531810641E-003;-2.086336258798838E-003;
2.401666666666667E+009;1.597006171941757E-001;4.025616869330406E-002;-2.798016415908933E-003;-2.087666885927320E-003;
2.401833333333334E+009;1.603533178567886E-001;3.833774104714394E-002;-2.932202070951462E-003;-1.901907729916275E-003;
2.402000000000000E+009;1.607513725757599E-001;3.643316030502319E-002;-2.814233303070068E-003;-2.023926237598062E-003;
2.402166666666667E+009;1.614133268594742E-001;3.437041491270065E-002;-2.895971760153770E-003;-2.003985224291682E-003;
2.402333333333334E+009;1.623772233724594E-001;3.290226310491562E-002;-3.098138375207782E-003;-1.955906627699733E-003;
2.402500000000000E+009;1.631958335638046E-001;3.110177256166935E-002;-3.001572331413627E-003;-1.774347387254238E-003;
2.402666666666667E+009;1.640757024288178E-001;2.954988926649094E-002;-3.012249013409019E-003;-1.821244019083679E-003;
2.402833333333334E+009;1.648508310317993E-001;2.799296565353870E-002;-3.047088859602809E-003;-1.723547582514584E-003;
2.403000000000000E+009;1.657539159059525E-001;2.669573947787285E-002;-3.111711936071515E-003;-1.651099999435246E-003;
2.403166666666667E+009;1.668579578399658E-001;2.540389820933342E-002;-3.337074769660831E-003;-1.602817792445421E-003;
2.403333333333334E+009;1.677204966545105E-001;2.406313456594944E-002;-3.356785047799349E-003;-1.458669430576265E-003;
2.403500000000000E+009;1.686291545629501E-001;2.282231114804745E-002;-3.493576077744365E-003;-1.601815572939813E-003;
2.403666666666667E+009;1.695589572191238E-001;2.161256037652493E-002;-3.502610838040710E-003;-1.412344397976995E-003;
2.403833333333334E+009;1.708507239818573E-001;2.063723281025887E-002;-3.552697133272886E-003;-1.360118505544961E-003;
2.404000000000000E+009;1.716068983078003E-001;1.961346715688705E-002;-3.737114369869232E-003;-1.196706434711814E-003;
2.404166666666667E+009;1.724310964345932E-001;1.881446130573750E-002;-3.766243811696768E-003;-1.162966247648001E-003;
2.404333333333334E+009;1.734099835157394E-001;1.796982437372208E-002;-3.789325477555394E-003;-1.150210970081389E-003;
2.404500000000000E+009;1.740766912698746E-001;1.716185733675957E-002;-3.842960111796856E-003;-1.058868831023574E-003;
2.404666666666667E+009;1.749567687511444E-001;1.663608476519585E-002;-3.833699505776167E-003;-9.093339322134852E-004;
2.404833333333334E+009;1.757076382637024E-001;1.606999337673187E-002;-3.981668967753649E-003;-7.563115796074271E-004;
2.405000000000000E+009;1.764134764671326E-001;1.556172501295805E-002;-4.078805446624756E-003;-6.086406065151095E-004;
2.405166666666667E+009;1.770790964365006E-001;1.506845653057098E-002;-4.095287993550301E-003;-5.075235967524350E-004;
2.405333333333334E+009;1.778288036584854E-001;1.453034672886133E-002;-4.002145957201719E-003;-4.816505243070424E-004;
2.405500000000000E+009;1.781498640775681E-001;1.442401856184006E-002;-3.997961990535259E-003;-4.217512905597687E-004;
2.405666666666667E+009;1.786970794200897E-001;1.404508668929339E-002;-4.198302049189806E-003;-2.787512494251132E-004;
2.405833333333334E+009;1.789119839668274E-001;1.368505228310823E-002;-4.124324303120375E-003;-8.817706111585721E-005;
2.406000000000000E+009;1.794129163026810E-001;1.331893075257540E-002;-4.151499830186367E-003;-1.967472344404087E-004;
2.406166666666667E+009;1.793813705444336E-001;1.319956406950951E-002;-4.021431785076857E-003;1.011767744785175E-004;
2.406333333333334E+009;1.796860247850418E-001;1.288681197911501E-002;-4.259309731423855E-003;2.732738503254950E-004;
2.406500000000000E+009;1.797732412815094E-001;1.251148618757725E-002;-4.247132223099470E-003;3.455173573456705E-004;
2.406666666666667E+009;1.796656101942062E-001;1.232737209647894E-002;-4.134883172810078E-003;4.225351440254599E-004;
2.406833333333334E+009;1.796990782022476E-001;1.189646869897842E-002;-4.120100755244494E-003;6.272158352658153E-004;
2.407000000000000E+009;1.795559078454971E-001;1.156201120465994E-002;-4.225519485771656E-003;7.016221061348915E-004;
2.407166666666667E+009;1.794288158416748E-001;1.116948854178190E-002;-4.098124336451292E-003;9.675417677499354E-004;
2.407333333333334E+009;1.789327412843704E-001;1.060470193624497E-002;-4.110353998839855E-003;1.031197258271277E-003;
2.407500000000000E+009;1.785135120153427E-001;1.011841930449009E-002;-4.054243210703135E-003;1.104133320041001E-003;
2.407666666666667E+009;1.782666891813278E-001;9.550761431455612E-003;-3.950200043618679E-003;1.208108034916222E-003;
2.407833333333334E+009;1.775467097759247E-001;8.685348555445671E-003;-4.075092729181051E-003;1.248447573743761E-003;
2.408000000000000E+009;1.771161854267120E-001;8.012774400413036E-003;-3.887511091306806E-003;1.421815250068903E-003;
2.408166666666667E+009;1.764090508222580E-001;7.300090510398150E-003;-3.910180181264877E-003;1.587867271155119E-003;
2.408333333333334E+009;1.761433184146881E-001;6.338077131658793E-003;-3.831737907603383E-003;1.708085648715496E-003;
2.408500000000000E+009;1.753912419080734E-001;5.236038938164711E-003;-3.783479100093246E-003;1.640433212742209E-003;
2.408666666666667E+009;1.746176779270172E-001;4.122957121580839E-003;-3.821334103122354E-003;1.801829319447279E-003;
2.408833333333334E+009;1.738168001174927E-001;2.954105380922556E-003;-3.730682423338294E-003;1.936187036335468E-003;
2.409000000000000E+009;1.732495427131653E-001;1.796412281692028E-003;-3.535723546519876E-003;1.982374349609017E-003;
2.409166666666667E+009;1.725756525993347E-001;4.466331738512963E-004;-3.410828299820423E-003;2.044960390776396E-003;
2.409333333333334E+009;1.720267087221146E-001;-1.205409527756274E-003;-3.457596525549889E-003;2.023425651714206E-003;
2.409500000000000E+009;1.713083088397980E-001;-2.644460881128907E-003;-3.602136392146349E-003;2.114940900355578E-003;
2.409666666666667E+009;1.706829071044922E-001;-4.287655930966139E-003;-3.487333189696074E-003;2.269078511744738E-003;
2.409833333333334E+009;1.699651777744293E-001;-5.783414468169212E-003;-3.441873006522656E-003;2.173001877963543E-003;
2.410000000000000E+009;1.695615798234940E-001;-7.576866075396538E-003;-3.468163544312120E-003;2.267751144245267E-003;
2.410166666666667E+009;1.689446717500687E-001;-9.261285886168480E-003;-3.420265158638358E-003;2.343198517337441E-003;
2.410333333333334E+009;1.686180680990219E-001;-1.098934374749661E-002;-3.302169032394886E-003;2.435343572869897E-003;
2.410500000000000E+009;1.681508719921112E-001;-1.286492403596640E-002;-3.263185266405344E-003;2.580225700512528E-003;
2.410666666666667E+009;1.677621752023697E-001;-1.478404272347689E-002;-3.303306410089135E-003;2.558663953095675E-003;
2.410833333333334E+009;1.676477044820786E-001;-1.655014604330063E-002;-3.330743638798595E-003;2.595878671854734E-003;
2.411000000000000E+009;1.674304306507111E-001;-1.861327886581421E-002;-3.266524523496628E-003;2.691076137125492E-003;
2.411166666666667E+009;1.673250645399094E-001;-2.055961079895496E-002;-3.408730495721102E-003;2.776950597763062E-003;
2.411333333333334E+009;1.669805645942688E-001;-2.257597632706165E-002;-3.243957646191120E-003;3.022379009053111E-003;
2.411500000000000E+009;1.673989892005920E-001;-2.453919500112534E-002;-3.212948096916080E-003;3.079414833337069E-003;
2.411666666666667E+009;1.674870997667313E-001;-2.637474238872528E-002;-3.340923693031073E-003;3.267273772507906E-003;
2.411833333333334E+009;1.677538454532623E-001;-2.839403226971626E-002;-3.139304928481579E-003;3.170797368511558E-003;
2.412000000000000E+009;1.679107397794724E-001;-3.033824637532234E-002;-3.010100917890668E-003;3.270313842222095E-003;
2.412166666666667E+009;1.681730300188065E-001;-3.210949152708054E-002;-3.013806883245707E-003;3.531335853040218E-003;
2.412333333333334E+009;1.687938868999481E-001;-3.386960923671722E-002;-2.987282816320658E-003;3.648030105978251E-003;
2.412500000000000E+009;1.691763848066330E-001;-3.550900146365166E-002;-2.943292725831270E-003;3.866898827254772E-003;
2.412666666666667E+009;1.696670055389404E-001;-3.768451511859894E-002;-2.854372141882777E-003;3.967192489653826E-003;
2.412833333333334E+009;1.701943874359131E-001;-3.924897685647011E-002;-2.723642624914646E-003;4.048380069434643E-003;
2.413000000000000E+009;1.708432585000992E-001;-4.075286164879799E-002;-2.627415582537651E-003;4.219574388116598E-003;
2.413166666666667E+009;1.713565140962601E-001;-4.232536628842354E-002;-2.486431272700429E-003;4.383362364023924E-003;
2.413333333333334E+009;1.720024943351746E-001;-4.392639175057411E-002;-2.562699140980840E-003;4.603926092386246E-003;
2.413500000000000E+009;1.726403385400772E-001;-4.536782205104828E-002;-2.318289130926132E-003;4.644648637622595E-003;
2.413666666666667E+009;1.733263283967972E-001;-4.672500118613243E-002;-2.254754072055221E-003;4.699134733527899E-003;
2.413833333333334E+009;1.737857460975647E-001;-4.809354245662689E-002;-2.135764574632049E-003;4.872176796197891E-003;
2.414000000000000E+009;1.745056062936783E-001;-4.932052642107010E-002;-1.864095334894955E-003;5.027913022786379E-003;
2.414166666666667E+009;1.752013266086578E-001;-5.036526173353195E-002;-1.707078889012337E-003;5.203872453421354E-003;
2.414333333333334E+009;1.758542656898499E-001;-5.143703520298004E-002;-1.626682817004621E-003;5.282613448798657E-003;
2.414500000000000E+009;1.764971911907196E-001;-5.227708443999291E-002;-1.278138486668468E-003;5.486586131155491E-003;
2.414666666666667E+009;1.768172532320023E-001;-5.313700810074806E-002;-1.094721141271293E-003;5.513668525964022E-003;
2.414833333333334E+009;1.772623956203461E-001;-5.409891903400421E-002;-1.029856968671084E-003;5.534452386200428E-003;
2.415000000000000E+009;1.776950061321259E-001;-5.454986914992333E-002;-6.861333386041224E-004;5.557829048484564E-003;
2.415166666666667E+009;1.781624406576157E-001;-5.530017614364624E-002;-4.691462672781199E-004;5.602405406534672E-003;
2.415333333333334E+009;1.784339398145676E-001;-5.595020204782486E-002;-2.690569381229579E-004;5.676113069057465E-003;
2.415500000000000E+009;1.786234974861145E-001;-5.628438666462898E-002;-1.285696343984455E-004;5.752305500209332E-003;
2.415666666666667E+009;1.787229031324387E-001;-5.661167576909065E-002;1.171200929093175E-004;5.729896947741509E-003;
2.415833333333334E+009;1.789246201515198E-001;-5.702254548668861E-002;2.975925453938544E-004;5.641976371407509E-003;
2.416000000000000E+009;1.786703020334244E-001;-5.734776332974434E-002;4.386857326608151E-004;5.612793378531933E-003;
2.416166666666667E+009;1.788298636674881E-001;-5.770770832896233E-002;7.155230850912631E-004;5.719419103115797E-003;
2.416333333333334E+009;1.784913390874863E-001;-5.782470107078552E-002;9.817795362323523E-004;5.864174105226994E-003;
2.416500000000000E+009;1.782094687223434E-001;-5.815761908888817E-002;1.125918468460441E-003;5.666790995746851E-003;
2.416666666666667E+009;1.776750087738037E-001;-5.821323767304421E-002;1.396146602928639E-003;5.652648396790028E-003;
2.416833333333334E+009;1.773806065320969E-001;-5.861010774970055E-002;1.646605785936117E-003;5.545090883970261E-003;
2.417000000000000E+009;1.766679286956787E-001;-5.893635377287865E-002;1.907170051708818E-003;5.596527829766274E-003;
2.417166666666667E+009;1.760315150022507E-001;-5.906617268919945E-002;2.008455805480480E-003;5.546383094042540E-003;
2.417333333333334E+009;1.752900332212448E-001;-5.914030224084854E-002;2.239442663267255E-003;5.322979763150215E-003;
2.417500000000000E+009;1.744806319475174E-001;-5.971936881542206E-002;2.465443918481469E-003;5.286182276904583E-003;
2.417666666666667E+009;1.736950427293778E-001;-5.981863662600517E-002;2.572669414803386E-003;5.214598961174488E-003;
2.417833333333334E+009;1.725684553384781E-001;-6.014050915837288E-002;2.745687263086438E-003;5.123717244714499E-003;
2.418000000000000E+009;1.714028418064117E-001;-6.069590151309967E-002;2.993844449520111E-003;4.907506518065929E-003;
2.418166666666667E+009;1.704051196575165E-001;-6.110582500696182E-002;3.134667873382568E-003;4.890204407274723E-003;
2.418333333333334E+009;1.695707738399506E-001;-6.166616454720497E-002;3.431592602282763E-003;4.734819754958153E-003;
2.418500000000000E+009;1.682175248861313E-001;-6.224865466356278E-002;3.487952519208193E-003;4.562796559184790E-003;
2.418666666666667E+009;1.671017706394196E-001;-6.300484389066696E-002;3.700011875480413E-003;4.360060207545757E-003;
2.418833333333334E+009;1.656614840030670E-001;-6.364177912473679E-002;3.709961194545031E-003;4.238590132445097E-003;
2.419000000000000E+009;1.644020378589630E-001;-6.426800042390823E-002;3.909353166818619E-003;4.106711596250534E-003;
2.419166666666667E+009;1.631389260292053E-001;-6.532192230224609E-002;3.949712496250868E-003;4.014431964606047E-003;
2.419333333333334E+009;1.616994887590408E-001;-6.593655794858933E-002;4.190586507320404E-003;3.835122566670179E-003;
2.419500000000000E+009;1.606292873620987E-001;-6.723458319902420E-002;4.285720176994801E-003;3.537313779816032E-003;
2.419666666666667E+009;1.595043390989304E-001;-6.835940480232239E-002;4.340722225606442E-003;3.513032337650657E-003;
2.419833333333334E+009;1.583364754915237E-001;-6.935738772153854E-002;4.423781763762236E-003;3.389605088159442E-003;
2.420000000000000E+009;1.573277562856674E-001;-7.047587633132935E-002;4.463602788746357E-003;3.058069618418813E-003;
2.420166666666667E+009;1.561654210090637E-001;-7.203057408332825E-002;4.666157532483339E-003;3.120235167443752E-003;
2.420333333333334E+009;1.552433073520660E-001;-7.328829169273377E-002;4.688391927629709E-003;2.736069727689028E-003;
2.420500000000000E+009;1.543640345335007E-001;-7.455892115831375E-002;4.622704815119505E-003;2.640457125380635E-003;
2.420666666666667E+009;1.534396260976791E-001;-7.607486844062805E-002;4.756950773298740E-003;2.362641273066402E-003;
2.420833333333334E+009;1.526039838790894E-001;-7.770412415266037E-002;4.792373161762953E-003;2.351809525862336E-003;
2.421000000000000E+009;1.518379449844360E-001;-7.925839722156525E-002;4.875319078564644E-003;2.133819973096252E-003;
2.421166666666667E+009;1.513660550117493E-001;-8.087485283613205E-002;4.874883685261011E-003;1.890002284198999E-003;
2.421333333333334E+009;1.507710069417954E-001;-8.262724429368973E-002;5.049625877290964E-003;1.715464983135462E-003;
2.421500000000000E+009;1.501559764146805E-001;-8.408805727958679E-002;4.910126328468323E-003;1.491417875513434E-003;
2.421666666666667E+009;1.498204469680786E-001;-8.586537837982178E-002;4.812969360500574E-003;1.339653157629073E-003;
2.421833333333334E+009;1.497855931520462E-001;-8.761596679687500E-002;4.898719023913145E-003;1.190699404105544E-003;
2.422000000000000E+009;1.493187248706818E-001;-8.927123248577118E-002;5.004798527806997E-003;1.183068845421076E-003;
2.422166666666667E+009;1.492022275924683E-001;-9.108083695173264E-002;4.861434921622276E-003;9.636027971282601E-004;
2.422333333333334E+009;1.493501812219620E-001;-9.267680346965790E-002;4.937988240271807E-003;8.196576964110136E-004;
2.422500000000000E+009;1.493152976036072E-001;-9.423277527093887E-002;4.802484996616840E-003;5.975545500405133E-004;
2.422666666666667E+009;1.493240147829056E-001;-9.600231796503067E-002;4.859961103647947E-003;5.401369417086244E-004;
2.422833333333334E+009;1.496639847755432E-001;-9.746892005205154E-002;4.806086886674166E-003;2.230356622021645E-004;
2.423000000000000E+009;1.498168557882309E-001;-9.908520430326462E-002;4.781610798090696E-003;1.941042719408870E-004;
2.423166666666667E+009;1.504074782133102E-001;-1.005904227495194E-001;4.746496677398682E-003;1.359139278065413E-004;
2.423333333333334E+009;1.508456468582153E-001;-1.019499003887177E-001;4.679340869188309E-003;-1.511794107500464E-004;
2.423500000000000E+009;1.511052101850510E-001;-1.033402755856514E-001;4.741664510220289E-003;-3.148511168546975E-004;
2.423666666666667E+009;1.515298485755920E-001;-1.047365590929985E-001;4.561926703900099E-003;-1.423085195710883E-004;
2.423833333333334E+009;1.521390378475189E-001;-1.061162501573563E-001;4.538637585937977E-003;-3.130680997855961E-004;
2.424000000000000E+009;1.526139378547669E-001;-1.072111800312996E-001;4.623172339051962E-003;-5.111107602715492E-004;
2.424166666666667E+009;1.530868858098984E-001;-1.082116663455963E-001;4.608808085322380E-003;-5.248429370112717E-004;
2.424333333333334E+009;1.537040174007416E-001;-1.092284247279167E-001;4.386847838759422E-003;-7.183025591075420E-004;
2.424500000000000E+009;1.542402803897858E-001;-1.104461476206780E-001;4.506331402808428E-003;-9.110841783694923E-004;
2.424666666666667E+009;1.548510640859604E-001;-1.109563037753105E-001;4.441771656274796E-003;-9.682516683824360E-004;
2.424833333333334E+009;1.550907939672470E-001;-1.118617281317711E-001;4.370906390249729E-003;-1.102800131775439E-003;
2.425000000000000E+009;1.555989384651184E-001;-1.126654669642448E-001;4.233149811625481E-003;-1.126583083532751E-003;
2.425166666666667E+009;1.558544635772705E-001;-1.133333891630173E-001;4.276820924133062E-003;-1.272490131668747E-003;
2.425333333333334E+009;1.563753783702850E-001;-1.138612627983093E-001;4.194878973066807E-003;-1.351235550828278E-003;
2.425500000000000E+009;1.566719412803650E-001;-1.145049631595612E-001;4.208364058285952E-003;-1.446694252081215E-003;
2.425666666666667E+009;1.568129062652588E-001;-1.149042695760727E-001;4.202597774565220E-003;-1.647538738325238E-003;
2.425833333333334E+009;1.568829417228699E-001;-1.152770817279816E-001;4.089415539056063E-003;-1.680613029748201E-003;
2.426000000000000E+009;1.570854634046555E-001;-1.157747879624367E-001;4.013397730886936E-003;-1.840107375755906E-003;
2.426166666666667E+009;1.571946144104004E-001;-1.160068809986115E-001;3.909119870513678E-003;-1.821817480958998E-003;
2.426333333333334E+009;1.569724678993225E-001;-1.161918044090271E-001;3.962891642004252E-003;-1.941290567629039E-003;
2.426500000000000E+009;1.569270044565201E-001;-1.163294240832329E-001;3.813618794083595E-003;-2.067533554509282E-003;
2.426666666666667E+009;1.568461805582047E-001;-1.164563968777657E-001;3.764591412618756E-003;-2.170903841033578E-003;
2.426833333333334E+009;1.563239395618439E-001;-1.166150718927383E-001;3.694301005452871E-003;-2.307492541149259E-003;
2.427000000000000E+009;1.559011936187744E-001;-1.168095842003822E-001;3.565018298104405E-003;-2.301128813996911E-003;
2.427166666666667E+009;1.554092615842819E-001;-1.167173981666565E-001;3.534844378009439E-003;-2.462331671267748E-003;
2.427333333333334E+009;1.547356247901917E-001;-1.170952692627907E-001;3.546937368810177E-003;-2.594129182398319E-003;
2.427500000000000E+009;1.540751606225967E-001;-1.172157824039459E-001;3.412104910239577E-003;-2.740329829975963E-003;
2.427666666666667E+009;1.532079875469208E-001;-1.173567324876785E-001;3.412661608308554E-003;-2.666078740730882E-003;
