# Version 1.00
#
freq[Hz];re:Trc1_S11;im:Trc1_S11;re:Trc2_S21;im:Trc2_S21;
2.400000000000000E+009;1.566308140754700E-001;1.060211136937141E-001;2.230450976639986E-003;-3.337450034450740E-004;
2.400166666666667E+009;1.567031294107437E-001;1.035388633608818E-001;2.259053988382220E-003;-6.280338857322931E-004;
2.400333333333334E+009;1.569415777921677E-001;1.013953313231468E-001;2.552797086536884E-003;-7.630661712028086E-004;
2.400500000000000E+009;1.572150439023972E-001;9.878665953874588E-002;2.479707822203636E-003;-1.059124944731593E-003;
2.400666666666667E+009;1.574465483427048E-001;9.662020951509476E-002;2.469831611961126E-003;-1.174598233774304E-003;
2.400833333333334E+009;1.576540917158127E-001;9.385199844837189E-002;2.336263889446855E-003;-1.442907494492829E-003;
2.401000000000000E+009;1.580020934343338E-001;9.119604527950287E-002;2.290375530719757E-003;-1.725305803120136E-003;
2.401166666666667E+009;1.582774668931961E-001;8.857759833335877E-002;2.306237816810608E-003;-1.842281431891024E-003;
2.401333333333334E+009;1.586455851793289E-001;8.612111210823059E-002;2.225513570010662E-003;-2.175778383389115E-003;
2.401500000000000E+009;1.594167202711105E-001;8.340094983577728E-002;1.873924746178091E-003;-2.433212008327246E-003;
2.401666666666667E+009;1.598017215728760E-001;8.077009022235870E-002;1.714194891974330E-003;-2.601495245471597E-003;
2.401833333333334E+009;1.603982299566269E-001;7.807847112417221E-002;1.345413620583713E-003;-2.628679852932692E-003;
2.402000000000000E+009;1.611315757036209E-001;7.569546252489090E-002;1.169879222288728E-003;-2.694087335839868E-003;
2.402166666666667E+009;1.619408875703812E-001;7.324324548244476E-002;9.335947106592357E-004;-2.739022485911846E-003;
2.402333333333334E+009;1.629871726036072E-001;7.082857936620712E-002;5.355982575565577E-004;-2.598702907562256E-003;
2.402500000000000E+009;1.640076339244843E-001;6.852284818887711E-002;5.103237344883382E-004;-2.549075055867434E-003;
2.402666666666667E+009;1.650468558073044E-001;6.630691140890122E-002;1.903900847537443E-004;-2.657697070389986E-003;
2.402833333333334E+009;1.663063615560532E-001;6.399632245302200E-002;2.740104391705245E-004;-2.328400965780020E-003;
2.403000000000000E+009;1.675443947315216E-001;6.159764900803566E-002;6.412269431166351E-005;-2.296746708452702E-003;
2.403166666666667E+009;1.692209392786026E-001;5.977292358875275E-002;2.503124596842099E-005;-2.176109002903104E-003;
2.403333333333334E+009;1.704161316156387E-001;5.773674324154854E-002;9.701919043436647E-005;-2.209962112829089E-003;
2.403500000000000E+009;1.718751490116119E-001;5.576498433947563E-002;1.729014729789924E-005;-2.102585975080729E-003;
2.403666666666667E+009;1.736269295215607E-001;5.392230674624443E-002;-2.046041299763601E-005;-1.985439797863364E-003;
2.403833333333334E+009;1.749904453754425E-001;5.212278664112091E-002;-1.359181769657880E-004;-2.011351520195603E-003;
2.404000000000000E+009;1.762854605913162E-001;5.033310502767563E-002;3.733534322236665E-005;-1.942795235663652E-003;
2.404166666666667E+009;1.778063923120499E-001;4.909495636820793E-002;-4.910197458229959E-005;-1.998648047447205E-003;
2.404333333333334E+009;1.791643202304840E-001;4.762333631515503E-002;-7.320856821024790E-005;-2.001427346840501E-003;
2.404500000000000E+009;1.805925220251083E-001;4.616473615169525E-002;1.480138780607376E-005;-2.113819587975740E-003;
2.404666666666667E+009;1.818732172250748E-001;4.517041519284248E-002;-2.085313899442554E-004;-2.168958075344563E-003;
2.404833333333334E+009;1.833403855562210E-001;4.404227435588837E-002;-2.153178356820718E-004;-2.267566043883562E-003;
2.405000000000000E+009;1.843509227037430E-001;4.328826442360878E-002;-3.740167012438178E-004;-2.585019450634718E-003;
2.405166666666667E+009;1.856709420681000E-001;4.251185804605484E-002;-5.309639382176101E-004;-2.357482211664319E-003;
2.405333333333334E+009;1.868451684713364E-001;4.190468043088913E-002;-5.618606228381395E-004;-2.518955385312438E-003;
2.405500000000000E+009;1.880207359790802E-001;4.121941700577736E-002;-8.847931167110801E-004;-2.359215402975678E-003;
2.405666666666667E+009;1.889803111553192E-001;4.084402322769165E-002;-1.022312091663480E-003;-2.556487219408155E-003;
2.405833333333334E+009;1.900627464056015E-001;4.047607630491257E-002;-1.087808050215244E-003;-2.281928202137351E-003;
2.406000000000000E+009;1.907965689897537E-001;4.012428596615791E-002;-1.502047874964774E-003;-2.276547951623797E-003;
2.406166666666667E+009;1.916527897119522E-001;3.974383324384689E-002;-1.648182980716229E-003;-2.099044388160110E-003;
2.406333333333334E+009;1.923632770776749E-001;3.967460989952087E-002;-1.727882423438132E-003;-2.025369089096785E-003;
2.406500000000000E+009;1.929822266101837E-001;3.934621065855026E-002;-1.899774768389761E-003;-1.973704434931278E-003;
2.406666666666667E+009;1.934789568185806E-001;3.926502913236618E-002;-2.004092326387763E-003;-1.759369159117341E-003;
2.406833333333334E+009;1.939290761947632E-001;3.911164775490761E-002;-2.031058073043823E-003;-1.576124574057758E-003;
2.407000000000000E+009;1.941466033458710E-001;3.914047777652741E-002;-2.148427767679095E-003;-1.333170919679105E-003;
2.407166666666667E+009;1.944995075464249E-001;3.880832716822624E-002;-2.039748942479491E-003;-1.153731835074723E-003;
2.407333333333334E+009;1.945105791091919E-001;3.874771296977997E-002;-2.179700182750821E-003;-1.127714174799621E-003;
2.407500000000000E+009;1.943660080432892E-001;3.854851797223091E-002;-2.238158369436860E-003;-6.736621726304293E-004;
2.407666666666667E+009;1.945348531007767E-001;3.826135769486427E-002;-2.000650158151984E-003;-6.473061512224376E-004;
2.407833333333334E+009;1.940791755914688E-001;3.798401355743408E-002;-2.168615115806460E-003;-6.642871885560453E-004;
2.408000000000000E+009;1.941372603178024E-001;3.753588721156120E-002;-1.844950136728585E-003;-3.373902291059494E-004;
2.408166666666667E+009;1.936032772064209E-001;3.719681873917580E-002;-1.940555521287024E-003;-3.786896413657814E-004;
2.408333333333334E+009;1.933128088712692E-001;3.654626756906509E-002;-1.993388868868351E-003;-1.102129390346818E-004;
2.408500000000000E+009;1.927790641784668E-001;3.601136803627014E-002;-1.717264414764941E-003;4.214635282551171E-006;
2.408666666666667E+009;1.924373805522919E-001;3.533185645937920E-002;-1.636293251067400E-003;7.079585338942707E-005;
2.408833333333334E+009;1.918871849775314E-001;3.449755162000656E-002;-1.556579140014947E-003;7.482102228095755E-005;
2.409000000000000E+009;1.910864561796188E-001;3.354395180940628E-002;-1.520281890407205E-003;2.259866014355794E-004;
2.409166666666667E+009;1.903299838304520E-001;3.231820464134216E-002;-1.276337541639805E-003;3.852479130728170E-005;
2.409333333333334E+009;1.895471513271332E-001;3.143395856022835E-002;-1.351020648144186E-003;9.453384336666204E-006;
2.409500000000000E+009;1.888399869203568E-001;3.018798865377903E-002;-1.117513747885823E-003;1.830011897254735E-004;
2.409666666666667E+009;1.880317777395248E-001;2.864857949316502E-002;-1.030022162012756E-003;6.569490506080911E-005;
2.409833333333334E+009;1.873798668384552E-001;2.736525982618332E-002;-1.146531663835049E-003;2.598153951112181E-004;
2.410000000000000E+009;1.866455078125000E-001;2.575132995843887E-002;-7.994478801265359E-004;-7.481993816327304E-005;
2.410166666666667E+009;1.856849044561386E-001;2.366182580590248E-002;-8.900248794816434E-004;1.086878837668337E-004;
2.410333333333334E+009;1.850511133670807E-001;2.208102494478226E-002;-7.547143031843007E-004;-2.291856217198074E-004;
2.410500000000000E+009;1.840842962265015E-001;2.030949294567108E-002;-7.404325297102332E-004;-1.679420529399067E-004;
2.410666666666667E+009;1.836310327053070E-001;1.804385706782341E-002;-6.379499682225287E-004;-2.630854432936758E-004;
2.410833333333334E+009;1.831281781196594E-001;1.614693179726601E-002;-7.949924911372364E-004;-2.953061193693429E-004;
2.411000000000000E+009;1.823896169662476E-001;1.415314245969057E-002;-9.413219522684813E-004;-3.048001963179559E-004;
2.411166666666667E+009;1.819528788328171E-001;1.217896863818169E-002;-1.009989297017455E-003;-4.210415936540812E-004;
2.411333333333334E+009;1.816844642162323E-001;9.886062704026699E-003;-1.172890770249069E-003;-3.869475040119141E-004;
2.411500000000000E+009;1.813502311706543E-001;7.719865534454584E-003;-1.219035009853542E-003;-5.090064951218665E-004;
2.411666666666667E+009;1.812689751386643E-001;5.508144851773977E-003;-1.455674995668232E-003;-4.611481272149831E-004;
2.411833333333334E+009;1.810068339109421E-001;3.331471933051944E-003;-1.392782665789127E-003;-4.156648064963520E-004;
2.412000000000000E+009;1.812576204538345E-001;9.667734266258776E-004;-1.511287759058178E-003;-4.215433436911553E-004;
2.412166666666667E+009;1.813759505748749E-001;-1.047807163558900E-003;-1.526697189547122E-003;-1.672699872869998E-004;
2.412333333333334E+009;1.815470308065414E-001;-3.329013474285603E-003;-1.698142499662936E-003;-1.079512148862705E-004;
2.412500000000000E+009;1.819982677698135E-001;-5.645526107400656E-003;-1.624426455236971E-003;-1.186669614980929E-004;
2.412666666666667E+009;1.825601309537888E-001;-7.867495529353619E-003;-1.799643039703369E-003;1.316899142693728E-004;
2.412833333333334E+009;1.832094043493271E-001;-9.878086857497692E-003;-1.868641003966332E-003;1.446702663088217E-004;
2.413000000000000E+009;1.837531328201294E-001;-1.184595748782158E-002;-1.718926825560629E-003;3.053877444472164E-004;
2.413166666666667E+009;1.844454854726791E-001;-1.418248564004898E-002;-1.861218595877290E-003;6.281518144533038E-004;
2.413333333333334E+009;1.855714470148087E-001;-1.617487706243992E-002;-1.826561056077480E-003;5.639703013002873E-004;
2.413500000000000E+009;1.861870884895325E-001;-1.833630353212357E-002;-1.799927209503949E-003;7.295425166375935E-004;
2.413666666666667E+009;1.872432678937912E-001;-2.033024094998837E-002;-1.701247179880738E-003;8.687843801453710E-004;
2.413833333333334E+009;1.882899701595306E-001;-2.200013957917690E-002;-1.470792456530035E-003;9.085176279768348E-004;
2.414000000000000E+009;1.890615373849869E-001;-2.393556386232376E-002;-1.484513864852488E-003;1.077921595424414E-003;
2.414166666666667E+009;1.901971399784088E-001;-2.551110647618771E-002;-1.446912414394319E-003;1.037423848174512E-003;
2.414333333333334E+009;1.911427825689316E-001;-2.749100700020790E-002;-1.215836149640381E-003;1.136829843744636E-003;
2.414500000000000E+009;1.921527683734894E-001;-2.874245680868626E-002;-1.060534850694239E-003;1.213658950291574E-003;
2.414666666666667E+009;1.932006031274796E-001;-3.020752593874931E-002;-9.432958322577179E-004;1.203336869366467E-003;
2.414833333333334E+009;1.942012608051300E-001;-3.149570152163506E-002;-9.182213689200580E-004;1.083957613445818E-003;
2.415000000000000E+009;1.949864774942398E-001;-3.273937851190567E-002;-7.916181348264217E-004;9.262624080292881E-004;
2.415166666666667E+009;1.960299760103226E-001;-3.382553905248642E-002;-7.211659103631973E-004;9.503182373009622E-004;
2.415333333333334E+009;1.969928890466690E-001;-3.488439694046974E-002;-8.835795451886952E-004;9.807582246139646E-004;
2.415500000000000E+009;1.978871673345566E-001;-3.561735153198242E-002;-6.924653425812721E-004;9.551306138746440E-004;
2.415666666666667E+009;1.987352967262268E-001;-3.654804080724716E-002;-7.945058750919998E-004;9.390109335072339E-004;
2.415833333333334E+009;1.994487643241882E-001;-3.721892088651657E-002;-7.819611346349120E-004;8.410864975303412E-004;
2.416000000000000E+009;1.999442875385284E-001;-3.797924891114235E-002;-7.498051272705197E-004;7.962031522765756E-004;
2.416166666666667E+009;2.005680650472641E-001;-3.863596916198731E-002;-7.413903367705643E-004;8.474193164147437E-004;
2.416333333333334E+009;2.010405510663986E-001;-3.897081688046455E-002;-8.906853618100286E-004;9.600900229997933E-004;
2.416500000000000E+009;2.014018595218658E-001;-3.947101160883904E-002;-7.618630770593882E-004;9.654602617956698E-004;
2.416666666666667E+009;2.015805393457413E-001;-3.987619653344154E-002;-9.091102983802557E-004;9.916585404425860E-004;
2.416833333333334E+009;2.016315013170242E-001;-4.008842259645462E-002;-8.431856404058635E-004;1.193102914839983E-003;
2.417000000000000E+009;2.015455663204193E-001;-4.047046229243279E-002;-7.353742839768529E-004;1.222975901328027E-003;
2.417166666666667E+009;2.012719810009003E-001;-4.055087640881538E-002;-5.997757543809712E-004;1.289297943003476E-003;
2.417333333333334E+009;2.009411156177521E-001;-4.058137163519859E-002;-5.669708480127156E-004;1.332619809545577E-003;
2.417500000000000E+009;2.007221579551697E-001;-4.079012945294380E-002;-6.009693024680018E-004;1.338269677944481E-003;
2.417666666666667E+009;2.001087665557861E-001;-4.076568037271500E-002;-5.288749234750867E-004;1.376315951347351E-003;
2.417833333333334E+009;1.997327357530594E-001;-4.086451604962349E-002;-5.510237533599138E-004;1.398325664922595E-003;
2.418000000000000E+009;1.991764307022095E-001;-4.073287546634674E-002;-4.451285349205136E-004;1.467344118282199E-003;
2.418166666666667E+009;1.984129250049591E-001;-4.087941721081734E-002;-1.093432656489313E-004;1.342674251645804E-003;
2.418333333333334E+009;1.975596249103546E-001;-4.099633172154427E-002;-2.969210618175566E-004;1.340078655630350E-003;
2.418500000000000E+009;1.966591328382492E-001;-4.125787690281868E-002;-1.932793384185061E-004;1.342948409728706E-003;
2.418666666666667E+009;1.958173662424088E-001;-4.139636084437370E-002;-1.677498948993161E-004;1.281763543374836E-003;
2.418833333333334E+009;1.946840882301331E-001;-4.172569140791893E-002;-6.874289101688191E-005;1.297436072491109E-003;
2.419000000000000E+009;1.936000436544418E-001;-4.203759133815765E-002;-1.680203567957506E-004;1.167029608041048E-003;
2.419166666666667E+009;1.924801170825958E-001;-4.235745221376419E-002;-9.148930985247716E-005;1.129917334765196E-003;
2.419333333333334E+009;1.912778019905090E-001;-4.311094433069229E-002;-1.574566558701918E-004;1.054552732966840E-003;
2.419500000000000E+009;1.900829821825028E-001;-4.367646574974060E-002;-1.164037748822011E-004;1.160536543466151E-003;
2.419666666666667E+009;1.887115538120270E-001;-4.456470906734467E-002;-5.479631727212109E-005;1.177800702862442E-003;
2.419833333333334E+009;1.873485296964645E-001;-4.526252299547195E-002;-2.491694758646190E-004;1.140082487836480E-003;
2.420000000000000E+009;1.859261989593506E-001;-4.626080393791199E-002;-2.399772492935881E-004;1.238939003087580E-003;
2.420166666666667E+009;1.846590042114258E-001;-4.712513834238052E-002;-3.941391769330949E-004;1.253223628737032E-003;
2.420333333333334E+009;1.831109374761581E-001;-4.839028045535088E-002;-3.787351306527853E-004;1.314057735726237E-003;
2.420500000000000E+009;1.818569451570511E-001;-4.968680813908577E-002;-2.124347811331973E-004;1.395440660417080E-003;
2.420666666666667E+009;1.803989261388779E-001;-5.074023082852364E-002;-3.019813739228994E-004;1.534330309368670E-003;
2.420833333333334E+009;1.787948161363602E-001;-5.231663584709168E-002;-2.009968011407182E-004;1.677843974903226E-003;
2.421000000000000E+009;1.776810139417648E-001;-5.381424352526665E-002;-1.313175453105941E-004;1.720918575301766E-003;
2.421166666666667E+009;1.763940751552582E-001;-5.527517944574356E-002;-1.934118881763425E-005;1.856997143477202E-003;
2.421333333333334E+009;1.748097836971283E-001;-5.683078616857529E-002;2.064596483251080E-004;1.846776576712728E-003;
2.421500000000000E+009;1.738179177045822E-001;-5.854830145835877E-002;3.659326466731727E-004;2.002792432904244E-003;
2.421666666666667E+009;1.727463603019714E-001;-6.006662547588348E-002;5.095258820801973E-004;1.882394310086966E-003;
2.421833333333334E+009;1.717478632926941E-001;-6.197213381528854E-002;6.457720883190632E-004;1.941987778991461E-003;
2.422000000000000E+009;1.705320179462433E-001;-6.367041915655136E-002;9.277521166950464E-004;1.693452824838460E-003;
2.422166666666667E+009;1.698722839355469E-001;-6.576218456029892E-002;1.026684534735978E-003;1.656163367442787E-003;
2.422333333333334E+009;1.689255088567734E-001;-6.759925186634064E-002;9.681054507382214E-004;1.652837032452226E-003;
2.422500000000000E+009;1.680708676576614E-001;-6.916975229978561E-002;9.756380459293723E-004;1.531278481706977E-003;
2.422666666666667E+009;1.675624996423721E-001;-7.098245620727539E-002;1.322899363003671E-003;1.376061118207872E-003;
2.422833333333334E+009;1.669060736894608E-001;-7.281773537397385E-002;1.368055818602443E-003;1.282942015677691E-003;
2.423000000000000E+009;1.665804833173752E-001;-7.473639398813248E-002;1.298425602726638E-003;1.191096613183618E-003;
2.423166666666667E+009;1.660311073064804E-001;-7.639364898204804E-002;1.180295948870480E-003;1.045900397002697E-003;
2.423333333333334E+009;1.658394485712051E-001;-7.838527858257294E-002;1.193659263662994E-003;9.853320661932230E-004;
2.423500000000000E+009;1.656634509563446E-001;-7.978790998458862E-002;1.296552945859730E-003;9.891192894428968E-004;
2.423666666666667E+009;1.657342463731766E-001;-8.167643100023270E-002;1.223604776896536E-003;8.750341949053109E-004;
2.423833333333334E+009;1.654192060232163E-001;-8.315530419349670E-002;1.226293505169451E-003;5.875509232282639E-004;
2.424000000000000E+009;1.654506474733353E-001;-8.487197756767273E-002;1.282561570405960E-003;7.304016617126763E-004;
2.424166666666667E+009;1.654043495655060E-001;-8.630564808845520E-002;1.451948424801230E-003;7.803927292115986E-004;
2.424333333333334E+009;1.657053679227829E-001;-8.789739757776260E-002;1.328513142652810E-003;8.131055510602891E-004;
2.424500000000000E+009;1.658547520637512E-001;-8.925704658031464E-002;1.376476371660829E-003;7.011783309280872E-004;
2.424666666666667E+009;1.660318225622177E-001;-9.052485227584839E-002;1.456464175134897E-003;7.220089901238680E-004;
2.424833333333334E+009;1.664246767759323E-001;-9.180326014757156E-002;1.481947605498135E-003;6.659238133579493E-004;
2.425000000000000E+009;1.665658056735992E-001;-9.304331243038178E-002;1.525326399132609E-003;4.679324920289218E-004;
2.425166666666667E+009;1.666495203971863E-001;-9.404789656400681E-002;1.615131506696343E-003;3.995939623564482E-004;
2.425333333333334E+009;1.669348478317261E-001;-9.508683532476425E-002;1.528571126982570E-003;4.919421044178307E-004;
2.425500000000000E+009;1.672701984643936E-001;-9.609927237033844E-002;1.682838657870889E-003;3.147552779410034E-004;
2.425666666666667E+009;1.675227135419846E-001;-9.678743034601212E-002;1.557513256557286E-003;2.796324552036822E-004;
2.425833333333334E+009;1.677597910165787E-001;-9.765329957008362E-002;1.558807096444070E-003;2.884312198148109E-005;
2.426000000000000E+009;1.680335551500320E-001;-9.811224788427353E-002;1.636007335036993E-003;1.989540942304302E-005;
2.426166666666667E+009;1.682740002870560E-001;-9.878517687320709E-002;1.605068915523589E-003;-1.368082885164768E-004;
2.426333333333334E+009;1.682449877262116E-001;-9.953726083040237E-002;1.573028159327805E-003;-1.070403232006356E-004;
2.426500000000000E+009;1.685391813516617E-001;-9.985364973545075E-002;1.474370830692351E-003;-9.938961011357606E-005;
2.426666666666667E+009;1.687655746936798E-001;-1.003683134913445E-001;1.446261070668697E-003;-3.453646786510944E-004;
2.426833333333334E+009;1.689419895410538E-001;-1.006982326507568E-001;1.550802378915250E-003;-5.659811431542039E-004;
2.427000000000000E+009;1.688210666179657E-001;-1.011765822768211E-001;1.501620747148991E-003;-4.087172274012119E-004;
2.427166666666667E+009;1.687837839126587E-001;-1.013408377766609E-001;1.485220040194690E-003;-6.022790330462158E-004;
2.427333333333334E+009;1.686949580907822E-001;-1.017033085227013E-001;1.203186460770667E-003;-6.181129137985408E-004;
2.427500000000000E+009;1.685073375701904E-001;-1.022092476487160E-001;1.248359214514494E-003;-8.446809952147305E-004;
2.427666666666667E+009;1.680473834276199E-001;-1.024537682533264E-001;1.188772497698665E-003;-7.720629218965769E-004;
