# Hz S RI R 
2400000000.0000000000 0.155529901385307312011718750000 0.107255816459655803352113423443 -0.000899417675100266933441162109 0.005797924939543008804321289062 0 0 0 0 
2400166666.6666665077 0.155233353376388605315838731258 0.105014458298683194259481865629 -0.000805387506261467933654785156 0.005708843469619750976562500000 0 0 0 0 
2400333333.3333334923 0.155139058828353909591513115629 0.102637074887752505203408759371 -0.000424363941419869715541285382 0.005897697992622852325439453125 0 0 0 0 
2400500000.0000000000 0.155210807919502313811932481258 0.099913872778415679931640625000 -0.000296459445962682420581263409 0.005747656337916851043701171875 0 0 0 0 
2400666666.6666665077 0.155358329415321405608807481258 0.097321279346942901611328125000 -0.000100782708614133298397064209 0.005849394481629133224487304688 0 0 0 0 
2400833333.3333334923 0.155345574021339388748330634371 0.094310775399208068847656250000 0.000044129923480795703154017789 0.005683484487235546112060546875 0 0 0 0 
2401000000.0000000000 0.155590668320655794998330634371 0.091536134481430053710937500000 0.000293345336103811914294642316 0.005825389176607131958007812500 0 0 0 0 
2401166666.6666665077 0.155746623873710604568643134371 0.088804684579372406005859375000 0.000355984462657943422168177472 0.005656150635331869125366210938 0 0 0 0 
2401333333.3333334923 0.156013265252113286774005018742 0.085921257734298706054687500000 0.000631863600574433803558349609 0.005651758518069983396048261426 0 0 0 0 
2401500000.0000000000 0.156487196683883694747763115629 0.082901179790496826171875000000 0.000943746767006814479827880859 0.005594398360699415206909179688 0 0 0 0 
2401666666.6666665077 0.156947299838066101074218750000 0.080021396279335021972656250000 0.001116131083108484961866069263 0.005632799118757247924804687500 0 0 0 0 
2401833333.3333334923 0.157324239611625699142294365629 0.077204070985317230224609375000 0.001257920055650175051448202979 0.005468998104333878430838300488 0 0 0 0 
2402000000.0000000000 0.158156514167785589020098768742 0.074379116296768188476562500000 0.001411578035913408019422221606 0.005555476993322371569161699512 0 0 0 0 
2402166666.6666665077 0.159141719341278103927450615629 0.071773312985897064208984375000 0.001628646277822553894640278394 0.005271831527352333068847656250 0 0 0 0 
2402333333.3333334923 0.160066440701484707931356865629 0.068965718150138854980468750000 0.001835723174735903956769633716 0.005118192639201880368704511426 0 0 0 0 
2402500000.0000000000 0.161144495010376004318075615629 0.066375568509101867675781250000 0.002245696028694510893580771338 0.005004183389246463775634765625 0 0 0 0 
2402666666.6666665077 0.162311896681785611251669365629 0.063995964825153350830078125000 0.002315717050805687904357910156 0.004860920831561089429373456738 0 0 0 0 
2402833333.3333334923 0.163520842790603609939736884371 0.061415132135152816772460937500 0.002515159081667662100550986182 0.004707540385425090789794921875 0 0 0 0 
2403000000.0000000000 0.165045529603958102127236884371 0.059202302247285842895507812500 0.002600812818855046792271279443 0.004449890460819005966186523438 0 0 0 0 
2403166666.6666665077 0.166769117116928100585937500000 0.056960541754961006855051408593 0.002833526814356445832493447412 0.004194761160761117935180664062 0 0 0 0 
2403333333.3333334923 0.168171361088752802093182481258 0.054725669324398040771484375000 0.002904294757172464890720986475 0.004066515248268842697143554688 0 0 0 0 
2403500000.0000000000 0.169972315430641202071981865629 0.052596226334571838378906250000 0.003009615000337361855747841943 0.003838965669274330139160156250 0 0 0 0 
2403666666.6666665077 0.171811297535896301269531250000 0.050668139010667800903320312500 0.003114217659458518028259277344 0.003868393367156385941746377100 0 0 0 0 
2403833333.3333334923 0.173408761620521600921307481258 0.048715345561504357074777971093 0.002955670701339840888977050781 0.003355420427396893934962607275 0 0 0 0 
2404000000.0000000000 0.174695119261741610428018134371 0.046914298087358481670339216407 0.003258246695622802214381552588 0.003448122413828969001770019531 0 0 0 0 
2404166666.6666665077 0.176621779799461392501669365629 0.045562826097011573101003278907 0.003188761649653315977809286963 0.003165934700518846945521689307 0 0 0 0 
2404333333.3333334923 0.178069919347763089279013115629 0.044078998267650597309152971093 0.003213752759620546860935830225 0.003034075489267706871032714844 0 0 0 0 
2404500000.0000000000 0.179698422551155090332031250000 0.042332377284765236591379533593 0.003221369581297039985656738281 0.002892035758122802214381552588 0 0 0 0 
2404666666.6666665077 0.181599140167236300369424384371 0.041341505944728851318359375000 0.003270741784945129914524697412 0.002688153879716991944553994287 0 0 0 0 
2404833333.3333334923 0.183114066720008905608807481258 0.040359873324632651592214216407 0.003332933643832803206202841650 0.002606065943837165832519531250 0 0 0 0 
2405000000.0000000000 0.184490740299224909026776231258 0.039705175906419747089426408593 0.003340735100209712982177734375 0.002364043146371840996983193506 0 0 0 0 
2405166666.6666665077 0.186050668358802795410156250000 0.038860701024532318115234375000 0.003375571919605135917663574219 0.002182081807404756979701376807 0 0 0 0 
2405333333.3333334923 0.187433987855911310393963731258 0.038237057626247412944753278907 0.003412984777241944833042763818 0.001897531561553478024126362378 0 0 0 0 
2405500000.0000000000 0.188686773180961608886718750000 0.037736888974905007099192033593 0.003331692190840839905979775537 0.001814595772884785912157368237 0 0 0 0 
2405666666.6666665077 0.190026149153709411621093750000 0.037618912756443016742746721093 0.003338389331474899811985634912 0.001606954494491219954249716650 0 0 0 0 
2405833333.3333334923 0.191299304366111810882244981258 0.037144407629966742778737653907 0.003273155307397245927097939600 0.001509577501565217971801757812 0 0 0 0 
2406000000.0000000000 0.192242249846458407303018134371 0.036993373185396187519113908593 0.003251901594921946959254599463 0.001504787127487360997440957178 0 0 0 0 
2406166666.6666665077 0.193203568458557101150674384371 0.036819502711296081542968750000 0.003204758046194911003112792969 0.001234587514773010990740131909 0 0 0 0 
2406333333.3333334923 0.194006249308586092849893134371 0.036697894334793090820312500000 0.003093331120908259911778115381 0.001071015140041708946228027344 0 0 0 0 
2406500000.0000000000 0.194801241159439086914062500000 0.036856681108474731445312500000 0.002882488071918487982508993994 0.001061955816112458922742534106 0 0 0 0 
2406666666.6666665077 0.195453003048896789550781250000 0.036900956183671951293945312500 0.002970526460558176040649414062 0.001001518103294074969050742041 0 0 0 0 
2406833333.3333334923 0.195901989936828613281250000000 0.036922246217727661132812500000 0.002730841748416423797607421875 0.000874742807354778051376342773 0 0 0 0 
2407000000.0000000000 0.196137994527816800216513115629 0.037095233798027038574218750000 0.002768710255622864203212118994 0.000845127680804580450057983398 0 0 0 0 
2407166666.6666665077 0.196454852819442804534588731258 0.036920260637998580932617187500 0.002560025313869119124171591650 0.000754842476453632116317749023 0 0 0 0 
2407333333.3333334923 0.196313619613647488693075615629 0.037164200097322457050363908593 0.002527750562876462936401367188 0.000967856438364833593368530273 0 0 0 0 
2407500000.0000000000 0.196173846721649197677450615629 0.037188161164522171020507812500 0.002526088850572704835178994287 0.000712778652086853981018066406 0 0 0 0 
2407666666.6666665077 0.196272209286689813811932481258 0.037211615592241287231445312500 0.002407661871984601020812988281 0.000671235320623964071273803711 0 0 0 0 
2407833333.3333334923 0.195643261075019808670205634371 0.037088245153427117084543596093 0.002381109632551670074462890625 0.000716072448994964361190795898 0 0 0 0 
2408000000.0000000000 0.195700988173484802246093750000 0.036839030683040618896484375000 0.002235947642475367026088095557 0.000612291623838245868682861328 0 0 0 0 
2408166666.6666665077 0.194942906498908996582031250000 0.036709506064653396606445312500 0.002278721192851663069484091650 0.000571246026083827018737792969 0 0 0 0 
2408333333.3333334923 0.194525733590126009842080634371 0.036227036267518997192382812500 0.002172926673665643172023154150 0.000529824814293533563613891602 0 0 0 0 
2408500000.0000000000 0.193695247173309298416299384371 0.035991035401821143413503278907 0.002110553439706563949584960938 0.000711217871867120265960693359 0 0 0 0 
2408666666.6666665077 0.193187460303306607345419365629 0.035431951284408569335937500000 0.002205385593697429136988974463 0.000738687405828386653601491663 0 0 0 0 
2408833333.3333334923 0.192378759384155301193075615629 0.034715175628662109375000000000 0.002190487924963235855102539062 0.000743484997656196355819702148 0 0 0 0 
2409000000.0000000000 0.191326409578323392013388115629 0.033817701041698462749440778907 0.002056680154055356979370117188 0.000578529725316911935806274414 0 0 0 0 
2409166666.6666665077 0.190435424447059603592080634371 0.032905470579862601543386091407 0.002005150308832526206970214844 0.000572993885725736618041992188 0 0 0 0 
2409333333.3333334923 0.189427316188812311370526231258 0.031823515892028808593750000000 0.002016298240050673918483115088 0.000518113432917743921279907227 0 0 0 0 
2409500000.0000000000 0.188421055674552889724893134371 0.030812744051218029367467110546 0.001945410040207206986070942456 0.000744651595596224069595336914 0 0 0 0 
2409666666.6666665077 0.187461227178573608398437500000 0.029062714427709579467773437500 0.001847498118877411105512309497 0.000734109838958829641342163086 0 0 0 0 
2409833333.3333334923 0.186241433024406405349893134371 0.027783811092376708984375000000 0.001893609645776451067683554541 0.000752605788875371217727661133 0 0 0 0 
2410000000.0000000000 0.185284286737441988845986884371 0.026096804067492488515833670704 0.001885415171273052909253764575 0.000950335175730288028717041016 0 0 0 0 
2410166666.6666665077 0.184121459722518893142861884371 0.024160340428352359426478201954 0.001819311175495385906816792065 0.000888510083314031362533569336 0 0 0 0 
2410333333.3333334923 0.183299884200096102615518134371 0.022545086219906810415247733204 0.001941353781148791096330952222 0.000963142199907451868057250977 0 0 0 0 
2410500000.0000000000 0.182254895567894009689169365629 0.020433759316802028310755545704 0.001921557937748729965807270581 0.001087258104234934069989848560 0 0 0 0 
2410666666.6666665077 0.181301400065422113616619981258 0.018364600837230678903599923046 0.001889625797048211097717285156 0.001164097804576158957240439307 0 0 0 0 
2410833333.3333334923 0.180687278509139986892861884371 0.016039807349443439138392264454 0.002098823199048637910130166162 0.001238191383890808062312460791 0 0 0 0 
2411000000.0000000000 0.179945021867752102950888115629 0.013943958096206189936627772852 0.002018696628510951995849609375 0.001273256959393620924708701025 0 0 0 0 
2411166666.6666665077 0.179247081279754610916299384371 0.011655302718281749380091483204 0.002311087679117918014526367188 0.001265262719243765094159770435 0 0 0 0 
2411333333.3333334923 0.178664758801460293868856865629 0.009127351455390453338623046875 0.002240512985736132101771689307 0.001258947653695940971374511719 0 0 0 0 
2411500000.0000000000 0.178114175796508789062500000000 0.006771584972739219665527343750 0.002421219600364565849304199219 0.001440212246961892084834433447 0 0 0 0 
2411666666.6666665077 0.177896246314048794845419365629 0.004591455217450857162475585938 0.002517530461773275895359658350 0.001362345530651509978650737231 0 0 0 0 
2411833333.3333334923 0.177838191390037508865518134371 0.002072707982733846144435263525 0.002632481511682271957397460938 0.001463297056034206910374306787 0 0 0 0 
2412000000.0000000000 0.177988827228546087066973768742 -0.000399264128645882010459899902 0.002837747801095246834995888818 0.001224165898747741959215473706 0 0 0 0 
2412166666.6666665077 0.177954122424125699142294365629 -0.002852792618796228928806923975 0.003097214037552475929260253906 0.001222613849677145914790488135 0 0 0 0 
2412333333.3333334923 0.178116932511329706390057481258 -0.005243687424808740615844726562 0.003111921483650803999659872900 0.001194531214423478083369589697 0 0 0 0 
2412500000.0000000000 0.178615003824234008789062500000 -0.007626086007803679379934980176 0.003350252518430352210998535156 0.001087150187231600067735981519 0 0 0 0 
2412666666.6666665077 0.179091975092887906173544365629 -0.010196583345532420766810233204 0.003503485815599561171290732275 0.000760565744712948799133300781 0 0 0 0 
2412833333.3333334923 0.179775103926658602615518134371 -0.012378419749438759195347969921 0.003461106680333613915684365381 0.000744231918361037969589233398 0 0 0 0 
2413000000.0000000000 0.180568352341651888748330634371 -0.014897593297064299147636212695 0.003628115635365248160121298682 0.000561987049877643585205078125 0 0 0 0 
2413166666.6666665077 0.181301996111869812011718750000 -0.017051622271537780761718750000 0.003642274765297770933863974463 0.000224906412768177688121795654 0 0 0 0 
2413333333.3333334923 0.182464405894279507736044365629 -0.019383665174245830881138985546 0.003747029462829232215881347656 0.000125952326925471397951403207 0 0 0 0 
2413500000.0000000000 0.183243945240974398513955634371 -0.021653413772583011281946951954 0.003835151670500636100769042969 -0.000102343154139816801674427171 0 0 0 0 
2413666666.6666665077 0.184502989053726196289062500000 -0.023658579215407371520996093750 0.003787758061662315888645791162 -0.000341249018674716407626551495 0 0 0 0 
2413833333.3333334923 0.185511440038681002517861884371 -0.025781119242310520517369454296 0.003595986869186162948608398438 -0.000353792100213468074798583984 0 0 0 0 
2414000000.0000000000 0.186767548322677612304687500000 -0.027846680954098701477050781250 0.003693582024425268173217773438 -0.000709080137312412261962890625 0 0 0 0 
2414166666.6666665077 0.188098415732383700271768134371 -0.029685104265809059143066406250 0.003564918879419565200805664062 -0.000914529431611299514770507812 0 0 0 0 
2414333333.3333334923 0.189148068428039606292401231258 -0.031458213925361633300781250000 0.003582335077226161956787109375 -0.000907570647541433572769165039 0 0 0 0 
2414500000.0000000000 0.190561652183532687088174384371 -0.033051520586013787006418596093 0.003441564505919814109802246094 -0.001150497118942439989802695166 0 0 0 0 
2414666666.6666665077 0.191655457019805908203125000000 -0.034552183002233512187917341407 0.003358355723321437835693359375 -0.001318380935117601914646767725 0 0 0 0 
2414833333.3333334923 0.192791834473609896560830634371 -0.035940505564212799072265625000 0.003314594039693475203273154150 -0.001433711149729788086534809644 0 0 0 0 
2415000000.0000000000 0.194005027413368197342080634371 -0.037075087428092956542968750000 0.003262185025960206985473632812 -0.001568090752698481082916259766 0 0 0 0 
2415166666.6666665077 0.195183694362640408614950615629 -0.038285251706838607788085937500 0.003102554241195321083068847656 -0.001644143369048834063886332935 0 0 0 0 
2415333333.3333334923 0.196375384926795987228231865629 -0.039255689829587943340261091407 0.003065015655010939078090048682 -0.001703900285065174102783203125 0 0 0 0 
2415500000.0000000000 0.197417661547660799881143134371 -0.040040194988250732421875000000 0.002961898455396295027491904150 -0.001898288959637284062029194409 0 0 0 0 
2415666666.6666665077 0.198482900857925387283486884371 -0.040804281830787658691406250000 0.002668262459337710900547646631 -0.001933596911840141036389995044 0 0 0 0 
2415833333.3333334923 0.199198618531227111816406250000 -0.041374605149030692363698591407 0.002664178377017378807067871094 -0.002071562921628355979919433594 0 0 0 0 
2416000000.0000000000 0.200153782963752802093182481258 -0.041855804622173309326171875000 0.002628649584949017004725790869 -0.002217638539150356812718056787 0 0 0 0 
2416166666.6666665077 0.200683116912841796875000000000 -0.042511403560638427734375000000 0.002407540800049901008605957031 -0.002100796671584248976466513525 0 0 0 0 
2416333333.3333334923 0.201480299234390286544638115629 -0.042702749371528632427175153907 0.002226948272436856789829873193 -0.002318261191248894171473837744 0 0 0 0 
2416500000.0000000000 0.201930165290832491775674384371 -0.043053131550550460815429687500 0.002183265751227736906764365088 -0.002172270324081182913539267432 0 0 0 0 
2416666666.6666665077 0.202186718583106994628906250000 -0.043199773877859122539479841407 0.002068242756649851799011230469 -0.002194935921579598946812295068 0 0 0 0 
2416833333.3333334923 0.202325388789176913162393134371 -0.043258950114250183105468750000 0.001894094399176537990570068359 -0.002359893871471285820007324219 0 0 0 0 
2417000000.0000000000 0.202405452728271512130575615629 -0.043288689106702811504323591407 0.001831828849390148899675678784 -0.002159642288461327986476279150 0 0 0 0 
2417166666.6666665077 0.202000766992568997482138115629 -0.043132446706295013427734375000 0.001651971484534441991093300928 -0.002233457984402776198146201025 0 0 0 0 
2417333333.3333334923 0.201921135187149103362713731258 -0.042922880500555038452148437500 0.001508406247012316963793110425 -0.002207122044637798829319619287 0 0 0 0 
2417500000.0000000000 0.201613992452621487716513115629 -0.042942393571138381958007812500 0.001604071818292140960693359375 -0.002241643145680427984950400244 0 0 0 0 
2417666666.6666665077 0.201015800237655611892861884371 -0.042718831449747092510182966407 0.001500906422734260992762900244 -0.002108915941789745850803994287 0 0 0 0 
2417833333.3333334923 0.200615480542182894607705634371 -0.042480282485485076904296875000 0.001367346150800585963605571216 -0.002213036874309182167053222656 0 0 0 0 
2418000000.0000000000 0.199937134981155395507812500000 -0.042173352092504501342773437500 0.001360747613944113037706684644 -0.002171565080061554908752441406 0 0 0 0 
2418166666.6666665077 0.199053570628166198730468750000 -0.042092896997928619384765625000 0.001319953822530806064605712891 -0.002154581015929580168483115088 0 0 0 0 
2418333333.3333334923 0.198283568024635287185830634371 -0.041897673159837722778320312500 0.001243013306520879051805805737 -0.002148519037291408018824911963 0 0 0 0 
2418500000.0000000000 0.197210296988487188141192518742 -0.041896522045135498046875000000 0.001097046071663499095319438403 -0.002226096577942370934727334131 0 0 0 0 
2418666666.6666665077 0.196288064122200012207031250000 -0.041805006563663482666015625000 0.001135116908699274063110351562 -0.002118482487276196913478232275 0 0 0 0 
2418833333.3333334923 0.194955915212631197830361884371 -0.041958089917898178100585937500 0.001144765643402934074401855469 -0.002197567839175463156459189307 0 0 0 0 
2419000000.0000000000 0.193710595369338989257812500000 -0.042196612805128097534179687500 0.001053399173542856953264545972 -0.002130527514964342117309570312 0 0 0 0 
2419166666.6666665077 0.192542731761932400802450615629 -0.042556181550025939941406250000 0.000915002252440899610519409180 -0.002037524012848734855651855469 0 0 0 0 
2419333333.3333334923 0.190989434719085693359375000000 -0.042915597558021552349050153907 0.000820378889329731464385986328 -0.001968606375157833099365234375 0 0 0 0 
2419500000.0000000000 0.189556121826171902755575615629 -0.043290235102176673198659528907 0.000747543002944439649581909180 -0.001961702946573495864868164062 0 0 0 0 
2419666666.6666665077 0.187886953353881808181924384371 -0.044134486466646187519113908593 0.000566886446904391050338745117 -0.001966392388567328886744833838 0 0 0 0 
2419833333.3333334923 0.186186403036117609222088731258 -0.044801257550716400146484375000 0.000519046210683882236480712891 -0.001910205231979488892796181787 0 0 0 0 
2420000000.0000000000 0.184748336672782897949218750000 -0.045729655772447592998464216407 0.000442141143139451687962132587 -0.001843280042521655993220663916 0 0 0 0 
