# Hz S RI R 50
2400000000.0000000000 0.154304295778274508377236884371 0.106733448803424793571714701557 0.002900424180552362962010048975 -0.002824578201398253007176064600 0 0 0 0 
2400166666.6666665077 0.154908120632171603103799384371 0.104316599667072296142578125000 0.003075319575145841078517294775 -0.002384038874879478974583291162 0 0 0 0 
2400333333.3333334923 0.155039876699447604080361884371 0.101912632584571796745542826557 0.002939450088888407187220908057 -0.002397785894572734832763671875 0 0 0 0 
2400500000.0000000000 0.154851600527763394454794365629 0.099274009466171264648437500000 0.002716430462896823883056640625 -0.002110499190166593031642294775 0 0 0 0 
2400666666.6666665077 0.154861047863960293868856865629 0.096904471516609191894531250000 0.002843193244189023971557617188 -0.001817210228182374997379922021 0 0 0 0 
2400833333.3333334923 0.154893413186073303222656250000 0.093967527151107788085937500000 0.002860774751752614974975585938 -0.001726637827232480049133300781 0 0 0 0 
2401000000.0000000000 0.155196949839592007736044365629 0.091119483113288879394531250000 0.002979083219543098969700478662 -0.001529628410935401916503906250 0 0 0 0 
2401166666.6666665077 0.155076235532760592361611884371 0.088271498680114746093750000000 0.003276848932728170914890908350 -0.001533884787932038090349506909 0 0 0 0 
2401333333.3333334923 0.155536368489265386383380018742 0.085555762052536010742187500000 0.003451192053034902052638388525 -0.001286991988308727958081889575 0 0 0 0 
2401500000.0000000000 0.155933260917663601974325615629 0.082585446536540985107421875000 0.003548239124938846068141318213 -0.001459465245716274001477885669 0 0 0 0 
2401666666.6666665077 0.156361341476440401931924384371 0.079955935478210449218750000000 0.004177083261311054229736328125 -0.001198248821310698986053466797 0 0 0 0 
2401833333.3333334923 0.156782373785972595214843750000 0.076793193817138671875000000000 0.003851198358461260795593261719 -0.001829935819841920895817422021 0 0 0 0 
2402000000.0000000000 0.157695487141609191894531250000 0.074330210685729980468750000000 0.004003029782325029373168945312 -0.001209297915920614979387592847 0 0 0 0 
2402166666.6666665077 0.158474639058113098144531250000 0.071374766528606414794921875000 0.003690265351906418800354003906 -0.002517791464924811883213662256 0 0 0 0 
2402333333.3333334923 0.159627184271812411209268134371 0.068951420485973358154296875000 0.005137422587722539901733398438 -0.002621571067720652060267783057 0 0 0 0 
2402500000.0000000000 0.160905957221984891036825615629 0.066328451037406921386718750000 0.004959646146744489669799804688 -0.003581796307116746902465820312 0 0 0 0 
2402666666.6666665077 0.161700218915939303299111884371 0.064336270093917846679687500000 0.004949263297021389007568359375 -0.001812088768929243087768554688 0 0 0 0 
2402833333.3333334923 0.162871241569518987457598768742 0.061436332762241356586496721093 0.003855485934764146804809570312 -0.002645694650709629058837890625 0 0 0 0 
2403000000.0000000000 0.164718970656394986251669365629 0.059135839343070976947824846093 0.004546593409031630429739667676 -0.003921657335013151168823242188 0 0 0 0 
2403166666.6666665077 0.166158571839332608321981865629 0.056968454271554946899414062500 0.004318356513977050781250000000 -0.003453717567026615142822265625 0 0 0 0 
2403333333.3333334923 0.167766883969307001311932481258 0.054808292537927627563476562500 0.004196759779006242752075195312 -0.003683103015646338896510458838 0 0 0 0 
2403500000.0000000000 0.169520840048790005782919365629 0.052691549062728881835937500000 0.004123421385884284973144531250 -0.003735708538442850112915039062 0 0 0 0 
2403666666.6666665077 0.171185836195945711990518134371 0.050831519067287452007253278907 0.003874114714562892913818359375 -0.003919894807040691375732421875 0 0 0 0 
2403833333.3333334923 0.172934368252754211425781250000 0.048960134387016303325612653907 0.003776181023567914962768554688 -0.003978200722485780715942382812 0 0 0 0 
2404000000.0000000000 0.174464046955108587066973768742 0.046976540237665183330495466407 0.003586150240153073830845498193 -0.004028706345707178115844726562 0 0 0 0 
2404166666.6666665077 0.176217496395111111739950615629 0.045751426368951797485351562500 0.003651593578979372978210449219 -0.004213970154523850354666425488 0 0 0 0 
2404333333.3333334923 0.177894130349159212967080634371 0.044163547456264502788503278907 0.003360546659678221182582236182 -0.004309621173888444900512695312 0 0 0 0 
2404500000.0000000000 0.179623290896415710449218750000 0.042609289288520812988281250000 0.003591869026422501044032431494 -0.004514987580478191375732421875 0 0 0 0 
2404666666.6666665077 0.181135505437851007659588731258 0.041749551892280578613281250000 0.003360461210832000212428427588 -0.004596384242177009582519531250 0 0 0 0 
2404833333.3333334923 0.182887196540832491775674384371 0.040475673973560333251953125000 0.003390986705198884010314941406 -0.004737636540085077285766601562 0 0 0 0 
2405000000.0000000000 0.184244260191917391678018134371 0.039930969476699829101562500000 0.003250117646530271010157919775 -0.004911105148494243621826171875 0 0 0 0 
2405166666.6666665077 0.185744181275367709060830634371 0.039035931229591369628906250000 0.003006967948749661011936806787 -0.005175390746444463729858398438 0 0 0 0 
2405333333.3333334923 0.187059834599494906326455634371 0.038639336824417107318918596093 0.002875617705285549163818359375 -0.005390684586018323898315429688 0 0 0 0 
2405500000.0000000000 0.188435837626457186599893134371 0.038323607295751571655273437500 0.002677522366866468949558877100 -0.005470843520015478134155273438 0 0 0 0 
2405666666.6666665077 0.189757466316223089020098768742 0.037886586040258407592773437500 0.002526678610593080954310751807 -0.005635414272546768188476562500 0 0 0 0 
2405833333.3333334923 0.191056445240974398513955634371 0.037625782191753387451171875000 0.002291092649102210998535156250 -0.005839741323143243789672851562 0 0 0 0 
2406000000.0000000000 0.192053601145744295974893134371 0.037618573755025856708567033593 0.002182293683290482001063681494 -0.005798709113150835037231445312 0 0 0 0 
2406166666.6666665077 0.193129062652587890625000000000 0.037369798868894577026367187500 0.001952081220224499919294047778 -0.005902252160012722015380859375 0 0 0 0 
2406333333.3333334923 0.194025069475174005706463731258 0.037297528237104422832448591407 0.001693040248937905051587748950 -0.006060961633920670423025800488 0 0 0 0 
2406500000.0000000000 0.194773301482200594803018134371 0.037347279489040381694753278907 0.001524128718301654078839946216 -0.006225644145160914334768964551 0 0 0 0 
2406666666.6666665077 0.195395052433013888260049384371 0.037289261817932128906250000000 0.001299357623793184974073100513 -0.006171790882945060729980468750 0 0 0 0 
2406833333.3333334923 0.196053370833396911621093750000 0.037469115108251571655273437500 0.001094786217436193986179970850 -0.006303598638623952865600585938 0 0 0 0 
2407000000.0000000000 0.196259588003158597091513115629 0.037693750113248832012136091407 0.000735356297809630632400512695 -0.006271225400269032392019941113 0 0 0 0 
2407166666.6666665077 0.196595132350921603103799384371 0.037462823092937469482421875000 0.000621544197201728820800781250 -0.006283464375883340835571289062 0 0 0 0 
2407333333.3333334923 0.196660503745079012771768134371 0.037733267992734909057617187500 0.000330285722156986594200134277 -0.006314276717603206634521484375 0 0 0 0 
2407500000.0000000000 0.196543350815773010253906250000 0.037831801921129226684570312500 0.000245098199229687506526392804 -0.006385761778801679611206054688 0 0 0 0 
2407666666.6666665077 0.196477383375167902190838731258 0.037663418799638748168945312500 0.000124783022329211207941332407 -0.006215004716068506240844726562 0 0 0 0 
2407833333.3333334923 0.196036785840988186935263115629 0.037457197904586791992187500000 -0.000136404676595702794477185660 -0.006438303738832473754882812500 0 0 0 0 
2408000000.0000000000 0.195973023772239712814169365629 0.037416018545627587055246721093 -0.000333368167048320174217224121 -0.006406963802874088287353515625 0 0 0 0 
2408166666.6666665077 0.195360347628593389313067518742 0.037109956145286560058593750000 -0.000404139747843146324157714844 -0.006523293443024159345144941113 0 0 0 0 
2408333333.3333334923 0.194750115275382995605468750000 0.036670614033937447284738908593 -0.000751466490328311920166015625 -0.006447779946029186248779296875 0 0 0 0 
2408500000.0000000000 0.194206640124321011642294365629 0.036289107054471969604492187500 -0.000886851281393319368362426758 -0.006530315615236759185791015625 0 0 0 0 
2408666666.6666665077 0.193373903632164001464843750000 0.035822913050651550292968750000 -0.001117620849981904029846191406 -0.006466399878263474378103925488 0 0 0 0 
2408833333.3333334923 0.192619770765304593185263115629 0.035066574811935431743581403907 -0.001226205844432115988490439307 -0.006480265874415636062622070312 0 0 0 0 
2409000000.0000000000 0.191600009799003601074218750000 0.034177403897047042846679687500 -0.001496155280619859912275004810 -0.006564071867614985379690839551 0 0 0 0 
2409166666.6666665077 0.190608263015747098068075615629 0.033174373209476470947265625000 -0.001843827078118919892552041162 -0.006475171074271202087402343750 0 0 0 0 
2409333333.3333334923 0.189741060137748690506143134371 0.032244410365819931030273437500 -0.002075382275506854057312011719 -0.006341624539345502853393554688 0 0 0 0 
2409500000.0000000000 0.188614577054977389236611884371 0.030954051762819290161132812500 -0.002245128853246570067164755713 -0.006387650500982999801635742188 0 0 0 0 
2409666666.6666665077 0.187523514032363891601562500000 0.029453046619892120361328125000 -0.002485830802470446066615439307 -0.006275786086916924390310956738 0 0 0 0 
2409833333.3333334923 0.186366811394691495040731865629 0.028038522228598601604421247657 -0.002710080472752451896667480469 -0.006116315256804227828979492188 0 0 0 0 
2410000000.0000000000 0.185430899262428311446981865629 0.026396956294775009155273437500 -0.002961693797260522842407226562 -0.006021209061145783338064862988 0 0 0 0 
2410166666.6666665077 0.184397414326667813400106865629 0.024436650797724720346471016796 -0.003270511981099843978881835938 -0.005917710717767477035522460938 0 0 0 0 
2410333333.3333334923 0.183204859495162991622763115629 0.022922517731785770761510079296 -0.003396318992599844932556152344 -0.005762305110692977905273437500 0 0 0 0 
2410500000.0000000000 0.182343140244484003265057481258 0.020914632827043529855748360546 -0.003560732584446669058558798682 -0.005577641539275646209716796875 0 0 0 0 
2410666666.6666665077 0.181310817599296597579794365629 0.018663035705685619008997733204 -0.003944199997931718826293945312 -0.005579557269811630249023437500 0 0 0 0 
2410833333.3333334923 0.180785223841667203048544365629 0.016351616010069850576380545704 -0.003900798968970776037928915869 -0.005361482966691255569458007812 0 0 0 0 
2411000000.0000000000 0.179807171225547790527343750000 0.014161770232021810358991054102 -0.004181548487395048141479492188 -0.005195990670472384366507245801 0 0 0 0 
2411166666.6666665077 0.179236009716987609863281250000 0.012069999240338800602923008398 -0.004220038186758756637573242188 -0.005085531156510114669799804688 0 0 0 0 
2411333333.3333334923 0.178598895668983487228231865629 0.009471517987549304962158203125 -0.004512161016464233398437500000 -0.004900122061371803283691406250 0 0 0 0 
2411500000.0000000000 0.178311496973037691970986884371 0.007155935745686292648315429688 -0.004567508585751056671142578125 -0.004736749920994043350219726562 0 0 0 0 
2411666666.6666665077 0.178004011511802701095419365629 0.004754918161779642105102539062 -0.004603961016982793807983398438 -0.004750724881887435913085937500 0 0 0 0 
2411833333.3333334923 0.177776545286178588867187500000 0.002403596416115760803222656250 -0.004746993537992238998413085938 -0.004595781210809946060180664062 0 0 0 0 
2412000000.0000000000 0.177767902612686212737713731258 -0.000104685837868601097308020320 -0.004910226911306381225585937500 -0.004445798695087432861328125000 0 0 0 0 
2412166666.6666665077 0.177817553281784113128338731258 -0.002548504620790482001063681494 -0.004983665421605110168457031250 -0.004319369792938232421875000000 0 0 0 0 
2412333333.3333334923 0.177914649248123196700888115629 -0.005007493775337935361380292676 -0.005191733594983816146850585938 -0.004274931736290454864501953125 0 0 0 0 
2412500000.0000000000 0.178494051098823602874432481258 -0.007436296436935663223266601562 -0.005509492009878158569335937500 -0.004051619675010442733764648438 0 0 0 0 
2412666666.6666665077 0.178821161389350891113281250000 -0.009842966683208942413330078125 -0.005579065997153520584106445312 -0.003882193937897682189941406250 0 0 0 0 
2412833333.3333334923 0.179671913385391207595986884371 -0.012138686142861839639683907421 -0.005720724351704120635986328125 -0.003618132555857301192042685400 0 0 0 0 
2413000000.0000000000 0.180408030748367309570312500000 -0.014630581252276899165143397852 -0.005967615637928248319143964551 -0.003376057371497153802158974756 0 0 0 0 
2413166666.6666665077 0.181139335036277798751669365629 -0.016904368996620181692103201954 -0.006360901519656181335449218750 -0.003199819009751081900355673682 0 0 0 0 
2413333333.3333334923 0.182161733508110101897869981258 -0.019106870517134669912318045704 -0.006450059823691844940185546875 -0.002833873964846134185791015625 0 0 0 0 
2413500000.0000000000 0.183065995573997497558593750000 -0.021412882953882220876673514454 -0.006607997231185436248779296875 -0.002722830744460225105285644531 0 0 0 0 
2413666666.6666665077 0.184138894081115694900674384371 -0.023504344746470451354980468750 -0.006888879928737878799438476562 -0.002338280901312828063964843750 0 0 0 0 
2413833333.3333334923 0.185367420315742492675781250000 -0.025370879098772999155064766796 -0.006882149726152420043945312500 -0.001855360344052314975141215747 0 0 0 0 
2414000000.0000000000 0.186545372009277288238848768742 -0.027404237538576129568079764454 -0.006844519637525081634521484375 -0.001578868250362575054168701172 0 0 0 0 
2414166666.6666665077 0.187793821096420288085937500000 -0.029097855091094970703125000000 -0.006943753454834222793579101562 -0.001316966721788048961042094653 0 0 0 0 
2414333333.3333334923 0.188895300030708312988281250000 -0.030992360785603519784947579296 -0.006867789197713136672973632812 -0.000769285834394395351409912109 0 0 0 0 
2414500000.0000000000 0.190244421362876892089843750000 -0.032538697123527526855468750000 -0.006768302991986274719238281250 -0.000316612771712243611186426984 0 0 0 0 
2414666666.6666665077 0.191460922360420199295205634371 -0.033919252455234527587890625000 -0.006740057840943337354178144238 0.000029525908757932480761801072 0 0 0 0 
2414833333.3333334923 0.192637488245964105804119981258 -0.035362511873245239257812500000 -0.006523589137941598892211914062 0.000221006557694636312410077505 0 0 0 0 
2415000000.0000000000 0.193718448281288202483807481258 -0.036530420184135437011718750000 -0.006477621849626302719116210938 0.000550221360754221677780151367 0 0 0 0 
2415166666.6666665077 0.195091634988784790039062500000 -0.037568684667348861694335937500 -0.006216731388121843338012695312 0.001028163591399789073346782153 0 0 0 0 
2415333333.3333334923 0.196188598871231106857138115629 -0.038481917232275009155273437500 -0.006027826108038424578194902637 0.001088060438632965087890625000 0 0 0 0 
2415500000.0000000000 0.197331175208091708084268134371 -0.039256110787391662597656250000 -0.005746783223003149032592773438 0.001424354268237947983982705225 0 0 0 0 
2415666666.6666665077 0.198390170931816101074218750000 -0.040117818862199783325195312500 -0.005568061023950576782226562500 0.001588187064044177965876913916 0 0 0 0 
2415833333.3333334923 0.199260622262954711914062500000 -0.040729761123657226562500000000 -0.005505172535777091979980468750 0.001742710941471159891841269385 0 0 0 0 
2416000000.0000000000 0.200059846043586703201455634371 -0.041172239929437637329101562500 -0.005096561741083860397338867188 0.002023454057052731947657919775 0 0 0 0 
2416166666.6666665077 0.200897142291069003006143134371 -0.041709747165441513061523437500 -0.004868348129093647003173828125 0.001986189046874641938450478662 0 0 0 0 
2416333333.3333334923 0.201520472764968899825888115629 -0.042007934302091598510742187500 -0.004716157913208007812500000000 0.002189048798754810853245400537 0 0 0 0 
2416500000.0000000000 0.202046945691108703613281250000 -0.042249727994203567504882812500 -0.004574162885546684265136718750 0.002116964664310216903686523438 0 0 0 0 
2416666666.6666665077 0.202350750565528897384481865629 -0.042548526078462600708007812500 -0.004300060216337442398071289062 0.002126625739037991003749228369 0 0 0 0 
2416833333.3333334923 0.202476069331169100662393134371 -0.042522005736827850341796875000 -0.003976794891059398651123046875 0.002241270616650580926182412256 0 0 0 0 
2417000000.0000000000 0.202703401446342496017294365629 -0.042695142328739173198659528907 -0.004010735545307397842407226562 0.002288584131747484207153320312 0 0 0 0 
2417166666.6666665077 0.202361121773719787597656250000 -0.042519483715295791625976562500 -0.003775857854634522958042763818 0.002339029684662818908691406250 0 0 0 0 
2417333333.3333334923 0.202203646302223205566406250000 -0.042346458882093429565429687500 -0.003443831577897071838378906250 0.002334480872377752824070595850 0 0 0 0 
2417500000.0000000000 0.201984107494354303558026231258 -0.042423188686370849609375000000 -0.003438077401369810104370117188 0.002200078452005981965305947412 0 0 0 0 
2417666666.6666665077 0.201439350843429593185263115629 -0.042062133550643920898437500000 -0.003423418151214718818664550781 0.002238175598904490904567099463 0 0 0 0 
2417833333.3333334923 0.200948119163513211349325615629 -0.041927069425582892681081403907 -0.003110558027401566939112997900 0.002246273215860127969029091943 0 0 0 0 
2418000000.0000000000 0.200322240591049194335937500000 -0.041689056903123862529714216407 -0.003169477451592683792114257812 0.002168873092159628868103027344 0 0 0 0 
2418166666.6666665077 0.199567794799804687500000000000 -0.041593123227357857440988908593 -0.002897311467677354812622070312 0.002139925956726073785069131006 0 0 0 0 
2418333333.3333334923 0.198684886097907992263955634371 -0.041494052857160568237304687500 -0.002824483439326285882237099756 0.002018835162743926048278808594 0 0 0 0 
2418500000.0000000000 0.197679832577705411056356865629 -0.041424222290515899658203125000 -0.002630881499499082998988486182 0.001998624997213482856750488281 0 0 0 0 
2418666666.6666665077 0.196694463491439791580361884371 -0.041323017328977591777761091407 -0.002661139704287052154541015625 0.001916040200740098953247070312 0 0 0 0 
2418833333.3333334923 0.195438086986541803558026231258 -0.041499421000480651855468750000 -0.002551360987126826806309365381 0.001913954853080213069915771484 0 0 0 0 
2419000000.0000000000 0.194152817130088806152343750000 -0.041624274104833602905273437500 -0.002370720729231833977940224756 0.001834578113630414009094238281 0 0 0 0 
2419166666.6666665077 0.192857563495635986328125000000 -0.041967183351516716693918596093 -0.002368407789617776870727539062 0.001490731956437229893328022534 0 0 0 0 
2419333333.3333334923 0.191429823637008694747763115629 -0.042461875826120376586914062500 -0.002304483437910676002502441406 0.001349195721559226946589804541 0 0 0 0 
2419500000.0000000000 0.189879134297370910644531250000 -0.042990174144506447528879533593 -0.002483170712366700172424316406 0.001290529617108405070063925635 0 0 0 0 
2419666666.6666665077 0.188333600759506197830361884371 -0.043815668672323226928710937500 -0.002361611230298877196071005713 0.001027798163704574108123779297 0 0 0 0 
2419833333.3333334923 0.186708226799964904785156250000 -0.044342961162328720092773437500 -0.002488025696948171095607138525 0.000972389359958469867706298828 0 0 0 0 
