# Hz S RI R 50
2400000000.0000000000 0.168975770473480196853799384371 0.047174036502838141704518903907 -0.000845180940814316272735595703 0.001429028576239943938014365088 0 0 0 0 
2400166666.6666665077 0.169995650649070711990518134371 0.046208415180444717407226562500 -0.000825899536721408367156982422 0.001447707181796431975123740088 0 0 0 0 
2400333333.3333334923 0.170829504728317288497763115629 0.045060630887746810913085937500 -0.000438279443187639117240905762 0.001101513276807964064954448169 0 0 0 0 
2400500000.0000000000 0.171707496047019986251669365629 0.044041380286216742778737653907 -0.000638319004792720079421997070 0.000916466407943516969680786133 0 0 0 0 
2400666666.6666665077 0.172508105635643005371093750000 0.043163910508155822753906250000 -0.000326196226524189114570617676 0.000879611528944224119186401367 0 0 0 0 
2400833333.3333334923 0.173348411917686490157919365629 0.042330816388130187988281250000 -0.000419753429014235680729466571 0.000702110875863581895828247070 0 0 0 0 
2401000000.0000000000 0.174212560057640103439169365629 0.041586916893720626831054687500 -0.000453403161372989416122436523 0.000411935703596100211143493652 0 0 0 0 
2401166666.6666665077 0.174933210015296908279580634371 0.040723100304603576660156250000 -0.000512013037223368883132934570 0.000231071724556386497899732047 0 0 0 0 
2401333333.3333334923 0.175504431128501892089843750000 0.039981801062822341918945312500 -0.000527716823853552341461181641 0.000246993149630725383758544922 0 0 0 0 
2401500000.0000000000 0.176418960094451904296875000000 0.039428949356079101562500000000 -0.000761277857236564159393310547 0.000098780961707234382629394531 0 0 0 0 
2401666666.6666665077 0.176876604557037409026776231258 0.038688555359840393066406250000 -0.000782091694418340921401977539 0.000053113661124370992183685303 0 0 0 0 
2401833333.3333334923 0.177548438310623196700888115629 0.038203116506338119506835937500 -0.001021900679916142983677529443 -0.000085587336798198521137237549 0 0 0 0 
2402000000.0000000000 0.177730038762092590332031250000 0.037449676543474197387695312500 -0.001118049374781548976898193359 -0.000187218829523772001266479492 0 0 0 0 
2402166666.6666665077 0.178292557597160311599893134371 0.036834869533777236938476562500 -0.001258150674402713992475200122 -0.000097332522273063659667968750 0 0 0 0 
2402333333.3333334923 0.178699344396591186523437500000 0.036203112453222281719167341407 -0.001461021369323133988621377100 -0.000383928243536502122879028320 0 0 0 0 
2402500000.0000000000 0.179093942046165494064169365629 0.035399939864873893047292341407 -0.001539823133498430035234760815 -0.000324076565448194687992650165 0 0 0 0 
2402666666.6666665077 0.179021522402763394454794365629 0.034981023520231246948242187500 -0.001637274865061044909833598560 -0.000342767423717305118411463605 0 0 0 0 
2402833333.3333334923 0.179396972060203607757244981258 0.034123647958040237426757812500 -0.001795291318558156924006796729 -0.000248691852902993614047449933 0 0 0 0 
2403000000.0000000000 0.179424747824668912032919365629 0.033305693417787551879882812500 -0.002174697816371918158290243994 -0.000150516279973089694976806641 0 0 0 0 
2403166666.6666665077 0.179379180073738098144531250000 0.032425224781036376953125000000 -0.002414173679426312012913369287 -0.000152021064423024708598536359 0 0 0 0 
2403333333.3333334923 0.179240062832832308670205634371 0.031479202210903167724609375000 -0.002448642859235405921936035156 -0.000057524848671164356846401827 0 0 0 0 
2403500000.0000000000 0.178905621170997591873330634371 0.030560500919818881643275076954 -0.002563906135037540955784463037 0.000066981549025513231754302979 0 0 0 0 
2403666666.6666665077 0.178708523511886596679687500000 0.029574034735560420644739920704 -0.002801407594233750863316201318 0.000126542261568829390123644418 0 0 0 0 
2403833333.3333334923 0.178626358509063692947549384371 0.028442472219467159616490548046 -0.002930260496214032173156738281 0.000303297245409339720576685773 0 0 0 0 
2404000000.0000000000 0.178047075867652893066406250000 0.027381919324398040771484375000 -0.003181721549481153921840048682 0.000522762420587241649627685547 0 0 0 0 
2404166666.6666665077 0.177627429366111810882244981258 0.025917807593941688537597656250 -0.003202402032911777930018759619 0.000706368417013436555862426758 0 0 0 0 
2404333333.3333334923 0.177299112081527709960937500000 0.024679243564605709421178048046 -0.003417657688260077996494912256 0.001027392456308007023454975659 0 0 0 0 
2404500000.0000000000 0.176748260855674688141192518742 0.023516837507486339914342110546 -0.003625067882239819006678915869 0.001167314010672271034838032300 0 0 0 0 
2404666666.6666665077 0.176403209567070007324218750000 0.021910579875111579895019531250 -0.003427558112889527840855263818 0.001502215629443526051164936597 0 0 0 0 
2404833333.3333334923 0.175890877842903109451455634371 0.020605999976396560668945312500 -0.003512767842039465904235839844 0.001723774359561502933502197266 0 0 0 0 
2405000000.0000000000 0.175303727388382013518963731258 0.019063370302319530141810233204 -0.003587076906114817099330283057 0.002177847549319266839268349756 0 0 0 0 
2405166666.6666665077 0.174968495965003995040731865629 0.017466548830270770681361014454 -0.003425021888688207106349326025 0.002355596749112010002136230469 0 0 0 0 
2405333333.3333334923 0.174592956900596590896768134371 0.015718935057520869863489920704 -0.003412210149690508842468261719 0.002469918457791208787205361475 0 0 0 0 
2405500000.0000000000 0.174203917384147588531817518742 0.014080923050642010080357735546 -0.003371831262484192848205566406 0.002887283684685825867893838037 0 0 0 0 
2405666666.6666665077 0.173919767141342190841513115629 0.012368006631731990468958670704 -0.003129045013338326974156045068 0.003073955886065959930419921875 0 0 0 0 
2405833333.3333334923 0.173497408628463800628338731258 0.010647978633642200124720389454 -0.003028364619240165190455771338 0.003272286383435130119323730469 0 0 0 0 
2406000000.0000000000 0.173316031694412203689736884371 0.008637968450784683227539062500 -0.002883908571675419807434082031 0.003762362059205770926234579932 0 0 0 0 
2406166666.6666665077 0.172920763492584200760049384371 0.006877595093101263046264648438 -0.002653689822182058854344033350 0.003704790957272053198573447119 0 0 0 0 
2406333333.3333334923 0.172961577773094205001669365629 0.004729321692138910293579101562 -0.002445780206471682028529501807 0.003837920725345612005946493994 0 0 0 0 
2406500000.0000000000 0.172814443707466097732705634371 0.002790605882182716889622353662 -0.002346569439396262168884277344 0.004092666786164045333862304688 0 0 0 0 
2406666666.6666665077 0.172525420784950311858807481258 0.000916706107091158628463745117 -0.001918375259265304045436240088 0.004259090404957532882690429688 0 0 0 0 
2406833333.3333334923 0.172688439488411005218182481258 -0.001183421001769602081896137769 -0.001681304303929209926007914966 0.004413177724927663803100585938 0 0 0 0 
2407000000.0000000000 0.172856807708740206619424384371 -0.003278017975389956994297646631 -0.001565121114253998019574809497 0.004323353525251150131225585938 0 0 0 0 
2407166666.6666665077 0.173082873225212097167968750000 -0.005278933793306350708007812500 -0.001136242528446018912671733325 0.004430396482348442077636718750 0 0 0 0 
2407333333.3333334923 0.173278525471687289138955634371 -0.007521181832998991012573242188 -0.000967199448496103286743164062 0.004477771464735270413870527051 0 0 0 0 
2407500000.0000000000 0.173437207937240600585937500000 -0.009479934349656105041503906250 -0.000798240187577903270721435547 0.004731987137347459793090820312 0 0 0 0 
2407666666.6666665077 0.173882737755775507171307481258 -0.011446759104728700465192225977 -0.000429289735620841383934020996 0.004644128959625959396362304688 0 0 0 0 
2407833333.3333334923 0.174262776970863286774005018742 -0.013537185266613960266113281250 -0.000340765516739338582188206805 0.004436075221747159957885742188 0 0 0 0 
2408000000.0000000000 0.174644589424133300781250000000 -0.015636844560503959655761718750 0.000028718593966914340853691101 0.004531773272901774320120527051 0 0 0 0 
2408166666.6666665077 0.175103977322578402420205634371 -0.017484644427895549428919608204 0.000140554984682239592075347900 0.004413168877363204956054687500 0 0 0 0 
2408333333.3333334923 0.175662681460380609710369981258 -0.019580699503421779977818673046 0.000433108973084017580181676044 0.004367105197161436080932617188 0 0 0 0 
2408500000.0000000000 0.175973817706108093261718750000 -0.021549403667449951171875000000 0.000748395395930856466293334961 0.004311186727136374387259198926 0 0 0 0 
2408666666.6666665077 0.176408737897872897049111884371 -0.023435400798916820180872733204 0.000815963372588157653808593750 0.004117577336728572845458984375 0 0 0 0 
2408833333.3333334923 0.176803439855575589279013115629 -0.025038577616214748727818673046 0.000988378771580755710601806641 0.004024162888526917371267987988 0 0 0 0 
2409000000.0000000000 0.177198737859726007659588731258 -0.026606623083353039133092110546 0.000969055108726024627685546875 0.003979190718382596969604492188 0 0 0 0 
2409166666.6666665077 0.177748516201972989181356865629 -0.028348181396722790109654610546 0.001086310483515263037440634619 0.003806946799159049987792968750 0 0 0 0 
2409333333.3333334923 0.178161874413490295410156250000 -0.029628142714500430715540701954 0.001281400443986058018328022534 0.003598587587475777106044150244 0 0 0 0 
2409500000.0000000000 0.178515017032623291015625000000 -0.031082712113857269287109375000 0.001450179144740104892133403247 0.003625345649197698073146201025 0 0 0 0 
2409666666.6666665077 0.178912848234176607986611884371 -0.032284621149301528930664062500 0.001342937350273132107378315503 0.003541245590895413918736123193 0 0 0 0 
2409833333.3333334923 0.179321452975273104568643134371 -0.033321835100650787353515625000 0.001690813340246676965000771631 0.003440180327743291854858398438 0 0 0 0 
2410000000.0000000000 0.179657667875289889236611884371 -0.034217357635498046875000000000 0.001527967979200183911564492334 0.003385472577065228982212685693 0 0 0 0 
2410166666.6666665077 0.180083125829696710784588731258 -0.034996222704648971557617187500 0.001670404220931231975555419922 0.003366261254996060891392373193 0 0 0 0 
2410333333.3333334923 0.180521979928016690353231865629 -0.035841830074787139892578125000 0.001700837747193872928619384766 0.003298724070191382928135537256 0 0 0 0 
2410500000.0000000000 0.181023076176643399337606865629 -0.036616124212741851806640625000 0.001797149307094513936283730615 0.003192036645486950874328613281 0 0 0 0 
2410666666.6666665077 0.181295558810234097579794365629 -0.037375804036855697631835937500 0.001830692519433795972111367334 0.003237042343243956999537802588 0 0 0 0 
2410833333.3333334923 0.181561499834060696700888115629 -0.037888139486312873149831403907 0.001920774229802191040636372144 0.003244857303798199133632040869 0 0 0 0 
2411000000.0000000000 0.181828930974006708343182481258 -0.038463890552520751953125000000 0.002014374360442161993739462744 0.003165610367432237105128622900 0 0 0 0 
2411166666.6666665077 0.182140678167343111892861884371 -0.038932286202907562255859375000 0.002074521034955977959873818506 0.003094656392931938171386718750 0 0 0 0 
2411333333.3333334923 0.182098001241683987716513115629 -0.039257738739252090454101562500 0.002216910943388938903808593750 0.003160768654197454886195517432 0 0 0 0 
2411500000.0000000000 0.182107165455818204025106865629 -0.039954427629709236835520158593 0.002325998619198799133300781250 0.003074972191825509071350097656 0 0 0 0 
2411666666.6666665077 0.182324275374412508865518134371 -0.040170513093471527099609375000 0.002275184728205204010009765625 0.003130989614874124960658408057 0 0 0 0 
2411833333.3333334923 0.182165816426277188400106865629 -0.040364369750022888183593750000 0.002647160785272717909571982275 0.002961061662063003020045615088 0 0 0 0 
2412000000.0000000000 0.181838765740394592285156250000 -0.040894512087106711650807966407 0.002719667274504899978637695312 0.002934691729024053053614951025 0 0 0 0 
2412166666.6666665077 0.181418582797050503829794365629 -0.041385367512702941894531250000 0.002914207987487316131591796875 0.002778372028842567963841103662 0 0 0 0 
2412333333.3333334923 0.181145563721656799316406250000 -0.041582673788070678710937500000 0.002904832828789948983433388818 0.002684040693566203117370605469 0 0 0 0 
2412500000.0000000000 0.180518627166748102386151231258 -0.041683971881866462017018903907 0.002987130312249064011814736475 0.002759299939498304887058877100 0 0 0 0 
2412666666.6666665077 0.179983690381050109863281250000 -0.042379643768072128295898437500 0.003140423679724336104152060400 0.002477425150573254065272665869 0 0 0 0 
2412833333.3333334923 0.179331913590431213378906250000 -0.042685076594352722167968750000 0.003374456195160747008082724463 0.002347587840631604194641113281 0 0 0 0 
2413000000.0000000000 0.178583055734634399414062500000 -0.043072886765003197406809221093 0.003176088212057948112487792969 0.002347217872738838195800781250 0 0 0 0 
2413166666.6666665077 0.177513986825942993164062500000 -0.043596800416707992553710937500 0.003480451181530952887294150244 0.002144454047083855108973837744 0 0 0 0 
2413333333.3333334923 0.176522672176361111739950615629 -0.043938484042882919311523437500 0.003537015058100223974940634619 0.001978254411369562149047851562 0 0 0 0 
2413500000.0000000000 0.175591558218002291580361884371 -0.044536657631397247314453125000 0.003672367427498102188110351562 0.001923839212395251014112163013 0 0 0 0 
2413666666.6666665077 0.174735069274902288238848768742 -0.045014124363660812377929687500 0.003659593639895319938659667969 0.001817301497794687964795756763 0 0 0 0 
2413833333.3333334923 0.173494547605514498611611884371 -0.045683063566684722900390625000 0.003764783265069127082824707031 0.001688669319264590957044291919 0 0 0 0 
2414000000.0000000000 0.172094568610191400725994981258 -0.046345256268978118896484375000 0.003752475371584295792820595850 0.001535150338895618915557861328 0 0 0 0 
2414166666.6666665077 0.171061873435974093338174384371 -0.047025229781866066669504533593 0.003663643263280392126796103369 0.001272393972612916989567422021 0 0 0 0 
2414333333.3333334923 0.169897049665451105315838731258 -0.047769282013177871704101562500 0.003694465616717935042140341650 0.001317646005190908908843994141 0 0 0 0 
2414500000.0000000000 0.168802231550216702560263115629 -0.048684563487768173217773437500 0.003855817252770065827610634912 0.001113014179281889958622597803 0 0 0 0 
2414666666.6666665077 0.167523398995399502853231865629 -0.049627464264631271362304687500 0.003719447413459420204162597656 0.000862098706420511007308959961 0 0 0 0 
2414833333.3333334923 0.166145056486129788497763115629 -0.050836492329835891723632812500 0.003704272676259278817417763818 0.000930632755625993013381958008 0 0 0 0 
2415000000.0000000000 0.165049716830253601074218750000 -0.051801808178424842143972028907 0.003768331138417125181910849463 0.000713222019840031862258911133 0 0 0 0 
2415166666.6666665077 0.163771718740463312347088731258 -0.053205158561468117450754533593 0.003835298586636782126185751807 0.000752112362533807754516601562 0 0 0 0 
2415333333.3333334923 0.162845358252525301834268134371 -0.054586466401815407489817033593 0.003712895093485713005065917969 0.000711104192305356264114379883 0 0 0 0 
2415500000.0000000000 0.161603480577468899825888115629 -0.056021682918071746826171875000 0.003854919457808136940002441406 0.000457354966783896088600158691 0 0 0 0 
2415666666.6666665077 0.160452678799629211425781250000 -0.057471122592687606811523437500 0.003845412284135818915126181494 0.000590048264712095260620117188 0 0 0 0 
2415833333.3333334923 0.159488424658775301834268134371 -0.059119712561368942260742187500 0.003946893848478794097900390625 0.000422279088525101488262730731 0 0 0 0 
2416000000.0000000000 0.158211663365364102462606865629 -0.060842040926218032836914062500 0.003913082648068667325491620801 0.000360966485459357500076293945 0 0 0 0 
2416166666.6666665077 0.157520890235900906661825615629 -0.062607407569885253906250000000 0.004130809567868710431570722363 0.000180529474164359298631390982 0 0 0 0 
2416333333.3333334923 0.156469076871872003753338731258 -0.064404450356960296630859375000 0.004175113514065743360037519238 -0.000031365798349725082516670227 0 0 0 0 
2416500000.0000000000 0.155558496713638305664062500000 -0.066333346068859100341796875000 0.004168429877609015378470136426 0.000011239145351282789966071776 0 0 0 0 
2416666666.6666665077 0.154696971178054809570312500000 -0.068223945796489715576171875000 0.004270232748240233335013105176 -0.000143390701850876212120056152 0 0 0 0 
2416833333.3333334923 0.153972297906875610351562500000 -0.070274233818054199218750000000 0.004275812767446041107177734375 -0.000466185942059382796287536621 0 0 0 0 
2417000000.0000000000 0.153100982308387811858807481258 -0.072161972522735595703125000000 0.004318377934396266937255859375 -0.000456858222605660611956995831 0 0 0 0 
2417166666.6666665077 0.152518823742866488357705634371 -0.074061103165149688720703125000 0.004435731563717126846313476562 -0.000757755187805742025375366211 0 0 0 0 
2417333333.3333334923 0.152018234133720397949218750000 -0.075934179127216339111328125000 0.004425916820764541625976562500 -0.001187718939036130905151367188 0 0 0 0 
2417500000.0000000000 0.151455000042915288727130018742 -0.078066311776638031005859375000 0.004372598603367806348318769238 -0.000963860074989497661590576172 0 0 0 0 
2417666666.6666665077 0.151020839810371398925781250000 -0.079775109887123107910156250000 0.004388013388961553573608398438 -0.001356495195068418979644775391 0 0 0 0 
2417833333.3333334923 0.150615885853767395019531250000 -0.081784665584564208984375000000 0.004286482930183410644531250000 -0.001553953276015817902208637769 0 0 0 0 
2418000000.0000000000 0.150242179632186889648437500000 -0.083587966859340667724609375000 0.004348031245172023773193359375 -0.001954508246853948073146201025 0 0 0 0 
2418166666.6666665077 0.149966195225715609451455634371 -0.085120432078838348388671875000 0.004282298032194375991821289062 -0.002075862837955356077906943213 0 0 0 0 
2418333333.3333334923 0.149974569678306607345419365629 -0.086875699460506439208984375000 0.004131951835006474581246660449 -0.002186018507927656173706054688 0 0 0 0 
2418500000.0000000000 0.149652674794197110275106865629 -0.088477626442909240722656250000 0.004140824079513549804687500000 -0.002408409258350729942321777344 0 0 0 0 
2418666666.6666665077 0.149862095713615389724893134371 -0.090060964226722717285156250000 0.003963086754083633422851562500 -0.002775995992124081091639853369 0 0 0 0 
2418833333.3333334923 0.149614855647087097167968750000 -0.091545082628726959228515625000 0.003753682365640997886657714844 -0.002893971046432853178737021338 0 0 0 0 
2419000000.0000000000 0.149702847003936795333700615629 -0.092792272567749023437500000000 0.003541525918990374045131064307 -0.003078452078625559806823730469 0 0 0 0 
2419166666.6666665077 0.149910449981689508636151231258 -0.093996837735176086425781250000 0.003331318730488419966456747900 -0.003206833731383084817173623193 0 0 0 0 
2419333333.3333334923 0.149861142039299011230468750000 -0.094825282692909240722656250000 0.002943405183032155036926269531 -0.003428150201216340065002441406 0 0 0 0 
2419500000.0000000000 0.150224462151527404785156250000 -0.095931656658649444580078125000 0.003014276502653955979588173975 -0.003560170065611600875854492188 0 0 0 0 
2419666666.6666665077 0.150562018156051607986611884371 -0.096897222101688385009765625000 0.002841015346348286108729697119 -0.003659756388515233993530273438 0 0 0 0 
2419833333.3333334923 0.150722831487655611892861884371 -0.097495637834072113037109375000 0.002398413838818668885471963037 -0.003822095924988389015197753906 0 0 0 0 
