# Version 1.00
#
freq[Hz];re:Trc1_S11;im:Trc1_S11;re:Trc2_S21;im:Trc2_S21;
2.400000000000000E+009;1.564609259366989E-001;1.050887033343315E-001;1.399632164975628E-004;-2.503062831237912E-003;
2.400166666666667E+009;1.564394533634186E-001;1.029104813933373E-001;1.797327277017757E-004;-2.555549610406160E-003;
2.400333333333334E+009;1.566026359796524E-001;1.005816906690598E-001;9.457552368985489E-005;-2.518644556403160E-003;
2.400500000000000E+009;1.568585038185120E-001;9.784506261348724E-002;5.749571209889837E-005;-2.735212212428451E-003;
2.400666666666667E+009;1.570426821708679E-001;9.555706381797791E-002;-5.289338150760159E-005;-2.820479916408658E-003;
2.400833333333334E+009;1.572584360837936E-001;9.295313060283661E-002;-1.984638365684077E-004;-2.743137534707785E-003;
2.401000000000000E+009;1.575584113597870E-001;9.027246385812759E-002;-3.754726494662464E-004;-2.858512569218874E-003;
2.401166666666667E+009;1.577443182468414E-001;8.760907500982285E-002;-1.838007010519505E-004;-2.692642854526639E-003;
2.401333333333334E+009;1.581724435091019E-001;8.502722531557083E-002;-4.111542948521674E-004;-2.702601486817002E-003;
2.401500000000000E+009;1.586616337299347E-001;8.214571326971054E-002;-5.210334202274680E-004;-2.911296440288425E-003;
2.401666666666667E+009;1.591998189687729E-001;7.950926572084427E-002;-6.765781436115503E-004;-3.074722364544869E-003;
2.401833333333334E+009;1.593083590269089E-001;7.699669152498245E-002;-7.281844737008214E-004;-2.934969728812575E-003;
2.402000000000000E+009;1.601527780294418E-001;7.405306398868561E-002;-6.457255803979933E-004;-3.099602647125721E-003;
2.402166666666667E+009;1.605442911386490E-001;7.216454297304153E-002;-9.003435843624175E-004;-3.261302597820759E-003;
2.402333333333334E+009;1.622121036052704E-001;6.930918246507645E-002;-6.334744975902140E-004;-3.050817642360926E-003;
2.402500000000000E+009;1.625893265008926E-001;6.735679507255554E-002;-1.186642912216485E-003;-3.216666635125876E-003;
2.402666666666667E+009;1.642635315656662E-001;6.635560095310211E-002;-2.012831158936024E-003;-2.997625852003694E-003;
2.402833333333334E+009;1.653711050748825E-001;6.329034268856049E-002;-2.085679443553090E-003;-3.006708575412631E-003;
2.403000000000000E+009;1.674797534942627E-001;6.170378252863884E-002;-2.395137911662459E-003;-2.721329918131232E-003;
2.403166666666667E+009;1.682580262422562E-001;5.821707099676132E-002;-1.681458787061274E-003;-2.992954105138779E-003;
2.403333333333334E+009;1.691307872533798E-001;5.688362196087837E-002;-2.225634176284075E-003;-3.318256698548794E-003;
2.403500000000000E+009;1.710345298051834E-001;5.427072942256928E-002;-2.065635751932859E-003;-2.813614672049880E-003;
2.403666666666667E+009;1.735161095857620E-001;5.335800349712372E-002;-2.935102442279458E-003;-2.057726727798581E-003;
2.403833333333334E+009;1.742101609706879E-001;5.130187049508095E-002;-2.458515577018261E-003;-2.279830630868673E-003;
2.404000000000000E+009;1.755012720823288E-001;4.968968033790588E-002;-2.563934307545424E-003;-2.212628489360213E-003;
2.404166666666667E+009;1.771232187747955E-001;4.805677011609078E-002;-2.701101591810584E-003;-1.965329516679049E-003;
2.404333333333334E+009;1.785420477390289E-001;4.691658914089203E-002;-2.656189957633615E-003;-1.962180249392986E-003;
2.404500000000000E+009;1.798587143421173E-001;4.529719427227974E-002;-2.632505027577281E-003;-1.928462879732251E-003;
2.404666666666667E+009;1.812904179096222E-001;4.425922408699989E-002;-2.635766984894872E-003;-1.720024505630136E-003;
2.404833333333334E+009;1.826983839273453E-001;4.316944256424904E-002;-2.773641142994165E-003;-1.667895819991827E-003;
2.405000000000000E+009;1.839831471443176E-001;4.256268218159676E-002;-2.678847638890147E-003;-1.792143331840634E-003;
2.405166666666667E+009;1.850993782281876E-001;4.174021258950234E-002;-2.791399136185646E-003;-1.671404228545725E-003;
2.405333333333334E+009;1.863444298505783E-001;4.131712391972542E-002;-2.828638069331646E-003;-1.599632319994271E-003;
2.405500000000000E+009;1.876477897167206E-001;4.075603187084198E-002;-2.937189070507884E-003;-1.506076194345951E-003;
2.405666666666667E+009;1.885957866907120E-001;4.030588269233704E-002;-2.962198574095964E-003;-1.480977283790708E-003;
2.405833333333334E+009;1.896850317716599E-001;3.996105864644051E-002;-3.124852664768696E-003;-1.230969442985952E-003;
2.406000000000000E+009;1.904725879430771E-001;3.963420167565346E-002;-3.083321265876293E-003;-1.155553734861314E-003;
2.406166666666667E+009;1.912730634212494E-001;3.937235847115517E-002;-3.378934692591429E-003;-1.050486927852035E-003;
2.406333333333334E+009;1.921421438455582E-001;3.937366604804993E-002;-3.279614960774779E-003;-8.973894291557372E-004;
2.406500000000000E+009;1.926719695329666E-001;3.925191238522530E-002;-3.265600185841322E-003;-5.610088119283319E-004;
2.406666666666667E+009;1.931864321231842E-001;3.918751329183579E-002;-3.379706293344498E-003;-5.806382396258414E-004;
2.406833333333334E+009;1.936647891998291E-001;3.907633945345879E-002;-3.298319177702069E-003;-3.715284110512584E-004;
2.407000000000000E+009;1.939855366945267E-001;3.904509171843529E-002;-3.247313201427460E-003;-3.040288283955306E-004;
2.407166666666667E+009;1.942225247621536E-001;3.877128288149834E-002;-3.241927362978458E-003;-1.206034939968959E-004;
2.407333333333334E+009;1.942248791456223E-001;3.877334296703339E-002;-3.059882204979658E-003;-4.729450665763579E-005;
2.407500000000000E+009;1.942043751478195E-001;3.866655379533768E-002;-3.371184691786766E-003;1.558785006636754E-004;
2.407666666666667E+009;1.941391378641129E-001;3.845562785863876E-002;-3.229602472856641E-003;3.220004437025636E-004;
2.407833333333334E+009;1.937857866287231E-001;3.822006657719612E-002;-3.151208395138383E-003;3.168570401612669E-004;
2.408000000000000E+009;1.936869621276856E-001;3.785793110728264E-002;-3.049978055059910E-003;3.125945804640651E-004;
2.408166666666667E+009;1.933149993419647E-001;3.742099553346634E-002;-2.978204516693950E-003;5.323396762832999E-004;
2.408333333333334E+009;1.928259432315826E-001;3.690033033490181E-002;-3.005644539371133E-003;6.268714205361903E-004;
2.408500000000000E+009;1.923479437828064E-001;3.645311295986176E-002;-2.894283272325993E-003;6.685223779641092E-004;
2.408666666666667E+009;1.917685270309448E-001;3.581513091921806E-002;-2.973701804876328E-003;6.926160422153771E-004;
2.408833333333334E+009;1.912424266338348E-001;3.512020781636238E-002;-2.840600907802582E-003;9.304452105425298E-004;
2.409000000000000E+009;1.906087398529053E-001;3.399899601936340E-002;-2.785063814371824E-003;9.537827572785318E-004;
2.409166666666667E+009;1.897622197866440E-001;3.302888572216034E-002;-2.709444612264633E-003;9.820208651944995E-004;
2.409333333333334E+009;1.891539543867111E-001;3.198312222957611E-002;-2.685845131054521E-003;9.904653998091817E-004;
2.409500000000000E+009;1.882297098636627E-001;3.071043081581593E-002;-2.613815944641829E-003;1.013697357848287E-003;
2.409666666666667E+009;1.875783205032349E-001;2.937042899429798E-002;-2.503978786990047E-003;1.191287883557379E-003;
2.409833333333334E+009;1.868091821670532E-001;2.792518213391304E-002;-2.485510194674134E-003;1.130117801949382E-003;
2.410000000000000E+009;1.859916150569916E-001;2.630127221345902E-002;-2.416942967101932E-003;1.209389534778893E-003;
2.410166666666667E+009;1.852406710386276E-001;2.461387217044830E-002;-2.376185031607747E-003;1.214889809489250E-003;
2.410333333333334E+009;1.843842864036560E-001;2.292954176664352E-002;-2.292936434969306E-003;1.021452248096466E-003;
2.410500000000000E+009;1.836020648479462E-001;2.102613821625710E-002;-2.485743258148432E-003;1.234979485161603E-003;
2.410666666666667E+009;1.829385608434677E-001;1.893451437354088E-002;-2.341777551919222E-003;1.123418100178242E-003;
2.410833333333334E+009;1.826551705598831E-001;1.698798686265945E-002;-2.260582754388452E-003;1.246503205038607E-003;
2.411000000000000E+009;1.819915324449539E-001;1.477755978703499E-002;-2.327257534489036E-003;1.268997206352651E-003;
2.411166666666667E+009;1.816678345203400E-001;1.265508681535721E-002;-2.442795783281326E-003;1.360392780043185E-003;
2.411333333333334E+009;1.812487840652466E-001;1.040958985686302E-002;-2.263109898194671E-003;1.429977593943477E-003;
2.411500000000000E+009;1.809255033731461E-001;8.255307562649250E-003;-2.388003980740905E-003;1.523764105513692E-003;
2.411666666666667E+009;1.808096617460251E-001;6.054458208382130E-003;-2.297084778547287E-003;1.365897129289806E-003;
2.411833333333334E+009;1.806863397359848E-001;3.684645052999258E-003;-2.124006161466241E-003;1.532179652713239E-003;
2.412000000000000E+009;1.808788627386093E-001;1.360052381642163E-003;-2.252126112580299E-003;1.654123072512448E-003;
2.412166666666667E+009;1.811125129461289E-001;-8.167149499058723E-004;-2.257861662656069E-003;1.581767923198640E-003;
2.412333333333334E+009;1.813804656267166E-001;-3.003879915922880E-003;-2.309864852577448E-003;1.775194075889885E-003;
2.412500000000000E+009;1.818198263645172E-001;-5.304348655045033E-003;-2.260826528072357E-003;1.854781061410904E-003;
2.412666666666667E+009;1.822806149721146E-001;-7.739408873021603E-003;-2.189146587625146E-003;1.915553351864219E-003;
2.412833333333334E+009;1.831005811691284E-001;-9.805602021515369E-003;-2.226599957793951E-003;1.917196204885840E-003;
2.413000000000000E+009;1.838339865207672E-001;-1.213270984590054E-002;-2.383735962212086E-003;2.153205219656229E-003;
2.413166666666667E+009;1.846826225519180E-001;-1.407823525369167E-002;-2.231638878583908E-003;2.387986285611987E-003;
2.413333333333334E+009;1.855263113975525E-001;-1.644567213952541E-002;-2.376125194132328E-003;2.328350907191634E-003;
2.413500000000000E+009;1.865169852972031E-001;-1.850343309342861E-002;-2.289975527673960E-003;2.727736718952656E-003;
2.413666666666667E+009;1.876111328601837E-001;-2.053773216903210E-002;-2.124154008924961E-003;2.840508474037051E-003;
2.413833333333334E+009;1.885987371206284E-001;-2.245698310434818E-002;-1.875234884209931E-003;3.197275567799807E-003;
2.414000000000000E+009;1.895329505205154E-001;-2.418524585664272E-002;-1.937663066200912E-003;3.093468258157373E-003;
2.414166666666667E+009;1.907514929771423E-001;-2.587316930294037E-002;-1.646801712922752E-003;3.413166850805283E-003;
2.414333333333334E+009;1.916576176881790E-001;-2.772471122443676E-002;-1.515122829005122E-003;3.459245897829533E-003;
2.414500000000000E+009;1.928052157163620E-001;-2.921785786747932E-002;-1.307633123360574E-003;3.730914322659373E-003;
2.414666666666667E+009;1.937866508960724E-001;-3.051387891173363E-002;-1.020173658616841E-003;3.634755266830325E-003;
2.414833333333334E+009;1.948004066944122E-001;-3.201300278306007E-002;-8.134277886711061E-004;3.627920988947153E-003;
2.415000000000000E+009;1.958124488592148E-001;-3.332297503948212E-002;-6.403374718502164E-004;3.615050343796611E-003;
2.415166666666667E+009;1.969020813703537E-001;-3.434179723262787E-002;-5.279237520880997E-004;3.552786074578762E-003;
2.415333333333334E+009;1.978083252906799E-001;-3.523135557770729E-002;-2.673517738003284E-004;3.647419856861234E-003;
2.415500000000000E+009;1.988483518362045E-001;-3.604109957814217E-002;-7.321319571929053E-005;3.440930042415857E-003;
2.415666666666667E+009;1.997100412845612E-001;-3.701364994049072E-002;1.840847107814625E-005;3.595377085730434E-003;
2.415833333333334E+009;2.004416286945343E-001;-3.769917413592339E-002;2.369693393120542E-004;3.536756848916411E-003;
2.416000000000000E+009;2.010283917188644E-001;-3.828640654683113E-002;2.629619848448783E-004;3.343311836943030E-003;
2.416166666666667E+009;2.015801072120667E-001;-3.888414427638054E-002;4.129466833546758E-004;3.474800381809473E-003;
2.416333333333334E+009;2.020903378725052E-001;-3.942168876528740E-002;4.448842082638294E-004;3.523305756971240E-003;
2.416500000000000E+009;2.024385631084442E-001;-3.974631056189537E-002;6.932243704795837E-004;3.474180353805423E-003;
2.416666666666667E+009;2.026140838861466E-001;-4.015947505831718E-002;8.842556271702051E-004;3.495839890092611E-003;
2.416833333333334E+009;2.027012407779694E-001;-4.045633226633072E-002;1.029510633088648E-003;3.413846949115396E-003;
2.417000000000000E+009;2.027141302824020E-001;-4.072133079171181E-002;1.184018445201218E-003;3.346866928040981E-003;
2.417166666666667E+009;2.023899406194687E-001;-4.078014940023422E-002;1.315693720243871E-003;3.081651404500008E-003;
2.417333333333334E+009;2.020647823810577E-001;-4.072922095656395E-002;1.661912072449923E-003;3.218987490981817E-003;
2.417500000000000E+009;2.018029689788818E-001;-4.103095456957817E-002;1.745349494740367E-003;3.078215057030320E-003;
2.417666666666667E+009;2.012374103069305E-001;-4.094816744327545E-002;1.889804960228503E-003;2.795036183670163E-003;
2.417833333333334E+009;2.007952332496643E-001;-4.090639948844910E-002;1.911050407215953E-003;2.543828682973981E-003;
2.418000000000000E+009;2.001316398382187E-001;-4.090918228030205E-002;2.075730590149760E-003;2.672503935173154E-003;
2.418166666666667E+009;1.993877291679382E-001;-4.095113277435303E-002;1.988538075238466E-003;2.347168512642384E-003;
2.418333333333334E+009;1.984426528215408E-001;-4.088197275996208E-002;2.243468305096030E-003;2.312796190381050E-003;
2.418500000000000E+009;1.976615041494370E-001;-4.129336401820183E-002;2.216557972133160E-003;2.111679874360561E-003;
2.418666666666667E+009;1.966849714517593E-001;-4.141091182827950E-002;2.162928460165858E-003;2.013403689488769E-003;
2.418833333333334E+009;1.955841779708862E-001;-4.164174199104309E-002;2.260252600535750E-003;2.008360577747226E-003;
2.419000000000000E+009;1.942886114120483E-001;-4.199599102139473E-002;2.279768930748105E-003;1.839789678342640E-003;
2.419166666666667E+009;1.932029128074646E-001;-4.253277555108070E-002;2.236757194623351E-003;1.768244430422783E-003;
2.419333333333334E+009;1.919112950563431E-001;-4.323828220367432E-002;2.265146002173424E-003;1.633376232348383E-003;
2.419500000000000E+009;1.905006021261215E-001;-4.378503561019898E-002;2.328528091311455E-003;1.446679234504700E-003;
2.419666666666667E+009;1.891658157110214E-001;-4.469992965459824E-002;2.184782410040498E-003;1.437726081348956E-003;
2.419833333333334E+009;1.875551044940949E-001;-4.543229565024376E-002;2.302473178133369E-003;1.370746409520507E-003;
2.420000000000000E+009;1.863124519586563E-001;-4.637139663100243E-002;2.325717825442553E-003;1.272725057788193E-003;
2.420166666666667E+009;1.846363693475723E-001;-4.739913716912270E-002;2.280661137774587E-003;1.216365373693407E-003;
2.420333333333334E+009;1.832511872053146E-001;-4.864439368247986E-002;2.306992653757334E-003;1.002038363367319E-003;
2.420500000000000E+009;1.816971600055695E-001;-4.997651278972626E-002;2.160037634894252E-003;9.476188570261002E-004;
2.420666666666667E+009;1.803122460842133E-001;-5.099379643797875E-002;2.250767080113292E-003;9.624787489883602E-004;
2.420833333333334E+009;1.788777858018875E-001;-5.239924788475037E-002;2.204252872616053E-003;8.972228388302028E-004;
2.421000000000000E+009;1.775295734405518E-001;-5.411837249994278E-002;2.148926025256515E-003;7.882141508162022E-004;
2.421166666666667E+009;1.762535721063614E-001;-5.574490129947662E-002;2.135981572791934E-003;8.411912131123245E-004;
2.421333333333334E+009;1.747985780239105E-001;-5.723738670349121E-002;2.186455065384507E-003;6.295859930105507E-004;
2.421500000000000E+009;1.736187785863876E-001;-5.901607871055603E-002;2.086128108203411E-003;6.191769498400390E-004;
2.421666666666667E+009;1.724581271409988E-001;-6.074712797999382E-002;2.091968897730112E-003;5.460239481180906E-004;
2.421833333333334E+009;1.713944226503372E-001;-6.264252960681915E-002;1.977031119167805E-003;5.660434253513813E-004;
2.422000000000000E+009;1.704992502927780E-001;-6.441292911767960E-002;2.042541047558188E-003;4.782841424457729E-004;
2.422166666666667E+009;1.697186827659607E-001;-6.642219424247742E-002;2.151921391487122E-003;4.507353587541729E-004;
2.422333333333334E+009;1.687144041061401E-001;-6.813389062881470E-002;2.158900722861290E-003;2.575500402599573E-004;
2.422500000000000E+009;1.680434048175812E-001;-6.995330005884171E-002;2.214400796219707E-003;3.376571112312377E-004;
2.422666666666667E+009;1.673366576433182E-001;-7.202093303203583E-002;2.192939631640911E-003;3.447990166023374E-004;
2.422833333333334E+009;1.670511662960053E-001;-7.387139648199081E-002;2.074238611385226E-003;2.017225342569873E-004;
2.423000000000000E+009;1.664529144763947E-001;-7.573649287223816E-002;2.216563327237964E-003;1.494019670644775E-004;
2.423166666666667E+009;1.662178039550781E-001;-7.747831195592880E-002;2.127378247678280E-003;-6.623879744438455E-005;
2.423333333333334E+009;1.659636348485947E-001;-7.961996644735336E-002;1.980973174795508E-003;-1.306349586229771E-004;
2.423500000000000E+009;1.657100915908814E-001;-8.123474568128586E-002;2.107983687892556E-003;-2.016507642110810E-004;
2.423666666666667E+009;1.656967103481293E-001;-8.305671066045761E-002;1.964234514161944E-003;-1.562058168929070E-004;
2.423833333333334E+009;1.656559705734253E-001;-8.464087545871735E-002;1.896628295071423E-003;-2.523222356103361E-004;
2.424000000000000E+009;1.656196713447571E-001;-8.616641908884049E-002;1.855247071944177E-003;-2.644238411448896E-004;
2.424166666666667E+009;1.657744646072388E-001;-8.781429380178452E-002;1.749561051838100E-003;-3.812422510236502E-004;
2.424333333333334E+009;1.658420562744141E-001;-8.917499333620071E-002;1.835610368289053E-003;-3.382008580956608E-004;
2.424500000000000E+009;1.662083715200424E-001;-9.099609404802322E-002;1.910985214635730E-003;-3.671492158900946E-004;
2.424666666666667E+009;1.663309335708618E-001;-9.227639436721802E-002;1.747342059388757E-003;-3.902381286025047E-004;
2.424833333333334E+009;1.667537391185761E-001;-9.355928748846054E-002;1.751942560076714E-003;-3.849309578072280E-004;
2.425000000000000E+009;1.670890748500824E-001;-9.475054591894150E-002;1.655952422879636E-003;-4.833741404581815E-004;
2.425166666666667E+009;1.673103272914887E-001;-9.583014249801636E-002;1.776083721779287E-003;-5.352484877221286E-004;
2.425333333333334E+009;1.674772650003433E-001;-9.683416783809662E-002;1.837021438404918E-003;-7.039787597022951E-004;
2.425500000000000E+009;1.679612100124359E-001;-9.773795306682587E-002;1.625181175768375E-003;-6.728055304847658E-004;
2.425666666666667E+009;1.680777221918106E-001;-9.850898385047913E-002;1.668858807533979E-003;-6.664282991550863E-004;
2.425833333333334E+009;1.683791279792786E-001;-9.936649352312088E-002;1.620498369447887E-003;-7.400334579870105E-004;
2.426000000000000E+009;1.686609238386154E-001;-9.981288760900497E-002;1.487752888351679E-003;-8.179977885447443E-004;
2.426166666666667E+009;1.688931733369827E-001;-1.003883779048920E-001;1.477380981668830E-003;-7.646710146218538E-004;
2.426333333333334E+009;1.689447313547134E-001;-1.010533869266510E-001;1.606420497409999E-003;-8.295217412523925E-004;
2.426500000000000E+009;1.692898422479630E-001;-1.013127192854881E-001;1.544373575598002E-003;-8.277797605842352E-004;
2.426666666666667E+009;1.694404482841492E-001;-1.018423214554787E-001;1.361335394904017E-003;-7.269193301908672E-004;
2.426833333333334E+009;1.696189343929291E-001;-1.021410897374153E-001;1.399644999764860E-003;-8.327257237397134E-004;
2.427000000000000E+009;1.695125252008438E-001;-1.025836840271950E-001;1.365029602311552E-003;-9.447967167943716E-004;
2.427166666666667E+009;1.695614755153656E-001;-1.027668789029121E-001;1.195414923131466E-003;-9.763591224327683E-004;
2.427333333333334E+009;1.693469285964966E-001;-1.031396090984345E-001;1.349178957752883E-003;-9.739609085954726E-004;
2.427500000000000E+009;1.691822409629822E-001;-1.034740433096886E-001;1.380185480229557E-003;-8.325632661581039E-004;
2.427666666666667E+009;1.688910126686096E-001;-1.035415232181549E-001;1.350734382867813E-003;-1.021052012220025E-003;
2.427833333333334E+009;1.686090826988220E-001;-1.039952337741852E-001;1.323860255070031E-003;-8.892143378034234E-004;
