# Hz S RI R 50
2400000000.0000000000 0.156347155570983886718750000000 0.059470284730195999145507812500 -0.005354190245270729064941406250 -0.001497698482125997977015829932 0 0 0 0 
2400166666.6666665077 0.156398624181747408767861884371 0.057714898139238357543945312500 -0.005393743049353361129760742188 -0.001474461867474019961116171729 0 0 0 0 
2400333333.3333334923 0.156401351094245910644531250000 0.055588725954294211650807966407 -0.005268692970275878906250000000 -0.001228957436978816986083984375 0 0 0 0 
2400500000.0000000000 0.156697481870651300628338731258 0.053594786673784262920339216407 -0.005526604596525430679321289062 -0.000948100874666124582290649414 0 0 0 0 
2400666666.6666665077 0.156931430101394708831463731258 0.051477950066328048706054687500 -0.005478950683027505874633789062 -0.000791916681919246912002563477 0 0 0 0 
2400833333.3333334923 0.157261967658996609786825615629 0.049516275525093078613281250000 -0.005616822279989719390869140625 -0.000702336721587926149368286133 0 0 0 0 
2401000000.0000000000 0.157651856541633605957031250000 0.047439914196729660034179687500 -0.005548344459384679794311523438 -0.000433008943218737786442357196 0 0 0 0 
2401166666.6666665077 0.158142417669296292404013115629 0.045325353741645812988281250000 -0.005539994221180677413940429688 -0.000194570180610753595829010010 0 0 0 0 
2401333333.3333334923 0.158504426479339599609375000000 0.043378118425607681274414062500 -0.005447121337056159973144531250 0.000048040241381386301737239225 0 0 0 0 
2401500000.0000000000 0.159146234393119812011718750000 0.041399836540222167968750000000 -0.005571124609559774398803710938 0.000373479939298704320758265363 0 0 0 0 
2401666666.6666665077 0.159710586071014404296875000000 0.039448227733373641967773437500 -0.005467042792588472366333007812 0.000510299927555024623870849609 0 0 0 0 
2401833333.3333334923 0.160279601812362698654013115629 0.037539850920438773418386091407 -0.005456674378365278244018554688 0.000705039186868816614151000977 0 0 0 0 
2402000000.0000000000 0.160958588123321505447549384371 0.035615652799606323242187500000 -0.005241690669208765029907226562 0.001024464378133415959001850659 0 0 0 0 
2402166666.6666665077 0.161636650562286404708700615629 0.033708199858665473247487653907 -0.005227924790233373641967773438 0.001210528309457004070281982422 0 0 0 0 
2402333333.3333334923 0.162420794367790194412393134371 0.032131906598806381225585937500 -0.005121407099068164825439453125 0.001444375258870423056958842700 0 0 0 0 
2402500000.0000000000 0.163508504629135104080361884371 0.030598435550928119314173514454 -0.005081854760646820068359375000 0.001548818196170032024383544922 0 0 0 0 
2402666666.6666665077 0.164289683103561401367187500000 0.029046365991234779357910156250 -0.004897183272987604141235351562 0.001736226724460721015930175781 0 0 0 0 
2402833333.3333334923 0.165023073554039001464843750000 0.027556048706173900258997733204 -0.004782534670084714889526367188 0.001866972190327941937687539209 0 0 0 0 
2403000000.0000000000 0.165966182947158813476562500000 0.026202874258160591125488281250 -0.004771698731929063796997070312 0.002224813913926482200622558594 0 0 0 0 
2403166666.6666665077 0.167160704731941195388955634371 0.024980528280138969421386718750 -0.004441246856003999710083007812 0.002372861607000232176539755713 0 0 0 0 
2403333333.3333334923 0.167956456542015103439169365629 0.023713484406471248971959298046 -0.004563451278954744338989257812 0.002510655904188752174377441406 0 0 0 0 
2403500000.0000000000 0.168768018484115600585937500000 0.022617222741246219980260079296 -0.004345233086496591567993164062 0.002745867008343338966369628906 0 0 0 0 
2403666666.6666665077 0.169720083475112887283486884371 0.021383445709943771362304687500 -0.004106083884835243225097656250 0.002619158010929822921752929688 0 0 0 0 
2403833333.3333334923 0.170951902866363497635049384371 0.020638765767216678964635079296 -0.003793940180912613868713378906 0.002845425158739089965820312500 0 0 0 0 
2404000000.0000000000 0.171773448586463900467080634371 0.019614936783909801137903983204 -0.003801258048042654991149902344 0.002931331517174839973449707031 0 0 0 0 
2404166666.6666665077 0.172604575753212002853231865629 0.018732121214270588266392891796 -0.003364600241184235052821493994 0.003066968405619264082667685400 0 0 0 0 
2404333333.3333334923 0.173393040895462008377236884371 0.018109589815139770507812500000 -0.003402843372896314100978232275 0.003077110974118113951442099463 0 0 0 0 
2404500000.0000000000 0.174154743552208002288494981258 0.017435215413570400583287423046 -0.003330858191475272178649902344 0.003192134900018572807312011719 0 0 0 0 
2404666666.6666665077 0.174996331334114102462606865629 0.016884548589587211608886718750 -0.002996525028720498085021972656 0.003195398952811955971958779443 0 0 0 0 
2404833333.3333334923 0.175719708204269409179687500000 0.016353951767086979257603829296 -0.002839274937286972999572753906 0.003257816191762686209437704932 0 0 0 0 
2405000000.0000000000 0.176607906818389892578125000000 0.015865569934248920785924141796 -0.002753770910203456878662109375 0.003412633202970027923583984375 0 0 0 0 
2405166666.6666665077 0.177087917923927307128906250000 0.015406616032123569143275076954 -0.002689152490347623825073242188 0.003281285054981708960292197119 0 0 0 0 
2405333333.3333334923 0.177711740136146600921307481258 0.015006871894001960754394531250 -0.002542942063882946968078613281 0.003271173685789107842686318506 0 0 0 0 
2405500000.0000000000 0.178037643432617187500000000000 0.014645744115114210301409336523 -0.002320275176316500143763876807 0.003300535958260298208949423682 0 0 0 0 
2405666666.6666665077 0.178573220968246487716513115629 0.014464532025158410508125506055 -0.002221910748630762100219726562 0.003316981019452213807346963037 0 0 0 0 
2405833333.3333334923 0.178754925727844210525674384371 0.014240838587284089869489100977 -0.002131792483851314024684286963 0.003365439129993319945094443213 0 0 0 0 
2406000000.0000000000 0.179140850901603698730468750000 0.013826560229063030588170235546 -0.001918188529089092991472553784 0.003367725294083356857299804688 0 0 0 0 
2406166666.6666665077 0.179227724671363802810830634371 0.013683361001312729227086251171 -0.001927291392348706939099955981 0.003301131306216121153590536963 0 0 0 0 
2406333333.3333334923 0.179610893130302401443643134371 0.013312704861164089548131173046 -0.001729411305859684944152832031 0.003239674028009175820591591943 0 0 0 0 
2406500000.0000000000 0.179522231221199007888955634371 0.013002855703234670811663242773 -0.001671587466262280941009521484 0.003257080446928739981410361182 0 0 0 0 
2406666666.6666665077 0.179202049970626803299111884371 0.012787105515599250793457031250 -0.001620979397557676055310893481 0.003203932661563158035278320312 0 0 0 0 
2406833333.3333334923 0.179226011037826510330361884371 0.012328564189374450338343436329 -0.001512995222583412907244038159 0.003329651895910501913783408057 0 0 0 0 
2407000000.0000000000 0.179040387272834805587606865629 0.012018777430057530838936052930 -0.001531389425508677959442138672 0.003265182254835962815525673975 0 0 0 0 
2407166666.6666665077 0.178886830806732205489950615629 0.011622909456491470336914062500 -0.001220183563418685956242226709 0.003198040882125496864318847656 0 0 0 0 
2407333333.3333334923 0.178535938262939508636151231258 0.010956068523228170222272304102 -0.001099333749152719974517822266 0.003070664592087268829345703125 0 0 0 0 
2407500000.0000000000 0.178224086761474609375000000000 0.010554499924182890110979649023 -0.001030295388773083903669047778 0.003279058728367089791538857568 0 0 0 0 
2407666666.6666665077 0.177741169929504394531250000000 0.009845983237028121948242187500 -0.000977286370471119880676269531 0.003219790523871779008152627100 0 0 0 0 
2407833333.3333334923 0.177073433995246887207031250000 0.009016955271363258361816406250 -0.001053675427101552920100546729 0.003211867064237595038173056494 0 0 0 0 
2408000000.0000000000 0.176678314805030794998330634371 0.008161698468029499053955078125 -0.000881198910064995288848876953 0.003163500921800733046290732275 0 0 0 0 
2408166666.6666665077 0.176027044653892489334268134371 0.007600094657391309738159179688 -0.000843799440190196037292480469 0.003212711075320839881896972656 0 0 0 0 
2408333333.3333334923 0.175566017627716092208700615629 0.006463010795414447784423828125 -0.000831423501949757337570190430 0.003094599116593598885777138818 0 0 0 0 
2408500000.0000000000 0.174840569496154812911825615629 0.005255598574876785278320312500 -0.000646498228888958692550659180 0.003122651483863592147827148438 0 0 0 0 
2408666666.6666665077 0.174192532896995488922442518742 0.004042804706841707229614257812 -0.000626966648269444704055786133 0.002981803845614194869995117188 0 0 0 0 
2408833333.3333334923 0.173484340310096712967080634371 0.002936418866738677024841308594 -0.000412381661590188687473851337 0.003076800843700766997096396338 0 0 0 0 
2409000000.0000000000 0.172757998108863802810830634371 0.001598687376827002005336142432 -0.000543929985724389553070068359 0.003132173558697104887721396338 0 0 0 0 
2409166666.6666665077 0.172284141182899502853231865629 0.000114342197775840799934925218 -0.000405469705583527684211730957 0.002980986842885613007786416162 0 0 0 0 
2409333333.3333334923 0.171629875898361206054687500000 -0.001314565655775367996813129956 -0.000399138865759596174389439716 0.002859903965145349936244345557 0 0 0 0 
2409500000.0000000000 0.170920059084892300704794365629 -0.002863032510504126982447958838 -0.000449467945145443081855773926 0.002943367697298527197596884619 0 0 0 0 
2409666666.6666665077 0.170368179678916903396768134371 -0.004493170883506537351126386426 -0.000266713730525225400924682617 0.002981505822390317916870117188 0 0 0 0 
2409833333.3333334923 0.169797226786613492111044365629 -0.006092454772442579269409179688 -0.000180584131157956990316668100 0.003057525260373950004577636719 0 0 0 0 
2410000000.0000000000 0.169457718729972811599893134371 -0.007816111668944358825683593750 -0.000282537075690925121307373047 0.002865383634343742890598916162 0 0 0 0 
2410166666.6666665077 0.168715581297874506194744981258 -0.009594962000846862792968750000 -0.000013211350051278710702453920 0.002895633922889829115626669775 0 0 0 0 
2410333333.3333334923 0.168452829122543307205361884371 -0.011542099528014659881591796875 -0.000085366409621201455593109131 0.003080002730712295012233115088 0 0 0 0 
2410500000.0000000000 0.168174296617507906814736884371 -0.013462951406836509704589843750 -0.000005181907454243628308176994 0.002926999703049660162684775244 0 0 0 0 
2410666666.6666665077 0.167771935462951687911825615629 -0.015496122650802140671699724805 0.000139941417728550705030718393 0.002875793492421507835388183594 0 0 0 0 
2410833333.3333334923 0.167713567614555386642294365629 -0.017244569957256320608118826954 0.000169611797900870388180333270 0.002876323647797108130214072119 0 0 0 0 
2411000000.0000000000 0.167321771383285494705361884371 -0.019390009343624118459681326954 0.000088016146037261933088302612 0.002973987255245447158813476562 0 0 0 0 
2411166666.6666665077 0.167363300919532803634481865629 -0.021099051460623741149902343750 0.000245710107265040278434753418 0.002936909673735498948338173975 0 0 0 0 
2411333333.3333334923 0.167379826307296808440838731258 -0.023096067830920219421386718750 0.000155095258378423804610651837 0.002949729794636369185206747900 0 0 0 0 
2411500000.0000000000 0.167326450347900390625000000000 -0.025296313688158988952636718750 0.000407357962103560621112269269 0.002810495672747492790222167969 0 0 0 0 
2411666666.6666665077 0.167769595980644198318643134371 -0.027138104662299159658411795704 0.000344518572092056274414062500 0.002793977037072182135341025244 0 0 0 0 
2411833333.3333334923 0.168019831180572509765625000000 -0.028986077755689620971679687500 0.000416617491282522678375244141 0.002863054396584630012512207031 0 0 0 0 
2412000000.0000000000 0.168350338935852106292401231258 -0.030819468200206760061243826954 0.000523722206708043813705444336 0.002612975891679524941685341943 0 0 0 0 
2412166666.6666665077 0.168497979640960693359375000000 -0.032779455184936523437500000000 0.000561554683372378349304199219 0.002741023199632763862609863281 0 0 0 0 
2412333333.3333334923 0.169165968894958496093750000000 -0.034404292702674872661550153907 0.000541208661161363124847412109 0.002831228775903583006617880713 0 0 0 0 
2412500000.0000000000 0.169596061110496493240518134371 -0.036315403878688812255859375000 0.000682026206050068140029907227 0.002561258152127265930175781250 0 0 0 0 
2412666666.6666665077 0.170163333415985107421875000000 -0.038331288844347000122070312500 0.000580085907131433486938476562 0.002588344039395451979396201025 0 0 0 0 
2412833333.3333334923 0.170814037322998102386151231258 -0.039919022470712661743164062500 0.000858048733789473772048950195 0.002559824148193002180812216650 0 0 0 0 
2413000000.0000000000 0.171317487955093411544638115629 -0.041393112391233437274973283593 0.000794187188148498535156250000 0.002582421759143472151515341650 0 0 0 0 
2413166666.6666665077 0.171955063939094487945880018742 -0.042955178767442703247070312500 0.000938804994802922010421752930 0.002519681584089993996861123193 0 0 0 0 
2413333333.3333334923 0.172530740499496487716513115629 -0.044351350516080863262136091407 0.000902748492080718278884887695 0.002395796822383999824523925781 0 0 0 0 
2413500000.0000000000 0.173322677612304687500000000000 -0.046010080724954612041432966407 0.000795214436948299407958984375 0.002443855628371239142176962744 0 0 0 0 
2413666666.6666665077 0.173939660191536005218182481258 -0.047264747321605682373046875000 0.000865486101247370243072509766 0.002585939131677151159999228369 0 0 0 0 
2413833333.3333334923 0.174422770738601712325888115629 -0.048401560634374618530273437500 0.001051516388542949936510395581 0.002355613280087708993199013818 0 0 0 0 
2414000000.0000000000 0.174879550933837890625000000000 -0.049703706055879592895507812500 0.001122687594033777930616069263 0.002289025345817207856419228662 0 0 0 0 
2414166666.6666665077 0.175623223185539301116619981258 -0.050766184926033020019531250000 0.001127333729527890899060893481 0.002349379938095808029174804688 0 0 0 0 
2414333333.3333334923 0.176173865795135498046875000000 -0.051762454211711876606027971093 0.001014951383695005936863564600 0.002341295359656215147731161963 0 0 0 0 
2414500000.0000000000 0.176936656236648587325888115629 -0.052622631192207343364675153907 0.001122497837059200026868510669 0.002042916370555758909938193213 0 0 0 0 
2414666666.6666665077 0.177244007587432889083700615629 -0.053389053791761398315429687500 0.001093589817173779010772705078 0.002358445897698401971104287256 0 0 0 0 
2414833333.3333334923 0.177571192383766202071981865629 -0.054232813417911529541015625000 0.001210858696140348911285400391 0.002252631122246385054347372900 0 0 0 0 
2415000000.0000000000 0.178015232086181612869424384371 -0.054772779345512390136718750000 0.001172195887193083979962993091 0.002264602109789847893955849756 0 0 0 0 
2415166666.6666665077 0.178262889385223388671875000000 -0.055375631898641593242604841407 0.001120991189964116053340292822 0.002275253646075725989100790869 0 0 0 0 
2415333333.3333334923 0.178663074970245389083700615629 -0.055955503135919570922851562500 0.001050148159265517971636128003 0.002151649910956621170043945312 0 0 0 0 
2415500000.0000000000 0.178807020187377901931924384371 -0.056382972747087478637695312500 0.001216755714267492077471088940 0.002205342520028353171107626807 0 0 0 0 
2415666666.6666665077 0.178752094507217407226562500000 -0.056588821113109588623046875000 0.001155108562670648097991943359 0.002264458686113357977626181494 0 0 0 0 
2415833333.3333334923 0.178845316171646090408486884371 -0.057164743542671196674387346093 0.001345986383967102007624960791 0.002332450356334447860717773438 0 0 0 0 
2416000000.0000000000 0.178696528077125604827557481258 -0.057368502020835883403737653907 0.001476785517297684929491352612 0.002292036544531583786010742188 0 0 0 0 
2416166666.6666665077 0.178727939724922207931356865629 -0.057698089629411697387695312500 0.001359278918243945078608847510 0.002361308550462127165553427588 0 0 0 0 
2416333333.3333334923 0.178429231047630310058593750000 -0.057792920619249336933176408593 0.001452455995604396083234477466 0.002294946927577257156372070312 0 0 0 0 
2416500000.0000000000 0.178061649203300503829794365629 -0.058097269386053092266042341407 0.001457913429476320960401225513 0.002315741498023271994349814307 0 0 0 0 
2416666666.6666665077 0.177574470639228793045205634371 -0.058252464979887008666992187500 0.001550154178403317928314208984 0.002255747560411692099330283057 0 0 0 0 
2416833333.3333334923 0.177126467227935791015625000000 -0.058471869677305221557617187500 0.001591482199728488922119140625 0.002432611305266619162318564307 0 0 0 0 
2417000000.0000000000 0.176194131374359103103799384371 -0.058702789247035980224609375000 0.001709108590148388905766152490 0.002231230493634939193725585938 0 0 0 0 
2417166666.6666665077 0.175605207681655911544638115629 -0.058921635150909416889231096093 0.001828707987442613081691122900 0.002252231817692517800572060693 0 0 0 0 
2417333333.3333334923 0.174829632043838500976562500000 -0.059245057404041290283203125000 0.001937239081598818085314106519 0.002276106504723430113551474463 0 0 0 0 
2417500000.0000000000 0.173861101269722012618856865629 -0.059703297913074493408203125000 0.001892828731797635988948202979 0.002461644820868968963623046875 0 0 0 0 
2417666666.6666665077 0.173060685396194513518963731258 -0.059788070619106292724609375000 0.002028696238994597954991006006 0.002127756830304861068725585938 0 0 0 0 
2417833333.3333334923 0.172062978148460388183593750000 -0.060315497219562530517578125000 0.002123998245224357084987021338 0.002173477783799171014073037256 0 0 0 0 
2418000000.0000000000 0.170878887176513699630575615629 -0.060802739113569259643554687500 0.002253937767818570137023925781 0.002112579066306353049037314307 0 0 0 0 
2418166666.6666665077 0.169683545827865600585937500000 -0.061049528419971473003347028907 0.002290386473760008811950683594 0.002199775073677300973179482568 0 0 0 0 
2418333333.3333334923 0.168882101774215698242187500000 -0.061727378517389297485351562500 0.002509176498278975920436240088 0.002118462696671485900878906250 0 0 0 0 
2418500000.0000000000 0.167406946420669611175213731258 -0.062389615923166281963307966407 0.002429958200082182884216308594 0.002085747895762323899510048975 0 0 0 0 
2418666666.6666665077 0.166345208883285494705361884371 -0.062975406646728515625000000000 0.002602247986942530112025595557 0.001887855585664510943769145435 0 0 0 0 
2418833333.3333334923 0.164934322237968389313067518742 -0.063675187528133392333984375000 0.002695943228900433020350790869 0.002038231119513512091395712744 0 0 0 0 
2419000000.0000000000 0.163639143109321594238281250000 -0.064492367208003997802734375000 0.002735816175118089155909872900 0.001796358148567378954646445166 0 0 0 0 
2419166666.6666665077 0.162503153085708590408486884371 -0.065453894436359405517578125000 0.002826617332175374031066894531 0.001848378800787032084224081885 0 0 0 0 
2419333333.3333334923 0.161001995205879211425781250000 -0.066189475357532501220703125000 0.003061047056689858002903603662 0.001808361848816276030299521338 0 0 0 0 
2419500000.0000000000 0.159899249672889709472656250000 -0.067375555634498596191406250000 0.003017126349732280211207724463 0.001598296919837594032287597656 0 0 0 0 
2419666666.6666665077 0.158688351511955288986044365629 -0.068746216595172882080078125000 0.002976524876430631117579794775 0.001524066668935120105743408203 0 0 0 0 
2419833333.3333334923 0.157688066363334711272869981258 -0.069756209850311279296875000000 0.003221576102077960968017578125 0.001461665262468158981920551831 0 0 0 0 
2420000000.0000000000 0.156603276729583712478799384371 -0.070978857576847076416015625000 0.003249522531405090852024697412 0.001284685335122049071668315356 0 0 0 0 
