# Hz S RI R 
2400000000.0000000000 0.156350642442703302581463731258 0.059942793101072311401367187500 0.002557411557063459916355752100 0.000539686589036136865615844727 0 0 0 0 
2400166666.6666665077 0.156589031219482394119424384371 0.058426778763532638549804687500 0.002566012786701322035548544775 0.000461428717244416475296020508 0 0 0 0 
2400333333.3333334923 0.156547024846076993087606865629 0.056270152330398559570312500000 0.002665226347744464874267578125 0.000212464772630482912063598633 0 0 0 0 
2400500000.0000000000 0.156695753335952786544638115629 0.054233357310295111919362653907 0.002561968984082341194152832031 0.000466015102574601823657435284 0 0 0 0 
2400666666.6666665077 0.156949952244758605957031250000 0.052223417907953262329101562500 0.002621988533064723014831542969 0.000028081847631256099453176192 0 0 0 0 
2400833333.3333334923 0.157198294997215298751669365629 0.050076827406883239746093750000 0.002579767489805818037745810400 0.000021796207875013351440429688 0 0 0 0 
2401000000.0000000000 0.157507240772247286697549384371 0.048066075891256332397460937500 0.002606000984087585969212197412 0.000005720354238292202353477478 0 0 0 0 
2401166666.6666665077 0.157930091023445101638955634371 0.045991938561201102519948591407 0.002616258570924400849583291162 0.000073344963311683386564254761 0 0 0 0 
2401333333.3333334923 0.158373147249221801757812500000 0.044080134481191642070729841407 0.002602278953418136076686240088 -0.000000182344678023582700101388 0 0 0 0 
2401500000.0000000000 0.158937439322471590896768134371 0.041932471096515662456472028907 0.002548282267525792121887207031 -0.000165852456120774204104822980 0 0 0 0 
2401666666.6666665077 0.159421309828758211990518134371 0.040215514600276947021484375000 0.002480741823092103004455566406 -0.000205319171072915196418762207 0 0 0 0 
2401833333.3333334923 0.159899860620498712737713731258 0.038008596748113632202148437500 0.002435005968436599211451865088 -0.000286793656414374709129333496 0 0 0 0 
2402000000.0000000000 0.160602748394012506683026231258 0.036232966929674148559570312500 0.002450726460665463967564248193 -0.000432003289461135918467921124 0 0 0 0 
2402166666.6666665077 0.161347657442092895507812500000 0.034411199390888207172434221093 0.002377567579969764189479208838 -0.000335936696501448804706019269 0 0 0 0 
2402333333.3333334923 0.161947250366210909744424384371 0.032652966678142547607421875000 0.002395072253420948982238769531 -0.000375847710529342293739318848 0 0 0 0 
2402500000.0000000000 0.163025975227356012542401231258 0.030983323231339461589772810157 0.002267601434141397909877158057 -0.000491748331114649772644042969 0 0 0 0 
2402666666.6666665077 0.163815796375274713714276231258 0.029501674696803089487096016796 0.002095759613439441160914755713 -0.000562889093998819589614868164 0 0 0 0 
2402833333.3333334923 0.164582535624504089355468750000 0.027953503653407100332239920704 0.002301656641066073937657021631 -0.000650531495921313762664794922 0 0 0 0 
2403000000.0000000000 0.165481492877006503006143134371 0.026585713028907779348353201954 0.002356110839173198179957724463 -0.000497482134960591793060302734 0 0 0 0 
2403166666.6666665077 0.166648060083389309982138115629 0.025197679176926609384556954296 0.002021966269239782853367470850 -0.000590317591559141874313354492 0 0 0 0 
2403333333.3333334923 0.167549893260002108474893134371 0.023933792486786838876744454296 0.002200484974309802055358886719 -0.000658324395772069692611694336 0 0 0 0 
2403500000.0000000000 0.168351545929908807952557481258 0.022875713184475898742675781250 0.002047381596639751954319619287 -0.000720075564458966255187988281 0 0 0 0 
2403666666.6666665077 0.169407516717910794357138115629 0.021693415939807888376256173046 0.002116247778758407072779990088 -0.000552315847016870975494384766 0 0 0 0 
2403833333.3333334923 0.170495495200157193282919365629 0.020602032542228698730468750000 0.002177641028538345856907509912 -0.000683360325638204813003540039 0 0 0 0 
2404000000.0000000000 0.171360805630683898925781250000 0.019762944430112838745117187500 0.002207490848377346992492675781 -0.000621010432951152324676513672 0 0 0 0 
2404166666.6666665077 0.172094777226448086837606865629 0.018833629786968231201171875000 0.002316996688023210005519247900 -0.000774589832872152328491210938 0 0 0 0 
2404333333.3333334923 0.173071667551994295974893134371 0.018376210704445838928222656250 0.002192674437537788911106728662 -0.000758350128307938575744628906 0 0 0 0 
2404500000.0000000000 0.173850819468498202224893134371 0.017411481589078899728795235546 0.002124502323567866845371865381 -0.000646874192170798778533935547 0 0 0 0 
2404666666.6666665077 0.174865931272506713867187500000 0.016863126307725909841517264454 0.002168013947084546089172363281 -0.000875365803949534893035888672 0 0 0 0 
2404833333.3333334923 0.175588712096214294433593750000 0.016249710693955421447753906250 0.002312952186912298202514648438 -0.000878354185260832309722900391 0 0 0 0 
2405000000.0000000000 0.176377534866333007812500000000 0.015700563788414001464843750000 0.002397282747551798820495605469 -0.000881662475876510143280029297 0 0 0 0 
2405166666.6666665077 0.177008792757988003829794365629 0.015227631665766239166259765625 0.002215135609731078147888183594 -0.000880083593074232339859008789 0 0 0 0 
2405333333.3333334923 0.177642837166786193847656250000 0.014750622212886810302734375000 0.002192098181694746017456054688 -0.000804544484708458185195922852 0 0 0 0 
2405500000.0000000000 0.178189486265182495117187500000 0.014628115110099320847480974805 0.002225714270025492148158408057 -0.000844184076413512229919433594 0 0 0 0 
2405666666.6666665077 0.178625985980033902267294365629 0.014185512438416479283342930273 0.002067730063572525978088378906 -0.000898678321391344070434570312 0 0 0 0 
2405833333.3333334923 0.178938806056976290603799384371 0.013908789493143560236920741602 0.002226283308118582205531454932 -0.000985410762950778007507324219 0 0 0 0 
2406000000.0000000000 0.179323703050613403320312500000 0.013488339260220529383649257227 0.002254362683743238015415810693 -0.001143996370956301905988383716 0 0 0 0 
2406166666.6666665077 0.179491072893142700195312500000 0.013400178402662280691126639454 0.002192634157836436791660927881 -0.001213914714753627993940043872 0 0 0 0 
2406333333.3333334923 0.179800242185592706878338731258 0.013116996735334399831751639454 0.001987083582207560972926474463 -0.001288522616960108063341450269 0 0 0 0 
2406500000.0000000000 0.179788202047347994705361884371 0.012819397263228889810582344921 0.002234255662187933921813964844 -0.001232813694514333984972309644 0 0 0 0 
2406666666.6666665077 0.179640412330627413650674384371 0.012487957254052160435686680273 0.002237474313005805015563964844 -0.001371002057567239024518657153 0 0 0 0 
2406833333.3333334923 0.179684773087501498123330634371 0.012051035650074480229387852148 0.002309701871126890182495117188 -0.001394092454575001976610493237 0 0 0 0 
2407000000.0000000000 0.179607361555099487304687500000 0.011737126857042309152623360546 0.002172419102862476868870400537 -0.001415050006471574089647602612 0 0 0 0 
2407166666.6666665077 0.179477334022522000411825615629 0.011360472999513149261474609375 0.002280281390994787216186523438 -0.001555708586238325075862265479 0 0 0 0 
2407333333.3333334923 0.179169580340385409256143134371 0.010793486610054969787597656250 0.002204514574259520010707236182 -0.001474245684221386909484863281 0 0 0 0 
2407500000.0000000000 0.178613170981407193282919365629 0.010241858661174770700474923046 0.002085928106680511994602822412 -0.001810341025702655098558735425 0 0 0 0 
2407666666.6666665077 0.178382039070129394531250000000 0.009571468457579612731933593750 0.002221535192802547974827431787 -0.001704480964690447070478129810 0 0 0 0 
2407833333.3333334923 0.177716746926307705978231865629 0.008750827051699161529541015625 0.002221238333731890158412314307 -0.001901272917166352055193256909 0 0 0 0 
2408000000.0000000000 0.177197903394699096679687500000 0.007969982922077178955078125000 0.002181650837883352799656533350 -0.001968473428860307173487997900 0 0 0 0 
2408166666.6666665077 0.176632344722747802734375000000 0.007248977199196816358084394238 0.002288022311404346986057900537 -0.001883664634078741073608398438 0 0 0 0 
2408333333.3333334923 0.176208019256591796875000000000 0.006347738206386566162109375000 0.002096108859404921965358115088 -0.002037430647760630087611533057 0 0 0 0 
2408500000.0000000000 0.175557449460029602050781250000 0.005200476385653018951416015625 0.002298376988619565963745117188 -0.002097027143463491959812783350 0 0 0 0 
2408666666.6666665077 0.174942299723625210861044365629 0.004155050963163375854492187500 0.002012012293562293052673339844 -0.002195612527430057959315634619 0 0 0 0 
2408833333.3333334923 0.174050927162170410156250000000 0.002952620154246687889099121094 0.001995971426367760138270712744 -0.002344312146306037902832031250 0 0 0 0 
2409000000.0000000000 0.173323109745979309082031250000 0.001845148159191011948826455225 0.002033878117799758911132812500 -0.002395693678408861160278320312 0 0 0 0 
2409166666.6666665077 0.172832444310188293457031250000 0.000391596724512055516242980957 0.002078436082229018211364746094 -0.002368417335674167113063193213 0 0 0 0 
2409333333.3333334923 0.172169297933578491210937500000 -0.001207993715070188045501708984 0.002014643978327513174769736182 -0.002562853274866939024684286963 0 0 0 0 
2409500000.0000000000 0.171538695693016107757244981258 -0.002664732746779919104335165869 0.001876541180536150932312011719 -0.002758315065875649885890341650 0 0 0 0 
2409666666.6666665077 0.170836627483367892166299384371 -0.004343513865023851394653320312 0.001808142405934632041333842700 -0.002677601529285312132594443213 0 0 0 0 
2409833333.3333334923 0.170222535729408291915731865629 -0.005808244924992322921752929688 0.001651610364206135056139301831 -0.002811586018651723861694335938 0 0 0 0 
2410000000.0000000000 0.169872954487800598144531250000 -0.007496570236980915069580078125 0.001676420564763247966766357422 -0.002900610910728573799133300781 0 0 0 0 
2410166666.6666665077 0.169316098093986511230468750000 -0.009294026531279087066650390625 0.001752310898154973983764648438 -0.003020668402314186096191406250 0 0 0 0 
2410333333.3333334923 0.168719068169593811035156250000 -0.011188288219273090362548828125 0.001609613653272389931919716943 -0.003053233958780765967128134619 0 0 0 0 
2410500000.0000000000 0.168492153286933898925781250000 -0.012935785576701160776158516796 0.001585072604939341978785849463 -0.003191504860296845002415322412 0 0 0 0 
2410666666.6666665077 0.168106138706207303146200615629 -0.014971580356359480076799961523 0.001464738394133747057673788916 -0.003343412186950445175170898438 0 0 0 0 
2410833333.3333334923 0.167953804135322598556356865629 -0.016912063583731651306152343750 0.001353039289824665026423788916 -0.003329462837427854971644736182 0 0 0 0 
2411000000.0000000000 0.167764574289321899414062500000 -0.018754713237285610544224923046 0.001241504098288715102552104419 -0.003572163404896854920628213037 0 0 0 0 
2411166666.6666665077 0.167573884129524203201455634371 -0.020780116319656368600865548046 0.001081590540707110924961709131 -0.003606271697208284898045205225 0 0 0 0 
2411333333.3333334923 0.167546063661575289627236884371 -0.022690232843160629272460937500 0.000916875025723129510879516602 -0.003686917014420032934901572119 0 0 0 0 
2411500000.0000000000 0.167496547102928189376669365629 -0.024771338328719139099121093750 0.000754560867790132761001586914 -0.003785270266234875159022665869 0 0 0 0 
2411666666.6666665077 0.167833313345909090896768134371 -0.026684317737817760812779610546 0.000791811267845332622528076172 -0.003852516645565629005432128906 0 0 0 0 
2411833333.3333334923 0.167937546968460110763388115629 -0.028599919751286510122278983204 0.000529232609551399946212768555 -0.003873043227940797805786132812 0 0 0 0 
2412000000.0000000000 0.168213889002799987792968750000 -0.030462544411420818674107735546 0.000336047378368675708770751953 -0.003976506646722555160522460938 0 0 0 0 
2412166666.6666665077 0.168408900499343899825888115629 -0.032461471855640411376953125000 0.000331187562551349401473999023 -0.003876129630953073935267783057 0 0 0 0 
2412333333.3333334923 0.169074639678001403808593750000 -0.034322574734687812114675153907 0.000188474063179455697536468506 -0.004078762605786324414725019238 0 0 0 0 
2412500000.0000000000 0.169293209910392788986044365629 -0.036164224147796630859375000000 -0.000123602862004190710469922476 -0.004072856623679400357718183301 0 0 0 0 
2412666666.6666665077 0.169946998357772799392861884371 -0.037895344197750091552734375000 -0.000091309331764932721853256226 -0.003996825311332941055297851562 0 0 0 0 
2412833333.3333334923 0.170395210385322598556356865629 -0.039731927216053009033203125000 -0.000440012139733880812495631085 -0.003986011724919080734252929688 0 0 0 0 
2413000000.0000000000 0.171012356877326993087606865629 -0.041174598038196556781809221093 -0.000682199606671929359436035156 -0.003898106981068849997279501807 0 0 0 0 
2413166666.6666665077 0.171473130583763094803018134371 -0.042951006442308432842214216407 -0.000651900947559624910354614258 -0.004027694463729858398437500000 0 0 0 0 
2413333333.3333334923 0.171893984079360989669638115629 -0.044391646981239318847656250000 -0.000791181984823197126388549805 -0.003955319989472627639770507812 0 0 0 0 
2413500000.0000000000 0.172728091478347806075888115629 -0.045758236199617392803151716407 -0.001043657190166414000867534106 -0.003910666797310113906860351562 0 0 0 0 
2413666666.6666665077 0.173385843634605407714843750000 -0.047206465154886252666432966407 -0.001121264765970408916473388672 -0.003972015343606472015380859375 0 0 0 0 
2413833333.3333334923 0.173783183097839410979901231258 -0.048372883349657058715820312500 -0.001289409701712429957148886572 -0.003908362705260515213012695312 0 0 0 0 
2414000000.0000000000 0.174318656325340298751669365629 -0.049636326730251312255859375000 -0.001400036970153450965881347656 -0.003976486157625913619995117188 0 0 0 0 
2414166666.6666665077 0.175294861197471590896768134371 -0.050630848854780197143554687500 -0.001636576838791369958164834131 -0.003693488193675876097438193213 0 0 0 0 
2414333333.3333334923 0.175756871700286892989950615629 -0.051720857620239257812500000000 -0.001663670642301440022112202222 -0.003770163049921392960789345850 0 0 0 0 
2414500000.0000000000 0.176334664225578308105468750000 -0.052608594298362731933593750000 -0.001857346040196717002271342700 -0.003674648469313979148864746094 0 0 0 0 
2414666666.6666665077 0.176779910922050503829794365629 -0.053492784500122070312500000000 -0.002013677032664417786839150537 -0.003501168685033916993382119287 0 0 0 0 
2414833333.3333334923 0.177255868911743191818075615629 -0.054244145750999450683593750000 -0.002056465949863194985630654443 -0.003468348179012537002563476562 0 0 0 0 
2415000000.0000000000 0.177722603082656888107138115629 -0.054841324687004089355468750000 -0.002152953529730439186096191406 -0.003329733386635779900791787256 0 0 0 0 
2415166666.6666665077 0.177982121706008911132812500000 -0.055494092404842376708984375000 -0.002269176766276359991786337744 -0.003302923869341611862182617188 0 0 0 0 
2415333333.3333334923 0.178336009383201599121093750000 -0.056148108094930648803710937500 -0.002411380875855683846714638818 -0.003015249036252499060389853369 0 0 0 0 
2415500000.0000000000 0.178458109498023986816406250000 -0.056458558887243270874023437500 -0.002460115589201449914219521631 -0.003061136696487665176391601562 0 0 0 0 
2415666666.6666665077 0.178701698780059786697549384371 -0.056848458945751190185546875000 -0.002631215844303369955775595557 -0.002999827731400727792027138818 0 0 0 0 
2415833333.3333334923 0.178687974810600308517294365629 -0.057266291230916976928710937500 -0.002674567978829144997837685693 -0.002759268041700125174281454932 0 0 0 0 
2416000000.0000000000 0.178546443581581087967080634371 -0.057499073445796966552734375000 -0.002756788628175855116603232275 -0.002868919167667626900913857568 0 0 0 0 
2416166666.6666665077 0.178654447197914095779580634371 -0.057800911366939551616628278907 -0.002945106709375977949855185400 -0.002693080110475420951843261719 0 0 0 0 
2416333333.3333334923 0.178362324833869906326455634371 -0.057936519384384162212331403907 -0.002962562954053283171412802588 -0.002552369842305779890773154150 0 0 0 0 
2416500000.0000000000 0.178093895316123990157919365629 -0.058343380689620971679687500000 -0.003120332956314086914062500000 -0.002517810324206947846653603662 0 0 0 0 
2416666666.6666665077 0.177581652998924310882244981258 -0.058449953794479370117187500000 -0.003123660804703832106349326025 -0.002450502011924982070922851562 0 0 0 0 
2416833333.3333334923 0.177239984273910494705361884371 -0.058648966252803802490234375000 -0.003237202297896147207972861182 -0.002229077974334359169006347656 0 0 0 0 
2417000000.0000000000 0.176467671990394592285156250000 -0.058937303721904761577565778907 -0.003289881628006697134730673682 -0.002105082385241984887364052881 0 0 0 0 
2417166666.6666665077 0.175869196653366088867187500000 -0.059019871056079871440847028907 -0.003312301356345415115356445312 -0.001948352903127670071245503003 0 0 0 0 
2417333333.3333334923 0.175181254744529696365518134371 -0.059287670999765403057057966407 -0.003452590433880687193629599463 -0.001934984000399708964704204028 0 0 0 0 
2417500000.0000000000 0.174371689558029202560263115629 -0.059828069061040878295898437500 -0.003312900662422180175781250000 -0.001857458148151635906816792065 0 0 0 0 
2417666666.6666665077 0.173550933599472101409588731258 -0.059911347925662987445871721093 -0.003374636638909577889683388818 -0.001642964081838726997375488281 0 0 0 0 
2417833333.3333334923 0.172479778528213500976562500000 -0.060223273932933807373046875000 -0.003371814033016562895533896338 -0.001516117947176099040387797778 0 0 0 0 
2418000000.0000000000 0.171325325965881403167401231258 -0.060797978192567832256276716407 -0.003280148375779389901402138818 -0.001477338140830398039576865088 0 0 0 0 
2418166666.6666665077 0.170237928628921508789062500000 -0.061024904251098632812500000000 -0.003520476398989557786228798975 -0.001455111778341233947156596606 0 0 0 0 
2418333333.3333334923 0.169437661767005892654580634371 -0.061804875731468200683593750000 -0.003453020239248871803283691406 -0.001322986325249076106427836841 0 0 0 0 
2418500000.0000000000 0.167981505393981905838174384371 -0.062246024608612060546875000000 -0.003378030611202121214625693213 -0.001276325667276978926417685400 0 0 0 0 
2418666666.6666665077 0.167030185461044311523437500000 -0.062930285930633544921875000000 -0.003486198140308260917663574219 -0.001031283871270715973497700269 0 0 0 0 
2418833333.3333334923 0.165498226881027193924111884371 -0.063577562570571899414062500000 -0.003681796835735439820530556787 -0.001065547112375498034833598560 0 0 0 0 
2419000000.0000000000 0.164137557148933410644531250000 -0.064320735633373260498046875000 -0.003522879211232066154479980469 -0.000965017417911440134048461914 0 0 0 0 
2419166666.6666665077 0.163089171051979092696981865629 -0.065176308155059814453125000000 -0.003619436640292406082153320312 -0.000893479620572179555892944336 0 0 0 0 
2419333333.3333334923 0.161685079336166409591513115629 -0.065813817083835601806640625000 -0.003473219927400351004359579932 -0.000871910247951745986938476562 0 0 0 0 
2419500000.0000000000 0.160505488514900207519531250000 -0.067260205745697021484375000000 -0.003693519392982124848606728662 -0.000725445919670164585113525391 0 0 0 0 
2419666666.6666665077 0.159403234720230102539062500000 -0.068381711840629577636718750000 -0.003532575210556387901306152344 -0.000617334444541484117507934570 0 0 0 0 
2419833333.3333334923 0.158214241266250610351562500000 -0.069225072860717773437500000000 -0.003595782909542322158813476562 -0.000515166902914643287658691406 0 0 0 0 
