# Version 1.00
#
freq[Hz];re:Trc1_S11;im:Trc1_S11;re:Trc2_S21;im:Trc2_S21;
2.400000000000000E+009;1.730966866016388E-001;4.856482148170471E-002;2.274088328704238E-003;-2.642375184223056E-003;
2.400166666666667E+009;1.736377775669098E-001;4.804380238056183E-002;2.053200965747237E-003;-2.899678424000740E-003;
2.400333333333334E+009;1.740726679563522E-001;4.716672748327255E-002;2.127930056303740E-003;-3.073144704103470E-003;
2.400500000000000E+009;1.745005846023560E-001;4.668282344937325E-002;2.093045273795724E-003;-3.155190497636795E-003;
2.400666666666667E+009;1.747253984212875E-001;4.584903642535210E-002;1.690376433543861E-003;-3.459463128820062E-003;
2.400833333333334E+009;1.750487238168716E-001;4.536264762282372E-002;1.583077711984515E-003;-3.366905730217695E-003;
2.401000000000000E+009;1.752616018056870E-001;4.477223753929138E-002;1.536721247248352E-003;-3.549712710082531E-003;
2.401166666666667E+009;1.754079163074493E-001;4.408612474799156E-002;1.298742601647973E-003;-3.695965046063066E-003;
2.401333333333334E+009;1.755231916904450E-001;4.343938454985619E-002;1.120691769756377E-003;-3.701915731653571E-003;
2.401500000000000E+009;1.755447983741760E-001;4.284654185175896E-002;1.158828847110272E-003;-3.768990980461240E-003;
2.401666666666667E+009;1.757035404443741E-001;4.223011061549187E-002;9.106086217798293E-004;-3.895085304975510E-003;
2.401833333333334E+009;1.758557260036469E-001;4.127651080489159E-002;7.652016356587410E-004;-3.802949329838157E-003;
2.402000000000000E+009;1.754618734121323E-001;4.059035703539848E-002;6.786822341382504E-004;-3.953034058213234E-003;
2.402166666666667E+009;1.753479093313217E-001;3.974151983857155E-002;6.330982432700694E-004;-3.933411091566086E-003;
2.402333333333334E+009;1.751206815242767E-001;3.872422873973846E-002;4.694300296250731E-004;-3.899302100762725E-003;
2.402500000000000E+009;1.751681715250015E-001;3.786139935255051E-002;2.211878891102970E-004;-4.068032838404179E-003;
2.402666666666667E+009;1.749870479106903E-001;3.687777742743492E-002;-5.525081724044867E-005;-3.807540284469724E-003;
2.402833333333334E+009;1.748132407665253E-001;3.570146486163139E-002;-1.842849305830896E-004;-3.963766153901815E-003;
2.403000000000000E+009;1.744402498006821E-001;3.445301949977875E-002;-3.104383358731866E-004;-3.976162988692522E-003;
2.403166666666667E+009;1.739445626735687E-001;3.307254239916802E-002;-6.083181942813098E-004;-3.999757114797831E-003;
2.403333333333334E+009;1.737734228372574E-001;3.186586126685143E-002;-6.247874116525054E-004;-3.810071153566241E-003;
2.403500000000000E+009;1.732906252145767E-001;3.016907535493374E-002;-9.440201683901250E-004;-3.676792373880744E-003;
2.403666666666667E+009;1.731218993663788E-001;2.865920029580593E-002;-9.039687574841082E-004;-3.627532161772251E-003;
2.403833333333334E+009;1.727838963270187E-001;2.693534456193447E-002;-1.036870642565191E-003;-3.425673581659794E-003;
2.404000000000000E+009;1.722839772701263E-001;2.535914815962315E-002;-1.251213368959725E-003;-3.482673782855272E-003;
2.404166666666667E+009;1.719281673431397E-001;2.347665838897228E-002;-1.282955054193735E-003;-3.445527749136090E-003;
2.404333333333334E+009;1.716118305921555E-001;2.158931456506252E-002;-1.308698556385934E-003;-3.191371681168675E-003;
2.404500000000000E+009;1.712024062871933E-001;1.964439637959003E-002;-1.325272489339113E-003;-3.080796450376511E-003;
2.404666666666667E+009;1.708934754133225E-001;1.787319593131542E-002;-1.375460647977889E-003;-2.904615597799420E-003;
2.404833333333334E+009;1.707069277763367E-001;1.584727875888348E-002;-1.424769172444940E-003;-2.806020202115178E-003;
2.405000000000000E+009;1.706925779581070E-001;1.385347638279200E-002;-1.470085233449936E-003;-2.887311857193708E-003;
2.405166666666667E+009;1.704161018133164E-001;1.181576400995255E-002;-1.527704414911568E-003;-2.802442759275436E-003;
2.405333333333334E+009;1.704095155000687E-001;9.683124721050263E-003;-1.467788824811578E-003;-2.538642613217235E-003;
2.405500000000000E+009;1.705298870801926E-001;7.856050506234169E-003;-1.449805335141718E-003;-2.513417974114418E-003;
2.405666666666667E+009;1.705382764339447E-001;5.800446961075068E-003;-1.473900978453457E-003;-2.563895191997290E-003;
2.405833333333334E+009;1.705185025930405E-001;3.939120564609766E-003;-1.394458580762148E-003;-2.501390408724546E-003;
2.406000000000000E+009;1.709262132644653E-001;1.637150649912655E-003;-1.569906366057694E-003;-2.499012509360910E-003;
2.406166666666667E+009;1.710759252309799E-001;-2.777309855446219E-004;-1.274557667784393E-003;-2.500511240214109E-003;
2.406333333333334E+009;1.714353412389755E-001;-2.372064860537648E-003;-1.185440225526691E-003;-2.296235878020525E-003;
2.406500000000000E+009;1.719259172677994E-001;-4.186473321169615E-003;-1.258543925359845E-003;-2.392374444752932E-003;
2.406666666666667E+009;1.722522079944611E-001;-6.288853939622641E-003;-1.152706565335393E-003;-2.439483767375350E-003;
2.406833333333334E+009;1.729062348604202E-001;-8.335250429809094E-003;-1.112028374336660E-003;-2.414102898910642E-003;
2.407000000000000E+009;1.734448522329330E-001;-1.014261133968830E-002;-1.116996281780303E-003;-2.668041037395597E-003;
2.407166666666667E+009;1.743400841951370E-001;-1.208053063601255E-002;-1.178834121674299E-003;-2.665630308911204E-003;
2.407333333333334E+009;1.747285425662994E-001;-1.397129427641630E-002;-1.177966594696045E-003;-2.569305012002587E-003;
2.407500000000000E+009;1.755045354366303E-001;-1.572457514703274E-002;-1.259838580153883E-003;-2.704038983210921E-003;
2.407666666666667E+009;1.762476861476898E-001;-1.724077947437763E-002;-1.124514965340495E-003;-2.896818099543452E-003;
2.407833333333334E+009;1.768738478422165E-001;-1.915226504206657E-002;-1.291663735173643E-003;-3.009831765666604E-003;
2.408000000000000E+009;1.776779443025589E-001;-2.082887478172779E-002;-1.518651610240340E-003;-3.097034059464932E-003;
2.408166666666667E+009;1.782349348068237E-001;-2.210356108844280E-002;-1.432159682735801E-003;-3.109389683231711E-003;
2.408333333333334E+009;1.791156977415085E-001;-2.361790649592876E-002;-1.725115696899593E-003;-3.226091386750341E-003;
2.408500000000000E+009;1.796909272670746E-001;-2.504287101328373E-002;-1.694244099780917E-003;-3.357341978698969E-003;
2.408666666666667E+009;1.803641021251679E-001;-2.641915157437325E-002;-1.880916766822338E-003;-3.333317115902901E-003;
2.408833333333334E+009;1.806947886943817E-001;-2.770793251693249E-002;-2.152167493477464E-003;-3.477244870737195E-003;
2.409000000000000E+009;1.813375353813171E-001;-2.868430688977242E-002;-2.263401402160525E-003;-3.515108954161406E-003;
2.409166666666667E+009;1.818130314350128E-001;-2.958142384886742E-002;-2.473379019647837E-003;-3.516789525747299E-003;
2.409333333333334E+009;1.823144555091858E-001;-3.061829134821892E-002;-2.562395529821515E-003;-3.554731374606490E-003;
2.409500000000000E+009;1.826672405004501E-001;-3.145766258239746E-002;-3.000162076205015E-003;-3.547243773937225E-003;
2.409666666666667E+009;1.829193681478500E-001;-3.220947086811066E-002;-3.099995665252209E-003;-3.488959511741996E-003;
2.409833333333334E+009;1.830517202615738E-001;-3.277472779154778E-002;-3.282300429418683E-003;-3.741851309314370E-003;
2.410000000000000E+009;1.834855079650879E-001;-3.323552384972572E-002;-3.462482709437609E-003;-3.484297776594758E-003;
2.410166666666667E+009;1.836421787738800E-001;-3.378098085522652E-002;-3.698804182931781E-003;-3.225558670237660E-003;
2.410333333333334E+009;1.835539489984512E-001;-3.415009751915932E-002;-4.016713239252567E-003;-3.208466805517674E-003;
2.410500000000000E+009;1.837438344955444E-001;-3.444033861160278E-002;-4.260318819433451E-003;-3.228885587304831E-003;
2.410666666666667E+009;1.836256086826325E-001;-3.509369492530823E-002;-4.475278779864311E-003;-3.154113655909896E-003;
2.410833333333334E+009;1.834916621446610E-001;-3.530119359493256E-002;-4.704662133008242E-003;-2.997343428432941E-003;
2.411000000000000E+009;1.831749528646469E-001;-3.545793518424034E-002;-4.931299015879631E-003;-2.783521078526974E-003;
2.411166666666667E+009;1.830100268125534E-001;-3.598463535308838E-002;-5.154818296432495E-003;-2.624174579977989E-003;
2.411333333333334E+009;1.824324131011963E-001;-3.628203272819519E-002;-5.265730898827314E-003;-2.401771955192089E-003;
2.411500000000000E+009;1.821566075086594E-001;-3.676574677228928E-002;-5.533649586141110E-003;-2.124369610100985E-003;
2.411666666666667E+009;1.814621835947037E-001;-3.696978837251663E-002;-5.794434808194637E-003;-1.871140208095312E-003;
2.411833333333334E+009;1.807133108377457E-001;-3.728557378053665E-002;-5.863409955054522E-003;-1.565810409374535E-003;
2.412000000000000E+009;1.800732761621475E-001;-3.783242776989937E-002;-6.030408665537834E-003;-1.449861330911517E-003;
2.412166666666667E+009;1.791249662637711E-001;-3.826343640685082E-002;-6.271287333220244E-003;-1.137589453719556E-003;
2.412333333333334E+009;1.783484816551209E-001;-3.863380849361420E-002;-6.133984774351120E-003;-6.865992909297347E-004;
2.412500000000000E+009;1.771738231182098E-001;-3.923948481678963E-002;-6.267891731113195E-003;-3.755614452529699E-004;
2.412666666666667E+009;1.761798411607742E-001;-3.997098281979561E-002;-6.282648071646690E-003;-8.834982872940600E-005;
2.412833333333334E+009;1.749686300754547E-001;-4.058643057942390E-002;-6.319503299891949E-003;4.181451513431966E-004;
2.413000000000000E+009;1.738829016685486E-001;-4.111709818243980E-002;-6.235737353563309E-003;6.408485933206976E-004;
2.413166666666667E+009;1.724433749914169E-001;-4.199999943375588E-002;-6.217337213456631E-003;8.652206161059439E-004;
2.413333333333334E+009;1.711420565843582E-001;-4.284563288092613E-002;-5.990606267005205E-003;1.454019104130566E-003;
2.413500000000000E+009;1.700777858495712E-001;-4.387491941452026E-002;-5.727504845708609E-003;1.665075425989926E-003;
2.413666666666667E+009;1.687073409557343E-001;-4.500442370772362E-002;-5.723981186747551E-003;1.749138697050512E-003;
2.413833333333334E+009;1.674565076828003E-001;-4.590053856372833E-002;-5.548140965402126E-003;1.903272117488086E-003;
2.414000000000000E+009;1.661410480737686E-001;-4.711863398551941E-002;-5.486951675266028E-003;2.296247752383351E-003;
2.414166666666667E+009;1.649106144905090E-001;-4.817108809947968E-002;-5.253498908132315E-003;2.625731984153390E-003;
2.414333333333334E+009;1.635943800210953E-001;-4.966327548027039E-002;-5.015083122998476E-003;2.660735743120313E-003;
2.414500000000000E+009;1.626127511262894E-001;-5.097345635294914E-002;-4.796787165105343E-003;2.832018304616213E-003;
2.414666666666667E+009;1.612761914730072E-001;-5.253718048334122E-002;-4.658090416342020E-003;2.881121123209596E-003;
2.414833333333334E+009;1.602069288492203E-001;-5.406795069575310E-002;-4.424497485160828E-003;3.037529066205025E-003;
2.415000000000000E+009;1.592310667037964E-001;-5.572080612182617E-002;-4.358405712991953E-003;3.195508150383830E-003;
2.415166666666667E+009;1.583159565925598E-001;-5.740251392126083E-002;-4.204484634101391E-003;3.201704937964678E-003;
2.415333333333334E+009;1.574176102876663E-001;-5.908779799938202E-002;-3.875542199239135E-003;3.387854667380452E-003;
2.415500000000000E+009;1.565694659948349E-001;-6.087754666805267E-002;-3.859819611534476E-003;3.258990123867989E-003;
2.415666666666667E+009;1.556945443153381E-001;-6.265641003847122E-002;-3.591275075450540E-003;3.308060811832547E-003;
2.415833333333334E+009;1.552411019802094E-001;-6.458630412817001E-002;-3.610245417803526E-003;3.514005104079843E-003;
2.416000000000000E+009;1.543499231338501E-001;-6.643124669790268E-002;-3.515601856634021E-003;3.558471100404859E-003;
2.416166666666667E+009;1.539637893438339E-001;-6.842175126075745E-002;-3.302160883322358E-003;3.631802741438150E-003;
2.416333333333334E+009;1.535147428512573E-001;-7.037284225225449E-002;-3.011767286807299E-003;3.675342071801424E-003;
2.416500000000000E+009;1.529875844717026E-001;-7.235527783632278E-002;-2.905558794736862E-003;3.811973612755537E-003;
2.416666666666667E+009;1.525394469499588E-001;-7.421441376209259E-002;-2.831902820616961E-003;3.793474053964019E-003;
2.416833333333334E+009;1.524962633848190E-001;-7.626619935035706E-002;-2.693009795621038E-003;3.889356041327119E-003;
2.417000000000000E+009;1.520162820816040E-001;-7.824196666479111E-002;-2.434124937281013E-003;3.828179324045777E-003;
2.417166666666667E+009;1.519044488668442E-001;-7.992283999919891E-002;-2.297140192240477E-003;3.874678630381823E-003;
2.417333333333334E+009;1.518986672163010E-001;-8.163389563560486E-002;-2.100789221003652E-003;3.991548903286457E-003;
2.417500000000000E+009;1.517515778541565E-001;-8.352785557508469E-002;-1.896626199595630E-003;3.921513911336660E-003;
2.417666666666667E+009;1.518959552049637E-001;-8.497423678636551E-002;-1.746014808304608E-003;3.857608651742339E-003;
2.417833333333334E+009;1.518232375383377E-001;-8.664484322071075E-002;-1.706604962237179E-003;3.823491046205163E-003;
2.418000000000000E+009;1.519140750169754E-001;-8.812596648931503E-002;-1.529027707874775E-003;3.809976857155561E-003;
2.418166666666667E+009;1.519515365362167E-001;-8.936098217964172E-002;-1.392744947224855E-003;3.644637763500214E-003;
2.418333333333334E+009;1.523821055889130E-001;-9.079947322607040E-002;-1.388014759868383E-003;3.655459266155958E-003;
2.418500000000000E+009;1.524686962366104E-001;-9.199659526348114E-002;-1.320391194894910E-003;3.547639353200793E-003;
2.418666666666667E+009;1.526445299386978E-001;-9.310165792703629E-002;-1.158355502411723E-003;3.521461505442858E-003;
2.418833333333334E+009;1.527477502822876E-001;-9.412021934986115E-002;-1.208185800351203E-003;3.403233829885721E-003;
2.419000000000000E+009;1.529447138309479E-001;-9.489287436008453E-002;-1.282936194911599E-003;3.276290139183402E-003;
2.419166666666667E+009;1.531323194503784E-001;-9.566901624202728E-002;-1.094476436264813E-003;3.234521485865116E-003;
2.419333333333334E+009;1.532858759164810E-001;-9.608428925275803E-002;-1.182807842269540E-003;3.166503971442580E-003;
2.419500000000000E+009;1.533886194229126E-001;-9.688417613506317E-002;-1.291963271796703E-003;3.228334244340658E-003;
2.419666666666667E+009;1.537234783172607E-001;-9.721519052982330E-002;-1.273817848414183E-003;3.198696300387383E-003;
2.419833333333334E+009;1.537918448448181E-001;-9.737947583198547E-002;-1.434683217667043E-003;3.328037681058049E-003;
2.420000000000000E+009;1.538845151662827E-001;-9.762764722108841E-002;-1.357013010419905E-003;3.396409330889583E-003;
2.420166666666667E+009;1.540204137563705E-001;-9.763786941766739E-002;-1.516283024102449E-003;3.579075215384364E-003;
2.420333333333334E+009;1.540996581315994E-001;-9.763588756322861E-002;-1.439001294784248E-003;3.735762787982822E-003;
2.420500000000000E+009;1.542528122663498E-001;-9.752082824707031E-002;-1.459810533560813E-003;3.887777449563146E-003;
2.420666666666667E+009;1.540398597717285E-001;-9.718338400125504E-002;-1.436286605894566E-003;3.980042878538370E-003;
2.420833333333334E+009;1.539671868085861E-001;-9.710544347763062E-002;-1.346796983852983E-003;4.017687868326902E-003;
2.421000000000000E+009;1.537722498178482E-001;-9.685393422842026E-002;-1.169177703559399E-003;4.292833618819714E-003;
2.421166666666667E+009;1.535843014717102E-001;-9.666725248098373E-002;-1.227085362188518E-003;4.496173001825810E-003;
2.421333333333334E+009;1.533929109573364E-001;-9.658785909414291E-002;-1.185099943540990E-003;4.499405622482300E-003;
2.421500000000000E+009;1.529235839843750E-001;-9.590838104486466E-002;-9.604150545783341E-004;4.776996560394764E-003;
2.421666666666667E+009;1.525909155607224E-001;-9.553126245737076E-002;-7.723940652795136E-004;4.743714351207018E-003;
2.421833333333334E+009;1.521397978067398E-001;-9.529011696577072E-002;-6.787072052247822E-004;5.013854242861271E-003;
2.422000000000000E+009;1.514403223991394E-001;-9.509491175413132E-002;-5.706522497348487E-004;5.240437109023333E-003;
2.422166666666667E+009;1.506440341472626E-001;-9.491433948278427E-002;-3.117292944807559E-004;5.246765911579132E-003;
2.422333333333334E+009;1.497383117675781E-001;-9.459336847066879E-002;2.761081850621849E-005;5.412141792476177E-003;
2.422500000000000E+009;1.487339437007904E-001;-9.423281252384186E-002;1.746897905832157E-004;5.385347176343203E-003;
2.422666666666667E+009;1.476446092128754E-001;-9.422727674245834E-002;4.355273558758199E-004;5.600620061159134E-003;
2.422833333333334E+009;1.466013789176941E-001;-9.405849128961563E-002;8.571075159125030E-004;5.678069312125444E-003;
2.423000000000000E+009;1.453464776277542E-001;-9.404052048921585E-002;1.150459051132202E-003;5.761474370956421E-003;
2.423166666666667E+009;1.441236436367035E-001;-9.401649981737137E-002;1.438860432244837E-003;5.879472941160202E-003;
2.423333333333334E+009;1.429593414068222E-001;-9.378975629806519E-002;1.655993168242276E-003;5.625568330287933E-003;
2.423500000000000E+009;1.414411514997482E-001;-9.394720196723938E-002;2.061740262433887E-003;5.685381591320038E-003;
2.423666666666667E+009;1.398069709539414E-001;-9.435830265283585E-002;2.323638880625367E-003;5.565856117755175E-003;
2.423833333333334E+009;1.384979039430618E-001;-9.453292191028595E-002;2.736053895205259E-003;5.304793827235699E-003;
2.424000000000000E+009;1.369705200195313E-001;-9.466841071844101E-002;2.938047051429749E-003;5.246024578809738E-003;
2.424166666666667E+009;1.353163868188858E-001;-9.505430608987808E-002;3.376618959009647E-003;5.019023083150387E-003;
2.424333333333334E+009;1.339846551418304E-001;-9.543085843324661E-002;3.454610239714384E-003;4.839027766138315E-003;
2.424500000000000E+009;1.324556469917297E-001;-9.616044163703919E-002;3.731537843123078E-003;4.609319847077131E-003;
2.424666666666667E+009;1.310709863901138E-001;-9.644521772861481E-002;4.065182991325855E-003;4.466898273676634E-003;
2.424833333333334E+009;1.295324265956879E-001;-9.723121672868729E-002;4.238677676767111E-003;4.219371825456619E-003;
2.425000000000000E+009;1.281999945640564E-001;-9.825426340103149E-002;4.363158717751503E-003;3.902359632775188E-003;
2.425166666666667E+009;1.266244202852249E-001;-9.915287792682648E-002;4.516069777309895E-003;3.584089223295450E-003;
2.425333333333334E+009;1.255085617303848E-001;-1.001187413930893E-001;4.657461307942867E-003;3.346555400639772E-003;
2.425500000000000E+009;1.243251115083695E-001;-1.013440564274788E-001;4.756344016641378E-003;2.983114216476679E-003;
2.425666666666667E+009;1.228849366307259E-001;-1.023465469479561E-001;4.860028158873320E-003;2.534812781959772E-003;
2.425833333333334E+009;1.218437179923058E-001;-1.036875322461128E-001;4.869791679084301E-003;2.125891856849194E-003;
2.426000000000000E+009;1.208474934101105E-001;-1.050612926483154E-001;4.810547456145287E-003;2.175129950046539E-003;
2.426166666666667E+009;1.200264543294907E-001;-1.064190417528153E-001;4.951328970491886E-003;1.973422477021813E-003;
2.426333333333334E+009;1.190148144960403E-001;-1.078389286994934E-001;4.740719217807055E-003;1.431618584319949E-003;
2.426500000000000E+009;1.182518452405930E-001;-1.093256622552872E-001;4.784487653523684E-003;1.217307639308274E-003;
2.426666666666667E+009;1.176944822072983E-001;-1.107544675469399E-001;4.668090492486954E-003;1.020486000925303E-003;
2.426833333333334E+009;1.169479340314865E-001;-1.124337613582611E-001;4.458568058907986E-003;6.143277278169990E-004;
2.427000000000000E+009;1.162792369723320E-001;-1.141341403126717E-001;4.308750852942467E-003;3.554323629941791E-004;
2.427166666666667E+009;1.158993318676949E-001;-1.156509965658188E-001;4.178235307335854E-003;2.979354176204652E-004;
2.427333333333334E+009;1.154678016901016E-001;-1.171170473098755E-001;3.941276576370001E-003;5.242456245468929E-005;
2.427500000000000E+009;1.152177453041077E-001;-1.188465356826782E-001;3.609349252656102E-003;-2.487054553057533E-005;
2.427666666666667E+009;1.149864569306374E-001;-1.205475330352783E-001;3.763638203963637E-003;-1.807973167160526E-004;
