# Hz S RI R 50
2400000000.0000000000 0.173219203948974609375000000000 0.049048203974962227558176408593 0.000258494808804243803024291992 -0.001104665920138359069824218750 0 0 0 0 
2400166666.6666665077 0.173969671130180386642294365629 0.048510801047086722637136091407 0.000126968589029274907991132193 -0.001006022212095559077021933447 0 0 0 0 
2400333333.3333334923 0.174230813980102511306924384371 0.047554779797792441631276716407 0.000304923742078244686126708984 -0.000966116262134164571762084961 0 0 0 0 
2400500000.0000000000 0.174843102693557711502236884371 0.046877264976501471782643903907 0.000251347606536001021235865460 -0.000935197633225470781326293945 0 0 0 0 
2400666666.6666665077 0.175112009048461886306924384371 0.046179868280887596820871721093 0.000432893546530976891517639160 -0.000870618503540754318237304688 0 0 0 0 
2400833333.3333334923 0.175484567880630493164062500000 0.045736737549304962158203125000 0.000404440041165798902511596680 -0.000947830441873520612716674805 0 0 0 0 
2401000000.0000000000 0.175605967640876797775106865629 0.045044615864753723144531250000 0.000405977916670963222354334698 -0.000919977028388530015945434570 0 0 0 0 
2401166666.6666665077 0.175968512892723111251669365629 0.044419929385185241699218750000 0.000299411651212722117274683820 -0.000910685164853930473327636719 0 0 0 0 
2401333333.3333334923 0.176055952906608609298544365629 0.043692760169506072998046875000 0.000563906214665621519088745117 -0.000866436515934765338897705078 0 0 0 0 
2401500000.0000000000 0.176107704639434786697549384371 0.043007776141166687011718750000 0.000562050845474004853903615686 -0.000859266147017478942871093750 0 0 0 0 
2401666666.6666665077 0.176139131188392611404580634371 0.042406875640153891826589216407 0.000642733473796397447586059570 -0.001083993120118976073024130713 0 0 0 0 
2401833333.3333334923 0.176403149962425204178018134371 0.041543126106262207031250000000 0.000678637006785720586776733398 -0.000897808815352618694305419922 0 0 0 0 
2402000000.0000000000 0.175856515765190096756143134371 0.040675882250070571899414062500 0.000659549841657280921936035156 -0.001019810559228063063380576025 0 0 0 0 
2402166666.6666665077 0.175909161567687988281250000000 0.039746388792991638183593750000 0.000688050407916307449340820312 -0.001056872191838919899584126050 0 0 0 0 
2402333333.3333334923 0.175589695572853088378906250000 0.038812763988971710205078125000 0.000625945802312344312667846680 -0.001026273705065249963047646631 0 0 0 0 
2402500000.0000000000 0.175668761134147588531817518742 0.038116946816444396972656250000 0.000832723453640937805175781250 -0.001101337024010718085645366138 0 0 0 0 
2402666666.6666665077 0.175304472446441705901776231258 0.036959916353225708007812500000 0.000784473493695259094238281250 -0.001064034178853034973144531250 0 0 0 0 
2402833333.3333334923 0.175026297569274902343750000000 0.035792946815490722656250000000 0.000903277716133743524551391602 -0.001008858438581228039385151440 0 0 0 0 
2403000000.0000000000 0.174680173397064208984375000000 0.034430015832185752178151716407 0.000862476008478552103042602539 -0.001181109575554728941676474463 0 0 0 0 
2403166666.6666665077 0.174619719386100796798544365629 0.033136330544948577880859375000 0.000918296165764331817626953125 -0.001245154766365885951398539966 0 0 0 0 
2403333333.3333334923 0.174003139138221712967080634371 0.031951509416103363037109375000 0.001018570270389318899867392432 -0.001280168653465807004215859521 0 0 0 0 
2403500000.0000000000 0.173766821622848510742187500000 0.030241360887885090219517891796 0.001051051774993539073346782153 -0.001239441800862550952314067310 0 0 0 0 
2403666666.6666665077 0.173459365963935907561932481258 0.028798216953873630868931954296 0.001074581872671843008754111182 -0.001262020436115562915802001953 0 0 0 0 
2403833333.3333334923 0.173163428902626009842080634371 0.027091694995760921133021170704 0.000986549188382923603057861328 -0.001624686410650610923767089844 0 0 0 0 
2404000000.0000000000 0.172670871019363403320312500000 0.025248836725950241088867187500 0.000919267011340707540512084961 -0.001560063916258513927459716797 0 0 0 0 
2404166666.6666665077 0.172337546944618197342080634371 0.023507876321673389780064766796 0.000993000110611319541931152344 -0.001694941776804625988006591797 0 0 0 0 
2404333333.3333334923 0.171816840767860412597656250000 0.021812371909618381154993826954 0.000946841842960566282272338867 -0.001926014665514230944989848560 0 0 0 0 
2404500000.0000000000 0.171541556715965298751669365629 0.019822966307401660573939139454 0.000841973000206053256988525391 -0.001812510075978934981702495044 0 0 0 0 
2404666666.6666665077 0.171335846185684204101562500000 0.017859816551208499563196951954 0.000875919009558856487274169922 -0.001966893905773758888244628906 0 0 0 0 
2404833333.3333334923 0.171054422855377197265625000000 0.015971964225172999990443045704 0.000658794888295233249664306641 -0.002141958102583885192871093750 0 0 0 0 
2405000000.0000000000 0.170892596244812011718750000000 0.013961386866867540532122227148 0.000727717182599008083343505859 -0.002071533584967256026027060400 0 0 0 0 
2405166666.6666665077 0.170719981193542508224325615629 0.011947258375585079193115234375 0.000663538172375410795211791992 -0.002060822211205958886387490381 0 0 0 0 
2405333333.3333334923 0.170864284038543701171875000000 0.009871352463960647583007812500 0.000621664163190871477127075195 -0.002162755234166979789733886719 0 0 0 0 
2405500000.0000000000 0.170744001865386990646200615629 0.007892447523772716522216796875 0.000351654860423877781063634052 -0.002283246023580431938171386719 0 0 0 0 
2405666666.6666665077 0.170824170112609891036825615629 0.005836287047713994979858398438 0.000406976381782442277103978290 -0.002122364938259125189540243994 0 0 0 0 
2405833333.3333334923 0.170848131179809598068075615629 0.003864663420245050950291298975 0.000206071825232356786727905273 -0.002422522986307740211486816406 0 0 0 0 
2406000000.0000000000 0.171366035938262911697549384371 0.001519645215012132904650044019 0.000112051457108464105568747249 -0.002263229805976151986363076318 0 0 0 0 
2406166666.6666665077 0.171321839094161987304687500000 -0.000340338912792503779560643329 -0.000010848109013750219549042549 -0.002285209484398365020751953125 0 0 0 0 
2406333333.3333334923 0.171905800700187710861044365629 -0.002246963791549206213710165869 -0.000083008373621851205825805664 -0.002296156482771039009094238281 0 0 0 0 
2406500000.0000000000 0.172260910272598294357138115629 -0.004383360035717487335205078125 -0.000153762026457116007804870605 -0.002198956906795502142665243994 0 0 0 0 
2406666666.6666665077 0.172561407089233398437500000000 -0.006342872045934200286865234375 -0.000171064559253863990306854248 -0.002357857069000602202174521338 0 0 0 0 
2406833333.3333334923 0.173169881105423001388388115629 -0.008525901474058628082275390625 -0.000222586793825030299738207407 -0.002310718176886438889744423975 0 0 0 0 
2407000000.0000000000 0.173870623111724909026776231258 -0.010302657261490820103655430273 -0.000335027696564793586730957031 -0.002101151971146463914158486475 0 0 0 0 
2407166666.6666665077 0.174476876854896600921307481258 -0.012183902785181999206542968750 -0.000256087980233132784992772235 -0.002317873528227210044860839844 0 0 0 0 
2407333333.3333334923 0.175090387463569613357705634371 -0.014192914590239530045479021680 -0.000449291896075010299682617188 -0.002183482283726335005519247900 0 0 0 0 
2407500000.0000000000 0.175703480839729309082031250000 -0.015932003036141399038294608204 -0.000422638986492529511451721191 -0.002084900857880711989161826025 0 0 0 0 
2407666666.6666665077 0.176555544137954711914062500000 -0.017682120203971859323521798046 -0.000568810792174190282821655273 -0.002161521697416902022120810400 0 0 0 0 
2407833333.3333334923 0.177139669656753512283486884371 -0.019484743475914001464843750000 -0.000649440567940473556518554688 -0.002016474027186632156372070312 0 0 0 0 
2408000000.0000000000 0.177880272269248990157919365629 -0.021202977746725078928013985546 -0.000520453962963074554144704553 -0.002013895427808165983912802588 0 0 0 0 
2408166666.6666665077 0.178473785519599886795205634371 -0.022677648812532428396204764454 -0.000606850895565003156661987305 -0.001942866249009967067121196216 0 0 0 0 
2408333333.3333334923 0.179353281855583190917968750000 -0.024095810949802398681640625000 -0.000761781411711126565933227539 -0.001849631429649889902827597510 0 0 0 0 
2408500000.0000000000 0.179849863052368191818075615629 -0.025487760081887248647669608204 -0.000726294470950961112976074219 -0.001922002644278109073638916016 0 0 0 0 
2408666666.6666665077 0.180498167872428894042968750000 -0.026977557688951488840123360546 -0.000699722324497997760772705078 -0.001764332526363431973698281396 0 0 0 0 
2408833333.3333334923 0.180837273597717312911825615629 -0.028258867561817169189453125000 -0.000600016617681831121444702148 -0.001931742648594080968144082178 0 0 0 0 
2409000000.0000000000 0.181241407990455599685830634371 -0.029184384271502498281458670704 -0.000693285721354186534881591797 -0.001859961426816880919812846606 0 0 0 0 
2409166666.6666665077 0.181738406419754000564736884371 -0.030182233080267909658411795704 -0.000467763282358646392822265625 -0.001843036967329680919647216797 0 0 0 0 
2409333333.3333334923 0.182101503014564486404580634371 -0.031102800741791728628138358204 -0.000512402562890201807022094727 -0.001885631936602294011356972803 0 0 0 0 
2409500000.0000000000 0.182456433773040799239950615629 -0.032008040696382522583007812500 -0.000542483583558350801467895508 -0.001853805384598671956303261865 0 0 0 0 
2409666666.6666665077 0.182675391435623196700888115629 -0.032505877315998077392578125000 -0.000559919222723692655563354492 -0.002106716157868504957911826025 0 0 0 0 
2409833333.3333334923 0.182977706193924005706463731258 -0.032945655286312103271484375000 -0.000548449286725372076034545898 -0.001976282801479101181030273438 0 0 0 0 
2410000000.0000000000 0.183177456259727505782919365629 -0.033489760011434561992604841407 -0.000660829595290124416351318359 -0.002146308310329914093017578125 0 0 0 0 
2410166666.6666665077 0.183218672871589688400106865629 -0.033804632723331451416015625000 -0.000619324855506420135498046875 -0.002043331973254681067225790869 0 0 0 0 
2410333333.3333334923 0.183254569768905611892861884371 -0.034205980598926537250559221093 -0.000708566105458885431289672852 -0.002140656113624573187587118994 0 0 0 0 
2410500000.0000000000 0.183369755744934109786825615629 -0.034701839089393622661550153907 -0.000658505887258797883987426758 -0.002057334873825312094447470557 0 0 0 0 
2410666666.6666665077 0.183279007673263605315838731258 -0.035049051046371459960937500000 -0.000847840798087418079376220703 -0.002190294675529003143310546875 0 0 0 0 
2410833333.3333334923 0.183128848671913202483807481258 -0.035058014094829559326171875000 -0.000904205371625721454620361328 -0.002413896843791007995605468750 0 0 0 0 
2411000000.0000000000 0.183021888136863708496093750000 -0.035364549607038497924804687500 -0.000963279628194868564605712891 -0.002377158030867577032801962744 0 0 0 0 
2411166666.6666665077 0.182563349604606600662393134371 -0.035763151943683617328684221093 -0.001167143345810472965240478516 -0.002387468004599214033839560400 0 0 0 0 
2411333333.3333334923 0.182401746511459406097088731258 -0.035983115434646613384206403907 -0.001104942290112375996233295972 -0.002669851528480648994445800781 0 0 0 0 
2411500000.0000000000 0.181757062673568697830361884371 -0.036484912037849433208425153907 -0.001224330975674092986463237231 -0.002390341134741901917698525537 0 0 0 0 
2411666666.6666665077 0.181348264217376708984375000000 -0.036686521023511886596679687500 -0.001356144319288433031794882666 -0.002500123111531137986424111475 0 0 0 0 
2411833333.3333334923 0.180678069591522189041299384371 -0.036733575165271759033203125000 -0.001474564080126584009883261572 -0.002507070079445838928222656250 0 0 0 0 
2412000000.0000000000 0.180010318756103487869424384371 -0.037413883954286582256276716407 -0.001725568203255533955217670972 -0.002459738170728086991551064600 0 0 0 0 
2412166666.6666665077 0.179186433553695706466513115629 -0.037926133722066879272460937500 -0.001863553421571850993512797778 -0.002463143784552813009974814307 0 0 0 0 
2412333333.3333334923 0.178514182567596407791299384371 -0.038086589425802230834960937500 -0.001807594555430114052416157300 -0.002535336650907992882969521631 0 0 0 0 
2412500000.0000000000 0.177145183086395291427450615629 -0.038767747581005103374440778907 -0.001989147160202264785766601562 -0.002361522987484931945800781250 0 0 0 0 
2412666666.6666665077 0.176393136382102994064169365629 -0.039672531187534332275390625000 -0.002214054577052592797520302881 -0.002319572027772665023803710938 0 0 0 0 
2412833333.3333334923 0.175255760550498990157919365629 -0.040172576904296881938893903907 -0.002369470661506056785583496094 -0.002506927819922565980198525537 0 0 0 0 
2413000000.0000000000 0.173956304788589505294638115629 -0.040922135114669799804687500000 -0.002454423578456044197082519531 -0.002281611319631338119506835938 0 0 0 0 
2413166666.6666665077 0.172835931181907709319744981258 -0.041784841567277908325195312500 -0.002651161281391977830174111475 -0.002147035673260689215419150244 0 0 0 0 
2413333333.3333334923 0.171463176608085604568643134371 -0.042538557201623916625976562500 -0.002661658683791757063624716650 -0.002174216555431485176086425781 0 0 0 0 
2413500000.0000000000 0.170347675681114196777343750000 -0.043676894158124916767160783593 -0.002679388271644711928126669775 -0.002082351129502058029174804688 0 0 0 0 
2413666666.6666665077 0.168920263648033086578692518742 -0.044639721512794501567800153907 -0.002771440660580993132350302588 -0.001901593757793307087541889722 0 0 0 0 
2413833333.3333334923 0.167750015854835510253906250000 -0.045746657997369773174245466407 -0.002895409706979990005493164062 -0.001743388012982904911041259766 0 0 0 0 
2414000000.0000000000 0.166475072503089904785156250000 -0.046921424567699432373046875000 -0.002999461488798261122462607275 -0.001633010688237845897674560547 0 0 0 0 
2414166666.6666665077 0.165193319320678710937500000000 -0.048020500689744949340820312500 -0.002884119050577282905578613281 -0.001588467275723814964294433594 0 0 0 0 
2414333333.3333334923 0.164005994796752901931924384371 -0.049609731882810592651367187500 -0.002945833373814820809605263818 -0.001274300506338476917864155347 0 0 0 0 
2414500000.0000000000 0.162979930639266995529013115629 -0.050778813660144812847097028907 -0.002936247037723660902736044775 -0.001123544760048389001133584131 0 0 0 0 
2414666666.6666665077 0.161875277757644708831463731258 -0.052210770547389977191965471093 -0.002995079616084694862365722656 -0.001176583929918705983402871240 0 0 0 0 
2414833333.3333334923 0.160563796758651705642861884371 -0.054046794772148132324218750000 -0.002994245849549769921543740381 -0.000883708649780601263046264648 0 0 0 0 
2415000000.0000000000 0.159579351544380187988281250000 -0.055546201765537261962890625000 -0.002880058484151958985569619287 -0.001003546640276909091352153247 0 0 0 0 
2415166666.6666665077 0.158558994531631497482138115629 -0.057344961911439902568776716407 -0.002873728051781653924229287256 -0.000853961275424808263778686523 0 0 0 0 
2415333333.3333334923 0.157871603965759305099325615629 -0.059098154306411743164062500000 -0.002933341776952147917506552588 -0.000875289086252450942993164062 0 0 0 0 
2415500000.0000000000 0.157061979174614008147869981258 -0.060946784913539893413503278907 -0.002827256452292203903198242188 -0.000821535475552082061767578125 0 0 0 0 
2415666666.6666665077 0.156294062733650207519531250000 -0.062827214598655700683593750000 -0.002885277383029460906982421875 -0.000796043023001402616500854492 0 0 0 0 
2415833333.3333334923 0.155524820089340209960937500000 -0.064720995724201202392578125000 -0.002659360645338892936706542969 -0.000547977979294955730438232422 0 0 0 0 
2416000000.0000000000 0.154779359698295593261718750000 -0.066773027181625366210937500000 -0.002713162917643785910365439307 -0.000681433884892612695693969727 0 0 0 0 
2416166666.6666665077 0.154383480548858587066973768742 -0.068553693592548370361328125000 -0.002658386947587132887599326025 -0.000623081927187740802764892578 0 0 0 0 
2416333333.3333334923 0.153860941529273986816406250000 -0.070608153939247131347656250000 -0.002644226653501390977146767725 -0.000573977478779852390289306641 0 0 0 0 
2416500000.0000000000 0.153478935360908508300781250000 -0.072651833295822143554687500000 -0.002786277793347835974452353369 -0.000520238070748746395111083984 0 0 0 0 
2416666666.6666665077 0.152926906943321200271768134371 -0.074490606784820556640625000000 -0.002625834196805953979492187500 -0.000625267741270363330841064453 0 0 0 0 
2416833333.3333334923 0.152778804302215603927450615629 -0.076578497886657714843750000000 -0.002690166933462024168727255713 -0.000620290287770330905914306641 0 0 0 0 
2417000000.0000000000 0.152292519807815607268963731258 -0.078518740832805633544921875000 -0.002705252729356288909912109375 -0.000591969990637153387069702148 0 0 0 0 
2417166666.6666665077 0.152089953422546386718750000000 -0.080357372760772705078125000000 -0.002738026203587650819065713037 -0.000678308424539864063262939453 0 0 0 0 
2417333333.3333334923 0.151907503604888888260049384371 -0.082106120884418487548828125000 -0.002895789220929145812988281250 -0.000635393604170531034469604492 0 0 0 0 
2417500000.0000000000 0.151905298233032198806924384371 -0.083952739834785461425781250000 -0.002833369653671979904174804688 -0.000589870091062039136886596680 0 0 0 0 
2417666666.6666665077 0.151940867304801913162393134371 -0.085432879626750946044921875000 -0.002980847842991352081298828125 -0.000656922638881951570510864258 0 0 0 0 
2417833333.3333334923 0.151959598064422607421875000000 -0.086997300386428833007812500000 -0.003138616448268293900730752100 -0.000490101345349103212356567383 0 0 0 0 
2418000000.0000000000 0.151804685592651394943075615629 -0.088654473423957824707031250000 -0.003183611901476978821995400537 -0.000674608396366238594055175781 0 0 0 0 
2418166666.6666665077 0.151967406272888211349325615629 -0.089754365384578704833984375000 -0.003171260235831141905543661963 -0.000652502407319843769073486328 0 0 0 0 
2418333333.3333334923 0.152359724044799804687500000000 -0.091145545244216918945312500000 -0.003510045586153864860534667969 -0.000595458084717392921447753906 0 0 0 0 
2418500000.0000000000 0.152266964316368103027343750000 -0.092285037040710449218750000000 -0.003560724901035428047180175781 -0.000391477195080369710922241211 0 0 0 0 
2418666666.6666665077 0.152578830718994112869424384371 -0.093290366232395172119140625000 -0.003596745431423186822178506006 -0.000343990279361605590015965594 0 0 0 0 
2418833333.3333334923 0.152565896511077908614950615629 -0.094395756721496582031250000000 -0.003734332975000143051147460938 -0.000278412277111783623695373535 0 0 0 0 
2419000000.0000000000 0.152668803930282592773437500000 -0.094986096024513244628906250000 -0.003845856292173265977146767725 -0.000095377377874683588743209839 0 0 0 0 
2419166666.6666665077 0.153133913874626187423544365629 -0.095886692404747009277343750000 -0.004077905323356389999389648438 0.000046844863391015678644180298 0 0 0 0 
2419333333.3333334923 0.153140902519226101974325615629 -0.096284329891204833984375000000 -0.004190353676676750183105468750 -0.000002016787448155810125172138 0 0 0 0 
2419500000.0000000000 0.153350621461868286132812500000 -0.096956685185432434082031250000 -0.004115920979529619216918945312 0.000247301359195262193679809570 0 0 0 0 
2419666666.6666665077 0.153554573655128506759481865629 -0.097410216927528381347656250000 -0.004231352359056472778320312500 0.000410693755839020013809204102 0 0 0 0 
2419833333.3333334923 0.153612345457076998611611884371 -0.097398534417152404785156250000 -0.004314522258937358856201171875 0.000689034117385745048522949219 0 0 0 0 
