# Hz S RI R 50
2400000000.0000000000 0.171246066689491299728231865629 0.040146932005882263183593750000 0.003138699801638721986057900537 0.005247982218861579895019531250 0 0 0 0 
2400166666.6666665077 0.171961367130279513260049384371 0.039787366986274719238281250000 0.003411930287256836891174316406 0.004895970225334168347830487988 0 0 0 0 
2400333333.3333334923 0.172292217612266512771768134371 0.039065871387720108032226562500 0.003539223922416567802429199219 0.004572062287479639053344726562 0 0 0 0 
2400500000.0000000000 0.172989234328269986251669365629 0.038572158664464950561523437500 0.003826661268249154090881347656 0.004448203835636377334594726562 0 0 0 0 
2400666666.6666665077 0.173073068261146600921307481258 0.037883404642343521118164062500 0.003978349268436431884765625000 0.004125598352402448654174804688 0 0 0 0 
2400833333.3333334923 0.173431515693664606292401231258 0.037262819707393653179128278907 0.004101874306797981262207031250 0.003825116204097867012023925781 0 0 0 0 
2401000000.0000000000 0.173555403947830200195312500000 0.036699395626783370971679687500 0.004130678717046976089477539062 0.003468652488663793043849326025 0 0 0 0 
2401166666.6666665077 0.173733204603195190429687500000 0.036016568541526787494699846093 0.004233798943459987640380859375 0.003322211792692542076110839844 0 0 0 0 
2401333333.3333334923 0.173644542694091796875000000000 0.035405099391937262798268903907 0.004356453195214272412771894238 0.003002785146236420111415243994 0 0 0 0 
2401500000.0000000000 0.173740491271019009689169365629 0.034636538475751876831054687500 0.004591242875903844833374023438 0.002639042446389793915989541162 0 0 0 0 
2401666666.6666665077 0.173752337694168090820312500000 0.034289330244064331054687500000 0.004624124616384506225585937500 0.002572603989392518997192382812 0 0 0 0 
2401833333.3333334923 0.173478215932846097091513115629 0.033511996269226067279856096093 0.004609190858900547027587890625 0.002115485491231083869934082031 0 0 0 0 
2402000000.0000000000 0.173273980617523193359375000000 0.032712910324335098266601562500 0.004539497662335634231567382812 0.002039950806647539138793945312 0 0 0 0 
2402166666.6666665077 0.172982543706893893142861884371 0.031697157770395278930664062500 0.004650619812309741973876953125 0.001441200147382915019989013672 0 0 0 0 
2402333333.3333334923 0.172771245241165188888388115629 0.030938530340790748596191406250 0.004602025263011456403250409863 0.001204001600854099013684916919 0 0 0 0 
2402500000.0000000000 0.172756701707839993575888115629 0.030156949535012248647669608204 0.004591468255966901779174804688 0.001058474765159189917920756763 0 0 0 0 
2402666666.6666665077 0.172468900680541992187500000000 0.029232140630483630788782889454 0.004460826981812716397757245801 0.000562348519451916217803955078 0 0 0 0 
2402833333.3333334923 0.171914458274841308593750000000 0.028205627575516700744628906250 0.004381642211228609085083007812 0.000453267886769026517868041992 0 0 0 0 
2403000000.0000000000 0.171650752425193786621093750000 0.027149148285388950002650076954 0.004193755332380533218383789062 0.000068711735366377979516983032 0 0 0 0 
2403166666.6666665077 0.171404823660850497146768134371 0.025879258289933211589772810157 0.004177573602646589279174804688 0.000054911983170313760638237000 0 0 0 0 
2403333333.3333334923 0.170836180448532104492187500000 0.024715447798371318471888358204 0.003795551368966699080226279150 -0.000276598701020702719688415527 0 0 0 0 
2403500000.0000000000 0.170476928353309603592080634371 0.023434223607182499277135079296 0.003640057751908897919895791162 -0.000438489194493740797042846680 0 0 0 0 
2403666666.6666665077 0.170020118355751009842080634371 0.022026797756552699697474295704 0.003471713047474623160121298682 -0.000567496113944798707962036133 0 0 0 0 
2403833333.3333334923 0.169610366225242586990518134371 0.020621452480554580688476562500 0.003149911761283874945399618994 -0.000666993029881268739700317383 0 0 0 0 
2404000000.0000000000 0.169210657477378900725994981258 0.019180838018655780446986014454 0.002997756004333496093750000000 -0.001009031198918818993809365381 0 0 0 0 
2404166666.6666665077 0.169096782803535489181356865629 0.017531685531139370309849923046 0.002684595994651318030116415869 -0.000923061859793961048126220703 0 0 0 0 
2404333333.3333334923 0.168449044227600097656250000000 0.016079938039183620107630545704 0.002372779883444308800938271631 -0.001017932314425707080243754810 0 0 0 0 
2404500000.0000000000 0.168281555175781305511151231258 0.014455988071858879434605782421 0.002462527481839060783386230469 -0.000828274351079016923904418945 0 0 0 0 
2404666666.6666665077 0.168120697140693692306356865629 0.012810615822672840463658516796 0.002026148140430450005772256006 -0.000781511887907981872558593750 0 0 0 0 
2404833333.3333334923 0.167976483702659606933593750000 0.011121833696961399423619454296 0.002007607603445649147033691406 -0.000672143825795501470565795898 0 0 0 0 
2405000000.0000000000 0.167672529816627502441406250000 0.009469608776271343231201171875 0.001735095866024493954302143628 -0.000578859529923647642135620117 0 0 0 0 
2405166666.6666665077 0.167685687541961697677450615629 0.007718109991401433944702148438 0.001737967948429286913630820166 -0.000562125409487634897232055664 0 0 0 0 
2405333333.3333334923 0.167805328965187100509481865629 0.005703739356249570846557617188 0.001753181568346918062922812354 -0.000513795006554573774337768555 0 0 0 0 
2405500000.0000000000 0.167610242962837191482705634371 0.004124033730477094650268554688 0.001658604713156818909886025537 -0.000264473172137513810962122784 0 0 0 0 
2405666666.6666665077 0.167601451277732904632244981258 0.002344195963814855055568076025 0.001604213262908160903333354419 -0.000376384501578286290168762207 0 0 0 0 
2405833333.3333334923 0.167596444487571688553018134371 0.000471394596388563513755798340 0.001331658801063895008684467847 -0.000111153705802280496485294481 0 0 0 0 
2406000000.0000000000 0.167669788002967806717080634371 -0.001419310341589153029798198169 0.001667354605160654024836874854 -0.000123322781291790306568145752 0 0 0 0 
2406166666.6666665077 0.167531400918960599044638115629 -0.003223348408937453789951943506 0.001534087117761373953578329932 -0.000153864166350103887632647104 0 0 0 0 
2406333333.3333334923 0.167800232768058804611044365629 -0.005156255327165126800537109375 0.001461716135963798002955771338 0.000120408076327294097699303899 0 0 0 0 
2406500000.0000000000 0.167622953653335599044638115629 -0.006989045068621634569649980762 0.001525804982520639896392822266 0.000013488121112459339201450348 0 0 0 0 
2406666666.6666665077 0.167594835162162808517294365629 -0.008585069328546524047851562500 0.001463770982809365012525248950 0.000193682033568620708867749625 0 0 0 0 
2406833333.3333334923 0.167823031544685391525106865629 -0.010454543866217139852503592579 0.001588216400705277919769287109 0.000152695080032572204440516339 0 0 0 0 
2407000000.0000000000 0.167881160974502591232138115629 -0.012046483345329759770403477148 0.001636982313357294039485312354 0.000153762404806911999553126202 0 0 0 0 
2407166666.6666665077 0.168088421225547790527343750000 -0.013595633208751680201520350977 0.001717876293696463108062744141 0.000437955779489129781723022461 0 0 0 0 
2407333333.3333334923 0.168014168739318903167401231258 -0.015099099837243560445765311329 0.001798956072889267964604043115 0.000376016309019178206294459210 0 0 0 0 
2407500000.0000000000 0.168032348155975286285723768742 -0.016404330730438228952428048046 0.001740027801133692047716450269 0.000569114112295210361480712891 0 0 0 0 
2407666666.6666665077 0.168278992176055908203125000000 -0.017650252208113670349121093750 0.001851430162787437005283974756 0.000543501577340066432952880859 0 0 0 0 
2407833333.3333334923 0.168227329850196810623330634371 -0.019089372828602790832519531250 0.002146649174392222924473427881 0.000547406787518411874771118164 0 0 0 0 
2408000000.0000000000 0.168481290340423611739950615629 -0.020284505560994151723841483204 0.002008055802434682846069335938 0.000459958653664216399192810059 0 0 0 0 
2408166666.6666665077 0.168639019131660489181356865629 -0.021156415343284610403040701954 0.002192935673519968986511230469 0.000608809641562402248382568359 0 0 0 0 
2408333333.3333334923 0.169027447700500488281250000000 -0.022063231095671650278111641796 0.002365328837186098098754882812 0.000551898614503443241119384766 0 0 0 0 
2408500000.0000000000 0.169164836406707791427450615629 -0.023025233298540118825892264454 0.002482024254277348952052451025 0.000435917463619261980056762695 0 0 0 0 
2408666666.6666665077 0.169508025050163296798544365629 -0.023696077987551689147949218750 0.002760748611763120131251669775 0.000441402720753103494644165039 0 0 0 0 
2408833333.3333334923 0.169782459735870389083700615629 -0.024592617526650428771972656250 0.002682316116988658905029296875 0.000493871746584773063659667969 0 0 0 0 
2409000000.0000000000 0.170144677162170410156250000000 -0.025325525552034381521204764454 0.002718909410759807066676474463 0.000195086817257106304168701172 0 0 0 0 
2409166666.6666665077 0.170386299490928705413494981258 -0.025986971333622928964635079296 0.002883463166654109954833984375 0.000153347558807581690236768179 0 0 0 0 
2409333333.3333334923 0.170989573001861600021200615629 -0.026861855760216709482213204296 0.002937607234343885941746377100 -0.000014336277672555299307209815 0 0 0 0 
2409500000.0000000000 0.171183690428733797928018134371 -0.027612101286649700510045235546 0.002928415313363074822666787256 -0.000014950795957702210341590081 0 0 0 0 
2409666666.6666665077 0.171438798308372497558593750000 -0.028220886364579200744628906250 0.003022918244823813004734658350 -0.000204507290618494207232874738 0 0 0 0 
2409833333.3333334923 0.171466067433357211013955634371 -0.028777146711945530282994454296 0.003279059659689664840698242188 -0.000265029782894998788833618164 0 0 0 0 
2410000000.0000000000 0.171884357929229708572549384371 -0.029482742771506309509277343750 0.003108938690274953842163085938 -0.000544151931535452604293823242 0 0 0 0 
2410166666.6666665077 0.171978265047073392013388115629 -0.030169164761900898324986641796 0.003184593049809337095973349463 -0.000396468443796038573414403094 0 0 0 0 
2410333333.3333334923 0.171930745244026211837606865629 -0.030731603503227230417271798046 0.003196927485987544059753417969 -0.000661603582557290792465209961 0 0 0 0 
2410500000.0000000000 0.172054171562194796463174384371 -0.031390290707349777221679687500 0.003147118957713245911839150537 -0.000755952263716608285903930664 0 0 0 0 
2410666666.6666665077 0.172003924846649197677450615629 -0.032188165932893753051757812500 0.003253215691074728965759277344 -0.000819350942037999629974365234 0 0 0 0 
2410833333.3333334923 0.171896487474441500564736884371 -0.032825201749801642681081403907 0.003328746184706687927246093750 -0.000857319391798228025436401367 0 0 0 0 
2411000000.0000000000 0.171733722090721102615518134371 -0.033430527895689010620117187500 0.003244843333959579901454306494 -0.000956723408307880163192749023 0 0 0 0 
2411166666.6666665077 0.171575695276260403732138115629 -0.033990908414125442504882812500 0.003300781128928064866306923975 -0.001087737502530216953874897534 0 0 0 0 
2411333333.3333334923 0.171059191226959200760049384371 -0.034605793654918670654296875000 0.003388592042028903961181640625 -0.001251084730029105923296284253 0 0 0 0 
2411500000.0000000000 0.170809894800186212737713731258 -0.035364650189876563335378278907 0.003320034826174377961399697412 -0.001380212372168899016139365088 0 0 0 0 
2411666666.6666665077 0.170455873012542696853799384371 -0.035914797335863113403320312500 0.003420856548473238945007324219 -0.001507433131337166049359965747 0 0 0 0 
2411833333.3333334923 0.170058161020278902908486884371 -0.036694906651973717426340471093 0.003365071956068276925327920068 -0.001721881912089884064318012769 0 0 0 0 
2412000000.0000000000 0.169506609439849909026776231258 -0.037335287779569632793386091407 0.003524113912135363058802939307 -0.001801782287657260894775390625 0 0 0 0 
2412166666.6666665077 0.168958872556686401367187500000 -0.038021024316549301147460937500 0.003342105308547616004943847656 -0.002103791339322925047633505713 0 0 0 0 
2412333333.3333334923 0.168736532330513000488281250000 -0.038631115108728408813476562500 0.003285240381956100897548056494 -0.002202927134931087927577353369 0 0 0 0 
2412500000.0000000000 0.168066725134849603850994981258 -0.039604455232620239257812500000 0.003154263366013764901402138818 -0.002546760253608227209803915869 0 0 0 0 
2412666666.6666665077 0.167517066001892089843750000000 -0.040671069175004959106445312500 0.003261364763602613969090127100 -0.002620514482259749932530068506 0 0 0 0 
2412833333.3333334923 0.166926637291908291915731865629 -0.041443787515163421630859375000 0.003118117339909077124354697119 -0.002736122580245137214660644531 0 0 0 0 
2413000000.0000000000 0.166180223226547213455361884371 -0.042430542409420013427734375000 0.003167536808177828788757324219 -0.002908762777224183082580566406 0 0 0 0 
2413166666.6666665077 0.165599241852760287185830634371 -0.043418295681476593017578125000 0.002874817466363310813903808594 -0.003204744076356292204615927588 0 0 0 0 
2413333333.3333334923 0.164799600839614895919638115629 -0.044478356838226318359375000000 0.002646515378728508949279785156 -0.003199437167495489120483398438 0 0 0 0 
2413500000.0000000000 0.164058536291122408767861884371 -0.045428946614265441894531250000 0.002727549057453871206996298682 -0.003402973292395472960231161963 0 0 0 0 
2413666666.6666665077 0.163280412554740905761718750000 -0.046562492847442626953125000000 0.002468324732035398916957236182 -0.003390311961993575096130371094 0 0 0 0 
2413833333.3333334923 0.162610635161399813553018134371 -0.047677498310804367065429687500 0.002278904430568217797520302881 -0.003469747956842184066772460938 0 0 0 0 
2414000000.0000000000 0.161852315068244906326455634371 -0.048806440085172653198242187500 0.002194255590438843207118368994 -0.003599272342398763136622763525 0 0 0 0 
2414166666.6666665077 0.161273971199989291092080634371 -0.049941524863243103027343750000 0.002060503698885440826416015625 -0.003728612093254923820495605469 0 0 0 0 
2414333333.3333334923 0.160707801580429104904013115629 -0.051072772592306137084960937500 0.001887026592157780907274555737 -0.003811231581494212150573730469 0 0 0 0 
2414500000.0000000000 0.160404175519943209549111884371 -0.052055429667234420776367187500 0.001830466208048165061353373950 -0.003661644877865910963771201025 0 0 0 0 
2414666666.6666665077 0.159737810492515591720419365629 -0.053291525691747672344167341407 0.001766418805345892906188964844 -0.003725371789187192916870117188 0 0 0 0 
2414833333.3333334923 0.159407004714012201507244981258 -0.054562926292419426654856096093 0.001543978811241685910465859521 -0.003917467314749956130981445312 0 0 0 0 
2415000000.0000000000 0.158744379878044100662393134371 -0.055760540068149566650390625000 0.001338849426247179941890097510 -0.004082042258232831954956054688 0 0 0 0 
2415166666.6666665077 0.158518522977829007247763115629 -0.057144138962030410766601562500 0.001274399808607995943782187354 -0.004150384571403264999389648438 0 0 0 0 
2415333333.3333334923 0.158371359109878512283486884371 -0.058592513203620910644531250000 0.001095201703719794967054057544 -0.004245542455464602384085370801 0 0 0 0 
2415500000.0000000000 0.158123672008514404296875000000 -0.059766184538602828979492187500 0.000896956655196845531463623047 -0.004147023893892765045166015625 0 0 0 0 
2415666666.6666665077 0.157801583409309387207031250000 -0.061236482113599777221679687500 0.000736135523766279220581054688 -0.004300553351640701293945312500 0 0 0 0 
2415833333.3333334923 0.157623633742332486251669365629 -0.062700875103473663330078125000 0.000509538745973259210586547852 -0.004341603256762027740478515625 0 0 0 0 
2416000000.0000000000 0.157360896468162508865518134371 -0.064216703176498413085937500000 0.000432254571933299303054809570 -0.004242709372192621231079101562 0 0 0 0 
2416166666.6666665077 0.157428264617919894119424384371 -0.065649248659610748291015625000 0.000163947130204178392887115479 -0.004251474980264902114868164062 0 0 0 0 
2416333333.3333334923 0.157212123274803189376669365629 -0.067084878683090209960937500000 0.000157846399815753102302551270 -0.004245695192366839322561933301 0 0 0 0 
2416500000.0000000000 0.156969770789146395584268134371 -0.068531729280948638916015625000 -0.000170598155818879604339599609 -0.004329349379986524581909179688 0 0 0 0 
2416666666.6666665077 0.156708881258964510818643134371 -0.069839835166931152343750000000 -0.000437589827924966812133789062 -0.004228927660733461380004882812 0 0 0 0 
2416833333.3333334923 0.156628862023353604415731865629 -0.071271955966949462890625000000 -0.000587868213187903165817260742 -0.004102698527276515960693359375 0 0 0 0 
2417000000.0000000000 0.156280383467674310882244981258 -0.072596609592437744140625000000 -0.000739448179956525564193725586 -0.004067082889378070831298828125 0 0 0 0 
2417166666.6666665077 0.156201079487800598144531250000 -0.073818199336528778076171875000 -0.000829760334454476833343505859 -0.003931744489818811416625976562 0 0 0 0 
2417333333.3333334923 0.156031504273414611816406250000 -0.074988417327404022216796875000 -0.000946702610235661268234252930 -0.003925381228327751159667968750 0 0 0 0 
2417500000.0000000000 0.155893772840499905685263115629 -0.076175220310688018798828125000 -0.000967835308983922004699707031 -0.003811355913057922883274697412 0 0 0 0 
2417666666.6666665077 0.155882328748703002929687500000 -0.077074564993381500244140625000 -0.001192596391774713993072509766 -0.003752507502213120894191122900 0 0 0 0 
2417833333.3333334923 0.155781090259552001953125000000 -0.078105874359607696533203125000 -0.001299861120060086033464741284 -0.003572341520339250998256064307 0 0 0 0 
2418000000.0000000000 0.155573606491088894943075615629 -0.079207651317119598388671875000 -0.001313036540523170991184853662 -0.003492200747132300896885537256 0 0 0 0 
2418166666.6666665077 0.155536040663719205001669365629 -0.079822108149528503417968750000 -0.001303734257817267937901162256 -0.003486538538709282875061035156 0 0 0 0 
2418333333.3333334923 0.155766427516937311370526231258 -0.080788053572177886962890625000 -0.001275458489544690088984824072 -0.003393853548914194107055664062 0 0 0 0 
2418500000.0000000000 0.155750319361686706542968750000 -0.081434115767478942871093750000 -0.001463878434151411056518554688 -0.003442217130213975906372070312 0 0 0 0 
2418666666.6666665077 0.155601754784584100921307481258 -0.082302093505859375000000000000 -0.001461453502997756004333496094 -0.003428233321756124930140829932 0 0 0 0 
2418833333.3333334923 0.155497178435325594803018134371 -0.083089612424373626708984375000 -0.001702645444311202006099081885 -0.003324384568259119987487792969 0 0 0 0 
2419000000.0000000000 0.155324831604957608321981865629 -0.083642207086086273193359375000 -0.001767894369550049088121723706 -0.003298254683613777160644531250 0 0 0 0 
2419166666.6666665077 0.155307203531265286544638115629 -0.084207452833652496337890625000 -0.001838183263316750960109091650 -0.003275146475061773820164345850 0 0 0 0 
2419333333.3333334923 0.154899656772613497635049384371 -0.084463894367218017578125000000 -0.002033287426456809043884277344 -0.003217294113710523085353232275 0 0 0 0 
2419500000.0000000000 0.154881387948989895919638115629 -0.085379384458065032958984375000 -0.002203358570113778114318847656 -0.003212227951735258102416992188 0 0 0 0 
2419666666.6666665077 0.154859244823455810546875000000 -0.085740670561790466308593750000 -0.002120941644534469084498740088 -0.003181091509759426116943359375 0 0 0 0 
2419833333.3333334923 0.154557019472122192382812500000 -0.086003407835960388183593750000 -0.002196733374148606820347451318 -0.003044012235477567152736044775 0 0 0 0 
