# Version 1.00
#
freq[Hz];re:Trc1_S11;im:Trc1_S11;re:Trc2_S21;im:Trc2_S21;
2.400000000000000E+009;1.625338196754456E-001;5.220807343721390E-002;5.715377628803253E-004;2.887940965592861E-003;
2.400166666666667E+009;1.625821739435196E-001;5.085575208067894E-002;6.844343733973801E-004;2.924585016444325E-003;
2.400333333333334E+009;1.622531116008759E-001;4.876820743083954E-002;7.221458945423365E-004;2.949545625597239E-003;
2.400500000000000E+009;1.621819883584976E-001;4.710016027092934E-002;7.017424795776606E-004;2.809246303513646E-003;
2.400666666666667E+009;1.622009277343750E-001;4.505910724401474E-002;7.723286980763078E-004;2.865914488211274E-003;
2.400833333333334E+009;1.620862036943436E-001;4.318678006529808E-002;8.250162936747074E-004;2.885838039219379E-003;
2.401000000000000E+009;1.620546877384186E-001;4.105835780501366E-002;9.921372402459383E-004;2.700610319152474E-003;
2.401166666666667E+009;1.622951924800873E-001;3.910345211625099E-002;9.447450283914805E-004;2.798624336719513E-003;
2.401333333333334E+009;1.623025685548782E-001;3.693952038884163E-002;9.924396872520447E-004;2.760055474936962E-003;
2.401500000000000E+009;1.627191752195358E-001;3.508628532290459E-002;1.124081667512655E-003;2.776167821139097E-003;
2.401666666666667E+009;1.628638952970505E-001;3.310903161764145E-002;1.091278041712940E-003;2.599759725853801E-003;
2.401833333333334E+009;1.631567627191544E-001;3.101640939712524E-002;1.269267522729933E-003;2.659059595316649E-003;
2.402000000000000E+009;1.632935702800751E-001;2.912501804530621E-002;1.320900511927903E-003;2.747689373791218E-003;
2.402166666666667E+009;1.637364178895950E-001;2.699542418122292E-002;1.457926700823009E-003;2.578466432169080E-003;
2.402333333333334E+009;1.641968935728073E-001;2.518157847225666E-002;1.442345208488405E-003;2.667889930307865E-003;
2.402500000000000E+009;1.648821830749512E-001;2.337341010570526E-002;1.511382637545466E-003;2.542466158047319E-003;
2.402666666666667E+009;1.654265522956848E-001;2.157392352819443E-002;1.610885374248028E-003;2.454984933137894E-003;
2.402833333333334E+009;1.659310460090637E-001;1.997330226004124E-002;1.728356117382646E-003;2.246695570647717E-003;
2.403000000000000E+009;1.666682511568070E-001;1.831661537289619E-002;1.840436365455389E-003;2.327030291780829E-003;
2.403166666666667E+009;1.674850434064865E-001;1.675238832831383E-002;1.950431615114212E-003;2.144020749256015E-003;
2.403333333333334E+009;1.681932806968689E-001;1.535407453775406E-002;2.042249543592334E-003;2.193053020164371E-003;
2.403500000000000E+009;1.688435375690460E-001;1.381219923496246E-002;2.067609224468470E-003;2.004514914005995E-003;
2.403666666666667E+009;1.697116196155548E-001;1.227118633687496E-002;2.156235976144671E-003;1.897501409985125E-003;
2.403833333333334E+009;1.708281636238098E-001;1.099942997097969E-002;2.414995571598411E-003;1.806918764486909E-003;
2.404000000000000E+009;1.714516431093216E-001;9.771591983735561E-003;2.358008874580264E-003;1.727813854813576E-003;
2.404166666666667E+009;1.723278164863586E-001;8.765649981796742E-003;2.416744129732251E-003;1.620093593373895E-003;
2.404333333333334E+009;1.730480343103409E-001;7.660296279937029E-003;2.457604510709643E-003;1.366538112051785E-003;
2.404500000000000E+009;1.738399416208267E-001;6.465337239205837E-003;2.448733663186431E-003;1.117938081733882E-003;
2.404666666666667E+009;1.746288090944290E-001;5.692421924322844E-003;2.670662011951208E-003;1.060178852640092E-003;
2.404833333333334E+009;1.753260493278503E-001;4.844326991587877E-003;2.637138823047280E-003;9.312213514931500E-004;
2.405000000000000E+009;1.760934144258499E-001;4.055242054164410E-003;2.487492747604847E-003;7.410502294078469E-004;
2.405166666666667E+009;1.768395304679871E-001;3.349693259224296E-003;2.498692134395242E-003;6.304937414824963E-004;
2.405333333333334E+009;1.776189059019089E-001;2.705195918679237E-003;2.492418512701988E-003;3.290192398708314E-004;
2.405500000000000E+009;1.781249791383743E-001;2.238804008811712E-003;2.304862253367901E-003;2.495165681466460E-004;
2.405666666666667E+009;1.787627041339874E-001;1.799600315280259E-003;2.131547546014190E-003;-1.969691402337048E-005;
2.405833333333334E+009;1.791011989116669E-001;1.536326250061393E-003;2.192798769101501E-003;-4.970311783836223E-005;
2.406000000000000E+009;1.796234697103500E-001;1.191596966236830E-003;1.951229292899370E-003;-2.900708568631671E-005;
2.406166666666667E+009;1.798033863306046E-001;8.017269428819418E-004;1.832657377235591E-003;-1.681284920778126E-004;
2.406333333333334E+009;1.803345829248428E-001;4.712864465545863E-004;1.811082591302693E-003;-2.492706116754562E-004;
2.406500000000000E+009;1.805509924888611E-001;2.104383456753567E-004;1.787335961125791E-003;-3.035980043932796E-004;
2.406666666666667E+009;1.805513650178909E-001;7.667847690129293E-009;1.565870945341885E-003;-3.896160051226616E-004;
2.406833333333334E+009;1.806998252868652E-001;-3.044621262233704E-004;1.511267619207501E-003;-4.063163069076836E-004;
2.407000000000000E+009;1.806598305702210E-001;-6.077479338273406E-004;1.306992489844561E-003;-4.018706968054175E-004;
2.407166666666667E+009;1.807583570480347E-001;-8.150795474648476E-004;1.375073334202170E-003;-4.387246153783053E-004;
2.407333333333334E+009;1.805824935436249E-001;-1.198382116854191E-003;1.214331132359803E-003;-4.869892727583647E-004;
2.407500000000000E+009;1.804775744676590E-001;-1.624635886400938E-003;9.017823613248766E-004;-3.411319921724498E-004;
2.407666666666667E+009;1.801320016384125E-001;-1.896956353448331E-003;1.016129739582539E-003;-3.317014488857240E-004;
2.407833333333334E+009;1.795993894338608E-001;-2.441349904984236E-003;8.387057459913194E-004;-3.194219607394189E-004;
2.408000000000000E+009;1.791987866163254E-001;-2.916086930781603E-003;6.809338228777051E-004;-3.952814440708607E-004;
2.408166666666667E+009;1.787160485982895E-001;-3.391032805666328E-003;8.053550263866782E-004;-3.373961371835321E-004;
2.408333333333334E+009;1.783604472875595E-001;-4.103696439415216E-003;6.952108233235776E-004;-1.647570315981284E-004;
2.408500000000000E+009;1.776195913553238E-001;-4.766584374010563E-003;6.086232606321573E-004;-1.170637769973837E-004;
2.408666666666667E+009;1.769659221172333E-001;-5.563179031014442E-003;4.926680121570826E-004;-2.759030030574650E-004;
2.408833333333334E+009;1.762687861919403E-001;-6.417835131287575E-003;5.483574932441115E-004;-1.794425916159526E-004;
2.409000000000000E+009;1.754886806011200E-001;-7.300045341253281E-003;4.484579549171031E-004;-1.098219727282412E-004;
2.409166666666667E+009;1.749073565006256E-001;-8.495691232383251E-003;4.979472723789513E-004;3.973322600359097E-005;
2.409333333333334E+009;1.740369647741318E-001;-9.505641646683216E-003;4.256381071172655E-004;1.988285948755220E-004;
2.409500000000000E+009;1.733650714159012E-001;-1.076268311589956E-002;1.897421170724556E-004;3.265565610490739E-004;
2.409666666666667E+009;1.723954081535339E-001;-1.214222330600023E-002;3.048575890716165E-004;2.589673676993698E-004;
2.409833333333334E+009;1.715433597564697E-001;-1.343817356973887E-002;2.458158705849201E-004;3.378864785190672E-004;
2.410000000000000E+009;1.710605472326279E-001;-1.475471351295710E-002;2.428469015285373E-004;4.936604527756572E-004;
2.410166666666667E+009;1.701803654432297E-001;-1.622604206204414E-002;3.711497411131859E-004;4.541914095170796E-004;
2.410333333333334E+009;1.696279495954514E-001;-1.789688318967819E-002;1.945257972693071E-004;5.890539032407105E-004;
2.410500000000000E+009;1.689259111881256E-001;-1.966434158384800E-002;3.490865346975625E-004;7.066929829306901E-004;
2.410666666666667E+009;1.682470142841339E-001;-2.149311639368534E-002;4.580473469104618E-004;7.910070125944912E-004;
2.410833333333334E+009;1.677240431308746E-001;-2.295633591711521E-002;4.551766323857009E-004;9.530794923193753E-004;
2.411000000000000E+009;1.672918349504471E-001;-2.487687021493912E-002;4.396977892611176E-004;9.251239243894815E-004;
2.411166666666667E+009;1.668706387281418E-001;-2.680661156773567E-002;5.293003050610423E-004;1.116252038627863E-003;
2.411333333333334E+009;1.665632575750351E-001;-2.858794853091240E-002;5.851838504895568E-004;1.155306352302432E-003;
2.411500000000000E+009;1.660773605108261E-001;-3.079587034881115E-002;7.951350416988134E-004;1.378420856781304E-003;
2.411666666666667E+009;1.659750938415527E-001;-3.273330256342888E-002;6.788155296817422E-004;1.384285278618336E-003;
2.411833333333334E+009;1.658070832490921E-001;-3.449629619717598E-002;8.937619859352708E-004;1.443293294869363E-003;
2.412000000000000E+009;1.657529920339584E-001;-3.657246753573418E-002;9.532729745842516E-004;1.359655405394733E-003;
2.412166666666667E+009;1.655717641115189E-001;-3.856416046619415E-002;1.081423368304968E-003;1.399897504597902E-003;
2.412333333333334E+009;1.657021641731262E-001;-4.046550393104553E-002;1.272353576496244E-003;1.328642945736647E-003;
2.412500000000000E+009;1.657087504863739E-001;-4.239104315638542E-002;1.302347751334310E-003;1.537370611913502E-003;
2.412666666666667E+009;1.660346835851669E-001;-4.449173808097839E-002;1.488109235651791E-003;1.542159821838141E-003;
2.412833333333334E+009;1.662301868200302E-001;-4.642870277166367E-002;1.508217887021601E-003;1.560858450829983E-003;
2.413000000000000E+009;1.665445864200592E-001;-4.812486469745636E-002;1.825166633352637E-003;1.446961425244808E-003;
2.413166666666667E+009;1.666858196258545E-001;-4.985303804278374E-002;1.961655449122191E-003;1.582009135745466E-003;
2.413333333333334E+009;1.670264452695847E-001;-5.162834003567696E-002;2.020128071308136E-003;1.493331161327660E-003;
2.413500000000000E+009;1.674933582544327E-001;-5.334758758544922E-002;2.151029650121927E-003;1.579308067448437E-003;
2.413666666666667E+009;1.681877076625824E-001;-5.499576777219772E-002;2.367265522480011E-003;1.475363736972213E-003;
2.413833333333334E+009;1.684553623199463E-001;-5.639724805951119E-002;2.517384476959705E-003;1.216253847815096E-003;
2.414000000000000E+009;1.688620150089264E-001;-5.797282606363297E-002;2.692432142794132E-003;1.227286295033991E-003;
2.414166666666667E+009;1.695071458816528E-001;-5.932164564728737E-002;2.839707070961595E-003;1.009030034765601E-003;
2.414333333333334E+009;1.699242889881134E-001;-6.063955649733543E-002;2.767186379060149E-003;9.198877378366888E-004;
2.414500000000000E+009;1.705777496099472E-001;-6.174803897738457E-002;2.971304813399911E-003;8.055517682805657E-004;
2.414666666666667E+009;1.710335761308670E-001;-6.278962641954422E-002;3.158157225698233E-003;6.706726271659136E-004;
2.414833333333334E+009;1.714855581521988E-001;-6.381028890609741E-002;3.118164604529738E-003;4.809916717931628E-004;
2.415000000000000E+009;1.719014495611191E-001;-6.456927210092545E-002;3.315183799713850E-003;2.964388404507190E-004;
2.415166666666667E+009;1.722774952650070E-001;-6.547392904758453E-002;3.353402949869633E-003;-4.446531966095790E-005;
2.415333333333334E+009;1.728409230709076E-001;-6.634192168712616E-002;3.186979331076145E-003;-1.128788062487729E-004;
2.415500000000000E+009;1.731506884098053E-001;-6.697866320610046E-002;3.408259246498346E-003;-2.162876917282119E-004;
2.415666666666667E+009;1.733691394329071E-001;-6.742685288190842E-002;3.427751129493117E-003;-4.071437870152295E-004;
2.415833333333334E+009;1.736960709095001E-001;-6.787401437759399E-002;3.593702567741275E-003;-5.077177775092423E-004;
2.416000000000000E+009;1.736852973699570E-001;-6.832035630941391E-002;3.390366211533546E-003;-5.041799158789218E-004;
2.416166666666667E+009;1.741304993629456E-001;-6.879869848489761E-002;3.376453183591366E-003;-7.942236261442304E-004;
2.416333333333334E+009;1.739700883626938E-001;-6.889425963163376E-002;3.443154273554683E-003;-1.002322183921933E-003;
2.416500000000000E+009;1.739007979631424E-001;-6.930941343307495E-002;3.309905761852861E-003;-1.079252571798861E-003;
2.416666666666667E+009;1.737302392721176E-001;-6.938209384679794E-002;3.334654029458761E-003;-1.464699511416256E-003;
2.416833333333334E+009;1.735656708478928E-001;-6.977802515029907E-002;3.318586153909564E-003;-1.416919985786080E-003;
2.417000000000000E+009;1.730955541133881E-001;-6.990658491849899E-002;3.420841880142689E-003;-1.511423266492784E-003;
2.417166666666667E+009;1.727522015571594E-001;-6.996522098779678E-002;3.293357556685805E-003;-1.624574651941657E-003;
2.417333333333334E+009;1.722611635923386E-001;-7.003775984048843E-002;3.273194422945380E-003;-1.701756264083087E-003;
2.417500000000000E+009;1.715388894081116E-001;-7.043718546628952E-002;3.198094898834825E-003;-1.907390542328358E-003;
2.417666666666667E+009;1.711326986551285E-001;-7.045368850231171E-002;3.070036182180047E-003;-2.067900262773037E-003;
2.417833333333334E+009;1.702565252780914E-001;-7.054802030324936E-002;3.049895633012056E-003;-2.213718835264444E-003;
2.418000000000000E+009;1.693791747093201E-001;-7.086663693189621E-002;3.023775294423103E-003;-2.175135072320700E-003;
2.418166666666667E+009;1.683535426855087E-001;-7.092708349227905E-002;2.988205058500171E-003;-2.466258360072970E-003;
2.418333333333334E+009;1.676797121763229E-001;-7.131667435169220E-002;2.957894466817379E-003;-2.521475544199348E-003;
2.418500000000000E+009;1.665631234645844E-001;-7.159910351037979E-002;2.840754808858037E-003;-2.600531093776226E-003;
2.418666666666667E+009;1.655248552560806E-001;-7.209386676549912E-002;2.835506573319435E-003;-2.670394489541650E-003;
2.418833333333334E+009;1.641898751258850E-001;-7.256224751472473E-002;2.611989621073008E-003;-2.689287997782230E-003;
2.419000000000000E+009;1.630434393882752E-001;-7.290571182966232E-002;2.722809789702296E-003;-2.888063667342067E-003;
2.419166666666667E+009;1.617240309715271E-001;-7.354509085416794E-002;2.546410541981459E-003;-2.921902108937502E-003;
2.419333333333334E+009;1.603107899427414E-001;-7.392530888319016E-002;2.479132032021880E-003;-3.098691347986460E-003;
2.419500000000000E+009;1.591861248016357E-001;-7.495868951082230E-002;2.361040795221925E-003;-3.164787311106920E-003;
2.419666666666667E+009;1.580322086811066E-001;-7.577170431613922E-002;2.342033898457885E-003;-3.275818657130003E-003;
2.419833333333334E+009;1.566824615001679E-001;-7.655758410692215E-002;2.408777363598347E-003;-3.510178998112679E-003;
2.420000000000000E+009;1.553922146558762E-001;-7.752237468957901E-002;2.321663778275251E-003;-3.409139113500714E-003;
2.420166666666667E+009;1.542204469442368E-001;-7.862691581249237E-002;2.209799829870462E-003;-3.636020468547940E-003;
2.420333333333334E+009;1.530220508575440E-001;-7.981900870800018E-002;2.050763461738825E-003;-3.773129079490900E-003;
2.420500000000000E+009;1.519133746623993E-001;-8.085232973098755E-002;1.998686930164695E-003;-3.914029337465763E-003;
2.420666666666667E+009;1.507011204957962E-001;-8.206113427877426E-002;2.131700282916427E-003;-4.067554604262114E-003;
2.420833333333334E+009;1.496081352233887E-001;-8.351542800664902E-002;1.854532398283482E-003;-4.100913647562265E-003;
2.421000000000000E+009;1.484871804714203E-001;-8.497254550457001E-002;1.750925090163946E-003;-4.216232802718878E-003;
2.421166666666667E+009;1.477232426404953E-001;-8.639508485794067E-002;1.619530725292862E-003;-4.322306253015995E-003;
2.421333333333334E+009;1.468714922666550E-001;-8.809719234704971E-002;1.453452860005200E-003;-4.452862776815891E-003;
2.421500000000000E+009;1.461193561553955E-001;-8.951330184936523E-002;1.244940562173724E-003;-4.616369027644396E-003;
2.421666666666667E+009;1.454974561929703E-001;-9.130489826202393E-002;1.069130259566009E-003;-4.638506099581718E-003;
2.421833333333334E+009;1.448198705911636E-001;-9.293687343597412E-002;9.942405158653855E-004;-4.649850539863110E-003;
2.422000000000000E+009;1.442372500896454E-001;-9.465195983648300E-002;9.903064928948879E-004;-5.048812367022038E-003;
2.422166666666667E+009;1.437514871358872E-001;-9.657493233680725E-002;7.399079622700810E-004;-5.004724953323603E-003;
2.422333333333334E+009;1.434647142887116E-001;-9.823506325483322E-002;3.557633608579636E-004;-5.217727739363909E-003;
2.422500000000000E+009;1.431315541267395E-001;-9.988251328468323E-002;3.511476461426355E-005;-5.171426571905613E-003;
2.422666666666667E+009;1.426800638437271E-001;-1.017895042896271E-001;-2.370802940276917E-005;-5.412451457232237E-003;
2.422833333333334E+009;1.427661031484604E-001;-1.036039441823959E-001;-3.491191600915045E-004;-5.391948390752077E-003;
2.423000000000000E+009;1.427373290061951E-001;-1.052208319306374E-001;-5.617990973405540E-004;-5.398672539740801E-003;
2.423166666666667E+009;1.427736133337021E-001;-1.071013510227203E-001;-8.809326682239771E-004;-5.445649847388268E-003;
2.423333333333334E+009;1.428999602794647E-001;-1.084796041250229E-001;-1.057367539033294E-003;-5.456155631691217E-003;
2.423500000000000E+009;1.430679112672806E-001;-1.102940589189529E-001;-1.304671051912010E-003;-5.355763714760542E-003;
2.423666666666667E+009;1.431676298379898E-001;-1.120105460286140E-001;-1.651876489631832E-003;-5.310142412781715E-003;
2.423833333333334E+009;1.436639875173569E-001;-1.136232912540436E-001;-1.936871674843133E-003;-5.354989320039749E-003;
2.424000000000000E+009;1.437975466251373E-001;-1.149290725588799E-001;-2.195113105699420E-003;-5.278724711388350E-003;
2.424166666666667E+009;1.442362517118454E-001;-1.161420792341232E-001;-2.250620629638434E-003;-5.114563740789890E-003;
2.424333333333334E+009;1.446281820535660E-001;-1.175170838832855E-001;-2.471752231940627E-003;-5.051419604569674E-003;
2.424500000000000E+009;1.450874656438828E-001;-1.188372448086739E-001;-2.872364595532417E-003;-5.155900493264198E-003;
2.424666666666667E+009;1.455030590295792E-001;-1.197519823908806E-001;-3.159207524731755E-003;-4.831137135624886E-003;
2.424833333333334E+009;1.457739770412445E-001;-1.208527237176895E-001;-3.369843587279320E-003;-4.701031371951103E-003;
2.425000000000000E+009;1.462687999010086E-001;-1.218238696455956E-001;-3.481901949271560E-003;-4.482116084545851E-003;
2.425166666666667E+009;1.464228928089142E-001;-1.227627173066139E-001;-3.893797518685460E-003;-4.499757662415505E-003;
2.425333333333334E+009;1.469088047742844E-001;-1.234945654869080E-001;-3.920740913599730E-003;-4.147598519921303E-003;
2.425500000000000E+009;1.472610831260681E-001;-1.241997703909874E-001;-4.323930945247412E-003;-3.963893279433250E-003;
2.425666666666667E+009;1.474873721599579E-001;-1.247829347848892E-001;-4.313075449317694E-003;-3.845254424959421E-003;
2.425833333333334E+009;1.477421373128891E-001;-1.251071840524674E-001;-4.538386128842831E-003;-3.420645836740732E-003;
2.426000000000000E+009;1.479700356721878E-001;-1.258059740066528E-001;-4.782939329743385E-003;-3.247480606660247E-003;
2.426166666666667E+009;1.483815461397171E-001;-1.260703504085541E-001;-4.763726610690355E-003;-3.204619744792581E-003;
2.426333333333334E+009;1.481845080852509E-001;-1.262785345315933E-001;-5.064979195594788E-003;-2.902666805312038E-003;
2.426500000000000E+009;1.482578814029694E-001;-1.264173388481140E-001;-5.003176163882017E-003;-2.632715739309788E-003;
2.426666666666667E+009;1.483196020126343E-001;-1.264024227857590E-001;-5.015820264816284E-003;-2.338708611205220E-003;
2.426833333333334E+009;1.481819599866867E-001;-1.265250891447067E-001;-5.260230507701635E-003;-2.205480821430683E-003;
2.427000000000000E+009;1.479970216751099E-001;-1.266733407974243E-001;-5.315084476023912E-003;-2.039443003013730E-003;
2.427166666666667E+009;1.475275903940201E-001;-1.263842433691025E-001;-5.334840621799231E-003;-1.643551047891378E-003;
2.427333333333334E+009;1.470673084259033E-001;-1.264480799436569E-001;-5.293025169521570E-003;-1.413351972587407E-003;
2.427500000000000E+009;1.466351002454758E-001;-1.264097094535828E-001;-5.286806728690863E-003;-1.204409985803068E-003;
2.427666666666667E+009;1.461084038019180E-001;-1.263443976640701E-001;-5.268301349133253E-003;-8.933668723329902E-004;
2.427833333333334E+009;1.452165096998215E-001;-1.262373924255371E-001;-5.325736477971077E-003;-9.404496522620320E-004;
