# Version 1.00
#
freq[Hz];re:Trc1_S11;im:Trc1_S11;re:Trc2_S21;im:Trc2_S21;
2.400000000000000E+009;1.625652760267258E-001;5.227029323577881E-002;6.311096949502826E-004;3.034056862816215E-003;
2.400166666666667E+009;1.624422073364258E-001;5.079020932316780E-002;7.740291766822338E-004;2.764540025964379E-003;
2.400333333333334E+009;1.624049097299576E-001;4.882318153977394E-002;7.267236360348761E-004;2.876824699342251E-003;
2.400500000000000E+009;1.622579395771027E-001;4.704456031322479E-002;8.186044287867844E-004;2.827576594427228E-003;
2.400666666666667E+009;1.620161831378937E-001;4.497432336211205E-002;8.168580243363977E-004;2.757522743195295E-003;
2.400833333333334E+009;1.623196005821228E-001;4.324328154325485E-002;6.887141498737037E-004;2.782985800877214E-003;
2.401000000000000E+009;1.622820347547531E-001;4.117449373006821E-002;8.479779353365302E-004;2.750572515651584E-003;
2.401166666666667E+009;1.622994393110275E-001;3.910139203071594E-002;1.097254804335535E-003;2.729751402512193E-003;
2.401333333333334E+009;1.624349653720856E-001;3.683610260486603E-002;9.932845132425427E-004;2.715786686167121E-003;
2.401500000000000E+009;1.628916561603546E-001;3.503135219216347E-002;1.081352471373975E-003;2.565786009654403E-003;
2.401666666666667E+009;1.627387851476669E-001;3.311064094305039E-002;1.035411725752056E-003;2.683255588635802E-003;
2.401833333333334E+009;1.630063503980637E-001;3.103264421224594E-002;1.372994971461594E-003;2.524890704080463E-003;
2.402000000000000E+009;1.633537709712982E-001;2.899597585201263E-002;1.382802147418261E-003;2.637875964865089E-003;
2.402166666666667E+009;1.639139354228973E-001;2.693999372422695E-002;1.477680518291891E-003;2.513323212042451E-003;
2.402333333333334E+009;1.643366813659668E-001;2.513128146529198E-002;1.385959913022816E-003;2.473870525136590E-003;
2.402500000000000E+009;1.649626642465591E-001;2.337987534701824E-002;1.473824260756373E-003;2.316300990059972E-003;
2.402666666666667E+009;1.654866635799408E-001;2.173480205237865E-002;1.636415487155318E-003;2.378566889092326E-003;
2.402833333333334E+009;1.660597920417786E-001;1.989526301622391E-002;1.662161783315241E-003;2.253991551697254E-003;
2.403000000000000E+009;1.666642427444458E-001;1.831112056970596E-002;1.818798133172095E-003;2.288600662723184E-003;
2.403166666666667E+009;1.674007773399353E-001;1.662229374051094E-002;1.936409506015480E-003;2.266323193907738E-003;
2.403333333333334E+009;1.681919544935226E-001;1.518549676984549E-002;1.984724076464772E-003;2.171351574361324E-003;
2.403500000000000E+009;1.690289974212647E-001;1.366450078785420E-002;2.104714047163725E-003;2.038350794464350E-003;
2.403666666666667E+009;1.698824465274811E-001;1.237999554723501E-002;2.173838671296835E-003;1.989963464438915E-003;
2.403833333333334E+009;1.706623882055283E-001;1.093967910856009E-002;2.248453442007303E-003;1.626036362722516E-003;
2.404000000000000E+009;1.714228689670563E-001;9.698111563920975E-003;2.361446153372526E-003;1.673178514465690E-003;
2.404166666666667E+009;1.723198443651199E-001;8.486295118927956E-003;2.229530597105622E-003;1.403739326633513E-003;
2.404333333333334E+009;1.731313019990921E-001;7.473743520677090E-003;2.503951312974095E-003;1.294786110520363E-003;
2.404500000000000E+009;1.738253980875015E-001;6.479880306869745E-003;2.481055678799748E-003;1.289031584747136E-003;
2.404666666666667E+009;1.747460812330246E-001;5.648968275636435E-003;2.585832262411714E-003;1.033110893331468E-003;
2.404833333333334E+009;1.754041165113449E-001;4.973522387444973E-003;2.555591985583305E-003;8.426202111877501E-004;
2.405000000000000E+009;1.761525869369507E-001;3.979772794991732E-003;2.415364840999246E-003;6.061812164261937E-004;
2.405166666666667E+009;1.769143939018250E-001;3.458903403952718E-003;2.441215096041560E-003;5.669216625392437E-004;
2.405333333333334E+009;1.777171045541763E-001;2.669986337423325E-003;2.263735281303525E-003;2.826093696057797E-004;
2.405500000000000E+009;1.783030778169632E-001;2.284848596900702E-003;2.258472610265017E-003;1.906449178932235E-004;
2.405666666666667E+009;1.787419617176056E-001;1.805394538678229E-003;2.231106394901872E-003;1.193513526231982E-004;
2.405833333333334E+009;1.791604161262512E-001;1.581342541612685E-003;1.972317928448319E-003;-2.852666511898860E-005;
2.406000000000000E+009;1.797129511833191E-001;9.858491830527782E-004;1.910928636789322E-003;5.578044874710031E-005;
2.406166666666667E+009;1.800714731216431E-001;8.796253241598606E-004;2.033550292253494E-003;-1.926834811456502E-004;
2.406333333333334E+009;1.804153323173523E-001;4.530422738753259E-004;1.734183984808624E-003;-1.763423642842099E-004;
2.406500000000000E+009;1.806396991014481E-001;1.682372530922294E-004;1.784796011634171E-003;-1.815169671317563E-004;
2.406666666666667E+009;1.805342882871628E-001;-2.629672735565691E-006;1.585385762155056E-003;-3.262348473072052E-004;
2.406833333333334E+009;1.808497011661530E-001;-3.727425064425916E-004;1.526852953247726E-003;-3.022575692739338E-004;
2.407000000000000E+009;1.808702200651169E-001;-5.856567295268178E-004;1.314583700150251E-003;-4.155326751060784E-004;
2.407166666666667E+009;1.809508800506592E-001;-8.259830647148192E-004;1.261640107259154E-003;-1.794412382878363E-004;
2.407333333333334E+009;1.805864572525024E-001;-1.192085328511894E-003;1.115926424972713E-003;-3.359530819579959E-004;
2.407500000000000E+009;1.802908480167389E-001;-1.610726700164378E-003;9.223551023751497E-004;-3.472351527307183E-004;
2.407666666666667E+009;1.801494807004929E-001;-1.864488120190799E-003;1.001782133243978E-003;-3.698447835631669E-004;
2.407833333333334E+009;1.797186285257340E-001;-2.457281108945608E-003;8.663130574859679E-004;-4.332729440648109E-004;
2.408000000000000E+009;1.793499141931534E-001;-3.040157025679946E-003;8.353395969606936E-004;-4.169052117504180E-004;
2.408166666666667E+009;1.788005828857422E-001;-3.266639541834593E-003;8.528483449481428E-004;-1.531659218017012E-004;
2.408333333333334E+009;1.783449649810791E-001;-4.061910789459944E-003;7.104371325112879E-004;-2.655225398484618E-004;
2.408500000000000E+009;1.777233779430389E-001;-4.772568121552467E-003;5.510502378456295E-004;-7.046702648949577E-006;
2.408666666666667E+009;1.770378053188324E-001;-5.635699722915888E-003;4.246185126248747E-004;1.753782635205425E-005;
2.408833333333334E+009;1.763026118278503E-001;-6.443792488425970E-003;4.237952234689146E-004;3.015664515260141E-005;
2.409000000000000E+009;1.754899770021439E-001;-7.394137792289257E-003;4.215923836454749E-004;1.473889424232766E-004;
2.409166666666667E+009;1.748054772615433E-001;-8.418444544076920E-003;3.358454559929669E-004;1.288841449422762E-004;
2.409333333333334E+009;1.741674840450287E-001;-9.683589451014996E-003;3.494058328215033E-004;2.661574108060449E-004;
2.409500000000000E+009;1.732908785343170E-001;-1.091718953102827E-002;3.516136785037816E-004;3.220529470127076E-004;
2.409666666666667E+009;1.724101155996323E-001;-1.207443792372942E-002;2.882165426854044E-004;4.191324405837804E-004;
2.409833333333334E+009;1.717934012413025E-001;-1.340688206255436E-002;3.937561414204538E-004;4.958399222232401E-004;
2.410000000000000E+009;1.710987240076065E-001;-1.481374166905880E-002;2.811168378684670E-004;5.595472757704556E-004;
2.410166666666667E+009;1.704149395227432E-001;-1.645749621093273E-002;3.443062887527049E-004;7.073808810673654E-004;
2.410333333333334E+009;1.695795357227325E-001;-1.802835054695606E-002;4.212284984532744E-004;8.014877093955874E-004;
2.410500000000000E+009;1.688983142375946E-001;-1.966612786054611E-002;3.487668873276562E-004;7.853669230826199E-004;
2.410666666666667E+009;1.684006005525589E-001;-2.148772962391377E-002;4.155511560384184E-004;9.204533416777849E-004;
2.410833333333334E+009;1.678639054298401E-001;-2.307699993252754E-002;4.474456363823265E-004;1.005495316348970E-003;
2.411000000000000E+009;1.672938913106918E-001;-2.501263096928597E-002;4.915953031741083E-004;1.008797786198556E-003;
2.411166666666667E+009;1.667804569005966E-001;-2.682198770344257E-002;5.304706864990294E-004;1.206850400194526E-003;
2.411333333333334E+009;1.665533781051636E-001;-2.878043055534363E-002;5.837681237608194E-004;1.117151463404298E-003;
2.411500000000000E+009;1.660927832126617E-001;-3.090729005634785E-002;5.547992768697441E-004;1.249483088031411E-003;
2.411666666666667E+009;1.660641282796860E-001;-3.280849382281303E-002;8.301133057102561E-004;1.381564885377884E-003;
2.411833333333334E+009;1.658028215169907E-001;-3.475253656506538E-002;9.151584235951304E-004;1.453493721783161E-003;
2.412000000000000E+009;1.656201779842377E-001;-3.657383844256401E-002;9.413140942342579E-004;1.545650884509087E-003;
2.412166666666667E+009;1.656552851200104E-001;-3.864071890711784E-002;1.066583325155079E-003;1.386241638101637E-003;
2.412333333333334E+009;1.658278107643127E-001;-4.064152389764786E-002;1.233286806382239E-003;1.549329492263496E-003;
2.412500000000000E+009;1.658347249031067E-001;-4.247676208615303E-002;1.324905315414071E-003;1.671582227572799E-003;
2.412666666666667E+009;1.659940928220749E-001;-4.455593973398209E-002;1.563232275657356E-003;1.534541486762464E-003;
2.412833333333334E+009;1.663131117820740E-001;-4.651061818003655E-002;1.560477423481643E-003;1.613067463040352E-003;
2.413000000000000E+009;1.665397435426712E-001;-4.827307164669037E-002;1.852106535807252E-003;1.561919110827148E-003;
2.413166666666667E+009;1.668228507041931E-001;-5.011146515607834E-002;1.945270691066980E-003;1.601595431566238E-003;
2.413333333333334E+009;1.670016646385193E-001;-5.176985263824463E-002;2.174890134483576E-003;1.538477954454720E-003;
2.413500000000000E+009;1.675766557455063E-001;-5.351729318499565E-002;2.242902759462595E-003;1.511610113084316E-003;
2.413666666666667E+009;1.680179983377457E-001;-5.510245263576508E-002;2.453218214213848E-003;1.340289833024144E-003;
2.413833333333334E+009;1.683794111013413E-001;-5.653327330946922E-002;2.558599459007382E-003;1.284065423533320E-003;
2.414000000000000E+009;1.689151376485825E-001;-5.796189606189728E-002;2.595768775790930E-003;1.189436181448400E-003;
2.414166666666667E+009;1.695039868354797E-001;-5.923982709646225E-002;2.791938837617636E-003;1.111541758291423E-003;
2.414333333333334E+009;1.699117422103882E-001;-6.064367666840553E-002;2.822269219905138E-003;9.428780758753419E-004;
2.414500000000000E+009;1.706303209066391E-001;-6.175435706973076E-002;3.019450465217233E-003;8.387129055336118E-004;
2.414666666666667E+009;1.710198074579239E-001;-6.278688460588455E-002;3.080935683101416E-003;7.273020455613732E-004;
2.414833333333334E+009;1.715544760227203E-001;-6.391314417123795E-002;3.268602304160595E-003;5.830100271850824E-004;
2.415000000000000E+009;1.718454062938690E-001;-6.470602005720139E-002;3.334259614348412E-003;3.376442182343453E-004;
2.415166666666667E+009;1.723355799913406E-001;-6.557169556617737E-002;3.367080120369792E-003;1.674924569670111E-004;
2.415333333333334E+009;1.727853566408157E-001;-6.635928153991699E-002;3.396250540390611E-003;-2.088639485009480E-005;
2.415500000000000E+009;1.731559038162231E-001;-6.686580926179886E-002;3.420059569180012E-003;-1.628261088626459E-004;
2.415666666666667E+009;1.732374429702759E-001;-6.743976473808289E-002;3.504929132759571E-003;-2.686727093532682E-004;
2.415833333333334E+009;1.736663281917572E-001;-6.802858412265778E-002;3.444486996158958E-003;-3.500401217024773E-004;
2.416000000000000E+009;1.737118661403656E-001;-6.841819733381271E-002;3.510653506964445E-003;-6.703697144985199E-004;
2.416166666666667E+009;1.740967333316803E-001;-6.881313771009445E-002;3.445839975029230E-003;-7.659074617549777E-004;
2.416333333333334E+009;1.740173995494843E-001;-6.905841827392578E-002;3.457298967987299E-003;-1.036365632899106E-003;
2.416500000000000E+009;1.738946139812470E-001;-6.931149214506149E-002;3.463613102212548E-003;-1.066806493327022E-003;
2.416666666666667E+009;1.736940890550613E-001;-6.952323764562607E-002;3.441831562668085E-003;-1.194449258036912E-003;
2.416833333333334E+009;1.735885143280029E-001;-6.988140195608139E-002;3.444212255999446E-003;-1.360148889943957E-003;
2.417000000000000E+009;1.730276495218277E-001;-7.003086805343628E-002;3.371083177626133E-003;-1.564850797876716E-003;
2.417166666666667E+009;1.727088689804077E-001;-7.005526125431061E-002;3.337976755574346E-003;-1.536545925773680E-003;
2.417333333333334E+009;1.722739636898041E-001;-7.017786055803299E-002;3.217024961486459E-003;-1.827909261919558E-003;
2.417500000000000E+009;1.715429872274399E-001;-7.050388306379318E-002;3.287087427452207E-003;-1.918460126034915E-003;
2.417666666666667E+009;1.711070537567139E-001;-7.053411751985550E-002;3.022390417754650E-003;-1.897872891277075E-003;
2.417833333333334E+009;1.702906042337418E-001;-7.072326540946960E-002;3.102351911365986E-003;-2.122309757396579E-003;
2.418000000000000E+009;1.692773699760437E-001;-7.105453312397003E-002;2.988322637975216E-003;-2.140975557267666E-003;
2.418166666666667E+009;1.684105694293976E-001;-7.095533609390259E-002;2.885894151404500E-003;-2.221013884991407E-003;
2.418333333333334E+009;1.677203774452210E-001;-7.135050743818283E-002;2.825926290825009E-003;-2.451465930789709E-003;
2.418500000000000E+009;1.664257049560547E-001;-7.171705365180969E-002;2.814091043546796E-003;-2.493323292583227E-003;
2.418666666666667E+009;1.653724312782288E-001;-7.206816971302033E-002;2.830091631039977E-003;-2.581497887149453E-003;
2.418833333333334E+009;1.641353517770767E-001;-7.259498536586762E-002;2.833822509273887E-003;-2.601919230073690E-003;
2.419000000000000E+009;1.629119217395783E-001;-7.311046868562698E-002;2.651410177350044E-003;-2.764700446277857E-003;
2.419166666666667E+009;1.615906208753586E-001;-7.354313135147095E-002;2.653383184224367E-003;-2.982380101457238E-003;
2.419333333333334E+009;1.603477299213409E-001;-7.408057898283005E-002;2.695398172363639E-003;-3.130354685708880E-003;
2.419500000000000E+009;1.591251045465469E-001;-7.500778138637543E-002;2.604583278298378E-003;-3.026222810149193E-003;
2.419666666666667E+009;1.578810513019562E-001;-7.573817670345306E-002;2.511186292394996E-003;-3.223727224394679E-003;
2.419833333333334E+009;1.565065085887909E-001;-7.662387192249298E-002;2.335282275453210E-003;-3.357221372425556E-003;
2.420000000000000E+009;1.554806381464005E-001;-7.748831808567047E-002;2.232209779322147E-003;-3.551180707290769E-003;
2.420166666666667E+009;1.541069597005844E-001;-7.853007316589356E-002;2.291604178026319E-003;-3.676035208627582E-003;
2.420333333333334E+009;1.528794467449188E-001;-7.969613373279572E-002;2.058303216472268E-003;-3.673767903819680E-003;
2.420500000000000E+009;1.519317477941513E-001;-8.082666248083115E-002;2.042950829491019E-003;-3.781283274292946E-003;
2.420666666666667E+009;1.507389396429062E-001;-8.220644295215607E-002;1.998451072722673E-003;-3.972140606492758E-003;
2.420833333333334E+009;1.495851427316666E-001;-8.350943773984909E-002;1.853569177910686E-003;-4.044654779136181E-003;
2.421000000000000E+009;1.486086845397949E-001;-8.492867648601532E-002;1.855628681369126E-003;-4.115361720323563E-003;
2.421166666666667E+009;1.476877927780151E-001;-8.659069240093231E-002;1.700275810435414E-003;-4.309609998017550E-003;
2.421333333333334E+009;1.470040082931519E-001;-8.815657347440720E-002;1.484528183937073E-003;-4.454658366739750E-003;
2.421500000000000E+009;1.460016518831253E-001;-8.971000462770462E-002;1.481343409977853E-003;-4.657432902604342E-003;
2.421666666666667E+009;1.453899890184403E-001;-9.130313247442246E-002;1.096619642339647E-003;-4.729593172669411E-003;
2.421833333333334E+009;1.449436247348785E-001;-9.307225048542023E-002;1.073837047442794E-003;-4.927626345306635E-003;
2.422000000000000E+009;1.443271338939667E-001;-9.482084214687347E-002;8.596513653174043E-004;-5.060524214059115E-003;
2.422166666666667E+009;1.438115239143372E-001;-9.655104577541351E-002;6.008699419908226E-004;-5.159922409802675E-003;
2.422333333333334E+009;1.434202194213867E-001;-9.817329049110413E-002;3.335991350468248E-004;-5.130386911332607E-003;
2.422500000000000E+009;1.430785357952118E-001;-1.000521779060364E-001;2.006396825890988E-004;-5.216466728597879E-003;
2.422666666666667E+009;1.428373903036118E-001;-1.018968746066093E-001;7.765361806377769E-005;-5.316673777997494E-003;
2.422833333333334E+009;1.429094225168228E-001;-1.036588922142983E-001;-3.317124501336366E-004;-5.395383108407259E-003;
2.423000000000000E+009;1.427099108695984E-001;-1.053269952535629E-001;-4.839050816372037E-004;-5.219671409577131E-003;
2.423166666666667E+009;1.429487615823746E-001;-1.070528998970985E-001;-7.722433656454086E-004;-5.465272814035416E-003;
2.423333333333334E+009;1.431005746126175E-001;-1.085701733827591E-001;-1.009606872685254E-003;-5.523002706468105E-003;
2.423500000000000E+009;1.432376652956009E-001;-1.103586256504059E-001;-1.365974778309465E-003;-5.486436188220978E-003;
2.423666666666667E+009;1.432649344205856E-001;-1.119601801037788E-001;-1.385724055580795E-003;-5.574149079620838E-003;
2.423833333333334E+009;1.436209976673126E-001;-1.136404350399971E-001;-1.874629524536431E-003;-5.341607145965099E-003;
2.424000000000000E+009;1.437654644250870E-001;-1.149753183126450E-001;-2.190436702221632E-003;-5.204341839998961E-003;
2.424166666666667E+009;1.441094875335693E-001;-1.164838820695877E-001;-2.461949596181512E-003;-5.209642462432385E-003;
2.424333333333334E+009;1.445683389902115E-001;-1.176426559686661E-001;-2.674078801646829E-003;-5.135667975991964E-003;
2.424500000000000E+009;1.448415070772171E-001;-1.189058870077133E-001;-2.883615903556347E-003;-5.014479625970125E-003;
2.424666666666667E+009;1.454751193523407E-001;-1.196972951292992E-001;-3.189078299328685E-003;-4.926879424601793E-003;
2.424833333333334E+009;1.456626504659653E-001;-1.210201457142830E-001;-3.357379930093885E-003;-4.740630276501179E-003;
2.425000000000000E+009;1.461722403764725E-001;-1.218898594379425E-001;-3.606298705562949E-003;-4.702781327068806E-003;
2.425166666666667E+009;1.464014798402786E-001;-1.227030754089356E-001;-3.865534439682961E-003;-4.442077130079269E-003;
2.425333333333334E+009;1.468434035778046E-001;-1.234645918011665E-001;-4.066781606525183E-003;-4.204502794891596E-003;
2.425500000000000E+009;1.473804861307144E-001;-1.241548806428909E-001;-4.205026663839817E-003;-3.978604450821877E-003;
2.425666666666667E+009;1.474224179983139E-001;-1.248058378696442E-001;-4.343331325799227E-003;-3.834561444818974E-003;
2.425833333333334E+009;1.477485299110413E-001;-1.252688616514206E-001;-4.458175040781498E-003;-3.651184495538473E-003;
2.426000000000000E+009;1.479134857654572E-001;-1.257600933313370E-001;-4.719283431768417E-003;-3.435306949540973E-003;
2.426166666666667E+009;1.482261419296265E-001;-1.260709017515183E-001;-4.882201086729765E-003;-3.088464494794607E-003;
2.426333333333334E+009;1.482278406620026E-001;-1.263704150915146E-001;-5.035945679992437E-003;-2.891855780035257E-003;
2.426500000000000E+009;1.482850164175034E-001;-1.265568137168884E-001;-5.053720902651548E-003;-2.619037637487054E-003;
2.426666666666667E+009;1.482612490653992E-001;-1.263989359140396E-001;-5.146864801645279E-003;-2.499246038496494E-003;
2.426833333333334E+009;1.481516808271408E-001;-1.265891492366791E-001;-5.300836171954870E-003;-2.109397668391466E-003;
2.427000000000000E+009;1.478349566459656E-001;-1.265902072191238E-001;-5.195323843508959E-003;-1.990051707252860E-003;
2.427166666666667E+009;1.475615352392197E-001;-1.264998018741608E-001;-5.371760576963425E-003;-1.787917921319604E-003;
2.427333333333334E+009;1.470750570297241E-001;-1.265146732330322E-001;-5.316483322530985E-003;-1.405159011483192E-003;
2.427500000000000E+009;1.466786861419678E-001;-1.263560354709625E-001;-5.378243513405323E-003;-1.197432167828083E-003;
2.427666666666667E+009;1.459198892116547E-001;-1.263850182294846E-001;-5.364763550460339E-003;-9.931839304044843E-004;
2.427833333333334E+009;1.452229470014572E-001;-1.262292712926865E-001;-5.164068192243576E-003;-7.762332097627223E-004;
