# Version 1.00
#
freq[Hz];re:Trc1_S11;im:Trc1_S11;re:Trc2_S21;im:Trc2_S21;
2.400000000000000E+009;1.554657369852066E-001;1.065457686781883E-001;-1.356954220682383E-003;-7.890821434557438E-003;
2.400166666666667E+009;1.553878784179688E-001;1.040726676583290E-001;-1.507147797383368E-003;-8.185944519937038E-003;
2.400333333333334E+009;1.554265767335892E-001;1.016656085848808E-001;-1.833317102864385E-003;-8.102535270154476E-003;
2.400500000000000E+009;1.555189788341522E-001;9.901537746191025E-002;-2.061586594209075E-003;-8.367707021534443E-003;
2.400666666666667E+009;1.554807722568512E-001;9.638346731662750E-002;-2.412653760984540E-003;-8.248173631727696E-003;
2.400833333333334E+009;1.555498540401459E-001;9.364950656890869E-002;-2.742718905210495E-003;-8.437330834567547E-003;
2.401000000000000E+009;1.557156294584274E-001;9.080447256565094E-002;-3.113665385171771E-003;-8.500494994223118E-003;
2.401166666666667E+009;1.558234244585037E-001;8.787009119987488E-002;-3.452557604759932E-003;-8.417280390858650E-003;
2.401333333333334E+009;1.560835689306259E-001;8.528144657611847E-002;-3.872341476380825E-003;-8.546114899218082E-003;
2.401500000000000E+009;1.566094905138016E-001;8.226393163204193E-002;-4.194177221506834E-003;-8.526762947440147E-003;
2.401666666666667E+009;1.568634957075119E-001;7.939258962869644E-002;-4.601037129759789E-003;-8.117478340864182E-003;
2.401833333333334E+009;1.575013995170593E-001;7.689373940229416E-002;-4.867291543632746E-003;-8.057601749897003E-003;
2.402000000000000E+009;1.582148373126984E-001;7.418681681156158E-002;-5.290374625474215E-003;-7.904003374278545E-003;
2.402166666666667E+009;1.591931879520416E-001;7.154301553964615E-002;-5.753783509135246E-003;-7.830233313143253E-003;
2.402333333333334E+009;1.600721329450607E-001;6.894093751907349E-002;-6.019574590027332E-003;-7.286678068339825E-003;
2.402500000000000E+009;1.612115353345871E-001;6.648257374763489E-002;-6.492668762803078E-003;-7.341416552662849E-003;
2.402666666666667E+009;1.624214947223663E-001;6.414985656738281E-002;-6.768373772501946E-003;-7.097248453646898E-003;
2.402833333333334E+009;1.637425124645233E-001;6.174108758568764E-002;-6.857196334749460E-003;-6.669098976999521E-003;
2.403000000000000E+009;1.651262491941452E-001;5.934062227606773E-002;-7.163031492382288E-003;-6.464064586907625E-003;
2.403166666666667E+009;1.670767962932587E-001;5.732302740216255E-002;-7.400349713861942E-003;-6.102816201746464E-003;
2.403333333333334E+009;1.682387441396713E-001;5.501076579093933E-002;-7.710155565291643E-003;-5.622663069516420E-003;
2.403500000000000E+009;1.700227707624435E-001;5.319346860051155E-002;-7.877478376030922E-003;-5.368242505937815E-003;
2.403666666666667E+009;1.717388629913330E-001;5.113551020622253E-002;-7.991718128323555E-003;-5.098535213619471E-003;
2.403833333333334E+009;1.733031719923019E-001;4.935891926288605E-002;-8.191852830350399E-003;-4.708738997578621E-003;
2.404000000000000E+009;1.747890859842300E-001;4.765857011079788E-002;-8.473784662783146E-003;-4.373496398329735E-003;
2.404166666666667E+009;1.766975373029709E-001;4.615138471126556E-002;-8.655629120767117E-003;-4.014732316136360E-003;
2.404333333333334E+009;1.783201098442078E-001;4.458672925829887E-002;-8.721306920051575E-003;-3.946768585592508E-003;
2.404500000000000E+009;1.798295825719833E-001;4.312329366803169E-002;-8.619969710707665E-003;-3.570509608834982E-003;
2.404666666666667E+009;1.814202815294266E-001;4.222422838211060E-002;-8.981658145785332E-003;-3.138875355944037E-003;
2.404833333333334E+009;1.831044256687164E-001;4.115908220410347E-002;-8.875980973243713E-003;-2.768083708360791E-003;
2.405000000000000E+009;1.843141466379166E-001;4.042391106486321E-002;-9.061306715011597E-003;-2.403731457889080E-003;
2.405166666666667E+009;1.857257634401321E-001;3.984824568033218E-002;-9.145678952336311E-003;-2.242556307464838E-003;
2.405333333333334E+009;1.872100085020065E-001;3.916037455201149E-002;-9.109622798860073E-003;-1.871295622549951E-003;
2.405500000000000E+009;1.884626448154450E-001;3.882618248462677E-002;-9.251926094293594E-003;-1.470344723202288E-003;
2.405666666666667E+009;1.896807402372360E-001;3.846382722258568E-002;-9.312684647738934E-003;-1.034004497341812E-003;
2.405833333333334E+009;1.909260153770447E-001;3.816325590014458E-002;-9.377648122608662E-003;-8.161137811839581E-004;
2.406000000000000E+009;1.918320804834366E-001;3.784452378749847E-002;-9.306315332651138E-003;-3.980502660851926E-004;
2.406166666666667E+009;1.927715390920639E-001;3.774377703666687E-002;-9.174953214824200E-003;5.741369022871368E-005;
2.406333333333334E+009;1.937423199415207E-001;3.768817335367203E-002;-9.110521525144577E-003;3.169017436448485E-004;
2.406500000000000E+009;1.943491399288178E-001;3.773734346032143E-002;-8.976247161626816E-003;7.322168676182628E-004;
2.406666666666667E+009;1.949194520711899E-001;3.778801858425140E-002;-8.908469229936600E-003;1.092226011678577E-003;
2.406833333333334E+009;1.954642534255981E-001;3.768086060881615E-002;-8.901542983949184E-003;1.344568678177893E-003;
2.407000000000000E+009;1.958224177360535E-001;3.796453401446343E-002;-8.729600347578526E-003;1.700256485491991E-003;
2.407166666666667E+009;1.960348486900330E-001;3.787154331803322E-002;-8.596017025411129E-003;2.015033271163702E-003;
2.407333333333334E+009;1.960794925689697E-001;3.784674033522606E-002;-8.226435631513596E-003;2.323340857401490E-003;
2.407500000000000E+009;1.961025744676590E-001;3.789617866277695E-002;-8.200596086680889E-003;2.521815942600370E-003;
2.407666666666667E+009;1.962160021066666E-001;3.782708197832108E-002;-8.093811571598053E-003;2.832532394677401E-003;
2.407833333333334E+009;1.956797540187836E-001;3.765797242522240E-002;-7.896941155195236E-003;2.945605199784041E-003;
2.408000000000000E+009;1.954405307769775E-001;3.737000003457069E-002;-7.659997791051865E-003;3.067404497414827E-003;
2.408166666666667E+009;1.948508471250534E-001;3.714076429605484E-002;-7.459773682057858E-003;3.300016978755593E-003;
2.408333333333334E+009;1.944666951894760E-001;3.657997399568558E-002;-7.275837939232588E-003;3.667132230475545E-003;
2.408500000000000E+009;1.939168870449066E-001;3.611202538013458E-002;-7.096203509718180E-003;3.765317844226956E-003;
2.408666666666667E+009;1.931166648864746E-001;3.544240444898605E-002;-6.861860863864422E-003;3.821410005912185E-003;
2.408833333333334E+009;1.924866586923599E-001;3.471743687987328E-002;-6.757441908121109E-003;3.988609183579683E-003;
2.409000000000000E+009;1.915631741285324E-001;3.370130434632301E-002;-6.516112945973873E-003;4.031247925013304E-003;
2.409166666666667E+009;1.906380057334900E-001;3.272183611989021E-002;-6.351633463054895E-003;4.395259078592062E-003;
2.409333333333334E+009;1.898147761821747E-001;3.165050968527794E-002;-6.076803430914879E-003;4.348832182586193E-003;
2.409500000000000E+009;1.885488182306290E-001;3.042772039771080E-002;-5.895992275327444E-003;4.425731487572193E-003;
2.409666666666667E+009;1.875927895307541E-001;2.890560217201710E-002;-5.743978079408407E-003;4.562406335026026E-003;
2.409833333333334E+009;1.865149885416031E-001;2.734407410025597E-002;-5.531365051865578E-003;4.545077681541443E-003;
2.410000000000000E+009;1.856560111045837E-001;2.566808275878429E-002;-5.421352107077837E-003;4.630368202924728E-003;
2.410166666666667E+009;1.845831274986267E-001;2.375565096735954E-002;-5.315539892762899E-003;4.803048912435770E-003;
2.410333333333334E+009;1.836717575788498E-001;2.194480970501900E-002;-5.074682179838419E-003;4.866744391620159E-003;
2.410500000000000E+009;1.827054917812347E-001;2.004483528435230E-002;-4.888962488621473E-003;4.835885949432850E-003;
2.410666666666667E+009;1.818180531263351E-001;1.771070063114166E-002;-4.790595266968012E-003;4.962821491062641E-003;
2.410833333333334E+009;1.809633076190949E-001;1.540014799684286E-002;-4.467030055820942E-003;4.946272354573011E-003;
2.411000000000000E+009;1.802799403667450E-001;1.338638644665480E-002;-4.455863963812590E-003;5.235000979155302E-003;
2.411166666666667E+009;1.797476112842560E-001;1.118891499936581E-002;-4.198168404400349E-003;5.171325989067555E-003;
2.411333333333334E+009;1.791939288377762E-001;8.709916844964027E-003;-3.912283107638359E-003;5.076844710856676E-003;
2.411500000000000E+009;1.788366138935089E-001;6.402153056114912E-003;-3.822082420811057E-003;5.144069436937571E-003;
2.411666666666667E+009;1.785376220941544E-001;4.089414142072201E-003;-3.708160482347012E-003;5.282075610011816E-003;
2.411833333333334E+009;1.781475096940994E-001;1.581415534019470E-003;-3.579441923648119E-003;5.144575610756874E-003;
2.412000000000000E+009;1.782097071409226E-001;-9.137777378782630E-004;-3.434274345636368E-003;5.255107767879963E-003;
2.412166666666667E+009;1.785593181848526E-001;-3.184480126947165E-003;-3.246284322813153E-003;5.182965658605099E-003;
2.412333333333334E+009;1.785615831613541E-001;-5.586724262684584E-003;-3.187011228874326E-003;5.306528881192207E-003;
2.412500000000000E+009;1.789224296808243E-001;-8.060957305133343E-003;-3.003628225997090E-003;5.262777209281921E-003;
2.412666666666667E+009;1.794933676719666E-001;-1.048119179904461E-002;-3.069837810471654E-003;5.202157888561487E-003;
2.412833333333334E+009;1.802129000425339E-001;-1.262466050684452E-002;-2.971575828269124E-003;5.161313805729151E-003;
2.413000000000000E+009;1.810367852449417E-001;-1.514934562146664E-002;-2.864568494260311E-003;5.132008343935013E-003;
2.413166666666667E+009;1.817385554313660E-001;-1.709282770752907E-002;-2.925036707893014E-003;5.182465072721243E-003;
2.413333333333334E+009;1.825460195541382E-001;-1.948415488004684E-002;-2.730958163738251E-003;5.310828331857920E-003;
2.413500000000000E+009;1.833896487951279E-001;-2.169234305620194E-002;-2.780875889584422E-003;5.184640176594257E-003;
2.413666666666667E+009;1.844900995492935E-001;-2.375696785748005E-002;-2.677019452676177E-003;5.434568040072918E-003;
2.413833333333334E+009;1.857126653194428E-001;-2.567191049456596E-002;-2.498558256775141E-003;5.621913354843855E-003;
2.414000000000000E+009;1.867853999137878E-001;-2.766210399568081E-002;-2.331091789528728E-003;5.656907334923744E-003;
2.414166666666667E+009;1.880960762500763E-001;-2.939835004508495E-002;-2.324567176401615E-003;5.826090462505817E-003;
2.414333333333334E+009;1.890437453985214E-001;-3.125406429171562E-002;-2.363562583923340E-003;5.755402147769928E-003;
2.414500000000000E+009;1.902228742837906E-001;-3.258214145898819E-002;-1.992374425753951E-003;5.748644005507231E-003;
2.414666666666667E+009;1.914931833744049E-001;-3.411713987588882E-002;-1.898101647384465E-003;5.900187417864800E-003;
2.414833333333334E+009;1.925818026065826E-001;-3.549220040440559E-002;-1.727728755213320E-003;5.916755646467209E-003;
2.415000000000000E+009;1.935543417930603E-001;-3.671108558773994E-002;-1.599304145202041E-003;5.902232136577368E-003;
2.415166666666667E+009;1.948479115962982E-001;-3.764504566788673E-002;-1.588489161804318E-003;6.109543144702911E-003;
2.415333333333334E+009;1.958715468645096E-001;-3.863636031746864E-002;-1.399666885845363E-003;6.091928109526634E-003;
2.415500000000000E+009;1.968902796506882E-001;-3.922584280371666E-002;-1.312548643909395E-003;6.058472674340010E-003;
2.415666666666667E+009;1.979299485683441E-001;-3.993161022663117E-002;-1.269297557882965E-003;6.168007384985685E-003;
2.415833333333334E+009;1.987755894660950E-001;-4.060510918498039E-002;-1.119602704420686E-003;6.311484146863222E-003;
2.416000000000000E+009;1.995860785245895E-001;-4.119375720620155E-002;-1.050660270266235E-003;6.388392299413681E-003;
2.416166666666667E+009;2.003132253885269E-001;-4.173779487609863E-002;-8.937485981732607E-004;6.408639252185822E-003;
2.416333333333334E+009;2.008924335241318E-001;-4.192890226840973E-002;-7.566575077362359E-004;6.434676237404347E-003;
2.416500000000000E+009;2.013202458620071E-001;-4.213551431894302E-002;-5.507966270670295E-004;6.554124411195517E-003;
2.416666666666667E+009;2.015618830919266E-001;-4.247426241636276E-002;-6.056675338186324E-004;6.680591963231564E-003;
2.416833333333334E+009;2.017576545476914E-001;-4.254630580544472E-002;-3.152858989778906E-004;6.874913815408945E-003;
2.417000000000000E+009;2.020013183355331E-001;-4.260886088013649E-002;-7.704324525548145E-005;6.954550743103027E-003;
2.417166666666667E+009;2.017255872488022E-001;-4.261704534292221E-002;2.435263886582106E-004;7.122584618628025E-003;
2.417333333333334E+009;2.014602273702622E-001;-4.239748418331146E-002;4.637889796867967E-004;7.143387105315924E-003;
2.417500000000000E+009;2.012078166007996E-001;-4.246814548969269E-002;6.868239142931998E-004;7.197246886789799E-003;
2.417666666666667E+009;2.006140053272247E-001;-4.223371297121048E-002;9.870589710772038E-004;7.228330709040165E-003;
2.417833333333334E+009;2.001304477453232E-001;-4.206664860248566E-002;1.161255640909076E-003;7.304845843464136E-003;
2.418000000000000E+009;1.994310170412064E-001;-4.189298674464226E-002;1.486531691625714E-003;7.124579977244139E-003;
2.418166666666667E+009;1.987192332744598E-001;-4.195098578929901E-002;1.682532951235771E-003;7.177394349128008E-003;
2.418333333333334E+009;1.978200078010559E-001;-4.176892712712288E-002;1.886718091554940E-003;7.071046158671379E-003;
2.418500000000000E+009;1.968196630477905E-001;-4.183718189597130E-002;2.123191021382809E-003;7.179498206824064E-003;
2.418666666666667E+009;1.958615630865097E-001;-4.164893552660942E-002;2.395253861322999E-003;6.938224192708731E-003;
2.418833333333334E+009;1.946526914834976E-001;-4.197460040450096E-002;2.759097144007683E-003;6.973321549594402E-003;
2.419000000000000E+009;1.932933479547501E-001;-4.217016696929932E-002;3.033967223018408E-003;6.779834628105164E-003;
2.419166666666667E+009;1.919741034507752E-001;-4.249414429068565E-002;3.145382273942232E-003;6.704449187964201E-003;
2.419333333333334E+009;1.905716657638550E-001;-4.292201250791550E-002;3.532581729814410E-003;6.747373845428228E-003;
2.419500000000000E+009;1.890711188316345E-001;-4.331686720252037E-002;3.580460324883461E-003;6.514050532132387E-003;
2.419666666666667E+009;1.875994354486466E-001;-4.416345804929733E-002;3.763790475204587E-003;6.475253496319056E-003;
2.419833333333334E+009;1.859883069992065E-001;-4.488078132271767E-002;4.021333064883947E-003;6.393718533217907E-003;
2.420000000000000E+009;1.844973713159561E-001;-4.572733864188194E-002;4.227217286825180E-003;6.400014739483595E-003;
2.420166666666667E+009;1.829584240913391E-001;-4.678231477737427E-002;4.501528572291136E-003;6.133173592388630E-003;
2.420333333333334E+009;1.812245100736618E-001;-4.787265136837959E-002;4.709991160780191E-003;6.033704150468111E-003;
2.420500000000000E+009;1.796684414148331E-001;-4.900404438376427E-002;4.859024193137884E-003;5.767445545643568E-003;
2.420666666666667E+009;1.780407726764679E-001;-5.019482225179672E-002;5.113462917506695E-003;5.813952069729567E-003;
2.420833333333334E+009;1.764227598905563E-001;-5.175717920064926E-002;5.368433892726898E-003;5.652934778481722E-003;
2.421000000000000E+009;1.751593351364136E-001;-5.328494310379028E-002;5.728824529796839E-003;5.347387399524450E-003;
2.421166666666667E+009;1.737852096557617E-001;-5.494275316596031E-002;5.773861892521381E-003;5.062539596110582E-003;
2.421333333333334E+009;1.722775399684906E-001;-5.638987571001053E-002;6.058460101485252E-003;4.891595337539911E-003;
2.421500000000000E+009;1.709052026271820E-001;-5.829337984323502E-002;6.116069387644529E-003;4.510866943746805E-003;
2.421666666666667E+009;1.698360145092011E-001;-6.002736836671829E-002;6.325643975287676E-003;4.343898501247168E-003;
2.421833333333334E+009;1.685315370559692E-001;-6.194141879677773E-002;6.474880967289209E-003;4.020522814244032E-003;
2.422000000000000E+009;1.676274240016937E-001;-6.393751502037048E-002;6.541475653648377E-003;3.866570303216577E-003;
2.422166666666667E+009;1.666832119226456E-001;-6.601294875144959E-002;6.708062719553709E-003;3.625694895163178E-003;
2.422333333333334E+009;1.657698750495911E-001;-6.798201054334641E-002;6.833862047642469E-003;3.264909610152245E-003;
2.422500000000000E+009;1.650873124599457E-001;-6.982398778200150E-002;6.879573687911034E-003;3.001759294420481E-003;
2.422666666666667E+009;1.643604934215546E-001;-7.179978489875794E-002;6.927255075424910E-003;2.604606561362743E-003;
2.422833333333334E+009;1.640538573265076E-001;-7.390496879816055E-002;6.954296026378870E-003;2.344322623685002E-003;
2.423000000000000E+009;1.635769307613373E-001;-7.583843171596527E-002;6.859430577605963E-003;2.176471520215273E-003;
2.423166666666667E+009;1.631583720445633E-001;-7.773485779762268E-002;6.782853975892067E-003;1.925015705637634E-003;
2.423333333333334E+009;1.629798114299774E-001;-7.979928702116013E-002;6.797078065574169E-003;1.499597914516926E-003;
2.423500000000000E+009;1.629776954650879E-001;-8.137089014053345E-002;6.846462842077017E-003;1.486975932493806E-003;
2.423666666666667E+009;1.629574745893478E-001;-8.335421234369278E-002;6.711922585964203E-003;1.253371825441718E-003;
2.423833333333334E+009;1.629241257905960E-001;-8.506114780902863E-002;6.633992306888104E-003;9.097622823901475E-004;
2.424000000000000E+009;1.630837917327881E-001;-8.677921444177628E-002;6.701847538352013E-003;8.559147245250642E-004;
2.424166666666667E+009;1.632381826639175E-001;-8.838330209255219E-002;6.685166619718075E-003;7.310061482712627E-004;
2.424333333333334E+009;1.633743047714233E-001;-8.988083899021149E-002;6.517917849123478E-003;5.277054151520133E-004;
2.424500000000000E+009;1.638381034135819E-001;-9.162450581789017E-002;6.438642274588347E-003;6.860667053842917E-005;
2.424666666666667E+009;1.640356928110123E-001;-9.295924752950668E-002;6.595099344849587E-003;-5.488530950970016E-005;
2.424833333333334E+009;1.647075265645981E-001;-9.417986124753952E-002;6.338904146105051E-003;-2.526392054278404E-004;
2.425000000000000E+009;1.650236397981644E-001;-9.535048902034760E-002;6.400815211236477E-003;-3.396899846848100E-004;
2.425166666666667E+009;1.652787029743195E-001;-9.645637124776840E-002;6.217371672391892E-003;-5.498728714883328E-004;
2.425333333333334E+009;1.656321436166763E-001;-9.747225046157837E-002;6.123046856373549E-003;-8.210799423977733E-004;
2.425500000000000E+009;1.660627573728561E-001;-9.831291437149048E-002;6.036989390850067E-003;-8.740281919017434E-004;
2.425666666666667E+009;1.664136350154877E-001;-9.904243052005768E-002;6.032962817698717E-003;-1.070322934538126E-003;
2.425833333333334E+009;1.668247729539871E-001;-9.987901151180267E-002;5.800615530461073E-003;-1.125604845583439E-003;
2.426000000000000E+009;1.671857684850693E-001;-1.003803759813309E-001;5.801956169307232E-003;-1.372946426272392E-003;
2.426166666666667E+009;1.674902886152268E-001;-1.008962839841843E-001;5.556488409638405E-003;-1.406531664542854E-003;
2.426333333333334E+009;1.675697863101959E-001;-1.014232337474823E-001;5.565497092902660E-003;-1.717327511869371E-003;
2.426500000000000E+009;1.680101901292801E-001;-1.016912832856178E-001;5.342113785445690E-003;-1.644099014811218E-003;
2.426666666666667E+009;1.681321412324905E-001;-1.019619777798653E-001;5.369421094655991E-003;-1.729237381368876E-003;
2.426833333333334E+009;1.683587133884430E-001;-1.022400930523872E-001;5.114341154694557E-003;-1.866371370851994E-003;
2.427000000000000E+009;1.683702915906906E-001;-1.024913564324379E-001;5.155324004590511E-003;-2.051331801339984E-003;
2.427166666666667E+009;1.683814227581024E-001;-1.026221737265587E-001;5.156314000487328E-003;-2.073292387649417E-003;
2.427333333333334E+009;1.681487858295441E-001;-1.028970703482628E-001;4.831430036574602E-003;-2.259396249428392E-003;
2.427500000000000E+009;1.679884195327759E-001;-1.030402854084969E-001;4.797192756086588E-003;-2.234743908047676E-003;
2.427666666666667E+009;1.676374822854996E-001;-1.031338870525360E-001;4.816231317818165E-003;-2.329780487343669E-003;
2.427833333333334E+009;1.672416329383850E-001;-1.033072099089623E-001;4.711983259767294E-003;-2.349219284951687E-003;
