# Version 1.00
#
freq[Hz];re:Trc1_S11;im:Trc1_S11;re:Trc2_S21;im:Trc2_S21;
2.400000000000000E+009;1.555040031671524E-001;1.066054627299309E-001;-1.401938963681459E-003;-7.867760956287384E-003;
2.400166666666667E+009;1.551744341850281E-001;1.042043641209602E-001;-1.659963862039149E-003;-7.366855628788471E-003;
2.400333333333334E+009;1.557136327028275E-001;1.016399040818214E-001;-2.430910710245371E-003;-8.911013603210449E-003;
2.400500000000000E+009;1.551136076450348E-001;9.886623919010162E-002;-2.544176764786243E-003;-8.003532886505127E-003;
2.400666666666667E+009;1.552482396364212E-001;9.686980396509171E-002;-1.932163955643773E-003;-7.604207377880812E-003;
2.400833333333334E+009;1.554204970598221E-001;9.379155188798904E-002;-2.559202490374446E-003;-8.332714438438416E-003;
2.401000000000000E+009;1.555058360099793E-001;9.077694267034531E-002;-3.699608612805605E-003;-8.169294334948063E-003;
2.401166666666667E+009;1.556272804737091E-001;8.794432133436203E-002;-3.611411200836301E-003;-8.085415698587894E-003;
2.401333333333334E+009;1.560849398374558E-001;8.507019281387329E-002;-4.348495975136757E-003;-7.834152318537235E-003;
2.401500000000000E+009;1.563960313796997E-001;8.241613209247589E-002;-3.688055556267500E-003;-7.971988990902901E-003;
2.401666666666667E+009;1.569530665874481E-001;7.975997775793076E-002;-4.716234747320414E-003;-8.174668997526169E-003;
2.401833333333334E+009;1.573559641838074E-001;7.689075171947479E-002;-5.092688836157322E-003;-8.079706691205502E-003;
2.402000000000000E+009;1.583359241485596E-001;7.412042468786240E-002;-5.414572078734636E-003;-7.950919680297375E-003;
2.402166666666667E+009;1.592023670673370E-001;7.174398005008698E-002;-5.720005370676518E-003;-7.644031662493944E-003;
2.402333333333334E+009;1.601451337337494E-001;6.908435374498367E-002;-6.065255030989647E-003;-7.454402744770050E-003;
2.402500000000000E+009;1.609613001346588E-001;6.650959700345993E-002;-6.456112023442984E-003;-7.222703658044338E-003;
2.402666666666667E+009;1.622782647609711E-001;6.432645767927170E-002;-6.896039936691523E-003;-6.980857811868191E-003;
2.402833333333334E+009;1.636057198047638E-001;6.192829459905624E-002;-7.101252675056458E-003;-6.678272504359484E-003;
2.403000000000000E+009;1.649453938007355E-001;5.944001674652100E-002;-7.314828224480152E-003;-6.164347752928734E-003;
2.403166666666667E+009;1.666932553052902E-001;5.731060355901718E-002;-7.540615275502205E-003;-5.967039614915848E-003;
2.403333333333334E+009;1.681349724531174E-001;5.517962574958801E-002;-7.835741154849529E-003;-5.643061362206936E-003;
2.403500000000000E+009;1.699061840772629E-001;5.321498960256577E-002;-7.956857793033123E-003;-5.425167735666037E-003;
2.403666666666667E+009;1.715658605098724E-001;5.131237953901291E-002;-8.183537051081657E-003;-4.938641563057900E-003;
2.403833333333334E+009;1.734588146209717E-001;4.956207424402237E-002;-8.289245888590813E-003;-4.596031270921230E-003;
2.404000000000000E+009;1.746978312730789E-001;4.777117818593979E-002;-8.452770300209522E-003;-4.408775828778744E-003;
2.404166666666667E+009;1.764745116233826E-001;4.620979726314545E-002;-8.627301082015038E-003;-3.930585458874703E-003;
2.404333333333334E+009;1.783484369516373E-001;4.490283131599426E-002;-8.624177426099777E-003;-3.603513818234205E-003;
2.404500000000000E+009;1.798806488513947E-001;4.348043724894524E-002;-8.670442737638950E-003;-3.416653489693999E-003;
2.404666666666667E+009;1.814032793045044E-001;4.228508472442627E-002;-8.793295361101627E-003;-2.936432836577296E-003;
2.404833333333334E+009;1.831849366426468E-001;4.136546701192856E-002;-8.850509300827980E-003;-2.564902417361736E-003;
2.405000000000000E+009;1.844337135553360E-001;4.048182070255280E-002;-8.911195211112499E-003;-2.456888556480408E-003;
2.405166666666667E+009;1.858025938272476E-001;3.995954617857933E-002;-9.016334079205990E-003;-2.007985953241587E-003;
2.405333333333334E+009;1.870889514684677E-001;3.931673616170883E-002;-9.116775356233120E-003;-1.663323841057718E-003;
2.405500000000000E+009;1.886011660099030E-001;3.888322040438652E-002;-9.217998012900353E-003;-1.363349496386945E-003;
2.405666666666667E+009;1.897385865449905E-001;3.848555684089661E-002;-9.184735827147961E-003;-1.080238725990057E-003;
2.405833333333334E+009;1.909662336111069E-001;3.831509500741959E-002;-9.217182174324989E-003;-6.078921724110842E-004;
2.406000000000000E+009;1.918592453002930E-001;3.814108297228813E-002;-9.295902214944363E-003;-1.471384166507050E-004;
2.406166666666667E+009;1.928443014621735E-001;3.796742483973503E-002;-9.189385920763016E-003;1.640846021473408E-004;
2.406333333333334E+009;1.938761323690414E-001;3.798965364694595E-002;-9.007465094327927E-003;4.033267323393375E-004;
2.406500000000000E+009;1.945514380931854E-001;3.785656020045281E-002;-8.991138078272343E-003;8.614907274022698E-004;
2.406666666666667E+009;1.951886266469955E-001;3.808298707008362E-002;-8.835493586957455E-003;1.285789185203612E-003;
2.406833333333334E+009;1.956761777400971E-001;3.792795538902283E-002;-8.683080784976482E-003;1.482620136812329E-003;
2.407000000000000E+009;1.958723813295364E-001;3.815102204680443E-002;-8.620201610028744E-003;1.839835196733475E-003;
2.407166666666667E+009;1.964180022478104E-001;3.784993290901184E-002;-8.517958223819733E-003;1.981744309887290E-003;
2.407333333333334E+009;1.962277740240097E-001;3.811931610107422E-002;-8.311254903674126E-003;2.462099539116025E-003;
2.407500000000000E+009;1.961740851402283E-001;3.805882483720779E-002;-8.101006038486958E-003;2.594344783574343E-003;
2.407666666666667E+009;1.962426304817200E-001;3.795069828629494E-002;-7.879275828599930E-003;2.858653431758285E-003;
2.407833333333334E+009;1.956919282674789E-001;3.775723651051521E-002;-7.693951483815908E-003;2.904798369854689E-003;
2.408000000000000E+009;1.956846117973328E-001;3.764549270272255E-002;-7.510583847761154E-003;3.324158256873488E-003;
2.408166666666667E+009;1.950450390577316E-001;3.720799461007118E-002;-7.508387323468924E-003;3.520710859447718E-003;
2.408333333333334E+009;1.945347487926483E-001;3.664312139153481E-002;-7.169574033468962E-003;3.645210759714246E-003;
2.408500000000000E+009;1.939817517995834E-001;3.623244911432266E-002;-7.079711183905602E-003;3.893369110301137E-003;
2.408666666666667E+009;1.934181004762650E-001;3.569266572594643E-002;-6.764722522348166E-003;3.993178252130747E-003;
2.408833333333334E+009;1.927208304405212E-001;3.490072116255760E-002;-6.632275879383087E-003;4.164794459939003E-003;
2.409000000000000E+009;1.917281299829483E-001;3.384178504347801E-002;-6.441689562052488E-003;4.271138459444046E-003;
2.409166666666667E+009;1.907240450382233E-001;3.292708098888397E-002;-6.299211177974939E-003;4.294123034924269E-003;
2.409333333333334E+009;1.900067627429962E-001;3.174128010869026E-002;-5.923114251345396E-003;4.449383821338415E-003;
2.409500000000000E+009;1.887438148260117E-001;3.045191243290901E-002;-5.874027032405138E-003;4.480684176087380E-003;
2.409666666666667E+009;1.877273470163345E-001;2.912545017898083E-002;-5.691688973456621E-003;4.520150832831860E-003;
2.409833333333334E+009;1.868314445018768E-001;2.751087211072445E-002;-5.414766259491444E-003;4.569648299366236E-003;
2.410000000000000E+009;1.857634335756302E-001;2.579067274928093E-002;-5.294830538332462E-003;4.772543441504240E-003;
2.410166666666667E+009;1.848160028457642E-001;2.381074987351894E-002;-5.114031024277210E-003;4.785213619470596E-003;
2.410333333333334E+009;1.839209347963333E-001;2.214656956493855E-002;-5.004613660275936E-003;4.886600188910961E-003;
2.410500000000000E+009;1.830049902200699E-001;2.016521804034710E-002;-4.768920131027699E-003;4.953107796609402E-003;
2.410666666666667E+009;1.819466650485992E-001;1.794971153140068E-002;-4.589793737977743E-003;4.977275151759386E-003;
2.410833333333334E+009;1.814733296632767E-001;1.567200571298599E-002;-4.446748178452253E-003;5.113380961120129E-003;
2.411000000000000E+009;1.805556863546372E-001;1.352880802005529E-002;-4.354292526841164E-003;5.121490452438593E-003;
2.411166666666667E+009;1.798826754093170E-001;1.132936216890812E-002;-4.198316950351000E-003;5.175354424864054E-003;
2.411333333333334E+009;1.794102042913437E-001;8.747478947043419E-003;-4.034515935927630E-003;5.296822171658278E-003;
2.411500000000000E+009;1.789058744907379E-001;6.514949724078178E-003;-3.722963854670525E-003;5.194833502173424E-003;
2.411666666666667E+009;1.788949966430664E-001;4.180501215159893E-003;-3.650830825790763E-003;5.115150008350611E-003;
2.411833333333334E+009;1.784177720546722E-001;1.739804749377072E-003;-3.474217373877764E-003;5.222952459007502E-003;
2.412000000000000E+009;1.786659657955170E-001;-9.451964288018644E-004;-3.274847753345966E-003;5.196679849177599E-003;
2.412166666666667E+009;1.786179393529892E-001;-3.275071270763874E-003;-3.237412311136723E-003;5.272969137877226E-003;
2.412333333333334E+009;1.787862032651901E-001;-5.654706619679928E-003;-3.204816486686468E-003;5.119143985211849E-003;
2.412500000000000E+009;1.793138086795807E-001;-8.070531301200390E-003;-2.974678296595812E-003;5.121740046888590E-003;
2.412666666666667E+009;1.797374933958054E-001;-1.042027771472931E-002;-2.968049375340343E-003;4.992731846868992E-003;
2.412833333333334E+009;1.803822517395020E-001;-1.276742760092020E-002;-2.876422833651304E-003;5.042784381657839E-003;
2.413000000000000E+009;1.811891496181488E-001;-1.506533008068800E-002;-2.803201321512461E-003;5.018645431846380E-003;
2.413166666666667E+009;1.818224638700485E-001;-1.726223528385162E-002;-2.710318425670266E-003;5.144992377609015E-003;
2.413333333333334E+009;1.827945113182068E-001;-1.950476877391338E-002;-2.762747928500176E-003;5.225999746471643E-003;
2.413500000000000E+009;1.837099343538284E-001;-2.169710025191307E-002;-2.642706967890263E-003;5.322048440575600E-003;
2.413666666666667E+009;1.848339289426804E-001;-2.374657988548279E-002;-2.694979310035706E-003;5.391715560108423E-003;
2.413833333333334E+009;1.858906149864197E-001;-2.582894824445248E-002;-2.529442310333252E-003;5.374385509639978E-003;
2.414000000000000E+009;1.869313865900040E-001;-2.777491137385368E-002;-2.337183570489287E-003;5.406588315963745E-003;
2.414166666666667E+009;1.881884485483170E-001;-2.946880646049976E-002;-2.262005116790533E-003;5.783714819699526E-003;
2.414333333333334E+009;1.892696768045425E-001;-3.132083639502525E-002;-2.231298014521599E-003;5.686181131750345E-003;
2.414500000000000E+009;1.905269324779511E-001;-3.276378288865089E-002;-2.083783736452460E-003;5.644212476909161E-003;
2.414666666666667E+009;1.915898621082306E-001;-3.422173485159874E-002;-1.769090304151177E-003;5.887560546398163E-003;
2.414833333333334E+009;1.927274465560913E-001;-3.550808876752853E-002;-1.591892330907285E-003;5.856827367097139E-003;
2.415000000000000E+009;1.938230842351914E-001;-3.669614717364311E-002;-1.701444969512522E-003;5.887436214834452E-003;
2.415166666666667E+009;1.949878036975861E-001;-3.784387931227684E-002;-1.490599592216313E-003;5.919210147112608E-003;
2.415333333333334E+009;1.960402727127075E-001;-3.878279775381088E-002;-1.358102192170918E-003;5.951421801000834E-003;
2.415500000000000E+009;1.972180604934692E-001;-3.939471393823624E-002;-1.232799375429750E-003;6.011986173689365E-003;
2.415666666666667E+009;1.981310099363327E-001;-4.025573283433914E-002;-1.191615243442357E-003;6.103814113885164E-003;
2.415833333333334E+009;1.989745050668716E-001;-4.066763818264008E-002;-1.085432595573366E-003;6.229536607861519E-003;
2.416000000000000E+009;1.997508108615875E-001;-4.133812710642815E-002;-9.662813972681761E-004;6.243929732590914E-003;
2.416166666666667E+009;2.004696577787399E-001;-4.180317744612694E-002;-8.070580661296845E-004;6.514145061373711E-003;
2.416333333333334E+009;2.009925097227097E-001;-4.207237809896469E-002;-6.945687928237021E-004;6.500679533928633E-003;
2.416500000000000E+009;2.014347612857819E-001;-4.229500517249107E-002;-7.167188450694084E-004;6.588540971279144E-003;
2.416666666666667E+009;2.017744034528732E-001;-4.267075657844544E-002;-3.666539560072124E-004;6.711886264383793E-003;
2.416833333333334E+009;2.019813060760498E-001;-4.271473735570908E-002;-1.640462869545445E-004;6.880819797515869E-003;
2.417000000000000E+009;2.021259665489197E-001;-4.287569597363472E-002;-3.263100006734021E-005;6.917454302310944E-003;
2.417166666666667E+009;2.017646580934525E-001;-4.276710748672485E-002;2.155008405679837E-004;7.093122694641352E-003;
2.417333333333334E+009;2.015756368637085E-001;-4.265883937478066E-002;4.517497727647424E-004;6.941747851669788E-003;
2.417500000000000E+009;2.012450397014618E-001;-4.267373681068420E-002;4.963569808751345E-004;7.240343373268843E-003;
2.417666666666667E+009;2.007645070552826E-001;-4.260449856519699E-002;1.015290734358132E-003;7.149307522922754E-003;
2.417833333333334E+009;2.003176957368851E-001;-4.243734851479530E-002;1.160338753834367E-003;7.190469652414322E-003;
2.418000000000000E+009;1.995768398046494E-001;-4.204247891902924E-002;1.458090147934854E-003;7.004431914538145E-003;
2.418166666666667E+009;1.987625360488892E-001;-4.195593297481537E-002;1.809882465749979E-003;7.243256084620953E-003;
2.418333333333334E+009;1.978020071983337E-001;-4.189090803265572E-002;1.992200734093785E-003;6.939332000911236E-003;
2.418500000000000E+009;1.968618333339691E-001;-4.195526614785194E-002;2.160897711291909E-003;6.978905759751797E-003;
2.418666666666667E+009;1.958267241716385E-001;-4.196406900882721E-002;2.563153859227896E-003;7.004616316407919E-003;
2.418833333333334E+009;1.945320814847946E-001;-4.203460738062859E-002;2.838518237695098E-003;7.023323792964220E-003;
2.419000000000000E+009;1.933068633079529E-001;-4.233079031109810E-002;2.915244083851576E-003;6.839194335043430E-003;
2.419166666666667E+009;1.920843273401260E-001;-4.259786382317543E-002;3.207378787919879E-003;6.717112381011248E-003;
2.419333333333334E+009;1.907197982072830E-001;-4.325990751385689E-002;3.293397137895227E-003;6.707436405122280E-003;
2.419500000000000E+009;1.892675906419754E-001;-4.351596906781197E-002;3.699689637869597E-003;6.568941287696362E-003;
2.419666666666667E+009;1.876439750194550E-001;-4.439827427268028E-002;3.852741094306111E-003;6.422369740903378E-003;
2.419833333333334E+009;1.861305236816406E-001;-4.497077688574791E-002;4.036946687847376E-003;6.265221629291773E-003;
2.420000000000000E+009;1.844208538532257E-001;-4.583108425140381E-002;4.158329218626022E-003;6.186872720718384E-003;
2.420166666666667E+009;1.828724592924118E-001;-4.680582508444786E-002;4.377772100269795E-003;6.129558198153973E-003;
2.420333333333334E+009;1.813683658838272E-001;-4.805673658847809E-002;4.598080180585384E-003;6.097540725022554E-003;
2.420500000000000E+009;1.796496808528900E-001;-4.931247606873512E-002;4.889642354100943E-003;5.966093391180039E-003;
2.420666666666667E+009;1.780118197202683E-001;-5.045535042881966E-002;5.183790344744921E-003;5.591186694800854E-003;
2.420833333333334E+009;1.765989363193512E-001;-5.181809887290001E-002;5.297484807670116E-003;5.714669823646545E-003;
2.421000000000000E+009;1.750935912132263E-001;-5.354391410946846E-002;5.615891423076391E-003;5.260847974568605E-003;
2.421166666666667E+009;1.737668961286545E-001;-5.524941161274910E-002;5.799025297164917E-003;5.122175905853510E-003;
2.421333333333334E+009;1.721877455711365E-001;-5.653117969632149E-002;5.945870187133551E-003;5.013425368815661E-003;
2.421500000000000E+009;1.709042340517044E-001;-5.867924913764000E-002;6.196366157382727E-003;4.720007535070181E-003;
2.421666666666667E+009;1.698084920644760E-001;-6.039886549115181E-002;6.332571618258953E-003;4.361390601843596E-003;
2.421833333333334E+009;1.686037182807922E-001;-6.222742050886154E-002;6.455924827605486E-003;4.092869348824024E-003;
2.422000000000000E+009;1.675296425819397E-001;-6.401319056749344E-002;6.559512112289667E-003;3.791632829234004E-003;
2.422166666666667E+009;1.668148636817932E-001;-6.603181362152100E-002;6.702856626361609E-003;3.587266663089395E-003;
2.422333333333334E+009;1.657437980175018E-001;-6.805894523859024E-002;6.748324260115624E-003;3.186026355251670E-003;
2.422500000000000E+009;1.650757193565369E-001;-7.008940726518631E-002;6.754336412996054E-003;2.774698426946998E-003;
2.422666666666667E+009;1.644429564476013E-001;-7.195488363504410E-002;6.944837514311075E-003;2.639057580381632E-003;
2.422833333333334E+009;1.640563458204269E-001;-7.395447790622711E-002;6.935131736099720E-003;2.275802195072174E-003;
2.423000000000000E+009;1.635635793209076E-001;-7.608757913112640E-002;6.785365752875805E-003;2.013550605624914E-003;
2.423166666666667E+009;1.632773876190186E-001;-7.793191075325012E-002;6.698172539472580E-003;1.808162895031273E-003;
2.423333333333334E+009;1.629260331392288E-001;-7.989004254341126E-002;6.829393096268177E-003;1.705138012766838E-003;
2.423500000000000E+009;1.627868860960007E-001;-8.169056475162506E-002;6.732301320880652E-003;1.487126806750894E-003;
2.423666666666667E+009;1.629807651042938E-001;-8.338240534067154E-002;6.762200966477394E-003;1.252889982424676E-003;
2.423833333333334E+009;1.628037989139557E-001;-8.519366383552551E-002;6.688499357551336E-003;8.743539801798761E-004;
2.424000000000000E+009;1.630530208349228E-001;-8.688093721866608E-002;6.772932596504688E-003;9.070995729416609E-004;
2.424166666666667E+009;1.631174683570862E-001;-8.849929273128510E-002;6.571987643837929E-003;6.503984332084656E-004;
2.424333333333334E+009;1.633923351764679E-001;-9.003514051437378E-002;6.567106116563082E-003;5.535893142223358E-004;
2.424500000000000E+009;1.637558937072754E-001;-9.167338907718658E-002;6.675071083009243E-003;2.527492761146277E-004;
2.424666666666667E+009;1.638589948415756E-001;-9.300754964351654E-002;6.501579191535711E-003;4.693957089330070E-005;
2.424833333333334E+009;1.645094007253647E-001;-9.426079690456390E-002;6.405954714864492E-003;-2.550103235989809E-004;
2.425000000000000E+009;1.649484634399414E-001;-9.550590068101883E-002;6.257728207856417E-003;-5.210053059272468E-004;
2.425166666666667E+009;1.651430875062943E-001;-9.651942551136017E-002;6.433926057070494E-003;-6.521210889331996E-004;
2.425333333333334E+009;1.655092388391495E-001;-9.739027172327042E-002;6.261764094233513E-003;-7.652503554709256E-004;
2.425500000000000E+009;1.660416573286057E-001;-9.842550009489059E-002;5.993929225951433E-003;-1.004603342153132E-003;
2.425666666666667E+009;1.664442121982575E-001;-9.907136857509613E-002;5.903013050556183E-003;-1.214532647281885E-003;
2.425833333333334E+009;1.667573451995850E-001;-9.999763965606690E-002;6.002147216349840E-003;-1.279009622521699E-003;
2.426000000000000E+009;1.670947521924973E-001;-1.003625690937042E-001;5.735014565289021E-003;-1.412915182299912E-003;
2.426166666666667E+009;1.673509180545807E-001;-1.009819358587265E-001;5.686800461262465E-003;-1.520818099379540E-003;
2.426333333333334E+009;1.675299406051636E-001;-1.014837846159935E-001;5.517920944839716E-003;-1.599907525815070E-003;
2.426500000000000E+009;1.679002642631531E-001;-1.017189472913742E-001;5.413220729678869E-003;-1.728612813167274E-003;
2.426666666666667E+009;1.681054830551148E-001;-1.020659133791924E-001;5.414185579866171E-003;-1.872163615189493E-003;
2.426833333333334E+009;1.683677285909653E-001;-1.023941412568092E-001;5.172736011445522E-003;-1.840658020228148E-003;
2.427000000000000E+009;1.682685911655426E-001;-1.025344207882881E-001;5.205017048865557E-003;-2.039235318079591E-003;
2.427166666666667E+009;1.682336926460266E-001;-1.026987433433533E-001;5.037758965045214E-003;-2.175888046622276E-003;
2.427333333333334E+009;1.681716442108154E-001;-1.030291691422463E-001;4.834983497858048E-003;-2.290926640853286E-003;
2.427500000000000E+009;1.678722202777863E-001;-1.031772494316101E-001;4.789154045283794E-003;-2.180366311222315E-003;
2.427666666666667E+009;1.674518734216690E-001;-1.031721606850624E-001;4.803624004125595E-003;-2.294931327924132E-003;
2.427833333333334E+009;1.671162396669388E-001;-1.033448576927185E-001;4.539199173450470E-003;-2.286911942064762E-003;
