# Hz S RI R 
2400000000.0000000000 0.155073925852775601486044365629 0.106380209326744093467631557814 -0.003020799951627850966212607275 -0.008394499309360980987548828125 0 0 0 0 
2400166666.6666665077 0.154768526554107693771200615629 0.103962764143943800498881557814 -0.003069585422053933143615722656 -0.008229420520365238189697265625 0 0 0 0 
2400333333.3333334923 0.154815360903739901443643134371 0.101562015712261199951171875000 -0.003533518174663186073303222656 -0.007898298092186450958251953125 0 0 0 0 
2400500000.0000000000 0.154564589262008694747763115629 0.098931737244129180908203125000 -0.003765337169170380072352743994 -0.007894605398178100585937500000 0 0 0 0 
2400666666.6666665077 0.154822140932083102127236884371 0.096387200057506561279296875000 -0.003852561349049210982081747900 -0.007728850003331899642944335938 0 0 0 0 
2400833333.3333334923 0.154800325632095309158486884371 0.093711137771606445312500000000 -0.004076456185430288314819335938 -0.007388608995825052261352539062 0 0 0 0 
2401000000.0000000000 0.155103385448455810546875000000 0.090830512344837188720703125000 -0.004267209209501743316650390625 -0.007211257237941026687622070312 0 0 0 0 
2401166666.6666665077 0.155199632048606900314169365629 0.088207155466079711914062500000 -0.004505172371864318847656250000 -0.007047392427921295166015625000 0 0 0 0 
2401333333.3333334923 0.155512079596519497970419365629 0.085268460214138031005859375000 -0.004710290115326642990112304688 -0.006715863943099975585937500000 0 0 0 0 
2401500000.0000000000 0.155933856964111300369424384371 0.082397907972335815429687500000 -0.004865375347435474395751953125 -0.006805379875004292401785566113 0 0 0 0 
2401666666.6666665077 0.156262129545211791992187500000 0.079488106071949005126953125000 -0.004961000289767980575561523438 -0.006689864676445722579956054688 0 0 0 0 
2401833333.3333334923 0.156917452812194796463174384371 0.076818123459815979003906250000 -0.005107108037918806076049804688 -0.006328198593109846115112304688 0 0 0 0 
2402000000.0000000000 0.157782971858978299239950615629 0.074012242257595062255859375000 -0.005330985412001609802246093750 -0.006244770716875792417044355176 0 0 0 0 
2402166666.6666665077 0.158554479479789706131143134371 0.071629069745540618896484375000 -0.005604736041277647018432617188 -0.006103791762143374356741620801 0 0 0 0 
2402333333.3333334923 0.159453094005584689041299384371 0.068952366709709167480468750000 -0.005600300151854754361624433301 -0.006046021822839975357055664062 0 0 0 0 
2402500000.0000000000 0.160564169287681607345419365629 0.066394247114658355712890625000 -0.005819119513034821424002362988 -0.005846848711371421813964843750 0 0 0 0 
2402666666.6666665077 0.161795377731323186676348768742 0.063998453319072723388671875000 -0.006061401218175888061523437500 -0.005571134854108095169067382812 0 0 0 0 
2402833333.3333334923 0.163122743368148803710937500000 0.061513889580965042114257812500 -0.006344963796436786651611328125 -0.005352698266506195068359375000 0 0 0 0 
2403000000.0000000000 0.164591133594512911697549384371 0.059302199631929397583007812500 -0.006447529885917901992797851562 -0.005241854581981897354125976562 0 0 0 0 
2403166666.6666665077 0.166252121329307611663494981258 0.057114783674478530883789062500 -0.006872585974633693695068359375 -0.004960271529853343963623046875 0 0 0 0 
2403333333.3333334923 0.167651295661926297286825615629 0.054905902594327926635742187500 -0.007203636225312948226928710938 -0.004733738955110312375540448926 0 0 0 0 
2403500000.0000000000 0.169429928064346313476562500000 0.052868939936161041259765625000 -0.007253054529428482055664062500 -0.004330282565206289291381835938 0 0 0 0 
2403666666.6666665077 0.171117603778839111328125000000 0.051066685467958450317382812500 -0.007435966283082962036132812500 -0.003978018648922443389892578125 0 0 0 0 
2403833333.3333334923 0.172852456569671603103799384371 0.049184285104274749755859375000 -0.007631471846252679824829101562 -0.003551974194124341011047363281 0 0 0 0 
2404000000.0000000000 0.174214422702789306640625000000 0.047455698251724243164062500000 -0.007645919919013977050781250000 -0.003147563664242624802830361475 0 0 0 0 
2404166666.6666665077 0.176184028387069702148437500000 0.045975841581821441650390625000 -0.007742014713585376739501953125 -0.002906045177951455116271972656 0 0 0 0 
2404333333.3333334923 0.177948310971260098556356865629 0.044541820883750922466237653907 -0.007676509674638509750366210938 -0.002371536334976553916931152344 0 0 0 0 
2404500000.0000000000 0.179437607526779202560263115629 0.043087445199489586566965471093 -0.007652048021554946899414062500 -0.002030921867117286162135458838 0 0 0 0 
2404666666.6666665077 0.180896684527397211272869981258 0.042104102671146392822265625000 -0.007571627385914325714111328125 -0.001807480235584080002428364331 0 0 0 0 
2404833333.3333334923 0.182846486568450899978799384371 0.041090544313192367553710937500 -0.007626300211995840072631835938 -0.001441179774701595089556049878 0 0 0 0 
2405000000.0000000000 0.184073120355606106857138115629 0.040446396917104721069335937500 -0.007485281210392714414114667676 -0.001253493712283670902252197266 0 0 0 0 
2405166666.6666665077 0.185594469308853204925213731258 0.039705809205770492553710937500 -0.007209950592368841171264648438 -0.000938001147005707025527954102 0 0 0 0 
2405333333.3333334923 0.186955362558364895919638115629 0.039114732295274727558176408593 -0.007085639052093029022216796875 -0.000881732616107910871505737305 0 0 0 0 
2405500000.0000000000 0.188370957970619201660156250000 0.038762383162975311279296875000 -0.007179565262049436569213867188 -0.000629007176030427217483520508 0 0 0 0 
2405666666.6666665077 0.189540371298790005782919365629 0.038296613842248916625976562500 -0.007053898647427558898925781250 -0.000366615335224196314811706543 0 0 0 0 
2405833333.3333334923 0.190966606140136690994424384371 0.038075536489486687397043596093 -0.006966107990592718124389648438 -0.000108517604530788998730243822 0 0 0 0 
2406000000.0000000000 0.191877260804176302810830634371 0.037911754101514823223073591407 -0.006967371329665184020996093750 -0.000015564615750918171625544889 0 0 0 0 
2406166666.6666665077 0.192810386419296292404013115629 0.037632070481777191162109375000 -0.006958391051739454269409179688 0.000164352386491373208448132925 0 0 0 0 
2406333333.3333334923 0.193752169609069796463174384371 0.037679813802242279052734375000 -0.006775777786970139417166425488 0.000314318836899474317401331769 0 0 0 0 
2406500000.0000000000 0.194523736834526089767294365629 0.037642821669578552246093750000 -0.006592835299670696258544921875 0.000696018862072378396987915039 0 0 0 0 
2406666666.6666665077 0.195128753781318692306356865629 0.037750381976366043090820312500 -0.006523817311972379684448242188 0.000667118350975215435028076172 0 0 0 0 
2406833333.3333334923 0.195644959807395907303018134371 0.037772886455059051513671875000 -0.006429755594581365585327148438 0.000826009025331586599349975586 0 0 0 0 
2407000000.0000000000 0.195880308747291592696981865629 0.037982560694217681884765625000 -0.006198165938258171081542968750 0.000982500961981713771820068359 0 0 0 0 
2407166666.6666665077 0.196308508515357998946981865629 0.037718791514635092998464216407 -0.006063635461032390594482421875 0.001225791056640445969225239331 0 0 0 0 
2407333333.3333334923 0.196183428168296786209268134371 0.037813365459442138671875000000 -0.005936710163950920104980468750 0.001219384721480309963226318359 0 0 0 0 
2407500000.0000000000 0.196218058466911288162393134371 0.037983905524015426635742187500 -0.005775805562734603881835937500 0.001316709909588098959681845557 0 0 0 0 
2407666666.6666665077 0.196073964238166809082031250000 0.037787605077028281475026716407 -0.005562968086451292037963867188 0.001382208894938230948207236182 0 0 0 0 
2407833333.3333334923 0.195562899112701388260049384371 0.037845462560653693462331403907 -0.005396111868321895599365234375 0.001479865284636616923688579028 0 0 0 0 
2408000000.0000000000 0.195524007081985501388388115629 0.037565402686595916748046875000 -0.005425424315035343170166015625 0.001524923252873122908948588794 0 0 0 0 
2408166666.6666665077 0.194867327809333801269531250000 0.037321493029594421386718750000 -0.005258282180875539779663085938 0.001481385901570319912554096753 0 0 0 0 
2408333333.3333334923 0.194440856575965909103231865629 0.036829084157943732524831403907 -0.005139134824275971326346112988 0.001426692353561521010157919775 0 0 0 0 
2408500000.0000000000 0.193704098463058499435263115629 0.036555137485265731811523437500 -0.005030488595366477966308593750 0.001390309422276913902880024487 0 0 0 0 
2408666666.6666665077 0.193014115095138605315838731258 0.035927366465330116962473283593 -0.005096688866615295410156250000 0.001318920520134269974352192456 0 0 0 0 
2408833333.3333334923 0.192278310656547601897869981258 0.035186305642127990722656250000 -0.005087842233479022979736328125 0.001303880475461483001708984375 0 0 0 0 
2409000000.0000000000 0.191256076097488403320312500000 0.034247964620590209960937500000 -0.004935442470014095306396484375 0.001426824601367115974426269531 0 0 0 0 
2409166666.6666665077 0.190428212285041809082031250000 0.033310975879430770874023437500 -0.005101435352116823196411132812 0.001298899063840508894679404150 0 0 0 0 
2409333333.3333334923 0.189360469579696710784588731258 0.032187037169933319091796875000 -0.005205449182540178298950195312 0.001363921910524368069292378003 0 0 0 0 
2409500000.0000000000 0.188297942280769403655682481258 0.030897162854671478271484375000 -0.005301646888256072998046875000 0.001475134282372891902923583984 0 0 0 0 
2409666666.6666665077 0.187415972352027893066406250000 0.029524156823754310607910156250 -0.005364714656025171279907226562 0.001365282456390560106990195166 0 0 0 0 
2409833333.3333334923 0.186352580785751287262286268742 0.028069198131561279296875000000 -0.005422661080956459045410156250 0.001439535059034823937657021631 0 0 0 0 
2410000000.0000000000 0.185363352298736600021200615629 0.026284279301762580871582031250 -0.005457280203700065612792968750 0.001771602896042167923570942456 0 0 0 0 
2410166666.6666665077 0.184330061078071594238281250000 0.024583337828516960144042968750 -0.005552657879889011383056640625 0.001733043696731328964233398438 0 0 0 0 
2410333333.3333334923 0.183405652642250088790731865629 0.022945357486605640756627266796 -0.005603350698947907361502362988 0.001956871245056391196009970557 0 0 0 0 
2410500000.0000000000 0.182369127869605990310830634371 0.020809253677725788461705391796 -0.005776145029813051223754882812 0.002045098459348082976100302588 0 0 0 0 
2410666666.6666665077 0.181611061096191406250000000000 0.018468083813786510122278983204 -0.005611793138086795806884765625 0.002053786534816027121302939307 0 0 0 0 
2410833333.3333334923 0.180867820978164700607138115629 0.016517207026481628417968750000 -0.005601326003670691576485918262 0.002325649140402675108668661963 0 0 0 0 
2411000000.0000000000 0.180215552449226407150106865629 0.014353897422552110499371913477 -0.005711833946406841278076171875 0.002608615672215818925144814600 0 0 0 0 
2411166666.6666665077 0.179479315876960809905682481258 0.012169505469501020258893397852 -0.005727058276534081372732831738 0.002592747332528233961818076025 0 0 0 0 
2411333333.3333334923 0.178990617394447298904580634371 0.009560770355165004730224609375 -0.005562958773225545883178710938 0.002707089763134717941284179688 0 0 0 0 
2411500000.0000000000 0.178671821951866205413494981258 0.007115572225302457809448242188 -0.005493734031915664672851562500 0.002861539600417017936706542969 0 0 0 0 
2411666666.6666665077 0.178480416536331204513388115629 0.004888770170509815216064453125 -0.005711767822504043579101562500 0.003083610907196999029872275244 0 0 0 0 
2411833333.3333334923 0.178255155682563809493856865629 0.002376215532422066168544150244 -0.005532859824597836408133222363 0.003049414604902267889735556494 0 0 0 0 
2412000000.0000000000 0.178195744752883911132812500000 -0.000027989844966214150190353394 -0.005544290877878665924072265625 0.003154747653752564950230263818 0 0 0 0 
2412166666.6666665077 0.178349345922470092773437500000 -0.002179285977035760879516601562 -0.005694801919162273406982421875 0.003246569773182272911071777344 0 0 0 0 
2412333333.3333334923 0.178630679845809908767861884371 -0.004779569339007139205932617188 -0.005782861262559890747070312500 0.003582932986319065093994140625 0 0 0 0 
2412500000.0000000000 0.178975760936737088302450615629 -0.007329644169658423337454511426 -0.005592353176325559616088867188 0.003599202958866953849792480469 0 0 0 0 
2412666666.6666665077 0.179680868983268710037393134371 -0.009748749434947967529296875000 -0.005776903592050076398367597363 0.003910026978701353073120117188 0 0 0 0 
2412833333.3333334923 0.180124059319496210296307481258 -0.012208088301122190302838710352 -0.005833303090184926986694335938 0.004027366172522305574899004199 0 0 0 0 
2413000000.0000000000 0.180918321013450594803018134371 -0.014484305866062639409075352148 -0.005959427915513516339773847363 0.004302396439015865325927734375 0 0 0 0 
2413166666.6666665077 0.181732803583145113845986884371 -0.016766078770160678518275076954 -0.005949901416897773742675781250 0.004600213374942541122436523438 0 0 0 0 
2413333333.3333334923 0.182902589440345791915731865629 -0.019080679863691329956054687500 -0.006020959001034498214721679688 0.005018181633204221725463867188 0 0 0 0 
2413500000.0000000000 0.183676466345787103850994981258 -0.021211212500929828989049141796 -0.006064555607736110687255859375 0.005317131988704205426687909863 0 0 0 0 
2413666666.6666665077 0.184895798563957186599893134371 -0.023500366136431690561314766796 -0.005953724961727857589721679688 0.005651125218719244003295898438 0 0 0 0 
2413833333.3333334923 0.186048209667205810546875000000 -0.025184944272041320800781250000 -0.005926478654146195325369550488 0.006225316319614648818969726562 0 0 0 0 
2414000000.0000000000 0.187251314520835904220419365629 -0.027269192039966579782506173046 -0.005517874378710985183715820312 0.006517729721963405609130859375 0 0 0 0 
2414166666.6666665077 0.188420131802558898925781250000 -0.028970412909984588623046875000 -0.005412105470895767211914062500 0.006981896702200174331665039062 0 0 0 0 
2414333333.3333334923 0.189468652009963989257812500000 -0.031019799411296841012974923046 -0.005268957000225782394409179688 0.007316690403968095779418945312 0 0 0 0 
2414500000.0000000000 0.190677538514137295821981865629 -0.032350197434425347065012346093 -0.004874613601714372634887695312 0.007596887648105621337890625000 0 0 0 0 
2414666666.6666665077 0.192016497254371587555255018742 -0.033915497362613677978515625000 -0.004502212163060904416556073926 0.008028035052120685577392578125 0 0 0 0 
2414833333.3333334923 0.193221315741539001464843750000 -0.035296425223350531841237653907 -0.003993894439190626144409179688 0.008310588076710700988769531250 0 0 0 0 
2415000000.0000000000 0.194260627031326293945312500000 -0.036524578928947448730468750000 -0.003676069201901555061340332031 0.008567254059016704559326171875 0 0 0 0 
2415166666.6666665077 0.195517688989639309982138115629 -0.037667479366064071655273437500 -0.003206705674529076056239462744 0.008732571266591548919677734375 0 0 0 0 
2415333333.3333334923 0.196629434823989895919638115629 -0.038458626717329032207448591407 -0.002804627176374197006225585938 0.008952536620199680328369140625 0 0 0 0 
2415500000.0000000000 0.197711199522018404861611884371 -0.039382610470056526874582658593 -0.002506161108613013787510537256 0.009141040034592151641845703125 0 0 0 0 
2415666666.6666665077 0.198731258511543301681356865629 -0.040098182857036590576171875000 -0.002021870110183953805210732568 0.009140237234532833099365234375 0 0 0 0 
2415833333.3333334923 0.199529618024826105315838731258 -0.040721420198678970336914062500 -0.001474796561524271965026855469 0.009241406805813312530517578125 0 0 0 0 
2416000000.0000000000 0.200306087732315091232138115629 -0.041357673704624182964284528907 -0.000868702773004770278930664062 0.009262460283935070037841796875 0 0 0 0 
2416166666.6666665077 0.201020196080207796951455634371 -0.041977241635322570800781250000 -0.000586383859626948833465576172 0.009343175217509269714355468750 0 0 0 0 
2416333333.3333334923 0.201615110039710998535156250000 -0.042162563651800162578542341407 -0.000208530356758274110868731088 0.009389685466885566711425781250 0 0 0 0 
2416500000.0000000000 0.202085733413696289062500000000 -0.042449459433555603027343750000 0.000316242250846698880195617676 0.009345725178718566894531250000 0 0 0 0 
2416666666.6666665077 0.202334731817245511154013115629 -0.042957063764333731914479841407 0.000661801197566092014312744141 0.009185733273625373840332031250 0 0 0 0 
2416833333.3333334923 0.202490523457527188400106865629 -0.042793080210685729980468750000 0.001201650709845125892041850513 0.009060168638825416564941406250 0 0 0 0 
2417000000.0000000000 0.202695176005363492111044365629 -0.042874477803707122802734375000 0.001375105115585028908373188550 0.008839484304189682006835937500 0 0 0 0 
2417166666.6666665077 0.202291801571846008300781250000 -0.042808059602975852275807966407 0.001723849447444081089617085034 0.008793069981038570404052734375 0 0 0 0 
2417333333.3333334923 0.202046126127242986481036268742 -0.042749047279357910156250000000 0.002294081728905438943150185693 0.008625542744994163513183593750 0 0 0 0 
2417500000.0000000000 0.201730072498321505447549384371 -0.042747519910335540771484375000 0.002562368521466850800755166162 0.008405137807130813598632812500 0 0 0 0 
2417666666.6666665077 0.201036363840103204925213731258 -0.042552042752504348754882812500 0.002868718234822154045104980469 0.008114599622786045074462890625 0 0 0 0 
2417833333.3333334923 0.200708195567130986969317518742 -0.042432654649019241333007812500 0.003167385701090096993687295068 0.008024403825402259826660156250 0 0 0 0 
2418000000.0000000000 0.199957653880119295974893134371 -0.042094666510820388793945312500 0.003328956430777906937840127100 0.007874556817114353179931640625 0 0 0 0 
2418166666.6666665077 0.199132546782493591308593750000 -0.042037881910800926898996721093 0.003700294531881808800938271631 0.007483141496777535352225019238 0 0 0 0 
2418333333.3333334923 0.198224723339080810546875000000 -0.041905798017978668212890625000 0.003844120074063539938685751807 0.007327599916607142362112714551 0 0 0 0 
2418500000.0000000000 0.197041943669319208343182481258 -0.041889172047376632690429687500 0.004077895078808069229125976562 0.006865374278277158737182617188 0 0 0 0 
2418666666.6666665077 0.196259081363678006271200615629 -0.041819892823696143413503278907 0.004350529517978429794311523438 0.006753760389983654022216796875 0 0 0 0 
2418833333.3333334923 0.194924652576446505447549384371 -0.041998837143182761455495466407 0.004557255655527114868164062500 0.006520251743495464324951171875 0 0 0 0 
2419000000.0000000000 0.193573474884033203125000000000 -0.042180642485618591308593750000 0.004769667051732540130615234375 0.006201751064509153366088867188 0 0 0 0 
2419166666.6666665077 0.192337483167648287674111884371 -0.042416285723447799682617187500 0.004724380094558001431936933301 0.005836826749145984649658203125 0 0 0 0 
2419333333.3333334923 0.190970718860626192947549384371 -0.042988553643226616596262346093 0.004828022327274084091186523438 0.005518848542124032974243164062 0 0 0 0 
2419500000.0000000000 0.189422100782394409179687500000 -0.043411716818809509277343750000 0.004877960309386253356933593750 0.005345417652279139432425214551 0 0 0 0 
2419666666.6666665077 0.187832802534103393554687500000 -0.044159211218357093120534528907 0.005016754847019910812377929688 0.005173310171812772750854492188 0 0 0 0 
2419833333.3333334923 0.186333566904067993164062500000 -0.044650178402662277221679687500 0.004869677126407623291015625000 0.004831920843571425351614667676 0 0 0 0 
