# Version 1.00
#
freq[Hz];re:Trc1_S11;im:Trc1_S11;re:Trc2_S21;im:Trc2_S21;
2.400000000000000E+009;1.677948981523514E-001;4.101116210222244E-002;-2.384204883128405E-003;-2.115753304678947E-004;
2.400166666666667E+009;1.684496551752091E-001;4.033979773521423E-002;-2.317803911864758E-003;-2.758236369118094E-004;
2.400333333333334E+009;1.690108627080917E-001;3.938753902912140E-002;-2.379241166636348E-003;-3.538185264915228E-004;
2.400500000000000E+009;1.695601046085358E-001;3.850745782256126E-002;-2.428547712042928E-003;-4.603930283337832E-004;
2.400666666666667E+009;1.697922199964523E-001;3.745402395725250E-002;-2.535163890570402E-003;-4.201624542474747E-004;
2.400833333333334E+009;1.702379882335663E-001;3.649452328681946E-002;-2.627588110044599E-003;-4.817503213416785E-004;
2.401000000000000E+009;1.705683618783951E-001;3.582689538598061E-002;-2.853750716894865E-003;-3.883468743879348E-004;
2.401166666666667E+009;1.707937866449356E-001;3.477563709020615E-002;-3.034412628039718E-003;-4.141414538025856E-004;
2.401333333333334E+009;1.708037555217743E-001;3.398204594850540E-002;-3.010380314663053E-003;-4.248369077686220E-004;
2.401500000000000E+009;1.712533533573151E-001;3.314222767949104E-002;-3.026198130100966E-003;-3.028931678272784E-004;
2.401666666666667E+009;1.715191900730133E-001;3.219709917902947E-002;-3.191115567460656E-003;-2.221056056441739E-004;
2.401833333333334E+009;1.712779998779297E-001;3.120763041079044E-002;-3.360209520906210E-003;-1.031545034493320E-004;
2.402000000000000E+009;1.711815595626831E-001;3.047444485127926E-002;-3.381286282092333E-003;-2.927065725089051E-005;
2.402166666666667E+009;1.713886260986328E-001;2.922466769814491E-002;-3.330718027427793E-003;2.289468247909099E-004;
2.402333333333334E+009;1.712792366743088E-001;2.855438739061356E-002;-3.518857527524233E-003;2.298430626979098E-004;
2.402500000000000E+009;1.714900881052017E-001;2.741399407386780E-002;-3.672717139124870E-003;4.565251292660832E-004;
2.402666666666667E+009;1.711277514696121E-001;2.652481012046337E-002;-3.678262000903487E-003;4.028991679660976E-004;
2.402833333333334E+009;1.713554561138153E-001;2.552551776170731E-002;-3.672331804409623E-003;6.199669442139566E-004;
2.403000000000000E+009;1.711687296628952E-001;2.458298578858376E-002;-3.788760397583246E-003;8.257753215730190E-004;
2.403166666666667E+009;1.710915416479111E-001;2.340465970337391E-002;-3.699011867865920E-003;1.018450711853802E-003;
2.403333333333334E+009;1.708403527736664E-001;2.231619879603386E-002;-3.682044334709644E-003;1.106358249671757E-003;
2.403500000000000E+009;1.707813739776611E-001;2.108930237591267E-002;-3.669147379696369E-003;1.282282639294863E-003;
2.403666666666667E+009;1.706704199314117E-001;1.995487138628960E-002;-3.661127528175712E-003;1.627875957638025E-003;
2.403833333333334E+009;1.706365495920181E-001;1.868026703596115E-002;-3.771241055801511E-003;1.693738042376936E-003;
2.404000000000000E+009;1.706181317567825E-001;1.753775961697102E-002;-3.685498377308250E-003;1.883343793451786E-003;
2.404166666666667E+009;1.705130189657211E-001;1.599058322608471E-002;-3.619734197854996E-003;2.016084268689156E-003;
2.404333333333334E+009;1.704470515251160E-001;1.490021403878927E-002;-3.374780761078000E-003;2.341810148209333E-003;
2.404500000000000E+009;1.702241450548172E-001;1.334030926227570E-002;-3.299861680716276E-003;2.613520948216319E-003;
2.404666666666667E+009;1.701906621456146E-001;1.189446542412043E-002;-3.231127280741930E-003;2.671815687790513E-003;
2.404833333333334E+009;1.702422052621841E-001;1.067802403122187E-002;-3.017718438059092E-003;2.795447129756212E-003;
2.405000000000000E+009;1.702536791563034E-001;9.078016504645348E-003;-2.986534265801311E-003;2.944526029750705E-003;
2.405166666666667E+009;1.702367067337036E-001;7.755670230835676E-003;-2.799822483211756E-003;2.967883832752705E-003;
2.405333333333334E+009;1.703326553106308E-001;5.960610695183277E-003;-2.555779414251447E-003;3.092888509854674E-003;
2.405500000000000E+009;1.701741814613342E-001;4.567566327750683E-003;-2.481847535818815E-003;3.110012039542198E-003;
2.405666666666667E+009;1.702099740505219E-001;3.041012678295374E-003;-2.314113546162844E-003;3.230194328352809E-003;
2.405833333333334E+009;1.700986027717590E-001;1.590380445122719E-003;-2.119873417541385E-003;3.076249035075307E-003;
2.406000000000000E+009;1.701137274503708E-001;-3.355149819981307E-004;-2.121633850038052E-003;3.346868092194200E-003;
2.406166666666667E+009;1.698634326457977E-001;-1.746075577102602E-003;-1.933557214215398E-003;3.250886453315616E-003;
2.406333333333334E+009;1.699737757444382E-001;-3.388155251741409E-003;-1.732022850774229E-003;3.357363166287541E-003;
2.406500000000000E+009;1.698095351457596E-001;-5.134741775691509E-003;-1.631085644476116E-003;3.484112443402410E-003;
2.406666666666667E+009;1.694656014442444E-001;-6.516437046229839E-003;-1.551538240164518E-003;3.259354969486594E-003;
2.406833333333334E+009;1.695495098829269E-001;-8.117370307445526E-003;-1.491775037720799E-003;3.372465493157506E-003;
2.407000000000000E+009;1.694211661815643E-001;-9.541710838675499E-003;-1.271425629965961E-003;3.565778257325292E-003;
2.407166666666667E+009;1.693232804536820E-001;-1.079927012324333E-002;-1.361910253763199E-003;3.515768796205521E-003;
2.407333333333334E+009;1.690342575311661E-001;-1.229813694953919E-002;-1.172802178189158E-003;3.606604412198067E-003;
2.407500000000000E+009;1.688536107540131E-001;-1.351055037230253E-002;-1.088192686438561E-003;3.628498176112771E-003;
2.407666666666667E+009;1.686902195215225E-001;-1.475220546126366E-002;-9.322916157543659E-004;3.716681618243456E-003;
2.407833333333334E+009;1.684814095497131E-001;-1.602987386286259E-002;-7.270708447322249E-004;3.830024739727378E-003;
2.408000000000000E+009;1.683887392282486E-001;-1.720908097922802E-002;-6.326806033030152E-004;3.986660856753588E-003;
2.408166666666667E+009;1.683146804571152E-001;-1.796740293502808E-002;-4.074642492923886E-004;4.102054983377457E-003;
2.408333333333334E+009;1.683643758296967E-001;-1.904785446822643E-002;-2.266566007165238E-004;3.902222029864788E-003;
2.408500000000000E+009;1.682607084512711E-001;-1.997537538409233E-002;-1.861040254880209E-005;3.782830433920026E-003;
2.408666666666667E+009;1.683916747570038E-001;-2.082493156194687E-002;1.611787156434730E-004;3.679631743580103E-003;
2.408833333333334E+009;1.683015376329422E-001;-2.175123989582062E-002;3.471079689916223E-004;3.699612570926547E-003;
2.409000000000000E+009;1.683307737112045E-001;-2.255002036690712E-002;6.109717651270330E-004;3.503475105389953E-003;
2.409166666666667E+009;1.685694158077240E-001;-2.348632179200649E-002;6.032726960256696E-004;3.638897789642215E-003;
2.409333333333334E+009;1.688212156295776E-001;-2.437639422714710E-002;7.661326089873910E-004;3.388731507584453E-003;
2.409500000000000E+009;1.688329130411148E-001;-2.550513111054897E-002;1.029310864396393E-003;3.248193534091115E-003;
2.409666666666667E+009;1.691125184297562E-001;-2.616550400853157E-002;1.103574875742197E-003;3.268017433583736E-003;
2.409833333333334E+009;1.690084487199783E-001;-2.701599895954132E-002;1.269490108825266E-003;3.051759209483862E-003;
2.410000000000000E+009;1.692596524953842E-001;-2.781802974641323E-002;1.180175109766424E-003;2.923028776422143E-003;
2.410166666666667E+009;1.692639589309692E-001;-2.873708494007587E-002;1.364115392789245E-003;2.737164031714201E-003;
2.410333333333334E+009;1.691411584615707E-001;-2.985711209475994E-002;1.398372813127935E-003;2.683602040633559E-003;
2.410500000000000E+009;1.691500842571259E-001;-3.068844042718411E-002;1.311080064624548E-003;2.226926852017641E-003;
2.410666666666667E+009;1.690551340579987E-001;-3.171215951442719E-002;1.318606315180659E-003;2.217931672930718E-003;
2.410833333333334E+009;1.689748317003250E-001;-3.251945972442627E-002;1.260160701349378E-003;2.247050171718001E-003;
2.411000000000000E+009;1.687643378973007E-001;-3.333794325590134E-002;1.226537860929966E-003;1.843114034272730E-003;
2.411166666666667E+009;1.686778217554092E-001;-3.426732867956162E-002;1.238444703631103E-003;1.911419676616788E-003;
2.411333333333334E+009;1.683575063943863E-001;-3.522446379065514E-002;1.212120405398309E-003;1.892798696644604E-003;
2.411500000000000E+009;1.681179702281952E-001;-3.611929714679718E-002;9.722186368890107E-004;1.726044691167772E-003;
2.411666666666667E+009;1.680705100297928E-001;-3.680551797151566E-002;9.936443530023098E-004;1.728780800476670E-003;
2.411833333333334E+009;1.678019762039185E-001;-3.778383508324623E-002;9.528519003652036E-004;1.732741133309901E-003;
2.412000000000000E+009;1.676014214754105E-001;-3.869722411036491E-002;8.010732708498836E-004;1.625869772396982E-003;
2.412166666666667E+009;1.671452224254608E-001;-3.957495465874672E-002;5.900110118091106E-004;1.821940182708204E-003;
2.412333333333334E+009;1.669651865959168E-001;-4.055168479681015E-002;6.647526752203703E-004;1.732033677399159E-003;
2.412500000000000E+009;1.664319932460785E-001;-4.139291122555733E-002;5.474255885928869E-004;1.871203421615064E-003;
2.412666666666667E+009;1.663014143705368E-001;-4.257086664438248E-002;4.251207574270666E-004;1.744910492561758E-003;
2.412833333333334E+009;1.658165007829666E-001;-4.341823980212212E-002;4.996053758077323E-004;2.079910365864635E-003;
2.413000000000000E+009;1.653857082128525E-001;-4.453906789422035E-002;5.158355343155563E-004;2.119930693879724E-003;
2.413166666666667E+009;1.649052351713181E-001;-4.555958509445190E-002;5.466529983095825E-004;2.275445032864809E-003;
2.413333333333334E+009;1.644683182239533E-001;-4.649727419018745E-002;4.451132554095238E-004;2.238041954115033E-003;
2.413500000000000E+009;1.640984416007996E-001;-4.755847528576851E-002;5.330475978553295E-004;2.404580591246486E-003;
2.413666666666667E+009;1.636658012866974E-001;-4.840593412518501E-002;6.987145170569420E-004;2.637717407196760E-003;
2.413833333333334E+009;1.631544530391693E-001;-4.955392330884934E-002;7.979276124387980E-004;2.708070911467075E-003;
2.414000000000000E+009;1.625535041093826E-001;-5.053022131323814E-002;8.495030924677849E-004;2.712082117795944E-003;
2.414166666666667E+009;1.623454093933106E-001;-5.141749233007431E-002;1.084322691895068E-003;2.689762040972710E-003;
2.414333333333334E+009;1.617568433284760E-001;-5.250459909439087E-002;1.208569738082588E-003;2.648996189236641E-003;
2.414500000000000E+009;1.616470664739609E-001;-5.339391529560089E-002;1.257180469110608E-003;2.801669063046575E-003;
2.414666666666667E+009;1.613131910562515E-001;-5.443680658936501E-002;1.439142972230911E-003;2.830652985721827E-003;
2.414833333333334E+009;1.610436141490936E-001;-5.544768646359444E-002;1.621407107450068E-003;2.938975114375353E-003;
2.415000000000000E+009;1.607582569122315E-001;-5.629048496484757E-002;1.623140531592071E-003;2.854726742953062E-003;
2.415166666666667E+009;1.606457531452179E-001;-5.759496241807938E-002;1.718037645332515E-003;2.774308901280165E-003;
2.415333333333334E+009;1.605155318975449E-001;-5.881040915846825E-002;1.955591840669513E-003;2.857265993952751E-003;
2.415500000000000E+009;1.603688001632690E-001;-5.976923182606697E-002;2.111690351739526E-003;2.895877696573734E-003;
2.415666666666667E+009;1.601885557174683E-001;-6.081622466444969E-002;2.081267302855849E-003;2.718317555263639E-003;
2.415833333333334E+009;1.599783301353455E-001;-6.220947578549385E-002;2.279710723087192E-003;2.896179910749197E-003;
2.416000000000000E+009;1.596795171499252E-001;-6.332112848758698E-002;2.558218548074365E-003;2.742634620517492E-003;
2.416166666666667E+009;1.597214192152023E-001;-6.448236852884293E-002;2.593907294794917E-003;2.617141697555780E-003;
2.416333333333334E+009;1.593003123998642E-001;-6.576126813888550E-002;2.676837611943483E-003;2.774523338302970E-003;
2.416500000000000E+009;1.592024713754654E-001;-6.708145141601563E-002;3.052881918847561E-003;2.567428629845381E-003;
2.416666666666667E+009;1.588087081909180E-001;-6.801359355449677E-002;3.151204669848084E-003;2.543117618188262E-003;
2.416833333333334E+009;1.587025374174118E-001;-6.932059675455093E-002;3.140524728223681E-003;2.429117681458592E-003;
2.417000000000000E+009;1.582507640123367E-001;-7.046275585889816E-002;3.405866678804159E-003;2.230329206213355E-003;
2.417166666666667E+009;1.578687876462936E-001;-7.150063663721085E-002;3.500815248116851E-003;1.976296305656433E-003;
2.417333333333334E+009;1.576445102691650E-001;-7.249948382377625E-002;3.609205363318324E-003;1.816219766624272E-003;
2.417500000000000E+009;1.571272164583206E-001;-7.360694557428360E-002;3.765545785427094E-003;1.734779449179769E-003;
2.417666666666667E+009;1.570558547973633E-001;-7.434734702110291E-002;3.811106784269214E-003;1.607442507520318E-003;
2.417833333333334E+009;1.565300673246384E-001;-7.527221739292145E-002;4.078424070030451E-003;1.420258893631399E-003;
2.418000000000000E+009;1.562197357416153E-001;-7.617985457181931E-002;4.097513854503632E-003;1.118879881687462E-003;
2.418166666666667E+009;1.559484750032425E-001;-7.698819786310196E-002;4.029002040624619E-003;9.462499874643982E-004;
2.418333333333334E+009;1.559344381093979E-001;-7.779986411333084E-002;4.075652919709683E-003;8.027188014239073E-004;
2.418500000000000E+009;1.554660946130753E-001;-7.839857786893845E-002;4.098032135516405E-003;6.278478540480137E-004;
2.418666666666667E+009;1.553236842155457E-001;-7.926114648580551E-002;4.128743894398212E-003;3.871307126246393E-004;
2.418833333333334E+009;1.549696028232575E-001;-8.006537705659866E-002;4.069291055202484E-003;2.279685868415982E-004;
2.419000000000000E+009;1.545544564723969E-001;-8.074538409709930E-002;4.062196239829063E-003;3.133076825179160E-005;
2.419166666666667E+009;1.542749404907227E-001;-8.147507160902023E-002;4.012150224298239E-003;-1.518683566246182E-004;
2.419333333333334E+009;1.537120789289475E-001;-8.175503462553024E-002;3.868568921461701E-003;-3.545957733877003E-004;
2.419500000000000E+009;1.534804850816727E-001;-8.264014124870300E-002;3.951831255108118E-003;-3.775146615225822E-004;
2.419666666666667E+009;1.533277034759522E-001;-8.344013988971710E-002;3.728352021425962E-003;-6.649077404290438E-004;
2.419833333333334E+009;1.527387946844101E-001;-8.385313302278519E-002;3.687069984152913E-003;-6.449025240726769E-004;
2.420000000000000E+009;1.525529772043228E-001;-8.444903045892716E-002;3.517196280881763E-003;-6.944208289496601E-004;
2.420166666666667E+009;1.521124839782715E-001;-8.494927734136581E-002;3.577531315386295E-003;-8.387793786823750E-004;
2.420333333333334E+009;1.517942845821381E-001;-8.574990928173065E-002;3.399698529392481E-003;-1.053871237672865E-003;
2.420500000000000E+009;1.514617651700974E-001;-8.602543175220490E-002;3.510224167257547E-003;-9.826668538153172E-004;
2.420666666666667E+009;1.509553045034409E-001;-8.666656911373138E-002;3.339138347655535E-003;-1.100520952604711E-003;
2.420833333333334E+009;1.507810950279236E-001;-8.728799223899841E-002;3.246015636250377E-003;-1.120434957556427E-003;
2.421000000000000E+009;1.502415537834168E-001;-8.801941573619843E-002;3.186391666531563E-003;-1.053247018717229E-003;
2.421166666666667E+009;1.497495174407959E-001;-8.855758607387543E-002;3.213493386283517E-003;-1.145308022387326E-003;
2.421333333333334E+009;1.494231969118118E-001;-8.925177156925201E-002;3.113878192380071E-003;-1.297013019211590E-003;
2.421500000000000E+009;1.487563103437424E-001;-8.990343660116196E-002;3.155824029818177E-003;-1.359821180813015E-003;
2.421666666666667E+009;1.482229083776474E-001;-9.065444767475128E-002;3.017496317625046E-003;-1.288848114199936E-003;
2.421833333333334E+009;1.478487700223923E-001;-9.140854328870773E-002;3.166114445775747E-003;-1.345155993476510E-003;
2.422000000000000E+009;1.471644043922424E-001;-9.203814715147018E-002;3.343711607158184E-003;-1.340024638921022E-003;
2.422166666666667E+009;1.465053111314774E-001;-9.295134991407394E-002;3.202323336154223E-003;-1.568531617522240E-003;
2.422333333333334E+009;1.459754109382629E-001;-9.346114099025726E-002;3.399686189368367E-003;-1.682627946138382E-003;
2.422500000000000E+009;1.453384160995483E-001;-9.427873790264130E-002;3.215207485482097E-003;-1.776662771590054E-003;
2.422666666666667E+009;1.446564793586731E-001;-9.507658332586289E-002;3.291880013421178E-003;-1.826580963097513E-003;
2.422833333333334E+009;1.440262943506241E-001;-9.600999206304550E-002;3.232408082112670E-003;-1.947216689586639E-003;
2.423000000000000E+009;1.434760689735413E-001;-9.689138829708099E-002;3.247852670028806E-003;-2.165796468034387E-003;
2.423166666666667E+009;1.428135037422180E-001;-9.781051427125931E-002;3.389767836779356E-003;-2.446875441819429E-003;
2.423333333333334E+009;1.422744691371918E-001;-9.857188165187836E-002;3.264966653659940E-003;-2.629192546010017E-003;
2.423500000000000E+009;1.414478868246079E-001;-9.960287809371948E-002;3.170573152601719E-003;-2.766698831692338E-003;
2.423666666666667E+009;1.407648175954819E-001;-1.005647927522659E-001;3.031607484444976E-003;-2.949659479781985E-003;
2.423833333333334E+009;1.402041018009186E-001;-1.015522330999374E-001;2.954786643385887E-003;-3.204613924026489E-003;
2.424000000000000E+009;1.394589692354202E-001;-1.023570671677589E-001;2.758576301857829E-003;-3.455128287896514E-003;
2.424166666666667E+009;1.387088149785996E-001;-1.033424288034439E-001;2.611416392028332E-003;-3.574847709387541E-003;
2.424333333333334E+009;1.381926685571671E-001;-1.043243035674095E-001;2.463850192725658E-003;-3.783316817134619E-003;
2.424500000000000E+009;1.376983970403671E-001;-1.052107214927673E-001;2.282131696119905E-003;-3.758829552680254E-003;
2.424666666666667E+009;1.370893865823746E-001;-1.060465574264526E-001;2.036841819062829E-003;-3.958153072744608E-003;
2.424833333333334E+009;1.364679485559464E-001;-1.071088984608650E-001;1.689022756181657E-003;-4.066620022058487E-003;
2.425000000000000E+009;1.360375732183456E-001;-1.082874462008476E-001;1.424226909875870E-003;-4.054098390042782E-003;
2.425166666666667E+009;1.353069543838501E-001;-1.091121509671211E-001;1.161314779892564E-003;-4.232130944728851E-003;
2.425333333333334E+009;1.349640339612961E-001;-1.101149246096611E-001;8.167160558514297E-004;-4.130404908210039E-003;
2.425500000000000E+009;1.344698369503021E-001;-1.110380291938782E-001;5.848407163284719E-004;-4.048947244882584E-003;
2.425666666666667E+009;1.336802989244461E-001;-1.119725406169891E-001;4.039531922899187E-004;-4.061515443027020E-003;
2.425833333333334E+009;1.333631426095963E-001;-1.129918918013573E-001;1.780683232937008E-004;-4.030049778521061E-003;
2.426000000000000E+009;1.329520493745804E-001;-1.142234131693840E-001;-2.022172411670908E-004;-3.926216159015894E-003;
2.426166666666667E+009;1.326193213462830E-001;-1.150773689150810E-001;-2.580980071797967E-004;-3.794106654822826E-003;
2.426333333333334E+009;1.320367455482483E-001;-1.159521713852882E-001;-4.908813862130046E-004;-3.565168008208275E-003;
2.426500000000000E+009;1.317846029996872E-001;-1.168420165777206E-001;-5.156954866833985E-004;-3.402619389817119E-003;
2.426666666666667E+009;1.314487010240555E-001;-1.176845207810402E-001;-7.583361002616584E-004;-3.163920715451241E-003;
2.426833333333334E+009;1.309732496738434E-001;-1.185061857104302E-001;-9.826577734202147E-004;-3.171500749886036E-003;
2.427000000000000E+009;1.305150687694550E-001;-1.194154620170593E-001;-8.729334222152829E-004;-2.924741012975574E-003;
2.427166666666667E+009;1.301496624946594E-001;-1.201020553708077E-001;-8.848678553476930E-004;-2.800924237817526E-003;
2.427333333333334E+009;1.298129856586456E-001;-1.207790896296501E-001;-1.035690074786544E-003;-2.644192427396774E-003;
2.427500000000000E+009;1.296062469482422E-001;-1.216076165437698E-001;-1.083602430298924E-003;-2.394221490249038E-003;
2.427666666666667E+009;1.292018443346024E-001;-1.223005428910255E-001;-1.041001989506185E-003;-2.366384956985712E-003;
2.427833333333334E+009;1.287997663021088E-001;-1.229413226246834E-001;-1.019882736727595E-003;-2.164450939744711E-003;
