# Hz S RI R 50
2400000000.0000000000 0.167821630835533086578692518742 0.040963582694530487060546875000 0.003468147013336420059204101562 0.000021077676137792881241048507 0 0 0 0 
2400166666.6666665077 0.168311595916748102386151231258 0.040482137352228171611745466407 0.003670906182378530936000204932 0.000050192869821330532431602478 0 0 0 0 
2400333333.3333334923 0.168905258178710909744424384371 0.039515711367130279541015625000 0.003816998563706874847412109375 -0.000089295768702868372201919556 0 0 0 0 
2400500000.0000000000 0.169452339410781888107138115629 0.038612004369497299194335937500 0.003813084214925765991210937500 -0.000140557283884845701142987662 0 0 0 0 
2400666666.6666665077 0.169764652848243713378906250000 0.037459660321474082256276716407 0.003772267838940023942234658350 -0.000121174431114923195399422917 0 0 0 0 
2400833333.3333334923 0.170154795050621004959268134371 0.036820691078901290893554687500 0.003945327363908290863037109375 -0.000305947585729882121086120605 0 0 0 0 
2401000000.0000000000 0.170569047331809997558593750000 0.035934794694185256958007812500 0.004188206512480974197387695312 -0.000434077286627143621444702148 0 0 0 0 
2401166666.6666665077 0.170780912041664095779580634371 0.035044010728597640991210937500 0.004106647334992885589599609375 -0.000658851291518658399581909180 0 0 0 0 
2401333333.3333334923 0.170826047658920288085937500000 0.034160394221544272685964216407 0.004163684323430061340332031250 -0.000630588852800428867340087891 0 0 0 0 
2401500000.0000000000 0.171231225132942199707031250000 0.033153641968965530395507812500 0.004214993212372064590454101562 -0.000983561156317591667175292969 0 0 0 0 
2401666666.6666665077 0.171265065670013399978799384371 0.032455842941999442363698591407 0.004376427270472049713134765625 -0.001014518085867166952845908057 0 0 0 0 
2401833333.3333334923 0.171461284160614013671875000000 0.031469661742448806762695312500 0.004345102701336145401000976562 -0.001387098105624317906023335034 0 0 0 0 
2402000000.0000000000 0.171341106295585604568643134371 0.030502719804644591594655622657 0.004310549702495337399954511426 -0.001535662449896336035487509619 0 0 0 0 
2402166666.6666665077 0.171468436717987088302450615629 0.029314272105693820608118826954 0.004338030703365802764892578125 -0.001728022354654968001722026294 0 0 0 0 
2402333333.3333334923 0.171329960227012606521768134371 0.028690638020634651184082031250 0.004060000181198120117187500000 -0.001880305004306137995478964697 0 0 0 0 
2402500000.0000000000 0.171654671430587796310263115629 0.027637416496872898447056954296 0.004180282820016145706176757812 -0.002169538056477903886082314600 0 0 0 0 
2402666666.6666665077 0.171673893928527804275674384371 0.026772053912281990051269531250 0.003966042306274175643920898438 -0.002319672610610723929164267432 0 0 0 0 
2402833333.3333334923 0.171528741717338589767294365629 0.025671230629086490976353829296 0.003890657797455788092372275244 -0.002515522297471762137172079932 0 0 0 0 
2403000000.0000000000 0.171406611800193786621093750000 0.024652143940329551696777343750 0.003842389443889259858372353662 -0.002919950522482395172119140625 0 0 0 0 
2403166666.6666665077 0.171465441584587097167968750000 0.023413205519318580627441406250 0.003617584938183426856994628906 -0.003117680316790937943699502100 0 0 0 0 
2403333333.3333334923 0.171442836523056002517861884371 0.022405786439776420593261718750 0.003441128414124249978306435693 -0.003275271505117415948155068506 0 0 0 0 
2403500000.0000000000 0.171096086502075195312500000000 0.021164443343877788888951485546 0.003195651574060320854187011719 -0.003311702981591225104091025244 0 0 0 0 
2403666666.6666665077 0.171079695224761990646200615629 0.019837444648146629333496093750 0.003141150111332536177394247900 -0.003313664579764008955714560400 0 0 0 0 
2403833333.3333334923 0.171045780181884793380575615629 0.018742263317108150827428048046 0.003006569575518370108363486182 -0.003400136483833194212672568213 0 0 0 0 
2404000000.0000000000 0.171047866344451904296875000000 0.017461221665143970144251639454 0.002865935675799847082850790869 -0.003477250225841999053955078125 0 0 0 0 
2404166666.6666665077 0.170721217989921597579794365629 0.016115736216306689870814139454 0.002794661326333879990818642725 -0.003596958238631486892700195312 0 0 0 0 
2404333333.3333334923 0.170635446906089810470419365629 0.014634121209383010864257812500 0.002620217856019734902622841943 -0.003312265034765005111694335938 0 0 0 0 
2404500000.0000000000 0.170448198914527893066406250000 0.013301147148013120133369646680 0.002557219238951801820042275537 -0.003506377572193741798400878906 0 0 0 0 
2404666666.6666665077 0.170367687940597506424111884371 0.012060600332915779459019844921 0.002464174991473555998561240088 -0.003527462715283035798313759912 0 0 0 0 
2404833333.3333334923 0.170438632369041387359942518742 0.010600580833852289372454258398 0.002518850611522794203517294775 -0.003586019156500697135925292969 0 0 0 0 
2405000000.0000000000 0.170313671231269808670205634371 0.008983790874481201171875000000 0.002276639919728041128871298682 -0.003624904202297329902648925781 0 0 0 0 
2405166666.6666665077 0.170259505510330200195312500000 0.007557461038231849670410156250 0.002307964954525231881382607568 -0.003916193731129170331473066113 0 0 0 0 
2405333333.3333334923 0.170259028673171997070312500000 0.005780681036412715911865234375 0.002244727220386267142054892432 -0.003968161065131425857543945312 0 0 0 0 
2405500000.0000000000 0.170226305723190307617187500000 0.004499161615967751416678144238 0.001964967697858809991123818506 -0.004011209588497877120971679688 0 0 0 0 
2405666666.6666665077 0.170273482799530001541299384371 0.002939738566055893898010253906 0.001906207646243273995043110425 -0.004217319656163454055786132812 0 0 0 0 
2405833333.3333334923 0.170053854584693908691406250000 0.001364179654046892902971577222 0.001646895310841500975965190356 -0.004252093378454446792602539062 0 0 0 0 
2406000000.0000000000 0.170034483075141906738281250000 -0.000295080331852659583091735840 0.001570700318552554087397910010 -0.004487042780965566635131835938 0 0 0 0 
2406166666.6666665077 0.169881969690322903732138115629 -0.001730014686472713947296142578 0.001289229257963597991346049731 -0.004504475276917219161987304688 0 0 0 0 
2406333333.3333334923 0.169865190982818603515625000000 -0.003248437074944376945495605469 0.001107788528315722942352294922 -0.004514764528721570968627929688 0 0 0 0 
2406500000.0000000000 0.169738292694091796875000000000 -0.004962320439517498016357421875 0.000999461859464645385742187500 -0.004560795146971940994262695312 0 0 0 0 
2406666666.6666665077 0.169403821229934692382812500000 -0.006542193237692117691040039062 0.000670033914502710103988647461 -0.004386531189084053039550781250 0 0 0 0 
2406833333.3333334923 0.169481903314590509612713731258 -0.007931090891361236572265625000 0.000578369596041738986968994141 -0.004663200583308935165405273438 0 0 0 0 
2407000000.0000000000 0.169267341494560186188067518742 -0.009438012726604938507080078125 0.000470778351882472580105382098 -0.004494719207286834716796875000 0 0 0 0 
2407166666.6666665077 0.169282540678977994064169365629 -0.010663558728992940730084804102 0.000156531139509752392768859863 -0.004323275759816169738769531250 0 0 0 0 
2407333333.3333334923 0.168866634368896512130575615629 -0.012275851331651210784912109375 0.000166932397405616911962786264 -0.004412594716995955380911542676 0 0 0 0 
2407500000.0000000000 0.168791860342025812347088731258 -0.013527757488191129511823085352 0.000012403574146446770225661431 -0.004380688536912202835083007812 0 0 0 0 
2407666666.6666665077 0.168576419353485107421875000000 -0.014587578363716600590715977148 -0.000226667107199318706989288330 -0.004504150245338678359985351562 0 0 0 0 
2407833333.3333334923 0.168392121791839599609375000000 -0.015968116000294688833216483204 -0.000395289273001253604888916016 -0.004313266836106777191162109375 0 0 0 0 
2408000000.0000000000 0.168336153030395507812500000000 -0.016908476129174229013463204296 -0.000572288234252482652664184570 -0.004254295490682125091552734375 0 0 0 0 
2408166666.6666665077 0.168107599020004300216513115629 -0.017841981723904609680175781250 -0.000650120840873569250106811523 -0.004282613284885883331298828125 0 0 0 0 
2408333333.3333334923 0.168369427323341397384481865629 -0.018883073702454570425013358204 -0.000855814723763614892959594727 -0.004186076112091541290283203125 0 0 0 0 
2408500000.0000000000 0.168265059590339688400106865629 -0.019782871007919311523437500000 -0.000944507424719631671905517578 -0.004006118047982454299926757812 0 0 0 0 
2408666666.6666665077 0.168217971920967102050781250000 -0.020837340503931049001673514454 -0.000940720085054636001586914062 -0.003892569569870830015895224463 0 0 0 0 
2408833333.3333334923 0.168165192008018493652343750000 -0.021640345454215999948521798046 -0.001231904607266188101527548682 -0.003885971149429678916931152344 0 0 0 0 
2409000000.0000000000 0.168378606438636807540731865629 -0.022399527952075011516530622657 -0.001237472053617238998413085938 -0.003781812731176615195033408057 0 0 0 0 
2409166666.6666665077 0.168325081467628506759481865629 -0.023391561582684520376185233204 -0.001328653655946254947065043872 -0.003581864060834050178527832031 0 0 0 0 
2409333333.3333334923 0.168737277388572692871093750000 -0.024349387735128399240513985546 -0.001483167870901525020599365234 -0.003592438297346233887913369287 0 0 0 0 
2409500000.0000000000 0.168588176369667108733807481258 -0.025245634838938709604283516796 -0.001418660511262715079663920825 -0.003564774990081787109375000000 0 0 0 0 
2409666666.6666665077 0.168802827596664400955361884371 -0.025986289605498310434361641796 -0.001650913385674356980564736475 -0.003423820016905664963963173975 0 0 0 0 
2409833333.3333334923 0.168838918209075899978799384371 -0.026960542425513270986536795704 -0.001733659068122505924822163159 -0.003193777287378907203674316406 0 0 0 0 
2410000000.0000000000 0.169032320380210904220419365629 -0.027847666293382651592214216407 -0.001808439032174647071241069263 -0.003239333163946866989135742188 0 0 0 0 
2410166666.6666665077 0.169124975800514193435830634371 -0.028793547302484508859654610546 -0.001803962048143147988560341943 -0.003201269311830400986912392725 0 0 0 0 
2410333333.3333334923 0.169110640883445711990518134371 -0.029668042436242100107213204296 -0.002130644395947455926182412256 -0.003095226828008890151977539062 0 0 0 0 
2410500000.0000000000 0.168975442647933987716513115629 -0.030637919902801510202428048046 -0.002183993114158511161804199219 -0.002962534083053470091578818213 0 0 0 0 
2410666666.6666665077 0.168797820806503295898437500000 -0.031535584479570388793945312500 -0.002118902979418634934666298975 -0.002797759370878338813781738281 0 0 0 0 
2410833333.3333334923 0.168948143720626803299111884371 -0.032405793666839599609375000000 -0.002086317399516702131984091650 -0.002558071864768863157985068213 0 0 0 0 
2411000000.0000000000 0.168691322207450894454794365629 -0.033267159014940261840820312500 -0.002313949866220355033874511719 -0.002538442611694335937500000000 0 0 0 0 
2411166666.6666665077 0.168443158268928500076455634371 -0.034215226769447326660156250000 -0.002307365415617824034449911963 -0.002483960008248686790466308594 0 0 0 0 
2411333333.3333334923 0.168362677097320612151776231258 -0.034989714622497558593750000000 -0.002281214809045196013209677588 -0.002181246876716614203212118994 0 0 0 0 
2411500000.0000000000 0.168115168809890802581463731258 -0.035940967500209808349609375000 -0.002298631705343722863438271631 -0.002269537188112736181971884619 0 0 0 0 
2411666666.6666665077 0.167991772294044494628906250000 -0.036667030304670326923410783593 -0.002320432337000966072082519531 -0.002111675683408976034877158057 0 0 0 0 
2411833333.3333334923 0.167779371142387390136718750000 -0.037604916840791702270507812500 -0.002076229779049754142761230469 -0.001963973743841052055358886719 0 0 0 0 
2412000000.0000000000 0.167568191885948208907919365629 -0.038708589971065521240234375000 -0.002171617466956377029418945312 -0.001746478490531444983241415869 0 0 0 0 
2412166666.6666665077 0.167222931981086703201455634371 -0.039524178951978676532785783593 -0.001905371551401912949205708081 -0.001691601122729480049730610425 0 0 0 0 
2412333333.3333334923 0.166961982846260098556356865629 -0.040439680218696587299387346093 -0.001804070081561804034589457935 -0.001425091759301722049713134766 0 0 0 0 
2412500000.0000000000 0.166486203670501708984375000000 -0.041396249085664749145507812500 -0.001670356490649282932281494141 -0.001447467366233468055725097656 0 0 0 0 
2412666666.6666665077 0.166379675269126892089843750000 -0.042517207562923431396484375000 -0.001543989987112581946729350513 -0.001536823809146881103515625000 0 0 0 0 
2412833333.3333334923 0.165769830346107510665731865629 -0.043330010026693337177317033593 -0.001372399856336415030835795825 -0.001413300167769194082972861182 0 0 0 0 
2413000000.0000000000 0.165499329566955594161825615629 -0.044362638145685202861745466407 -0.001289859414100646972656250000 -0.001646842923946679072139120947 0 0 0 0 
2413166666.6666665077 0.164967432618141202071981865629 -0.045556813478469848632812500000 -0.001025409088470041968702006763 -0.001644749660044908957240439307 0 0 0 0 
2413333333.3333334923 0.164589017629623413085937500000 -0.046425711363554000854492187500 -0.001130768447183073000666952979 -0.001830976572819053909899067456 0 0 0 0 
2413500000.0000000000 0.164163991808891296386718750000 -0.047494303435087197040598283593 -0.001140719279646873907801962744 -0.002028887392953038215637207031 0 0 0 0 
2413666666.6666665077 0.163646325469017001053018134371 -0.048613611608743667602539062500 -0.001018660608679055950762104565 -0.002043853513896464867832802881 0 0 0 0 
2413833333.3333334923 0.163129970431327792068643134371 -0.049467161297798156738281250000 -0.000997468363493680953979492188 -0.002324302447959781126735068213 0 0 0 0 
2414000000.0000000000 0.162493839859962491134481865629 -0.050499550998210906982421875000 -0.000908323039766401052474975586 -0.002445177175104618072509765625 0 0 0 0 
2414166666.6666665077 0.162267997860908508300781250000 -0.051323197782039642333984375000 -0.001277027651667594909667968750 -0.002601864049211144013645791162 0 0 0 0 
2414333333.3333334923 0.161846190690994290450888115629 -0.052380021661519997333567033593 -0.001291067455895245075225830078 -0.003042005235329269929173134912 0 0 0 0 
2414500000.0000000000 0.161869511008262606521768134371 -0.053396772593259811401367187500 -0.001524814637377857945085835034 -0.003359732916578650908229208838 0 0 0 0 
2414666666.6666665077 0.161282390356063787262286268742 -0.054305724799633033061940778907 -0.001797326840460300011875771631 -0.003246315289288758797886513818 0 0 0 0 
2414833333.3333334923 0.161025807261467007736044365629 -0.055328678339719772338867187500 -0.001967002870514988899230957031 -0.003284610575065017180201865088 0 0 0 0 
2415000000.0000000000 0.160942241549491910079794365629 -0.056307934224605560302734375000 -0.002540353918448090986964560400 -0.003590736305341124968287802588 0 0 0 0 
2415166666.6666665077 0.160640433430671691894531250000 -0.057468228042125701904296875000 -0.002671179128810762925388955225 -0.003434235462918878035304404150 0 0 0 0 
2415333333.3333334923 0.160570994019508389571981865629 -0.058568492531776428222656250000 -0.002945877145975828170776367188 -0.003388056065887213186976767432 0 0 0 0 
2415500000.0000000000 0.160417437553405789474325615629 -0.059743031859397888183593750000 -0.003321134718134998841526650537 -0.003435454564169048829319619287 0 0 0 0 
2415666666.6666665077 0.160267293453216608245526231258 -0.060861084610223770141601562500 -0.003618095302954316139221191406 -0.003291312139481306076049804688 0 0 0 0 
2415833333.3333334923 0.160143718123436001876669365629 -0.062007635831832892681081403907 -0.003897523973137139840366982568 -0.003167507005855441093444824219 0 0 0 0 
2416000000.0000000000 0.159819334745407104492187500000 -0.063376761972904205322265625000 -0.004021767992526292800903320312 -0.002932239556685090065002441406 0 0 0 0 
2416166666.6666665077 0.159789904952049310882244981258 -0.064533837139606475830078125000 -0.004308823496103286743164062500 -0.002696469891816378073451376807 0 0 0 0 
2416333333.3333334923 0.159568607807159396072549384371 -0.065663076937198638916015625000 -0.004617623984813690185546875000 -0.002553913509473205046412802588 0 0 0 0 
2416500000.0000000000 0.159211054444313104827557481258 -0.066955327987670898437500000000 -0.004835126455873250961303710938 -0.002291452372446655793430947412 0 0 0 0 
2416666666.6666665077 0.158966660499572809417401231258 -0.068046391010284423828125000000 -0.004880185239017009735107421875 -0.002180866897106171087977743994 0 0 0 0 
2416833333.3333334923 0.158757299184799194335937500000 -0.069323785603046417236328125000 -0.004893227946013212203979492188 -0.001881646807305515029309916919 0 0 0 0 
2417000000.0000000000 0.158247068524360712249432481258 -0.070452138781547546386718750000 -0.004984530154615640640258789062 -0.001544279977679253058192587744 0 0 0 0 
2417166666.6666665077 0.157916128635406494140625000000 -0.071353375911712646484375000000 -0.005189175251871347427368164062 -0.001116442028433084921595908057 0 0 0 0 
2417333333.3333334923 0.157686874270439203460369981258 -0.072353638708591461181640625000 -0.005288396496325731277465820312 -0.000784445088356733322143554688 0 0 0 0 
2417500000.0000000000 0.157261505722999600509481865629 -0.073536716401576995849609375000 -0.005242191720753908157348632812 -0.000618726597167551517486572266 0 0 0 0 
2417666666.6666665077 0.156947925686836187164630018742 -0.074220143258571624755859375000 -0.005296593997627496719360351562 -0.000184515665750950601979932242 0 0 0 0 
2417833333.3333334923 0.156639516353607205489950615629 -0.075042754411697387695312500000 -0.005312733817845582962036132812 -0.000017195332475239410996437073 0 0 0 0 
2418000000.0000000000 0.156193330883979797363281250000 -0.076062716543674468994140625000 -0.005264371167868375778198242188 0.000216766929952427690655308856 0 0 0 0 
2418166666.6666665077 0.155950382351875305175781250000 -0.076858811080455780029296875000 -0.005074831191450356569772051074 0.000575810263399034738540649414 0 0 0 0 
2418333333.3333334923 0.155895158648490905761718750000 -0.077756039798259735107421875000 -0.004956472665071487426757812500 0.000758599373511970043182373047 0 0 0 0 
2418500000.0000000000 0.155563041567802401443643134371 -0.078399330377578735351562500000 -0.004949886351823806762695312500 0.001003732671961188099504780347 0 0 0 0 
2418666666.6666665077 0.155285418033599909026776231258 -0.079194881021976470947265625000 -0.004776049870997667312622070312 0.001316833891905843994737934644 0 0 0 0 
2418833333.3333334923 0.154851883649826105315838731258 -0.079975441098213195800781250000 -0.004693786147981882095336914062 0.001421560416929424025891948169 0 0 0 0 
2419000000.0000000000 0.154508024454116793533486884371 -0.080674581229686737060546875000 -0.004320633132010698318481445312 0.001845012535341084003448486328 0 0 0 0 
2419166666.6666665077 0.154287189245223999023437500000 -0.081331185996532440185546875000 -0.004304822999984025955200195312 0.001812727539800107912776327979 0 0 0 0 
2419333333.3333334923 0.153881371021270807464276231258 -0.081791684031486511230468750000 -0.004087840672582387924194335938 0.002183924661949276924133300781 0 0 0 0 
2419500000.0000000000 0.153551429510116604904013115629 -0.082661092281341552734375000000 -0.003915560897439718246459960938 0.002169628161936997933628701318 0 0 0 0 
2419666666.6666665077 0.153336420655250604827557481258 -0.083278663456439971923828125000 -0.003762861480936408042907714844 0.002131127985194325013401650537 0 0 0 0 
2419833333.3333334923 0.152797043323516901214276231258 -0.083773158490657806396484375000 -0.003552783513441681861877441406 0.002311090938746929168701171875 0 0 0 0 
