# Hz S RI R 50
2400000000.0000000000 0.158700332045555086990518134371 0.062920853495597839355468750000 -0.000322214793413877487182617188 0.001071814098395406983019184644 0 0 0 0 
2400166666.6666665077 0.158600062131881713867187500000 0.061299841850996017456054687500 -0.000353895040461793487698155536 0.001200212864205240986467670972 0 0 0 0 
2400333333.3333334923 0.158417120575904901702557481258 0.059486076235771179199218750000 -0.000206125769182108288437443866 0.001204394386149943091748881763 0 0 0 0 
2400500000.0000000000 0.158383712172508211990518134371 0.057545177638530731201171875000 -0.000132019049488007995203295297 0.001032434054650366089464497144 0 0 0 0 
2400666666.6666665077 0.158158853650093106368856865629 0.055570393800735466693918596093 0.000008718696335563436150550842 0.001116901868954301097272563403 0 0 0 0 
2400833333.3333334923 0.158120751380920410156250000000 0.053907476365566246723215471093 -0.000028010465030092749407495192 0.001009557978250086090685200269 0 0 0 0 
2401000000.0000000000 0.158218294382095309158486884371 0.052003622055053710937500000000 0.000100075027148705002948483878 0.001087928540073334953905415112 0 0 0 0 
2401166666.6666665077 0.158334195613861111739950615629 0.049718227237462997436523437500 0.000086088381067384034395217896 0.001091872924007474942448281396 0 0 0 0 
2401333333.3333334923 0.158410862088203402420205634371 0.047859501093626022338867187500 0.000153491957462392801612299786 0.000977990799583494663238525391 0 0 0 0 
2401500000.0000000000 0.158687859773635892013388115629 0.045765858143568038940429687500 0.000322110543493181521266383038 0.001027200254611670970916748047 0 0 0 0 
2401666666.6666665077 0.159085735678672790527343750000 0.043856132775545120239257812500 0.000383666192647069692611694336 0.001065973774529993967769003760 0 0 0 0 
2401833333.3333334923 0.159493759274482699295205634371 0.041675496846437447284738908593 0.000487122480990365201800745831 0.000961362209636718034744262695 0 0 0 0 
2402000000.0000000000 0.159643873572349603850994981258 0.039801850914955139160156250000 0.000699306023307144641876220703 0.001027114107273519039154052734 0 0 0 0 
2402166666.6666665077 0.160218045115470886230468750000 0.037729471921920783306081403907 0.000823659880552440881729125977 0.000810526486020535230636596680 0 0 0 0 
2402333333.3333334923 0.160499900579452486892861884371 0.035909764468669891357421875000 0.000910240749362856149673461914 0.000740134215448051691055297852 0 0 0 0 
2402500000.0000000000 0.161379262804985101897869981258 0.034077711403369896625559221093 0.000865205656737089157104492188 0.000729496474377810955047607422 0 0 0 0 
2402666666.6666665077 0.161897212266921997070312500000 0.032158255577087402343750000000 0.001099314540624618963954306494 0.000520170433446764945983886719 0 0 0 0 
2402833333.3333334923 0.162615224719047601897869981258 0.030410014092922210693359375000 0.001137339742854237990138388525 0.000507971679326146841049194336 0 0 0 0 
2403000000.0000000000 0.163519814610481289962606865629 0.028716616332530978811243826954 0.001216534059494734027265239185 0.000176278626895509687349042349 0 0 0 0 
2403166666.6666665077 0.164209142327308710296307481258 0.027291176840662959707239920704 0.001147018512710928916931152344 0.000438593531725928187370300293 0 0 0 0 
2403333333.3333334923 0.165158852934837313553018134371 0.025680532678961750375767891796 0.001207510125823318958282470703 0.000143918048706836998462677002 0 0 0 0 
2403500000.0000000000 0.165950462222099304199218750000 0.024152172729372981679896170704 0.001275897608138621070264506763 -0.000079469391494058072566986084 0 0 0 0 
2403666666.6666665077 0.166863009333610506912393134371 0.022751832380890849721888358204 0.001249554799869656996486044775 -0.000047240446292562410235404968 0 0 0 0 
2403833333.3333334923 0.167863205075264004806356865629 0.021370468661189079284667968750 0.001489865942858159975764609229 -0.000355371070327237302630823956 0 0 0 0 
2404000000.0000000000 0.168905645608902005294638115629 0.020155362784862518310546875000 0.001358425943180918910382914966 -0.000395527458749711513519287109 0 0 0 0 
2404166666.6666665077 0.169999822974204989334268134371 0.018919216468930240976353829296 0.001354663982056081078172993237 -0.000554915517568588256835937500 0 0 0 0 
2404333333.3333334923 0.170797213912010192871093750000 0.017939863726496699941614920704 0.001222364488057791969896626050 -0.000581452797632664442062377930 0 0 0 0 
2404500000.0000000000 0.171818450093269403655682481258 0.016792787238955501211146170704 0.001170279923826456069946289062 -0.000862360349856317043304443359 0 0 0 0 
2404666666.6666665077 0.172707661986351013183593750000 0.015863494947552680969238281250 0.001233012648299335999729775537 -0.000836430059280246496200561523 0 0 0 0 
2404833333.3333334923 0.173704966902732904632244981258 0.015098100528120999772041521680 0.001105356961488723971723246997 -0.001062773284502327008488320459 0 0 0 0 
2405000000.0000000000 0.174666956067085293868856865629 0.014251599088311200577705584180 0.000978743657469749450683593750 -0.001064118696376680894138955225 0 0 0 0 
2405166666.6666665077 0.175483167171478299239950615629 0.013530779629945760209053240430 0.001118494896218181090113974463 -0.001437700586393475966212607275 0 0 0 0 
2405333333.3333334923 0.176272124052047701736611884371 0.012802302837371829641321951954 0.000828599149826914072036743164 -0.001390273333527147986768413013 0 0 0 0 
2405500000.0000000000 0.177007615566253689864950615629 0.012350082397460939234723475977 0.000884615350514650344848632812 -0.001460389001294970946071005713 0 0 0 0 
2405666666.6666665077 0.177740484476089505294638115629 0.011757590807974340266217616602 0.000621092156507074832916259766 -0.001653248094953597025630331885 0 0 0 0 
2405833333.3333334923 0.178243383765220586578692518742 0.011359754018485549581507498829 0.000670744630042463541030883789 -0.001673917984589933915379189600 0 0 0 0 
2406000000.0000000000 0.178933411836624201018963731258 0.010812003165483479935615740430 0.000518023036420345306396484375 -0.001631619757972657897351909106 0 0 0 0 
2406166666.6666665077 0.179192945361137390136718750000 0.010555952787399290257464024023 0.000438611110439524108737391339 -0.001754950731992721991298056494 0 0 0 0 
2406333333.3333334923 0.179951518774032592773437500000 0.010192499496042730158795741602 0.000306834495859220623970031738 -0.001866527250967920043348002856 0 0 0 0 
2406500000.0000000000 0.180293753743171691894531250000 0.009945073164999485015869140625 0.000126649523735977709293365479 -0.001752765965647995905635214697 0 0 0 0 
2406666666.6666665077 0.180384695529937688629473768742 0.009540433995425701141357421875 -0.000063302548369392752647399902 -0.001763332984410225911381386865 0 0 0 0 
2406833333.3333334923 0.180685073137283297439736884371 0.009158477187156677246093750000 -0.000095975803560577332973480225 -0.001867988146841526031494140625 0 0 0 0 
2407000000.0000000000 0.181037545204162597656250000000 0.008779250085353851318359375000 -0.000333958683768287301063537598 -0.001808267203159630081774067456 0 0 0 0 
2407166666.6666665077 0.181152373552322387695312500000 0.008560619316995143890380859375 -0.000358739751391112804412841797 -0.001801598933525383906123495947 0 0 0 0 
2407333333.3333334923 0.180890738964080810546875000000 0.008100413717329502105712890625 -0.000557470310013741254806518555 -0.001793128321878612041473388672 0 0 0 0 
2407500000.0000000000 0.180776014924049405196981865629 0.007706675678491592407226562500 -0.000664639053866267204284667969 -0.001577625749632715962053608472 0 0 0 0 
2407666666.6666665077 0.180701956152916010100994981258 0.007246665190905333432669355176 -0.000788146746344864368438720703 -0.001657021231949328942539834131 0 0 0 0 
2407833333.3333334923 0.180385380983352688888388115629 0.006649683695286512374877929688 -0.000787291151937097311019897461 -0.001434975885786115906359028394 0 0 0 0 
2408000000.0000000000 0.180115327239036587814169365629 0.005945757962763310346121503613 -0.000882172724232077598571777344 -0.001605440746061504104016948169 0 0 0 0 
2408166666.6666665077 0.179716572165489196777343750000 0.005634773988276720046997070312 -0.001039057970046997070312500000 -0.001416105777025222995160746997 0 0 0 0 
2408333333.3333334923 0.179431155323982211013955634371 0.004778470844030380249023437500 -0.000910684640984982252120971680 -0.001458448823541403033612895435 0 0 0 0 
2408500000.0000000000 0.178893461823463412185830634371 0.003995730541646481427664472363 -0.000946452491916716098785400391 -0.001324997516348958015441894531 0 0 0 0 
2408666666.6666665077 0.178353860974311800857705634371 0.003283624770119785828831338037 -0.001195558113977313041687011719 -0.001379750785417855002759623950 0 0 0 0 
2408833333.3333334923 0.177561208605766296386718750000 0.002189157996326684951782226562 -0.001172901946119963905931782300 -0.001334376167505979971644736182 0 0 0 0 
2409000000.0000000000 0.176976293325424194335937500000 0.001323937787674366994145058740 -0.001073736231774091937421489185 -0.001070245052687823989270854419 0 0 0 0 
2409166666.6666665077 0.176359117031097412109375000000 0.000148597289808094501495361328 -0.001288187573663889928105019678 -0.001180998864583671092987060547 0 0 0 0 
2409333333.3333334923 0.175776615738868713378906250000 -0.001045089215040206909179687500 -0.001180649502202868895289755713 -0.001237971009686589024187397534 0 0 0 0 
2409500000.0000000000 0.174946323037147494217080634371 -0.002287078881636261940002441406 -0.001326163182966410896898579175 -0.001070333528332412026048969800 0 0 0 0 
2409666666.6666665077 0.174233525991439791580361884371 -0.003695049788802862167358398438 -0.001328904181718826077104878003 -0.001084655406884849071502685547 0 0 0 0 
2409833333.3333334923 0.173383727669715909103231865629 -0.004936204291880130767822265625 -0.001411722972989081902744912256 -0.001144902664236723942997597803 0 0 0 0 
2410000000.0000000000 0.173046484589576693435830634371 -0.006382112856954336166381835938 -0.001410823664627969048143696362 -0.001142047229222953102709126050 0 0 0 0 
2410166666.6666665077 0.172424152493476895431356865629 -0.007934625260531902313232421875 -0.001444835681468247933628701318 -0.000996798160485923290252685547 0 0 0 0 
2410333333.3333334923 0.171570301055908203125000000000 -0.009631402790546417236328125000 -0.001398523454554378986358642578 -0.001097989268600940921186137622 0 0 0 0 
2410500000.0000000000 0.171140730381011990646200615629 -0.011195264756679540116279802930 -0.001469073351472615978838276440 -0.001114626182243227958679199219 0 0 0 0 
2410666666.6666665077 0.170525342226028386871661268742 -0.012964472174644470214843750000 -0.001507098902948200919507670825 -0.001073502353392540974857949365 0 0 0 0 
2410833333.3333334923 0.170094251632690401931924384371 -0.014752027578651910263984881055 -0.001556449802592396952985454028 -0.001035384018905461051343608325 0 0 0 0 
2411000000.0000000000 0.169657573103904696365518134371 -0.016399176791310310363769531250 -0.001675375155173242092132568359 -0.001092747435905039093614887769 0 0 0 0 
2411166666.6666665077 0.169279679656028803069744981258 -0.018320972099900249135950858204 -0.001585678546689450957654643481 -0.001047090161591768047930073315 0 0 0 0 
2411333333.3333334923 0.168764263391494806487713731258 -0.020235124975442889821986014454 -0.001753119169734417958500527490 -0.000939694989938288927078247070 0 0 0 0 
2411500000.0000000000 0.168509066104888888260049384371 -0.022126793861389160156250000000 -0.001711629098281264088274311597 -0.000933717819862067699432373047 0 0 0 0 
2411666666.6666665077 0.168502956628799410720986884371 -0.024100517854094508779505545704 -0.001866292324848473072052001953 -0.000957812415435910224914550781 0 0 0 0 
2411833333.3333334923 0.168454900383949307540731865629 -0.025891575962305068969726562500 -0.001903443364426494078395224463 -0.000899515056516975164413452148 0 0 0 0 
2412000000.0000000000 0.168370589613914489746093750000 -0.027916414663195610046386718750 -0.002118731848895550207850790869 -0.000832048477604985237121582031 0 0 0 0 
2412166666.6666665077 0.168307766318321200271768134371 -0.029875226318836208688756173046 -0.002188941929489374160766601562 -0.000860602245666086673736572266 0 0 0 0 
2412333333.3333334923 0.168521419167518587967080634371 -0.031743019819259636615793596093 -0.002320710802450776100158691406 -0.000690693093929439783096313477 0 0 0 0 
2412500000.0000000000 0.168619424104690607268963731258 -0.033586021512746810913085937500 -0.002318967832252382798435830225 -0.000688362633809447288513183594 0 0 0 0 
2412666666.6666665077 0.168970853090286310393963731258 -0.035561837255954742431640625000 -0.002542885020375252203700400244 -0.000633550400380045175552368164 0 0 0 0 
2412833333.3333334923 0.169383198022842407226562500000 -0.037374909967184066772460937500 -0.002462842734530568122863769531 -0.000344858621247112805217188702 0 0 0 0 
2413000000.0000000000 0.169523164629936190506143134371 -0.039258331060409552837331403907 -0.002596890786662697792053222656 -0.000513683073222637176513671875 0 0 0 0 
2413166666.6666665077 0.169853344559669494628906250000 -0.040891949087381362915039062500 -0.002772407606244086785557412256 -0.000255064718658104484707432880 0 0 0 0 
2413333333.3333334923 0.170077338814735412597656250000 -0.042580533772706992412526716407 -0.002840043744072318077087402344 0.000047537501814076676964759827 0 0 0 0 
2413500000.0000000000 0.170685186982154901702557481258 -0.044112838804721832275390625000 -0.002944675507023930983302451025 0.000125944672618061304092407227 0 0 0 0 
2413666666.6666665077 0.171201154589652987381143134371 -0.045796878635883331298828125000 -0.002842201152816414833068847656 0.000232392834732309010907849722 0 0 0 0 
2413833333.3333334923 0.171797797083854703048544365629 -0.047445863485336296772043596093 -0.003034310415387154059169150244 0.000290131516521796584129333496 0 0 0 0 
2414000000.0000000000 0.172158747911453302581463731258 -0.048826269805431372905690778907 -0.002921050414443016052246093750 0.000450198596809059381484985352 0 0 0 0 
2414166666.6666665077 0.172813400626182611663494981258 -0.050076484680175781250000000000 -0.002944507636129856109619140625 0.000700201606377959251403808594 0 0 0 0 
2414333333.3333334923 0.173333123326301602462606865629 -0.051395982503890991210937500000 -0.002905901288613677024841308594 0.000777825480327010154724121094 0 0 0 0 
2414500000.0000000000 0.173954844474792508224325615629 -0.052447244524955749511718750000 -0.002820805646479129791259765625 0.000860505679156631231307983398 0 0 0 0 
2414666666.6666665077 0.174265220761299105545205634371 -0.053561046719551093364675153907 -0.003009596141055225892307900537 0.001180350547656416893005371094 0 0 0 0 
2414833333.3333334923 0.174789920449256896972656250000 -0.054687067866325378417968750000 -0.002832816215232015089747763525 0.001397847197949886105181049878 0 0 0 0 
2415000000.0000000000 0.175359621644020108321981865629 -0.055510189384222030639648437500 -0.003061241470277308984043740381 0.001587352482602000019670795972 0 0 0 0 
2415166666.6666665077 0.175861969590187100509481865629 -0.056272260844707489013671875000 -0.002841918962076305909397744287 0.001778178964741528034210205078 0 0 0 0 
2415333333.3333334923 0.176287621259689303299111884371 -0.057169172912836081767995466407 -0.002870037686079740957972861182 0.001867912127636373043060302734 0 0 0 0 
2415500000.0000000000 0.176507651805877713302450615629 -0.057818032801151282573659528907 -0.002802141476422547860386513818 0.002034221310168505148646689307 0 0 0 0 
2415666666.6666665077 0.176910966634750393966513115629 -0.058426167815923690795898437500 -0.002574914600700139999389648438 0.002093486953526734872105263818 0 0 0 0 
2415833333.3333334923 0.177276358008384704589843750000 -0.058888249099254608154296875000 -0.002487899735569953918457031250 0.002324722474440931840183877100 0 0 0 0 
2416000000.0000000000 0.177169561386108398437500000000 -0.059351686388254172588307966407 -0.002398480428382753892185830225 0.002543883863836526870727539062 0 0 0 0 
2416166666.6666665077 0.177557438611984308440838731258 -0.059886146336793899536132812500 -0.002426896709948778152465820312 0.002599041443318129019496298682 0 0 0 0 
2416333333.3333334923 0.177483648061752291580361884371 -0.060049477964639656757395158593 -0.002262374619022012190577841650 0.002780520357191563086268759619 0 0 0 0 
2416500000.0000000000 0.177394583821296691894531250000 -0.060519311577081680297851562500 -0.002082882681861519813537597656 0.002850154181942344145533896338 0 0 0 0 
2416666666.6666665077 0.177226558327674893478231865629 -0.060690991580486297607421875000 -0.001957057509571313858032226562 0.003008199855685234069824218750 0 0 0 0 
2416833333.3333334923 0.177214294672012301345986884371 -0.061118490993976593017578125000 -0.001742533524520694992662739331 0.002961773192510008811950683594 0 0 0 0 
2417000000.0000000000 0.176684021949768094161825615629 -0.061264898627996451641042341407 -0.001608349033631383939030312646 0.003074215492233633995056152344 0 0 0 0 
2417166666.6666665077 0.176338732242584200760049384371 -0.061526536941528320312500000000 -0.001532560214400291009190224756 0.003301111981272697015049599756 0 0 0 0 
2417333333.3333334923 0.175873950123786898513955634371 -0.061725869774818420410156250000 -0.001199073041789233901380229419 0.003308444051072001890895224463 0 0 0 0 
2417500000.0000000000 0.175273656845092801193075615629 -0.062118850648403167724609375000 -0.001247144304215908050537109375 0.003341625677421689033508300781 0 0 0 0 
2417666666.6666665077 0.174771338701248196700888115629 -0.062201198190450668334960937500 -0.000990016036666929721832275391 0.003375104628503323034999228369 0 0 0 0 
2417833333.3333334923 0.174041643738746587555255018742 -0.062595568597316741943359375000 -0.000758216658141463994979858398 0.003456190694123506979701376807 0 0 0 0 
2418000000.0000000000 0.173060178756713894943075615629 -0.062957137823104858398437500000 -0.000655750511214137077331542969 0.003621411276981234984156943213 0 0 0 0 
2418166666.6666665077 0.172229155898094205001669365629 -0.062985785305500030517578125000 -0.000384861108614131808280944824 0.003664672607555985884425497900 0 0 0 0 
2418333333.3333334923 0.171622231602668789962606865629 -0.063473939895629882812500000000 -0.000325243046972900574833470477 0.003535177791491150856018066406 0 0 0 0 
2418500000.0000000000 0.170418217778205899337606865629 -0.063946895301342010498046875000 -0.000117297895485535304672779222 0.003624602919444441795349121094 0 0 0 0 
2418666666.6666665077 0.169613108038902310470419365629 -0.064440354704856872558593750000 0.000055214764870470389723777771 0.003483358537778257889988564600 0 0 0 0 
2418833333.3333334923 0.168210536241531399825888115629 -0.064963430166244506835937500000 0.000227995638852007687091827393 0.003340975381433964209315634619 0 0 0 0 
2419000000.0000000000 0.167065635323524502853231865629 -0.065513350069522857666015625000 0.000290996831608936190605163574 0.003414712147787212891819619287 0 0 0 0 
2419166666.6666665077 0.166083648800849886795205634371 -0.066190242767333984375000000000 0.000711019732989370822906494141 0.003388518933206797079799033057 0 0 0 0 
2419333333.3333334923 0.164641499519348089020098768742 -0.066705733537673950195312500000 0.000580560241360217332839965820 0.003339341841638087792637490381 0 0 0 0 
2419500000.0000000000 0.163580462336540194412393134371 -0.067771263420581817626953125000 0.000828470103442668914794921875 0.003319888608530164198634482275 0 0 0 0 
2419666666.6666665077 0.162464693188667297363281250000 -0.068660028278827667236328125000 0.001110544777475298101540590601 0.003232688410207629203796386719 0 0 0 0 
2419833333.3333334923 0.161135017871856689453125000000 -0.069500751793384552001953125000 0.001209175563417375087738037109 0.002988163148984313011169433594 0 0 0 0 
