# Hz S RI R 
2400000000.0000000000 0.156040683388709994217080634371 0.062029488384723663330078125000 -0.002004940994083880944492959131 -0.002902501961216330961940146338 0 0 0 0 
2400166666.6666665077 0.155935063958168002029580634371 0.060192413628101348876953125000 -0.002070306101813911957981728662 -0.002918584970757364793064736475 0 0 0 0 
2400333333.3333334923 0.155919671058654812911825615629 0.058151282370090491558034528907 -0.002238121349364519119262695312 -0.002868379699066280884983681787 0 0 0 0 
2400500000.0000000000 0.156146138906478909591513115629 0.056197650730609886859934221093 -0.002298674313351511955261230469 -0.002722011413425207138061523438 0 0 0 0 
2400666666.6666665077 0.156133264303207397460937500000 0.054126989096403121948242187500 -0.002250161720439792113063193213 -0.002748382277786732153651572119 0 0 0 0 
2400833333.3333334923 0.156417071819305392166299384371 0.052015669643878936767578125000 -0.002330089686438440842869423975 -0.002459797309711575941798544775 0 0 0 0 
2401000000.0000000000 0.156409397721290588378906250000 0.049929652363061911846120466407 -0.002467426704242825941798544775 -0.002353868447244166894199990381 0 0 0 0 
2401166666.6666665077 0.156710207462310791015625000000 0.047715771943330771709401716407 -0.002489738399162888960597372900 -0.002359463600441813902613974463 0 0 0 0 
2401333333.3333334923 0.157044097781181307693643134371 0.045641724020242691040039062500 -0.002604126930236815972569131006 -0.002288749441504478888270712744 0 0 0 0 
2401500000.0000000000 0.157629817724227905273437500000 0.043495286256074912334401716407 -0.002556465566158295111415243994 -0.002136804396286606788635253906 0 0 0 0 
2401666666.6666665077 0.158154278993606595138388115629 0.041491642594337463378906250000 -0.002569107338786125183105468750 -0.002123828977346419854405068506 0 0 0 0 
2401833333.3333334923 0.158862113952636690994424384371 0.039426974952220916748046875000 -0.002548045478761196136474609375 -0.002189557300880550904514931787 0 0 0 0 
2402000000.0000000000 0.159281209111213711837606865629 0.037335071712732322002370466407 -0.002604187233373523192164755713 -0.001870892359875143007991171729 0 0 0 0 
2402166666.6666665077 0.160030946135520907303018134371 0.035360235720872879028320312500 -0.002545743715018033981323242188 -0.001811259891837835095049213940 0 0 0 0 
2402333333.3333334923 0.160576030611991910079794365629 0.033488232642412192607839216407 -0.002481786534190177917480468750 -0.001784280175343156077741313403 0 0 0 0 
2402500000.0000000000 0.161574840545654296875000000000 0.031763635575771331787109375000 -0.002517526270821690993068076025 -0.001707423944026231982587504810 0 0 0 0 
2402666666.6666665077 0.162470325827598599532919365629 0.030067028477787971496582031250 -0.002574097365140914916992187500 -0.001749541726894676902173686450 0 0 0 0 
2402833333.3333334923 0.163319662213325500488281250000 0.028319118544459339487096016796 -0.002822795417159796194789267432 -0.001681657740846276066423725659 0 0 0 0 
2403000000.0000000000 0.164337322115898104568643134371 0.026691231876611709594726562500 -0.002439937554299830956699990381 -0.001608126447536051056505512769 0 0 0 0 
2403166666.6666665077 0.165290728211402893066406250000 0.025309080258011821401575858204 -0.002575263846665620803833007812 -0.001562276505865157084224081885 0 0 0 0 
2403333333.3333334923 0.166548997163772610763388115629 0.023865735158324241638183593750 -0.002662348793819547133204794775 -0.001445810077711940028546977466 0 0 0 0 
2403500000.0000000000 0.167333438992500305175781250000 0.022577311843633651733398437500 -0.002751892898231745199916220557 -0.001422830857336520931841206128 0 0 0 0 
2403666666.6666665077 0.168369859457015991210937500000 0.021240707486867911601979841407 -0.002680038334801793098449707031 -0.001334676286205648942234658350 0 0 0 0 
2403833333.3333334923 0.169710740447044400314169365629 0.020188136026263240468958670704 -0.002784302690997720198390341650 -0.001354779815301299095153808594 0 0 0 0 
2404000000.0000000000 0.170646980404853793045205634371 0.019144900143146518362025076954 -0.002748101018369197845458984375 -0.001185109838843346075770712744 0 0 0 0 
2404166666.6666665077 0.171662539243698092361611884371 0.017994694411754611623743826954 -0.002811706857755779786350869287 -0.001251317327842115922215127100 0 0 0 0 
2404333333.3333334923 0.172671020030975286285723768742 0.017211407423019409179687500000 -0.002914242213591932816746377100 -0.001285107573494314930559467847 0 0 0 0 
2404500000.0000000000 0.173447608947753906250000000000 0.016465434804558750497838204296 -0.002847986761480569839477539062 -0.001187936635687947056413960034 0 0 0 0 
2404666666.6666665077 0.174639180302619906326455634371 0.015604343265295030421246913477 -0.002981076017022132873535156250 -0.001154367346316576004028320312 0 0 0 0 
2404833333.3333334923 0.175495952367782592773437500000 0.015003088861703869211217110546 -0.002754489891231060028076171875 -0.001134204678237437985063862378 0 0 0 0 
2405000000.0000000000 0.176363870501518305022869981258 0.014498799107968810689905936329 -0.002815393963828682899475097656 -0.000814238970633596181869506836 0 0 0 0 
2405166666.6666665077 0.177154779434204101562500000000 0.014003830961883069819440272852 -0.002767240395769476890563964844 -0.000803561648353934288024902344 0 0 0 0 
2405333333.3333334923 0.178039386868476895431356865629 0.013452121056616309774378592579 -0.003023284953087567849400185693 -0.000877862737979739904403686523 0 0 0 0 
2405500000.0000000000 0.178703889250755310058593750000 0.013213315047323700296422188671 -0.002784269629046320915222167969 -0.000753756961785256862640380859 0 0 0 0 
2405666666.6666665077 0.179213359951972989181356865629 0.012949961237609389913538748829 -0.002976870397105813026428222656 -0.000670565001200884580612182617 0 0 0 0 
2405833333.3333334923 0.179694801568985013107138115629 0.012602316215634349477747733204 -0.002811359474435449080226279150 -0.000761570117902010679244995117 0 0 0 0 
2406000000.0000000000 0.180339336395263699630575615629 0.012219414114952089137067225977 -0.003044899785891174836399697412 -0.000628757290542125701904296875 0 0 0 0 
2406166666.6666665077 0.180493012070655794998330634371 0.012204685248434540140172188671 -0.002923595020547509193420410156 -0.000583269866183400154113769531 0 0 0 0 
2406333333.3333334923 0.180927693843841608245526231258 0.011931505054235460108746913477 -0.003077494213357567787170410156 -0.000481610069982707500457763672 0 0 0 0 
2406500000.0000000000 0.181105554103851290603799384371 0.011708038859069350851038748829 -0.003102568676695228056666708838 -0.000468770362203940803378504620 0 0 0 0 
2406666666.6666665077 0.181045725941657992263955634371 0.011526394635438920802106288477 -0.003043769858777523040771484375 -0.000263560097664594704478663312 0 0 0 0 
2406833333.3333334923 0.181174561381339999099893134371 0.011246043257415299851387224805 -0.003146677743643521828892373193 -0.000146209597005508812979021616 0 0 0 0 
2407000000.0000000000 0.181135386228561401367187500000 0.011006086133420470846155936329 -0.003076286520808935165405273438 -0.000238498279941268292352399283 0 0 0 0 
2407166666.6666665077 0.181120336055755587478799384371 0.010799692012369629251500313671 -0.003155964426696300940272665869 -0.000044644293666351593356540067 0 0 0 0 
2407333333.3333334923 0.180657565593719510177450615629 0.010314340703189369546910469921 -0.003200475126504898071289062500 0.000056829201639629900455474854 0 0 0 0 
2407500000.0000000000 0.180495053529739407638388115629 0.010021381080150600778599923046 -0.003119167871773242950439453125 0.000009394617336511146277189255 0 0 0 0 
2407666666.6666665077 0.180116236209869412521200615629 0.009593814611434936523437500000 -0.003064512042328714890720986475 -0.000005255982614471577107906342 0 0 0 0 
2407833333.3333334923 0.179375156760215787032919365629 0.008720007725059986114501953125 -0.003136659739539027214050292969 0.000155681744217872592523851938 0 0 0 0 
2408000000.0000000000 0.179036036133766202071981865629 0.008186423219740390777587890625 -0.002926853019744157791137695312 0.000177807785803452107027330942 0 0 0 0 
2408166666.6666665077 0.178426072001457186599893134371 0.007649434730410575866699218750 -0.003077457193285226821899414062 0.000274358142632991075515747070 0 0 0 0 
2408333333.3333334923 0.177992314100265502929687500000 0.006769463419914245605468750000 -0.002976797753944993019104003906 0.000418504147091880386501866473 0 0 0 0 
2408500000.0000000000 0.177184566855430603027343750000 0.005822336766868829727172851562 -0.002992087742313743071315146338 0.000426161597715690677792149677 0 0 0 0 
2408666666.6666665077 0.176553964614868191818075615629 0.004841810557991266250610351562 -0.002959056524559855894801474463 0.000434425659477710723876953125 0 0 0 0 
2408833333.3333334923 0.175653085112571688553018134371 0.003788599744439125061035156250 -0.002951380563899875120875693213 0.000504634052049368619918823242 0 0 0 0 
2409000000.0000000000 0.174862653017044095138388115629 0.002705886727198957963230752100 -0.002904420020058751106262207031 0.000506015610881149768829345703 0 0 0 0 
2409166666.6666665077 0.174178048968315096756143134371 0.001493298448622226931928325122 -0.002947116037830709977390908350 0.000562531349714845418930053711 0 0 0 0 
2409333333.3333334923 0.173596233129501287262286268742 -0.000060042686527594917196819918 -0.002887622918933629989624023438 0.000586751964874565601348876953 0 0 0 0 
2409500000.0000000000 0.172905862331390408614950615629 -0.001516185002401470921160053784 -0.002842122688889503912684775244 0.000666062056552618741989135742 0 0 0 0 
2409666666.6666665077 0.171930208802223205566406250000 -0.003030212363228201866149902344 -0.002845390932634472846984863281 0.000584913068450987339019775391 0 0 0 0 
2409833333.3333334923 0.171085074543952886383380018742 -0.004536761436611413955688476562 -0.002788987243548036055323935400 0.000666133593767881393432617188 0 0 0 0 
2410000000.0000000000 0.170517116785049410720986884371 -0.006269982084631919860839843750 -0.002767234109342097802403115381 0.000628440699074417352676391602 0 0 0 0 
2410166666.6666665077 0.169879674911498995681924384371 -0.007979418151080608367919921875 -0.002759695518761872811558388818 0.000791158468928188085556030273 0 0 0 0 
2410333333.3333334923 0.169189795851707486251669365629 -0.009744569659233093261718750000 -0.002770259045064448876621865381 0.000778980902396142482757568359 0 0 0 0 
2410500000.0000000000 0.168786332011222811599893134371 -0.011690280400216579437255859375 -0.002674733987078071074244833838 0.000831150391604751348495483398 0 0 0 0 
2410666666.6666665077 0.168194606900215204436932481258 -0.013596543110907079524030116602 -0.002746604382991791205165243994 0.000875589204952120780944824219 0 0 0 0 
2410833333.3333334923 0.167836517095565795898437500000 -0.015507067553699020040491873829 -0.002770871855318545861485146631 0.000876225880347192287445068359 0 0 0 0 
2411000000.0000000000 0.167450085282325689117755018742 -0.017512228339910510671595389454 -0.002788156736642121834995888818 0.000855050573591142892837524414 0 0 0 0 
2411166666.6666665077 0.167190700769424410720986884371 -0.019426533952355388296107108204 -0.002765043871477245850803994287 0.000740373507142066955566406250 0 0 0 0 
2411333333.3333334923 0.167126134037971496582031250000 -0.021530320867896080017089843750 -0.002843635622411965890171670068 0.000860189844388514757156372070 0 0 0 0 
2411500000.0000000000 0.166902288794517489334268134371 -0.023865006864070888864537423046 -0.002838304266333580017089843750 0.001120111555792391083360981519 0 0 0 0 
2411666666.6666665077 0.166865929961204501053018134371 -0.025712804868817329406738281250 -0.002814743435010313987731933594 0.001026689773425460078595805591 0 0 0 0 
2411833333.3333334923 0.167135760188102694412393134371 -0.027759205549955371511439139454 -0.002944046631455421014073037256 0.000963892089203000068664550781 0 0 0 0 
2412000000.0000000000 0.167266339063644409179687500000 -0.029736666008830070495605468750 -0.002871329430490732192993164062 0.001036535832099616961238242041 0 0 0 0 
2412166666.6666665077 0.167287901043891906738281250000 -0.031903028488159179687500000000 -0.002851102733984590010402060400 0.001084938645362854003906250000 0 0 0 0 
2412333333.3333334923 0.167874619364738492111044365629 -0.033635027706623077392578125000 -0.002923266030848025841953896631 0.001185735105536877892137836987 0 0 0 0 
2412500000.0000000000 0.167984083294868496993856865629 -0.035674747079610831523854841407 -0.002979281591251492933986044775 0.001109597273170948028564453125 0 0 0 0 
2412666666.6666665077 0.168665826320648193359375000000 -0.037559282034635536884348283593 -0.003009201260283588929417275537 0.001236818148754537105560302734 0 0 0 0 
2412833333.3333334923 0.168959856033325195312500000000 -0.039417512714862816547434221093 -0.003159023588523269133326865088 0.001507268520072102980372763525 0 0 0 0 
2413000000.0000000000 0.169515207409858703613281250000 -0.041120849549770362163503278907 -0.002983401296660304069519042969 0.001471669180318712971330952222 0 0 0 0 
2413166666.6666665077 0.170194536447524996658486884371 -0.042718898504972457885742187500 -0.002967520384117960929870605469 0.001710269949398935057996440356 0 0 0 0 
2413333333.3333334923 0.170641854405403109451455634371 -0.044447924941778182983398437500 -0.003121476154774426980259560693 0.001598324743099511103389120947 0 0 0 0 
2413500000.0000000000 0.171346843242645291427450615629 -0.046025399118661880493164062500 -0.003155560931190847916844033350 0.001774917123839258930803608472 0 0 0 0 
2413666666.6666665077 0.171943038702011108398437500000 -0.047661744058132171630859375000 -0.003225625259801744981053017725 0.001836704905144870064379047925 0 0 0 0 
2413833333.3333334923 0.172739014029502896407919365629 -0.048987779766321182250976562500 -0.003185053588822484016418457031 0.002081160899251699013950966943 0 0 0 0 
2414000000.0000000000 0.173190191388130187988281250000 -0.050281994044780731201171875000 -0.003249131143093109130859375000 0.002116941148415207862854003906 0 0 0 0 
2414166666.6666665077 0.173827677965164212325888115629 -0.051551748067140579223632812500 -0.003297573886811732812168740381 0.002275078324601054191589355469 0 0 0 0 
2414333333.3333334923 0.174513146281242398361044365629 -0.052599985152482993389089216407 -0.003265944076701999144313193213 0.002455237321555614905116415869 0 0 0 0 
2414500000.0000000000 0.175282418727874811370526231258 -0.053586725145578377460520158593 -0.003204709151759744124171591650 0.002421984216198325157165527344 0 0 0 0 
2414666666.6666665077 0.175857722759246798416299384371 -0.054419565945863716815988908593 -0.003217375604435801939723349463 0.002650196431204677061793661963 0 0 0 0 
2414833333.3333334923 0.176424264907836886306924384371 -0.055367425084114081645925153907 -0.003307610051706432862522744287 0.002728379564359784126281738281 0 0 0 0 
2415000000.0000000000 0.176881924271583612640057481258 -0.056079026311635971069335937500 -0.003108209697529674010035849463 0.002960865385830401940586709131 0 0 0 0 
2415166666.6666665077 0.177425846457481412032919365629 -0.056682676076889038085937500000 -0.003059518523514271216151572119 0.003136156359687447981593466650 0 0 0 0 
2415333333.3333334923 0.177641153335571289062500000000 -0.057347774505615227436106096093 -0.003176268190145492987391806494 0.003260093741118907928466796875 0 0 0 0 
2415500000.0000000000 0.178070023655891390701455634371 -0.057725131511688232421875000000 -0.002867066534236073927638388525 0.003293494693934917016270302881 0 0 0 0 
2415666666.6666665077 0.178289324045181302169638115629 -0.058026798069477081298828125000 -0.002822371199727057976963662256 0.003570593427866696877720498193 0 0 0 0 
2415833333.3333334923 0.178577989339828491210937500000 -0.058483213186264038085937500000 -0.002732082735747098922729492188 0.003524041268974543051478720557 0 0 0 0 
2416000000.0000000000 0.178573951125144986251669365629 -0.058606516569852828979492187500 -0.002675943076610565185546875000 0.003748806426301598982570029150 0 0 0 0 
2416166666.6666665077 0.178784027695655794998330634371 -0.058929894119501106952707658593 -0.002488653408363461928126669775 0.003971384372562170028686523438 0 0 0 0 
2416333333.3333334923 0.178566098213195800781250000000 -0.059152211993932717060129533593 -0.002476148772984743118286132812 0.004055945202708244323730468750 0 0 0 0 
2416500000.0000000000 0.178349107503890991210937500000 -0.059240899980068206787109375000 -0.002193083288148045973536826025 0.004150226246565580368041992188 0 0 0 0 
2416666666.6666665077 0.178077235817909212967080634371 -0.059371437877416610717773437500 -0.002201765542849897904637002100 0.004200499039143323898315429688 0 0 0 0 
2416833333.3333334923 0.177912369370460510253906250000 -0.059602227061986923217773437500 -0.002038445323705672784092568506 0.004407399799674749374389648438 0 0 0 0 
2417000000.0000000000 0.177208885550498990157919365629 -0.059661395847797386859934221093 -0.001716888626106082959416054834 0.004451750312000513076782226562 0 0 0 0 
2417166666.6666665077 0.176623433828353909591513115629 -0.059720616787672042846679687500 -0.001726083573885262012481689453 0.004523303825408220291137695312 0 0 0 0 
2417333333.3333334923 0.176124915480613708496093750000 -0.059862691909074783325195312500 -0.001549694687128067016601562500 0.004711409565061330795288085938 0 0 0 0 
2417500000.0000000000 0.175213277339935302734375000000 -0.060072250664234161376953125000 -0.001478502992540597915649414062 0.004721537232398986816406250000 0 0 0 0 
2417666666.6666665077 0.174587056040763910491619981258 -0.060237839818000793457031250000 -0.001191979041323065974591899341 0.004955335054546594619750976562 0 0 0 0 
2417833333.3333334923 0.173584207892417907714843750000 -0.060435544699430472637136091407 -0.001113407663069664998295449365 0.004710606765002012252807617188 0 0 0 0 
2418000000.0000000000 0.172503322362899808029013115629 -0.060834635049104690551757812500 -0.000888926093466579914093017578 0.004903408233076333999633789062 0 0 0 0 
2418166666.6666665077 0.171451970934867886642294365629 -0.060899753123521811748464216407 -0.000690864981152117252349853516 0.004847593139857053756713867188 0 0 0 0 
2418333333.3333334923 0.170635819435119601150674384371 -0.061350803822278983379323591407 -0.000706356426235288381576538086 0.004901728127151727676391601562 0 0 0 0 
2418500000.0000000000 0.169303372502326993087606865629 -0.061779737472534179687500000000 -0.000595282181166112422943115234 0.004807963036000728607177734375 0 0 0 0 
2418666666.6666665077 0.168192684650421087066973768742 -0.062455717474222183227539062500 -0.000511050748173147439956665039 0.004930443596094846725463867188 0 0 0 0 
2418833333.3333334923 0.166788175702095003982705634371 -0.062879115343093872070312500000 -0.000251004326855763792991638184 0.004872597288340330123901367188 0 0 0 0 
2419000000.0000000000 0.165505513548851013183593750000 -0.063540361821651458740234375000 -0.000081125021097250282764434814 0.004918895196169614791870117188 0 0 0 0 
2419166666.6666665077 0.164236724376678494552450615629 -0.064369127154350280761718750000 -0.000000624520168912567896768451 0.004956409335136413574218750000 0 0 0 0 
2419333333.3333334923 0.162816703319549588302450615629 -0.065076492726802825927734375000 0.000136137867229990688249310904 0.004984478931874036788940429688 0 0 0 0 
2419500000.0000000000 0.161596894264221191406250000000 -0.066083341836929321289062500000 0.000248537224251776879459935321 0.004896241705864667892456054688 0 0 0 0 
2419666666.6666665077 0.160545065999031094650106865629 -0.067171126604080200195312500000 0.000518304237630218267440795898 0.004972983151674270629882812500 0 0 0 0 
2419833333.3333334923 0.159264326095581110198651231258 -0.068051286041736602783203125000 0.000519428984262049198150634766 0.004900832194834947586059570312 0 0 0 0 
