# Hz S RI R 
2400000000.0000000000 0.173131108283996609786825615629 0.048679057508707053447682966407 0.004861431196331977844238281250 0.004109222907572984695434570312 0 0 0 0 
2400166666.6666665077 0.173541247844695989410723768742 0.048103190958499908447265625000 0.005142867565155029296875000000 0.004057357553392648696899414062 0 0 0 0 
2400333333.3333334923 0.173984438180923489669638115629 0.047457311302423477172851562500 0.005228671710938215255737304688 0.004034559242427349090576171875 0 0 0 0 
2400500000.0000000000 0.174516245722770690917968750000 0.046796254813671112060546875000 0.005444983486086130142211914062 0.003875954542309045791625976562 0 0 0 0 
2400666666.6666665077 0.174865394830703707595986884371 0.045913912355899810791015625000 0.005510079674422740936279296875 0.003994062077254056930541992188 0 0 0 0 
2400833333.3333334923 0.175304964184761102874432481258 0.045625213533639907836914062500 0.005761824082583189010620117188 0.003736136713996530012843466650 0 0 0 0 
2401000000.0000000000 0.175335168838501004318075615629 0.044821918010711669921875000000 0.006000827066600322723388671875 0.003644177457317709922790527344 0 0 0 0 
2401166666.6666665077 0.175669208168983487228231865629 0.044189874082803733135182966407 0.006075400393456220626831054688 0.003532791044563055038452148438 0 0 0 0 
2401333333.3333334923 0.175651386380195589920205634371 0.043547209352254867553710937500 0.006166184786707162857055664062 0.003361332928761839866638183594 0 0 0 0 
2401500000.0000000000 0.175985112786293002029580634371 0.042905952781438827514648437500 0.006608530413359403610229492188 0.003313793800771235985996865381 0 0 0 0 
2401666666.6666665077 0.175983086228370694259481865629 0.042427420616149902343750000000 0.006547727156430482864379882812 0.003149252850562334060668945312 0 0 0 0 
2401833333.3333334923 0.175809845328330993652343750000 0.041488278657197952270507812500 0.006765747908502817153930664062 0.002944593317806721167323447119 0 0 0 0 
2402000000.0000000000 0.175785988569259588043536268742 0.040760979056358337402343750000 0.006921182852238416671752929688 0.002759448019787669181823730469 0 0 0 0 
2402166666.6666665077 0.175509512424468994140625000000 0.039803937077522277832031250000 0.007053693290799856185913085938 0.002581950742751359939575195312 0 0 0 0 
2402333333.3333334923 0.175207003951072692871093750000 0.038935180753469467163085937500 0.007366901729255914688110351562 0.002424252219498157934901572119 0 0 0 0 
2402500000.0000000000 0.175324708223342895507812500000 0.037970528006553649902343750000 0.007507605012506246566772460938 0.002268963959068059921264648438 0 0 0 0 
2402666666.6666665077 0.175060272216796902755575615629 0.037030890583991997455637346093 0.007689358200877904891967773438 0.001935275387950241999385214697 0 0 0 0 
2402833333.3333334923 0.174752369523048400878906250000 0.035890784114599227905273437500 0.007874833419919013977050781250 0.001640153466723859093309711987 0 0 0 0 
2403000000.0000000000 0.174565061926841708084268134371 0.034678298979997641826589216407 0.007880230434238910675048828125 0.001464908942580223083496093750 0 0 0 0 
2403166666.6666665077 0.174044221639633206466513115629 0.033342380076646811748464216407 0.008189910091459751129150390625 0.001174259348772465965868305737 0 0 0 0 
2403333333.3333334923 0.173877000808715792556924384371 0.032006531953811652446706403907 0.008137283846735954284667968750 0.000948441564105451107025146484 0 0 0 0 
2403500000.0000000000 0.173337176442146301269531250000 0.030494695529341701162318045704 0.008410478010773658752441406250 0.000610227056313306093215942383 0 0 0 0 
2403666666.6666665077 0.173046797513961791992187500000 0.028940012678503990173339843750 0.008267862722277641296386718750 0.000328235240885987877845764160 0 0 0 0 
2403833333.3333334923 0.172762140631675692459268134371 0.027387991547584530221959298046 0.008647538721561431884765625000 -0.000111969544377643601454873357 0 0 0 0 
2404000000.0000000000 0.172503858804702786544638115629 0.025512335821986198425292968750 0.008570680394768714904785156250 -0.000368008506484329700469970703 0 0 0 0 
2404166666.6666665077 0.171949714422226007659588731258 0.023901667445898059499720389454 0.008538445457816123962402343750 -0.000857292907312512397766113281 0 0 0 0 
2404333333.3333334923 0.171800076961517306228799384371 0.022128025069832798349400704296 0.008617465384304523468017578125 -0.001044431584887206988093710791 0 0 0 0 
2404500000.0000000000 0.171169579029083307464276231258 0.020111899822950359689732735546 0.008536382578313350677490234375 -0.001495457021519541957257914966 0 0 0 0 
2404666666.6666665077 0.171026870608329800704794365629 0.018330058082938190805455391796 0.008523046970367431640625000000 -0.001839238684624433951136923682 0 0 0 0 
2404833333.3333334923 0.170791223645210293868856865629 0.016359113156795501708984375000 0.008380490355193614959716796875 -0.002032123040407896041870117188 0 0 0 0 
2405000000.0000000000 0.170642152428626986404580634371 0.014306423254311089951484881055 0.008330706506967544555664062500 -0.002475152956321835951564169775 0 0 0 0 
2405166666.6666665077 0.170567840337753295898437500000 0.012292449362576009577741054102 0.008359325118362903594970703125 -0.002835441846400498910191201318 0 0 0 0 
2405333333.3333334923 0.170528188347816495040731865629 0.010114437900483609980573085352 0.007993685081601142883300781250 -0.003168180352076888084411621094 0 0 0 0 
2405500000.0000000000 0.170518130064010592361611884371 0.008298016153275966644287109375 0.008011144585907459259033203125 -0.003330797189846634864807128906 0 0 0 0 
2405666666.6666665077 0.170733273029327392578125000000 0.006134276278316974639892578125 0.007787951733916997909545898438 -0.003457246115431189970729208838 0 0 0 0 
2405833333.3333334923 0.170642033219337491134481865629 0.004231075756251811981201171875 0.007620976772159337997436523438 -0.003910711500793694582467363574 0 0 0 0 
2406000000.0000000000 0.171001359820365905761718750000 0.002036974066868423981907509912 0.007273020688444375991821289062 -0.004091227892786264419555664062 0 0 0 0 
2406166666.6666665077 0.171156689524650601486044365629 0.000132953209686093005255022592 0.007261928170919418334960937500 -0.004326635506004095077514648438 0 0 0 0 
2406333333.3333334923 0.171760156750678988357705634371 -0.001992095960304141044616699219 0.007039287127554416656494140625 -0.004508328158408403396606445312 0 0 0 0 
2406500000.0000000000 0.171987980604171808440838731258 -0.004037343431264162063598632812 0.006800971459597349166870117188 -0.004769938066601753234863281250 0 0 0 0 
2406666666.6666665077 0.172349676489829989334268134371 -0.005929343402385711669921875000 0.006614814512431622418875409863 -0.005113833118230103579049394824 0 0 0 0 
2406833333.3333334923 0.173159182071685791015625000000 -0.008004731498658657073974609375 0.006618055514991283416748046875 -0.005108547862619161605834960938 0 0 0 0 
2407000000.0000000000 0.173738896846771212478799384371 -0.009873687289655208587646484375 0.006516820285469293594360351562 -0.005328725557774305343627929688 0 0 0 0 
2407166666.6666665077 0.174479052424430902679119981258 -0.011688066646456720179547694727 0.006289250683039426803588867188 -0.005564466118812561035156250000 0 0 0 0 
2407333333.3333334923 0.174842879176139803787393134371 -0.013712034560739990579625313671 0.006023538764566183090209960938 -0.005705793853849172592163085938 0 0 0 0 
2407500000.0000000000 0.175737008452415494064169365629 -0.015360052697360520798652849805 0.005848826374858617782592773438 -0.005895818583667278289794921875 0 0 0 0 
2407666666.6666665077 0.176598712801933288574218750000 -0.017100576311349868774414062500 0.005687874741852284345144941113 -0.005912586580961942672729492188 0 0 0 0 
2407833333.3333334923 0.177089765667915288727130018742 -0.018895270302891731262207031250 0.005390634294599294662475585938 -0.006255207583308219909667968750 0 0 0 0 
2408000000.0000000000 0.178023934364318903167401231258 -0.020663022994995120656946951954 0.005103873554617167386526777051 -0.006370063871145248413085937500 0 0 0 0 
2408166666.6666665077 0.178683146834373501876669365629 -0.022089183330535888671875000000 0.005038877483457326889038085938 -0.006686179433017969131469726562 0 0 0 0 
2408333333.3333334923 0.179454550147056607345419365629 -0.023571776226162910461425781250 0.004813043866306543350219726562 -0.006608098745346069335937500000 0 0 0 0 
2408500000.0000000000 0.180145934224128695388955634371 -0.025077164173126220703125000000 0.004602490458637475967407226562 -0.006709311157464981079101562500 0 0 0 0 
2408666666.6666665077 0.180691584944725008865518134371 -0.026482896879315379751185233204 0.004317951388657093048095703125 -0.006816427689045667648315429688 0 0 0 0 
2408833333.3333334923 0.181156903505325289627236884371 -0.027819272130727771413782889454 0.004205913282930850982666015625 -0.007005705498158931732177734375 0 0 0 0 
2409000000.0000000000 0.181533232331275912185830634371 -0.028782164677977558481236641796 0.003984444774687290191650390625 -0.007098199799656867980957031250 0 0 0 0 
2409166666.6666665077 0.182064831256866510589276231258 -0.029727762565016749990443045704 0.003934481181204319000244140625 -0.007287445943802595138549804688 0 0 0 0 
2409333333.3333334923 0.182601153850555392166299384371 -0.030693488195538520812988281250 0.003703942755237222151515341650 -0.007329411339014768600463867188 0 0 0 0 
2409500000.0000000000 0.182917416095733587066973768742 -0.031494136899709701538085937500 0.003515570657327771186828613281 -0.007513506803661584854125976562 0 0 0 0 
2409666666.6666665077 0.183048918843269403655682481258 -0.032251261174678802490234375000 0.003166944719851016998291015625 -0.007618596311658620834350585938 0 0 0 0 
2409833333.3333334923 0.183257758617401095291299384371 -0.032675065100193016742746721093 0.003169649746268988089320517432 -0.007693692110478878021240234375 0 0 0 0 
2410000000.0000000000 0.183708786964416503906250000000 -0.033216688781976699829101562500 0.003013947978615760803222656250 -0.007839124649763107299804687500 0 0 0 0 
2410166666.6666665077 0.183872550725936889648437500000 -0.033673390746116638183593750000 0.002735777525231242179870605469 -0.007919278927147388458251953125 0 0 0 0 
2410333333.3333334923 0.183908939361572293380575615629 -0.034002706408500671386718750000 0.002486356068402529196498251807 -0.008135264739394187927246093750 0 0 0 0 
2410500000.0000000000 0.183898448944091796875000000000 -0.034197252243757247924804687500 0.002214742824435234069824218750 -0.008463275618851184844970703125 0 0 0 0 
2410666666.6666665077 0.183879658579826410491619981258 -0.034911602735519409179687500000 0.002092406153678894042968750000 -0.008396851830184459686279296875 0 0 0 0 
2410833333.3333334923 0.183860123157501192947549384371 -0.035073507577180862426757812500 0.001726858550682663917541503906 -0.008814843371510505676269531250 0 0 0 0 
2411000000.0000000000 0.183728903532028198242187500000 -0.035491514950990676879882812500 0.001421047723852097988128662109 -0.008879541419446468353271484375 0 0 0 0 
2411166666.6666665077 0.183446675539016695877236884371 -0.035718049854040152812917341407 0.001093791215680540041682577979 -0.008915200829505920410156250000 0 0 0 0 
2411333333.3333334923 0.183109700679779108245526231258 -0.036015138030052191997487653907 0.000797437853179872035980224609 -0.009035065770149230957031250000 0 0 0 0 
2411500000.0000000000 0.182532355189323397537393134371 -0.036545883864164352416992187500 0.000524475821293890476226806641 -0.009134606458246707916259765625 0 0 0 0 
2411666666.6666665077 0.182198852300643893142861884371 -0.036919519305229187011718750000 0.000065675805672071874141693115 -0.009249066933989524841308593750 0 0 0 0 
2411833333.3333334923 0.181473150849342401702557481258 -0.037083875387907028198242187500 -0.000333200587192550301551818848 -0.009233124554157257080078125000 0 0 0 0 
2412000000.0000000000 0.180816084146499606033486884371 -0.037684272974729537963867187500 -0.000626379973255097866058349609 -0.009350514039397239685058593750 0 0 0 0 
2412166666.6666665077 0.179850682616233797928018134371 -0.038012541830539703369140625000 -0.000979557633399963378906250000 -0.009309853427112102508544921875 0 0 0 0 
2412333333.3333334923 0.179098471999168395996093750000 -0.038507513701915740966796875000 -0.001392005127854645035387348706 -0.009087196551263332366943359375 0 0 0 0 
2412500000.0000000000 0.177850946784019497970419365629 -0.039099346846342086791992187500 -0.001894114655442536094068217700 -0.009162195958197116851806640625 0 0 0 0 
2412666666.6666665077 0.176891535520553588867187500000 -0.039928339421749121929128278907 -0.002274602651596068902256631006 -0.009215788915753364562988281250 0 0 0 0 
2412833333.3333334923 0.175740912556648309905682481258 -0.040543064475059509277343750000 -0.002601379062980413003208779443 -0.008992411196231842041015625000 0 0 0 0 
2413000000.0000000000 0.174589455127716092208700615629 -0.041216585785150527954101562500 -0.002946284599602222008946084131 -0.008780904114246368408203125000 0 0 0 0 
2413166666.6666665077 0.173457652330398587325888115629 -0.042050424963235862041432966407 -0.003371054539456963972804404150 -0.008553094230592250823974609375 0 0 0 0 
2413333333.3333334923 0.172107145190239008147869981258 -0.043045114725828170776367187500 -0.003631575265899301008937216650 -0.008445572108030319213867187500 0 0 0 0 
2413500000.0000000000 0.170719444751739501953125000000 -0.044002428650856018066406250000 -0.003921195399016141891479492188 -0.008311724290251731872558593750 0 0 0 0 
2413666666.6666665077 0.169688552618026705642861884371 -0.045139331370592117309570312500 -0.004209630191326141357421875000 -0.008025000803172588348388671875 0 0 0 0 
2413833333.3333334923 0.168170735239982604980468750000 -0.046233519911766052246093750000 -0.004513177555054426193237304688 -0.007747561670839787396902753613 0 0 0 0 
2414000000.0000000000 0.166734158992767306228799384371 -0.047222118824720382690429687500 -0.004730594810098409652709960938 -0.007369221188127995404715253613 0 0 0 0 
2414166666.6666665077 0.165556743741035489181356865629 -0.048403702676296227191965471093 -0.005007432308048009872436523438 -0.007311294320970773696899414062 0 0 0 0 
2414333333.3333334923 0.164182618260383605957031250000 -0.049893405288457870483398437500 -0.005083621479570865631103515625 -0.007113866973668336868286132812 0 0 0 0 
2414500000.0000000000 0.163339450955390902420205634371 -0.051237553358078002929687500000 -0.005366662051528692245483398438 -0.006753590889275074005126953125 0 0 0 0 
2414666666.6666665077 0.162040188908576993087606865629 -0.052848007529973976825754533593 -0.005546845030039548873901367188 -0.006602438166737557324881269238 0 0 0 0 
2414833333.3333334923 0.160826370120048495193643134371 -0.054405227303504936908762346093 -0.005672901868820190429687500000 -0.006417579948902130126953125000 0 0 0 0 
2415000000.0000000000 0.159795060753822298904580634371 -0.056182496249675750732421875000 -0.005981918424367904663085937500 -0.006113578099757432937622070312 0 0 0 0 
2415166666.6666665077 0.158712953329086303710937500000 -0.057824127376079559326171875000 -0.006135871633887290954589843750 -0.005872501060366631421560956738 0 0 0 0 
2415333333.3333334923 0.157969981431961087325888115629 -0.059661924839019782329518903907 -0.006172240711748600006103515625 -0.005527936853468418121337890625 0 0 0 0 
2415500000.0000000000 0.157110750675201388260049384371 -0.061350893229246139526367187500 -0.006416011601686477661132812500 -0.005135321523994207382202148438 0 0 0 0 
2415666666.6666665077 0.156258940696716308593750000000 -0.063226126134395599365234375000 -0.006521922070533037185668945312 -0.004940787330269814404959394238 0 0 0 0 
2415833333.3333334923 0.155588805675506591796875000000 -0.065241388976573944091796875000 -0.006552122067660093307495117188 -0.004873652476817370328421308301 0 0 0 0 
2416000000.0000000000 0.154769614338874789138955634371 -0.067110687494277954101562500000 -0.006600703112781047821044921875 -0.004494594410061836242675781250 0 0 0 0 
2416166666.6666665077 0.154443606734275790115518134371 -0.069014094769954681396484375000 -0.006759754847735167417044355176 -0.004295208025723695755004882812 0 0 0 0 
2416333333.3333334923 0.153816208243370111663494981258 -0.070957645773887634277343750000 -0.006842190865427255630493164062 -0.003932806197553873062133789062 0 0 0 0 
2416500000.0000000000 0.153348878026008605957031250000 -0.073024012148380279541015625000 -0.006836900021880865097045898438 -0.003782233921810985045192099463 0 0 0 0 
2416666666.6666665077 0.152835845947265597244424384371 -0.074977770447731018066406250000 -0.007056912407279014587402343750 -0.003661102149635552926304482568 0 0 0 0 
2416833333.3333334923 0.152557045221328707595986884371 -0.076954826712608337402343750000 -0.006844148971140384674072265625 -0.003226350992918014960048056494 0 0 0 0 
2417000000.0000000000 0.152126312255859402755575615629 -0.078848801553249359130859375000 -0.007012354675680398941040039062 -0.003053451422601937813999795068 0 0 0 0 
2417166666.6666665077 0.151917845010757501800213731258 -0.080683588981628417968750000000 -0.006906266324222087860107421875 -0.002646599663421512083766318213 0 0 0 0 
2417333333.3333334923 0.151824474334716796875000000000 -0.082429416477680206298828125000 -0.007072851527482271194458007812 -0.002508997218683362007141113281 0 0 0 0 
2417500000.0000000000 0.151522010564804104904013115629 -0.084204144775867462158203125000 -0.007036761846393346786499023438 -0.002212694147601724104640341650 0 0 0 0 
2417666666.6666665077 0.151715233922004699707031250000 -0.085753761231899261474609375000 -0.007020668592303991317749023438 -0.002135497750714420838596963037 0 0 0 0 
2417833333.3333334923 0.151547983288765009124432481258 -0.087280616164207458496093750000 -0.007010977249592542648315429688 -0.001998933963477611975428915869 0 0 0 0 
2418000000.0000000000 0.151552885770797701736611884371 -0.088928498327732086181640625000 -0.007191473152488470077514648438 -0.001545746461488306956050253760 0 0 0 0 
2418166666.6666665077 0.151675805449485806564169365629 -0.089992046356201171875000000000 -0.007038146723061800003051757812 -0.001459493651054799990413046729 0 0 0 0 
2418333333.3333334923 0.151910737156868008712606865629 -0.091383345425128936767578125000 -0.007072947919368743896484375000 -0.001197977107949554920196533203 0 0 0 0 
2418500000.0000000000 0.152091935276985196212606865629 -0.092650882899761199951171875000 -0.007047702092677354812622070312 -0.000924667110666632652282714844 0 0 0 0 
2418666666.6666665077 0.152143701910972595214843750000 -0.093523733317852020263671875000 -0.007106828503310680389404296875 -0.000722306198440492153167724609 0 0 0 0 
2418833333.3333334923 0.152322202920913696289062500000 -0.094530880451202392578125000000 -0.007041653618216514587402343750 -0.000344114174367860013812464581 0 0 0 0 
2419000000.0000000000 0.152437746524810791015625000000 -0.095364257693290710449218750000 -0.006952299270778894424438476562 -0.000193844083696603802129468375 0 0 0 0 
2419166666.6666665077 0.152628853917121887207031250000 -0.096078909933567047119140625000 -0.006874155253171920776367187500 0.000064778592786751687526702881 0 0 0 0 
2419333333.3333334923 0.152811139822006197830361884371 -0.096380971372127532958984375000 -0.006931416224688292417044355176 0.000372155773220583796501159668 0 0 0 0 
2419500000.0000000000 0.153099000453949002364950615629 -0.096997730433940887451171875000 -0.006775408051908016204833984375 0.000681868172250688076019287109 0 0 0 0 
2419666666.6666665077 0.153228148818016107757244981258 -0.097272150218486785888671875000 -0.006721413694322109222412109375 0.000723440956790000200271606445 0 0 0 0 
2419833333.3333334923 0.153494089841842706878338731258 -0.097495064139366149902343750000 -0.006465417798608542356009198926 0.001070287660695611996891640771 0 0 0 0 
