# Hz S RI R 
2400000000.0000000000 0.154642894864082308670205634371 0.106621347367763505409321567186 0.000312894844682887196540832520 -0.005202085711061955365652753613 0 0 0 0 
2400166666.6666665077 0.154345348477363586425781250000 0.104370228946208995490785298443 0.000121697194117587100393833299 -0.005013087298721075057983398438 0 0 0 0 
2400333333.3333334923 0.154358461499214200118856865629 0.101954109966754899452290317186 0.000227517259190790409415644513 -0.004924775101244449615478515625 0 0 0 0 
2400500000.0000000000 0.154310762882232693771200615629 0.099239349365234375000000000000 0.000146093574585393098279675894 -0.005003288388252258300781250000 0 0 0 0 
2400666666.6666665077 0.154331609606742886642294365629 0.096825584769248962402343750000 0.000138734409119933789402562274 -0.004971635527908802032470703125 0 0 0 0 
2400833333.3333334923 0.154380187392234802246093750000 0.093962945044040679931640625000 0.000120306300232186899937768254 -0.004991108085960149765014648438 0 0 0 0 
2401000000.0000000000 0.154590204358100891113281250000 0.091179117560386657714843750000 0.000057797202316578477621078491 -0.004917809274047613143920898438 0 0 0 0 
2401166666.6666665077 0.155052363872528103927450615629 0.088626421988010406494140625000 0.000418700656155124306678771973 -0.004958252888172864913940429688 0 0 0 0 
2401333333.3333334923 0.155098855495452908614950615629 0.085375331342220306396484375000 0.000068116802140139043331146240 -0.005083480384200811386108398438 0 0 0 0 
2401500000.0000000000 0.155588254332542391678018134371 0.082890212535858154296875000000 0.000023714699636911969969068834 -0.004826361313462257385253906250 0 0 0 0 
2401666666.6666665077 0.156020119786262512207031250000 0.080245979130268096923828125000 -0.000002427549588901456021939078 -0.005181881599128246307373046875 0 0 0 0 
2401833333.3333334923 0.156688213348388699630575615629 0.077212244272232055664062500000 0.000022537738914252258837223053 -0.005226945038884878158569335938 0 0 0 0 
2402000000.0000000000 0.157662838697433499435263115629 0.074593700468540191650390625000 -0.000069088564487174153327941895 -0.005372384097427129745483398438 0 0 0 0 
2402166666.6666665077 0.158359631896019009689169365629 0.072240702807903289794921875000 -0.000041316052374895662069320679 -0.005395594984292984008789062500 0 0 0 0 
2402333333.3333334923 0.159226417541503906250000000000 0.069492995738983154296875000000 -0.000393218186218291521072387695 -0.005337893031537532806396484375 0 0 0 0 
2402500000.0000000000 0.160750865936279296875000000000 0.066759407520294189453125000000 -0.000255180173553526401519775391 -0.005530851427465677261352539062 0 0 0 0 
2402666666.6666665077 0.161683753132820101638955634371 0.064814455807209014892578125000 -0.000694905233103781938552856445 -0.005612905137240886688232421875 0 0 0 0 
2402833333.3333334923 0.162822932004928588867187500000 0.062137436121702187274973283593 -0.000980048673227429389953613281 -0.005555459298193454742431640625 0 0 0 0 
2403000000.0000000000 0.164575755596160888671875000000 0.059702295809984207153320312500 -0.001081833732314408042310405200 -0.005719704087823629379272460938 0 0 0 0 
2403166666.6666665077 0.166254535317420987228231865629 0.057650230824947357177734375000 -0.001264923135749995925306010669 -0.005599347408860921859741210938 0 0 0 0 
2403333333.3333334923 0.167752891778945895095986884371 0.055354390293359763408620466407 -0.001585181453265249945996928638 -0.005419787950813770294189453125 0 0 0 0 
2403500000.0000000000 0.169442549347877502441406250000 0.053177542984485633159597028907 -0.001684661838226019902470254053 -0.005469127092510461807250976562 0 0 0 0 
2403666666.6666665077 0.171273007988929804046307481258 0.051333408802747733379323591407 -0.002002883469685912132263183594 -0.005524100270122289657592773438 0 0 0 0 
2403833333.3333334923 0.173042178153991699218750000000 0.049595043063163757324218750000 -0.002134246518835424943211220850 -0.005335962399840354919433593750 0 0 0 0 
2404000000.0000000000 0.174688532948494013030682481258 0.047873672097921371459960937500 -0.002181175164878367944004677881 -0.005145352799445390701293945312 0 0 0 0 
2404166666.6666665077 0.176409140229225186446981865629 0.046300239861011512065847028907 -0.002162169897928833961486816406 -0.004948259331285954389090253613 0 0 0 0 
2404333333.3333334923 0.178048595786094693282919365629 0.044851001352071762084960937500 -0.002514204708859324888942099463 -0.004911125637590885162353515625 0 0 0 0 
2404500000.0000000000 0.179791867733001708984375000000 0.043457437306642532348632812500 -0.002529038116335868835449218750 -0.004804014228284358978271484375 0 0 0 0 
2404666666.6666665077 0.181260094046592712402343750000 0.042241327464580542827565778907 -0.002569924341514707045314169775 -0.004893289413303136825561523438 0 0 0 0 
2404833333.3333334923 0.182999923825264004806356865629 0.041206255555152893066406250000 -0.002590965013951063156127929688 -0.004906516522169113159179687500 0 0 0 0 
2405000000.0000000000 0.184203073382377596756143134371 0.040622182190418243408203125000 -0.002725182333961129188537597656 -0.004722128156572580337524414062 0 0 0 0 
2405166666.6666665077 0.185810267925262506683026231258 0.039987687021493911743164062500 -0.002675764495506883101222372900 -0.004705878440290690335745527051 0 0 0 0 
2405333333.3333334923 0.187302827835083007812500000000 0.039317954331636428833007812500 -0.002950784750282764001133584131 -0.004781228024512529373168945312 0 0 0 0 
2405500000.0000000000 0.188443139195442199707031250000 0.038869027048349380493164062500 -0.003142543137073516845703125000 -0.004500304814428091049194335938 0 0 0 0 
2405666666.6666665077 0.189836651086807306487713731258 0.038538664579391479492187500000 -0.003282362362369894981384277344 -0.004635406192392110824584960938 0 0 0 0 
2405833333.3333334923 0.191140934824943486969317518742 0.038135692477226257324218750000 -0.003590096719563006921055459131 -0.004535038024187088012695312500 0 0 0 0 
2406000000.0000000000 0.192087575793266296386718750000 0.037987027317285537719726562500 -0.003745982889086008071899414062 -0.004432617686688899993896484375 0 0 0 0 
2406166666.6666665077 0.193020194768905611892861884371 0.037879157811403281475026716407 -0.003760769031941891150233603369 -0.004155741538852453231811523438 0 0 0 0 
2406333333.3333334923 0.193981915712356595138388115629 0.037901885807514190673828125000 -0.003840279765427113013026572119 -0.004222284071147441864013671875 0 0 0 0 
2406500000.0000000000 0.194711640477180508712606865629 0.037852376699447631835937500000 -0.004111060872673988342285156250 -0.003774075303226708932163857568 0 0 0 0 
2406666666.6666665077 0.195354148745536804199218750000 0.037978302687406539916992187500 -0.004127916414290666580200195312 -0.003775949357077478928806923975 0 0 0 0 
2406833333.3333334923 0.195676147937774713714276231258 0.037998449057340621948242187500 -0.004264841321855784329886152051 -0.003528801957145332856419228662 0 0 0 0 
2407000000.0000000000 0.196092724800109891036825615629 0.038135610520839691162109375000 -0.004141229670494794845581054688 -0.003458569757640361785888671875 0 0 0 0 
2407166666.6666665077 0.196431025862693786621093750000 0.037896174937486648559570312500 -0.004316244274377822875976562500 -0.003197956131771206855773925781 0 0 0 0 
2407333333.3333334923 0.196265652775764493087606865629 0.038060847669839859008789062500 -0.004352089948952198028564453125 -0.003164137015119194984436035156 0 0 0 0 
2407500000.0000000000 0.196201160550117492675781250000 0.038107968866825096820871721093 -0.004279063083231449127197265625 -0.002941474784165620803833007812 0 0 0 0 
2407666666.6666665077 0.196221098303794888595419365629 0.038075763732194900512695312500 -0.004414996597915887832641601562 -0.002842980669811367988586425781 0 0 0 0 
2407833333.3333334923 0.195721402764320401290731865629 0.037772975862026221538503278907 -0.004450716543942689895629882812 -0.002791264560073614120483398438 0 0 0 0 
2408000000.0000000000 0.195655122399330111404580634371 0.037775598466396331787109375000 -0.004270923789590597152709960938 -0.002790082711726427078247070312 0 0 0 0 
2408166666.6666665077 0.195005863904953002929687500000 0.037470236420631408691406250000 -0.004362646490335465344900800488 -0.002540912013500928878784179688 0 0 0 0 
2408333333.3333334923 0.194574028253555297851562500000 0.036907732486724846576731096093 -0.004419213626533746719360351562 -0.002449487568810582160949707031 0 0 0 0 
2408500000.0000000000 0.193880602717399597167968750000 0.036546595394611358642578125000 -0.004365485161542893323416425488 -0.002439392963424324989318847656 0 0 0 0 
2408666666.6666665077 0.193185001611709594726562500000 0.036040984094142906879465471093 -0.004335815086960793408865644238 -0.002496742410585283799412392725 0 0 0 0 
2408833333.3333334923 0.192501530051231412032919365629 0.035357099026441567157785783593 -0.004362519364804030332083417676 -0.002478213980793952941894531250 0 0 0 0 
2409000000.0000000000 0.191455453634262112716513115629 0.034311834722757339477539062500 -0.004492993932217360410208417676 -0.002243139781057835058925009619 0 0 0 0 
2409166666.6666665077 0.190598607063293512542401231258 0.033527370542287826538085937500 -0.004541967064142227172851562500 -0.002203843556344509124755859375 0 0 0 0 
2409333333.3333334923 0.189635425806045504470986884371 0.032315671443939208984375000000 -0.004500316921621561050415039062 -0.002200747374445199966430664062 0 0 0 0 
2409500000.0000000000 0.188444152474403409103231865629 0.031062845140695568429967110546 -0.004626759793609380722045898438 -0.002162298653274774985072470557 0 0 0 0 
2409666666.6666665077 0.187454059720039395431356865629 0.029743384569883350027064139454 -0.004708864260464906692504882812 -0.002179716015234590010402060400 0 0 0 0 
2409833333.3333334923 0.186373457312583895584268134371 0.028238687664270401000976562500 -0.004701109603047370910644531250 -0.002251211088150740103480673682 0 0 0 0 
2410000000.0000000000 0.185594052076339693924111884371 0.026698168367147449148157889454 -0.004704973194748163223266601562 -0.002168445847928524017333984375 0 0 0 0 
2410166666.6666665077 0.184334903955459594726562500000 0.024784944951534271240234375000 -0.004957621451467275619506835938 -0.002097753575071692900416708838 0 0 0 0 
2410333333.3333334923 0.183671087026596097091513115629 0.022903621196746829641321951954 -0.005150953307747840881347656250 -0.002122176345437765121459960938 0 0 0 0 
2410500000.0000000000 0.182446479797363309005575615629 0.020929034799337390554407889454 -0.005098777357488870620727539062 -0.001996378181502223014831542969 0 0 0 0 
2410666666.6666665077 0.181706875562667902190838731258 0.018892515450716018676757812500 -0.005374032538384199142456054688 -0.001763332402333616993547749097 0 0 0 0 
2410833333.3333334923 0.181094840168952886383380018742 0.016658710315823558462122733204 -0.005257558077573776245117187500 -0.001741318963468075015424418872 0 0 0 0 
2411000000.0000000000 0.180219620466232299804687500000 0.014370504766702650242815586523 -0.005549554713070392608642578125 -0.001649496261961757919908833081 0 0 0 0 
2411166666.6666665077 0.179797619581222506424111884371 0.012239667586982250213623046875 -0.005559468176215887069702148438 -0.001352595281787217097041464697 0 0 0 0 
2411333333.3333334923 0.179190412163734408279580634371 0.009570875205099582672119140625 -0.005580285564064980420584394238 -0.001259329263120890097377158057 0 0 0 0 
2411500000.0000000000 0.178847447037696810623330634371 0.007394841406494379043579101562 -0.005770596209913492202758789062 -0.001199932303279638073564838940 0 0 0 0 
2411666666.6666665077 0.178658261895179804046307481258 0.004961516242474318418020917676 -0.005816450342535972595214843750 -0.001111868303269148089765239185 0 0 0 0 
2411833333.3333334923 0.178267329931259210784588731258 0.002559626707807182832005166162 -0.006011112593114376068115234375 -0.000954802730120718479156494141 0 0 0 0 
2412000000.0000000000 0.178390443325042696853799384371 0.000023394390154862779786790541 -0.005998842418193817138671875000 -0.000798895198386162519454956055 0 0 0 0 
2412166666.6666665077 0.178521975874900790115518134371 -0.002295780461281538009643554688 -0.006034160032868385314941406250 -0.000588237773627042770385742188 0 0 0 0 
2412333333.3333334923 0.178762167692184503753338731258 -0.004759173840284348401541425488 -0.006053686607629060745239257812 -0.000486986828036606311798095703 0 0 0 0 
2412500000.0000000000 0.179230019450187710861044365629 -0.007341057993471623334402753613 -0.006231850013136863708496093750 -0.000366057385690510272979736328 0 0 0 0 
2412666666.6666665077 0.179729342460632296463174384371 -0.009698108769953250885009765625 -0.006366684101521968841552734375 -0.000203564646653831005096435547 0 0 0 0 
2412833333.3333334923 0.180426523089408902267294365629 -0.012078019790351390838623046875 -0.006394271273165941238403320312 0.000049670401494950062852313383 0 0 0 0 
2413000000.0000000000 0.181166410446166992187500000000 -0.014512377791106699162493320898 -0.006547309923917055130004882812 0.000248181371716782504886072980 0 0 0 0 
2413166666.6666665077 0.181949540972709711272869981258 -0.016712438315153118478795235546 -0.006666463334113360318655683301 0.000377693184418603777885437012 0 0 0 0 
2413333333.3333334923 0.182955577969551086425781250000 -0.019023317843675609933873360546 -0.006783037446439266204833984375 0.000614620512351393699645996094 0 0 0 0 
2413500000.0000000000 0.183872401714325006683026231258 -0.021211048588156700134277343750 -0.006762826349586248397827148438 0.000918166944757103919982910156 0 0 0 0 
2413666666.6666665077 0.185108289122581509689169365629 -0.023427819833159450185755545704 -0.006942733656615018844604492188 0.001334575936198234991786337744 0 0 0 0 
2413833333.3333334923 0.186325624585151700118856865629 -0.025434568524360660207728201954 -0.006841629277914763364309980176 0.001513893599621952013728476416 0 0 0 0 
2414000000.0000000000 0.187369495630264309982138115629 -0.027369499206542968750000000000 -0.006723935250192880630493164062 0.002033338649198412895202636719 0 0 0 0 
2414166666.6666665077 0.188622877001762390136718750000 -0.029083462432026859628697579296 -0.006786054931581020355224609375 0.002346470486372708840611123193 0 0 0 0 
2414333333.3333334923 0.189664110541343688964843750000 -0.031098412349820140493372733204 -0.006759084295481443405151367188 0.002615760546177626089808798682 0 0 0 0 
2414500000.0000000000 0.190838083624839810470419365629 -0.032419510185718543315847028907 -0.006605266593396663665771484375 0.002904547844082117080688476562 0 0 0 0 
2414666666.6666665077 0.192066043615341186523437500000 -0.033991899341344833374023437500 -0.006435781717300415039062500000 0.003149050986394286155700683594 0 0 0 0 
2414833333.3333334923 0.193284109234809903243856865629 -0.035369019955396652221679687500 -0.006326710339635610580444335938 0.003385349176824092864990234375 0 0 0 0 
2415000000.0000000000 0.194359764456748990157919365629 -0.036604613065719597553293596093 -0.006074996665120124816894531250 0.003609485924243927001953125000 0 0 0 0 
2415166666.6666665077 0.195540323853492709060830634371 -0.037740889936685562133789062500 -0.006045526359230279922485351562 0.003821679856628179983851767432 0 0 0 0 
2415333333.3333334923 0.196690768003463800628338731258 -0.038685295730829238891601562500 -0.005817191675305367383475019238 0.004147275350987911224365234375 0 0 0 0 
2415500000.0000000000 0.197783827781677301604901231258 -0.039346754550933837890625000000 -0.005624090787023305892944335938 0.004310770891606807708740234375 0 0 0 0 
2415666666.6666665077 0.198739871382713290115518134371 -0.040219038724899291992187500000 -0.005429245531558991345877362988 0.004544434137642383575439453125 0 0 0 0 
2415833333.3333334923 0.199585899710655212402343750000 -0.040840614587068557739257812500 -0.005261601414531469345092773438 0.004855060018599033355712890625 0 0 0 0 
2416000000.0000000000 0.200369521975517300704794365629 -0.041358314454555511474609375000 -0.004937586840242146578316972949 0.004886264447122812271118164062 0 0 0 0 
2416166666.6666665077 0.201153561472892788986044365629 -0.041932508349418640136718750000 -0.004829922225326299667358398438 0.004988463595509529113769531250 0 0 0 0 
2416333333.3333334923 0.201791867613792391678018134371 -0.042273625731468200683593750000 -0.004536244086921215057373046875 0.005330533254891633987426757812 0 0 0 0 
2416500000.0000000000 0.202185437083244295974893134371 -0.042521584779024117206613908593 -0.004200962372124195098876953125 0.005512322764843702316284179688 0 0 0 0 
2416666666.6666665077 0.202467575669288607498330634371 -0.042813010513782501220703125000 -0.003821894526481627984287881006 0.005599029362201690673828125000 0 0 0 0 
2416833333.3333334923 0.202548697590827886383380018742 -0.042755935341119773174245466407 -0.003741594729945064024684286963 0.005675678607076407346243573926 0 0 0 0 
2417000000.0000000000 0.202709674835205105880575615629 -0.042926304042339331890065778907 -0.003254410345107316970825195312 0.005812098737806081771850585938 0 0 0 0 
2417166666.6666665077 0.202433958649635287185830634371 -0.042908295989036560058593750000 -0.002925174077972770170924521338 0.005815077107399702072143554688 0 0 0 0 
2417333333.3333334923 0.202236264944076510330361884371 -0.042671907693147659301757812500 -0.002749762730672955946681357275 0.005855811294168233871459960938 0 0 0 0 
2417500000.0000000000 0.201888263225555392166299384371 -0.042741168290376663208007812500 -0.002409758744761348204371786963 0.005664126481860876083374023438 0 0 0 0 
2417666666.6666665077 0.201305374503135708907919365629 -0.042546525597572326660156250000 -0.002171330386772751808166503906 0.005614050198346376419067382812 0 0 0 0 
2417833333.3333334923 0.200916901230812100509481865629 -0.042344357818365097045898437500 -0.002008399227634071870091103662 0.005454984027892351150512695312 0 0 0 0 
2418000000.0000000000 0.200140371918678311446981865629 -0.042199913412332541728932966407 -0.001856416114605963013292622144 0.005501793231815099716186523438 0 0 0 0 
2418166666.6666665077 0.199392482638359097579794365629 -0.042055428028106689453125000000 -0.001725484151393174908281635815 0.005329987965524196624755859375 0 0 0 0 
2418333333.3333334923 0.198479473590850802322549384371 -0.041949931532144553447682966407 -0.001577626098878682093379355322 0.005220169667154551419729902051 0 0 0 0 
2418500000.0000000000 0.197474688291549710372763115629 -0.041915148496627807617187500000 -0.001509047113358975107308412866 0.005141369067132472991943359375 0 0 0 0 
2418666666.6666665077 0.196386933326721191406250000000 -0.041957050561904907226562500000 -0.001254506292752922014949179541 0.005053414497524499893188476562 0 0 0 0 
2418833333.3333334923 0.195186659693718012054119981258 -0.041998606175184249877929687500 -0.001269991858862341100808168726 0.004986859858036041259765625000 0 0 0 0 
2419000000.0000000000 0.193905085325241088867187500000 -0.042239259928464889526367187500 -0.001121623325161636092542338794 0.004908954259008169174194335938 0 0 0 0 
2419166666.6666665077 0.192517668008804293533486884371 -0.042596168816089630126953125000 -0.001173302996903657913208007812 0.004974581766873598098754882812 0 0 0 0 
2419333333.3333334923 0.191124483942985506912393134371 -0.043102998286485671997070312500 -0.000887288013473153114318847656 0.004632202908396720886230468750 0 0 0 0 
2419500000.0000000000 0.189719215035438509842080634371 -0.043564669787883758544921875000 -0.001017956528812647082685161060 0.004811650607734918594360351562 0 0 0 0 
2419666666.6666665077 0.188039824366569491287393134371 -0.044178158044815056537668596093 -0.001019281102344393947004008716 0.004654328804463148117065429688 0 0 0 0 
2419833333.3333334923 0.186444744467735290527343750000 -0.044950295239686972881276716407 -0.000967277504969388246536254883 0.004575338214635848999023437500 0 0 0 0 
