# Version 1.00
#
freq[Hz];re:Trc1_S11;im:Trc1_S11;re:Trc2_S21;im:Trc2_S21;
2.400000000000000E+009;1.711407303810120E-001;3.994487598538399E-002;-2.336077624931932E-003;-2.473546192049980E-003;
2.400166666666667E+009;1.717499494552612E-001;3.950556367635727E-002;-2.480880590155721E-003;-2.598383696749806E-003;
2.400333333333334E+009;1.722985655069351E-001;3.872802481055260E-002;-2.747210208326578E-003;-2.514744177460671E-003;
2.400500000000000E+009;1.728380620479584E-001;3.828825801610947E-002;-3.036859678104520E-003;-2.322511980310082E-003;
2.400666666666667E+009;1.729136258363724E-001;3.763498738408089E-002;-3.184403758496046E-003;-2.218634355813265E-003;
2.400833333333334E+009;1.733395457267761E-001;3.706830367445946E-002;-3.360616276040673E-003;-2.060770289972425E-003;
2.401000000000000E+009;1.735561341047287E-001;3.658896684646606E-002;-3.526467829942703E-003;-1.820936333388090E-003;
2.401166666666667E+009;1.734059900045395E-001;3.570302948355675E-002;-3.578040981665254E-003;-1.646329648792744E-003;
2.401333333333334E+009;1.736378818750382E-001;3.511273488402367E-002;-3.733377205207944E-003;-1.301334705203772E-003;
2.401500000000000E+009;1.736212074756622E-001;3.456787019968033E-002;-3.851986024528742E-003;-1.207255991175771E-003;
2.401666666666667E+009;1.736527085304260E-001;3.382536023855209E-002;-4.078631754964590E-003;-9.271240560337901E-004;
2.401833333333334E+009;1.734178811311722E-001;3.314172476530075E-002;-3.966730087995529E-003;-8.083385182544589E-004;
2.402000000000000E+009;1.731154769659042E-001;3.251363709568977E-002;-3.869946347549558E-003;-4.260494897607714E-004;
2.402166666666667E+009;1.731522530317307E-001;3.149103745818138E-002;-3.930418752133846E-003;-1.444262743461877E-004;
2.402333333333334E+009;1.727014034986496E-001;3.074754215776920E-002;-3.989349119365215E-003;-1.291425860472373E-006;
2.402500000000000E+009;1.725519597530365E-001;2.989805303514004E-002;-3.874256741255522E-003;2.330880379304290E-004;
2.402666666666667E+009;1.722479760646820E-001;2.884131111204624E-002;-3.717412240803242E-003;2.460344112478197E-004;
2.402833333333334E+009;1.718602329492569E-001;2.799216099083424E-002;-3.714895574375987E-003;5.375774344429374E-004;
2.403000000000000E+009;1.715734302997589E-001;2.686380594968796E-002;-3.617939539253712E-003;5.500662955455482E-004;
2.403166666666667E+009;1.713821142911911E-001;2.572412788867950E-002;-3.591616405174136E-003;8.274615975096822E-004;
2.403333333333334E+009;1.708037555217743E-001;2.485620230436325E-002;-3.512871218845248E-003;1.049624639563263E-003;
2.403500000000000E+009;1.703781485557556E-001;2.331230975687504E-002;-3.454777644947171E-003;1.109881559386849E-003;
2.403666666666667E+009;1.700914353132248E-001;2.180501818656921E-002;-3.510993672534823E-003;1.280288212001324E-003;
2.403833333333334E+009;1.699236631393433E-001;2.052247524261475E-002;-3.302462399005890E-003;1.292647677473724E-003;
2.404000000000000E+009;1.696468144655228E-001;1.921848207712174E-002;-3.149904543533921E-003;1.509660505689681E-003;
2.404166666666667E+009;1.692186743021011E-001;1.764231175184250E-002;-3.202073276042938E-003;1.692817197181284E-003;
2.404333333333334E+009;1.690180450677872E-001;1.612395979464054E-002;-3.042398486286402E-003;1.702147186733782E-003;
2.404500000000000E+009;1.685794591903687E-001;1.447209529578686E-002;-3.014381276443601E-003;1.785615459084511E-003;
2.404666666666667E+009;1.685688048601151E-001;1.293202675879002E-002;-2.823508810251951E-003;2.003911416977644E-003;
2.404833333333334E+009;1.682802140712738E-001;1.107130013406277E-002;-2.613548189401627E-003;2.057704143226147E-003;
2.405000000000000E+009;1.683595180511475E-001;9.435488842427731E-003;-2.640547696501017E-003;2.190277446061373E-003;
2.405166666666667E+009;1.680843532085419E-001;7.564326748251915E-003;-2.482863608747721E-003;2.209596103057265E-003;
2.405333333333334E+009;1.681848913431168E-001;5.729085300117731E-003;-2.262682886794210E-003;2.203944837674499E-003;
2.405500000000000E+009;1.680239886045456E-001;4.034806974232197E-003;-2.155544236302376E-003;2.199712907895446E-003;
2.405666666666667E+009;1.680512428283691E-001;2.075709635391831E-003;-2.105799270793796E-003;2.309377072378993E-003;
2.405833333333334E+009;1.678986251354218E-001;2.409578446531668E-004;-1.756849698722363E-003;1.999466214329004E-003;
2.406000000000000E+009;1.679428964853287E-001;-1.684798626229167E-003;-1.869014697149396E-003;2.214945852756500E-003;
2.406166666666667E+009;1.677077412605286E-001;-3.301820019260049E-003;-1.934586092829704E-003;2.002964029088616E-003;
2.406333333333334E+009;1.678754091262817E-001;-5.326778627932072E-003;-1.884411787614226E-003;2.095644129440188E-003;
2.406500000000000E+009;1.679839193820953E-001;-7.004332728683949E-003;-1.820551813580096E-003;2.125928178429604E-003;
2.406666666666667E+009;1.677528917789459E-001;-8.765837177634239E-003;-1.697125146165490E-003;2.184456912800670E-003;
2.406833333333334E+009;1.679529696702957E-001;-1.047061569988728E-002;-1.656397245824337E-003;2.210201695561409E-003;
2.407000000000000E+009;1.679605841636658E-001;-1.206911448389292E-002;-1.668905024416745E-003;2.170733176171780E-003;
2.407166666666667E+009;1.680643707513809E-001;-1.368366461247206E-002;-1.593169174157083E-003;2.440635347738862E-003;
2.407333333333334E+009;1.680815815925598E-001;-1.517845038324595E-002;-1.662091584876180E-003;2.444871934130788E-003;
2.407500000000000E+009;1.680206209421158E-001;-1.649015955626965E-002;-1.576324808411300E-003;2.599637489765883E-003;
2.407666666666667E+009;1.681987047195435E-001;-1.782703027129173E-002;-1.422075671143830E-003;2.704344224184752E-003;
2.407833333333334E+009;1.681544333696365E-001;-1.922527514398098E-002;-1.289385487325490E-003;2.698295749723911E-003;
2.408000000000000E+009;1.681627482175827E-001;-2.034816332161427E-002;-1.237010583281517E-003;2.796824323013425E-003;
2.408166666666667E+009;1.685282289981842E-001;-2.122141420841217E-002;-1.150845899246633E-003;2.786153461784124E-003;
2.408333333333334E+009;1.688543260097504E-001;-2.206924743950367E-002;-8.209009538404644E-004;2.895184792578220E-003;
2.408500000000000E+009;1.689435243606567E-001;-2.298976480960846E-002;-6.658561760559678E-004;2.798107219859958E-003;
2.408666666666667E+009;1.691972613334656E-001;-2.393825165927410E-002;-7.000130135565996E-004;2.933867042884231E-003;
2.408833333333334E+009;1.695516854524612E-001;-2.462369017302990E-002;-3.812302020378411E-004;2.841979032382369E-003;
2.409000000000000E+009;1.697849333286285E-001;-2.526783011853695E-002;-3.835350216832012E-004;2.778299618512392E-003;
2.409166666666667E+009;1.702039986848831E-001;-2.606364898383617E-002;-3.814211231656373E-004;2.895976649597287E-003;
2.409333333333334E+009;1.706230044364929E-001;-2.687932737171650E-002;-1.519902289146558E-004;2.657965058460832E-003;
2.409500000000000E+009;1.708314120769501E-001;-2.763219922780991E-002;-2.380857331445441E-004;2.595753176137805E-003;
2.409666666666667E+009;1.711491942405701E-001;-2.829576283693314E-002;-5.541925565921702E-005;2.573241479694843E-003;
2.409833333333334E+009;1.712600439786911E-001;-2.886275760829449E-002;1.371682592434809E-004;2.582258777692914E-003;
2.410000000000000E+009;1.715843081474304E-001;-2.962972223758698E-002;7.066714897518978E-005;2.486483426764607E-003;
2.410166666666667E+009;1.718163192272186E-001;-3.017466701567173E-002;2.832527752616443E-005;2.508680336177349E-003;
2.410333333333334E+009;1.717715412378311E-001;-3.091291338205338E-002;9.502073226030916E-005;2.408909378573299E-003;
2.410500000000000E+009;1.717490106821060E-001;-3.166031837463379E-002;8.098877151496708E-005;2.335503231734037E-003;
2.410666666666667E+009;1.716908365488052E-001;-3.234661370515823E-002;9.126599616138265E-005;2.402001759037376E-003;
2.410833333333334E+009;1.716655939817429E-001;-3.291061893105507E-002;1.361790928058326E-004;2.436372917145491E-003;
2.411000000000000E+009;1.714597344398499E-001;-3.357379510998726E-002;-7.301889127120376E-005;2.336745383217931E-003;
2.411166666666667E+009;1.711114197969437E-001;-3.422598168253899E-002;-2.603339453344233E-005;2.340815262869000E-003;
2.411333333333334E+009;1.707863658666611E-001;-3.483662009239197E-002;2.377300697844476E-004;2.455986104905605E-003;
2.411500000000000E+009;1.705945432186127E-001;-3.558554500341415E-002;1.437508472008631E-004;2.470643492415547E-003;
2.411666666666667E+009;1.703871488571167E-001;-3.624363616108894E-002;4.022998909931630E-004;2.587385242804885E-003;
2.411833333333334E+009;1.698787063360214E-001;-3.678372129797936E-002;2.302866050740704E-004;2.683176891878247E-003;
2.412000000000000E+009;1.695138067007065E-001;-3.768798336386681E-002;4.967174027115107E-004;2.772161038592458E-003;
2.412166666666667E+009;1.689024716615677E-001;-3.844570741057396E-002;5.433573387563229E-004;2.841658424586058E-003;
2.412333333333334E+009;1.687211990356445E-001;-3.911920264363289E-002;7.896177121438086E-004;2.729857340455055E-003;
2.412500000000000E+009;1.679467111825943E-001;-3.975428268313408E-002;8.922043489292264E-004;2.742435084655881E-003;
2.412666666666667E+009;1.673627644777298E-001;-4.087651148438454E-002;1.129852957092226E-003;2.717291703447700E-003;
2.412833333333334E+009;1.667166501283646E-001;-4.187339171767235E-002;1.171458512544632E-003;2.718014409765601E-003;
2.413000000000000E+009;1.661454439163208E-001;-4.260157421231270E-002;1.447440590709448E-003;2.660391153767705E-003;
2.413166666666667E+009;1.654679924249649E-001;-4.357099905610085E-002;1.708780415356159E-003;2.574338344857097E-003;
2.413333333333334E+009;1.644199192523956E-001;-4.454382508993149E-002;1.655160565860570E-003;2.382182981818914E-003;
2.413500000000000E+009;1.640222519636154E-001;-4.577390104532242E-002;1.717854291200638E-003;2.223265124484897E-003;
2.413666666666667E+009;1.633996516466141E-001;-4.678006842732430E-002;1.808865927159786E-003;2.051720861345530E-003;
2.413833333333334E+009;1.626667231321335E-001;-4.776063933968544E-002;1.993907615542412E-003;1.973127946257591E-003;
2.414000000000000E+009;1.619764566421509E-001;-4.880532249808312E-002;1.891639316454530E-003;1.741183339618146E-003;
2.414166666666667E+009;1.614232808351517E-001;-4.998924583196640E-002;1.716749859042466E-003;1.563114114105701E-003;
2.414333333333334E+009;1.606731116771698E-001;-5.110018327832222E-002;1.758433762006462E-003;1.410242519341409E-003;
2.414500000000000E+009;1.603768765926361E-001;-5.222565308213234E-002;1.653133193030953E-003;1.449336297810078E-003;
2.414666666666667E+009;1.599191576242447E-001;-5.323111265897751E-002;1.637914101593196E-003;1.346153207123280E-003;
2.414833333333334E+009;1.593236178159714E-001;-5.463228002190590E-002;1.547618070617318E-003;1.406796043738723E-003;
2.415000000000000E+009;1.590036302804947E-001;-5.572149530053139E-002;1.570064225234091E-003;1.225311658345163E-003;
2.415166666666667E+009;1.586631238460541E-001;-5.707226693630219E-002;1.524042221717536E-003;1.325496472418308E-003;
2.415333333333334E+009;1.585148423910141E-001;-5.860527977347374E-002;1.525581115856767E-003;1.292053726501763E-003;
2.415500000000000E+009;1.582571268081665E-001;-5.968658253550530E-002;1.430077361874282E-003;1.396073494106531E-003;
2.415666666666667E+009;1.580896377563477E-001;-6.116014719009399E-002;1.426144503057003E-003;1.358330715447664E-003;
2.415833333333334E+009;1.578620225191116E-001;-6.260715425014496E-002;1.473667332902551E-003;1.434913603588939E-003;
2.416000000000000E+009;1.574940383434296E-001;-6.407087296247482E-002;1.524965162388980E-003;1.496195211075246E-003;
2.416166666666667E+009;1.574748903512955E-001;-6.549276411533356E-002;1.562695135362446E-003;1.463223015889525E-003;
2.416333333333334E+009;1.572615951299667E-001;-6.683780252933502E-002;1.447238144464791E-003;1.649499055929482E-003;
2.416500000000000E+009;1.571697145700455E-001;-6.843257695436478E-002;1.658070832490921E-003;1.510709989815950E-003;
2.416666666666667E+009;1.567930430173874E-001;-6.979989260435104E-002;1.698133535683155E-003;1.642616582103074E-003;
2.416833333333334E+009;1.567263603210449E-001;-7.127077877521515E-002;1.765028340741992E-003;1.706898561678827E-003;
2.417000000000000E+009;1.563832610845566E-001;-7.255554199218750E-002;1.982352463528514E-003;1.608490594662726E-003;
2.417166666666667E+009;1.562897861003876E-001;-7.369305938482285E-002;1.997299958020449E-003;1.687787356786430E-003;
2.417333333333334E+009;1.561151444911957E-001;-7.474881410598755E-002;2.074565505608916E-003;1.618140726350248E-003;
2.417500000000000E+009;1.559384018182755E-001;-7.621458917856216E-002;2.239688532426953E-003;1.550124376080930E-003;
2.417666666666667E+009;1.559034883975983E-001;-7.704586535692215E-002;2.275637350976467E-003;1.733782934024930E-003;
2.417833333333334E+009;1.558110117912293E-001;-7.787205278873444E-002;2.414379967376590E-003;1.557035953737795E-003;
2.418000000000000E+009;1.555512398481369E-001;-7.901130616664887E-002;2.544301096349955E-003;1.524591702036560E-003;
2.418166666666667E+009;1.555534452199936E-001;-7.972849160432816E-002;2.624863060191274E-003;1.399658620357513E-003;
2.418333333333334E+009;1.558123528957367E-001;-8.065465837717056E-002;2.725858706980944E-003;1.256819698028266E-003;
2.418500000000000E+009;1.555426269769669E-001;-8.140937238931656E-002;2.979689044877887E-003;1.305164420045912E-003;
2.418666666666667E+009;1.556295603513718E-001;-8.222682029008865E-002;3.077664878219366E-003;1.175586367025971E-003;
2.418833333333334E+009;1.554095745086670E-001;-8.291407674551010E-002;3.193924436345696E-003;1.204017549753189E-003;
2.419000000000000E+009;1.551810652017593E-001;-8.357407152652741E-002;3.254074370488524E-003;1.055117230862379E-003;
2.419166666666667E+009;1.551557928323746E-001;-8.424704521894455E-002;3.521948121488094E-003;8.221763418987393E-004;
2.419333333333334E+009;1.549684554338455E-001;-8.441887050867081E-002;3.544492879882455E-003;7.642377750016749E-004;
2.419500000000000E+009;1.548908054828644E-001;-8.520160615444183E-002;3.706493182107806E-003;5.171817610971630E-004;
2.419666666666667E+009;1.548587828874588E-001;-8.569599688053131E-002;3.710916033014655E-003;1.659352710703388E-004;
2.419833333333334E+009;1.544151455163956E-001;-8.595858514308929E-002;3.839247627183795E-003;2.388956818322185E-005;
2.420000000000000E+009;1.542524695396423E-001;-8.633981645107269E-002;3.916486166417599E-003;-1.692455989541486E-004;
2.420166666666667E+009;1.541213095188141E-001;-8.667416125535965E-002;3.699868451803923E-003;-4.948005080223084E-004;
2.420333333333334E+009;1.537920087575913E-001;-8.719390630722046E-002;3.811646020039916E-003;-7.849010289646685E-004;
2.420500000000000E+009;1.536542773246765E-001;-8.753906190395355E-002;3.669930156320334E-003;-1.077427412383258E-003;
2.420666666666667E+009;1.533016413450241E-001;-8.772202581167221E-002;3.711975878104568E-003;-1.059428090229631E-003;
2.420833333333334E+009;1.530607491731644E-001;-8.825065195560455E-002;3.558605909347534E-003;-1.210998743772507E-003;
2.421000000000000E+009;1.524682193994522E-001;-8.866091072559357E-002;3.428620751947165E-003;-1.443784101866186E-003;
2.421166666666667E+009;1.520938128232956E-001;-8.907221257686615E-002;3.346668556332588E-003;-1.618422335013747E-003;
2.421333333333334E+009;1.516028642654419E-001;-8.961654454469681E-002;3.174269106239080E-003;-1.694282749667764E-003;
2.421500000000000E+009;1.509238779544830E-001;-9.012793004512787E-002;3.041476942598820E-003;-1.889319042675197E-003;
2.421666666666667E+009;1.504567563533783E-001;-9.041511267423630E-002;2.856230596080422E-003;-1.941408147104085E-003;
2.421833333333334E+009;1.498220413923264E-001;-9.111656993627548E-002;2.738339826464653E-003;-1.991050085052848E-003;
2.422000000000000E+009;1.490642875432968E-001;-9.169077873229981E-002;2.705877413973212E-003;-2.257711952552199E-003;
2.422166666666667E+009;1.481179147958756E-001;-9.235364198684692E-002;2.600172068923712E-003;-2.120433608070016E-003;
2.422333333333334E+009;1.474241763353348E-001;-9.281229972839356E-002;2.337013604119420E-003;-2.398125827312470E-003;
2.422500000000000E+009;1.465793401002884E-001;-9.335039556026459E-002;2.176881767809391E-003;-2.464048797264695E-003;
2.422666666666667E+009;1.457853764295578E-001;-9.425235539674759E-002;2.288476563990116E-003;-2.572744851931930E-003;
2.422833333333334E+009;1.451593339443207E-001;-9.488159418106079E-002;1.892888103611767E-003;-2.408884698525071E-003;
2.423000000000000E+009;1.441419422626495E-001;-9.557672590017319E-002;1.682019210420549E-003;-2.393486443907023E-003;
2.423166666666667E+009;1.434777677059174E-001;-9.658084064722061E-002;1.760267536155880E-003;-2.311531919986010E-003;
2.423333333333334E+009;1.425500065088272E-001;-9.705355018377304E-002;1.811959547922015E-003;-2.328833797946572E-003;
2.423500000000000E+009;1.416652351617813E-001;-9.804742783308029E-002;1.690004253759980E-003;-2.355243545025587E-003;
2.423666666666667E+009;1.405470967292786E-001;-9.909062832593918E-002;1.739025465212762E-003;-2.382734790444374E-003;
2.423833333333334E+009;1.397713571786881E-001;-1.000890955328941E-001;1.671024947427213E-003;-2.381320577114821E-003;
2.424000000000000E+009;1.388604491949081E-001;-1.007672920823097E-001;1.679980196058750E-003;-2.479006070643663E-003;
2.424166666666667E+009;1.378538608551025E-001;-1.020038947463036E-001;1.583340927027166E-003;-2.601409330964088E-003;
2.424333333333334E+009;1.370268017053604E-001;-1.030088961124420E-001;1.334196073003113E-003;-2.669159788638353E-003;
2.424500000000000E+009;1.363422870635986E-001;-1.040596887469292E-001;1.448540482670069E-003;-2.769479062408209E-003;
2.424666666666667E+009;1.356838792562485E-001;-1.050245389342308E-001;1.225465093739331E-003;-2.811915474012494E-003;
2.424833333333334E+009;1.347407400608063E-001;-1.060913503170013E-001;1.093440921977162E-003;-2.813103608787060E-003;
2.425000000000000E+009;1.341333985328674E-001;-1.072666198015213E-001;7.218369282782078E-004;-2.851442899554968E-003;
2.425166666666667E+009;1.333251595497131E-001;-1.084182783961296E-001;8.416596101596952E-004;-2.975739538669586E-003;
2.425333333333334E+009;1.326723694801331E-001;-1.096123680472374E-001;6.274189217947424E-004;-3.121935529634357E-003;
2.425500000000000E+009;1.322168409824371E-001;-1.107813119888306E-001;4.538654175121337E-004;-2.914304379373789E-003;
2.425666666666667E+009;1.316272467374802E-001;-1.120617091655731E-001;2.054867509286851E-004;-2.979713492095470E-003;
2.425833333333334E+009;1.310990601778030E-001;-1.132848411798477E-001;2.660807513166219E-004;-2.915729768574238E-003;
2.426000000000000E+009;1.306649297475815E-001;-1.144000515341759E-001;6.225055403774604E-005;-2.989732660353184E-003;
2.426166666666667E+009;1.303788423538208E-001;-1.155906394124031E-001;-1.996319333557040E-004;-2.848370699211955E-003;
2.426333333333334E+009;1.298247426748276E-001;-1.167114526033402E-001;-6.312205368885770E-005;-2.786848694086075E-003;
2.426500000000000E+009;1.295171380043030E-001;-1.178852245211601E-001;-4.165857972111553E-004;-2.765052020549774E-003;
2.426666666666667E+009;1.293693333864212E-001;-1.187728792428970E-001;-4.616005462594330E-004;-2.582182642072439E-003;
2.426833333333334E+009;1.289971768856049E-001;-1.199350729584694E-001;-4.771695821546018E-004;-2.435562200844288E-003;
2.427000000000000E+009;1.286564320325851E-001;-1.211040914058685E-001;-6.884647300466895E-004;-2.354339929297566E-003;
2.427166666666667E+009;1.284613162279129E-001;-1.219684332609177E-001;-6.625293754041195E-004;-2.286263741552830E-003;
2.427333333333334E+009;1.282038837671280E-001;-1.228480935096741E-001;-7.186870789155364E-004;-2.146263141185045E-003;
2.427500000000000E+009;1.280995458364487E-001;-1.238297298550606E-001;-7.844202918931842E-004;-1.994374673813582E-003;
2.427666666666667E+009;1.279354691505432E-001;-1.247186511754990E-001;-7.903760997578502E-004;-1.972343074157834E-003;
