# Version 1.00
#
freq[Hz];re:Trc1_S11;im:Trc1_S11;re:Trc2_S21;im:Trc2_S21;
2.400000000000000E+009;1.687031537294388E-001;4.694864526391029E-002;-3.564854618161917E-003;-1.112865749746561E-003;
2.400166666666667E+009;1.696153879165649E-001;4.603987187147141E-002;-3.737524617463350E-003;-1.023595687001944E-003;
2.400333333333334E+009;1.706062406301498E-001;4.492625594139099E-002;-3.907816950231791E-003;-1.032573287375271E-003;
2.400500000000000E+009;1.715558469295502E-001;4.399069026112557E-002;-3.934427630156279E-003;-7.332871318794787E-004;
2.400666666666667E+009;1.723800152540207E-001;4.292579740285873E-002;-4.112694412469864E-003;-6.989797111600637E-004;
2.400833333333334E+009;1.731266975402832E-001;4.231296479701996E-002;-4.252004902809858E-003;-7.493134471587837E-004;
2.401000000000000E+009;1.739728599786758E-001;4.132372513413429E-002;-4.377162549644709E-003;-4.858066386077553E-004;
2.401166666666667E+009;1.747402995824814E-001;4.073639959096909E-002;-4.518770147114992E-003;-3.501578175928444E-004;
2.401333333333334E+009;1.752782464027405E-001;4.001481458544731E-002;-4.545586183667183E-003;-1.646147284191102E-004;
2.401500000000000E+009;1.761368811130524E-001;3.940578177571297E-002;-4.601154476404190E-003;-7.331785309361294E-005;
2.401666666666667E+009;1.767013370990753E-001;3.897547721862793E-002;-4.905384499579668E-003;2.896503137890250E-004;
2.401833333333334E+009;1.773217916488648E-001;3.811886161565781E-002;-4.962875507771969E-003;2.077134413411841E-004;
2.402000000000000E+009;1.776629239320755E-001;3.739656135439873E-002;-4.939817823469639E-003;4.644819127861410E-004;
2.402166666666667E+009;1.780863255262375E-001;3.677088767290115E-002;-4.847284872084856E-003;6.596057792194188E-004;
2.402333333333334E+009;1.783561855554581E-001;3.632261231541634E-002;-5.031150300055742E-003;1.043082447722554E-003;
2.402500000000000E+009;1.788629293441773E-001;3.559185937047005E-002;-5.069482605904341E-003;1.130030606873334E-003;
2.402666666666667E+009;1.788249909877777E-001;3.496265411376953E-002;-4.935728851705790E-003;1.479769241996110E-003;
2.402833333333334E+009;1.790256500244141E-001;3.434909135103226E-002;-5.149561911821365E-003;1.580928452312946E-003;
2.403000000000000E+009;1.791594773530960E-001;3.340206295251846E-002;-4.960542079061270E-003;1.995925558730960E-003;
2.403166666666667E+009;1.792902201414108E-001;3.266771137714386E-002;-4.922474268823862E-003;1.997243613004684E-003;
2.403333333333334E+009;1.790346354246140E-001;3.180458396673203E-002;-4.967754241079092E-003;2.223986200988293E-003;
2.403500000000000E+009;1.787026822566986E-001;3.085756115615368E-002;-5.010639782994986E-003;2.418246818706393E-003;
2.403666666666667E+009;1.786683201789856E-001;2.978111617267132E-002;-4.879567306488752E-003;2.680954989045858E-003;
2.403833333333334E+009;1.786103546619415E-001;2.858983539044857E-002;-4.845757968723774E-003;2.684282604604960E-003;
2.404000000000000E+009;1.780316829681397E-001;2.758790738880634E-002;-4.695055540651083E-003;3.135666949674487E-003;
2.404166666666667E+009;1.776007562875748E-001;2.635984309017658E-002;-4.519548267126083E-003;3.232128918170929E-003;
2.404333333333334E+009;1.771187037229538E-001;2.516209520399571E-002;-4.462039563804865E-003;3.560833400115371E-003;
2.404500000000000E+009;1.766935437917709E-001;2.363787405192852E-002;-4.368206020444632E-003;3.715577535331249E-003;
2.404666666666667E+009;1.763712465763092E-001;2.231957577168942E-002;-4.248307086527348E-003;3.889673622325063E-003;
2.404833333333334E+009;1.758457869291306E-001;2.085276879370213E-002;-4.059012047946453E-003;4.061501938849688E-003;
2.405000000000000E+009;1.754759550094605E-001;1.922949217259884E-002;-3.904338227584958E-003;4.314872436225414E-003;
2.405166666666667E+009;1.751049458980560E-001;1.768634095788002E-002;-3.819085424765945E-003;4.421849269419909E-003;
2.405333333333334E+009;1.746327280998230E-001;1.586855389177799E-002;-3.600360592827201E-003;4.486593417823315E-003;
2.405500000000000E+009;1.742166578769684E-001;1.421219762414694E-002;-3.583284793421626E-003;4.726301878690720E-003;
2.405666666666667E+009;1.738531142473221E-001;1.245451159775257E-002;-3.248073160648346E-003;4.823192954063416E-003;
2.405833333333334E+009;1.733222603797913E-001;1.083253510296345E-002;-3.156135091558099E-003;4.918309859931469E-003;
2.406000000000000E+009;1.732613742351532E-001;8.828831836581230E-003;-3.032498527318239E-003;5.086500197649002E-003;
2.406166666666667E+009;1.728888452053070E-001;7.076062727719545E-003;-2.638116246089339E-003;5.104302428662777E-003;
2.406333333333334E+009;1.729209274053574E-001;4.924944601953030E-003;-2.452954184263945E-003;5.293815396726131E-003;
2.406500000000000E+009;1.728065311908722E-001;2.967262407764792E-003;-2.384076593443751E-003;5.281714256852865E-003;
2.406666666666667E+009;1.726572960615158E-001;1.050563179887831E-003;-2.205058466643095E-003;5.467168986797333E-003;
2.406833333333334E+009;1.727873235940933E-001;-1.173668657429516E-003;-1.870820997282863E-003;5.568069405853748E-003;
2.407000000000000E+009;1.729421317577362E-001;-3.117809072136879E-003;-1.630837330594659E-003;5.598894320428371E-003;
2.407166666666667E+009;1.732437908649445E-001;-5.132602527737618E-003;-1.466312212869525E-003;5.632424261420965E-003;
2.407333333333334E+009;1.734255403280258E-001;-7.378641515970230E-003;-1.169122871942818E-003;5.623473785817623E-003;
2.407500000000000E+009;1.737343519926071E-001;-9.420786052942276E-003;-1.036594039760530E-003;5.513556767255068E-003;
2.407666666666667E+009;1.739879399538040E-001;-1.145732495933771E-002;-6.977489101700485E-004;5.438250023871660E-003;
2.407833333333334E+009;1.742718368768692E-001;-1.362295355647802E-002;-5.712624406442046E-004;5.567227024585009E-003;
2.408000000000000E+009;1.747218072414398E-001;-1.559552270919085E-002;-3.706313727889210E-004;5.454200785607100E-003;
2.408166666666667E+009;1.752264350652695E-001;-1.754365302622318E-002;-1.602308475412428E-004;5.447163246572018E-003;
2.408333333333334E+009;1.757265031337738E-001;-1.958118565380573E-002;-3.850993743981235E-005;5.455979611724615E-003;
2.408500000000000E+009;1.760549098253250E-001;-2.147795818746090E-002;4.623864151653834E-005;5.324819590896368E-003;
2.408666666666667E+009;1.765825599431992E-001;-2.329486794769764E-002;7.442798232659698E-005;5.154288839548826E-003;
2.408833333333334E+009;1.769623011350632E-001;-2.502309530973434E-002;2.562989247962833E-004;5.303116980940104E-003;
2.409000000000000E+009;1.773587763309479E-001;-2.666447870433331E-002;4.594587953761220E-004;5.212257150560617E-003;
2.409166666666667E+009;1.778018176555634E-001;-2.821966260671616E-002;5.008641164749861E-004;5.242412444204092E-003;
2.409333333333334E+009;1.782682538032532E-001;-2.968192845582962E-002;6.335008656606078E-004;5.276015494018793E-003;
2.409500000000000E+009;1.786658316850662E-001;-3.099205531179905E-002;7.650423794984818E-004;5.376179236918688E-003;
2.409666666666667E+009;1.790079325437546E-001;-3.217446804046631E-002;8.476846269331873E-004;5.312150344252586E-003;
2.409833333333334E+009;1.795610934495926E-001;-3.311002627015114E-002;1.097286120057106E-003;5.482723005115986E-003;
2.410000000000000E+009;1.801182776689529E-001;-3.410901129245758E-002;1.135485130362213E-003;5.477468017488718E-003;
2.410166666666667E+009;1.804175376892090E-001;-3.508350253105164E-002;1.332390122115612E-003;5.518651567399502E-003;
2.410333333333334E+009;1.808006614446640E-001;-3.591708466410637E-002;1.447997638024390E-003;5.535274744033814E-003;
2.410500000000000E+009;1.812470853328705E-001;-3.654553741216660E-002;1.635881606489420E-003;5.670676007866859E-003;
2.410666666666667E+009;1.814061850309372E-001;-3.735269606113434E-002;1.886326819658279E-003;5.627428181469441E-003;
2.410833333333334E+009;1.819792836904526E-001;-3.775006532669067E-002;2.018712460994721E-003;5.530905444175005E-003;
2.411000000000000E+009;1.822309792041779E-001;-3.841982036828995E-002;2.235566265881062E-003;5.486505106091499E-003;
2.411166666666667E+009;1.822088211774826E-001;-3.909376636147499E-002;2.473206026479602E-003;5.729626398533583E-003;
2.411333333333334E+009;1.824250370264053E-001;-3.938251733779907E-002;2.710296539589763E-003;5.669814068824053E-003;
2.411500000000000E+009;1.822686940431595E-001;-3.998909890651703E-002;2.909904578700662E-003;5.712206009775400E-003;
2.411666666666667E+009;1.823789179325104E-001;-4.037939384579659E-002;3.147807670757175E-003;5.618572235107422E-003;
2.411833333333334E+009;1.821931451559067E-001;-4.051392152905464E-002;3.447521012276411E-003;5.548178218305111E-003;
2.412000000000000E+009;1.819802224636078E-001;-4.109333828091621E-002;3.742323024198413E-003;5.427626427263022E-003;
2.412166666666667E+009;1.815021783113480E-001;-4.143934324383736E-002;4.050332587212324E-003;5.392611492425203E-003;
2.412333333333334E+009;1.813723742961884E-001;-4.160828143358231E-002;4.306954331696034E-003;5.115950480103493E-003;
2.412500000000000E+009;1.807169914245606E-001;-4.214869067072868E-002;4.589797463268042E-003;5.172214005142450E-003;
2.412666666666667E+009;1.800115257501602E-001;-4.260318726301193E-002;4.956080578267574E-003;5.046711768954992E-003;
2.412833333333334E+009;1.791818588972092E-001;-4.280804842710495E-002;4.993599839508534E-003;4.757259041070938E-003;
2.413000000000000E+009;1.785335540771484E-001;-4.317745938897133E-002;5.239277612417936E-003;4.541462287306786E-003;
2.413166666666667E+009;1.774813681840897E-001;-4.370773956179619E-002;5.463099572807550E-003;4.274774808436632E-003;
2.413333333333334E+009;1.765006333589554E-001;-4.405320808291435E-002;5.901585333049297E-003;3.990971948951483E-003;
2.413500000000000E+009;1.756756454706192E-001;-4.450143873691559E-002;6.010132376104593E-003;3.771086456254125E-003;
2.413666666666667E+009;1.745882630348206E-001;-4.500694945454598E-002;6.186353508383036E-003;3.415807615965605E-003;
2.413833333333334E+009;1.734725087881088E-001;-4.579773172736168E-002;6.317558698356152E-003;3.369070822373033E-003;
2.414000000000000E+009;1.721795499324799E-001;-4.642942547798157E-002;6.506949197500944E-003;2.967947395518422E-003;
2.414166666666667E+009;1.711060404777527E-001;-4.706751182675362E-002;6.450227461755276E-003;2.675236202776432E-003;
2.414333333333334E+009;1.698734462261200E-001;-4.802791029214859E-002;6.777865812182427E-003;2.468916121870279E-003;
2.414500000000000E+009;1.688832789659500E-001;-4.885753244161606E-002;6.759271025657654E-003;2.111816778779030E-003;
2.414666666666667E+009;1.675312519073486E-001;-4.986886307597160E-002;6.723992526531220E-003;1.658845227211714E-003;
2.414833333333334E+009;1.662279516458511E-001;-5.089879035949707E-002;6.900437641888857E-003;1.520550926215947E-003;
2.415000000000000E+009;1.650588512420654E-001;-5.206591263413429E-002;7.049541920423508E-003;1.082592876628041E-003;
2.415166666666667E+009;1.637358665466309E-001;-5.323977023363113E-002;6.923583336174488E-003;9.132632985711098E-004;
2.415333333333334E+009;1.627017557621002E-001;-5.479122325778008E-002;7.032725494354963E-003;5.682893679477274E-004;
2.415500000000000E+009;1.615932136774063E-001;-5.620836839079857E-002;7.141321431845427E-003;2.664422936504707E-005;
2.415666666666667E+009;1.604273170232773E-001;-5.769093707203865E-002;6.981233600527048E-003;-1.449962001061067E-004;
2.415833333333334E+009;1.594807952642441E-001;-5.935667455196381E-002;6.908976472914219E-003;-4.023757064715028E-004;
2.416000000000000E+009;1.582464277744293E-001;-6.103762239217758E-002;6.832750979810953E-003;-6.793923676013947E-004;
2.416166666666667E+009;1.574081033468247E-001;-6.274129450321198E-002;6.849652156233788E-003;-1.060234149917960E-003;
2.416333333333334E+009;1.564716845750809E-001;-6.458862125873566E-002;6.485944148153067E-003;-1.240407931618393E-003;
2.416500000000000E+009;1.555259823799133E-001;-6.641417741775513E-002;6.481615360826254E-003;-1.549056731164455E-003;
2.416666666666667E+009;1.545149236917496E-001;-6.833930313587189E-002;6.191319786012173E-003;-1.702394918538630E-003;
2.416833333333334E+009;1.538341045379639E-001;-7.034763693809509E-002;5.951732862740755E-003;-1.963585382327437E-003;
2.417000000000000E+009;1.529762446880341E-001;-7.231187075376511E-002;5.813380237668753E-003;-2.140266820788384E-003;
2.417166666666667E+009;1.524052172899246E-001;-7.413627207279205E-002;5.721497815102339E-003;-2.427122322842479E-003;
2.417333333333334E+009;1.518133431673050E-001;-7.603681087493897E-002;5.560340359807015E-003;-2.406440442427993E-003;
2.417500000000000E+009;1.512571871280670E-001;-7.820213586091995E-002;5.305608734488487E-003;-2.556446939706802E-003;
2.417666666666667E+009;1.508434116840363E-001;-7.998523861169815E-002;5.144885275512934E-003;-2.676878822967410E-003;
2.417833333333334E+009;1.504582464694977E-001;-8.174046874046326E-002;4.931414499878883E-003;-2.800481626763940E-003;
2.418000000000000E+009;1.500287055969238E-001;-8.365212380886078E-002;4.871700890362263E-003;-2.922510728240013E-003;
2.418166666666667E+009;1.498093605041504E-001;-8.520132303237915E-002;4.630522802472115E-003;-2.988069085404277E-003;
2.418333333333334E+009;1.499432176351547E-001;-8.681505918502808E-002;4.491574596613646E-003;-3.107272787019610E-003;
2.418500000000000E+009;1.496201604604721E-001;-8.848626911640167E-002;4.360120277851820E-003;-2.962806960567832E-003;
2.418666666666667E+009;1.497203260660172E-001;-8.991228789091110E-002;4.277929663658142E-003;-3.166900714859366E-003;
2.418833333333334E+009;1.495733410120010E-001;-9.131285548210144E-002;4.078090190887451E-003;-3.224858082830906E-003;
2.419000000000000E+009;1.495815366506577E-001;-9.261939674615860E-002;3.988664597272873E-003;-3.234443021938205E-003;
2.419166666666667E+009;1.497346460819244E-001;-9.392637014389038E-002;3.785557346418500E-003;-3.304467070847750E-003;
2.419333333333334E+009;1.498103141784668E-001;-9.483748674392700E-002;3.894430119544268E-003;-3.342629177495837E-003;
2.419500000000000E+009;1.499890387058258E-001;-9.607451409101486E-002;3.709284355863929E-003;-3.433509729802609E-003;
2.419666666666667E+009;1.504875868558884E-001;-9.689424186944962E-002;3.663893789052963E-003;-3.435459919273853E-003;
2.419833333333334E+009;1.505443155765533E-001;-9.732087701559067E-002;3.740681800991297E-003;-3.449331969022751E-003;
2.420000000000000E+009;1.510321795940399E-001;-9.808576107025147E-002;3.453874960541725E-003;-3.501112340018153E-003;
2.420166666666667E+009;1.513726711273193E-001;-9.862490743398666E-002;3.374763997271657E-003;-3.487699199467897E-003;
2.420333333333334E+009;1.515586972236633E-001;-9.907272458076477E-002;3.473867662250996E-003;-3.523886669427156E-003;
2.420500000000000E+009;1.519747674465179E-001;-9.926284104585648E-002;3.458516672253609E-003;-3.616370027884841E-003;
2.420666666666667E+009;1.522215753793716E-001;-9.941273182630539E-002;3.510644193738699E-003;-3.670035162940621E-003;
2.420833333333334E+009;1.525077968835831E-001;-9.961296617984772E-002;3.282202174887061E-003;-3.613303182646632E-003;
2.421000000000000E+009;1.526066213846207E-001;-9.967049956321716E-002;3.334255423396826E-003;-3.802406601607800E-003;
2.421166666666667E+009;1.528738588094711E-001;-9.966512769460678E-002;3.458865918219090E-003;-3.988655749708414E-003;
2.421333333333334E+009;1.532185971736908E-001;-9.971486777067184E-002;3.447665367275477E-003;-4.150970373302698E-003;
2.421500000000000E+009;1.531682312488556E-001;-9.950589388608933E-002;3.430302022024989E-003;-4.145645070821047E-003;
2.421666666666667E+009;1.532756984233856E-001;-9.923330694437027E-002;3.231472102925181E-003;-4.417452961206436E-003;
2.421833333333334E+009;1.532145291566849E-001;-9.895592182874680E-002;3.215636825188994E-003;-4.624658729881048E-003;
2.422000000000000E+009;1.530594080686569E-001;-9.874993562698364E-002;3.215492703020573E-003;-4.739431198686361E-003;
2.422166666666667E+009;1.528201401233673E-001;-9.873194992542267E-002;3.069262020289898E-003;-4.802283365279436E-003;
2.422333333333334E+009;1.523825973272324E-001;-9.822052717208862E-002;2.884448971599340E-003;-5.261884536594153E-003;
2.422500000000000E+009;1.518872082233429E-001;-9.763117879629135E-002;2.909336471930146E-003;-5.398646928369999E-003;
2.422666666666667E+009;1.513009220361710E-001;-9.749213606119156E-002;2.742954529821873E-003;-5.591549444943667E-003;
2.422833333333334E+009;1.506753265857697E-001;-9.726179391145706E-002;2.532116603106260E-003;-5.931708030402660E-003;
2.423000000000000E+009;1.499184519052506E-001;-9.690829366445541E-002;2.336682518944144E-003;-6.046593189239502E-003;
2.423166666666667E+009;1.489316225051880E-001;-9.652474522590637E-002;2.091753063723445E-003;-6.350557319819927E-003;
2.423333333333334E+009;1.480394452810288E-001;-9.606494009494782E-002;1.906373654492199E-003;-6.573101505637169E-003;
2.423500000000000E+009;1.468236148357391E-001;-9.580237418413162E-002;1.458145328797400E-003;-6.653722375631332E-003;
2.423666666666667E+009;1.454299539327622E-001;-9.556005150079727E-002;1.351895858533680E-003;-6.782482378184795E-003;
2.423833333333334E+009;1.444284617900848E-001;-9.535307437181473E-002;8.753387955948710E-004;-7.048913277685642E-003;
2.424000000000000E+009;1.429933905601502E-001;-9.507917612791061E-002;5.121788708493114E-004;-7.062484044581652E-003;
2.424166666666667E+009;1.416636705398560E-001;-9.502983093261719E-002;2.400101511739194E-004;-7.197332102805376E-003;
2.424333333333334E+009;1.402428746223450E-001;-9.491441398859024E-002;-1.213285650010221E-004;-7.136248983442783E-003;
2.424500000000000E+009;1.389050185680389E-001;-9.493432193994522E-002;-2.929143083747476E-004;-7.271718699485064E-003;
2.424666666666667E+009;1.375328600406647E-001;-9.494140744209290E-002;-7.152790785767138E-004;-7.195171434432268E-003;
2.424833333333334E+009;1.359298825263977E-001;-9.524876624345779E-002;-1.059742877259851E-003;-7.289307191967964E-003;
2.425000000000000E+009;1.344461292028427E-001;-9.553979337215424E-002;-1.405789633281529E-003;-7.127038668841124E-003;
2.425166666666667E+009;1.326356232166290E-001;-9.604419022798538E-002;-1.831643050536513E-003;-7.079263683408499E-003;
2.425333333333334E+009;1.313785761594772E-001;-9.653365612030029E-002;-2.142833080142736E-003;-6.863420829176903E-003;
2.425500000000000E+009;1.298496425151825E-001;-9.728851914405823E-002;-2.439131960272789E-003;-6.841619033366442E-003;
2.425666666666667E+009;1.283495277166367E-001;-9.796652942895889E-002;-2.867916831746697E-003;-6.728923879563808E-003;
2.425833333333334E+009;1.268933713436127E-001;-9.901067614555359E-002;-3.220911603420973E-003;-6.495378445833921E-003;
2.426000000000000E+009;1.254329085350037E-001;-1.001353338360786E-001;-3.251378890126944E-003;-6.154324393719435E-003;
2.426166666666667E+009;1.243440434336662E-001;-1.012814715504646E-001;-3.843238344416022E-003;-6.093050818890333E-003;
2.426333333333334E+009;1.228358224034309E-001;-1.024834737181664E-001;-4.067525267601013E-003;-5.661742296069861E-003;
2.426500000000000E+009;1.217083632946014E-001;-1.038438826799393E-001;-4.137689713388681E-003;-5.560253281146288E-003;
2.426666666666667E+009;1.205899268388748E-001;-1.051531657576561E-001;-4.507783334702253E-003;-5.277851130813360E-003;
2.426833333333334E+009;1.193265393376350E-001;-1.067465096712112E-001;-4.580264911055565E-003;-4.903231281787157E-003;
2.427000000000000E+009;1.183723807334900E-001;-1.083302274346352E-001;-4.749406129121780E-003;-4.662785213440657E-003;
2.427166666666667E+009;1.173109188675880E-001;-1.098305135965347E-001;-4.830220248550177E-003;-4.394468385726214E-003;
2.427333333333334E+009;1.163776367902756E-001;-1.115895211696625E-001;-4.946749657392502E-003;-4.041582345962524E-003;
2.427500000000000E+009;1.155962496995926E-001;-1.133451238274574E-001;-5.124033894389868E-003;-3.860673867166042E-003;
2.427666666666667E+009;1.148501709103584E-001;-1.151557937264442E-001;-5.230432376265526E-003;-3.504558699205518E-003;
