# Version 1.00
#
freq[Hz];re:Trc1_S11;im:Trc1_S11;re:Trc2_S21;im:Trc2_S21;
2.400000000000000E+009;1.565680652856827E-001;1.057925075292587E-001;1.510884496383369E-003;4.705838859081268E-003;
2.400166666666667E+009;1.563279032707214E-001;1.035685688257217E-001;1.701182685792446E-003;4.541386850178242E-003;
2.400333333333334E+009;1.566462814807892E-001;1.013295277953148E-001;1.629260834306479E-003;4.082295112311840E-003;
2.400500000000000E+009;1.569827944040299E-001;9.891903400421143E-002;1.775440876372159E-003;3.818383906036615E-003;
2.400666666666667E+009;1.571461409330368E-001;9.663157165050507E-002;1.646683900617063E-003;3.504865569993854E-003;
2.400833333333334E+009;1.574775725603104E-001;9.397264569997788E-002;1.531896297819912E-003;3.348394995555282E-003;
2.401000000000000E+009;1.579115390777588E-001;9.126090258359909E-002;1.531067537143827E-003;3.014034591615200E-003;
2.401166666666667E+009;1.580714881420136E-001;8.881908655166626E-002;1.370441750623286E-003;2.746614627540112E-003;
2.401333333333334E+009;1.586917340755463E-001;8.625405281782150E-002;1.157513936050236E-003;2.728076884523034E-003;
2.401500000000000E+009;1.591485589742661E-001;8.342579752206802E-002;8.931479533202946E-004;2.538291970267892E-003;
2.401666666666667E+009;1.598887294530869E-001;8.079956471920013E-002;7.751157972961664E-004;2.647424116730690E-003;
2.401833333333334E+009;1.602187305688858E-001;7.837132364511490E-002;7.137343054637313E-004;2.774492138996720E-003;
2.402000000000000E+009;1.611228734254837E-001;7.568170130252838E-002;4.647336609195918E-004;2.774053718894720E-003;
2.402166666666667E+009;1.619888842105866E-001;7.338889688253403E-002;3.036000707652420E-004;2.925294451415539E-003;
2.402333333333334E+009;1.629750281572342E-001;7.086846232414246E-002;2.287725801579654E-004;3.076362423598766E-003;
2.402500000000000E+009;1.641616225242615E-001;6.849853694438934E-002;1.075974942068569E-004;3.234011353924871E-003;
2.402666666666667E+009;1.651769727468491E-001;6.645760685205460E-002;1.693965896265581E-004;3.398948581889272E-003;
2.402833333333334E+009;1.663560122251511E-001;6.420884281396866E-002;2.441026736050844E-004;3.678248263895512E-003;
2.403000000000000E+009;1.676068156957626E-001;6.190542131662369E-002;2.981216530315578E-004;3.786624642089009E-003;
2.403166666666667E+009;1.692623496055603E-001;5.988607555627823E-002;4.647801397368312E-004;3.936910536140204E-003;
2.403333333333334E+009;1.704078912734985E-001;5.771894752979279E-002;5.834843614138663E-004;4.023888148367405E-003;
2.403500000000000E+009;1.719516813755035E-001;5.584669113159180E-002;8.528216858394444E-004;4.048399161547422E-003;
2.403666666666667E+009;1.736038476228714E-001;5.406633764505386E-002;7.943770615383983E-004;4.188616294413805E-003;
2.403833333333334E+009;1.748775690793991E-001;5.226301401853561E-002;9.875204414129257E-004;4.281298257410526E-003;
2.404000000000000E+009;1.762449294328690E-001;5.047297105193138E-002;1.094900886528194E-003;4.187664017081261E-003;
2.404166666666667E+009;1.777930706739426E-001;4.913493618369103E-002;1.306529855355620E-003;4.109412431716919E-003;
2.404333333333334E+009;1.790658682584763E-001;4.765293374657631E-002;1.615493441931903E-003;4.226128570735455E-003;
2.404500000000000E+009;1.803876012563705E-001;4.613783583045006E-002;1.660793437622488E-003;4.328656475991011E-003;
2.404666666666667E+009;1.820330023765564E-001;4.506782814860344E-002;1.855228794738650E-003;4.460082855075598E-003;
2.404833333333334E+009;1.835090368986130E-001;4.401324689388275E-002;1.889802981168032E-003;4.131748806685209E-003;
2.405000000000000E+009;1.842741221189499E-001;4.336015507578850E-002;2.074195304885507E-003;4.247350618243218E-003;
2.405166666666667E+009;1.857740283012390E-001;4.250029101967812E-002;2.410769229754806E-003;4.194902256131172E-003;
2.405333333333334E+009;1.866971254348755E-001;4.193063080310822E-002;2.534463535994291E-003;4.413308575749397E-003;
2.405500000000000E+009;1.880108118057251E-001;4.127204790711403E-002;2.736375899985433E-003;4.224739968776703E-003;
2.405666666666667E+009;1.890346258878708E-001;4.076723009347916E-002;2.856086939573288E-003;4.250036552548409E-003;
2.405833333333334E+009;1.900144368410111E-001;4.050885885953903E-002;3.139595501124859E-003;4.153775982558727E-003;
2.406000000000000E+009;1.909752488136292E-001;4.010291025042534E-002;3.340078983455896E-003;4.105107393115759E-003;
2.406166666666667E+009;1.916363388299942E-001;3.977155685424805E-002;3.540389006957412E-003;4.074520431458950E-003;
2.406333333333334E+009;1.923898011445999E-001;3.954783082008362E-002;3.751863725483418E-003;3.806418739259243E-003;
2.406500000000000E+009;1.929635554552078E-001;3.931262344121933E-002;3.949103876948357E-003;3.763499669730663E-003;
2.406666666666667E+009;1.936818808317184E-001;3.935784101486206E-002;4.153877031058073E-003;3.697852138429880E-003;
2.406833333333334E+009;1.940764784812927E-001;3.906227275729179E-002;4.283151589334011E-003;3.542230930179358E-003;
2.407000000000000E+009;1.942439526319504E-001;3.900339826941490E-002;4.345432855188847E-003;3.613505978137255E-003;
2.407166666666667E+009;1.946478933095932E-001;3.846124187111855E-002;4.614878445863724E-003;3.215510165318847E-003;
2.407333333333334E+009;1.945421993732452E-001;3.862143307924271E-002;4.793207626789808E-003;3.411228768527508E-003;
2.407500000000000E+009;1.944049298763275E-001;3.843421116471291E-002;4.973476752638817E-003;2.912423107773066E-003;
2.407666666666667E+009;1.943374574184418E-001;3.813377395272255E-002;5.001154262572527E-003;2.766468795016408E-003;
2.407833333333334E+009;1.940176635980606E-001;3.783248364925385E-002;5.195403471589088E-003;2.612769370898604E-003;
2.408000000000000E+009;1.941356509923935E-001;3.753479570150375E-002;5.254824645817280E-003;2.376653254032135E-003;
2.408166666666667E+009;1.935433149337769E-001;3.696210682392120E-002;5.327842198312283E-003;2.187824342399836E-003;
2.408333333333334E+009;1.933316588401794E-001;3.642882406711578E-002;5.500754341483116E-003;1.929021556861699E-003;
2.408500000000000E+009;1.926447898149490E-001;3.588544949889183E-002;5.620711948722601E-003;1.808206201530993E-003;
2.408666666666667E+009;1.922636926174164E-001;3.512472286820412E-002;5.654301028698683E-003;1.524301478639245E-003;
2.408833333333334E+009;1.917452514171600E-001;3.434280306100845E-002;5.741647444665432E-003;1.293908804655075E-003;
2.409000000000000E+009;1.910973489284515E-001;3.324755281209946E-002;5.695883184671402E-003;1.005875994451344E-003;
2.409166666666667E+009;1.901930123567581E-001;3.226836770772934E-002;5.836314521729946E-003;8.705141372047365E-004;
2.409333333333334E+009;1.896230429410934E-001;3.137823939323425E-002;5.844660103321075E-003;6.714823539368808E-004;
2.409500000000000E+009;1.886852085590363E-001;2.991833724081516E-002;5.804801825433970E-003;5.717440508306027E-004;
2.409666666666667E+009;1.878312230110169E-001;2.858934178948402E-002;5.944089032709599E-003;2.610367082525045E-004;
2.409833333333334E+009;1.870330721139908E-001;2.716529741883278E-002;5.863791797310114E-003;-5.125672396388836E-005;
2.410000000000000E+009;1.863563656806946E-001;2.563289180397987E-002;5.776702426373959E-003;-1.463600492570549E-004;
2.410166666666667E+009;1.854251027107239E-001;2.380742877721787E-002;5.764327012002468E-003;-2.972736547235400E-004;
2.410333333333334E+009;1.847303807735443E-001;2.216137945652008E-002;5.809423048049212E-003;-6.138926255516708E-004;
2.410500000000000E+009;1.840674132108688E-001;2.035178244113922E-002;5.774574354290962E-003;-8.705627406015992E-004;
2.410666666666667E+009;1.833571940660477E-001;1.819250546395779E-002;5.683930125087500E-003;-1.139324507676065E-003;
2.410833333333334E+009;1.829264014959335E-001;1.623005047440529E-002;5.461450200527906E-003;-1.208649948239327E-003;
2.411000000000000E+009;1.823542565107346E-001;1.437414623796940E-002;5.392705090343952E-003;-1.396994804963470E-003;
2.411166666666667E+009;1.818172037601471E-001;1.211814861744642E-002;5.325830075889826E-003;-1.525327796116471E-003;
2.411333333333334E+009;1.815298646688461E-001;9.717267937958241E-003;5.074854940176010E-003;-1.850202796049416E-003;
2.411500000000000E+009;1.814109236001968E-001;7.781917229294777E-003;5.094380583614111E-003;-1.823728322051466E-003;
2.411666666666667E+009;1.811411082744598E-001;5.605820100754499E-003;5.105410236865282E-003;-1.967497635632753E-003;
2.411833333333334E+009;1.807120144367218E-001;3.576936665922403E-003;4.903480876237154E-003;-2.178217982873321E-003;
2.412000000000000E+009;1.811653673648834E-001;1.015826244838536E-003;4.895299673080444E-003;-2.184222452342510E-003;
2.412166666666667E+009;1.811487078666687E-001;-9.750348399393261E-004;4.789508413523436E-003;-2.371614798903465E-003;
2.412333333333334E+009;1.814493536949158E-001;-3.194410121068358E-003;4.896742291748524E-003;-2.456667367368937E-003;
2.412500000000000E+009;1.819469034671783E-001;-5.449493415653706E-003;4.560873378068209E-003;-2.518425229936838E-003;
2.412666666666667E+009;1.824795901775360E-001;-7.694307714700699E-003;4.558873362839222E-003;-2.618761267513037E-003;
2.412833333333334E+009;1.828635632991791E-001;-9.689222089946270E-003;4.518949426710606E-003;-2.817895961925387E-003;
2.413000000000000E+009;1.836492568254471E-001;-1.207232847809792E-002;4.456069786101580E-003;-2.894493285566568E-003;
2.413166666666667E+009;1.844250559806824E-001;-1.394023187458515E-002;4.334656056016684E-003;-2.969978842884302E-003;
2.413333333333334E+009;1.852873861789703E-001;-1.601319387555122E-002;4.405824467539787E-003;-3.083898918703198E-003;
2.413500000000000E+009;1.860298514366150E-001;-1.806286908686161E-002;4.270316101610661E-003;-3.158758161589503E-003;
2.413666666666667E+009;1.870299726724625E-001;-1.989378593862057E-002;4.174612928181887E-003;-3.230704460293055E-003;
2.413833333333334E+009;1.880052387714386E-001;-2.179875597357750E-002;4.060929175466299E-003;-3.543996019288898E-003;
2.414000000000000E+009;1.890442073345184E-001;-2.374806255102158E-002;4.169578198343515E-003;-3.680048976093531E-003;
2.414166666666667E+009;1.901594847440720E-001;-2.536984905600548E-002;3.915910143405199E-003;-3.864299040287733E-003;
2.414333333333334E+009;1.910395473241806E-001;-2.718614041805267E-002;3.892691573128104E-003;-3.969981800764799E-003;
2.414500000000000E+009;1.921708136796951E-001;-2.848868630826473E-002;3.788460744544864E-003;-4.232300445437431E-003;
2.414666666666667E+009;1.931450366973877E-001;-3.004538640379906E-002;3.818169236183167E-003;-4.219919443130493E-003;
2.414833333333334E+009;1.942037343978882E-001;-3.131875023245812E-002;3.537565702572465E-003;-4.576779901981354E-003;
2.415000000000000E+009;1.949710100889206E-001;-3.271173313260078E-002;3.379227593541145E-003;-4.632728174328804E-003;
2.415166666666667E+009;1.959723383188248E-001;-3.382904455065727E-002;3.211891278624535E-003;-4.908700007945299E-003;
2.415333333333334E+009;1.970603615045548E-001;-3.471216186881065E-002;2.862218068912625E-003;-4.956581164151430E-003;
2.415500000000000E+009;1.979975700378418E-001;-3.544302657246590E-002;2.604986540973187E-003;-5.028461106121540E-003;
2.415666666666667E+009;1.986645311117172E-001;-3.634389862418175E-002;2.369828289374709E-003;-5.259786266833544E-003;
2.415833333333334E+009;1.993169933557510E-001;-3.708162903785706E-002;2.208963502198458E-003;-5.293658468872309E-003;
2.416000000000000E+009;1.999902427196503E-001;-3.791907802224159E-002;2.130964538082480E-003;-5.260896403342485E-003;
2.416166666666667E+009;2.006052434444428E-001;-3.857731819152832E-002;1.646906021051109E-003;-5.367938429117203E-003;
2.416333333333334E+009;2.009630054235458E-001;-3.890463709831238E-002;1.458321930840612E-003;-5.347773898392916E-003;
2.416500000000000E+009;2.014789730310440E-001;-3.920558840036392E-002;1.218813122250140E-003;-5.380249116569758E-003;
2.416666666666667E+009;2.015906274318695E-001;-3.976462781429291E-002;1.182893174700439E-003;-5.293748341500759E-003;
2.416833333333334E+009;2.015992850065231E-001;-3.995681926608086E-002;9.980283211916685E-004;-5.261774640530348E-003;
2.417000000000000E+009;2.016306370496750E-001;-4.019124805927277E-002;8.410325390286744E-004;-5.253941752016544E-003;
2.417166666666667E+009;2.013939321041107E-001;-4.029715433716774E-002;6.476392736658454E-004;-5.333112087100744E-003;
2.417333333333334E+009;2.010714858770371E-001;-4.046985134482384E-002;4.628334718290716E-004;-5.273698363453150E-003;
2.417500000000000E+009;2.008312046527863E-001;-4.063901305198669E-002;4.257460241205990E-004;-5.362809635698795E-003;
2.417666666666667E+009;2.001902759075165E-001;-4.066584259271622E-002;3.643143572844565E-004;-5.310888867825270E-003;
2.417833333333334E+009;1.998994797468185E-001;-4.058934375643730E-002;2.175971458200365E-004;-5.395537242293358E-003;
2.418000000000000E+009;1.992739439010620E-001;-4.066511243581772E-002;-7.133700273698196E-005;-5.509700626134872E-003;
2.418166666666667E+009;1.985062658786774E-001;-4.069782793521881E-002;-2.249724930152297E-004;-5.487244576215744E-003;
2.418333333333334E+009;1.976975053548813E-001;-4.089450836181641E-002;-5.014979396946728E-004;-5.560519639402628E-003;
2.418500000000000E+009;1.968478560447693E-001;-4.111221432685852E-002;-8.377882186323404E-004;-5.644898395985365E-003;
2.418666666666667E+009;1.961032003164291E-001;-4.119276255369186E-002;-9.416764951311052E-004;-5.520428065210581E-003;
2.418833333333334E+009;1.949062347412109E-001;-4.146304726600647E-002;-1.372460275888443E-003;-5.367277190089226E-003;
2.419000000000000E+009;1.937732398509979E-001;-4.197167232632637E-002;-1.552918343804777E-003;-5.187382921576500E-003;
2.419166666666667E+009;1.926407814025879E-001;-4.239258170127869E-002;-1.704409369267523E-003;-5.187670234590769E-003;
2.419333333333334E+009;1.913989037275314E-001;-4.303489625453949E-002;-2.125741681084037E-003;-4.817991517484188E-003;
2.419500000000000E+009;1.901281327009201E-001;-4.360736906528473E-002;-2.268763724714518E-003;-4.881308879703283E-003;
2.419666666666667E+009;1.887881308794022E-001;-4.453378543257713E-002;-2.262365305796266E-003;-4.488523118197918E-003;
2.419833333333334E+009;1.873843520879746E-001;-4.517278075218201E-002;-2.460683928802609E-003;-4.267922136932612E-003;
2.420000000000000E+009;1.859695166349411E-001;-4.609823971986771E-002;-2.418699674308300E-003;-4.048825707286596E-003;
2.420166666666667E+009;1.845270544290543E-001;-4.718250408768654E-002;-2.530589699745178E-003;-3.922696225345135E-003;
2.420333333333334E+009;1.831562668085098E-001;-4.818639531731606E-002;-2.313360339030623E-003;-3.638416528701782E-003;
2.420500000000000E+009;1.816800385713577E-001;-4.959779977798462E-002;-2.301481086760759E-003;-3.412560559809208E-003;
2.420666666666667E+009;1.803756654262543E-001;-5.051263794302940E-002;-2.234979765489698E-003;-3.318866714835167E-003;
2.420833333333334E+009;1.789902895689011E-001;-5.202710628509522E-002;-2.173375571146607E-003;-3.228397108614445E-003;
2.421000000000000E+009;1.777519434690476E-001;-5.355391278862953E-002;-2.023107605054975E-003;-3.319459967315197E-003;
2.421166666666667E+009;1.763600856065750E-001;-5.519312247633934E-002;-1.908601843751967E-003;-3.213414689525962E-003;
2.421333333333334E+009;1.750068366527557E-001;-5.667126178741455E-002;-1.844925922341645E-003;-3.336645197123289E-003;
2.421500000000000E+009;1.737882494926453E-001;-5.849635601043701E-002;-1.954664476215839E-003;-3.349761711433530E-003;
2.421666666666667E+009;1.727479994297028E-001;-6.002893298864365E-002;-1.787305693142116E-003;-3.308891551569104E-003;
2.421833333333334E+009;1.716900318861008E-001;-6.186927109956741E-002;-1.823497470468283E-003;-3.548948094248772E-003;
2.422000000000000E+009;1.707325577735901E-001;-6.358340382575989E-002;-2.115878276526928E-003;-3.524054773151875E-003;
2.422166666666667E+009;1.699663549661636E-001;-6.542230397462845E-002;-1.954214181751013E-003;-3.913023974746466E-003;
2.422333333333334E+009;1.689176410436630E-001;-6.721565127372742E-002;-2.227379707619548E-003;-3.835256677120924E-003;
2.422500000000000E+009;1.683138906955719E-001;-6.914435327053070E-002;-2.389077562838793E-003;-4.037663806229830E-003;
2.422666666666667E+009;1.675660610198975E-001;-7.092698663473129E-002;-2.497708657756448E-003;-3.807084402069449E-003;
2.422833333333334E+009;1.671999692916870E-001;-7.273294031620026E-002;-2.796936081722379E-003;-3.890269901603460E-003;
2.423000000000000E+009;1.666153371334076E-001;-7.479538023471832E-002;-2.918834798038006E-003;-3.956050612032414E-003;
2.423166666666667E+009;1.663547754287720E-001;-7.635685801506043E-002;-3.144342685118318E-003;-3.822795581072569E-003;
2.423333333333334E+009;1.661378741264343E-001;-7.825225591659546E-002;-3.316697897389531E-003;-3.786387620493770E-003;
2.423500000000000E+009;1.659482717514038E-001;-8.008190989494324E-002;-3.672640770673752E-003;-3.821827704086900E-003;
2.423666666666667E+009;1.657846570014954E-001;-8.164750039577484E-002;-3.876592731103301E-003;-3.641181392595172E-003;
2.423833333333334E+009;1.656410396099091E-001;-8.327732980251312E-002;-3.910839557647705E-003;-3.337849630042911E-003;
2.424000000000000E+009;1.655943244695664E-001;-8.499830216169357E-002;-4.215935245156288E-003;-3.310723230242729E-003;
2.424166666666667E+009;1.656760275363922E-001;-8.643646538257599E-002;-4.403862636536360E-003;-3.015883965417743E-003;
2.424333333333334E+009;1.659438908100128E-001;-8.785711973905563E-002;-4.343605134636164E-003;-3.035770263522863E-003;
2.424500000000000E+009;1.660834252834320E-001;-8.951680362224579E-002;-4.634820856153965E-003;-2.841633511707187E-003;
2.424666666666667E+009;1.660971045494080E-001;-9.082168340682983E-002;-4.610663279891014E-003;-2.705570310354233E-003;
2.424833333333334E+009;1.664803773164749E-001;-9.199576079845429E-002;-4.815556574612856E-003;-2.555796643719077E-003;
2.425000000000000E+009;1.666544228792191E-001;-9.320052713155747E-002;-4.956525750458241E-003;-2.494935411959887E-003;
2.425166666666667E+009;1.668937206268311E-001;-9.422653168439865E-002;-5.016175098717213E-003;-2.229559700936079E-003;
2.425333333333334E+009;1.669398844242096E-001;-9.514330327510834E-002;-4.976144060492516E-003;-1.894495915621519E-003;
2.425500000000000E+009;1.674387007951737E-001;-9.619963914155960E-002;-5.106121767312288E-003;-1.883049262687564E-003;
2.425666666666667E+009;1.676324456930161E-001;-9.700613468885422E-002;-5.373925436288118E-003;-1.596939633600414E-003;
2.425833333333334E+009;1.679398864507675E-001;-9.788180887699127E-002;-5.414992570877075E-003;-1.511189853772521E-003;
2.426000000000000E+009;1.680049747228622E-001;-9.837231785058975E-002;-5.440207198262215E-003;-1.077485852874816E-003;
2.426166666666667E+009;1.684236377477646E-001;-9.897483885288239E-002;-5.575838964432478E-003;-9.024167666211724E-004;
2.426333333333334E+009;1.683513075113297E-001;-9.962555021047592E-002;-5.713798105716705E-003;-5.927723250351846E-004;
2.426500000000000E+009;1.686708331108093E-001;-1.000040546059609E-001;-5.606729537248612E-003;-6.644736276939511E-004;
2.426666666666667E+009;1.687480658292770E-001;-1.004675179719925E-001;-5.657099653035402E-003;-3.402277652639896E-004;
2.426833333333334E+009;1.690554469823837E-001;-1.008791401982307E-001;-5.679264664649963E-003;-4.592888944898732E-005;
2.427000000000000E+009;1.689707338809967E-001;-1.012476980686188E-001;-5.763560533523560E-003;1.513343886472285E-004;
2.427166666666667E+009;1.689393371343613E-001;-1.014052778482437E-001;-5.564420018345118E-003;4.190115141682327E-004;
2.427333333333334E+009;1.688252091407776E-001;-1.019654497504234E-001;-5.366454366594553E-003;5.499149556271732E-004;
2.427500000000000E+009;1.686427891254425E-001;-1.024236083030701E-001;-5.505756475031376E-003;7.645651930943131E-004;
2.427666666666667E+009;1.683153659105301E-001;-1.026245579123497E-001;-5.533487070351839E-003;1.040127128362656E-003;
2.427833333333334E+009;1.679595112800598E-001;-1.028690785169601E-001;-5.568568594753742E-003;1.076958957128227E-003;
