# Version 1.00
#
freq[Hz];re:Trc1_S11;im:Trc1_S11;re:Trc2_S21;im:Trc2_S21;
2.400000000000000E+009;1.566021591424942E-001;1.057708114385605E-001;1.393649028614163E-003;4.747923463582993E-003;
2.400166666666667E+009;1.566066294908524E-001;1.036260128021240E-001;1.625049626454711E-003;4.422805737704039E-003;
2.400333333333334E+009;1.568206101655960E-001;1.013388931751251E-001;1.723483204841614E-003;4.082079511135817E-003;
2.400500000000000E+009;1.569937169551849E-001;9.890701621770859E-002;1.797804376110435E-003;3.732224227860570E-003;
2.400666666666667E+009;1.572531163692474E-001;9.643589705228806E-002;1.671144738793373E-003;3.473924705758691E-003;
2.400833333333334E+009;1.576015651226044E-001;9.389460831880570E-002;1.675601815804839E-003;3.258826443925500E-003;
2.401000000000000E+009;1.578553766012192E-001;9.140095114707947E-002;1.431267941370606E-003;2.868418116122484E-003;
2.401166666666667E+009;1.580380201339722E-001;8.892700821161270E-002;1.283463556319475E-003;2.898243954405189E-003;
2.401333333333334E+009;1.587086468935013E-001;8.625540882349014E-002;1.059092930518091E-003;2.657711971551180E-003;
2.401500000000000E+009;1.593272238969803E-001;8.354519307613373E-002;8.259321912191808E-004;2.662933198735118E-003;
2.401666666666667E+009;1.597423404455185E-001;8.092883229255676E-002;7.018985925242305E-004;2.571304328739643E-003;
2.401833333333334E+009;1.603446900844574E-001;7.833781093358994E-002;4.879858170170337E-004;2.730787498876452E-003;
2.402000000000000E+009;1.611804068088532E-001;7.570399343967438E-002;2.538596745580435E-004;2.679758705198765E-003;
2.402166666666667E+009;1.619154512882233E-001;7.333625108003616E-002;2.904878929257393E-004;2.801050199195743E-003;
2.402333333333334E+009;1.628685146570206E-001;7.094516605138779E-002;7.158560606512765E-007;3.006795188412070E-003;
2.402500000000000E+009;1.639571785926819E-001;6.846617162227631E-002;6.906704948050901E-005;3.262811573222280E-003;
2.402666666666667E+009;1.652269214391708E-001;6.647969037294388E-002;1.550263841636479E-004;3.551728092133999E-003;
2.402833333333334E+009;1.662679016590118E-001;6.412102282047272E-002;2.068514586426318E-004;3.547177417203784E-003;
2.403000000000000E+009;1.675749272108078E-001;6.201038882136345E-002;2.916280936915427E-004;3.766070585697889E-003;
2.403166666666667E+009;1.691137254238129E-001;5.977430567145348E-002;3.673809114843607E-004;3.968980163335800E-003;
2.403333333333334E+009;1.702896505594254E-001;5.784854665398598E-002;5.560157587751746E-004;4.092154558748007E-003;
2.403500000000000E+009;1.719247996807098E-001;5.588575825095177E-002;6.152254063636065E-004;4.055253695696592E-003;
2.403666666666667E+009;1.735551208257675E-001;5.397944524884224E-002;9.733600891195238E-004;4.231859464198351E-003;
2.403833333333334E+009;1.750246286392212E-001;5.240436270833015E-002;1.038322458043695E-003;4.220574162900448E-003;
2.404000000000000E+009;1.762966066598892E-001;5.049671232700348E-002;1.218956895172596E-003;4.266662057489157E-003;
2.404166666666667E+009;1.778029799461365E-001;4.915314167737961E-002;1.565086538903415E-003;4.200291819870472E-003;
2.404333333333334E+009;1.791680008172989E-001;4.752776026725769E-002;1.588162267580628E-003;4.205256234854460E-003;
2.404500000000000E+009;1.807068884372711E-001;4.605975374579430E-002;1.772431540302932E-003;4.312440287321806E-003;
2.404666666666667E+009;1.820514351129532E-001;4.490620642900467E-002;1.795972581021488E-003;4.413774702697992E-003;
2.404833333333334E+009;1.833370774984360E-001;4.382770508527756E-002;2.149185631424189E-003;4.289958160370588E-003;
2.405000000000000E+009;1.844872385263443E-001;4.321964457631111E-002;2.269309945404530E-003;4.350809380412102E-003;
2.405166666666667E+009;1.856753230094910E-001;4.235980287194252E-002;2.442292636260390E-003;4.407843109220266E-003;
2.405333333333334E+009;1.867795288562775E-001;4.169577360153198E-002;2.671251539140940E-003;4.162786994129419E-003;
2.405500000000000E+009;1.879515945911408E-001;4.112732410430908E-002;2.818737179040909E-003;4.326105117797852E-003;
2.405666666666667E+009;1.890951097011566E-001;4.064753651618958E-002;3.035000059753656E-003;4.133650567382574E-003;
2.405833333333334E+009;1.900099217891693E-001;4.029263183474541E-002;3.058769972994924E-003;4.208649974316359E-003;
2.406000000000000E+009;1.909470111131668E-001;3.995011746883392E-002;3.246486652642489E-003;3.981648012995720E-003;
2.406166666666667E+009;1.918042898178101E-001;3.965203836560249E-002;3.549734130501747E-003;3.909409977495670E-003;
2.406333333333334E+009;1.924995779991150E-001;3.943414613604546E-002;3.648870391771197E-003;4.041678737848997E-003;
2.406500000000000E+009;1.931727230548859E-001;3.930831328034401E-002;3.873123321682215E-003;3.992876037955284E-003;
2.406666666666667E+009;1.936333030462265E-001;3.922707960009575E-002;4.090475849807262E-003;3.787192050367594E-003;
2.406833333333334E+009;1.940246522426605E-001;3.890082985162735E-002;4.191719926893711E-003;3.684383118525147E-003;
2.407000000000000E+009;1.943845450878143E-001;3.905441612005234E-002;4.420543089509010E-003;3.464590990915895E-003;
2.407166666666667E+009;1.945897340774536E-001;3.854941949248314E-002;4.468690603971481E-003;3.478100989013910E-003;
2.407333333333334E+009;1.946238726377487E-001;3.856460005044937E-002;4.812630359083414E-003;3.166175214573741E-003;
2.407500000000000E+009;1.945098489522934E-001;3.839191421866417E-002;4.885476548224688E-003;3.072419669479132E-003;
2.407666666666667E+009;1.946083903312683E-001;3.817058354616165E-002;4.997708369046450E-003;2.843457739800215E-003;
2.407833333333334E+009;1.942461878061295E-001;3.778766840696335E-002;5.139624699950218E-003;2.490728627890348E-003;
2.408000000000000E+009;1.942072212696075E-001;3.742976114153862E-002;5.348479375243187E-003;2.453574677929282E-003;
2.408166666666667E+009;1.936594247817993E-001;3.696752712130547E-002;5.421140696853399E-003;2.209977945312858E-003;
2.408333333333334E+009;1.932771354913712E-001;3.627686947584152E-002;5.511761177331209E-003;1.956607447937131E-003;
2.408500000000000E+009;1.927244663238525E-001;3.585019335150719E-002;5.435740575194359E-003;1.767384354025126E-003;
2.408666666666667E+009;1.923244595527649E-001;3.514843061566353E-002;5.599770694971085E-003;1.454371726140380E-003;
2.408833333333334E+009;1.917563527822495E-001;3.440635278820992E-002;5.611467175185680E-003;1.461476786062121E-003;
2.409000000000000E+009;1.910514235496521E-001;3.331392258405685E-002;5.695615429431200E-003;1.219120458699763E-003;
2.409166666666667E+009;1.902754455804825E-001;3.235638141632080E-002;5.860163830220699E-003;8.434534538537264E-004;
2.409333333333334E+009;1.896749734878540E-001;3.132127597928047E-002;5.838571116328239E-003;6.855397950857878E-004;
2.409500000000000E+009;1.886719465255737E-001;2.998835779726505E-002;5.858986172825098E-003;4.733353562187403E-004;
2.409666666666667E+009;1.879132986068726E-001;2.852746658027172E-002;5.817271769046783E-003;3.362668794579804E-004;
2.409833333333334E+009;1.871311366558075E-001;2.712450549006462E-002;5.899942014366388E-003;-8.777185576036573E-005;
2.410000000000000E+009;1.862564831972122E-001;2.557685598731041E-002;5.799361504614353E-003;-8.911171607905999E-005;
2.410166666666667E+009;1.856408268213272E-001;2.376611158251762E-002;5.677249748259783E-003;-2.615942503325641E-004;
2.410333333333334E+009;1.848290115594864E-001;2.214302867650986E-002;5.761231295764446E-003;-6.351602496579289E-004;
2.410500000000000E+009;1.841385066509247E-001;2.030176669359207E-002;5.674973595887423E-003;-7.559515070170164E-004;
2.410666666666667E+009;1.834583282470703E-001;1.816208474338055E-002;5.602996330708265E-003;-1.023645279929042E-003;
2.410833333333334E+009;1.829842627048492E-001;1.605525799095631E-002;5.487253423780203E-003;-1.110774115659297E-003;
2.411000000000000E+009;1.824456900358200E-001;1.421983167529106E-002;5.490647163242102E-003;-1.377720269374549E-003;
2.411166666666667E+009;1.818559318780899E-001;1.208101864904165E-002;5.482470616698265E-003;-1.500023994594812E-003;
2.411333333333334E+009;1.815310716629028E-001;9.956676512956619E-003;5.280610639601946E-003;-1.688760705292225E-003;
2.411500000000000E+009;1.812588721513748E-001;7.708454970270395E-003;5.163591820746660E-003;-2.000313485041261E-003;
2.411666666666667E+009;1.811785995960236E-001;5.557830911129713E-003;5.180052947252989E-003;-1.864703139290214E-003;
2.411833333333334E+009;1.808978021144867E-001;3.417934291064739E-003;5.082011688500643E-003;-2.078601391986013E-003;
2.412000000000000E+009;1.810134798288345E-001;8.610328659415245E-004;4.787476267665625E-003;-2.217566827312112E-003;
2.412166666666667E+009;1.811639070510864E-001;-9.613842703402042E-004;4.670545458793640E-003;-2.295398619025946E-003;
2.412333333333334E+009;1.814953982830048E-001;-3.312411019578576E-003;4.703558981418610E-003;-2.397337928414345E-003;
2.412500000000000E+009;1.818478703498840E-001;-5.328317172825337E-003;4.551435820758343E-003;-2.606529043987393E-003;
2.412666666666667E+009;1.824189871549606E-001;-7.776615675538778E-003;4.588117823004723E-003;-2.767348894849420E-003;
2.412833333333334E+009;1.829374879598618E-001;-9.816237725317478E-003;4.496950190514326E-003;-2.783234231173992E-003;
2.413000000000000E+009;1.836566329002380E-001;-1.203663554042578E-002;4.441128112375736E-003;-2.925820183008909E-003;
2.413166666666667E+009;1.842881292104721E-001;-1.387084182351828E-002;4.298624116927385E-003;-2.947792643681169E-003;
2.413333333333334E+009;1.853487640619278E-001;-1.601677387952805E-002;4.314749967306852E-003;-3.070070175454021E-003;
2.413500000000000E+009;1.860424727201462E-001;-1.808759756386280E-002;4.231767728924751E-003;-3.214558819308877E-003;
2.413666666666667E+009;1.869720667600632E-001;-2.006979286670685E-002;4.307557828724384E-003;-3.359783207997680E-003;
2.413833333333334E+009;1.879066675901413E-001;-2.190729603171349E-002;4.182727541774511E-003;-3.525524865835905E-003;
2.414000000000000E+009;1.889962702989578E-001;-2.378439716994762E-002;3.936039749532938E-003;-3.637855872511864E-003;
2.414166666666667E+009;1.901067048311234E-001;-2.539868652820587E-002;4.072296433150768E-003;-3.771458985283971E-003;
2.414333333333334E+009;1.908591389656067E-001;-2.734041400253773E-002;3.871615743264556E-003;-3.992987331002951E-003;
2.414500000000000E+009;1.921329796314240E-001;-2.859926037490368E-002;3.762751119211316E-003;-4.363120999187231E-003;
2.414666666666667E+009;1.930937170982361E-001;-3.001444973051548E-002;3.613174427300692E-003;-4.410142078995705E-003;
2.414833333333334E+009;1.939863562583923E-001;-3.131332993507385E-002;3.594995476305485E-003;-4.411721136420965E-003;
2.415000000000000E+009;1.950249373912811E-001;-3.257963433861733E-002;3.349330974742770E-003;-4.715003538876772E-003;
2.415166666666667E+009;1.960250288248062E-001;-3.379125893115997E-002;3.049305407330394E-003;-4.879750777035952E-003;
2.415333333333334E+009;1.969621479511261E-001;-3.473124653100967E-002;2.877973718568683E-003;-5.005992483347654E-003;
2.415500000000000E+009;1.977902203798294E-001;-3.554641082882881E-002;2.756873611360788E-003;-5.071848165243864E-003;
2.415666666666667E+009;1.988109648227692E-001;-3.651069477200508E-002;2.475751796737313E-003;-5.307643674314022E-003;
2.415833333333334E+009;1.994088590145111E-001;-3.711795061826706E-002;2.164761070162058E-003;-5.220910068601370E-003;
2.416000000000000E+009;2.000476270914078E-001;-3.782133013010025E-002;1.958796521648765E-003;-5.456184037029743E-003;
2.416166666666667E+009;2.004676610231400E-001;-3.855174407362938E-002;1.780890510417521E-003;-5.286281462758780E-003;
2.416333333333334E+009;2.010617107152939E-001;-3.898943960666657E-002;1.541940146125853E-003;-5.286844447255135E-003;
2.416500000000000E+009;2.013701200485230E-001;-3.933957964181900E-002;1.441140309907496E-003;-5.332929547876120E-003;
2.416666666666667E+009;2.016106694936752E-001;-3.980584070086479E-002;1.143322908319533E-003;-5.307260435074568E-003;
2.416833333333334E+009;2.016080617904663E-001;-4.001592099666596E-002;8.720348705537617E-004;-5.238795187324286E-003;
2.417000000000000E+009;2.016084641218185E-001;-4.034418612718582E-002;9.165507508441806E-004;-5.162618122994900E-003;
2.417166666666667E+009;2.012391388416290E-001;-4.049628973007202E-002;8.776137838140130E-004;-5.157559178769589E-003;
2.417333333333334E+009;2.010817825794220E-001;-4.051720350980759E-002;6.177112227305770E-004;-5.322518292814493E-003;
2.417500000000000E+009;2.007385641336441E-001;-4.064736142754555E-002;5.025450955145061E-004;-5.373414605855942E-003;
2.417666666666667E+009;2.002312242984772E-001;-4.078222066164017E-002;5.243330379016697E-004;-5.406725686043501E-003;
2.417833333333334E+009;1.998154670000076E-001;-4.072570428252220E-002;1.712735247565433E-004;-5.424651782959700E-003;
2.418000000000000E+009;1.992433816194534E-001;-4.074571281671524E-002;2.138111085514538E-005;-5.400273017585278E-003;
2.418166666666667E+009;1.984000653028488E-001;-4.077085107564926E-002;-2.563250309322029E-004;-5.465401336550713E-003;
2.418333333333334E+009;1.977250576019287E-001;-4.091577604413033E-002;-5.720343324355781E-004;-5.428165663033724E-003;
2.418500000000000E+009;1.967240720987320E-001;-4.117394611239433E-002;-7.626556325703859E-004;-5.525850225239992E-003;
2.418666666666667E+009;1.959438771009445E-001;-4.125026613473892E-002;-1.067082048393786E-003;-5.459468346089125E-003;
2.418833333333334E+009;1.947745382785797E-001;-4.155567288398743E-002;-1.215115655213594E-003;-5.439816508442164E-003;
2.419000000000000E+009;1.936881393194199E-001;-4.196124151349068E-002;-1.482352614402771E-003;-5.212082993239164E-003;
2.419166666666667E+009;1.925280094146729E-001;-4.249536991119385E-002;-1.672827056609094E-003;-5.072004627436400E-003;
2.419333333333334E+009;1.913645863533020E-001;-4.317227751016617E-002;-1.916980952955782E-003;-4.905808251351118E-003;
2.419500000000000E+009;1.899888962507248E-001;-4.369178414344788E-002;-2.218607813119888E-003;-4.775902722030878E-003;
2.419666666666667E+009;1.887236982584000E-001;-4.443879425525665E-002;-2.257733372971416E-003;-4.491320345550776E-003;
2.419833333333334E+009;1.872981637716293E-001;-4.513515532016754E-002;-2.407004591077566E-003;-4.209059756249189E-003;
2.420000000000000E+009;1.861031353473663E-001;-4.613354802131653E-002;-2.563711022958159E-003;-4.136990755796433E-003;
2.420166666666667E+009;1.846686452627182E-001;-4.712795466184616E-002;-2.342104911804199E-003;-3.734965575858951E-003;
2.420333333333334E+009;1.831549108028412E-001;-4.826849326491356E-002;-2.420903882011771E-003;-3.646611003205180E-003;
2.420500000000000E+009;1.816480159759522E-001;-4.954658448696137E-002;-2.361442893743515E-003;-3.388487966731191E-003;
2.420666666666667E+009;1.802578419446945E-001;-5.067999288439751E-002;-2.333135344088078E-003;-3.368278034031391E-003;
2.420833333333334E+009;1.788692325353622E-001;-5.230745673179627E-002;-2.283411798998714E-003;-3.238748759031296E-003;
2.421000000000000E+009;1.776941865682602E-001;-5.366240814328194E-002;-2.176003996282816E-003;-3.251133253797889E-003;
2.421166666666667E+009;1.764067113399506E-001;-5.525925382971764E-002;-1.898881513625383E-003;-3.231538459658623E-003;
2.421333333333334E+009;1.750376671552658E-001;-5.660443380475044E-002;-1.970926532521844E-003;-3.184907138347626E-003;
2.421500000000000E+009;1.738525182008743E-001;-5.844995379447937E-002;-1.978418789803982E-003;-3.355324035510421E-003;
2.421666666666667E+009;1.727103888988495E-001;-6.030281260609627E-002;-1.757722813636065E-003;-3.331183455884457E-003;
2.421833333333334E+009;1.717356741428375E-001;-6.192800775170326E-002;-2.009441843256354E-003;-3.581636352464557E-003;
2.422000000000000E+009;1.706061959266663E-001;-6.348632276058197E-002;-2.009462332352996E-003;-3.537240205332637E-003;
2.422166666666667E+009;1.699029207229614E-001;-6.552541255950928E-002;-2.068517496809363E-003;-3.803096245974302E-003;
2.422333333333334E+009;1.690797805786133E-001;-6.727835536003113E-002;-2.183111151680350E-003;-3.798031015321612E-003;
2.422500000000000E+009;1.682950854301453E-001;-6.901446729898453E-002;-2.411032328382134E-003;-3.680471098050475E-003;
2.422666666666667E+009;1.676415652036667E-001;-7.088483124971390E-002;-2.393353730440140E-003;-3.951306454837322E-003;
2.422833333333334E+009;1.671547740697861E-001;-7.270307838916779E-002;-2.811320126056671E-003;-3.861952805891633E-003;
2.423000000000000E+009;1.666247844696045E-001;-7.463612407445908E-002;-2.934227231889963E-003;-3.955716267228127E-003;
2.423166666666667E+009;1.663267165422440E-001;-7.643309235572815E-002;-3.117828164249659E-003;-3.806642023846507E-003;
2.423333333333334E+009;1.660525053739548E-001;-7.820390909910202E-002;-3.452925011515617E-003;-3.772371215745807E-003;
2.423500000000000E+009;1.658632904291153E-001;-7.990691065788269E-002;-3.598642768338323E-003;-3.602481912821531E-003;
2.423666666666667E+009;1.657012999057770E-001;-8.146785199642181E-002;-3.757655853405595E-003;-3.729423740878701E-003;
2.423833333333334E+009;1.655921936035156E-001;-8.323495835065842E-002;-4.015407525002956E-003;-3.384451614692807E-003;
2.424000000000000E+009;1.656367927789688E-001;-8.497975021600723E-002;-4.054798744618893E-003;-3.169578034430742E-003;
2.424166666666667E+009;1.657369434833527E-001;-8.645239472389221E-002;-4.282119683921337E-003;-3.224588930606842E-003;
2.424333333333334E+009;1.658025681972504E-001;-8.788891136646271E-002;-4.382372833788395E-003;-2.987614367157221E-003;
2.424500000000000E+009;1.661338806152344E-001;-8.944977819919586E-002;-4.461213480681181E-003;-2.812989754602313E-003;
2.424666666666667E+009;1.661245673894882E-001;-9.070976078510284E-002;-4.578555002808571E-003;-2.671527676284313E-003;
2.424833333333334E+009;1.665482968091965E-001;-9.207336604595184E-002;-4.830662161111832E-003;-2.600188134238124E-003;
2.425000000000000E+009;1.667191833257675E-001;-9.314735978841782E-002;-4.756401292979717E-003;-2.308100927621126E-003;
2.425166666666667E+009;1.669008731842041E-001;-9.425802528858185E-002;-4.907027818262577E-003;-2.288195304572582E-003;
2.425333333333334E+009;1.670348942279816E-001;-9.513391554355621E-002;-5.244420375674963E-003;-2.108253072947264E-003;
2.425500000000000E+009;1.673628240823746E-001;-9.619524329900742E-002;-5.046146921813488E-003;-1.651973812840879E-003;
2.425666666666667E+009;1.677455306053162E-001;-9.681579470634460E-002;-5.251526366919279E-003;-1.589923049323261E-003;
2.425833333333334E+009;1.679217368364334E-001;-9.782732278108597E-002;-5.419470835477114E-003;-1.415070844814181E-003;
2.426000000000000E+009;1.680768132209778E-001;-9.827338159084320E-002;-5.410176701843739E-003;-1.217625220306218E-003;
2.426166666666667E+009;1.682943254709244E-001;-9.886708110570908E-002;-5.679483991116285E-003;-1.040520146489143E-003;
2.426333333333334E+009;1.683146208524704E-001;-9.957727789878845E-002;-5.511092022061348E-003;-6.655758479610086E-004;
2.426500000000000E+009;1.686004251241684E-001;-9.997668117284775E-002;-5.542463622987270E-003;-6.213779561221600E-004;
2.426666666666667E+009;1.687974035739899E-001;-1.004475504159927E-001;-5.721111781895161E-003;-3.307589213363826E-004;
2.426833333333334E+009;1.689221560955048E-001;-1.007820516824722E-001;-5.670940503478050E-003;-1.280192955164239E-004;
2.427000000000000E+009;1.689555794000626E-001;-1.012159883975983E-001;-5.601502489298582E-003;1.612987543921918E-004;
2.427166666666667E+009;1.689047068357468E-001;-1.014498770236969E-001;-5.481819622218609E-003;3.015395195689052E-004;
2.427333333333334E+009;1.687721461057663E-001;-1.019417569041252E-001;-5.520475562661886E-003;6.476088892668486E-004;
2.427500000000000E+009;1.685545146465302E-001;-1.022734418511391E-001;-5.582087207585573E-003;6.675085169263184E-004;
2.427666666666667E+009;1.683111488819122E-001;-1.025940179824829E-001;-5.356044974178076E-003;1.108034513890743E-003;
2.427833333333334E+009;1.678386926651001E-001;-1.028673499822617E-001;-5.486498121172190E-003;1.148402341641486E-003;
