# Version 1.00
#
freq[Hz];re:Trc1_S11;im:Trc1_S11;re:Trc2_S21;im:Trc2_S21;
2.400000000000000E+009;1.676287949085236E-001;4.106024652719498E-002;-1.288253697566688E-003;2.604840556159616E-003;
2.400166666666667E+009;1.683129817247391E-001;4.039413109421730E-002;-1.152306329458952E-003;2.441643271595240E-003;
2.400333333333334E+009;1.686786115169525E-001;3.943861275911331E-002;-1.010627718642354E-003;2.495783381164074E-003;
2.400500000000000E+009;1.690738797187805E-001;3.849118947982788E-002;-8.718270692043006E-004;2.457918133586645E-003;
2.400666666666667E+009;1.694315373897553E-001;3.758952021598816E-002;-8.556341053918004E-004;2.342022489756346E-003;
2.400833333333334E+009;1.698280274868012E-001;3.692411631345749E-002;-8.957027457654476E-004;2.317593432962894E-003;
2.401000000000000E+009;1.701639294624329E-001;3.589534386992455E-002;-7.336981361731887E-004;2.260395791381598E-003;
2.401166666666667E+009;1.703428775072098E-001;3.487462922930718E-002;-6.832053186371923E-004;2.123106038197875E-003;
2.401333333333334E+009;1.704379767179489E-001;3.401963785290718E-002;-6.656309124082327E-004;1.889412640593946E-003;
2.401500000000000E+009;1.708094775676727E-001;3.311425819993019E-002;-6.302337278611958E-004;1.935994951054454E-003;
2.401666666666667E+009;1.707765609025955E-001;3.235771507024765E-002;-6.169461994431913E-004;1.850543427281082E-003;
2.401833333333334E+009;1.711167544126511E-001;3.137221559882164E-002;-3.967901284340769E-004;1.825415878556669E-003;
2.402000000000000E+009;1.709143370389938E-001;3.061370365321636E-002;-4.591446486301720E-004;1.626029261387885E-003;
2.402166666666667E+009;1.711268275976181E-001;2.934210561215878E-002;-5.706867086701095E-004;1.702392357401550E-003;
2.402333333333334E+009;1.711394190788269E-001;2.849348075687885E-002;-6.441927980631590E-004;1.611077575944364E-003;
2.402500000000000E+009;1.713957935571671E-001;2.759423851966858E-002;-6.037634448148310E-004;1.392436213791370E-003;
2.402666666666667E+009;1.713544130325317E-001;2.659256756305695E-002;-7.411188562400639E-004;1.514281029812992E-003;
2.402833333333334E+009;1.712588965892792E-001;2.557771839201450E-002;-6.909659714438021E-004;1.545262639410794E-003;
2.403000000000000E+009;1.711667776107788E-001;2.446577697992325E-002;-6.180952768772841E-004;1.503126812167466E-003;
2.403166666666667E+009;1.711217612028122E-001;2.334885857999325E-002;-9.533000411465764E-004;1.541069825179875E-003;
2.403333333333334E+009;1.712670922279358E-001;2.233644947409630E-002;-5.846498534083366E-004;1.674246508628130E-003;
2.403500000000000E+009;1.711411178112030E-001;2.102999389171600E-002;-8.164301980286837E-004;1.685512252151966E-003;
2.403666666666667E+009;1.707601547241211E-001;1.955118030309677E-002;-8.676198776811361E-004;1.684739021584392E-003;
2.403833333333334E+009;1.709174960851669E-001;1.848327182233334E-002;-8.713581482879818E-004;1.866689417511225E-003;
2.404000000000000E+009;1.708675920963287E-001;1.735432073473930E-002;-8.177151321433485E-004;1.724447007291019E-003;
2.404166666666667E+009;1.705810576677322E-001;1.596008427441120E-002;-7.811503019183874E-004;1.780221704393625E-003;
2.404333333333334E+009;1.705925762653351E-001;1.462176255881786E-002;-8.004785049706698E-004;1.887133228592575E-003;
2.404500000000000E+009;1.704426556825638E-001;1.327548548579216E-002;-9.300569072365761E-004;1.893879962153733E-003;
2.404666666666667E+009;1.706211864948273E-001;1.179983094334602E-002;-7.545252447016537E-004;2.145984675735235E-003;
2.404833333333334E+009;1.703361123800278E-001;1.050669513642788E-002;-5.883794510737062E-004;2.147337654605508E-003;
2.405000000000000E+009;1.703630536794663E-001;8.930341340601444E-003;-6.535230786539614E-004;2.162787364795804E-003;
2.405166666666667E+009;1.704841405153275E-001;7.401972077786923E-003;-4.367468063719571E-004;2.165383426472545E-003;
2.405333333333334E+009;1.704878360033035E-001;5.866327788680792E-003;-5.217585130594671E-004;2.122920705005527E-003;
2.405500000000000E+009;1.704183518886566E-001;4.246816504746676E-003;-2.922718704212457E-004;2.301548607647419E-003;
2.405666666666667E+009;1.704061329364777E-001;2.765342127531767E-003;-1.753331598592922E-004;2.069254172965884E-003;
2.405833333333334E+009;1.702832579612732E-001;1.302959746681154E-003;-2.683707862161100E-005;2.101300051435828E-003;
2.406000000000000E+009;1.703137010335922E-001;-4.829131357837468E-004;2.906387453549542E-005;1.978738233447075E-003;
2.406166666666667E+009;1.700125336647034E-001;-1.831816392950714E-003;-8.673487900523469E-005;1.900148461572826E-003;
2.406333333333334E+009;1.700091958045960E-001;-3.485920140519738E-003;1.083561583072878E-004;1.738682622089982E-003;
2.406500000000000E+009;1.699330210685730E-001;-5.022886674851179E-003;-1.065678370650858E-004;1.721740700304508E-003;
2.406666666666667E+009;1.696261018514633E-001;-6.496419664472342E-003;-5.274882641970180E-005;1.660647569224238E-003;
2.406833333333334E+009;1.695729047060013E-001;-8.116818964481354E-003;-2.410038432572037E-004;1.504940330050886E-003;
2.407000000000000E+009;1.694020777940750E-001;-9.453723207116127E-003;-2.563873422332108E-004;1.398195978254080E-003;
2.407166666666667E+009;1.693281233310700E-001;-1.085530128329992E-002;-3.649438440334052E-004;1.392382313497365E-003;
2.407333333333334E+009;1.689928621053696E-001;-1.224271301180124E-002;-4.451245476957411E-004;1.446627429686487E-003;
2.407500000000000E+009;1.687601506710053E-001;-1.341334450989962E-002;-6.226474652066827E-004;1.489838701672852E-003;
2.407666666666667E+009;1.685822457075119E-001;-1.456694491207600E-002;-7.840537000447512E-004;1.714407466351986E-003;
2.407833333333334E+009;1.683755367994309E-001;-1.589173451066017E-002;-9.325044811703265E-004;1.949660014361143E-003;
2.408000000000000E+009;1.683077812194824E-001;-1.684620045125485E-002;-9.481339948251844E-004;1.943073933944106E-003;
2.408166666666667E+009;1.680773496627808E-001;-1.779792830348015E-002;-1.045614713802934E-003;2.162118675187230E-003;
2.408333333333334E+009;1.682534962892532E-001;-1.871746592223644E-002;-9.335817885585129E-004;2.287425100803375E-003;
2.408500000000000E+009;1.681531816720963E-001;-1.966623030602932E-002;-1.092405524104834E-003;2.644880209118128E-003;
2.408666666666667E+009;1.680595725774765E-001;-2.051103673875332E-002;-9.869863279163837E-004;2.547694835811853E-003;
2.408833333333334E+009;1.681240200996399E-001;-2.144890837371349E-002;-9.083637269213796E-004;2.975394483655691E-003;
2.409000000000000E+009;1.683304011821747E-001;-2.220588177442551E-002;-7.369805825874209E-004;3.141175257042050E-003;
2.409166666666667E+009;1.685265153646469E-001;-2.307250164449215E-002;-7.039967458695173E-004;3.322928678244352E-003;
2.409333333333334E+009;1.687187850475311E-001;-2.409561909735203E-002;-5.011894390918315E-004;3.425515489652753E-003;
2.409500000000000E+009;1.687083244323731E-001;-2.504573576152325E-002;-3.082330804318190E-004;3.542445832863450E-003;
2.409666666666667E+009;1.687926054000855E-001;-2.581248804926872E-002;-8.049606549320743E-005;3.732383484020829E-003;
2.409833333333334E+009;1.688406616449356E-001;-2.670997753739357E-002;1.399156462866813E-004;3.901917254552245E-003;
2.410000000000000E+009;1.690507680177689E-001;-2.755206264555454E-002;2.750077983364463E-004;4.062219988554716E-003;
2.410166666666667E+009;1.690721809864044E-001;-2.850294671952725E-002;5.302078789100051E-004;4.060841165482998E-003;
2.410333333333334E+009;1.689488291740418E-001;-2.947859093546867E-002;9.223826928064227E-004;4.107703920453787E-003;
2.410500000000000E+009;1.690011918544769E-001;-3.037630766630173E-002;1.001497847028077E-003;4.141665529459715E-003;
2.410666666666667E+009;1.687686592340469E-001;-3.146758303046227E-002;1.405795104801655E-003;4.235702566802502E-003;
2.410833333333334E+009;1.688167601823807E-001;-3.231846913695335E-002;1.532635767944157E-003;4.071427974849939E-003;
2.411000000000000E+009;1.687386780977249E-001;-3.326123207807541E-002;1.880849595181644E-003;4.197833593934774E-003;
2.411166666666667E+009;1.684239208698273E-001;-3.413447737693787E-002;2.105025108903647E-003;4.092625807970762E-003;
2.411333333333334E+009;1.681671887636185E-001;-3.501179814338684E-002;2.340239938348532E-003;4.081310238689184E-003;
2.411500000000000E+009;1.679530143737793E-001;-3.597137331962585E-002;2.608419628813863E-003;3.955407999455929E-003;
2.411666666666667E+009;1.677663773298264E-001;-3.668278083205223E-002;2.766066463664174E-003;3.733174409717321E-003;
2.411833333333334E+009;1.674762517213821E-001;-3.759667277336121E-002;3.035441040992737E-003;3.689347067847848E-003;
2.412000000000000E+009;1.673250496387482E-001;-3.866768628358841E-002;3.076518652960658E-003;3.523803316056728E-003;
2.412166666666667E+009;1.670582890510559E-001;-3.971264883875847E-002;3.387240227311850E-003;3.455759491771460E-003;
2.412333333333334E+009;1.669694334268570E-001;-4.058194160461426E-002;3.644048236310482E-003;3.295731265097857E-003;
2.412500000000000E+009;1.663432419300079E-001;-4.132079333066940E-002;3.729731542989612E-003;3.043525852262974E-003;
2.412666666666667E+009;1.661438792943955E-001;-4.263685271143913E-002;3.930203616619110E-003;2.803696086630225E-003;
2.412833333333334E+009;1.656855642795563E-001;-4.362838715314865E-002;4.104184452444315E-003;2.800468821078539E-003;
2.413000000000000E+009;1.653280854225159E-001;-4.452761262655258E-002;4.215801134705544E-003;2.448500366881490E-003;
2.413166666666667E+009;1.649003028869629E-001;-4.565909877419472E-002;4.292371682822704E-003;2.351270988583565E-003;
2.413333333333334E+009;1.643382459878922E-001;-4.665156453847885E-002;4.618696868419647E-003;1.946729724295437E-003;
2.413500000000000E+009;1.640977412462235E-001;-4.753516614437103E-002;4.489631857722998E-003;1.469846582040191E-003;
2.413666666666667E+009;1.635788828134537E-001;-4.865087568759918E-002;4.734910558909178E-003;1.344544929452241E-003;
2.413833333333334E+009;1.631413549184799E-001;-4.964060708880425E-002;4.587746225297451E-003;1.031323918141425E-003;
2.414000000000000E+009;1.625303030014038E-001;-5.080865696072578E-002;4.613422323018313E-003;8.638522122055292E-004;
2.414166666666667E+009;1.623291373252869E-001;-5.164171382784843E-002;4.584924783557653E-003;3.471089585218579E-004;
2.414333333333334E+009;1.618486046791077E-001;-5.265953391790390E-002;4.503307864069939E-003;2.227190270787105E-004;
2.414500000000000E+009;1.617296636104584E-001;-5.365769937634468E-002;4.343627020716667E-003;1.196729645016603E-004;
2.414666666666667E+009;1.614736914634705E-001;-5.446183681488037E-002;4.411095287650824E-003;-1.675592502579093E-004;
2.414833333333334E+009;1.611662805080414E-001;-5.564383789896965E-002;4.131621215492487E-003;-4.947705310769379E-004;
2.415000000000000E+009;1.608849614858627E-001;-5.659968405961990E-002;4.194344393908978E-003;-5.431692698039115E-004;
2.415166666666667E+009;1.607454419136047E-001;-5.763280019164085E-002;4.035366699099541E-003;-6.277087377384305E-004;
2.415333333333334E+009;1.607412397861481E-001;-5.884333699941635E-002;3.831384470686317E-003;-9.371500927954912E-004;
2.415500000000000E+009;1.605949103832245E-001;-5.989938229322434E-002;3.766069654375315E-003;-1.132039469666779E-003;
2.415666666666667E+009;1.602637916803360E-001;-6.098004430532455E-002;3.575008828192949E-003;-1.289476524107158E-003;
2.415833333333334E+009;1.602754443883896E-001;-6.228800490498543E-002;3.357150359079242E-003;-1.304691308178008E-003;
2.416000000000000E+009;1.598994582891464E-001;-6.343854218721390E-002;3.333399770781398E-003;-1.402299851179123E-003;
2.416166666666667E+009;1.598499566316605E-001;-6.464239209890366E-002;3.097931155934930E-003;-1.482412335462868E-003;
2.416333333333334E+009;1.595537960529327E-001;-6.573985517024994E-002;2.985812723636627E-003;-1.469241338782013E-003;
2.416500000000000E+009;1.593988537788391E-001;-6.703006476163864E-002;2.789730904623866E-003;-1.410432974807918E-003;
2.416666666666667E+009;1.589140295982361E-001;-6.809435784816742E-002;2.561133587732911E-003;-1.728668576106429E-003;
2.416833333333334E+009;1.587922573089600E-001;-6.940491497516632E-002;2.429706277325749E-003;-1.604842836968601E-003;
2.417000000000000E+009;1.580850332975388E-001;-7.049122452735901E-002;2.370247617363930E-003;-1.500778365880251E-003;
2.417166666666667E+009;1.579715013504028E-001;-7.139709591865540E-002;2.220819704234600E-003;-1.628293772228062E-003;
2.417333333333334E+009;1.576701849699020E-001;-7.236001640558243E-002;2.207324840128422E-003;-1.465000794269145E-003;
2.417500000000000E+009;1.573225408792496E-001;-7.336905598640442E-002;2.068663015961647E-003;-1.462924410589039E-003;
2.417666666666667E+009;1.570051461458206E-001;-7.415480911731720E-002;1.981763402000070E-003;-1.616350025869906E-003;
2.417833333333334E+009;1.566569805145264E-001;-7.511989772319794E-002;1.861284370534122E-003;-1.423020614311099E-003;
2.418000000000000E+009;1.564298868179321E-001;-7.607062906026840E-002;1.777187455445528E-003;-1.415610662661493E-003;
2.418166666666667E+009;1.560954004526138E-001;-7.662985473871231E-002;1.868785475380719E-003;-1.355277257971466E-003;
2.418333333333334E+009;1.559722721576691E-001;-7.752833515405655E-002;1.821440528146923E-003;-1.293424284085631E-003;
2.418500000000000E+009;1.556631177663803E-001;-7.828889042139053E-002;1.632156549021602E-003;-1.293402863666415E-003;
2.418666666666667E+009;1.554390490055084E-001;-7.919307798147202E-002;1.681489404290915E-003;-1.234383904375136E-003;
2.418833333333334E+009;1.548047512769699E-001;-7.979514449834824E-002;1.643232651986182E-003;-1.106851268559694E-003;
2.419000000000000E+009;1.545937955379486E-001;-8.058848232030869E-002;1.652994658797979E-003;-1.065149786882103E-003;
2.419166666666667E+009;1.543932557106018E-001;-8.118927478790283E-002;1.637798966839910E-003;-1.006773905828595E-003;
2.419333333333334E+009;1.538027524948120E-001;-8.170556277036667E-002;1.632308005355299E-003;-7.651474443264306E-004;
2.419500000000000E+009;1.534953117370606E-001;-8.268679678440094E-002;1.792949507944286E-003;-1.034491229802370E-003;
2.419666666666667E+009;1.532317250967026E-001;-8.318839967250824E-002;1.862659351900220E-003;-7.824270287528634E-004;
2.419833333333334E+009;1.526399552822113E-001;-8.366627991199493E-002;1.948445569723845E-003;-8.549810736440122E-004;
2.420000000000000E+009;1.525433063507080E-001;-8.424186706542969E-002;2.081094076856971E-003;-8.541133138351142E-004;
2.420166666666667E+009;1.520207822322846E-001;-8.484483510255814E-002;2.188626211136580E-003;-9.635302121751010E-004;
2.420333333333334E+009;1.517160683870316E-001;-8.538451045751572E-002;2.381994854658842E-003;-1.148729468695819E-003;
2.420500000000000E+009;1.512881517410278E-001;-8.592148125171661E-002;2.241760957986116E-003;-1.010702340863645E-003;
2.420666666666667E+009;1.510136574506760E-001;-8.640906214714050E-002;2.416792791336775E-003;-1.200154423713684E-003;
2.420833333333334E+009;1.504517942667007E-001;-8.709304779767990E-002;2.525852527469397E-003;-1.315297093242407E-003;
2.421000000000000E+009;1.498992592096329E-001;-8.779986947774887E-002;2.461924450471997E-003;-1.424721209332347E-003;
2.421166666666667E+009;1.496651023626328E-001;-8.851445466279984E-002;2.478913869708777E-003;-1.605493132956326E-003;
2.421333333333334E+009;1.492240428924561E-001;-8.930043876171112E-002;2.512466162443161E-003;-1.686450559645891E-003;
2.421500000000000E+009;1.486540436744690E-001;-8.980628103017807E-002;2.427810337394476E-003;-1.875357702374458E-003;
2.421666666666667E+009;1.481766253709793E-001;-9.060028940439224E-002;2.409918699413538E-003;-2.163279103115201E-003;
2.421833333333334E+009;1.476497054100037E-001;-9.131178259849548E-002;2.503499155864120E-003;-2.338386606425047E-003;
2.422000000000000E+009;1.470189690589905E-001;-9.194242954254150E-002;2.432673936709762E-003;-2.358938334509730E-003;
2.422166666666667E+009;1.465260535478592E-001;-9.288810193538666E-002;2.292517805472016E-003;-2.517997985705733E-003;
2.422333333333334E+009;1.459188759326935E-001;-9.351268410682678E-002;2.202381845563650E-003;-2.801111433655024E-003;
2.422500000000000E+009;1.451906114816666E-001;-9.421715140342712E-002;1.973859732970595E-003;-2.890035975724459E-003;
2.422666666666667E+009;1.445219069719315E-001;-9.521820396184921E-002;2.001535845920444E-003;-2.929199952632189E-003;
2.422833333333334E+009;1.439378261566162E-001;-9.607361257076263E-002;1.729458919726312E-003;-2.965908963233233E-003;
2.423000000000000E+009;1.433005034923554E-001;-9.701279550790787E-002;1.674776547588408E-003;-3.204029053449631E-003;
2.423166666666667E+009;1.428903043270111E-001;-9.787704795598984E-002;1.203253632411361E-003;-3.152014920488000E-003;
2.423333333333334E+009;1.422048360109329E-001;-9.870354831218720E-002;9.613815927878022E-004;-3.187656868249178E-003;
2.423500000000000E+009;1.415530443191528E-001;-9.976130723953247E-002;8.300063782371581E-004;-3.165397793054581E-003;
2.423666666666667E+009;1.407710760831833E-001;-1.007739603519440E-001;7.813854608684778E-004;-3.222597064450383E-003;
2.423833333333334E+009;1.402813941240311E-001;-1.016346812248230E-001;6.285530980676413E-004;-3.145065158605576E-003;
2.424000000000000E+009;1.393724977970123E-001;-1.025147140026093E-001;5.220787716098130E-004;-3.124138107523322E-003;
2.424166666666667E+009;1.387920379638672E-001;-1.035000458359718E-001;3.744027635548264E-004;-3.020301694050431E-003;
2.424333333333334E+009;1.381624788045883E-001;-1.043990328907967E-001;2.657800214365125E-004;-3.007443388924003E-003;
2.424500000000000E+009;1.376552730798721E-001;-1.054604500532150E-001;2.666048239916563E-004;-2.956540789455175E-003;
2.424666666666667E+009;1.372590661048889E-001;-1.061367690563202E-001;6.783437129342929E-005;-2.876218641176820E-003;
2.424833333333334E+009;1.364447027444840E-001;-1.072911396622658E-001;2.432243127259426E-005;-2.783059841021895E-003;
2.425000000000000E+009;1.360215842723846E-001;-1.082886531949043E-001;1.413967547705397E-004;-2.729824511334300E-003;
2.425166666666667E+009;1.352582722902298E-001;-1.092474535107613E-001;-1.034393881127471E-005;-2.645828528329730E-003;
2.425333333333334E+009;1.349058598279953E-001;-1.101867631077766E-001;-1.665579184191302E-004;-2.720163203775883E-003;
2.425500000000000E+009;1.345216631889343E-001;-1.111127585172653E-001;-2.867667353712022E-005;-2.650425536558032E-003;
2.425666666666667E+009;1.339447945356369E-001;-1.122297793626785E-001;-7.648580503882840E-005;-2.443659352138639E-003;
2.425833333333334E+009;1.335887610912323E-001;-1.130893975496292E-001;-1.264659076696262E-004;-2.554975450038910E-003;
2.426000000000000E+009;1.331070959568024E-001;-1.141935363411903E-001;-2.125691244145855E-004;-2.594711026176810E-003;
2.426166666666667E+009;1.327724158763886E-001;-1.151411458849907E-001;-1.624182041268796E-004;-2.453884109854698E-003;
2.426333333333334E+009;1.321870535612106E-001;-1.160354614257813E-001;7.703182200202718E-005;-2.373104915022850E-003;
2.426500000000000E+009;1.319249570369721E-001;-1.169136390089989E-001;-1.068115161615424E-004;-2.333704847842455E-003;
2.426666666666667E+009;1.316123455762863E-001;-1.177024766802788E-001;-4.010284828837030E-005;-2.443299861624837E-003;
2.426833333333334E+009;1.310621649026871E-001;-1.186089813709259E-001;-7.310462387977168E-005;-2.304045716300607E-003;
2.427000000000000E+009;1.306462734937668E-001;-1.194371581077576E-001;-1.692935329629108E-004;-2.480406314134598E-003;
2.427166666666667E+009;1.303066611289978E-001;-1.200296357274056E-001;-2.596424892544746E-004;-2.479501301422715E-003;
2.427333333333334E+009;1.299157440662384E-001;-1.208377033472061E-001;-1.195017684949562E-004;-2.533813705667853E-003;
2.427500000000000E+009;1.297657489776611E-001;-1.215458214282990E-001;6.464802027039696E-006;-2.542686648666859E-003;
2.427666666666667E+009;1.293230801820755E-001;-1.222120970487595E-001;-2.674151328392327E-004;-2.540398156270385E-003;
