# Hz S RI R 
2400000000.0000000000 0.168974593281745910644531250000 0.046062555164098739624023437500 -0.005816419608891010284423828125 -0.000687461870256811380386352539 0 0 0 0 
2400166666.6666665077 0.170020014047622708419638115629 0.045046936720609671855886091407 -0.005745764356106519699096679688 -0.000600449566263705492019653320 0 0 0 0 
2400333333.3333334923 0.170982956886291503906250000000 0.044067811220884323120117187500 -0.005900818854570388793945312500 -0.000175171298906207111760816031 0 0 0 0 
2400500000.0000000000 0.171907499432563809493856865629 0.043011076748371117328684221093 -0.005911054089665412902832031250 0.000158160255523398491457262582 0 0 0 0 
2400666666.6666665077 0.172686383128166198730468750000 0.042010679841041571880300153907 -0.005982303060591220855712890625 0.000372570793842896819114685059 0 0 0 0 
2400833333.3333334923 0.173663213849067687988281250000 0.041120953857898712158203125000 -0.006044618319720029830932617188 0.000645868887659162282943725586 0 0 0 0 
2401000000.0000000000 0.174620538949966402908486884371 0.040397293865680701518972028907 -0.006116789299994707107543945312 0.000877695507369935512542724609 0 0 0 0 
2401166666.6666665077 0.175425797700882013518963731258 0.039597168564796447753906250000 -0.006191386841237545013427734375 0.001050638733431696891784667969 0 0 0 0 
2401333333.3333334923 0.175942584872245788574218750000 0.038779336959123611450195312500 -0.006277740933001041412353515625 0.001338877133093774101854633862 0 0 0 0 
2401500000.0000000000 0.176705047488212613204794365629 0.038391754031181342388112653907 -0.006315743084996938705444335938 0.001639517256990074894548725659 0 0 0 0 
2401666666.6666665077 0.177273020148277310470419365629 0.037808243185281746601145158593 -0.006161412689834833145141601562 0.001737413113005459091783833081 0 0 0 0 
2401833333.3333334923 0.178003221750259399414062500000 0.037310104817152023315429687500 -0.006007867865264415740966796875 0.002195170149207115173339843750 0 0 0 0 
2402000000.0000000000 0.178354188799858093261718750000 0.036507181823253631591796875000 -0.006030369549989700317382812500 0.002381017431616783142089843750 0 0 0 0 
2402166666.6666665077 0.178785741329193087478799384371 0.035835295915603637695312500000 -0.006065348163247109326834394238 0.002722942270338534875157021631 0 0 0 0 
2402333333.3333334923 0.178964272141456604003906250000 0.035257160663604743267018903907 -0.005903952755033969879150390625 0.003059187205508350892307900537 0 0 0 0 
2402500000.0000000000 0.179534882307052612304687500000 0.034816157072782523418386091407 -0.005863131489604712399954511426 0.003336142981424928145167685400 0 0 0 0 
2402666666.6666665077 0.179751843214035006424111884371 0.034040361642837517475168596093 -0.005705780349671840667724609375 0.003619241295382380919215536963 0 0 0 0 
2402833333.3333334923 0.179927051067352294921875000000 0.033484384417533881450612653907 -0.005566352512687444686889648438 0.003870470682159066200256347656 0 0 0 0 
2403000000.0000000000 0.179960817098617609222088731258 0.032675351947546012187917341407 -0.005527262110263109207153320312 0.004163247533142566680908203125 0 0 0 0 
2403166666.6666665077 0.180001318454742403885049384371 0.031964108347892761230468750000 -0.005258382763713598251342773438 0.004357189871370792388916015625 0 0 0 0 
2403333333.3333334923 0.179931148886680603027343750000 0.031140668317675590515136718750 -0.005101821850985288619995117188 0.004689361900091171264648437500 0 0 0 0 
2403500000.0000000000 0.179586187005043002029580634371 0.030102431774139400827428048046 -0.004819940309971570968627929688 0.004949139896780253324026777051 0 0 0 0 
2403666666.6666665077 0.179456651210784912109375000000 0.029321521520614620553990548046 -0.004651542287319898605346679688 0.005305034574121236801147460938 0 0 0 0 
2403833333.3333334923 0.179166659712791387359942518742 0.028242424130439758300781250000 -0.004455048125237227353567792676 0.005505918990820646286010742188 0 0 0 0 
2404000000.0000000000 0.179098084568977411468182481258 0.027144460007548328744908516796 -0.004000416956841945648193359375 0.005674805492162705335135175488 0 0 0 0 
2404166666.6666665077 0.178518310189247103592080634371 0.025911435484886169433593750000 -0.003578800475224852995631552588 0.005836741067469120025634765625 0 0 0 0 
2404333333.3333334923 0.178216934204101590255575615629 0.024693818762898448598841483204 -0.003394101979210972785949707031 0.006096217315644025802612304688 0 0 0 0 
2404500000.0000000000 0.177534788846969604492187500000 0.023325292393565181386927420704 -0.003085473086684941811802529443 0.006284761242568492889404296875 0 0 0 0 
2404666666.6666665077 0.177050620317459106445312500000 0.022098235785961151123046875000 -0.002787935547530651092529296875 0.006275930907577276229858398438 0 0 0 0 
2404833333.3333334923 0.176537841558456393142861884371 0.020563518628478050231933593750 -0.002497407142072916030883789062 0.006392529699951410293579101562 0 0 0 0 
2405000000.0000000000 0.176143482327461187164630018742 0.019097708165645599365234375000 -0.002045954577624797821044921875 0.006374947261065244674682617188 0 0 0 0 
2405166666.6666665077 0.175780639052391107757244981258 0.017596593126654628408411795704 -0.001787683693692087910295795972 0.006309852935373783111572265625 0 0 0 0 
2405333333.3333334923 0.175321206450462313553018134371 0.015749493613839149475097656250 -0.001557657262310385920880961841 0.006325454916805028915405273438 0 0 0 0 
2405500000.0000000000 0.174850031733512906173544365629 0.014119442552328109741210937500 -0.001164692454040050940272665869 0.006243920419365167617797851562 0 0 0 0 
2405666666.6666665077 0.174451917409896906097088731258 0.012493111193180080759068673046 -0.000869790092110633850097656250 0.006159285549074411392211914062 0 0 0 0 
2405833333.3333334923 0.174010589718818692306356865629 0.010742936283349990844726562500 -0.000571063603274524211883544922 0.005987140815705060958862304688 0 0 0 0 
2406000000.0000000000 0.173749595880508395095986884371 0.008690758608281612396240234375 -0.000216691201785579296663561411 0.005887669976800680160522460938 0 0 0 0 
2406166666.6666665077 0.173314645886421203613281250000 0.006883797235786914825439453125 -0.000180405375431291813224238263 0.005998192820698022842407226562 0 0 0 0 
2406333333.3333334923 0.173388674855232211013955634371 0.004911838099360466003417968750 0.000131825872813351506560725079 0.005680575966835021972656250000 0 0 0 0 
2406500000.0000000000 0.173135682940483093261718750000 0.002851827302947639985325478662 0.000147799655678682002142229623 0.005758152808994054794311523438 0 0 0 0 
2406666666.6666665077 0.172965854406356811523437500000 0.000937644916120916604995727539 0.000332093972247093915939331055 0.005507101770490407943725585938 0 0 0 0 
2406833333.3333334923 0.172914937138557406326455634371 -0.001325036748312413909314799731 0.000526495045050978660583496094 0.005301926285028457641601562500 0 0 0 0 
2407000000.0000000000 0.173007756471633911132812500000 -0.003345513017848134040832519531 0.000617722282186150550842285156 0.005258336197584868344778730176 0 0 0 0 
2407166666.6666665077 0.173245564103126498123330634371 -0.005403172224760056409353925488 0.000734862580429762601852416992 0.005180747248232364654541015625 0 0 0 0 
2407333333.3333334923 0.173287138342857388595419365629 -0.007618703413754701614379882812 0.001025988953188061931012797778 0.005135992076247931394095136426 0 0 0 0 
2407500000.0000000000 0.173566609621048001388388115629 -0.009660058654844760894775390625 0.000904694898054003715515136719 0.005027523729950189590454101562 0 0 0 0 
2407666666.6666665077 0.173840463161468505859375000000 -0.011787230148911479604700858204 0.001068044221028686003444052588 0.004821438807994127273559570312 0 0 0 0 
2407833333.3333334923 0.174067839980125399490518134371 -0.014021592214703559875488281250 0.001169310999102890925166464697 0.004921600222587584581857012012 0 0 0 0 
2408000000.0000000000 0.174414113163948086837606865629 -0.016046009957790381694753278907 0.001325032091699541048762656104 0.004702392499893903732299804688 0 0 0 0 
2408166666.6666665077 0.174706369638442993164062500000 -0.018031744286417961120605468750 0.001330119092017411968828510815 0.004609677474945783615112304688 0 0 0 0 
2408333333.3333334923 0.175335898995399502853231865629 -0.020068034529685970651646798046 0.001358657027594744942308735425 0.004623138345777987566476152637 0 0 0 0 
2408500000.0000000000 0.175579532980918912032919365629 -0.022011600434780120849609375000 0.001687256502918899059295654297 0.004679327365010976791381835938 0 0 0 0 
2408666666.6666665077 0.175838232040405301193075615629 -0.023942684754729270935058593750 0.001533382455818355083465576172 0.004515467677265405654907226562 0 0 0 0 
2408833333.3333334923 0.176178798079490689376669365629 -0.025809127837419509887695312500 0.001517760450951755046844482422 0.004505014512687922391409589551 0 0 0 0 
2409000000.0000000000 0.176444754004478510100994981258 -0.027378231287002560007115548046 0.001792700728401541926740336841 0.004502955824136734008789062500 0 0 0 0 
2409166666.6666665077 0.177010893821716308593750000000 -0.028967676684260368347167968750 0.001810452435165643908857036060 0.004421907942742109298706054688 0 0 0 0 
2409333333.3333334923 0.177441060543060302734375000000 -0.030431864783167839050292968750 0.001949536032043396992924355615 0.004455344751477242383475019238 0 0 0 0 
2409500000.0000000000 0.177816942334175109863281250000 -0.031915761530399322509765625000 0.001960913185030221939086914062 0.004519555252045392990112304688 0 0 0 0 
2409666666.6666665077 0.178056791424751309493856865629 -0.033043287694454193115234375000 0.002033270662650465965270996094 0.004432350862771272659301757812 0 0 0 0 
2409833333.3333334923 0.178481161594390896896200615629 -0.034176424145698547363281250000 0.002213040599599481062648154150 0.004470183979719877243041992188 0 0 0 0 
2410000000.0000000000 0.179066181182861300369424384371 -0.034929223358631127094309221093 0.002483633812516928152797079932 0.004427362699061632156372070312 0 0 0 0 
2410166666.6666665077 0.179513260722160311599893134371 -0.036068454384803771972656250000 0.002606912516057490868809365381 0.004352874122560024261474609375 0 0 0 0 
2410333333.3333334923 0.179852366447448702713174384371 -0.036705922335386283184011091407 0.002724925056099892096278525244 0.004346648696810007095336914062 0 0 0 0 
2410500000.0000000000 0.180291101336479187011718750000 -0.037570491433143622661550153907 0.002984447171911596818211220850 0.004153792746365070343017578125 0 0 0 0 
2410666666.6666665077 0.180587753653526306152343750000 -0.038325544446706771850585937500 0.003030297113582491874694824219 0.004054922144860029220581054688 0 0 0 0 
2410833333.3333334923 0.180938184261321993728799384371 -0.038754738867282867431640625000 0.003220724407583475112915039062 0.003986254800111055374145507812 0 0 0 0 
2411000000.0000000000 0.181230649352073697189169365629 -0.039427444338798522949218750000 0.003438364248722792105433798682 0.003920633811503648757934570312 0 0 0 0 
2411166666.6666665077 0.181397289037704495529013115629 -0.039969276636838912963867187500 0.003502651350572704835178994287 0.003817271441221237182617187500 0 0 0 0 
2411333333.3333334923 0.181647360324859591385049384371 -0.040419265627861022949218750000 0.003752803895622491836547851562 0.003745154477655888037440634619 0 0 0 0 
2411500000.0000000000 0.181572556495666503906250000000 -0.041001338511705398559570312500 0.003752333577722311019897460938 0.003532249247655272917506552588 0 0 0 0 
2411666666.6666665077 0.181693851947784396072549384371 -0.041479993611574172973632812500 0.003987472504377365112304687500 0.003413249505683780150172568213 0 0 0 0 
2411833333.3333334923 0.181658640503883389571981865629 -0.041883889585733406757395158593 0.004139760974794626235961914062 0.003271101275458931922912597656 0 0 0 0 
2412000000.0000000000 0.181453987956047113616619981258 -0.041788555681705481792409528907 0.004002594854682683944702148438 0.003107116557657719092128134619 0 0 0 0 
2412166666.6666665077 0.181162238121032687088174384371 -0.042353495955467217182199846093 0.004172258079051970568185137012 0.002995896618813275857212685693 0 0 0 0 
2412333333.3333334923 0.180866912007331903655682481258 -0.042699072510004036640207658593 0.004402248654514551162719726562 0.002709183841943740844726562500 0 0 0 0 
2412500000.0000000000 0.180105745792388888260049384371 -0.042998693883419036865234375000 0.004497597925364971160888671875 0.002592309145256876945495605469 0 0 0 0 
2412666666.6666665077 0.179755568504333496093750000000 -0.043450370430946350097656250000 0.004621324595063924789428710938 0.002475703600794076919555664062 0 0 0 0 
2412833333.3333334923 0.179335653781890896896200615629 -0.043867696076631552959401716407 0.004679127596318721771240234375 0.002263889880850911140441894531 0 0 0 0 
2413000000.0000000000 0.178522869944572504241619981258 -0.043972775340080261230468750000 0.004671934060752391815185546875 0.002179505303502082824707031250 0 0 0 0 
2413166666.6666665077 0.177622824907302911956463731258 -0.044543400406837463378906250000 0.004718319047242403030395507812 0.001765622757375239892246865381 0 0 0 0 
2413333333.3333334923 0.176654830574989291092080634371 -0.045016448944807052612304687500 0.004761229269206523895263671875 0.001680191257037221951725625146 0 0 0 0 
2413500000.0000000000 0.175838336348533602615518134371 -0.045472230762243270874023437500 0.004863391630351543426513671875 0.001639801776036619923235249097 0 0 0 0 
2413666666.6666665077 0.174777865409851101974325615629 -0.046043913811445243144948591407 0.004812292754650115966796875000 0.001335936249233782074571919019 0 0 0 0 
2413833333.3333334923 0.173615440726280212402343750000 -0.046433079987764358520507812500 0.004911844152957201004028320312 0.001272345660254359028459858472 0 0 0 0 
2414000000.0000000000 0.172410488128662109375000000000 -0.047148555517196662212331403907 0.004751019645482301712036132812 0.000993460183963179588317871094 0 0 0 0 
2414166666.6666665077 0.171474680304527310470419365629 -0.047843329608440399169921875000 0.004786525852978230390066816113 0.000922720821108669042587280273 0 0 0 0 
2414333333.3333334923 0.170218989253044100662393134371 -0.048629779368638992309570312500 0.004870541859418153762817382812 0.000623856903985142707824707031 0 0 0 0 
2414500000.0000000000 0.169094204902648898025674384371 -0.049477342516183853149414062500 0.004669288173317909240722656250 0.000551938544958829879760742188 0 0 0 0 
2414666666.6666665077 0.167961224913597106933593750000 -0.050275888293981552124023437500 0.004662068095058202743530273438 0.000331264775013551115989685059 0 0 0 0 
2414833333.3333334923 0.166715621948242187500000000000 -0.051458191126585006713867187500 0.004535773769021034240722656250 0.000154112800373695790767669678 0 0 0 0 
2415000000.0000000000 0.165526106953620910644531250000 -0.052521813660860061645507812500 0.004453506786376237869262695312 0.000009909308573696762323379517 0 0 0 0 
2415166666.6666665077 0.164308920502662686446981865629 -0.053781196475028991699218750000 0.004446103237569332122802734375 -0.000041473726014373817224095004 0 0 0 0 
2415333333.3333334923 0.163234055042266901214276231258 -0.055171426385641098022460937500 0.004418050404638051986694335938 -0.000285779620753601193428039551 0 0 0 0 
2415500000.0000000000 0.162094861268997192382812500000 -0.056444220244884490966796875000 0.004321647807955741882324218750 -0.000214898478589020696565350943 0 0 0 0 
2415666666.6666665077 0.160861074924468994140625000000 -0.057811796665191650390625000000 0.004279995337128639221191406250 -0.000566605478525161743164062500 0 0 0 0 
2415833333.3333334923 0.160012885928153991699218750000 -0.059475529938936226581613908593 0.004114612471312285336966230176 -0.000516119878739118576049804688 0 0 0 0 
2416000000.0000000000 0.158785283565521212478799384371 -0.061168245971202850341796875000 0.004128731787204742431640625000 -0.000671573332510888576507568359 0 0 0 0 
2416166666.6666665077 0.157836496829986600021200615629 -0.062923148274421691894531250000 0.003924857825040817260742187500 -0.000648968969471752643585205078 0 0 0 0 
2416333333.3333334923 0.156913638114929199218750000000 -0.064594894647598266601562500000 0.003898367052897810935974121094 -0.000717696908395737409591674805 0 0 0 0 
2416500000.0000000000 0.155901461839675903320312500000 -0.066497966647148132324218750000 0.003637297311797738075256347656 -0.000804401468485593795776367188 0 0 0 0 
2416666666.6666665077 0.155069842934608487228231865629 -0.068321108818054199218750000000 0.003863927675411105155944824219 -0.000709162675775587558746337891 0 0 0 0 
2416833333.3333334923 0.154206812381744412521200615629 -0.070468835532665252685546875000 0.003661373397335410118103027344 -0.000772614264860749244689941406 0 0 0 0 
2417000000.0000000000 0.153336286544799804687500000000 -0.072267986834049224853515625000 0.003462845692411065101623535156 -0.000775538210291415452957153320 0 0 0 0 
2417166666.6666665077 0.152777716517448397537393134371 -0.074100889265537261962890625000 0.003572565969079732894897460938 -0.000727154023479670286178588867 0 0 0 0 
2417333333.3333334923 0.152099475264549310882244981258 -0.076054111123085021972656250000 0.003587370971217751936671591650 -0.000621435756329447031021118164 0 0 0 0 
2417500000.0000000000 0.151507645845413208007812500000 -0.078157819807529449462890625000 0.003543082391843200163600302588 -0.000660503108520060777664184570 0 0 0 0 
2417666666.6666665077 0.151089936494827298263388115629 -0.079762108623981475830078125000 0.003542068647220731215236044775 -0.000774911837652325630187988281 0 0 0 0 
2417833333.3333334923 0.150688111782074002364950615629 -0.081503294408321380615234375000 0.003484867746010423140284872900 -0.000735746638383716344833374023 0 0 0 0 
2418000000.0000000000 0.150232672691345187088174384371 -0.083574414253234863281250000000 0.003759405808523296876194619287 -0.000850659329444169998168945312 0 0 0 0 
2418166666.6666665077 0.149824097752571105957031250000 -0.085128955543041229248046875000 0.003670309670269488854649209131 -0.000793409766629338264465332031 0 0 0 0 
2418333333.3333334923 0.149900689721107510665731865629 -0.086879968643188476562500000000 0.003852954134345055060145712744 -0.000788360892329365015029907227 0 0 0 0 
2418500000.0000000000 0.149724796414375305175781250000 -0.088380962610244750976562500000 0.003877943148836493925807333838 -0.000864213099703192710876464844 0 0 0 0 
2418666666.6666665077 0.149527922272682189941406250000 -0.090030178427696228027343750000 0.004089224617928267392630292676 -0.000929418602026998996734619141 0 0 0 0 
2418833333.3333334923 0.149436980485916109939736884371 -0.091408707201480865478515625000 0.004148559179157018661499023438 -0.001101842615753412029863667065 0 0 0 0 
2419000000.0000000000 0.149382397532463101486044365629 -0.092742621898651123046875000000 0.004155597183853387832641601562 -0.001174616045318543910980224609 0 0 0 0 
2419166666.6666665077 0.149375170469284113128338731258 -0.093951418995857238769531250000 0.004252313170582056045532226562 -0.001190820243209600014927529443 0 0 0 0 
2419333333.3333334923 0.149490296840667696853799384371 -0.094879776239395141601562500000 0.004355866927653551101684570312 -0.001491009374149143912671733325 0 0 0 0 
2419500000.0000000000 0.149779856204986600021200615629 -0.096098378300666809082031250000 0.004410839173942804336547851562 -0.001664097537286580042598105322 0 0 0 0 
2419666666.6666665077 0.150103956460952786544638115629 -0.096977971494197845458984375000 0.004379289690405130386352539062 -0.001807323540560900948168110425 0 0 0 0 
2419833333.3333334923 0.150179177522659301757812500000 -0.097700409591197967529296875000 0.004444105084985494613647460938 -0.001968427561223506927490234375 0 0 0 0 
