# Hz S RI R 50
2400000000.0000000000 0.155289992690086392501669365629 0.106984540820121806770082173443 -0.000109341039205901297643938608 -0.006067229434847831726074218750 0 0 0 0 
2400166666.6666665077 0.155145779252052307128906250000 0.104728713631629902214292826557 -0.000289690186036750674247741699 -0.005961678456515073776245117188 0 0 0 0 
2400333333.3333334923 0.155095160007476806640625000000 0.102346688508987399002236884371 -0.000480064889416098594665527344 -0.005874290131032466888427734375 0 0 0 0 
2400500000.0000000000 0.155182018876075689117755018742 0.099673680961132049560546875000 -0.000653655442874878644943237305 -0.005608652252703905105590820312 0 0 0 0 
2400666666.6666665077 0.155020341277122497558593750000 0.097183108329772949218750000000 -0.000650245405267924070358276367 -0.005296317394822835922241210938 0 0 0 0 
2400833333.3333334923 0.154984250664710998535156250000 0.094260334968566894531250000000 -0.000615424418356269598007202148 -0.005283406469970942410940839551 0 0 0 0 
2401000000.0000000000 0.155134737491607693771200615629 0.091445416212081909179687500000 -0.000542671827133744955062866211 -0.005277345888316631317138671875 0 0 0 0 
2401166666.6666665077 0.155313313007354708572549384371 0.088702104985713958740234375000 -0.000520550704095512628555297852 -0.005182166583836078643798828125 0 0 0 0 
2401333333.3333334923 0.155651301145553588867187500000 0.085867054760456085205078125000 -0.000563191541004925966262817383 -0.005181612446904181566720293262 0 0 0 0 
2401500000.0000000000 0.156027927994728088378906250000 0.083022311329841613769531250000 -0.000480907474411651492118835449 -0.005190118681639432907104492188 0 0 0 0 
2401666666.6666665077 0.156492128968238802810830634371 0.080286972224712371826171875000 -0.000496138876769691705703735352 -0.005332579836249352368826581738 0 0 0 0 
2401833333.3333334923 0.156985849142074612716513115629 0.077321715652942657470703125000 -0.000558100233320146799087524414 -0.005303588230162858963012695312 0 0 0 0 
2402000000.0000000000 0.157850652933120699783486884371 0.074520565569400787353515625000 -0.000513586681336164474487304688 -0.005320747848600149154663085938 0 0 0 0 
2402166666.6666665077 0.158593729138374300857705634371 0.072000548243522644042968750000 -0.000661554746329784393310546875 -0.005592253990471363067626953125 0 0 0 0 
2402333333.3333334923 0.159485727548599187652911268742 0.069201104342937469482421875000 -0.000877000857144594192504882812 -0.005599535536020994186401367188 0 0 0 0 
2402500000.0000000000 0.160843938589096097091513115629 0.066659703850746154785156250000 -0.000908899237401783466339111328 -0.005666798446327447891235351562 0 0 0 0 
2402666666.6666665077 0.161972627043724087814169365629 0.064214773476123809814453125000 -0.001167103881016374068019247900 -0.005761348176747561368460370801 0 0 0 0 
2402833333.3333334923 0.163174510002136202713174384371 0.061711218208074569702148437500 -0.001294718473218380971195839990 -0.005804050713777542114257812500 0 0 0 0 
2403000000.0000000000 0.164691612124443109710369981258 0.059479326009750373149831403907 -0.001532935071736573956133198315 -0.005838709417730569839477539062 0 0 0 0 
2403166666.6666665077 0.166484877467155512054119981258 0.057267930358648300170898437500 -0.001841218210756778933881450122 -0.005794094409793615341186523438 0 0 0 0 
2403333333.3333334923 0.167761534452438410003338731258 0.055041730403900153423268903907 -0.002059473190456628799438476562 -0.005752461962401866912841796875 0 0 0 0 
2403500000.0000000000 0.169551834464073208907919365629 0.052818063646554946899414062500 -0.002424847800284624099731445312 -0.005728863645344972610473632812 0 0 0 0 
2403666666.6666665077 0.171276316046714810470419365629 0.050882957875728607177734375000 -0.002401052042841910882237099756 -0.005606544669717550277709960938 0 0 0 0 
2403833333.3333334923 0.173041552305221613128338731258 0.049090713262557983398437500000 -0.002514712978154420852661132812 -0.005617985967546701431274414062 0 0 0 0 
2404000000.0000000000 0.174473881721496609786825615629 0.047239944338798522949218750000 -0.002887372625991702079772949219 -0.005399426911026239395141601562 0 0 0 0 
2404166666.6666665077 0.176269963383674593826455634371 0.045615386217832572246511091407 -0.003085802076384425163269042969 -0.005144522059708833694458007812 0 0 0 0 
2404333333.3333334923 0.177961155772209195236044365629 0.044103872030973427509348283593 -0.003246416803449391885044716943 -0.005158303771167994412893964551 0 0 0 0 
2404500000.0000000000 0.179471269249916104415731865629 0.042717855423688888549804687500 -0.003485324559733272032496786963 -0.005105779971927404403686523438 0 0 0 0 
2404666666.6666665077 0.181183993816375704666299384371 0.041641686111688606952707658593 -0.003412967082113028006312704932 -0.004959175828844308853149414062 0 0 0 0 
2404833333.3333334923 0.182772472500801086425781250000 0.040297057479619979858398437500 -0.003631675150245428085327148438 -0.004927500616759061813354492188 0 0 0 0 
2405000000.0000000000 0.184357926249504089355468750000 0.040022503584623336791992187500 -0.003749450901523232893702841650 -0.004840741865336894989013671875 0 0 0 0 
2405166666.6666665077 0.185769945383071899414062500000 0.039105895906686782836914062500 -0.003866958664730190797093056787 -0.004707832355052232742309570312 0 0 0 0 
2405333333.3333334923 0.187192901968955993652343750000 0.039049468934535980224609375000 -0.004131189081817865371704101562 -0.004531497601419687271118164062 0 0 0 0 
2405500000.0000000000 0.188302740454673794845419365629 0.038303099572658538818359375000 -0.004266306757926940917968750000 -0.004526256583631038665771484375 0 0 0 0 
2405666666.6666665077 0.189856350421905489822549384371 0.037668693810701370239257812500 -0.004390653222799301147460937500 -0.004219548311084508895874023438 0 0 0 0 
2405833333.3333334923 0.190917521715164212325888115629 0.037762895226478576660156250000 -0.004584820475429297360892011426 -0.004179570358246564865112304688 0 0 0 0 
2406000000.0000000000 0.192343845963478088378906250000 0.037435077130794532085378278907 -0.004569255281239748001098632812 -0.004137229174375534057617187500 0 0 0 0 
2406166666.6666665077 0.193038597702980013748330634371 0.036923643201589577411692033593 -0.004744383506476879119873046875 -0.003965141251683235168457031250 0 0 0 0 
2406333333.3333334923 0.193942978978156987945880018742 0.037373151630163192749023437500 -0.005105922929942607879638671875 -0.003689803415909409956691122900 0 0 0 0 
2406500000.0000000000 0.194685131311416598220986884371 0.037339046597480766986887346093 -0.005097591318190097808837890625 -0.003479166654869914054870605469 0 0 0 0 
2406666666.6666665077 0.195150151848793002029580634371 0.037376660853624336933176408593 -0.005014115013182163238525390625 -0.003169820411130785942077636719 0 0 0 0 
2406833333.3333334923 0.195723220705985995193643134371 0.037587258964776992797851562500 -0.005254875402897596359252929688 -0.003140962915495038032531738281 0 0 0 0 
2407000000.0000000000 0.196128427982330294510049384371 0.037660740315914147113840471093 -0.005283754784613847732543945312 -0.002717467257753014998195029150 0 0 0 0 
2407166666.6666665077 0.196510583162307711502236884371 0.037573952227830886840820312500 -0.005336590111255645751953125000 -0.002511835657060145898106240381 0 0 0 0 
2407333333.3333334923 0.196469873189926202972088731258 0.037708368152379989624023437500 -0.005340617150068283081054687500 -0.002546204254031180901768349756 0 0 0 0 
2407500000.0000000000 0.196329414844512911697549384371 0.037913795560598373413085937500 -0.005305967293679714202880859375 -0.002314640441909431977512978662 0 0 0 0 
2407666666.6666665077 0.196403980255127008636151231258 0.037829868495464331890065778907 -0.005401045083999633789062500000 -0.001964354654774069786071777344 0 0 0 0 
2407833333.3333334923 0.195897117257118197342080634371 0.037706475704908370971679687500 -0.005380913615226745605468750000 -0.001892694155685604052302695166 0 0 0 0 
2408000000.0000000000 0.195810601115226801116619981258 0.037525452673435211181640625000 -0.005288767628371716413016034863 -0.001694159000180661895154643481 0 0 0 0 
2408166666.6666665077 0.195339187979698208907919365629 0.037214435636997222900390625000 -0.005301338154822587966918945312 -0.001644235104322433905360556494 0 0 0 0 
2408333333.3333334923 0.194691523909568786621093750000 0.036765225231647491455078125000 -0.005352877546101809415335370801 -0.001484598265960813002345419775 0 0 0 0 
2408500000.0000000000 0.194001093506813104827557481258 0.036593824625015258789062500000 -0.005202080588787794113159179688 -0.001095031155273318073870014722 0 0 0 0 
2408666666.6666665077 0.193632557988166809082031250000 0.036026235669851303100585937500 -0.005263744853436946868896484375 -0.001201016013510525009752583081 0 0 0 0 
2408833333.3333334923 0.192808851599693298339843750000 0.035384941846132278442382812500 -0.005269803106784821424002362988 -0.000810857571195811033248901367 0 0 0 0 
2409000000.0000000000 0.191836670041084289550781250000 0.034435752779245376586914062500 -0.005057271569967269897460937500 -0.000826437608338892459869384766 0 0 0 0 
2409166666.6666665077 0.190974503755569513518963731258 0.033403679728508002544362653907 -0.005087659694254398345947265625 -0.000738520408049225807189941406 0 0 0 0 
2409333333.3333334923 0.189970314502716092208700615629 0.032449990510940551757812500000 -0.005043752491474151611328125000 -0.000643201987259089946746826172 0 0 0 0 
2409500000.0000000000 0.188877940177917508224325615629 0.031182784587144851684570312500 -0.005124001763761044415945722363 -0.000481718394439667517512720929 0 0 0 0 
2409666666.6666665077 0.187832728028297396560830634371 0.029720932245254520071009451954 -0.005012250505387783050537109375 -0.000422838580561801791191101074 0 0 0 0 
2409833333.3333334923 0.186688110232353210449218750000 0.028330923989415168762207031250 -0.004960373044013977050781250000 -0.000161832911544479402616777963 0 0 0 0 
2410000000.0000000000 0.185748398303985595703125000000 0.026647539809346199035644531250 -0.005027759820222854614257812500 -0.000191832965356297791004180908 0 0 0 0 
2410166666.6666665077 0.184861108660697909256143134371 0.024829508736729618417760079296 -0.004882733803242444992065429688 -0.000069759626057930290699005127 0 0 0 0 
2410333333.3333334923 0.183833807706832913497763115629 0.023114969953894618642786795704 -0.004837880376726388931274414062 0.000193278581718914210796356201 0 0 0 0 
2410500000.0000000000 0.182800605893135098556356865629 0.021161071956157680856724923046 -0.004688784945756196975708007812 0.000173746942891739308834075928 0 0 0 0 
2410666666.6666665077 0.181803628802299499511718750000 0.018912645056843761098841483204 -0.004528251476585865020751953125 0.000343309977324679493904113770 0 0 0 0 
2410833333.3333334923 0.181482046842575100997763115629 0.016398658975958820688267891796 -0.004703288897871971130371093750 0.000438878021668642813533228741 0 0 0 0 
2411000000.0000000000 0.180507406592369107345419365629 0.014448216184973720205286795704 -0.004557303618639708432669355176 0.000585138157475739717483520508 0 0 0 0 
2411166666.6666665077 0.179764732718467712402343750000 0.012181015685200689488421055273 -0.004363042768090963363647460938 0.000574106699787080287933349609 0 0 0 0 
2411333333.3333334923 0.179295420646667508224325615629 0.009557701647281646728515625000 -0.004169163759797812375540448926 0.000669045373797416687011718750 0 0 0 0 
2411500000.0000000000 0.178927868604660006424111884371 0.007383578456938266754150390625 -0.004273127298802137374877929688 0.000687686551827937364578247070 0 0 0 0 
2411666666.6666665077 0.178635686635971097091513115629 0.004962029866874217987060546875 -0.004249396268278360366821289062 0.000591837568208575248718261719 0 0 0 0 
2411833333.3333334923 0.178411409258842496017294365629 0.002603262197226285934448242188 -0.004218353889882565412039472363 0.000644614163320511579513549805 0 0 0 0 
2412000000.0000000000 0.178603693842887906173544365629 -0.000137266906676813987180432730 -0.004140624776482582092285156250 0.000824220012873411178588867188 0 0 0 0 
2412166666.6666665077 0.178525120019912691970986884371 -0.002617476508021355108973837744 -0.004095742944628000259399414062 0.000748578109778463840484619141 0 0 0 0 
2412333333.3333334923 0.178756758570671109298544365629 -0.005122930742800235748291015625 -0.004090834874659776687622070312 0.000561510445550084114074707031 0 0 0 0 
2412500000.0000000000 0.179250374436378506759481865629 -0.007362314499914646148681640625 -0.004014322068542242050170898438 0.000696804025210440158843994141 0 0 0 0 
2412666666.6666665077 0.179813712835311889648437500000 -0.010104474611580370121965977148 -0.004204950761049985885620117188 0.000669384666252881288528442383 0 0 0 0 
2412833333.3333334923 0.180463179945945711990518134371 -0.012396747246384620666503906250 -0.004266326781362295150756835938 0.000727044418454170227050781250 0 0 0 0 
2413000000.0000000000 0.181217789649963406661825615629 -0.014729241840541359293004219921 -0.004237193148583173751831054688 0.000747234560549259185791015625 0 0 0 0 
2413166666.6666665077 0.181926459074020413497763115629 -0.017114469781517979013463204296 -0.004534489940851926803588867188 0.000796912645455449819564819336 0 0 0 0 
2413333333.3333334923 0.183085918426513699630575615629 -0.019550677388906478881835937500 -0.004453734960407018661499023438 0.000873264041729271411895751953 0 0 0 0 
2413500000.0000000000 0.183933511376380892654580634371 -0.021869923919439319265345389454 -0.004604007117450237274169921875 0.001049100304953753948211669922 0 0 0 0 
2413666666.6666665077 0.184998720884323092361611884371 -0.024034414440393451345423514454 -0.004674348048865795135498046875 0.001224094419740140004398964990 0 0 0 0 
2413833333.3333334923 0.186177611351013211349325615629 -0.026046641170978549612025076954 -0.004625791218131780624389648438 0.001342635136097670035121298682 0 0 0 0 
2414000000.0000000000 0.187162369489669799804687500000 -0.027942828834056850778599923046 -0.004688354674726724624633789062 0.001343435258604585907579731519 0 0 0 0 
2414166666.6666665077 0.188400909304618807693643134371 -0.029786378145217898977259451954 -0.004603808745741844177246093750 0.001569085288792849020717001807 0 0 0 0 
2414333333.3333334923 0.189688652753830011565838731258 -0.031742084771394729614257812500 -0.004642155487090349197387695312 0.001661886926740407943725585938 0 0 0 0 
2414500000.0000000000 0.190794467926025390625000000000 -0.033265601843595511699636091407 -0.004644030705094338330740644238 0.001922309515066445090650248950 0 0 0 0 
2414666666.6666665077 0.191976368427276611328125000000 -0.034780442714691162109375000000 -0.004614542238414287567138671875 0.001990191638469696044921875000 0 0 0 0 
2414833333.3333334923 0.193110287189483587066973768742 -0.036229692399501800537109375000 -0.004567030351608991622924804688 0.002230485435575246810913085938 0 0 0 0 
2415000000.0000000000 0.194219335913658086578692518742 -0.037528466433286666870117187500 -0.004368130117654800415039062500 0.002373698633164166970493935693 0 0 0 0 
2415166666.6666665077 0.195352882146835299392861884371 -0.038552269339561462402343750000 -0.004364497959613800048828125000 0.002486716257408260865452431787 0 0 0 0 
2415333333.3333334923 0.196632564067840603927450615629 -0.039566967636346817016601562500 -0.004384013824164867401123046875 0.002743273973464965820312500000 0 0 0 0 
2415500000.0000000000 0.197612315416336087325888115629 -0.040194865316152572631835937500 -0.004304357338696718215942382812 0.002852564677596091790440224756 0 0 0 0 
2415666666.6666665077 0.198676347732544000823651231258 -0.041158899664878852153737653907 -0.004264595918357372283935546875 0.002975944662466644807102822412 0 0 0 0 
2415833333.3333334923 0.199515715241432189941406250000 -0.041717447340488426898996721093 -0.004157036077231168746948242188 0.002982785692438482804539345850 0 0 0 0 
2416000000.0000000000 0.200310915708541897872763115629 -0.042266987264156341552734375000 -0.004082448780536651611328125000 0.003198018297553062005283974756 0 0 0 0 
2416166666.6666665077 0.200985074043273898025674384371 -0.042759094387292861938476562500 -0.004149252083152532577514648438 0.003226688597351313071009970557 0 0 0 0 
2416333333.3333334923 0.201564401388168307205361884371 -0.043104618787765502929687500000 -0.003963354043662548065185546875 0.003473630407825111909153603662 0 0 0 0 
2416500000.0000000000 0.201943054795265197753906250000 -0.043275363743305213237722028907 -0.003945400938391686353201581738 0.003704075934365392164943076025 0 0 0 0 
2416666666.6666665077 0.202211335301399203201455634371 -0.043597001582384109497070312500 -0.003894714871421455903294228662 0.003620582632720469994785927881 0 0 0 0 
2416833333.3333334923 0.202387809753417996505575615629 -0.043420672416687011718750000000 -0.003724682610481977896449423682 0.003845616709440947012660361182 0 0 0 0 
2417000000.0000000000 0.202603757381439208984375000000 -0.043651495128870010375976562500 -0.003580366494134068922755576025 0.003928921651095151901245117188 0 0 0 0 
2417166666.6666665077 0.202222675085067804534588731258 -0.043334901332855231548268903907 -0.003517747623845934867858886719 0.004077420104295015335083007812 0 0 0 0 
2417333333.3333334923 0.202057212591171292404013115629 -0.043258488178253166889231096093 -0.003418446984142065048217773438 0.004219886846840381622314453125 0 0 0 0 
2417500000.0000000000 0.201735571026802090743856865629 -0.043244034051895141601562500000 -0.003258675802499055862426757812 0.004215350374579429626464843750 0 0 0 0 
2417666666.6666665077 0.201129972934722900390625000000 -0.042935963720083236694335937500 -0.003206198336556553840637207031 0.004518031608313322067260742188 0 0 0 0 
2417833333.3333334923 0.200773209333419799804687500000 -0.042745981365442282939870466407 -0.002869616262614727020263671875 0.004445097874850034713745117188 0 0 0 0 
2418000000.0000000000 0.200003162026405306717080634371 -0.042392838746309280395507812500 -0.002717078197747468948364257812 0.004705231171101331710815429688 0 0 0 0 
2418166666.6666665077 0.199286669492721613128338731258 -0.042344700545072562480886091407 -0.002480839146301149888279580225 0.004718619398772717389578534863 0 0 0 0 
2418333333.3333334923 0.198433086276054410079794365629 -0.042111027985811226581613908593 -0.002369322814047337012050009619 0.005063214339315891265869140625 0 0 0 0 
2418500000.0000000000 0.197379842400550786774005018742 -0.042159542441368103027343750000 -0.002142929704859852790832519531 0.004788534250110387802124023438 0 0 0 0 
2418666666.6666665077 0.196355372667312594314736884371 -0.042043704539537429809570312500 -0.001970227109268308119532919775 0.004943107254803180694580078125 0 0 0 0 
2418833333.3333334923 0.195083543658256503006143134371 -0.042158521711826317523996721093 -0.001689561293460428931592631763 0.004906719550490379333496093750 0 0 0 0 
2419000000.0000000000 0.193833723664283807952557481258 -0.042301986366510391235351562500 -0.001531756832264363982556987231 0.004802198149263858795166015625 0 0 0 0 
2419166666.6666665077 0.192649066448211697677450615629 -0.042686711996793746948242187500 -0.001360255875624716065050434644 0.004669595509767532348632812500 0 0 0 0 
2419333333.3333334923 0.191128119826316805740518134371 -0.043064445257186889648437500000 -0.001246431260369718074798583984 0.004594685509800910949707031250 0 0 0 0 
2419500000.0000000000 0.189597770571708706954794365629 -0.043563984334468841552734375000 -0.001122155808843672058702778394 0.004503029398620128631591796875 0 0 0 0 
2419666666.6666665077 0.187985032796859713455361884371 -0.044282205402851111675222028907 -0.001168620423413812897325825269 0.004370387177914381027221679688 0 0 0 0 
2419833333.3333334923 0.186511754989623995681924384371 -0.044923406094312667846679687500 -0.001066017779521643898607563550 0.004386577289551497373099042676 0 0 0 0 
