# Hz S RI R 
2400000000.0000000000 0.158849120140075711349325615629 0.062828868627548217773437500000 -0.002805860713124275207519531250 -0.003716613398864864869358681787 0 0 0 0 
2400166666.6666665077 0.158677592873573303222656250000 0.061400748789310462261159528907 -0.002677127718925476074218750000 -0.003635987639427185058593750000 0 0 0 0 
2400333333.3333334923 0.158420681953430203536825615629 0.059557616710662841796875000000 -0.002935619791969656944274902344 -0.003621301846578716798069619287 0 0 0 0 
2400500000.0000000000 0.158303499221801813323651231258 0.057530950754880912090261091407 -0.002940377919003366990330361475 -0.003443096764385699792149209131 0 0 0 0 
2400666666.6666665077 0.158364310860633905608807481258 0.055494099855422966693918596093 -0.002920303028076887130737304688 -0.003491261973977088928222656250 0 0 0 0 
2400833333.3333334923 0.158425271511077908614950615629 0.053986821323633187030832658593 -0.003056634683161973953247070312 -0.003402678528800607161280966650 0 0 0 0 
2401000000.0000000000 0.158464610576629610916299384371 0.051625702530145652080495466407 -0.003244496881961822943446493994 -0.003332172520458697839024209131 0 0 0 0 
2401166666.6666665077 0.158597856760024996658486884371 0.049606807529926300048828125000 -0.003218263387680054144618368994 -0.003331670537590980963466025244 0 0 0 0 
2401333333.3333334923 0.158597171306610107421875000000 0.047649741172790527343750000000 -0.003369695041328669028041220557 -0.003388779470697044892552041162 0 0 0 0 
2401500000.0000000000 0.159083247184753390213174384371 0.045756492763757712627370466407 -0.003316139802336692810058593750 -0.003306374652311205863952636719 0 0 0 0 
2401666666.6666665077 0.159166216850280789474325615629 0.043696116656064987182617187500 -0.003470174735412002043483115088 -0.003103776369243859811070107568 0 0 0 0 
2401833333.3333334923 0.159620895981788607498330634371 0.041605729609727859497070312500 -0.003363525029271841049194335938 -0.003110092831775546073913574219 0 0 0 0 
2402000000.0000000000 0.159910440444946289062500000000 0.039678763598203659057617187500 -0.003720189444720745086669921875 -0.002994050970301032066345214844 0 0 0 0 
2402166666.6666665077 0.160226210951805086990518134371 0.037376247346401221538503278907 -0.003650012193247675895690917969 -0.003041090443730353875401162256 0 0 0 0 
2402333333.3333334923 0.160789549350738497635049384371 0.035615436732769012451171875000 -0.003907369449734687805175781250 -0.002850548131391406059265136719 0 0 0 0 
2402500000.0000000000 0.161624982953071594238281250000 0.033899948000907897949218750000 -0.003930341918021441373343183301 -0.003071102313697338104248046875 0 0 0 0 
2402666666.6666665077 0.162085145711898803710937500000 0.032085109502077102661132812500 -0.003958986606448888778686523438 -0.002819401677697896957397460938 0 0 0 0 
2402833333.3333334923 0.162733405828476007659588731258 0.030465874820947650564173514454 -0.004191124811768531799316406250 -0.002819336019456386999842978369 0 0 0 0 
2403000000.0000000000 0.163573980331420898437500000000 0.028564833104610439645787423046 -0.004318515770137310028076171875 -0.002621446968987584114074707031 0 0 0 0 
2403166666.6666665077 0.164517194032669095138388115629 0.027160692960023880004882812500 -0.004375627730041742324829101562 -0.002607055008411407904383993994 0 0 0 0 
2403333333.3333334923 0.165231883525848388671875000000 0.025676360353827479970911795704 -0.004493044689297676086425781250 -0.002359089674428104920628213037 0 0 0 0 
2403500000.0000000000 0.166040182113647488693075615629 0.024049604311585429800013358204 -0.004655081313103437423706054688 -0.002235353458672761917114257812 0 0 0 0 
2403666666.6666665077 0.167168751358985900878906250000 0.022646134719252589834193045704 -0.004590675234794616699218750000 -0.002165647689253091812133789062 0 0 0 0 
2403833333.3333334923 0.168157979846000699142294365629 0.021248839795589450490931326954 -0.004899426829069852828979492188 -0.001879188930615782954572368091 0 0 0 0 
2404000000.0000000000 0.169034332036972101409588731258 0.020052632316946979867955391796 -0.005092835519462823867797851562 -0.001814265269786119894740439307 0 0 0 0 
2404166666.6666665077 0.170156106352806091308593750000 0.018889889121055599557896798046 -0.005001368466764689359183027051 -0.001712738303467630906345986475 0 0 0 0 
2404333333.3333334923 0.171022757887840298751669365629 0.017762310802936550485631173046 -0.005292371381074190139770507812 -0.001473876414820552089093852466 0 0 0 0 
2404500000.0000000000 0.171663597226142911056356865629 0.016661386936902999877929687500 -0.005250749643892049789428710938 -0.001374884857796132998225546729 0 0 0 0 
2404666666.6666665077 0.172784984111785888671875000000 0.015803201124072078359583670704 -0.005188462324440479278564453125 -0.001010385807603598074672079932 0 0 0 0 
2404833333.3333334923 0.173690423369407709319744981258 0.014714496210217479360560233204 -0.005369508173316717147827148438 -0.000878450227901339530944824219 0 0 0 0 
2405000000.0000000000 0.174570426344871493240518134371 0.014012446627020839345911795704 -0.005214913282543420791625976562 -0.000766327488236129283905029297 0 0 0 0 
2405166666.6666665077 0.175426065921783502776776231258 0.013435641303658490616768084180 -0.005290603265166282653808593750 -0.000368910405086353421211242676 0 0 0 0 
2405333333.3333334923 0.176501333713531494140625000000 0.012454801239073279989222342579 -0.005377133376896381378173828125 -0.000317480938974767923355102539 0 0 0 0 
2405500000.0000000000 0.177011594176292391678018134371 0.012123979628086090087890625000 -0.005291843786835671338553144238 -0.000022848820663057271053994826 0 0 0 0 
2405666666.6666665077 0.177865952253341702560263115629 0.011768454685807229823102382227 -0.005313455127179622650146484375 0.000118217460112646195009508676 0 0 0 0 
2405833333.3333334923 0.178222313523292513748330634371 0.011219792068004609889020350977 -0.005202141124755144119262695312 0.000261711102211847901344299316 0 0 0 0 
2406000000.0000000000 0.178986564278602600097656250000 0.010725025087594989431361014454 -0.005168598610907793045043945312 0.000448358448920771479606628418 0 0 0 0 
2406166666.6666665077 0.179322630167007501800213731258 0.010474928654730319976806640625 -0.005249541252851486206054687500 0.000586312438827008008956909180 0 0 0 0 
2406333333.3333334923 0.180124774575233487228231865629 0.009990612044930458068847656250 -0.005155759863555431365966796875 0.000872455420903861522674560547 0 0 0 0 
2406500000.0000000000 0.180294796824455288986044365629 0.009668073616921901702880859375 -0.005107477307319641113281250000 0.000933637551497668027877807617 0 0 0 0 
2406666666.6666665077 0.180346891283989008147869981258 0.009405552409589290618896484375 -0.005154791753739118576049804688 0.001246973988600075028063129956 0 0 0 0 
2406833333.3333334923 0.180771708488464410979901231258 0.008989539928734302520751953125 -0.004921824671328067779541015625 0.001254445873200892968418740381 0 0 0 0 
2407000000.0000000000 0.180849120020866394042968750000 0.008681731298565864562988281250 -0.004961626604199410352225019238 0.001400449546054006056544638525 0 0 0 0 
2407166666.6666665077 0.180985227227210998535156250000 0.008386070840060710906982421875 -0.004683572333306074142456054688 0.001492176786996423981310200269 0 0 0 0 
2407333333.3333334923 0.181004315614700289627236884371 0.007876406423747539520263671875 -0.004816084168851375579833984375 0.001842617057263850948931049878 0 0 0 0 
2407500000.0000000000 0.180802568793296786209268134371 0.007631998974829912185668945312 -0.004670694004744291305541992188 0.001822421909309924082515097510 0 0 0 0 
2407666666.6666665077 0.180766656994819613357705634371 0.007160838693380355834960937500 -0.004603654146194458007812500000 0.002146886894479393959045410156 0 0 0 0 
2407833333.3333334923 0.180209025740623501876669365629 0.006541282404214143753051757812 -0.004507398698478937149047851562 0.002176614245399833159205771338 0 0 0 0 
2408000000.0000000000 0.180023148655891390701455634371 0.005874423775821924209594726562 -0.004384383559226989746093750000 0.002182378200814127922058105469 0 0 0 0 
2408166666.6666665077 0.179571554064750699142294365629 0.005570217035710811614990234375 -0.004392622970044612884521484375 0.002441893331706523895263671875 0 0 0 0 
2408333333.3333334923 0.179325103759765597244424384371 0.004766645841300488385672284863 -0.004244272597134113311767578125 0.002551256446167827086207724463 0 0 0 0 
2408500000.0000000000 0.178770005702972412109375000000 0.003893032437190413908717490088 -0.004131478257477284345144941113 0.002528298879042267799377441406 0 0 0 0 
2408666666.6666665077 0.178117945790290804763955634371 0.002969334833323955969569540869 -0.004071241710335016250610351562 0.002662530634552239938023232568 0 0 0 0 
2408833333.3333334923 0.177581503987312289138955634371 0.002200141781941055817845009912 -0.003883025143295526938197470557 0.002786828204989432854893349756 0 0 0 0 
2409000000.0000000000 0.176806122064590509612713731258 0.001287924125790596008300781250 -0.003873200621455907821655273438 0.002963917795568705038783408057 0 0 0 0 
2409166666.6666665077 0.176363721489906311035156250000 0.000122009107144549502573828426 -0.003787795314565300941467285156 0.002980582183226943016052246094 0 0 0 0 
2409333333.3333334923 0.175702154636383112151776231258 -0.001148018054664134979248046875 -0.003577910596504807905909872900 0.003034138586372137069702148438 0 0 0 0 
2409500000.0000000000 0.174891293048858587066973768742 -0.002411467721685767173767089844 -0.003548924811184405846836709131 0.003084685420617461204528808594 0 0 0 0 
2409666666.6666665077 0.174026787281036404708700615629 -0.003817799733951687812805175781 -0.003486967179924250082728720557 0.003179478691890836195704794775 0 0 0 0 
2409833333.3333334923 0.173385739326477106292401231258 -0.004946516826748847961425781250 -0.003385918680578469796421670068 0.003216962097212671799900673975 0 0 0 0 
2410000000.0000000000 0.172825023531913812835369981258 -0.006492134649306535720825195312 -0.003377087647095323042628622900 0.003217445919290184974670410156 0 0 0 0 
2410166666.6666665077 0.172141522169113186935263115629 -0.007970571517944335937500000000 -0.003235006239265203909633017432 0.003440801519900559945347451318 0 0 0 0 
2410333333.3333334923 0.171472981572151211837606865629 -0.009563357569277286529541015625 -0.003120622131973505020141601562 0.003311803797259926795959472656 0 0 0 0 
2410500000.0000000000 0.170978397130966186523437500000 -0.011266483925282960373848162305 -0.002904608380049467086791992188 0.003367600264027715162989951025 0 0 0 0 
2410666666.6666665077 0.170215621590614291092080634371 -0.013107480481266980607002459180 -0.002962558530271052880528115381 0.003418346866965293884277343750 0 0 0 0 
2410833333.3333334923 0.169856399297714205642861884371 -0.014715011231601239985455897852 -0.002739179879426956176757812500 0.003516477299854158921482705225 0 0 0 0 
2411000000.0000000000 0.169468790292739895919638115629 -0.016349975019693381572682966407 -0.002871016273275018172023154150 0.003613619366660714149475097656 0 0 0 0 
2411166666.6666665077 0.169075772166252108474893134371 -0.018441656604409221303919608204 -0.002771230414509772820713662256 0.003575386712327599959132529150 0 0 0 0 
2411333333.3333334923 0.168766930699348505218182481258 -0.020265195518732070922851562500 -0.002689487999305129051208496094 0.003728572977706789970397949219 0 0 0 0 
2411500000.0000000000 0.168337047100067110916299384371 -0.022155797109007838857630545704 -0.002698885276913642883300781250 0.003799782833084464073181152344 0 0 0 0 
2411666666.6666665077 0.168319419026374789138955634371 -0.023928545415401458740234375000 -0.002514134626835585074183798682 0.003763073589652777151820517432 0 0 0 0 
2411833333.3333334923 0.168283060193061800857705634371 -0.025848792865872379648228829296 -0.002499937545508145852329873193 0.003812843700870871977565146338 0 0 0 0 
2412000000.0000000000 0.168369337916374206542968750000 -0.027914732694625851022740548046 -0.002378084231168032126185751807 0.004110503941774368286132812500 0 0 0 0 
2412166666.6666665077 0.168286561965942410568075615629 -0.029851434752345088613489920704 -0.002150472020730375809910439600 0.003871423425152897834777832031 0 0 0 0 
2412333333.3333334923 0.168506681919097900390625000000 -0.031646881252527236938476562500 -0.002126226900145411925074911963 0.004128524567931891355032636426 0 0 0 0 
2412500000.0000000000 0.168406471610069302657919365629 -0.033584814518690109252929687500 -0.002205055207014083862304687500 0.004277229309082031250000000000 0 0 0 0 
2412666666.6666665077 0.168756410479545593261718750000 -0.035499256104230880737304687500 -0.001769409398548305034637451172 0.004374227486550807952880859375 0 0 0 0 
2412833333.3333334923 0.169054284691810607910156250000 -0.037238206714391708374023437500 -0.001781411701813339970232319409 0.004573950543999671936035156250 0 0 0 0 
2413000000.0000000000 0.169434323906898498535156250000 -0.039102207869291312480886091407 -0.001657161279581486961962055737 0.004717560485005378723144531250 0 0 0 0 
2413166666.6666665077 0.169778734445571899414062500000 -0.040813688188791281963307966407 -0.001565487124025821902631450122 0.004659967496991158399100019238 0 0 0 0 
2413333333.3333334923 0.170157179236412103850994981258 -0.042413469403982162475585937500 -0.001415705075487494902369833838 0.004817095119506120681762695312 0 0 0 0 
2413500000.0000000000 0.170734450221061706542968750000 -0.044238038361072540283203125000 -0.001419299747794866995570517432 0.004805842880159617337698652051 0 0 0 0 
2413666666.6666665077 0.171216309070587213714276231258 -0.045814331620931632305104841407 -0.001082609989680350043653178638 0.004854020662605763349051191113 0 0 0 0 
2413833333.3333334923 0.171719864010810907561932481258 -0.047260049730539321899414062500 -0.000963240454439073801040649414 0.004865005146712064743041992188 0 0 0 0 
2414000000.0000000000 0.172105193138122586349325615629 -0.048776395618915557861328125000 -0.000610599818173795938491821289 0.005056713242083787918090820312 0 0 0 0 
2414166666.6666665077 0.172908648848533602615518134371 -0.049986414611339569091796875000 -0.000498444656841456890106201172 0.005064752884209156036376953125 0 0 0 0 
2414333333.3333334923 0.173114940524101312835369981258 -0.051206946372985839843750000000 -0.000349151116097346002429407941 0.005110884550958871841430664062 0 0 0 0 
2414500000.0000000000 0.174015969038009588043536268742 -0.052365317940711982036550153907 -0.000271827389951795285374241962 0.005201466381549835205078125000 0 0 0 0 
2414666666.6666665077 0.174469754099845886230468750000 -0.053399588912725448608398437500 0.000049055513954954221844673157 0.005105738993734121322631835938 0 0 0 0 
2414833333.3333334923 0.174972951412200899978799384371 -0.054414883255958557128906250000 0.000285769638139754479557591571 0.005131049081683158874511718750 0 0 0 0 
2415000000.0000000000 0.175438806414604187011718750000 -0.055387951433658599853515625000 0.000324564869515597820281982422 0.005271979141980409622192382812 0 0 0 0 
2415166666.6666665077 0.175828710198402404785156250000 -0.056204266846179962158203125000 0.000720465148333460092544555664 0.005162830930203199386596679688 0 0 0 0 
2415333333.3333334923 0.176383629441261291503906250000 -0.057108372449874877929687500000 0.000835331913549453020095825195 0.005178381688892841339111328125 0 0 0 0 
2415500000.0000000000 0.176649376749992398361044365629 -0.057713441550731658935546875000 0.001084322575479746081708598560 0.005136805586516857147216796875 0 0 0 0 
2415666666.6666665077 0.176955267786979703048544365629 -0.058185093104839331890065778907 0.001362465904094279029248881763 0.005080814938992261886596679688 0 0 0 0 
2415833333.3333334923 0.177281975746154812911825615629 -0.058808464556932449340820312500 0.001487172557972372011897421729 0.004919445607811213407034589551 0 0 0 0 
2416000000.0000000000 0.177253544330596896072549384371 -0.059284336864948272705078125000 0.001527446089312433979631733472 0.004869867116212844848632812500 0 0 0 0 
2416166666.6666665077 0.177725523710250910003338731258 -0.059652145951986312866210937500 0.001637370209209620952606201172 0.004739573691040278348440839551 0 0 0 0 
2416333333.3333334923 0.177566841244697598556356865629 -0.060086987912654876708984375000 0.001826395629905164024950336987 0.004695234354585409164428710938 0 0 0 0 
2416500000.0000000000 0.177556395530700711349325615629 -0.060536000877618789672851562500 0.002118357922881842093226767432 0.004607002250850200653076171875 0 0 0 0 
2416666666.6666665077 0.177334338426589993575888115629 -0.060701306909322738647460937500 0.002183440374210476875305175781 0.004496878013014793395996093750 0 0 0 0 
2416833333.3333334923 0.177312821149826105315838731258 -0.061188228428363800048828125000 0.002289541298523544831516884912 0.004461196716874837875366210938 0 0 0 0 
2417000000.0000000000 0.176758363842964200118856865629 -0.061366785317659378051757812500 0.002476039109751582145690917969 0.004269302822649478912353515625 0 0 0 0 
2417166666.6666665077 0.176362812519073486328125000000 -0.061429049819707870483398437500 0.002519121160730720000026083838 0.004220630042254924774169921875 0 0 0 0 
2417333333.3333334923 0.176003456115722711761151231258 -0.061757080256938927387277971093 0.002689013723284006118774414062 0.004035868216305971145629882812 0 0 0 0 
2417500000.0000000000 0.175433859229087801834268134371 -0.062218192964792251586914062500 0.002879362786188722090480185400 0.003991047851741313934326171875 0 0 0 0 
2417666666.6666665077 0.174892157316207913497763115629 -0.062237650156021118164062500000 0.002867521019652485847473144531 0.003855253569781779809239052881 0 0 0 0 
2417833333.3333334923 0.174022257328033502776776231258 -0.062507063150405883789062500000 0.003073448780924081802368164062 0.003725938731804490089416503906 0 0 0 0 
2418000000.0000000000 0.173241674900054903885049384371 -0.062946118414402008056640625000 0.003035607747733592987060546875 0.003668361576274036927464150537 0 0 0 0 
2418166666.6666665077 0.172200024127960205078125000000 -0.063161440193653106689453125000 0.003131906967610121206996298682 0.003526058513671160177943564307 0 0 0 0 
2418333333.3333334923 0.171470701694488497635049384371 -0.063549697399139404296875000000 0.003101147944107652144191122900 0.003350032493472098870518349756 0 0 0 0 
2418500000.0000000000 0.170517265796661404708700615629 -0.064008317887783050537109375000 0.003377832937985659079310751807 0.003338650101795793013331747900 0 0 0 0 
2418666666.6666665077 0.169549286365509005447549384371 -0.064557284116744995117187500000 0.003383549163118004798889160156 0.003045970341190696196315146338 0 0 0 0 
2418833333.3333334923 0.168235123157501192947549384371 -0.065113499760627746582031250000 0.003461987944319843812229775537 0.003008835017681121826171875000 0 0 0 0 
2419000000.0000000000 0.167108759284019497970419365629 -0.065576232969760894775390625000 0.003481427673250437216517783057 0.002921365434303880171534872900 0 0 0 0 
2419166666.6666665077 0.166019797325134305099325615629 -0.066260039806365966796875000000 0.003732432844117283821105957031 0.002810971112921833992004394531 0 0 0 0 
2419333333.3333334923 0.164782419800758389571981865629 -0.066792637109756469726562500000 0.003748435294255613847019814600 0.002628334565088152885437011719 0 0 0 0 
2419500000.0000000000 0.163524866104126004318075615629 -0.067842453718185424804687500000 0.003901687217876315116882324219 0.002482466865330934958217001807 0 0 0 0 
2419666666.6666665077 0.162431806325912503341513115629 -0.068684175610542297363281250000 0.003863316494971514181849814307 0.002383670303970574898960732568 0 0 0 0 
2419833333.3333334923 0.161238059401512201507244981258 -0.069442965090274810791015625000 0.003800184931606053872349404443 0.002245269017294048829319619287 0 0 0 0 
