# Hz S RI R 50
2400000000.0000000000 0.157276332378387506683026231258 0.060297325253486633300781250000 -0.002215100685134530067443847656 -0.000734814209863543510437011719 0 0 0 0 
2400166666.6666665077 0.157482758164405794998330634371 0.058706980198621749877929687500 -0.002426633611321448846104287256 -0.000819969456642866134643554688 0 0 0 0 
2400333333.3333334923 0.157435983419418307205361884371 0.056605957448482513427734375000 -0.002400414086878300146815634619 -0.000735464389435946941375732422 0 0 0 0 
2400500000.0000000000 0.157735496759414700607138115629 0.054527785629034042358398437500 -0.002288610441610217094421386719 -0.000831229612231254577636718750 0 0 0 0 
2400666666.6666665077 0.157750770449638394454794365629 0.052627418190240859985351562500 -0.002359119942411779923679970850 -0.000864127185195684432983398438 0 0 0 0 
2400833333.3333334923 0.158217310905456487457598768742 0.050747554749250411987304687500 -0.002281177323311566872837685693 -0.000672804890200495719909667969 0 0 0 0 
2401000000.0000000000 0.158490926027298001388388115629 0.048833087086677551269531250000 -0.002424493664875626997706747900 -0.000828904274385422468185424805 0 0 0 0 
2401166666.6666665077 0.158918663859367398361044365629 0.046844519674777991558034528907 -0.002436025766655803160426474463 -0.000703112164046615362167358398 0 0 0 0 
2401333333.3333334923 0.159120708703994806487713731258 0.044743143022060387348215471093 -0.002453270368278027014491415869 -0.000666702224407345056533813477 0 0 0 0 
2401500000.0000000000 0.159614026546478299239950615629 0.042794533073902130126953125000 -0.002484666416421533064601279150 -0.000563713954761624336242675781 0 0 0 0 
2401666666.6666665077 0.160246714949607904632244981258 0.041063420474529273296315778907 -0.002345158951357007026672363281 -0.000619713391643017530441284180 0 0 0 0 
2401833333.3333334923 0.160836949944496210296307481258 0.038982406258583068847656250000 -0.002227635588496923012974404443 -0.000650098139885812997817993164 0 0 0 0 
2402000000.0000000000 0.161178901791572598556356865629 0.037159636616706848144531250000 -0.002467619720846414999720908057 -0.000563541136216372251510620117 0 0 0 0 
2402166666.6666665077 0.161787241697311401367187500000 0.035182744264602661132812500000 -0.002354930620640515847447060693 -0.000625851098448038101196289062 0 0 0 0 
2402333333.3333334923 0.162561446428299005706463731258 0.033609200268983840942382812500 -0.002578079001978040175196982275 -0.000574249075725674629211425781 0 0 0 0 
2402500000.0000000000 0.163489505648613003829794365629 0.031947992742061621929128278907 -0.002536613261327147917506552588 -0.000570742180570960044860839844 0 0 0 0 
2402666666.6666665077 0.164211004972457913497763115629 0.030480993911623961711843122657 -0.002581608947366476058959960938 -0.000566630682442337274551391602 0 0 0 0 
2402833333.3333334923 0.164984285831451388260049384371 0.028906593099236488342285156250 -0.002603753702715038819553994287 -0.000337632605805993080139160156 0 0 0 0 
2403000000.0000000000 0.165644854307174710372763115629 0.027411947026848789560338204296 -0.002802796661853789849522256006 -0.000454925058875232880741673602 0 0 0 0 
2403166666.6666665077 0.166795656085014287750567518742 0.026135718449950221670130545704 -0.002824174705892800851109170068 -0.000493281928356736898422241211 0 0 0 0 
2403333333.3333334923 0.167582705616950988769531250000 0.024857971817255020141601562500 -0.002747952938079833984375000000 -0.000444256031187251210212707520 0 0 0 0 
2403500000.0000000000 0.168203145265579195877236884371 0.023528177291154861450195312500 -0.002750346204265952110290527344 -0.000177617926965467604711809702 0 0 0 0 
2403666666.6666665077 0.169258713722229003906250000000 0.022447204217314720153808593750 -0.002854081103578209877014160156 -0.000318315549520775675773620605 0 0 0 0 
2403833333.3333334923 0.170219853520393399337606865629 0.021341707557439800607701485546 -0.002792717656120657920837402344 -0.000202561030164361000061035156 0 0 0 0 
2404000000.0000000000 0.171154320240020807464276231258 0.020419184118509289133092110546 -0.002770085120573639869689941406 0.000116197436000220504686078482 0 0 0 0 
2404166666.6666665077 0.171902239322662409026776231258 0.019349345937371250497838204296 -0.002895028330385684967041015625 -0.000152822685777209699153900146 0 0 0 0 
2404333333.3333334923 0.172817736864089993575888115629 0.018645921722054481506347656250 -0.002888006158173083825352334131 0.000098344302386976778507232666 0 0 0 0 
2404500000.0000000000 0.173405855894088800628338731258 0.017750229686498638498326485546 -0.002649741712957621054408408057 0.000075005831604357808828353882 0 0 0 0 
2404666666.6666665077 0.174225822091102600097656250000 0.017246972769498828542689139454 -0.002899913117289543151855468750 0.000190861770533956587314605713 0 0 0 0 
2404833333.3333334923 0.174955815076828002929687500000 0.016167404130101200449010079296 -0.002816572552546858787536621094 0.000226805161219090196207323618 0 0 0 0 
2405000000.0000000000 0.175769373774528503417968750000 0.015754738822579380380650704296 -0.002866543363779782815220498193 0.000253372389124706387519836426 0 0 0 0 
2405166666.6666665077 0.176436349749565096756143134371 0.015198454260826110839843750000 -0.003107348922640084786656045068 0.000379909790353849476009923114 0 0 0 0 
2405333333.3333334923 0.177023217082023592849893134371 0.014669737778604030609130859375 -0.002840816741809248924255371094 0.000529629993252456188201904297 0 0 0 0 
2405500000.0000000000 0.177487090229988098144531250000 0.014244984835386279714564139454 -0.003003132529556750817539834131 0.000608249218203127384185791016 0 0 0 0 
2405666666.6666665077 0.177936151623725891113281250000 0.013913694769144059962262538477 -0.002868080278858542008640908350 0.000576063408516347408294677734 0 0 0 0 
2405833333.3333334923 0.178302332758903503417968750000 0.013614064082503320521344569727 -0.002811527810990809960606240381 0.000709620944689959287643432617 0 0 0 0 
2406000000.0000000000 0.178827375173568697830361884371 0.013082336634397510183314139454 -0.002759424736723303794860839844 0.000647686247248202562332153320 0 0 0 0 
2406166666.6666665077 0.178814351558685302734375000000 0.012886268086731430398961251171 -0.002698257099837065176722861182 0.000828672549687325954437255859 0 0 0 0 
2406333333.3333334923 0.179212793707847595214843750000 0.012542310170829299581507498829 -0.002836940810084342956542968750 0.000901125138625502586364746094 0 0 0 0 
2406500000.0000000000 0.179210186004638699630575615629 0.012036558240652079146415509570 -0.002749036997556685967686318506 0.000794986204709857702255249023 0 0 0 0 
2406666666.6666665077 0.179052293300628689864950615629 0.011672375723719600332239920704 -0.002750385552644730047938681494 0.000967992469668388366699218750 0 0 0 0 
2406833333.3333334923 0.179275184869766207595986884371 0.011213257908821109426478201954 -0.002696530194953083992004394531 0.001090992474928498051287006909 0 0 0 0 
2407000000.0000000000 0.179265856742858886718750000000 0.010746252723038200033167655079 -0.002798492088913917975184775244 0.001040379167534410953521728516 0 0 0 0 
2407166666.6666665077 0.179145842790603609939736884371 0.010452924296259880065917968750 -0.002733728382736444906947470557 0.001186527311801909966709756006 0 0 0 0 
2407333333.3333334923 0.178835108876228304763955634371 0.009672719985246658325195312500 -0.002692095236852765083312988281 0.001033508917316793961765908350 0 0 0 0 
2407500000.0000000000 0.178505882620811490157919365629 0.009217090904712677001953125000 -0.002812906168401240868809365381 0.001122106565162539915797568213 0 0 0 0 
2407666666.6666665077 0.178269416093826293945312500000 0.008570778183639049530029296875 -0.002648968715220690207240439307 0.001267943414859473922132182544 0 0 0 0 
2407833333.3333334923 0.177657306194305392166299384371 0.007894917391240596771240234375 -0.002678814576938747925999306787 0.001165683148428797938703227466 0 0 0 0 
2408000000.0000000000 0.177337571978569003006143134371 0.006986863445490598678588867188 -0.002594730583950877189636230469 0.001277257921174169020411826025 0 0 0 0 
2408166666.6666665077 0.176699370145797701736611884371 0.006360609084367752075195312500 -0.002712066518142818970921181787 0.001349266618490218899370503003 0 0 0 0 
2408333333.3333334923 0.176393985748290987869424384371 0.005396870896220207214355468750 -0.002802547300234436988830566406 0.001431630691513418934465717847 0 0 0 0 
2408500000.0000000000 0.175742760300636291503906250000 0.004345930181443691253662109375 -0.002460533054545522169825888525 0.001471865456551312966587685693 0 0 0 0 
2408666666.6666665077 0.175149545073509188553018134371 0.003126051276922225952148437500 -0.002465242519974708990809775244 0.001484503038227557919145893628 0 0 0 0 
2408833333.3333334923 0.174503013491630609710369981258 0.002247791737318038940429687500 -0.002690787659958004951477050781 0.001403010217472911097882914966 0 0 0 0 
2409000000.0000000000 0.173921853303909301757812500000 0.001009993953630327961565327222 -0.002488344442099332809448242188 0.001516465679742396094678569263 0 0 0 0 
2409166666.6666665077 0.173286497592925997635049384371 -0.000450808816822245717048645020 -0.002586952876299620108363486182 0.001624519471079111099243164062 0 0 0 0 
2409333333.3333334923 0.172607257962226895431356865629 -0.001832553069107234911677695166 -0.002555870451033114953282021631 0.001756912213750184015986777197 0 0 0 0 
2409500000.0000000000 0.172005698084831210037393134371 -0.003375488566234707832336425781 -0.002621711930260061784031533350 0.001707852701656519932987832178 0 0 0 0 
2409666666.6666665077 0.171454474329948397537393134371 -0.004719167482107877731323242188 -0.002658218145370482964756631006 0.001793207251466810920118022388 0 0 0 0 
2409833333.3333334923 0.170938849449157687088174384371 -0.006358479149639607343191816113 -0.002447616308927536010742187500 0.001939897891134024100062704932 0 0 0 0 
2410000000.0000000000 0.170502528548240689376669365629 -0.007952432148158550262451171875 -0.002581845037639141082763671875 0.001966404030099511146545410156 0 0 0 0 
2410166666.6666665077 0.170089423656463595291299384371 -0.009545927867293357849121093750 -0.002620403887704015211818076025 0.002091097412630916075465536963 0 0 0 0 
2410333333.3333334923 0.169575855135917691329794365629 -0.011276758275926109659215157421 -0.002524978714063764052150107275 0.002009440213441849188563681494 0 0 0 0 
2410500000.0000000000 0.168986588716507013518963731258 -0.013040158897638319188128086523 -0.002615655073896050886866904150 0.002238828921690582795384072412 0 0 0 0 
2410666666.6666665077 0.168827295303344698806924384371 -0.015010260976850989950159842579 -0.002588672796264290809631347656 0.002205236116424202919006347656 0 0 0 0 
2410833333.3333334923 0.168796226382255609710369981258 -0.016814345493912700307825858204 -0.002458615228533744812011718750 0.002434700727462768988368368994 0 0 0 0 
2411000000.0000000000 0.168444246053695706466513115629 -0.018496468663215640676478201954 -0.002470779465511440797093056787 0.002591167576611042022705078125 0 0 0 0 
2411166666.6666665077 0.168273985385894803146200615629 -0.020530872046947479248046875000 -0.002365228720009326934814453125 0.002602249616757034821751259912 0 0 0 0 
2411333333.3333334923 0.168223381042480496505575615629 -0.022349618375301361083984375000 -0.002613940043374896049499511719 0.002742979442700744108912802588 0 0 0 0 
2411500000.0000000000 0.168244332075118990799111884371 -0.024340927600860599172571951954 -0.002477971836924552917480468750 0.002891621552407741980311728369 0 0 0 0 
2411666666.6666665077 0.168527871370315607268963731258 -0.026081934571266170846959298046 -0.002385945059359074072596884619 0.002886837581172585921046591650 0 0 0 0 
2411833333.3333334923 0.168590277433395413497763115629 -0.027970366179943091655690778907 -0.002356236567720770835876464844 0.003177123842760920958278036963 0 0 0 0 
2412000000.0000000000 0.168854519724845886230468750000 -0.029950816184282299386998360546 -0.002298521343618630929234170068 0.003160270862281322912928915869 0 0 0 0 
2412166666.6666665077 0.168894484639167813400106865629 -0.031808055937290191650390625000 -0.002246055519208312034606933594 0.003426652401685715155360556494 0 0 0 0 
2412333333.3333334923 0.169490888714790288727130018742 -0.033459451049566268920898437500 -0.002110267290845512910130166162 0.003370979800820351080653525244 0 0 0 0 
2412500000.0000000000 0.169715449213981600662393134371 -0.035062320530414581298828125000 -0.002099050208926200866699218750 0.003657674416899681091308593750 0 0 0 0 
2412666666.6666665077 0.170419454574584988693075615629 -0.037060726433992392803151716407 -0.002027423586696385903599404443 0.003802216611802577972412109375 0 0 0 0 
2412833333.3333334923 0.170732200145721407791299384371 -0.038596179336309432983398437500 -0.001908014179207385020015097510 0.004053272306919097900390625000 0 0 0 0 
2413000000.0000000000 0.171254724264144897460937500000 -0.040381170809268951416015625000 -0.001819515833631158091901469653 0.004074814729392529401297284863 0 0 0 0 
2413166666.6666665077 0.171599760651588412185830634371 -0.041890930384397506713867187500 -0.001654359861277044036267924731 0.004101991653442382812500000000 0 0 0 0 
2413333333.3333334923 0.172042250633239801604901231258 -0.043430041521787643432617187500 -0.001351826358586549975751567310 0.004167631268501281738281250000 0 0 0 0 
2413500000.0000000000 0.172792017459869412521200615629 -0.044910263270139687274973283593 -0.001163001288659871058223105322 0.004343998618423938751220703125 0 0 0 0 
2413666666.6666665077 0.173452556133270291427450615629 -0.046205181628465652465820312500 -0.001194665324874222061754536206 0.004586102906614542007446289062 0 0 0 0 
2413833333.3333334923 0.173863485455513000488281250000 -0.047504235059022903442382812500 -0.000977215124294161796569824219 0.004478161223232746124267578125 0 0 0 0 
2414000000.0000000000 0.174265667796135004241619981258 -0.048961583524942398071289062500 -0.000643200182821601629257202148 0.004715155810117722424978925488 0 0 0 0 
2414166666.6666665077 0.174919113516807611663494981258 -0.050004769116640090942382812500 -0.000449501181719824725955408917 0.004672794137150049209594726562 0 0 0 0 
2414333333.3333334923 0.175594359636306790450888115629 -0.050985489040613167499582658593 -0.000258107320405542904704493390 0.004782268777489662170410156250 0 0 0 0 
2414500000.0000000000 0.176180675625801086425781250000 -0.051970839500427253032643903907 -0.000162004740559496012613019400 0.004800126887857913970947265625 0 0 0 0 
2414666666.6666665077 0.176378324627876309493856865629 -0.052866678684949881816823591407 0.000136352653498761410087031232 0.004701044410467147827148437500 0 0 0 0 
2414833333.3333334923 0.176775783300399808029013115629 -0.053790461272001273418386091407 0.000226967735216021510675707407 0.004932119976729154586791992188 0 0 0 0 
2415000000.0000000000 0.177199587225914001464843750000 -0.054390221834182739257812500000 0.000535759550984948873519897461 0.004741252399981021881103515625 0 0 0 0 
2415166666.6666665077 0.177483737468719510177450615629 -0.055143207311630249023437500000 0.000712286273483186960220336914 0.004722751211374998092651367188 0 0 0 0 
2415333333.3333334923 0.177695676684379605392294365629 -0.055854864418506622314453125000 0.000884756562300026416778564453 0.004806758370250464353079511426 0 0 0 0 
2415500000.0000000000 0.177886471152305603027343750000 -0.056357633322477340698242187500 0.001111228833906352953669882666 0.004613241646438837051391601562 0 0 0 0 
2415666666.6666665077 0.178072243928909301757812500000 -0.056794762611389160156250000000 0.001238298835232854106305766528 0.004686690401285886764526367188 0 0 0 0 
2415833333.3333334923 0.178156018257141113281250000000 -0.057249706238508217548410783593 0.001388672855682671070098876953 0.004410793073475360870361328125 0 0 0 0 
2416000000.0000000000 0.177948698401451110839843750000 -0.057552244514226913452148437500 0.001666488242335617975947714697 0.004378454294055700302124023438 0 0 0 0 
2416166666.6666665077 0.177884891629219110686932481258 -0.058009963482618331909179687500 0.001760905142873526053187704932 0.004342501983046531677246093750 0 0 0 0 
2416333333.3333334923 0.177730962634086608886718750000 -0.058189190924167633056640625000 0.001851999782957137064692831885 0.004265737254172564420218183301 0 0 0 0 
2416500000.0000000000 0.177489623427391107757244981258 -0.058601010590791702270507812500 0.001969919539988040924072265625 0.004167379811406136426443769238 0 0 0 0 
2416666666.6666665077 0.177154615521430996993856865629 -0.058841429650783538818359375000 0.002163467695936561064479208838 0.004140400793403387069702148438 0 0 0 0 
2416833333.3333334923 0.176632419228553799728231865629 -0.059197202324867248535156250000 0.002193464199081062836887978662 0.004044874105602502822875976562 0 0 0 0 
2417000000.0000000000 0.176026403903961209396200615629 -0.059498313814401626586914062500 0.002411881927400826974156045068 0.003894381923601030869724892725 0 0 0 0 
2417166666.6666665077 0.175358846783638000488281250000 -0.059664309024810791015625000000 0.002512207021936773820164345850 0.003761952277272940115687704932 0 0 0 0 
2417333333.3333334923 0.174767240881919888595419365629 -0.059851139783859252929687500000 0.002722514560446143150329589844 0.003826180007308721976039267432 0 0 0 0 
2417500000.0000000000 0.173848450183868408203125000000 -0.060418292880058288574218750000 0.002730260835960506959202431787 0.003566338913515210151672363281 0 0 0 0 
2417666666.6666665077 0.173167809844017001053018134371 -0.060647107660770423198659528907 0.002842826303094625906703329932 0.003541162004694343046901083838 0 0 0 0 
2417833333.3333334923 0.172307223081588800628338731258 -0.060983367264270782470703125000 0.002894577104598284201381064307 0.003394078230485320091247558594 0 0 0 0 
2418000000.0000000000 0.171207040548324612716513115629 -0.061624146997928619384765625000 0.003129416378214954896214150537 0.003280874807387589974644326318 0 0 0 0 
2418166666.6666665077 0.170259892940521212478799384371 -0.061965968459844589233398437500 0.003144429996609687805175781250 0.003164583118632435798645019531 0 0 0 0 
2418333333.3333334923 0.169356971979141207595986884371 -0.062513366341590881347656250000 0.003305124351754785017726279150 0.003009326290339231924769736182 0 0 0 0 
2418500000.0000000000 0.168118894100189208984375000000 -0.062980219721794128417968750000 0.003239671699702740149257040869 0.002945352112874389128444052588 0 0 0 0 
2418666666.6666665077 0.167152196168899508377236884371 -0.063712753355503082275390625000 0.003251231042668222947361611475 0.002986585954204202131984091650 0 0 0 0 
2418833333.3333334923 0.165759339928626986404580634371 -0.064479686319828033447265625000 0.003447845345363020896911621094 0.002657453296706080003025673975 0 0 0 0 
2419000000.0000000000 0.164547845721244812011718750000 -0.065164722502231597900390625000 0.003658553585410118103027343750 0.002631247276440262794494628906 0 0 0 0 
2419166666.6666665077 0.163397908210754394531250000000 -0.066049695014953613281250000000 0.003712824080139399008509970557 0.002502218121662735939025878906 0 0 0 0 
2419333333.3333334923 0.162106290459632901290731865629 -0.066777907311916351318359375000 0.003766477573662995858433388818 0.002339721657335758209228515625 0 0 0 0 
2419500000.0000000000 0.161139756441116305252236884371 -0.067993916571140289306640625000 0.003717235522344708009007119287 0.002282786415889859199523925781 0 0 0 0 
2419666666.6666665077 0.160057231783866910079794365629 -0.069093100726604461669921875000 0.003950268961489200592041015625 0.002234392566606401963474892725 0 0 0 0 
2419833333.3333334923 0.158747673034667996505575615629 -0.069908842444419860839843750000 0.003851162036880850791931152344 0.001918941154144703908207558740 0 0 0 0 
