# Hz S RI R 50
2400000000.0000000000 0.157286524772643987457598768742 0.060234040021896362304687500000 -0.002415744820609689192530966650 -0.000561221560928970575332641602 0 0 0 0 
2400166666.6666665077 0.157432988286018399337606865629 0.058553472161293029785156250000 -0.002182608470320702032801962744 -0.000622272549662739038467407227 0 0 0 0 
2400333333.3333334923 0.157460570335388211349325615629 0.056656591594219207763671875000 -0.002374881180003284974339150537 -0.000611225317697972059249877930 0 0 0 0 
2400500000.0000000000 0.157577842473983792404013115629 0.054639279842376708984375000000 -0.002264358103275299072265625000 -0.000708416511770337820053100586 0 0 0 0 
2400666666.6666665077 0.157915547490119906326455634371 0.052683018147945397113840471093 -0.002355882897973061041591025244 -0.000776989269070327281951904297 0 0 0 0 
2400833333.3333334923 0.158147081732749911209268134371 0.050799127668142318725585937500 -0.002416029106825590133666992188 -0.000608491885941475629806518555 0 0 0 0 
2401000000.0000000000 0.158595085144042996505575615629 0.048741959035396582866628278907 -0.002333778655156493186950683594 -0.000659158453345298767089843750 0 0 0 0 
2401166666.6666665077 0.158817186951637295821981865629 0.046863760799169540405273437500 -0.002374559408053756193873740088 -0.000704094010870903730392456055 0 0 0 0 
2401333333.3333334923 0.159116849303245488922442518742 0.044842064380645751953125000000 -0.002344971755519508881809853662 -0.000648003770038485527038574219 0 0 0 0 
2401500000.0000000000 0.159748524427413912674111884371 0.042854547500610351562500000000 -0.002357275923714042143580771338 -0.000513126084115356206893920898 0 0 0 0 
2401666666.6666665077 0.160304740071296691894531250000 0.040909085422754287719726562500 -0.002441893331706523895263671875 -0.000561053981073200702667236328 0 0 0 0 
2401833333.3333334923 0.160691931843757601638955634371 0.039002172648906707763671875000 -0.002502056770026683807373046875 -0.000480057875392958521842956543 0 0 0 0 
2402000000.0000000000 0.161180049180984497070312500000 0.037115644663572311401367187500 -0.002467250451445579962489462744 -0.000631883682217448949813842773 0 0 0 0 
2402166666.6666665077 0.161852017045021112640057481258 0.035198118537664413452148437500 -0.002449079649522901015040732275 -0.000542890222277492284774780273 0 0 0 0 
2402333333.3333334923 0.162639930844307001311932481258 0.033737156540155410766601562500 -0.002575713675469160079956054688 -0.000612980453297495841979980469 0 0 0 0 
2402500000.0000000000 0.163512155413627596756143134371 0.031998854130506522441823591407 -0.002576669212430715994593954932 -0.000396007933886721676022130145 0 0 0 0 
2402666666.6666665077 0.164170786738395690917968750000 0.030405400320887569082239920704 -0.002557533094659448103663779150 -0.000551803037524223327636718750 0 0 0 0 
2402833333.3333334923 0.164924025535583496093750000000 0.028787465766072269784947579296 -0.002664600731804966926574707031 -0.000362688180757686495780944824 0 0 0 0 
2403000000.0000000000 0.165832147002220209319744981258 0.027443187311291701580007185157 -0.002548507880419493155238486182 -0.000304074463201686685711461200 0 0 0 0 
2403166666.6666665077 0.166684284806251498123330634371 0.025995792821049690246582031250 -0.002599340630695223808288574219 -0.000415121990954503417015075684 0 0 0 0 
2403333333.3333334923 0.167637586593627901931924384371 0.024908399209380149841308593750 -0.002800077665597199959995888818 -0.000284019653918221592903137207 0 0 0 0 
2403500000.0000000000 0.168328106403350802322549384371 0.023671876639127731323242187500 -0.002787302481010555787327431787 -0.000287248927634209394454956055 0 0 0 0 
2403666666.6666665077 0.169299349188804598709268134371 0.022365333512425419199010079296 -0.002665614709258079962489462744 -0.000195927917957305908203125000 0 0 0 0 
2403833333.3333334923 0.170373007655143710037393134371 0.021327434107661250722864920704 -0.002883843146264553070068359375 -0.000118705451313871903858999934 0 0 0 0 
2404000000.0000000000 0.171156063675880404373330634371 0.020408529788255691528320312500 -0.002923529595136642889735556494 -0.000136283531901426613330841064 0 0 0 0 
2404166666.6666665077 0.172136619687080411056356865629 0.019375381991267200815221016796 -0.002882929984480143027064658057 -0.000044739768782164901494979858 0 0 0 0 
2404333333.3333334923 0.172665104269981412032919365629 0.018533723428845409048060233204 -0.002872035838663578033447265625 0.000146732694702222889095860614 0 0 0 0 
2404500000.0000000000 0.173460990190506009200888115629 0.017775801941752430307408516796 -0.002974299015477300123927451025 0.000113174435682594803258618765 0 0 0 0 
2404666666.6666665077 0.174417525529861505706463731258 0.017029939219355579721471016796 -0.002868912881240249113795615088 0.000252057594479992985725402832 0 0 0 0 
2404833333.3333334923 0.175228133797645596603231865629 0.016361029818654060363769531250 -0.002867452101781963868382119287 0.000405818718718364780575352802 0 0 0 0 
2405000000.0000000000 0.175969108939170809646768134371 0.015681836754083629953404610546 -0.002701027086004614830017089844 0.000365883955964818596839904785 0 0 0 0 
2405166666.6666665077 0.176434338092804010589276231258 0.015199112705886360513707344921 -0.002739585237577557997462607275 0.000611371535342186689376831055 0 0 0 0 
2405333333.3333334923 0.177137061953544588943643134371 0.014655868522822860372523123829 -0.002748232567682861848118447412 0.000621040002442896366119384766 0 0 0 0 
2405500000.0000000000 0.177521571516990689376669365629 0.014324227347970010584821132227 -0.002812712918967009024379111182 0.000829504977446049451828002930 0 0 0 0 
2405666666.6666665077 0.178085267543792696853799384371 0.013939061202108860015869140625 -0.002825118601322174072265625000 0.000607886351644992828369140625 0 0 0 0 
2405833333.3333334923 0.178311392664909390548544365629 0.013521756976842880249023437500 -0.002709622727707027955296181787 0.000700586184393614530563354492 0 0 0 0 
2406000000.0000000000 0.178696528077125604827557481258 0.012966644950211049860944179102 -0.002609780756756662888767861475 0.000857195002026856054007375452 0 0 0 0 
2406166666.6666665077 0.178829982876777704436932481258 0.012912121601402759552001953125 -0.002684516832232474847080849756 0.000867575174197554588317871094 0 0 0 0 
2406333333.3333334923 0.179193586111068697830361884371 0.012546085752546790731409842579 -0.002821632893756031990051269531 0.000723170291166752576828002930 0 0 0 0 
2406500000.0000000000 0.179157704114913912674111884371 0.012003735639154909306536289648 -0.002680796431377530097961425781 0.000711295811925083398818969727 0 0 0 0 
2406666666.6666665077 0.179092273116111810882244981258 0.011764176189899449784248552930 -0.002567826071754097938537597656 0.001002202625386416912078857422 0 0 0 0 
2406833333.3333334923 0.179178744554519708831463731258 0.011355612426996229344378086523 -0.002625205554068088965175009619 0.000980500481091439723968505859 0 0 0 0 
2407000000.0000000000 0.179065108299255398849325615629 0.010888196527957919729212576954 -0.002487215213477611975428915869 0.001093515427783132033107138525 0 0 0 0 
2407166666.6666665077 0.179144799709320096114950615629 0.010378528386354449880579764454 -0.002596896840259432792663574219 0.001027046353556215979932475513 0 0 0 0 
2407333333.3333334923 0.178732693195342989822549384371 0.009885697625577449798583984375 -0.002791018690913916067836142432 0.001193279400467873053309775244 0 0 0 0 
2407500000.0000000000 0.178410068154334994217080634371 0.009326943196356296539306640625 -0.002620557090267539024353027344 0.001288809347897768020629882812 0 0 0 0 
2407666666.6666665077 0.178077042102813692947549384371 0.008665920235216617584228515625 -0.002543537877500056786778115381 0.001182965119369328022003173828 0 0 0 0 
2407833333.3333334923 0.177512213587760897537393134371 0.007902163080871105194091796875 -0.002649732632562518119812011719 0.001295230234973133044001913916 0 0 0 0 
2408000000.0000000000 0.177184715867042513748330634371 0.007014743983745574951171875000 -0.002507603494450449943542480469 0.001281837816350162029266357422 0 0 0 0 
2408166666.6666665077 0.176621004939079312423544365629 0.006439547520130872726440429688 -0.002482062904164195060729980469 0.001305111334659158966661762769 0 0 0 0 
2408333333.3333334923 0.176311254501342801193075615629 0.005395721644163131713867187500 -0.002545802388340235190150595557 0.001380680827423929951311420972 0 0 0 0 
2408500000.0000000000 0.175681397318839999099893134371 0.004410040099173784255981445312 -0.002680785488337277932407998193 0.001651180675253272056579589844 0 0 0 0 
2408666666.6666665077 0.175066158175468389313067518742 0.003366083838045597076416015625 -0.002442877506837248802185058594 0.001506573287770152091979980469 0 0 0 0 
2408833333.3333334923 0.174527540802955599685830634371 0.002128325169906020164489746094 -0.002602416323497890992405556787 0.001620655646547674915911030347 0 0 0 0 
2409000000.0000000000 0.173849433660507202148437500000 0.001055975561030209064483642578 -0.002614420140162109894993447412 0.001637443900108336968662881006 0 0 0 0 
2409166666.6666665077 0.173203513026237487792968750000 -0.000275151076493784785270690918 -0.002571340650320053100585937500 0.001631996128708123943926167065 0 0 0 0 
2409333333.3333334923 0.172803178429603604415731865629 -0.001742476481013000011444091797 -0.002553265076130629019496298682 0.001748892711475491957423544775 0 0 0 0 
2409500000.0000000000 0.172039553523063687423544365629 -0.003285134676843882040736533057 -0.002519970992580056190490722656 0.001757780672051012949702597510 0 0 0 0 
2409666666.6666665077 0.171470329165458706954794365629 -0.004761490505188704404349042676 -0.002544787712395191192626953125 0.001809736713767051913617778247 0 0 0 0 
2409833333.3333334923 0.170763939619064303299111884371 -0.006126098800450563430786132812 -0.002431896049529314041137695312 0.002028425224125384850742959131 0 0 0 0 
2410000000.0000000000 0.170612230896949795821981865629 -0.007920794188976287841796875000 -0.002625151537358760833740234375 0.002018618630245327949523925781 0 0 0 0 
2410166666.6666665077 0.169952511787414606292401231258 -0.009428364224731922149658203125 -0.002381952246651052994969033350 0.001963802846148610115051269531 0 0 0 0 
2410333333.3333334923 0.169488862156868008712606865629 -0.011268246918916700535784336523 -0.002459421521052718162536621094 0.002147611696273088888881064307 0 0 0 0 
2410500000.0000000000 0.169197872281074496170205634371 -0.013055562973022459202776524023 -0.002428937936201692061183310400 0.002315246732905507087707519531 0 0 0 0 
2410666666.6666665077 0.168653413653373690506143134371 -0.015066176652908330399482927930 -0.002538183936849236922023154150 0.002298069885000586943385458838 0 0 0 0 
2410833333.3333334923 0.168718442320823697189169365629 -0.016842648386955261230468750000 -0.002504402538761496977565146338 0.002453670836985110802891396631 0 0 0 0 
2411000000.0000000000 0.168491840362548800369424384371 -0.018647082149982448923131173046 -0.002455354435369371934178017725 0.002607518574222921891453408350 0 0 0 0 
2411166666.6666665077 0.168269902467727688888388115629 -0.020435083657503131521204764454 -0.002456904388964176177978515625 0.002774441614747046990635537256 0 0 0 0 
2411333333.3333334923 0.168211713433265713790731865629 -0.022170610725879669189453125000 -0.002471748972311615943908691406 0.002655134769156575202941894531 0 0 0 0 
2411500000.0000000000 0.168227672576904296875000000000 -0.024330489337444308889368826954 -0.002430306049063802199122763525 0.002909281058236957030055380713 0 0 0 0 
2411666666.6666665077 0.168481260538101196289062500000 -0.026189953088760379446009451954 -0.002548103686422110037562704932 0.003029535990208386941197060693 0 0 0 0 
2411833333.3333334923 0.168545737862587002853231865629 -0.027914393693208690988560860546 -0.002301541855558753013610839844 0.002984358463436365127563476562 0 0 0 0 
2412000000.0000000000 0.168771117925643893142861884371 -0.029930157586932178842564766796 -0.002370919100940227942225790869 0.003306838218122721152064658057 0 0 0 0 
2412166666.6666665077 0.169023782014846801757812500000 -0.031556613743305213237722028907 -0.002141360659152268929722451318 0.003276328556239604949951171875 0 0 0 0 
2412333333.3333334923 0.169557750225067110916299384371 -0.033440012484788901592214216407 -0.002199430717155336899998330225 0.003532783361151814894435263525 0 0 0 0 
2412500000.0000000000 0.169688284397125188629473768742 -0.035136811435222632671315778907 -0.002001296030357480049133300781 0.003645217744633554978611611475 0 0 0 0 
2412666666.6666665077 0.170253872871398898025674384371 -0.037088971585035317157785783593 -0.001861159806139766953111958081 0.003704271744936705069300986182 0 0 0 0 
2412833333.3333334923 0.170710161328315707107705634371 -0.038520313799381263042409528907 -0.001888796337880193970323872144 0.003975654020905494689941406250 0 0 0 0 
2413000000.0000000000 0.171302229166030911544638115629 -0.040253773331642150878906250000 -0.001691312063485383987426757812 0.003988290205597878369803144238 0 0 0 0 
2413166666.6666665077 0.171832308173179598709268134371 -0.041867759078741066669504533593 -0.001767809037119149944902729565 0.004146712832152844342703534863 0 0 0 0 
2413333333.3333334923 0.172195523977279690841513115629 -0.043268535286188132549245466407 -0.001548338099382817962049174731 0.004304907750338315963745117188 0 0 0 0 
2413500000.0000000000 0.172702118754386901855468750000 -0.044938590377569198608398437500 -0.001339890761300921006443642725 0.004290411248803138732910156250 0 0 0 0 
2413666666.6666665077 0.173390269279480008224325615629 -0.046331208199262619018554687500 -0.000956479518208652734756469727 0.004493446089327335357666015625 0 0 0 0 
2413833333.3333334923 0.173847064375877408126669365629 -0.047523766756057739257812500000 -0.000808753713499754667282104492 0.004596163053065538406372070312 0 0 0 0 
2414000000.0000000000 0.174367293715476989746093750000 -0.048865821212530143047292341407 -0.000716946320608258247375488281 0.004532455001026391983032226562 0 0 0 0 
2414166666.6666665077 0.175111815333366394042968750000 -0.050006575882434851909597028907 -0.000543018395546823740005493164 0.004803023766726255416870117188 0 0 0 0 
2414333333.3333334923 0.175425916910171508789062500000 -0.051058452576398849487304687500 -0.000300847023027017712593078613 0.004685699008405208587646484375 0 0 0 0 
2414500000.0000000000 0.176110193133354187011718750000 -0.051946416497230529785156250000 -0.000219678768189624006122034894 0.004798519425094127655029296875 0 0 0 0 
2414666666.6666665077 0.176486954092979403396768134371 -0.052828926593065261840820312500 0.000182012823643162900775355206 0.004772325046360492706298828125 0 0 0 0 
2414833333.3333334923 0.176772311329841613769531250000 -0.053756691515445709228515625000 0.000333086325554177219241541730 0.004677643533796072006225585938 0 0 0 0 
2415000000.0000000000 0.177044525742530794998330634371 -0.054448373615741729736328125000 0.000539607135578989982604980469 0.004747119266539812088012695312 0 0 0 0 
2415166666.6666665077 0.177391275763511713225994981258 -0.055209305137395858764648437500 0.000803938077297061681747436523 0.004691459704190492630004882812 0 0 0 0 
2415333333.3333334923 0.177835091948509188553018134371 -0.055785764008760452270507812500 0.000861084670759737491607666016 0.004795902874320746335501386426 0 0 0 0 
2415500000.0000000000 0.177940353751182611663494981258 -0.056265704333782202983815778907 0.001023359829559922001482319409 0.004663512110710144042968750000 0 0 0 0 
2415666666.6666665077 0.178059548139572088043536268742 -0.056777480989694602275807966407 0.001403052592650056102155375903 0.004574493039399386319632245801 0 0 0 0 
2415833333.3333334923 0.178028047084808405120526231258 -0.057116121053695678710937500000 0.001570490072481333992601704175 0.004571757744997739791870117188 0 0 0 0 
2416000000.0000000000 0.177984967827796908279580634371 -0.057657249271869659423828125000 0.001558586605824529907823872144 0.004356618504971265792846679688 0 0 0 0 
2416166666.6666665077 0.177972868084907503982705634371 -0.057988639920949942851979841407 0.001741143292747437953948974609 0.004319354426115751266479492188 0 0 0 0 
2416333333.3333334923 0.177781641483306912521200615629 -0.058187514543533332134206403907 0.001879518036730587916133261572 0.004240777809172868728637695312 0 0 0 0 
2416500000.0000000000 0.177478089928626986404580634371 -0.058593731373548507690429687500 0.002124736318364738984348916162 0.004097288474440574645996093750 0 0 0 0 
2416666666.6666665077 0.176980257034301813323651231258 -0.058877702802419662475585937500 0.002258760156109929084777832031 0.004147711209952831268310546875 0 0 0 0 
2416833333.3333334923 0.176733076572418212890625000000 -0.059199534356594092632253278907 0.002443611854687333106994628906 0.003979898057878017425537109375 0 0 0 0 
2417000000.0000000000 0.176089778542518587967080634371 -0.059425707906484596942942033593 0.002501681679859756989720009912 0.003923864103853703412527753613 0 0 0 0 
2417166666.6666665077 0.175352141261100796798544365629 -0.059659749269485466693918596093 0.002661402337253094153163290869 0.003898755647242068810703896631 0 0 0 0 
2417333333.3333334923 0.174813464283943204025106865629 -0.059943564236164093017578125000 0.002707574516534804864170693506 0.003715527243912220001220703125 0 0 0 0 
2417500000.0000000000 0.173876464366912786285723768742 -0.060404993593692779541015625000 0.002753566019237041907069540869 0.003623635740950704054591513525 0 0 0 0 
2417666666.6666665077 0.173213079571723910232705634371 -0.060649428516626358032226562500 0.002892709337174891991856240381 0.003537142649292945861816406250 0 0 0 0 
2417833333.3333334923 0.172274976968765286544638115629 -0.061075914651155471801757812500 0.003049870952963829040527343750 0.003349986160174012184143066406 0 0 0 0 
2418000000.0000000000 0.171121805906295804122763115629 -0.061531856656074516986887346093 0.003146436996757984161376953125 0.003290693042799830003025673975 0 0 0 0 
2418166666.6666665077 0.170195505023002596756143134371 -0.061835180968046188354492187500 0.003197206184267998175380087744 0.003165135858580470085144042969 0 0 0 0 
2418333333.3333334923 0.169333308935165405273437500000 -0.062561228871345520019531250000 0.003345249919220805168151855469 0.003102785907685757117030478369 0 0 0 0 
2418500000.0000000000 0.168175250291824313064736884371 -0.063089609146118164062500000000 0.003425997449085115952732705225 0.002982669277116655869724892725 0 0 0 0 
2418666666.6666665077 0.167108967900276211837606865629 -0.063694737851619720458984375000 0.003387818811461329893824911963 0.002901066094636917114257812500 0 0 0 0 
2418833333.3333334923 0.165718719363212613204794365629 -0.064388081431388854980468750000 0.003525618463754653930664062500 0.002814193954691290855407714844 0 0 0 0 
2419000000.0000000000 0.164619654417037991622763115629 -0.065126195549964904785156250000 0.003621458541601895852329873193 0.002765504177659749984741210938 0 0 0 0 
2419166666.6666665077 0.163545280694961603362713731258 -0.065932579338550567626953125000 0.003650838509202003912684775244 0.002594285411760210990905761719 0 0 0 0 
2419333333.3333334923 0.162213414907455388824786268742 -0.066756628453731536865234375000 0.003778684651479125022888183594 0.002498515415936708883998251807 0 0 0 0 
2419500000.0000000000 0.161280393600463894943075615629 -0.067960269749164581298828125000 0.003940528724342584609985351562 0.002245363080874084992649697412 0 0 0 0 
2419666666.6666665077 0.160142257809639004806356865629 -0.068971715867519378662109375000 0.004042209126055240631103515625 0.002309457166120409965515136719 0 0 0 0 
2419833333.3333334923 0.158973500132560702224893134371 -0.069988720118999481201171875000 0.003981889225542545318603515625 0.002024848014116286797764443506 0 0 0 0 
