# Version 1.00
#
freq[Hz];re:Trc1_S11;im:Trc1_S11;re:Trc2_S21;im:Trc2_S21;
2.400000000000000E+009;1.583659499883652E-001;6.234790012240410E-002;-9.710940066725016E-004;-1.219276222400367E-003;
2.400166666666667E+009;1.582251638174057E-001;6.084879115223885E-002;-1.046497025527060E-003;-1.156671787612140E-003;
2.400333333333334E+009;1.581020504236221E-001;5.890047177672386E-002;-1.368804951198399E-003;-1.239217119291425E-003;
2.400500000000000E+009;1.579180359840393E-001;5.697569996118546E-002;-1.243170467205346E-003;-1.039035501889885E-003;
2.400666666666667E+009;1.579101383686066E-001;5.483510717749596E-002;-1.170799951069057E-003;-1.031816005706787E-003;
2.400833333333334E+009;1.581408828496933E-001;5.298595502972603E-002;-1.235610106959939E-003;-8.476573275402188E-004;
2.401000000000000E+009;1.582736819982529E-001;5.104202404618263E-002;-1.099140499718487E-003;-6.917699938639998E-004;
2.401166666666667E+009;1.584767252206802E-001;4.880217835307121E-002;-9.858534904196858E-004;-8.839560323394835E-004;
2.401333333333334E+009;1.585292965173721E-001;4.688026010990143E-002;-1.052091247402132E-003;-8.696725126355887E-004;
2.401500000000000E+009;1.588388532400131E-001;4.482119157910347E-002;-1.084235147573054E-003;-8.020829409360886E-004;
2.401666666666667E+009;1.591282933950424E-001;4.273803532123566E-002;-1.121775247156620E-003;-6.353571661747992E-004;
2.401833333333334E+009;1.596567034721375E-001;4.070625454187393E-002;-1.023484044708312E-003;-5.496553494594991E-004;
2.402000000000000E+009;1.598004102706909E-001;3.879141807556152E-002;-8.231576066464186E-004;-5.705788498744369E-004;
2.402166666666667E+009;1.603734344244003E-001;3.671343624591827E-002;-9.733940823934972E-004;-5.187985952943564E-004;
2.402333333333334E+009;1.608599424362183E-001;3.487647697329521E-002;-9.088141378015280E-004;-4.212161293253303E-004;
2.402500000000000E+009;1.618364602327347E-001;3.298376128077507E-002;-9.729538578540087E-004;-4.333933466114104E-004;
2.402666666666667E+009;1.625050902366638E-001;3.146466612815857E-002;-8.806567057035863E-004;-4.529161378741264E-004;
2.402833333333334E+009;1.630741655826569E-001;2.970566786825657E-002;-7.525415276177228E-004;-3.205302928108722E-004;
2.403000000000000E+009;1.640625298023224E-001;2.801135741174221E-002;-7.709620986133814E-004;-4.481947980821133E-004;
2.403166666666667E+009;1.647048890590668E-001;2.654176391661167E-002;-7.094284519553185E-004;-3.948944213334471E-004;
2.403333333333334E+009;1.656895875930786E-001;2.493141032755375E-002;-5.814504111185670E-004;-4.691433277912438E-004;
2.403500000000000E+009;1.666456907987595E-001;2.364726923406124E-002;-6.490694941021502E-004;-3.067617653869093E-004;
2.403666666666667E+009;1.676015853881836E-001;2.224203571677208E-002;-6.503495969809592E-004;-4.316307895351201E-004;
2.403833333333334E+009;1.687171459197998E-001;2.085432782769203E-002;-6.024041795171797E-004;-3.082903276663274E-004;
2.404000000000000E+009;1.696459949016571E-001;1.969236880540848E-002;-6.349670002236962E-004;-1.690317731117830E-004;
2.404166666666667E+009;1.703953146934509E-001;1.857991144061089E-002;-4.716720723081380E-004;-4.345482739154249E-004;
2.404333333333334E+009;1.713003218173981E-001;1.753358542919159E-002;-5.033320048823953E-004;-2.178594586439431E-004;
2.404500000000000E+009;1.724121570587158E-001;1.667680405080319E-002;-4.700967692770064E-004;-5.648553487844765E-004;
2.404666666666667E+009;1.733458340167999E-001;1.574391499161720E-002;-4.630267212633044E-004;-5.252932896837592E-004;
2.404833333333334E+009;1.741186380386353E-001;1.492234598845244E-002;-3.970668185502291E-004;-5.489173345267773E-004;
2.405000000000000E+009;1.750949472188950E-001;1.411397010087967E-002;-3.664639370981604E-004;-3.540189354680479E-004;
2.405166666666667E+009;1.759057193994522E-001;1.357516832649708E-002;-3.777547390200198E-004;-5.315227899700403E-004;
2.405333333333334E+009;1.766763776540756E-001;1.277235429733992E-002;-3.861296863760799E-004;-5.680184112861753E-004;
2.405500000000000E+009;1.774091571569443E-001;1.237518247216940E-002;-4.999923985451460E-004;-7.041291100904346E-004;
2.405666666666667E+009;1.780270338058472E-001;1.191713009029627E-002;-4.151145694777370E-004;-6.881448207423091E-004;
2.405833333333334E+009;1.785137951374054E-001;1.159318536520004E-002;-3.042900643777102E-004;-8.108224719762802E-004;
2.406000000000000E+009;1.790842413902283E-001;1.106036361306906E-002;-4.388654197100550E-004;-7.761864108033478E-004;
2.406166666666667E+009;1.795241534709930E-001;1.084263250231743E-002;-4.599058884195983E-004;-8.351071155630052E-004;
2.406333333333334E+009;1.800229251384735E-001;1.054425910115242E-002;-4.182331904303283E-004;-8.830291335470974E-004;
2.406500000000000E+009;1.802951097488403E-001;1.013744994997978E-002;-4.844413779210299E-004;-8.221008465625346E-004;
2.406666666666667E+009;1.802596449851990E-001;9.943370707333088E-003;-4.568476579152048E-004;-8.852634928189218E-004;
2.406833333333334E+009;1.806095540523529E-001;9.578492492437363E-003;-5.796166369691491E-004;-7.207417511381209E-004;
2.407000000000000E+009;1.807300448417664E-001;9.201926179230213E-003;-7.528578280471265E-004;-9.336313814856112E-004;
2.407166666666667E+009;1.807714551687241E-001;8.911460638046265E-003;-7.410787511616945E-004;-8.122351136989892E-004;
2.407333333333334E+009;1.806642711162567E-001;8.565605618059635E-003;-9.125175420194864E-004;-8.374681347049773E-004;
2.407500000000000E+009;1.804228425025940E-001;8.035188540816307E-003;-7.650788174942136E-004;-1.016673864796758E-003;
2.407666666666667E+009;1.802745461463928E-001;7.684589363634586E-003;-8.762076613493264E-004;-1.074383035302162E-003;
2.407833333333334E+009;1.799158751964569E-001;7.092417683452368E-003;-8.985367021523416E-004;-9.842477738857269E-004;
2.408000000000000E+009;1.795360445976257E-001;6.298141088336706E-003;-8.825427503325045E-004;-9.949373779818416E-004;
2.408166666666667E+009;1.790946722030640E-001;5.886358674615622E-003;-1.019982155412436E-003;-9.140589390881360E-004;
2.408333333333334E+009;1.787948012351990E-001;5.136723164469004E-003;-1.140074804425240E-003;-1.036171102896333E-003;
2.408500000000000E+009;1.780523955821991E-001;4.265074618160725E-003;-9.473560494370759E-004;-9.760931134223938E-004;
2.408666666666667E+009;1.775539070367813E-001;3.387127537280321E-003;-1.072720740921795E-003;-8.177477866411209E-004;
2.408833333333334E+009;1.767396479845047E-001;2.368906745687127E-003;-1.164247980341315E-003;-9.149781544692814E-004;
2.409000000000000E+009;1.761519014835358E-001;1.448929426260293E-003;-1.211525755934417E-003;-9.414105443283916E-004;
2.409166666666667E+009;1.753319352865219E-001;8.350438292836770E-005;-1.257012831047177E-003;-1.012341701425612E-003;
2.409333333333334E+009;1.749998927116394E-001;-9.664141107350588E-004;-1.327986014075577E-003;-7.261212449520826E-004;
2.409500000000000E+009;1.740226596593857E-001;-2.321231411769986E-003;-1.267719198949635E-003;-7.688947953283787E-004;
2.409666666666667E+009;1.734112948179245E-001;-3.648298792541027E-003;-1.176407793536782E-003;-7.063127704896033E-004;
2.409833333333334E+009;1.725444346666336E-001;-5.045395810157061E-003;-1.321445102803409E-003;-9.070147643797100E-004;
2.410000000000000E+009;1.720301061868668E-001;-6.638687569648027E-003;-1.298112329095602E-003;-7.898015319369733E-004;
2.410166666666667E+009;1.715752482414246E-001;-8.098460733890533E-003;-1.464157598093152E-003;-8.176222909241915E-004;
2.410333333333334E+009;1.708198189735413E-001;-9.835064411163330E-003;-1.467319787479937E-003;-7.343306206166744E-004;
2.410500000000000E+009;1.703049689531326E-001;-1.151889096945524E-002;-1.489863730967045E-003;-7.643084973096848E-004;
2.410666666666667E+009;1.697403341531754E-001;-1.344622485339642E-002;-1.492812880314887E-003;-7.879804470576346E-004;
2.410833333333334E+009;1.693253517150879E-001;-1.507094129920006E-002;-1.482178689911962E-003;-8.070707553997636E-004;
2.411000000000000E+009;1.691202819347382E-001;-1.697228103876114E-002;-1.510015805251896E-003;-7.493047160096467E-004;
2.411166666666667E+009;1.687656193971634E-001;-1.887541264295578E-002;-1.770440605469048E-003;-6.060287705622613E-004;
2.411333333333334E+009;1.683727055788040E-001;-2.067944221198559E-002;-1.672692014835775E-003;-7.471725111827254E-004;
2.411500000000000E+009;1.681254059076309E-001;-2.280935645103455E-002;-1.663628732785583E-003;-6.943647167645395E-004;
2.411666666666667E+009;1.682018637657166E-001;-2.476676553487778E-002;-1.767944893799722E-003;-7.554863113909960E-004;
2.411833333333334E+009;1.681838482618332E-001;-2.658054977655411E-002;-1.810049521736801E-003;-6.503518670797348E-004;
2.412000000000000E+009;1.682622730731964E-001;-2.872626483440399E-002;-1.892223954200745E-003;-5.836214986629784E-004;
2.412166666666667E+009;1.680184751749039E-001;-3.059592284262180E-002;-2.002456691116095E-003;-5.552917718887329E-004;
2.412333333333334E+009;1.687131822109222E-001;-3.240026533603668E-002;-2.052714116871357E-003;-6.648067501373589E-004;
2.412500000000000E+009;1.685725897550583E-001;-3.439621254801750E-002;-2.084638457745314E-003;-4.483303055167198E-004;
2.412666666666667E+009;1.690492630004883E-001;-3.627016767859459E-002;-2.202965086326003E-003;-5.738182808272541E-004;
2.412833333333334E+009;1.692851483821869E-001;-3.820572048425674E-002;-2.109276596456766E-003;-3.271941386628896E-004;
2.413000000000000E+009;1.696515083312988E-001;-3.994100168347359E-002;-2.323719207197428E-003;-5.308367544785142E-004;
2.413166666666667E+009;1.701700985431671E-001;-4.163940250873566E-002;-2.498991321772337E-003;-1.321907620877028E-004;
2.413333333333334E+009;1.705740094184876E-001;-4.330978542566299E-002;-2.494121436029673E-003;-1.957117201527581E-004;
2.413500000000000E+009;1.710349023342133E-001;-4.511050507426262E-002;-2.496080240234733E-003;-2.744722587522119E-005;
2.413666666666667E+009;1.716201007366180E-001;-4.651327803730965E-002;-2.576741389930248E-003;-9.568958921590820E-005;
2.413833333333334E+009;1.720567196607590E-001;-4.787530004978180E-002;-2.717159455642104E-003;7.226831803563982E-005;
2.414000000000000E+009;1.725710928440094E-001;-4.934419691562653E-002;-2.663250081241131E-003;1.099435467040166E-004;
2.414166666666667E+009;1.731877475976944E-001;-5.062156170606613E-002;-2.805484225973487E-003;2.801509399432689E-004;
2.414333333333334E+009;1.737505048513413E-001;-5.189711973071098E-002;-2.851504134014249E-003;2.549667551647872E-004;
2.414500000000000E+009;1.744565218687058E-001;-5.303198844194412E-002;-2.787602134048939E-003;5.605638725683093E-004;
2.414666666666667E+009;1.748627573251724E-001;-5.398604273796082E-002;-2.866528928279877E-003;6.228023557923734E-004;
2.414833333333334E+009;1.753892600536346E-001;-5.509781464934349E-002;-2.806364325806499E-003;7.755756960250437E-004;
2.415000000000000E+009;1.758332401514053E-001;-5.589465424418449E-002;-2.956384094431996E-003;7.502107182517648E-004;
2.415166666666667E+009;1.762771308422089E-001;-5.665555596351624E-002;-2.962499391287565E-003;9.052062523551285E-004;
2.415333333333334E+009;1.767764240503311E-001;-5.744986236095429E-002;-3.064535092562437E-003;1.077546039596200E-003;
2.415500000000000E+009;1.769621074199677E-001;-5.812248960137367E-002;-2.994689391925931E-003;1.422406872734428E-003;
2.415666666666667E+009;1.772808134555817E-001;-5.853981897234917E-002;-3.022440942004323E-003;1.418955624103546E-003;
2.415833333333334E+009;1.775356680154800E-001;-5.900948122143745E-002;-2.938520861789584E-003;1.524937804788351E-003;
2.416000000000000E+009;1.775327622890472E-001;-5.952297896146774E-002;-2.920967759564519E-003;1.807686290703714E-003;
2.416166666666667E+009;1.776429861783981E-001;-5.979473888874054E-002;-2.790017751976848E-003;1.931022736243904E-003;
2.416333333333334E+009;1.776259690523148E-001;-6.008030846714973E-002;-2.857907908037305E-003;1.989605836570263E-003;
2.416500000000000E+009;1.776626855134964E-001;-6.039046123623848E-002;-2.646932844072580E-003;2.213648054748774E-003;
2.416666666666667E+009;1.773282736539841E-001;-6.056216359138489E-002;-2.581116044893861E-003;2.311850199475884E-003;
2.416833333333334E+009;1.771315634250641E-001;-6.099999696016312E-002;-2.597658429294825E-003;2.370158908888698E-003;
2.417000000000000E+009;1.766070276498795E-001;-6.118562445044518E-002;-2.612070878967643E-003;2.682742662727833E-003;
2.417166666666667E+009;1.761876791715622E-001;-6.139949336647987E-002;-2.379240235313773E-003;2.794352825731039E-003;
2.417333333333334E+009;1.756226271390915E-001;-6.150070205330849E-002;-2.222715178504586E-003;2.817006316035986E-003;
2.417500000000000E+009;1.749323904514313E-001;-6.182486563920975E-002;-2.183581935241818E-003;3.027174854651094E-003;
2.417666666666667E+009;1.745799332857132E-001;-6.187147647142410E-002;-2.036723075434566E-003;2.999101532623172E-003;
2.417833333333334E+009;1.736543476581574E-001;-6.222403794527054E-002;-1.962544396519661E-003;3.307470353320241E-003;
2.418000000000000E+009;1.727061420679092E-001;-6.255593895912170E-002;-1.697523402981460E-003;3.437641775235534E-003;
2.418166666666667E+009;1.717955768108368E-001;-6.266031414270401E-002;-1.679528853856027E-003;3.449341980740428E-003;
2.418333333333334E+009;1.710352599620819E-001;-6.303789466619492E-002;-1.476827892474830E-003;3.577977418899536E-003;
2.418500000000000E+009;1.698045581579208E-001;-6.344553828239441E-002;-1.433746074326336E-003;3.664551535621285E-003;
2.418666666666667E+009;1.690678745508194E-001;-6.405761837959290E-002;-1.278804382309318E-003;3.604691009968519E-003;
2.418833333333334E+009;1.676692664623261E-001;-6.450442224740982E-002;-1.014480600133538E-003;3.825194202363491E-003;
2.419000000000000E+009;1.664672642946243E-001;-6.513953953981400E-002;-9.525777422823012E-004;3.809457411989570E-003;
2.419166666666667E+009;1.653928011655808E-001;-6.582647562026978E-002;-7.980043883435428E-004;3.804225940257311E-003;
2.419333333333334E+009;1.640320271253586E-001;-6.636317819356918E-002;-5.416446947492659E-004;3.834460163488984E-003;
2.419500000000000E+009;1.629400700330734E-001;-6.734666228294373E-002;-5.181970773264766E-004;3.872585715726018E-003;
2.419666666666667E+009;1.618103235960007E-001;-6.844662874937058E-002;-2.594869874883443E-004;3.855066606774926E-003;
2.419833333333334E+009;1.606333255767822E-001;-6.909484416246414E-002;-2.883760898839682E-004;3.752503776922822E-003;
2.420000000000000E+009;1.594808548688889E-001;-7.028388231992722E-002;-2.251551086374093E-005;3.919148351997137E-003;
2.420166666666667E+009;1.582674682140350E-001;-7.131022214889526E-002;8.887832518666983E-005;3.961962647736073E-003;
2.420333333333334E+009;1.573082357645035E-001;-7.265160232782364E-002;5.678867091774009E-005;3.845820901915431E-003;
2.420500000000000E+009;1.562711447477341E-001;-7.368482649326325E-002;3.964367206208408E-004;3.969834651798010E-003;
2.420666666666667E+009;1.551829576492310E-001;-7.516726106405258E-002;5.762385553680360E-004;3.930532839149237E-003;
2.420833333333334E+009;1.542550623416901E-001;-7.654085755348206E-002;6.437979754991829E-004;3.786452114582062E-003;
2.421000000000000E+009;1.535082012414932E-001;-7.806199043989182E-002;7.386279175989330E-004;3.764753229916096E-003;
2.421166666666667E+009;1.526988893747330E-001;-7.957480102777481E-002;9.696513880044222E-004;3.731030272319913E-003;
2.421333333333334E+009;1.521418392658234E-001;-8.114790171384811E-002;1.100414781831205E-003;3.656937507912517E-003;
2.421500000000000E+009;1.513639837503433E-001;-8.281115442514420E-002;1.139123807661235E-003;3.615523222833872E-003;
2.421666666666667E+009;1.509783416986466E-001;-8.443833142518997E-002;1.196998520754278E-003;3.467462258413434E-003;
2.421833333333334E+009;1.503558307886124E-001;-8.623401820659638E-002;1.399377477355301E-003;3.321403870359063E-003;
2.422000000000000E+009;1.500018239021301E-001;-8.784468472003937E-002;1.449097180739045E-003;3.387556178495288E-003;
2.422166666666667E+009;1.497740000486374E-001;-8.962887525558472E-002;1.467185677029192E-003;3.489992348477244E-003;
2.422333333333334E+009;1.495614945888519E-001;-9.136433154344559E-002;1.708067837171257E-003;3.466604743152857E-003;
2.422500000000000E+009;1.493307650089264E-001;-9.279214590787888E-002;1.798658864572644E-003;3.312332089990377E-003;
2.422666666666667E+009;1.493115425109863E-001;-9.467684477567673E-002;1.809456851333380E-003;3.269206499680877E-003;
2.422833333333334E+009;1.494250148534775E-001;-9.654574096202850E-002;1.805013511329889E-003;3.168458817526698E-003;
2.423000000000000E+009;1.495549082756043E-001;-9.812534600496292E-002;2.084485488012433E-003;3.302939934656024E-003;
2.423166666666667E+009;1.497027277946472E-001;-9.983924031257629E-002;2.074286341667175E-003;3.091740189120174E-003;
2.423333333333334E+009;1.500245183706284E-001;-1.012101843953133E-001;2.165959915146232E-003;3.153817728161812E-003;
2.423500000000000E+009;1.502478271722794E-001;-1.029410734772682E-001;2.262103138491511E-003;2.935002325102687E-003;
2.423666666666667E+009;1.505233645439148E-001;-1.045572161674500E-001;2.366532804444432E-003;2.979392651468515E-003;
2.423833333333334E+009;1.511140763759613E-001;-1.059479340910912E-001;2.498675137758255E-003;2.907715039327741E-003;
2.424000000000000E+009;1.512778699398041E-001;-1.071901693940163E-001;2.585448091849685E-003;2.771282102912664E-003;
2.424166666666667E+009;1.517608463764191E-001;-1.085001751780510E-001;2.779469359666109E-003;2.808097517117858E-003;
2.424333333333334E+009;1.522837579250336E-001;-1.097006276249886E-001;2.835265360772610E-003;2.748005790635943E-003;
2.424500000000000E+009;1.527605205774307E-001;-1.109235659241676E-001;2.886416390538216E-003;2.708808984607458E-003;
2.424666666666667E+009;1.534488350152969E-001;-1.118528172373772E-001;3.116620471701026E-003;2.620120998471975E-003;
2.424833333333334E+009;1.535264253616333E-001;-1.128673925995827E-001;3.226581495255232E-003;2.250891644507647E-003;
2.425000000000000E+009;1.541573703289032E-001;-1.139640808105469E-001;3.187435213476419E-003;2.398873912170529E-003;
2.425166666666667E+009;1.545146703720093E-001;-1.146196648478508E-001;3.512799041345716E-003;2.294765785336494E-003;
2.425333333333334E+009;1.550008803606033E-001;-1.151490733027458E-001;3.523853607475758E-003;2.185686258599162E-003;
2.425500000000000E+009;1.553931385278702E-001;-1.159538328647614E-001;3.564200364053249E-003;2.063945634290576E-003;
2.425666666666667E+009;1.555664092302322E-001;-1.165668889880180E-001;3.710874589160085E-003;1.847841544076800E-003;
2.425833333333334E+009;1.557422876358032E-001;-1.172274574637413E-001;3.816404379904270E-003;1.769696595147252E-003;
2.426000000000000E+009;1.560011655092239E-001;-1.176302209496498E-001;3.860348602756858E-003;1.643794821575284E-003;
2.426166666666667E+009;1.564315855503082E-001;-1.179877221584320E-001;3.952890168875456E-003;1.497928751632571E-003;
2.426333333333334E+009;1.562405079603195E-001;-1.183435320854187E-001;4.031941294670105E-003;1.318687689490616E-003;
2.426500000000000E+009;1.563927084207535E-001;-1.185557842254639E-001;3.995386883616447E-003;1.237016869708896E-003;
2.426666666666667E+009;1.563805788755417E-001;-1.186948344111443E-001;4.094453994184732E-003;1.095332321710885E-003;
2.426833333333334E+009;1.561336964368820E-001;-1.189232096076012E-001;4.170526284724474E-003;9.610124980099499E-004;
2.427000000000000E+009;1.558703035116196E-001;-1.191323772072792E-001;4.106997977942228E-003;7.924006786197424E-004;
2.427166666666667E+009;1.555077880620956E-001;-1.190820038318634E-001;4.188073799014092E-003;5.840985686518252E-004;
2.427333333333334E+009;1.549555659294128E-001;-1.193135753273964E-001;4.148409236222506E-003;3.946110082324594E-004;
2.427500000000000E+009;1.545757651329041E-001;-1.193931847810745E-001;4.323580767959356E-003;3.347725432831794E-004;
2.427666666666667E+009;1.538440883159638E-001;-1.195034757256508E-001;4.341240506619215E-003;2.910346956923604E-004;
