# Hz S RI R 50
2400000000.0000000000 0.155354201793670709808026231258 0.106658607721328693718199076557 0.004004614893347024917602539062 -0.004519927315413951873779296875 0 0 0 0 
2400166666.6666665077 0.155038207769393893142861884371 0.104291170835494995117187500000 0.003894849680364131927490234375 -0.004518617410212755203247070312 0 0 0 0 
2400333333.3333334923 0.155124410986900301834268134371 0.101959571242332500129457173443 0.003913659602403640747070312500 -0.004698271863162518414969159863 0 0 0 0 
2400500000.0000000000 0.155254483222961398025674384371 0.099187761545181274414062500000 0.003698682179674506187438964844 -0.004567335825413466367239667676 0 0 0 0 
2400666666.6666665077 0.155277922749519403655682481258 0.096683390438556671142578125000 0.003736355807632207870483398438 -0.004633435979485511779785156250 0 0 0 0 
2400833333.3333334923 0.155286490917205810546875000000 0.093978330492973327636718750000 0.003767796093598008155822753906 -0.004821080714464187622070312500 0 0 0 0 
2401000000.0000000000 0.155476123094558688064736884371 0.091053225100040435791015625000 0.003559650387614965005161904443 -0.005086905788630247116088867188 0 0 0 0 
2401166666.6666665077 0.155636996030807495117187500000 0.088383018970489501953125000000 0.003492994699627161026000976562 -0.005115976557135581970214843750 0 0 0 0 
2401333333.3333334923 0.156117185950279208084268134371 0.085492432117462158203125000000 0.003427546471357346014735556494 -0.005348789971321821212768554688 0 0 0 0 
2401500000.0000000000 0.156516268849372891525106865629 0.082732953131198883056640625000 0.003238898236304521994349814307 -0.005312676541507244110107421875 0 0 0 0 
2401666666.6666665077 0.156855285167694091796875000000 0.079846203327178955078125000000 0.003271665656939148902893066406 -0.005627642385661602020263671875 0 0 0 0 
2401833333.3333334923 0.157424390316009493728799384371 0.077263914048671722412109375000 0.002970269881188869909999228369 -0.005708065349608659744262695312 0 0 0 0 
2402000000.0000000000 0.158324673771858187576455634371 0.074438884854316711425781250000 0.002689476124942303137538290869 -0.006052987650036811828613281250 0 0 0 0 
2402166666.6666665077 0.159083709120750399490518134371 0.071889296174049377441406250000 0.002728982130065559907200478662 -0.006032991688698530197143554688 0 0 0 0 
2402333333.3333334923 0.160104885697364807128906250000 0.069171912968158721923828125000 0.002246280200779438018798828125 -0.006232387386262416839599609375 0 0 0 0 
2402500000.0000000000 0.161245629191398592849893134371 0.066791832447052001953125000000 0.002226696349680424170253134619 -0.006401531863957644376272870801 0 0 0 0 
2402666666.6666665077 0.162310063838958712478799384371 0.064461670815944671630859375000 0.001865647500380873896955180591 -0.006753205787390471372122480176 0 0 0 0 
2402833333.3333334923 0.163795471191406305511151231258 0.062029752880334847187082658593 0.001433698344044386906864785303 -0.006628848146647214889526367188 0 0 0 0 
2403000000.0000000000 0.165055885910987909515057481258 0.059724103659391403198242187500 0.001238898956216871955274272388 -0.006791051011532545089721679688 0 0 0 0 
2403166666.6666665077 0.166888132691383389571981865629 0.057627271860837943340261091407 0.000898431055247783660888671875 -0.006868183147162199020385742188 0 0 0 0 
2403333333.3333334923 0.168142408132553100585937500000 0.055360805243253707885742187500 0.000429776875535026192665100098 -0.006864925846457481384277343750 0 0 0 0 
2403500000.0000000000 0.169977903366088894943075615629 0.053284622728824622417409528907 0.000155844405526295304298400879 -0.006732319016009569168090820312 0 0 0 0 
2403666666.6666665077 0.171687036752700805664062500000 0.051420334726572036743164062500 -0.000295956124318763613700866699 -0.006773659493774175643920898438 0 0 0 0 
2403833333.3333334923 0.173413991928100613693075615629 0.049592789262533187866210937500 -0.000514450774062424898147583008 -0.006552081555128098401541425488 0 0 0 0 
2404000000.0000000000 0.174748465418815612792968750000 0.047690600156784057617187500000 -0.000862060871440917253494262695 -0.006469317246228457364554120801 0 0 0 0 
2404166666.6666665077 0.176628351211547907073651231258 0.046427335590124130249023437500 -0.001211321330629288933397602612 -0.006365352775901556015014648438 0 0 0 0 
2404333333.3333334923 0.178088501095771789550781250000 0.044952403753995902324636091407 -0.001449345611035824038861918872 -0.006065044086426497373099042676 0 0 0 0 
2404500000.0000000000 0.179676890373230008224325615629 0.043507874011993408203125000000 -0.001517510390840471007703471606 -0.005889956839382649335379316113 0 0 0 0 
2404666666.6666665077 0.181344404816627502441406250000 0.042410034686326980590820312500 -0.001582514494657516913173056494 -0.005652126856148242950439453125 0 0 0 0 
2404833333.3333334923 0.182911023497581509689169365629 0.041386105120182037353515625000 -0.001709482399746776060817099463 -0.005634840577840805053710937500 0 0 0 0 
2405000000.0000000000 0.184236869215965298751669365629 0.040821716189384460449218750000 -0.001741992076858877918840717847 -0.005376247223466634750366210938 0 0 0 0 
2405166666.6666665077 0.185758531093597412109375000000 0.040096752345561981201171875000 -0.001947045209817587895634316553 -0.005244370084255933761596679688 0 0 0 0 
2405333333.3333334923 0.187108650803566006759481865629 0.039443619549274451518972028907 -0.002016943646594882011413574219 -0.005059733521193265914916992188 0 0 0 0 
2405500000.0000000000 0.188614800572395296951455634371 0.039153117686510092998464216407 -0.002030122093856335119960165869 -0.005043408367782831192016601562 0 0 0 0 
2405666666.6666665077 0.189821824431419400314169365629 0.038654129952192313457448591407 -0.002119448268786073164698935400 -0.004913736600428819656372070312 0 0 0 0 
2405833333.3333334923 0.190863624215126009842080634371 0.038434538990259170532226562500 -0.002175291534513235092163085938 -0.004655507858842611312866210938 0 0 0 0 
2406000000.0000000000 0.191902175545692388336505018742 0.038187783211469650268554687500 -0.002396214986220002174377441406 -0.004634621553122997283935546875 0 0 0 0 
2406166666.6666665077 0.192999958992004394531250000000 0.037937056273221969604492187500 -0.002386823529377580122706747900 -0.004754471126943826675415039062 0 0 0 0 
2406333333.3333334923 0.193831339478492709060830634371 0.037983406335115432739257812500 -0.002329492708668113188502646338 -0.004723395220935344696044921875 0 0 0 0 
2406500000.0000000000 0.194598779082298306564169365629 0.038056772202253341674804687500 -0.002564996713772416114807128906 -0.004565300419926643371582031250 0 0 0 0 
2406666666.6666665077 0.195251658558845492263955634371 0.038034580647945397113840471093 -0.002455109730362892150878906250 -0.004427683539688587188720703125 0 0 0 0 
2406833333.3333334923 0.195713996887207003494424384371 0.037941478192806236957590471093 -0.002637880621477961973903036963 -0.004355960991233587265014648438 0 0 0 0 
2407000000.0000000000 0.195964932441711398025674384371 0.038112830370664596557617187500 -0.002793441759422421889064169775 -0.004256465006619691848754882812 0 0 0 0 
2407166666.6666665077 0.196392223238945007324218750000 0.037898428738117218017578125000 -0.002718069124966859817504882812 -0.004261914175003767013549804688 0 0 0 0 
2407333333.3333334923 0.196312040090560913085937500000 0.037939712405204772949218750000 -0.002840143395587801933288574219 -0.004182597156614065170288085938 0 0 0 0 
2407500000.0000000000 0.196294814348220797439736884371 0.038027465343475341796875000000 -0.002988426946103572845458984375 -0.004227011464536190032958984375 0 0 0 0 
2407666666.6666665077 0.196311309933662386795205634371 0.037865988910198211669921875000 -0.003047103527933359146118164062 -0.004023798741400241851806640625 0 0 0 0 
2407833333.3333334923 0.195891126990318298339843750000 0.037669766694307327270507812500 -0.002920776372775435014012002100 -0.003916354849934577941894531250 0 0 0 0 
2408000000.0000000000 0.195885211229324313064736884371 0.037490308284759521484375000000 -0.003157282713800669150111533057 -0.003994291182607412338256835938 0 0 0 0 
2408166666.6666665077 0.195147722959518404861611884371 0.037205453962087631225585937500 -0.003191434778273106055018759619 -0.003982297144830226898193359375 0 0 0 0 
2408333333.3333334923 0.194739907979965209960937500000 0.036588858813047409057617187500 -0.003363662399351596832275390625 -0.003980915527790784835815429688 0 0 0 0 
2408500000.0000000000 0.194047465920448303222656250000 0.036250893026590347290039062500 -0.003463921369984745979309082031 -0.003859124612063169913050986182 0 0 0 0 
2408666666.6666665077 0.193500071763992309570312500000 0.035623896867036819458007812500 -0.003459416097030044035670615088 -0.003703258698806167082545615088 0 0 0 0 
2408833333.3333334923 0.192826062440872192382812500000 0.034745670855045318603515625000 -0.003792325966060162024257040869 -0.003835784969851375059840536963 0 0 0 0 
2409000000.0000000000 0.191770613193511990646200615629 0.033839620649814612651784528907 -0.003928867634385824203491210938 -0.003696696367114781899693154443 0 0 0 0 
2409166666.6666665077 0.190767392516136197189169365629 0.032856341451406478881835937500 -0.004042851738631725311279296875 -0.003550546942278742790222167969 0 0 0 0 
2409333333.3333334923 0.189903035759925786774005018742 0.031763691455125808715820312500 -0.004089192021638154983520507812 -0.003426005365327001051661826025 0 0 0 0 
2409500000.0000000000 0.188864246010780306717080634371 0.030392421409487720834752266796 -0.004188505001366139325613691113 -0.003340164897963405089137411963 0 0 0 0 
2409666666.6666665077 0.187920942902565002441406250000 0.028935005888342860830286795704 -0.004452572669833899411673261426 -0.003126097377389668984654091943 0 0 0 0 
2409833333.3333334923 0.186897754669189508636151231258 0.027581384405493739736536795704 -0.004445061087608337402343750000 -0.002986875595524907112121582031 0 0 0 0 
2410000000.0000000000 0.185745537281036404708700615629 0.025862291455268859863281250000 -0.004475675057619810104370117188 -0.002716661663725972175598144531 0 0 0 0 
2410166666.6666665077 0.184770688414573697189169365629 0.023873202502727508544921875000 -0.004639179911464452743530273438 -0.002799483016133307976963662256 0 0 0 0 
2410333333.3333334923 0.183869317173957796951455634371 0.022260315716266628610631173046 -0.004559084307402372360229492188 -0.002372729126363993124720908057 0 0 0 0 
2410500000.0000000000 0.182958021759986905196981865629 0.020207030698657039297083670704 -0.004560299217700958251953125000 -0.002405927516520022912266396631 0 0 0 0 
2410666666.6666665077 0.182112395763397189041299384371 0.018035948276519778860071951954 -0.004517251625657081604003906250 -0.002241056412458419799804687500 0 0 0 0 
2410833333.3333334923 0.181617334485053988357705634371 0.015816379338502880441685860546 -0.004586052149534226331228925488 -0.002024193061515688896179199219 0 0 0 0 
2411000000.0000000000 0.180844932794570895095986884371 0.013609988614916799717913242773 -0.004646657500416040420532226562 -0.001933090155944227955461811597 0 0 0 0 
2411166666.6666665077 0.180070027709007290939169365629 0.011455448344349859410296055273 -0.004566171672195196151733398438 -0.001949916593730449893354106372 0 0 0 0 
2411333333.3333334923 0.179625645279884310623330634371 0.009114997461438179016113281250 -0.004464356694370508193969726562 -0.001800601487047970078111958081 0 0 0 0 
2411500000.0000000000 0.179085135459899902343750000000 0.006643968168646097183227539062 -0.004584310576319695386404706738 -0.001762728672474622943280864185 0 0 0 0 
2411666666.6666665077 0.179063007235527010818643134371 0.004189915955066680908203125000 -0.004575045779347419738769531250 -0.001689597731456160979029990088 0 0 0 0 
2411833333.3333334923 0.178737819194793701171875000000 0.001971141668036580085754394531 -0.004642587620764970779418945312 -0.001604718272574245929718017578 0 0 0 0 
2412000000.0000000000 0.178878322243690490722656250000 -0.000688517058733850717544555664 -0.004618218168616294860839843750 -0.001554224989376961968065571362 0 0 0 0 
2412166666.6666665077 0.178924798965454101562500000000 -0.002895452547818421883824013818 -0.004736708942800760269165039062 -0.001366627169772983031031943213 0 0 0 0 
2412333333.3333334923 0.179057791829109191894531250000 -0.005403215531259775161743164062 -0.004818714689463376998901367188 -0.001525283791124820926068950122 0 0 0 0 
2412500000.0000000000 0.179694488644599886795205634371 -0.007674393709748983383178710938 -0.004952373448759317398071289062 -0.001357275992631912014604878003 0 0 0 0 
2412666666.6666665077 0.180072546005248995681924384371 -0.010211904533207420003870780079 -0.005010925233364105224609375000 -0.001275242539122700908063579028 0 0 0 0 
2412833333.3333334923 0.180652052164077786544638115629 -0.012620175257325170689592930273 -0.005209201015532016754150390625 -0.001130403950810432000401162256 0 0 0 0 
2413000000.0000000000 0.181596204638481112381143134371 -0.014990149065852170426338396680 -0.005206834990531206130981445312 -0.000894052733201533555984497070 0 0 0 0 
2413166666.6666665077 0.182202234864234896560830634371 -0.017031796276569369924525076954 -0.005238510202616453170776367188 -0.000980118755251169204711914062 0 0 0 0 
2413333333.3333334923 0.183105424046516390701455634371 -0.019369814544916149484654610546 -0.005491879303008317947387695312 -0.000754791544750332832336425781 0 0 0 0 
2413500000.0000000000 0.184056490659713800628338731258 -0.021560451015830039978027343750 -0.005810623988509178161621093750 -0.000502384442370384931564331055 0 0 0 0 
2413666666.6666665077 0.185318142175674410720986884371 -0.023738212883472439157506173046 -0.005781617946922779083251953125 -0.000262365065282210707664489746 0 0 0 0 
2413833333.3333334923 0.186208128929138211349325615629 -0.025752771645784381521204764454 -0.005868426058441401395315839551 -0.000097841024398803710937500000 0 0 0 0 
2414000000.0000000000 0.187307611107826205154580634371 -0.027623612433671951293945312500 -0.005865729879587888717651367188 0.000286704977042972987324315204 0 0 0 0 
2414166666.6666665077 0.188368558883666992187500000000 -0.029356962069869041442871093750 -0.005935009568929672241210937500 0.000403103593271225690841674805 0 0 0 0 
2414333333.3333334923 0.189583837985992403885049384371 -0.031265396624803543090820312500 -0.006032371427863836288452148438 0.000773919979110360253989064905 0 0 0 0 
2414500000.0000000000 0.190699696540832491775674384371 -0.032734584063291549682617187500 -0.005972272716462612152099609375 0.001177618280053138949750590747 0 0 0 0 
2414666666.6666665077 0.191917330026626586914062500000 -0.034171894192695617675781250000 -0.005991435144096612930297851562 0.001236267620697617964503622900 0 0 0 0 
2414833333.3333334923 0.193015784025192288497763115629 -0.035417228937149047851562500000 -0.005876283627003431320190429688 0.001523947808891535022138286060 0 0 0 0 
2415000000.0000000000 0.193996518850326510330361884371 -0.036714330315589911724050153907 -0.005763579625636339187622070312 0.001821298734284936948063515771 0 0 0 0 
2415166666.6666665077 0.195209503173828097244424384371 -0.037862915545701980590820312500 -0.005632479675114154815673828125 0.002043633488938211961033486475 0 0 0 0 
2415333333.3333334923 0.196339324116706903655682481258 -0.038721937686204910278320312500 -0.005619682837277650833129882812 0.002255485160276294188258505713 0 0 0 0 
2415500000.0000000000 0.197294518351554898361044365629 -0.039468996226787567138671875000 -0.005418609362095594406127929688 0.002476278459653257889988564600 0 0 0 0 
2415666666.6666665077 0.198406219482421902755575615629 -0.040329582989215850830078125000 -0.005346046760678291320800781250 0.002741766627877951102015829932 0 0 0 0 
2415833333.3333334923 0.199154987931251498123330634371 -0.040728401392698287963867187500 -0.005182163324207068356985761426 0.002833121921867132186889648438 0 0 0 0 
2416000000.0000000000 0.200007483363151605804119981258 -0.041293382644653320312500000000 -0.005049479659646750363821698926 0.003128236625343561172485351562 0 0 0 0 
2416166666.6666665077 0.200632601976394708831463731258 -0.041885569691658020019531250000 -0.004903498105704784393310546875 0.003271229099482297897338867188 0 0 0 0 
2416333333.3333334923 0.201301455497741699218750000000 -0.042235389351844787597656250000 -0.004701563622802495956420898438 0.003602820914238690896275185693 0 0 0 0 
2416500000.0000000000 0.201786339282989501953125000000 -0.042377498000860207294504533593 -0.004525793716311454772949218750 0.003520029131323099136352539062 0 0 0 0 
2416666666.6666665077 0.202066287398338290115518134371 -0.042904339730739586566965471093 -0.004268725868314504623413085938 0.003743532812222837968113564600 0 0 0 0 
2416833333.3333334923 0.202036246657371493240518134371 -0.042862243950366966938059221093 -0.004068498499691486358642578125 0.003742036875337361855747841943 0 0 0 0 
2417000000.0000000000 0.202308699488639803787393134371 -0.043123982846736907958984375000 -0.003831185167655349211451865088 0.003969265613704919815063476562 0 0 0 0 
2417166666.6666665077 0.201856255531311007400674384371 -0.042998053133487701416015625000 -0.003670965088531374931335449219 0.004133389797061681747436523438 0 0 0 0 
2417333333.3333334923 0.201675176620483398437500000000 -0.042764171957969672466237653907 -0.003504246240481733842137002100 0.004088702145963907241821289062 0 0 0 0 
2417500000.0000000000 0.201330468058586092849893134371 -0.042872942984104163433034528907 -0.003234534524381161169764853369 0.004068606533110141754150390625 0 0 0 0 
2417666666.6666665077 0.200889065861701993087606865629 -0.042731121182441711425781250000 -0.003079662332311273054835654150 0.004055427853018045425415039062 0 0 0 0 
2417833333.3333334923 0.200333133339881896972656250000 -0.042578767985105521465261091407 -0.002832634840160607857945107568 0.004315426107496023178100585938 0 0 0 0 
2418000000.0000000000 0.199760347604751586914062500000 -0.042334191501140587543527971093 -0.002764243399724363847019814600 0.004226010758429765701293945312 0 0 0 0 
2418166666.6666665077 0.198846742510795593261718750000 -0.042229492217302322387695312500 -0.002418356249108910994288779150 0.003994900267571210861206054688 0 0 0 0 
2418333333.3333334923 0.197887867689132690429687500000 -0.042168870568275451660156250000 -0.002330488758161664009094238281 0.004181087482720614346975995801 0 0 0 0 
2418500000.0000000000 0.196897193789482088943643134371 -0.042173873633146292949636091407 -0.002026458969339727921726845850 0.004163293633610010147094726562 0 0 0 0 
2418666666.6666665077 0.196023479104042108733807481258 -0.042267266660928733135182966407 -0.001974629703909159140345908057 0.004163417033851146697998046875 0 0 0 0 
2418833333.3333334923 0.194568902254104586502236884371 -0.042222868651151657104492187500 -0.001865469850599765994428325122 0.004021419677883386611938476562 0 0 0 0 
2419000000.0000000000 0.193406552076339693924111884371 -0.042592208832502372051198591407 -0.001779128564521669907810830225 0.004002020228654146194458007812 0 0 0 0 
2419166666.6666665077 0.192194625735282897949218750000 -0.042879100888967507099192033593 -0.001871881308034061951878213037 0.003891973989084362983703613281 0 0 0 0 
2419333333.3333334923 0.190806061029434204101562500000 -0.043360248208045959472656250000 -0.001723473309539258913752890479 0.003953626845031976699829101562 0 0 0 0 
2419500000.0000000000 0.189199104905128506759481865629 -0.043878991156816482543945312500 -0.001492517883889376900316547925 0.003872982924804091887233115088 0 0 0 0 
2419666666.6666665077 0.187803998589515713790731865629 -0.044713888317346572875976562500 -0.001487670931965112902997661060 0.003852355526760220961329794775 0 0 0 0 
2419833333.3333334923 0.186169132590293912032919365629 -0.045287419110536582256276716407 -0.001436264486983418898341513525 0.003728542476892470879795693506 0 0 0 0 
