# Hz S RI R 50
2400000000.0000000000 0.173233911395072909256143134371 0.048609629273414611816406250000 0.001953659811988472938537597656 0.001276974799111485914943076025 0 0 0 0 
2400166666.6666665077 0.173735409975051907638388115629 0.048098493367433547973632812500 0.001988447504118084907531738281 0.001222825259901582977892231519 0 0 0 0 
2400333333.3333334923 0.174095198512077303787393134371 0.047278333455324172973632812500 0.001819309429265558936475444263 0.001066533965058624961255717700 0 0 0 0 
2400500000.0000000000 0.174551814794540405273437500000 0.046503584831953048706054687500 0.001648316625505686023114848560 0.000884444045368582010269165039 0 0 0 0 
2400666666.6666665077 0.174854785203933688064736884371 0.045868158340454101562500000000 0.001542465295642613930943154443 0.000964407750871032476425170898 0 0 0 0 
2400833333.3333334923 0.175212576985359191894531250000 0.045560322701930999755859375000 0.001368620316497981981990195166 0.000896161480341106653213500977 0 0 0 0 
2401000000.0000000000 0.175326839089393587967080634371 0.044710654765367507934570312500 0.001394656486809253909467387622 0.000935406074859201908111572266 0 0 0 0 
2401166666.6666665077 0.175586462020873995681924384371 0.044108770787715911865234375000 0.001214578514918684959411621094 0.000967274361755698919296264648 0 0 0 0 
2401333333.3333334923 0.175540179014205904861611884371 0.043467897921800613403320312500 0.001167493406683206991908408057 0.000824775255750864744186401367 0 0 0 0 
2401500000.0000000000 0.175884172320365905761718750000 0.042795311659574508666992187500 0.000918215839192271232604980469 0.000865202280692756175994873047 0 0 0 0 
2401666666.6666665077 0.175853759050369290450888115629 0.042301222681999206542968750000 0.000843956193421036005020141602 0.001057575806044041893602680737 0 0 0 0 
2401833333.3333334923 0.175709351897239712814169365629 0.041443943977355957031250000000 0.000796057865954935550689697266 0.001099664019420742988586425781 0 0 0 0 
2402000000.0000000000 0.175679102540016202071981865629 0.040747143328189849853515625000 0.000832884048577398061752319336 0.001117894542403518936754536206 0 0 0 0 
2402166666.6666665077 0.175549432635307312011718750000 0.039670765399932861328125000000 0.000608026224654167890548706055 0.001091154059395194053649902344 0 0 0 0 
2402333333.3333334923 0.175148740410804804046307481258 0.038789030164480209350585937500 0.000772117753513157367706298828 0.001173980301246047019958496094 0 0 0 0 
2402500000.0000000000 0.175383001565933199783486884371 0.037956185638904571533203125000 0.000451462372438982074886876239 0.001357086934149265072466206128 0 0 0 0 
2402666666.6666665077 0.175096169114112909515057481258 0.036925163120031356811523437500 0.000577628612518310546875000000 0.001589405117556452968000102466 0 0 0 0 
2402833333.3333334923 0.174694418907165499588174384371 0.035653356462717063213307966407 0.000470659841084852814674377441 0.001549884676933289007899618994 0 0 0 0 
2403000000.0000000000 0.174528747797012301345986884371 0.034495178610086441040039062500 0.000524955103173851966857910156 0.001623470685444772026659321362 0 0 0 0 
2403166666.6666665077 0.174296632409095791915731865629 0.033063765615224838256835937500 0.000511678110342472791671752930 0.001931406091898679950116801685 0 0 0 0 
2403333333.3333334923 0.173920661211013793945312500000 0.031738828867673866962473283593 0.000686942483298480510711669922 0.002034974284470080895664834131 0 0 0 0 
2403500000.0000000000 0.173557415604591397384481865629 0.030317427590489390981653983204 0.000508757308125495910644531250 0.001962832640856504006626748193 0 0 0 0 
2403666666.6666665077 0.173261761665344210525674384371 0.028619393706321719778040701954 0.000737174297682940959930419922 0.002297342056408524946925497900 0 0 0 0 
2403833333.3333334923 0.172945946455001803299111884371 0.026927389204502109182337576954 0.000682436861097812652587890625 0.002416781149804592132568359375 0 0 0 0 
2404000000.0000000000 0.172430679202079800704794365629 0.025140974670648578298548514454 0.000977110583335161209106445312 0.002538764150813221931457519531 0 0 0 0 
2404166666.6666665077 0.172166854143142700195312500000 0.023463288322091099130650704296 0.000923619780223816633224487305 0.002570018637925385995152138818 0 0 0 0 
2404333333.3333334923 0.171783089637756403167401231258 0.021496379747986790048619454296 0.000964167702477425336837768555 0.002715119626373053030726767432 0 0 0 0 
2404500000.0000000000 0.171457603573799105545205634371 0.019718999043107029306431954296 0.001117094303481281020520854419 0.002717721275985240936279296875 0 0 0 0 
2404666666.6666665077 0.171344920992851312835369981258 0.017775142565369609487513358204 0.001527108368463814041735004956 0.002784562297165393829345703125 0 0 0 0 
2404833333.3333334923 0.170881792902946499923544365629 0.015835827216506000864049141796 0.001599478535354136986973427881 0.003046940080821514129638671875 0 0 0 0 
2405000000.0000000000 0.170693978667259188553018134371 0.013762402348220350092877772852 0.001800916274078189893009804834 0.003129584947600961165187216650 0 0 0 0 
2405166666.6666665077 0.170590072870254488845986884371 0.011722594499588009225865548046 0.002063101856037973923924111475 0.003087766468524932861328125000 0 0 0 0 
2405333333.3333334923 0.170581579208373995681924384371 0.009713060222566127777099609375 0.002174796769395471052882529150 0.003172413213178515000584267725 0 0 0 0 
2405500000.0000000000 0.170556992292404202560263115629 0.007814507000148296356201171875 0.002350574824959040121791220557 0.003056853776797651810887002100 0 0 0 0 
2405666666.6666665077 0.170717731118202209472656250000 0.005592074245214462280273437500 0.002582763554528356032130576025 0.003338900860399007797241210938 0 0 0 0 
2405833333.3333334923 0.170698329806327792068643134371 0.003643742064014077186584472656 0.002783018397167325019836425781 0.003186677116900682015659951318 0 0 0 0 
2406000000.0000000000 0.170933887362480191329794365629 0.001395236351527274088618613135 0.003084485186263918876647949219 0.003219660604372621016261435400 0 0 0 0 
2406166666.6666665077 0.171087980270385686676348768742 -0.000445174635387957096099853516 0.003423619084060192108154296875 0.003058923641219735145568847656 0 0 0 0 
2406333333.3333334923 0.171605110168457003494424384371 -0.002495753113180398941040039062 0.003599140560254455046412802588 0.002962410682812333106994628906 0 0 0 0 
2406500000.0000000000 0.171972900629043606857138115629 -0.004570336081087589263916015625 0.003913006279617547988891601562 0.002825293922796845002415322412 0 0 0 0 
2406666666.6666665077 0.172316953539848299881143134371 -0.006455060094594954576974199512 0.004214709158986806869506835938 0.002668049186468123955967568506 0 0 0 0 
2406833333.3333334923 0.172894462943077087402343750000 -0.008549873717129230499267578125 0.004299505613744258880615234375 0.002626241417601705031154013525 0 0 0 0 
2407000000.0000000000 0.173514723777770996093750000000 -0.010508846491575239354143711523 0.004623333923518657684326171875 0.002450345549732447104213095557 0 0 0 0 
2407166666.6666665077 0.174134969711303710937500000000 -0.012258232571184640366523943555 0.004974116571247577667236328125 0.002197905909270048141479492188 0 0 0 0 
2407333333.3333334923 0.174738720059394808670205634371 -0.014222625643014909571637538477 0.005172886420041322708129882812 0.001939227571710943958879780347 0 0 0 0 
2407500000.0000000000 0.175396949052810696700888115629 -0.016013568267226219177246093750 0.005342974327504634857177734375 0.001710958429612218899967812646 0 0 0 0 
2407666666.6666665077 0.176097124814987210372763115629 -0.017737431451678279531458670704 0.005568952299654483795166015625 0.001562507823109626986859965747 0 0 0 0 
2407833333.3333334923 0.176592066884040804763955634371 -0.019515590742230418813685233204 0.005750908516347408294677734375 0.001114917686209083037135458838 0 0 0 0 
2408000000.0000000000 0.177370831370353698730468750000 -0.021212134510278698312779610546 0.005856372881680727005004882812 0.000780760543420910835266113281 0 0 0 0 
2408166666.6666665077 0.178052410483360290527343750000 -0.022387279197573658334752266796 0.005812539719045162200927734375 0.000429844425525516325801295148 0 0 0 0 
2408333333.3333334923 0.178927212953567504882812500000 -0.024000637233257290231724923046 0.005933494772762060165405273438 0.000274041929515078718036097394 0 0 0 0 
2408500000.0000000000 0.179423168301582308670205634371 -0.025391187518835071218470389454 0.005890518426895141601562500000 -0.000406493636546656489372253418 0 0 0 0 
2408666666.6666665077 0.179912224411964388748330634371 -0.026655489578843120229700858204 0.005902467295527458190917968750 -0.000681127945426851511001586914 0 0 0 0 
2408833333.3333334923 0.180428922176361111739950615629 -0.027932651340961459768275076954 0.005890910048037767410278320312 -0.000949354143813252449035644531 0 0 0 0 
2409000000.0000000000 0.180959060788154602050781250000 -0.028883654624223709106445312500 0.005757678300142288208007812500 -0.001306568039581180052516318213 0 0 0 0 
2409166666.6666665077 0.181403920054435702224893134371 -0.029935132712125781667689139454 0.005698988679796457290649414062 -0.001574866590090095996856689453 0 0 0 0 
2409333333.3333334923 0.181881889700889587402343750000 -0.030820747837424281728724295704 0.005548954941332340240478515625 -0.001949846511706710078595805591 0 0 0 0 
2409500000.0000000000 0.182032719254493713378906250000 -0.031765393912792212749440778907 0.005363468546420335769653320312 -0.002255776431411505179164267432 0 0 0 0 
2409666666.6666665077 0.182385966181755093673544365629 -0.032189600169658660888671875000 0.005266434513032436370849609375 -0.002501752460375428199768066406 0 0 0 0 
2409833333.3333334923 0.182694435119628906250000000000 -0.032705083489418029785156250000 0.005011012777686119079589843750 -0.002770944731310009956359863281 0 0 0 0 
2410000000.0000000000 0.183012604713439913650674384371 -0.033203884959220893169362653907 0.004817611537873744964599609375 -0.002879657549783587889430380713 0 0 0 0 
2410166666.6666665077 0.183104485273361206054687500000 -0.033556967973709113384206403907 0.004798494279384613037109375000 -0.003142703790217638015747070312 0 0 0 0 
2410333333.3333334923 0.183166563510894803146200615629 -0.034069091081619262695312500000 0.004476647358387708663940429688 -0.003337081521749496893641806494 0 0 0 0 
2410500000.0000000000 0.183169782161712701995526231258 -0.034318089485168457031250000000 0.004177900031208992004394531250 -0.003458559280261396928074502100 0 0 0 0 
2410666666.6666665077 0.183022558689117403885049384371 -0.034781154245138168334960937500 0.003999154549092054367065429688 -0.003537089796736835999729775537 0 0 0 0 
2410833333.3333334923 0.183288976550102206131143134371 -0.034941632300615310668945312500 0.003728713607415556907653808594 -0.003768951166421175003051757812 0 0 0 0 
2411000000.0000000000 0.182811215519905090332031250000 -0.035225879400968551635742187500 0.003329505678266286849975585938 -0.003832965157926083044764853369 0 0 0 0 
2411166666.6666665077 0.182464063167571993728799384371 -0.035591170191764831542968750000 0.003260660450905561013462685693 -0.004006970208138228330130292676 0 0 0 0 
2411333333.3333334923 0.182299897074699401855468750000 -0.035773783922195441509206403907 0.003102607559412717819213867188 -0.003949845675379037857055664062 0 0 0 0 
2411500000.0000000000 0.181675568222999600509481865629 -0.036245081573724746704101562500 0.002764991717413067817687988281 -0.003916973248124122619628906250 0 0 0 0 
2411666666.6666665077 0.181497111916542108733807481258 -0.036644741892814643169362653907 0.002655026968568563894984579932 -0.004104381892830132570748613574 0 0 0 0 
2411833333.3333334923 0.180486753582954406738281250000 -0.036867868155241012573242187500 0.002351592993363738059997558594 -0.004064903594553470611572265625 0 0 0 0 
2412000000.0000000000 0.179831042885780306717080634371 -0.037315730005502700805664062500 0.002055548829957842826843261719 -0.004025277681648731231689453125 0 0 0 0 
2412166666.6666665077 0.178957551717758206466513115629 -0.037809550762176506732981096093 0.002063590567559003829956054688 -0.003889369545504450798034667969 0 0 0 0 
2412333333.3333334923 0.178343504667282104492187500000 -0.038284912705421447753906250000 0.001713295234367250962498330225 -0.003948543220758438110351562500 0 0 0 0 
2412500000.0000000000 0.177109733223915100097656250000 -0.038763742893934249877929687500 0.001529006287455558993695903247 -0.003773874603211880163905478369 0 0 0 0 
2412666666.6666665077 0.175979256629943903167401231258 -0.039582286030054092407226562500 0.001316628651693462891819619287 -0.003683574032038449807407998193 0 0 0 0 
2412833333.3333334923 0.175063073635101290603799384371 -0.040017146617174148559570312500 0.001343964831903577067731547778 -0.003433306235820055007934570312 0 0 0 0 
2413000000.0000000000 0.173866063356399508377236884371 -0.040795557200908660888671875000 0.001315497211180626912357949365 -0.003475569188594818115234375000 0 0 0 0 
2413166666.6666665077 0.172577306628227206131143134371 -0.041569925844669342041015625000 0.001241364865563810088514018481 -0.003440102562308311896083212744 0 0 0 0 
2413333333.3333334923 0.171225488185882596114950615629 -0.042509503662586212158203125000 0.001214323798194528059718466650 -0.003335818648338317871093750000 0 0 0 0 
2413500000.0000000000 0.170028626918792696853799384371 -0.043520789593458182598073591407 0.001334884786047040982487343896 -0.003266734071075915856602334131 0 0 0 0 
2413666666.6666665077 0.168849334120750399490518134371 -0.044555224478244781494140625000 0.001233639544807374911067343604 -0.003127363277599215941188193213 0 0 0 0 
2413833333.3333334923 0.167470395565032986739950615629 -0.045556277036666870117187500000 0.001241551595740020058275532300 -0.003091841470450162887573242188 0 0 0 0 
2414000000.0000000000 0.166063770651817294021768134371 -0.046666186302900307392160783593 0.001275409944355488040326762622 -0.003167211776599287986755371094 0 0 0 0 
2414166666.6666665077 0.165003404021263094803018134371 -0.047950524836778640747070312500 0.001301998621784151034114218604 -0.003193123964592814011814736475 0 0 0 0 
2414333333.3333334923 0.163911968469619806487713731258 -0.049248669296503067016601562500 0.001459898427128792025922465747 -0.003237754572182894186732626807 0 0 0 0 
2414500000.0000000000 0.162753984332084711272869981258 -0.050670005381107330322265625000 0.001585999969393014907836914062 -0.003078820183873177008387900244 0 0 0 0 
2414666666.6666665077 0.161632388830184908767861884371 -0.052204728126525878906250000000 0.001374743762426078102709126050 -0.003187570953741670088527060400 0 0 0 0 
2414833333.3333334923 0.160574972629547091385049384371 -0.053719621151685721660573591407 0.001373390550725162029266357422 -0.003133838297799230055568076025 0 0 0 0 
2415000000.0000000000 0.159365534782409695724325615629 -0.055370148271322250366210937500 0.001440542284399271011352539062 -0.003309550927951931953430175781 0 0 0 0 
2415166666.6666665077 0.158596128225326510330361884371 -0.057042852044105529785156250000 0.001292937435209750912309956128 -0.003447581548243761062622070312 0 0 0 0 
2415333333.3333334923 0.157760873436927795410156250000 -0.058903858065605156635324846093 0.001343005103990436033961630713 -0.003573222551494836807250976562 0 0 0 0 
2415500000.0000000000 0.156843438744545010665731865629 -0.060670152306556701660156250000 0.001344268792308866977691650391 -0.003689936827868223190307617188 0 0 0 0 
2415666666.6666665077 0.156117066740989712814169365629 -0.062455248087644577026367187500 0.001437909086234868006465292822 -0.003769494127482175827026367188 0 0 0 0 
2415833333.3333334923 0.155474454164505004882812500000 -0.064416304230690002441406250000 0.001294202054850756905199360425 -0.003875169437378644943237304688 0 0 0 0 
2416000000.0000000000 0.154783636331558199783486884371 -0.066353358328342437744140625000 0.001042094314470886967302631909 -0.004139668773859739303588867188 0 0 0 0 
2416166666.6666665077 0.154385268688201904296875000000 -0.068254701793193817138671875000 0.000978957046754658222198486328 -0.004129078239202499389648437500 0 0 0 0 
2416333333.3333334923 0.153784811496734591385049384371 -0.070357792079448699951171875000 0.000937503587920218706130981445 -0.004217442590743303298950195312 0 0 0 0 
2416500000.0000000000 0.153297990560531588455361884371 -0.072316154837608337402343750000 0.000883487169630825519561767578 -0.004199780058115720748901367188 0 0 0 0 
2416666666.6666665077 0.152976274490356500823651231258 -0.074253611266613006591796875000 0.000659707584418356418609619141 -0.004280915483832359313964843750 0 0 0 0 
2416833333.3333334923 0.152887463569641113281250000000 -0.076341122388839721679687500000 0.000563859008252620697021484375 -0.004344914574176073074340820312 0 0 0 0 
2417000000.0000000000 0.152239397168159512618856865629 -0.078209929168224334716796875000 0.000380342447897419279247838153 -0.004331429954618216428274823926 0 0 0 0 
2417166666.6666665077 0.152261584997177096267861884371 -0.079861745238304138183593750000 0.000100694254797417697593411856 -0.004520709160715341567993164062 0 0 0 0 
2417333333.3333334923 0.152144625782966613769531250000 -0.081731148064136505126953125000 0.000118807365652173798210682054 -0.004339292645454406738281250000 0 0 0 0 
2417500000.0000000000 0.151971369981765802581463731258 -0.083677366375923156738281250000 -0.000027967911591986190864836045 -0.004514644388109445571899414062 0 0 0 0 
2417666666.6666665077 0.152050137519836398025674384371 -0.085062883794307708740234375000 -0.000174827582668513086721143179 -0.004515395499765872955322265625 0 0 0 0 
2417833333.3333334923 0.152085289359092712402343750000 -0.086621798574924468994140625000 -0.000341563834808766787678319110 -0.004469530191272497177124023438 0 0 0 0 
2418000000.0000000000 0.152023628354072598556356865629 -0.088298536837100982666015625000 -0.000371200090739875977665501727 -0.004547641612589359283447265625 0 0 0 0 
2418166666.6666665077 0.152084454894065912444744981258 -0.089516378939151763916015625000 -0.000673349248245358467102050781 -0.004628528375178576383108808301 0 0 0 0 
2418333333.3333334923 0.152477115392684908767861884371 -0.090843185782432556152343750000 -0.000846878683660179376602172852 -0.004553293809294700622558593750 0 0 0 0 
2418500000.0000000000 0.152608916163444491287393134371 -0.092124164104461669921875000000 -0.000838925829157233238220214844 -0.004558487795293331146240234375 0 0 0 0 
2418666666.6666665077 0.152907028794288607498330634371 -0.093127988278865814208984375000 -0.000953596085309982299804687500 -0.004664684645831584930419921875 0 0 0 0 
2418833333.3333334923 0.152860090136527987381143134371 -0.094181761145591735839843750000 -0.001194143551401793956756591797 -0.004513179417699575424194335938 0 0 0 0 
2419000000.0000000000 0.153055593371391296386718750000 -0.094995319843292236328125000000 -0.001288005034439265944837260669 -0.004635169170796871185302734375 0 0 0 0 
2419166666.6666665077 0.153338745236396789550781250000 -0.095709905028343200683593750000 -0.001528601627796887917759560693 -0.004342289641499519348144531250 0 0 0 0 
2419333333.3333334923 0.153302252292633112151776231258 -0.096212960779666900634765625000 -0.001592492219060658974888466943 -0.004533715546131134033203125000 0 0 0 0 
2419500000.0000000000 0.153552427887916592696981865629 -0.096868045628070831298828125000 -0.001745842397212981960893940503 -0.004507876466959714889526367188 0 0 0 0 
2419666666.6666665077 0.153941482305526705642861884371 -0.097294725477695465087890625000 -0.001926804659888148090959858472 -0.004465128295123577117919921875 0 0 0 0 
2419833333.3333334923 0.153943687677383395095986884371 -0.097604371607303619384765625000 -0.002090232446789741949794150244 -0.004483963362872601422781659863 0 0 0 0 
