# Version 1.00
#
freq[Hz];re:Trc1_S11;im:Trc1_S11;re:Trc2_S21;im:Trc2_S21;
2.400000000000000E+009;1.727095693349838E-001;4.798173159360886E-002;3.155976999551058E-003;3.753290046006441E-003;
2.400166666666667E+009;1.734730452299118E-001;4.748641327023506E-002;3.220273647457361E-003;3.675077343359590E-003;
2.400333333333334E+009;1.741518974304199E-001;4.675645008683205E-002;3.533337730914354E-003;3.471789648756385E-003;
2.400500000000000E+009;1.746371239423752E-001;4.591728374361992E-002;3.746105823665857E-003;3.300056559965015E-003;
2.400666666666667E+009;1.750134974718094E-001;4.544153437018395E-002;3.778105368837714E-003;3.197642508894205E-003;
2.400833333333334E+009;1.755989640951157E-001;4.479648172855377E-002;4.035004880279303E-003;2.930372720584273E-003;
2.401000000000000E+009;1.757323741912842E-001;4.417481645941734E-002;4.224270582199097E-003;2.742963843047619E-003;
2.401166666666667E+009;1.760510951280594E-001;4.361675307154656E-002;4.210704937577248E-003;2.782958559691906E-003;
2.401333333333334E+009;1.761054992675781E-001;4.323748499155045E-002;4.239697009325028E-003;2.442143158987165E-003;
2.401500000000000E+009;1.764525622129440E-001;4.262735694646835E-002;4.590954631567001E-003;2.057914622128010E-003;
2.401666666666667E+009;1.765714734792709E-001;4.204589128494263E-002;4.463373217731714E-003;1.868693972937763E-003;
2.401833333333334E+009;1.766356825828552E-001;4.139494523406029E-002;4.521067719906569E-003;1.594924950040877E-003;
2.402000000000000E+009;1.764016002416611E-001;4.057260975241661E-002;4.606067668646574E-003;1.242069643922150E-003;
2.402166666666667E+009;1.763547956943512E-001;3.992313146591187E-002;4.554583225399256E-003;1.128007075749338E-003;
2.402333333333334E+009;1.761865317821503E-001;3.907035663723946E-002;4.565077368170023E-003;9.488321375101805E-004;
2.402500000000000E+009;1.763381510972977E-001;3.818976879119873E-002;4.570125136524439E-003;7.321588345803320E-004;
2.402666666666667E+009;1.761005520820618E-001;3.717479109764099E-002;4.458575509488583E-003;2.741540956776589E-004;
2.402833333333334E+009;1.757673770189285E-001;3.632566705346108E-002;4.345540422946215E-003;2.017019287450239E-004;
2.403000000000000E+009;1.754310131072998E-001;3.518494218587875E-002;4.277775529772043E-003;-3.092677434324287E-005;
2.403166666666667E+009;1.751526296138763E-001;3.381626307964325E-002;4.292726982384920E-003;-1.559162483317778E-004;
2.403333333333334E+009;1.750631928443909E-001;3.267889097332954E-002;4.154596012085676E-003;-4.716916300822049E-004;
2.403500000000000E+009;1.743520796298981E-001;3.136049583554268E-002;3.831733018159866E-003;-5.218801088631153E-004;
2.403666666666667E+009;1.739256232976914E-001;2.975264191627502E-002;3.722054418176413E-003;-7.009005639702082E-004;
2.403833333333334E+009;1.735030561685562E-001;2.798891812562943E-002;3.553505055606365E-003;-1.010378706268966E-003;
2.404000000000000E+009;1.731920093297958E-001;2.654017508029938E-002;3.413358936086297E-003;-9.708689758554101E-004;
2.404166666666667E+009;1.727797687053680E-001;2.480004727840424E-002;3.366710152477026E-003;-1.142515102401376E-003;
2.404333333333334E+009;1.723143905401230E-001;2.304560504853725E-002;3.121088957414031E-003;-1.061790389940143E-003;
2.404500000000000E+009;1.719159483909607E-001;2.105906233191490E-002;3.056287532672286E-003;-1.200436032377183E-003;
2.404666666666667E+009;1.715451180934906E-001;1.924860849976540E-002;2.793566789478064E-003;-1.152782817371190E-003;
2.404833333333334E+009;1.711816638708115E-001;1.741277985274792E-002;2.718506148084998E-003;-1.238920493051410E-003;
2.405000000000000E+009;1.708825677633286E-001;1.535999309271574E-002;2.587125403806567E-003;-1.124157104641199E-003;
2.405166666666667E+009;1.706023812294006E-001;1.333709899336100E-002;2.298428909853101E-003;-9.866209002211690E-004;
2.405333333333334E+009;1.705836951732636E-001;1.121264696121216E-002;2.299254294484854E-003;-7.269794004969299E-004;
2.405500000000000E+009;1.705670207738876E-001;9.153097867965698E-003;2.245811978355050E-003;-9.451317018829286E-004;
2.405666666666667E+009;1.704141646623612E-001;7.119875866919756E-003;2.192049520090222E-003;-7.546276901848614E-004;
2.405833333333334E+009;1.704057157039642E-001;5.169106181710959E-003;1.960410503670573E-003;-6.324362475425005E-004;
2.406000000000000E+009;1.705470532178879E-001;2.941214712336659E-003;2.056549768894911E-003;-4.773708642460406E-004;
2.406166666666667E+009;1.705844402313232E-001;8.741089259274304E-004;1.973371719941497E-003;-4.202901618555188E-004;
2.406333333333334E+009;1.711492985486984E-001;-1.193657168187201E-003;1.831207307986915E-003;-4.633398202713579E-004;
2.406500000000000E+009;1.713051497936249E-001;-3.361832816153765E-003;2.093770774081349E-003;-3.122382040601224E-004;
2.406666666666667E+009;1.716109514236450E-001;-5.381371825933456E-003;2.225628588348627E-003;-1.881464559119195E-004;
2.406833333333334E+009;1.722093671560288E-001;-7.490344345569611E-003;2.340805716812611E-003;-1.940758520504460E-004;
2.407000000000000E+009;1.727255880832672E-001;-9.409363381564617E-003;2.436932409182191E-003;-1.808991510188207E-004;
2.407166666666667E+009;1.733156889677048E-001;-1.144564244896174E-002;2.423984697088599E-003;-1.546643616165966E-004;
2.407333333333334E+009;1.739196032285690E-001;-1.349136885255575E-002;2.517851302400231E-003;-2.028285234700888E-004;
2.407500000000000E+009;1.746192872524262E-001;-1.541303284466267E-002;2.805215073749423E-003;-1.799706369638443E-004;
2.407666666666667E+009;1.753255724906921E-001;-1.713848114013672E-002;2.860120730474591E-003;-3.349696053192020E-004;
2.407833333333334E+009;1.758550107479096E-001;-1.892014406621456E-002;2.946635242551565E-003;-4.086588742211461E-004;
2.408000000000000E+009;1.766213029623032E-001;-2.086589857935906E-002;3.049521008506417E-003;-6.921642343513668E-004;
2.408166666666667E+009;1.772653460502625E-001;-2.225677669048309E-002;3.277217270806432E-003;-6.924939807504416E-004;
2.408333333333334E+009;1.782336384057999E-001;-2.391878515481949E-002;3.371131373569369E-003;-9.007171611301601E-004;
2.408500000000000E+009;1.787105798721314E-001;-2.542373538017273E-002;3.352316096425057E-003;-1.026534242555499E-003;
2.408666666666667E+009;1.793250888586044E-001;-2.684907056391239E-002;3.364009084179997E-003;-1.211116439662874E-003;
2.408833333333334E+009;1.799205690622330E-001;-2.805131487548351E-002;3.290144493803382E-003;-1.485421205870807E-003;
2.409000000000000E+009;1.803628802299500E-001;-2.919815108180046E-002;3.300301730632782E-003;-1.630817889235914E-003;
2.409166666666667E+009;1.810218989849091E-001;-3.033577837049961E-002;3.316085319966078E-003;-1.872044871561229E-003;
2.409333333333334E+009;1.814667135477066E-001;-3.128433972597122E-002;3.304115962237120E-003;-1.958710141479969E-003;
2.409500000000000E+009;1.818703562021256E-001;-3.215967118740082E-002;3.234679810702801E-003;-2.193709136918187E-003;
2.409666666666667E+009;1.823580414056778E-001;-3.293867036700249E-002;3.130652476102114E-003;-2.185276243835688E-003;
2.409833333333334E+009;1.826213002204895E-001;-3.348617255687714E-002;2.966672880575061E-003;-2.255751518532634E-003;
2.410000000000000E+009;1.830053180456162E-001;-3.401701897382736E-002;2.963802777230740E-003;-2.565057948231697E-003;
2.410166666666667E+009;1.832529306411743E-001;-3.448120504617691E-002;2.805428346619010E-003;-2.684703562408686E-003;
2.410333333333334E+009;1.835055053234100E-001;-3.500043600797653E-002;2.839773427695036E-003;-2.784598618745804E-003;
2.410500000000000E+009;1.837211549282074E-001;-3.517184033989906E-002;2.691562753170729E-003;-2.863454632461071E-003;
2.410666666666667E+009;1.836104542016983E-001;-3.574381396174431E-002;2.542268717661500E-003;-2.859166357666254E-003;
2.410833333333334E+009;1.836504340171814E-001;-3.586651384830475E-002;2.416901057586074E-003;-2.898633480072022E-003;
2.411000000000000E+009;1.835729777812958E-001;-3.623161837458611E-002;2.468663966283202E-003;-2.998078241944313E-003;
2.411166666666667E+009;1.833176761865616E-001;-3.646252304315567E-002;2.454885980114341E-003;-3.113457700237632E-003;
2.411333333333334E+009;1.830233782529831E-001;-3.672942146658897E-002;2.399686723947525E-003;-3.117847722023726E-003;
2.411500000000000E+009;1.825500726699829E-001;-3.728185966610909E-002;2.326486632227898E-003;-3.262097248807550E-003;
2.411666666666667E+009;1.821075081825256E-001;-3.735520690679550E-002;2.187248552218080E-003;-3.435875754803419E-003;
2.411833333333334E+009;1.815058737993240E-001;-3.760083392262459E-002;2.125314902514219E-003;-3.537382232025266E-003;
2.412000000000000E+009;1.809413284063339E-001;-3.810450807213783E-002;2.221208298578858E-003;-3.752404591068626E-003;
2.412166666666667E+009;1.800830364227295E-001;-3.850982710719109E-002;2.124960301443934E-003;-3.940580878406763E-003;
2.412333333333334E+009;1.793124526739121E-001;-3.866088762879372E-002;1.965821254998446E-003;-4.049797076731920E-003;
2.412500000000000E+009;1.782343536615372E-001;-3.925158828496933E-002;1.980949426069856E-003;-4.035261459648609E-003;
2.412666666666667E+009;1.774791032075882E-001;-3.978118300437927E-002;1.831687754020095E-003;-4.055433906614780E-003;
2.412833333333334E+009;1.762488484382629E-001;-4.041681438684464E-002;1.774654607288539E-003;-4.426000639796257E-003;
2.413000000000000E+009;1.750354617834091E-001;-4.093069583177567E-002;1.562087913043797E-003;-4.450407810509205E-003;
2.413166666666667E+009;1.739108711481094E-001;-4.167030006647110E-002;1.578171388246119E-003;-4.584996961057186E-003;
2.413333333333334E+009;1.723894625902176E-001;-4.236957058310509E-002;1.513009658083320E-003;-4.704320337623358E-003;
2.413500000000000E+009;1.712173819541931E-001;-4.318796843290329E-002;1.037023030221462E-003;-4.838467109948397E-003;
2.413666666666667E+009;1.700071990489960E-001;-4.427121207118034E-002;8.821818628348410E-004;-4.983711987733841E-003;
2.413833333333334E+009;1.683875918388367E-001;-4.513557627797127E-002;5.191795062273741E-004;-5.190073978155851E-003;
2.414000000000000E+009;1.670673042535782E-001;-4.634404182434082E-002;3.114662540610880E-004;-5.279642529785633E-003;
2.414166666666667E+009;1.659275740385056E-001;-4.747024551033974E-002;1.351307000732049E-004;-5.278884898871183E-003;
2.414333333333334E+009;1.644809842109680E-001;-4.865819588303566E-002;-1.358660374535248E-004;-5.307293497025967E-003;
2.414500000000000E+009;1.635552644729614E-001;-4.999060183763504E-002;-4.637198289856315E-004;-5.344168748706579E-003;
2.414666666666667E+009;1.621354222297669E-001;-5.140501633286476E-002;-7.701661088503897E-004;-5.376049783080816E-003;
2.414833333333334E+009;1.608889847993851E-001;-5.297772586345673E-002;-7.931662257760763E-004;-5.251376889646053E-003;
2.415000000000000E+009;1.597822904586792E-001;-5.447730422019959E-002;-1.131531083956361E-003;-5.223825108259916E-003;
2.415166666666667E+009;1.587217599153519E-001;-5.615992471575737E-002;-1.603311626240611E-003;-5.154252983629704E-003;
2.415333333333334E+009;1.577245742082596E-001;-5.799210071563721E-002;-1.761288847774267E-003;-5.048397928476334E-003;
2.415500000000000E+009;1.569475829601288E-001;-5.963545292615891E-002;-2.075636759400368E-003;-5.007518921047449E-003;
2.415666666666667E+009;1.560159176588059E-001;-6.139345839619637E-002;-2.282461384311318E-003;-4.900238011032343E-003;
2.415833333333334E+009;1.552353948354721E-001;-6.337209045886993E-002;-2.457416150718927E-003;-4.756500478833914E-003;
2.416000000000000E+009;1.543290764093399E-001;-6.539390236139298E-002;-2.549109049141407E-003;-4.537757486104965E-003;
2.416166666666667E+009;1.539239734411240E-001;-6.729450821876526E-002;-2.753091743215919E-003;-4.376916680485010E-003;
2.416333333333334E+009;1.532284766435623E-001;-6.933847069740295E-002;-2.910644747316837E-003;-4.170258995145559E-003;
2.416500000000000E+009;1.528295725584030E-001;-7.143430411815643E-002;-3.168284893035889E-003;-3.907657694071531E-003;
2.416666666666667E+009;1.523047983646393E-001;-7.314692437648773E-002;-3.352237399667501E-003;-3.760842373594642E-003;
2.416833333333334E+009;1.521156132221222E-001;-7.543613016605377E-002;-3.307693172246218E-003;-3.700459143146873E-003;
2.417000000000000E+009;1.516756266355515E-001;-7.739295065402985E-002;-3.473407123237848E-003;-3.447469556704164E-003;
2.417166666666667E+009;1.513463407754898E-001;-7.910539954900742E-002;-3.293446265161037E-003;-3.316380782052875E-003;
2.417333333333334E+009;1.512251943349838E-001;-8.109028637409210E-002;-3.392412327229977E-003;-3.159101819619536E-003;
2.417500000000000E+009;1.510898917913437E-001;-8.301111310720444E-002;-3.525939770042896E-003;-2.896435558795929E-003;
2.417666666666667E+009;1.512226611375809E-001;-8.462936431169510E-002;-3.644105046987534E-003;-2.939421916380525E-003;
2.417833333333334E+009;1.511103510856628E-001;-8.636152744293213E-002;-3.721458371728659E-003;-2.704404760152102E-003;
2.418000000000000E+009;1.511619538068771E-001;-8.802481740713120E-002;-3.621091833338141E-003;-2.625834429636598E-003;
2.418166666666667E+009;1.511969119310379E-001;-8.943626284599304E-002;-3.769531380385160E-003;-2.361737424507737E-003;
2.418333333333334E+009;1.515997946262360E-001;-9.080040454864502E-002;-3.786362241953611E-003;-2.253682585433126E-003;
2.418500000000000E+009;1.515997201204300E-001;-9.222704917192459E-002;-3.881661919876933E-003;-2.261776942759752E-003;
2.418666666666667E+009;1.518953591585159E-001;-9.352347999811173E-002;-3.859863849356771E-003;-1.957507804036140E-003;
2.418833333333334E+009;1.518947929143906E-001;-9.454572945833206E-002;-3.880820237100124E-003;-1.880907453596592E-003;
2.419000000000000E+009;1.521969586610794E-001;-9.535250067710877E-002;-3.967414610087872E-003;-1.877470058389008E-003;
2.419166666666667E+009;1.523378789424896E-001;-9.632451087236404E-002;-3.769401926547289E-003;-1.643633469939232E-003;
2.419333333333334E+009;1.525822281837463E-001;-9.679295122623444E-002;-3.936336841434240E-003;-1.646822202019393E-003;
2.419500000000000E+009;1.528722196817398E-001;-9.755802154541016E-002;-3.933233208954334E-003;-1.384018687531352E-003;
2.419666666666667E+009;1.531076431274414E-001;-9.806340187788010E-002;-4.064502660185099E-003;-1.241367077454925E-003;
2.419833333333334E+009;1.532111465930939E-001;-9.825785458087921E-002;-4.077602177858353E-003;-1.165584311820567E-003;
2.420000000000000E+009;1.535451263189316E-001;-9.856418520212174E-002;-4.177271854132414E-003;-9.100365568883717E-004;
2.420166666666667E+009;1.537177711725235E-001;-9.854405373334885E-002;-4.083342850208283E-003;-8.601928711868823E-004;
2.420333333333334E+009;1.538095176219940E-001;-9.873127937316895E-002;-4.079825244843960E-003;-6.883835885673761E-004;
2.420500000000000E+009;1.539539247751236E-001;-9.842179715633392E-002;-4.021685570478439E-003;-5.312682478688657E-004;
2.420666666666667E+009;1.539858579635620E-001;-9.841423481702805E-002;-3.977434244006872E-003;-5.037368973717094E-004;
2.420833333333334E+009;1.541155129671097E-001;-9.821444749832153E-002;-3.949007950723171E-003;-4.499361093621701E-004;
2.421000000000000E+009;1.538936644792557E-001;-9.799095243215561E-002;-4.005966708064079E-003;-2.340155624551699E-004;
2.421166666666667E+009;1.538882106542587E-001;-9.760474413633347E-002;-3.953652922064066E-003;-2.407545398455113E-004;
2.421333333333334E+009;1.537206023931503E-001;-9.728200733661652E-002;-3.925566561520100E-003;-6.347007729345933E-005;
2.421500000000000E+009;1.535142958164215E-001;-9.697971493005753E-002;-3.919712267816067E-003;-9.509945812169462E-006;
2.421666666666667E+009;1.531383842229843E-001;-9.675245732069016E-002;-3.766239620745182E-003;1.170438263216056E-004;
2.421833333333334E+009;1.525780260562897E-001;-9.620413184165955E-002;-3.921923693269491E-003;6.286512507358566E-005;
2.422000000000000E+009;1.521702706813812E-001;-9.581135958433151E-002;-3.766735550016165E-003;2.242146001663059E-004;
2.422166666666667E+009;1.512135267257690E-001;-9.561400860548019E-002;-3.870052518323064E-003;3.927873040083796E-004;
2.422333333333334E+009;1.505142748355866E-001;-9.509136527776718E-002;-3.898418275639415E-003;4.243272414896637E-004;
2.422500000000000E+009;1.495992839336395E-001;-9.485203772783279E-002;-3.926086239516735E-003;4.789982340298593E-004;
2.422666666666667E+009;1.485957354307175E-001;-9.453622996807098E-002;-3.821877995505929E-003;5.727644311264157E-004;
2.422833333333334E+009;1.475018560886383E-001;-9.441006183624268E-002;-3.896547481417656E-003;5.460446118377149E-004;
2.423000000000000E+009;1.464368700981140E-001;-9.421250224113464E-002;-3.862629644572735E-003;7.534566102549434E-004;
2.423166666666667E+009;1.450640410184860E-001;-9.413796663284302E-002;-3.997251391410828E-003;8.938004611991346E-004;
2.423333333333334E+009;1.439197212457657E-001;-9.375194460153580E-002;-3.899727715179324E-003;8.825768018141389E-004;
2.423500000000000E+009;1.424504369497299E-001;-9.382222592830658E-002;-4.034074954688549E-003;9.522557375021279E-004;
2.423666666666667E+009;1.408009231090546E-001;-9.389957785606384E-002;-3.992453683167696E-003;1.232582144439220E-003;
2.423833333333334E+009;1.394444108009338E-001;-9.406327456235886E-002;-3.949489444494247E-003;1.210292801260948E-003;
2.424000000000000E+009;1.377838850021362E-001;-9.406284242868424E-002;-4.008297808468342E-003;1.419413252733648E-003;
2.424166666666667E+009;1.362978518009186E-001;-9.431317448616028E-002;-4.080234561115503E-003;1.503904117271304E-003;
2.424333333333334E+009;1.349253803491592E-001;-9.466394782066345E-002;-3.837576368823648E-003;1.803839928470552E-003;
2.424500000000000E+009;1.332755684852600E-001;-9.522386640310288E-002;-3.966667223721743E-003;1.743541215546429E-003;
2.424666666666667E+009;1.318696886301041E-001;-9.553373605012894E-002;-3.816207405179739E-003;1.898992341011763E-003;
2.424833333333334E+009;1.302923560142517E-001;-9.629178792238236E-002;-3.895213361829519E-003;2.074768068268895E-003;
2.425000000000000E+009;1.288224458694458E-001;-9.694944322109222E-002;-3.978101536631584E-003;2.294589998200536E-003;
2.425166666666667E+009;1.272274106740952E-001;-9.789636731147766E-002;-3.918194212019444E-003;2.343580825254321E-003;
2.425333333333334E+009;1.259649991989136E-001;-9.878446906805039E-002;-3.897197078913450E-003;2.466392703354359E-003;
2.425500000000000E+009;1.246938258409500E-001;-9.993787854909897E-002;-3.846509382128716E-003;2.757199574261904E-003;
2.425666666666667E+009;1.233006492257118E-001;-1.010912060737610E-001;-3.700177185237408E-003;3.006618469953537E-003;
2.425833333333334E+009;1.221637204289436E-001;-1.023766621947289E-001;-3.646391211077571E-003;3.069103695452213E-003;
2.426000000000000E+009;1.210727244615555E-001;-1.037929579615593E-001;-3.479116829112172E-003;3.291949164122343E-003;
2.426166666666667E+009;1.202371194958687E-001;-1.052769795060158E-001;-3.418156877160072E-003;3.594970796257258E-003;
2.426333333333334E+009;1.190435290336609E-001;-1.067139282822609E-001;-3.320646937936544E-003;3.608976490795612E-003;
2.426500000000000E+009;1.181610226631165E-001;-1.082266420125961E-001;-3.050074679777026E-003;3.854590933769941E-003;
2.426666666666667E+009;1.175581812858582E-001;-1.097454503178597E-001;-2.881776774302125E-003;3.923180513083935E-003;
2.426833333333334E+009;1.166988089680672E-001;-1.114819943904877E-001;-2.999707823619247E-003;3.928651101887226E-003;
2.427000000000000E+009;1.160587146878243E-001;-1.132684499025345E-001;-2.615981968119741E-003;4.232999403029680E-003;
2.427166666666667E+009;1.155788972973824E-001;-1.147755011916161E-001;-2.309472998604178E-003;4.354686941951513E-003;
2.427333333333334E+009;1.150292381644249E-001;-1.164822578430176E-001;-2.048511058092117E-003;4.519815091043711E-003;
2.427500000000000E+009;1.146651506423950E-001;-1.182079762220383E-001;-1.823172206059098E-003;4.513164982199669E-003;
2.427666666666667E+009;1.143712773919106E-001;-1.199526712298393E-001;-1.602681120857596E-003;4.690498579293490E-003;
