# Hz S RI R 
2400000000.0000000000 0.172995507717132596114950615629 0.048904888331890113140065778907 0.004753141198307275772094726562 0.003033019602298737005946493994 0 0 0 0 
2400166666.6666665077 0.173627153038978604415731865629 0.048248983919620506977121721093 0.004570571240037679672241210938 0.002982112346217035813572548975 0 0 0 0 
2400333333.3333334923 0.174064710736274691482705634371 0.047584034502506263042409528907 0.004480349831283093366141034863 0.002802649280056356950047158350 0 0 0 0 
2400500000.0000000000 0.174469694495201110839843750000 0.046805646270513541484792341407 0.004245843738317489624023437500 0.002653567818924785094020224463 0 0 0 0 
2400666666.6666665077 0.174610942602157592773437500000 0.046226248145103461528737653907 0.004172001499682664871215820312 0.002611011732369660897495888818 0 0 0 0 
2400833333.3333334923 0.174964427947998102386151231258 0.045632101595401756977121721093 0.004133424721658229827880859375 0.002450665459036827087402343750 0 0 0 0 
2401000000.0000000000 0.175457119941711398025674384371 0.045048017054796218872070312500 0.003965394105762243270874023438 0.002590005286037921905517578125 0 0 0 0 
2401166666.6666665077 0.175646796822547912597656250000 0.044277846813201897357981096093 0.003733983030542730851414345850 0.002633006311953068213221884619 0 0 0 0 
2401333333.3333334923 0.175568446516990689376669365629 0.043691959232091896747629533593 0.003776075784116982980015420068 0.002364897169172763824462890625 0 0 0 0 
2401500000.0000000000 0.175841644406318692306356865629 0.043079305440187447284738908593 0.003728132927790284156799316406 0.002595352241769433021545410156 0 0 0 0 
2401666666.6666665077 0.175760194659233093261718750000 0.042344100773334503173828125000 0.003756220918148756027221679688 0.002440545009449123902561806787 0 0 0 0 
2401833333.3333334923 0.175789684057235690017861884371 0.041440412402153022075612653907 0.003698901506140828132629394531 0.002442215336486697196960449219 0 0 0 0 
2402000000.0000000000 0.175555750727653503417968750000 0.040747147053480148315429687500 0.003799314610660076141357421875 0.002616638084873557090759277344 0 0 0 0 
2402166666.6666665077 0.175527930259704589843750000000 0.039683111011981957172434221093 0.003670775331556797027587890625 0.002546990523114800886866904150 0 0 0 0 
2402333333.3333334923 0.175375699996948186676348768742 0.039014350622892379760742187500 0.003671673359349370002746582031 0.002642305800691246986389160156 0 0 0 0 
2402500000.0000000000 0.175495103001594487945880018742 0.038059551268815987323801408593 0.003689495148137211799621582031 0.002668853383511304855346679688 0 0 0 0 
2402666666.6666665077 0.175026014447212191482705634371 0.036969717592000961303710937500 0.003802714636549354033229208838 0.002644050400704144997837685693 0 0 0 0 
2402833333.3333334923 0.174768626689910888671875000000 0.035752758383750922466237653907 0.003854673821479082107543945312 0.002631483832374215126037597656 0 0 0 0 
2403000000.0000000000 0.174377128481864901443643134371 0.034424547106027603149414062500 0.004002919420599936571603105762 0.002711355686187744140625000000 0 0 0 0 
2403166666.6666665077 0.174310579895973205566406250000 0.033092267811298370361328125000 0.003897860879078506989720009912 0.002750790445134044127223349463 0 0 0 0 
2403333333.3333334923 0.173859938979148892501669365629 0.031868651509284973144531250000 0.004037485457956790924072265625 0.002592007862403988838195800781 0 0 0 0 
2403500000.0000000000 0.173578664660453796386718750000 0.030370965600013729440709298046 0.004057968501001597318167402051 0.002691191155463457107543945312 0 0 0 0 
2403666666.6666665077 0.173103138804435702224893134371 0.028680888935923579824427420704 0.004203662276268005371093750000 0.002605211688205599784851074219 0 0 0 0 
2403833333.3333334923 0.172811388969421386718750000000 0.027007436379790309560755545704 0.004313347395509481430053710938 0.002654646756127477125880576025 0 0 0 0 
2404000000.0000000000 0.172398060560226412674111884371 0.025327110663056370126744454296 0.004260702058672904968261718750 0.002592930803075433211085654150 0 0 0 0 
2404166666.6666665077 0.172066375613212613204794365629 0.023391608148813251150111014454 0.004449097439646720886230468750 0.002605895977467298941371298682 0 0 0 0 
2404333333.3333334923 0.171820491552352905273437500000 0.021631343290209770202636718750 0.004556834232062101364135742188 0.002591595286503434181213378906 0 0 0 0 
2404500000.0000000000 0.171333119273185702224893134371 0.019574567675590518606165701954 0.004641258157789707183837890625 0.002542638685554265975952148438 0 0 0 0 
2404666666.6666665077 0.171056196093559292892294365629 0.017782690003514289855957031250 0.004486365709453821182250976562 0.002591744530946015877964638818 0 0 0 0 
2404833333.3333334923 0.170836865901946993728799384371 0.015935685485601428640345389454 0.004735568072646856307983398438 0.002525615971535443825962685693 0 0 0 0 
2405000000.0000000000 0.170670554041862487792968750000 0.013783334754407409322718436329 0.004797843750566244125366210938 0.002471150364726781845092773438 0 0 0 0 
2405166666.6666665077 0.170609638094902010818643134371 0.011865275911986829585065272852 0.004958989098668097582345293262 0.002556981053203343911411904443 0 0 0 0 
2405333333.3333334923 0.170507311820983886718750000000 0.009729306213557720184326171875 0.005167147144675254821777343750 0.002494958229362965063807822119 0 0 0 0 
2405500000.0000000000 0.170465469360351590255575615629 0.007819722406566143035888671875 0.005114774219691753387451171875 0.002511300379410386085510253906 0 0 0 0 
2405666666.6666665077 0.170587152242660494705361884371 0.005776600446552038192749023438 0.005232814233750104904174804688 0.002343033207580447196960449219 0 0 0 0 
2405833333.3333334923 0.170600101351738003829794365629 0.003712288569658995108363486182 0.005608488805592060089111328125 0.002381889149546622796299599756 0 0 0 0 
2406000000.0000000000 0.170883089303970309158486884371 0.001612836262211204008815146338 0.005543456878513097763061523438 0.002383630257099866867065429688 0 0 0 0 
2406166666.6666665077 0.171079590916633605957031250000 -0.000354688265360891819000244141 0.005777749698609113693237304688 0.002242331625893712043762207031 0 0 0 0 
2406333333.3333334923 0.171623900532722500900106865629 -0.002417639829218388037440634619 0.005922254174947738647460937500 0.002091882051900029182434082031 0 0 0 0 
2406500000.0000000000 0.171963065862655611892861884371 -0.004420033656060695648193359375 0.006211741827428340911865234375 0.002154362387955189184901572119 0 0 0 0 
2406666666.6666665077 0.172231048345565795898437500000 -0.006471544969826936721801757812 0.006292703561484813690185546875 0.002115342300385237173793173682 0 0 0 0 
2406833333.3333334923 0.172868654131889287750567518742 -0.008509149774909019470214843750 0.006534882355481386184692382812 0.001881364616565406105638813550 0 0 0 0 
2407000000.0000000000 0.173426076769828796386718750000 -0.010280474089086059225062186329 0.006643678992986679077148437500 0.001671080361120403029798198169 0 0 0 0 
2407166666.6666665077 0.174223005771636990646200615629 -0.012145203538239000493059727148 0.006832888815551996231079101562 0.001675266074016690037370991284 0 0 0 0 
2407333333.3333334923 0.174760311841964693924111884371 -0.014168429188430309295654296875 0.007110851351171731948852539062 0.001423218753188848929164267432 0 0 0 0 
2407500000.0000000000 0.175391018390655489822549384371 -0.015899443998932838439941406250 0.007467850577086210250854492188 0.001279700663872062943102192456 0 0 0 0 
2407666666.6666665077 0.176178038120269803146200615629 -0.017568005248904231679896170704 0.007708603050559759140014648438 0.001060152426362038092372275244 0 0 0 0 
2407833333.3333334923 0.176762446761131286621093750000 -0.019356144592165950429896170704 0.007764916867017745971679687500 0.000777450681198388338088989258 0 0 0 0 
2408000000.0000000000 0.177361235022544888595419365629 -0.021091319620609279977818673046 0.007969275116920471191406250000 0.000468879268737509900897425519 0 0 0 0 
2408166666.6666665077 0.178108528256416293045205634371 -0.022372361272573471069335937500 0.008178267627954483032226562500 0.000052720413805218406695912020 0 0 0 0 
2408333333.3333334923 0.178882911801338195800781250000 -0.023913158103823658334752266796 0.008257163688540458679199218750 -0.000363812840078026110499781476 0 0 0 0 
2408500000.0000000000 0.179428622126579312423544365629 -0.025256792083382609975794608204 0.008301712572574615478515625000 -0.000665853265672922134399414062 0 0 0 0 
2408666666.6666665077 0.180094599723815890213174384371 -0.026636049151420589792271798046 0.008372346870601177215576171875 -0.001103187329135834953905415112 0 0 0 0 
2408833333.3333334923 0.180429100990295410156250000000 -0.027732642367482188833216483204 0.008377787657082080841064453125 -0.001534166978672147014020610278 0 0 0 0 
2409000000.0000000000 0.180950954556465204436932481258 -0.028813432902097698556920235546 0.008461724966764450073242187500 -0.001784902648068964915034628760 0 0 0 0 
2409166666.6666665077 0.181273549795150812347088731258 -0.029794357717037200927734375000 0.008420204743742942810058593750 -0.002168035134673119024989462744 0 0 0 0 
2409333333.3333334923 0.181856051087379511077557481258 -0.030644318088889118539830391796 0.008066114969551563262939453125 -0.002413873793557285828831338037 0 0 0 0 
2409500000.0000000000 0.182071268558502197265625000000 -0.031658686697483062744140625000 0.008003302849829196929931640625 -0.002836929401382803916931152344 0 0 0 0 
2409666666.6666665077 0.182492688298225402832031250000 -0.032262232154607772827148437500 0.008103703148663043975830078125 -0.003172991564497352080104208838 0 0 0 0 
2409833333.3333334923 0.182750746607780512054119981258 -0.032631032168865196918527971093 0.008135635405778884887695312500 -0.003271474037319422201869345557 0 0 0 0 
2410000000.0000000000 0.182949349284172113616619981258 -0.033114191144704818725585937500 0.007744329050183296203613281250 -0.003833528608083724975585937500 0 0 0 0 
2410166666.6666665077 0.183139130473136901855468750000 -0.033605709671974182128906250000 0.007907588034868240356445312500 -0.003945995122194290161132812500 0 0 0 0 
2410333333.3333334923 0.183177188038825988769531250000 -0.034050013870000839233398437500 0.007705158554017543792724609375 -0.004328676965087652206420898438 0 0 0 0 
2410500000.0000000000 0.183459118008613586425781250000 -0.034311782568693161010742187500 0.007500981446355581283569335938 -0.004442302044481039047241210938 0 0 0 0 
2410666666.6666665077 0.183157116174697903732138115629 -0.034675028175115592266042341407 0.007377725560218095779418945312 -0.004870160948485136032104492188 0 0 0 0 
2410833333.3333334923 0.183049589395523099044638115629 -0.034861735999584197998046875000 0.007267522625625134381766034863 -0.004976273979991674423217773438 0 0 0 0 
2411000000.0000000000 0.182993605732917813400106865629 -0.035157181322574622417409528907 0.007100174669176340103149414062 -0.005372133571654558181762695312 0 0 0 0 
2411166666.6666665077 0.182618677616119412521200615629 -0.035473182797431952739675153907 0.007035382557660341262817382812 -0.005626657512038946151733398438 0 0 0 0 
2411333333.3333334923 0.182220026850700406173544365629 -0.035883024334907531738281250000 0.006758420728147029876708984375 -0.005913081578910350799560546875 0 0 0 0 
2411500000.0000000000 0.181773588061332702636718750000 -0.036162674427032470703125000000 0.006532395724207162857055664062 -0.006222276017069816589355468750 0 0 0 0 
2411666666.6666665077 0.181243956089019803146200615629 -0.036508690565824508666992187500 0.006353772245347499847412109375 -0.006386545021086931228637695312 0 0 0 0 
2411833333.3333334923 0.180791825056076105315838731258 -0.036777079105377197265625000000 0.006068845279514789581298828125 -0.006761791184544563293457031250 0 0 0 0 
2412000000.0000000000 0.180084720253944396972656250000 -0.037183731794357299804687500000 0.005940197501331567764282226562 -0.006749474909156560897827148438 0 0 0 0 
2412166666.6666665077 0.179118692874908502776776231258 -0.037783458828926093364675153907 0.005650886334478855133056640625 -0.006990946363657712936401367188 0 0 0 0 
2412333333.3333334923 0.178442612290382413009481865629 -0.038124974817037582397460937500 0.005332107190042734146118164062 -0.007135780528187751770019531250 0 0 0 0 
2412500000.0000000000 0.177260130643844604492187500000 -0.038664802908897399902343750000 0.005123379640281200408935546875 -0.007426168769598007202148437500 0 0 0 0 
2412666666.6666665077 0.176239907741546603103799384371 -0.039506640285253531719167341407 0.004843129776418209075927734375 -0.007456102408468723297119140625 0 0 0 0 
2412833333.3333334923 0.175243586301803588867187500000 -0.039934631437063217163085937500 0.004595004022121428575997637012 -0.007768855895847082138061523438 0 0 0 0 
2413000000.0000000000 0.174122527241706903655682481258 -0.040824111551046371459960937500 0.004268430173397064208984375000 -0.007904459722340106964111328125 0 0 0 0 
2413166666.6666665077 0.172732725739479092696981865629 -0.041600666940212249755859375000 0.003895404981449245972874306787 -0.007909355685114860534667968750 0 0 0 0 
2413333333.3333334923 0.171392038464546203613281250000 -0.042371034622192382812500000000 0.003689181292429565949680947412 -0.008050058037042617797851562500 0 0 0 0 
2413500000.0000000000 0.170242398977279690841513115629 -0.043321013450622558593750000000 0.003397163236513733863830566406 -0.008170798420906066894531250000 0 0 0 0 
2413666666.6666665077 0.168934896588325500488281250000 -0.044522613286972052837331403907 0.003048563841730356216430664062 -0.008147635497152805328369140625 0 0 0 0 
2413833333.3333334923 0.167673140764236505706463731258 -0.045411363244056701660156250000 0.002962003462016582922694540869 -0.008185149170458316802978515625 0 0 0 0 
2414000000.0000000000 0.166428700089454706390057481258 -0.046648938208818442607839216407 0.002716253744438291029689169775 -0.008446250110864639282226562500 0 0 0 0 
2414166666.6666665077 0.165293633937835693359375000000 -0.047964848577976226806640625000 0.002491775201633573012111044775 -0.008145648054778575897216796875 0 0 0 0 
2414333333.3333334923 0.164087280631065396407919365629 -0.049362663179636001586914062500 0.002127163810655475096461630713 -0.008196440525352954864501953125 0 0 0 0 
2414500000.0000000000 0.162868410348892211914062500000 -0.050693597644567489624023437500 0.001899479306302964904187846606 -0.008304902352392673492431640625 0 0 0 0 
2414666666.6666665077 0.161942452192306490799111884371 -0.052120409905910491943359375000 0.001659876084886491081835102612 -0.008230567909777164459228515625 0 0 0 0 
2414833333.3333334923 0.160646721720695495605468750000 -0.053812388330698013305664062500 0.001510177622549236037610698169 -0.008363491855561733245849609375 0 0 0 0 
2415000000.0000000000 0.159551441669464111328125000000 -0.055354852229356772685964216407 0.001271535526029766039607382666 -0.008296730928122997283935546875 0 0 0 0 
2415166666.6666665077 0.158796176314353887359942518742 -0.056957006454467773437500000000 0.001113624777644873099086142432 -0.008447270840406417846679687500 0 0 0 0 
2415333333.3333334923 0.157901078462600708007812500000 -0.058811727911233901977539062500 0.001045738346874713897705078125 -0.008329973556101322174072265625 0 0 0 0 
2415500000.0000000000 0.157187357544898986816406250000 -0.060670983046293258666992187500 0.000880798441357910633087158203 -0.008387535810470581054687500000 0 0 0 0 
2415666666.6666665077 0.156323522329330388824786268742 -0.062583312392234802246093750000 0.000677053991239517927169799805 -0.008339954540133476257324218750 0 0 0 0 
2415833333.3333334923 0.155689418315887506683026231258 -0.064469233155250549316406250000 0.000507137388922274112701416016 -0.008392615243792533874511718750 0 0 0 0 
2416000000.0000000000 0.154992103576660211761151231258 -0.066465005278587341308593750000 0.000191203478607349097728729248 -0.008595022372901439666748046875 0 0 0 0 
2416166666.6666665077 0.154640406370162991622763115629 -0.068442106246948242187500000000 0.000044446947867982089519500732 -0.008657315745949745178222656250 0 0 0 0 
2416333333.3333334923 0.154047459363937405685263115629 -0.070407643914222717285156250000 -0.000254498969297856092453002930 -0.008702119812369346618652343750 0 0 0 0 
2416500000.0000000000 0.153497397899627713302450615629 -0.072536811232566833496093750000 -0.000421397591708227992057800293 -0.008566532284021377563476562500 0 0 0 0 
2416666666.6666665077 0.153191953897476196289062500000 -0.074445411562919616699218750000 -0.000756067049223929643630981445 -0.008679280057549476623535156250 0 0 0 0 
2416833333.3333334923 0.152950033545494107345419365629 -0.076528117060661315917968750000 -0.000856541621033102273941040039 -0.008720729500055313110351562500 0 0 0 0 
2417000000.0000000000 0.152427315711975097656250000000 -0.078319586813449859619140625000 -0.001149963238276541016222309644 -0.008768801577389240264892578125 0 0 0 0 
2417166666.6666665077 0.152410551905631991287393134371 -0.080260723829269409179687500000 -0.001446638023480772972106933594 -0.008663550019264221191406250000 0 0 0 0 
2417333333.3333334923 0.152384892106056213378906250000 -0.081924110651016235351562500000 -0.001780746621079742908477783203 -0.008649162948131561279296875000 0 0 0 0 
2417500000.0000000000 0.152081802487373407561932481258 -0.083937332034111022949218750000 -0.002034137025475502014160156250 -0.008714683353900909423828125000 0 0 0 0 
2417666666.6666665077 0.152219936251640292068643134371 -0.085329651832580566406250000000 -0.002179913688451052145717001807 -0.008599197492003440856933593750 0 0 0 0 
2417833333.3333334923 0.152229815721511813064736884371 -0.087002195417881011962890625000 -0.002428672276437282995936728369 -0.008661114610731601715087890625 0 0 0 0 
2418000000.0000000000 0.152191370725631713867187500000 -0.088636092841625213623046875000 -0.002772811800241469903233193506 -0.008780287578701972961425781250 0 0 0 0 
2418166666.6666665077 0.152283683419227600097656250000 -0.089880093932151794433593750000 -0.002920795232057570977451943506 -0.008600587956607341766357421875 0 0 0 0 
2418333333.3333334923 0.152630060911178588867187500000 -0.091100044548511505126953125000 -0.003386462107300757928135537256 -0.008724323473870754241943359375 0 0 0 0 
2418500000.0000000000 0.152706310153007507324218750000 -0.092353992164134979248046875000 -0.003503215033560990853550576318 -0.008557914756238460540771484375 0 0 0 0 
2418666666.6666665077 0.152889594435691805740518134371 -0.093537189066410064697265625000 -0.003846803214401007132289267432 -0.008664581924676895141601562500 0 0 0 0 
2418833333.3333334923 0.152809068560600308517294365629 -0.094599612057209014892578125000 -0.004231138620525599393362714551 -0.008563735522329807281494140625 0 0 0 0 
2419000000.0000000000 0.152956455945968600174111884371 -0.095384165644645690917968750000 -0.004563758149743080139160156250 -0.008424404077231884002685546875 0 0 0 0 
2419166666.6666665077 0.153297409415245111663494981258 -0.096111185848712921142578125000 -0.004838960245251655578613281250 -0.008432266302406787872314453125 0 0 0 0 
2419333333.3333334923 0.153351247310638399978799384371 -0.096573106944561004638671875000 -0.005203731823712587356567382812 -0.008400135673582553863525390625 0 0 0 0 
2419500000.0000000000 0.153464823961257906814736884371 -0.097133383154869079589843750000 -0.005668887868523597717285156250 -0.008252779953181743621826171875 0 0 0 0 
2419666666.6666665077 0.153769835829734802246093750000 -0.097620643675327301025390625000 -0.005995077546685934066772460938 -0.007931844331324100494384765625 0 0 0 0 
2419833333.3333334923 0.153802335262298611739950615629 -0.097787521779537200927734375000 -0.006358651909977197647094726562 -0.008036053739488124847412109375 0 0 0 0 
