# Hz S RI R 50
2400000000.0000000000 0.156117230653762789627236884371 0.111573033034801497032084682814 -0.006630950141698122024536132812 -0.000646923843305557966232299805 0 0 0 0 
2400166666.6666665077 0.155417814850807189941406250000 0.109157808125019101241903740629 -0.006364505272358655929565429688 -0.000402563688112422823905944824 0 0 0 0 
2400333333.3333334923 0.155302211642265292068643134371 0.107031799852848094611879048443 -0.006378261838108301162719726562 -0.000225353927817195708125513898 0 0 0 0 
2400500000.0000000000 0.154971122741699190994424384371 0.104466609656810802131410298443 -0.006434673443436622619628906250 -0.000026174951926805078983306885 0 0 0 0 
2400666666.6666665077 0.154697284102439908126669365629 0.101872481405735001991352817186 -0.006395940668880940351004316113 0.000357350596459582502215784894 0 0 0 0 
2400833333.3333334923 0.154286354780197088043536268742 0.098991364240646362304687500000 -0.006383748725056648254394531250 0.000350504851667210513919276105 0 0 0 0 
2401000000.0000000000 0.154376223683357211013955634371 0.096061959862709045410156250000 -0.006424308288842439651489257812 0.000393638649256900007098597394 0 0 0 0 
2401166666.6666665077 0.154243364930152893066406250000 0.093087524175643920898437500000 -0.006257885601371526718139648438 0.000696549948770552873611450195 0 0 0 0 
2401333333.3333334923 0.154277741909027099609375000000 0.090278171002864837646484375000 -0.006290777120739221572875976562 0.000905214867088943719863891602 0 0 0 0 
2401500000.0000000000 0.154274076223373413085937500000 0.087310396134853363037109375000 -0.006355355028063058853149414062 0.000951328896917402744293212891 0 0 0 0 
2401666666.6666665077 0.154525026679039001464843750000 0.084321647882461547851562500000 -0.006472635082900524139404296875 0.001412224490195512988446879810 0 0 0 0 
2401833333.3333334923 0.154856413602829007247763115629 0.081304475665092468261718750000 -0.006674150470644235610961914062 0.001469954033382236957550048828 0 0 0 0 
2402000000.0000000000 0.155513077974319513518963731258 0.078249804675579071044921875000 -0.006506782490760087966918945312 0.001637916429899632930755615234 0 0 0 0 
2402166666.6666665077 0.156017005443572998046875000000 0.075566545128822326660156250000 -0.006492346059530972567086504199 0.001860994496382772922515869141 0 0 0 0 
2402333333.3333334923 0.156767144799232510665731865629 0.072696939110755920410156250000 -0.006664369720965623855590820312 0.002258777385577559904811240088 0 0 0 0 
2402500000.0000000000 0.157850250601768493652343750000 0.069882303476333618164062500000 -0.006604460999369621276855468750 0.002446928294375538825988769531 0 0 0 0 
2402666666.6666665077 0.158845737576484707931356865629 0.067327909171581268310546875000 -0.006621120031923055648803710938 0.002629612572491168975830078125 0 0 0 0 
2402833333.3333334923 0.160329431295394897460937500000 0.064726263284683227539062500000 -0.006644080393016338348388671875 0.003082489361986517906188964844 0 0 0 0 
2403000000.0000000000 0.161700114607811001876669365629 0.061897151172161102294921875000 -0.006528535392135381698608398438 0.003427424235269426865818642725 0 0 0 0 
2403166666.6666665077 0.163138329982757596114950615629 0.059572089463472373271901716407 -0.006305527873337268829345703125 0.003659577807411551909205771338 0 0 0 0 
2403333333.3333334923 0.164686873555183410644531250000 0.057129234075546271587331403907 -0.006211988162249326705932617188 0.003943023737519980344290448926 0 0 0 0 
2403500000.0000000000 0.166434586048126192947549384371 0.054685804992914199829101562500 -0.006192801054567098617553710938 0.004211497493088245391845703125 0 0 0 0 
2403666666.6666665077 0.168435409665107699295205634371 0.052555333822965621948242187500 -0.006065827794373035430908203125 0.004684495739638805389404296875 0 0 0 0 
2403833333.3333334923 0.170063018798828097244424384371 0.050492756068706512451171875000 -0.005882410798221827420706464551 0.004727948922663927078247070312 0 0 0 0 
2404000000.0000000000 0.171718016266822787185830634371 0.048460461199283599853515625000 -0.005493468604981899261474609375 0.005218238104134798049926757812 0 0 0 0 
2404166666.6666665077 0.173788860440254211425781250000 0.046736486256122589111328125000 -0.005420831032097339630126953125 0.005460091400891541567330644824 0 0 0 0 
2404333333.3333334923 0.175512775778770502288494981258 0.045034375041723251342773437500 -0.005016257986426354321951581738 0.005838970653712750348562909863 0 0 0 0 
2404500000.0000000000 0.177161276340484591385049384371 0.043367203325033187866210937500 -0.004723376594483852386474609375 0.006096570286899805068969726562 0 0 0 0 
2404666666.6666665077 0.178998127579688998123330634371 0.042142711579799652099609375000 -0.004537177272140979766845703125 0.006242735311388969421386718750 0 0 0 0 
2404833333.3333334923 0.180916756391525296310263115629 0.040814656764268882060964216407 -0.004217493347823619842529296875 0.006649583112448453903198242188 0 0 0 0 
2405000000.0000000000 0.182421863079070989410723768742 0.040032502263784408569335937500 -0.003706880379468203024623251807 0.006737233605235815048217773438 0 0 0 0 
2405166666.6666665077 0.184101760387420709808026231258 0.039171356707811362529714216407 -0.003315522801131010055541992188 0.006917054299265146255493164062 0 0 0 0 
2405333333.3333334923 0.185868024826049804687500000000 0.038673661649227142333984375000 -0.002846049377694725990295410156 0.007020213175565004348754882812 0 0 0 0 
2405500000.0000000000 0.187428742647170992752236884371 0.037984587252140052104909528907 -0.002448261249810456795933388818 0.007082692813128232955932617188 0 0 0 0 
2405666666.6666665077 0.188983723521232604980468750000 0.037665423005819320678710937500 -0.002245772629976273016688681494 0.006972261704504489898681640625 0 0 0 0 
2405833333.3333334923 0.190422832965850802322549384371 0.037333156913518912578542341407 -0.001706346054561435959459614331 0.007043210789561271667480468750 0 0 0 0 
2406000000.0000000000 0.191803038120269803146200615629 0.037196666002273559570312500000 -0.001379473367705940983415913159 0.006941013969480991363525390625 0 0 0 0 
2406166666.6666665077 0.192991957068443298339843750000 0.037026986479759223247487653907 -0.001116020488552748940111469800 0.006918397266417741775512695312 0 0 0 0 
2406333333.3333334923 0.194075092673301696777343750000 0.037296973168849952007253278907 -0.000676581228617578744888305664 0.006648472975939512252807617188 0 0 0 0 
2406500000.0000000000 0.195155888795852688888388115629 0.037327270954847342754323591407 -0.000559490756131708621978759766 0.006742414552718400955200195312 0 0 0 0 
2406666666.6666665077 0.195990115404129000564736884371 0.037511441856622702861745466407 -0.000188029342098161605283460074 0.006427851505577564239501953125 0 0 0 0 
2406833333.3333334923 0.196814969182014493087606865629 0.037750840187072746967356096093 0.000042791656596818938851356506 0.006572692189365625381469726562 0 0 0 0 
2407000000.0000000000 0.197386711835861206054687500000 0.038269728422164916992187500000 0.000086506785009987652301788330 0.006311147008091211318969726562 0 0 0 0 
2407166666.6666665077 0.197942346334457397460937500000 0.038204062730073928833007812500 0.000351171445799991488456726074 0.006366285029798746109008789062 0 0 0 0 
2407333333.3333334923 0.197954729199409512618856865629 0.038634665310382843017578125000 0.000504718162119388580322265625 0.006195660680532454576974199512 0 0 0 0 
2407500000.0000000000 0.198138371109962491134481865629 0.038971126079559333110768903907 0.000689870736096054315567016602 0.006211396306753158569335937500 0 0 0 0 
2407666666.6666665077 0.198303937911987304687500000000 0.039177965372800827026367187500 0.000858165498357266187667846680 0.006197714712470769882202148438 0 0 0 0 
2407833333.3333334923 0.198120713233947809417401231258 0.039359606802463531494140625000 0.001045752665959299044368124854 0.005899637937545776367187500000 0 0 0 0 
2408000000.0000000000 0.198072716593742398361044365629 0.039626695215702056884765625000 0.001422987552359699986101460034 0.005683779250830411911010742188 0 0 0 0 
2408166666.6666665077 0.197528675198554992675781250000 0.039623968303203582763671875000 0.001424610149115324020385742188 0.005404860246926546096801757812 0 0 0 0 
2408333333.3333334923 0.197161957621574401855468750000 0.039436914026737213134765625000 0.001635813037864864089368510669 0.005308975931257010373587323926 0 0 0 0 
2408500000.0000000000 0.196432560682296808440838731258 0.039479255676269531250000000000 0.001655320869758724949480366284 0.005104042589664459228515625000 0 0 0 0 
2408666666.6666665077 0.195980891585350008865518134371 0.039288740605115890502929687500 0.001741730608046055056928325122 0.004981549456715583801269531250 0 0 0 0 
2408833333.3333334923 0.195158407092094393631143134371 0.038852646946907043457031250000 0.001878259819932281970977783203 0.004833094310015439987182617188 0 0 0 0 
2409000000.0000000000 0.194162726402282687088174384371 0.038260832428932189941406250000 0.001857644179835915999171591650 0.004506597761064767837524414062 0 0 0 0 
2409166666.6666665077 0.193267405033111600021200615629 0.037598621100187301635742187500 0.001861251308582722923876118237 0.004557232838124036788940429688 0 0 0 0 
2409333333.3333334923 0.192166894674301202972088731258 0.036865584552288062358815778907 0.001923974952660501003265380859 0.004281355533748865127563476562 0 0 0 0 
2409500000.0000000000 0.190987810492515591720419365629 0.035958398133516311645507812500 0.001997573534026741981506347656 0.004086750559508801373953534863 0 0 0 0 
2409666666.6666665077 0.189805760979652404785156250000 0.034710425883531570434570312500 0.001970694866031407876255654443 0.003990903031080961227416992188 0 0 0 0 
2409833333.3333334923 0.188630580902099609375000000000 0.033593382686376571655273437500 0.001932467566803097941754985278 0.004004820715636014938354492188 0 0 0 0 
2410000000.0000000000 0.187371477484703091720419365629 0.032275266945362091064453125000 0.001851067994721234061597514575 0.004003043286502361297607421875 0 0 0 0 
2410166666.6666665077 0.186178788542747497558593750000 0.030555251985788348806361014454 0.001957458909600973129272460938 0.004074586089700459566598222949 0 0 0 0 
2410333333.3333334923 0.185009986162185696700888115629 0.028944360092282298696497733204 0.001811269670724868991254496997 0.003789558308199048042297363281 0 0 0 0 
2410500000.0000000000 0.183891206979751586914062500000 0.027141602709889408456822579296 0.001891600782983005046844482422 0.003879347583279014067408896338 0 0 0 0 
2410666666.6666665077 0.182750001549720791915731865629 0.025065911933779719961146170704 0.001958035398274660110473632812 0.003937271889299154281616210938 0 0 0 0 
2410833333.3333334923 0.181794717907905606368856865629 0.022932413965463638305664062500 0.002034095348790287971496582031 0.004017521627247334393973066113 0 0 0 0 
2411000000.0000000000 0.180664479732513399978799384371 0.020857838913798328744908516796 0.001944303163327276923535991138 0.004000361077487468719482421875 0 0 0 0 
2411166666.6666665077 0.179790318012237604339276231258 0.018590565770864490163782889454 0.001974023412913084030151367188 0.004018255509436131391043378613 0 0 0 0 
2411333333.3333334923 0.179071575403213500976562500000 0.016053069382905960083007812500 0.002097360556945205168483115088 0.003977792803198099136352539062 0 0 0 0 
2411500000.0000000000 0.178434804081916809082031250000 0.013591455295681949960728829296 0.002052816329523921012878417969 0.003953923005610704421997070312 0 0 0 0 
2411666666.6666665077 0.178093239665031405349893134371 0.011309376917779450852363787305 0.002192093525081872940063476562 0.004000697750598192214965820312 0 0 0 0 
2411833333.3333334923 0.177587881684303311446981865629 0.008982127532362937927246093750 0.002226987620815635161158896338 0.004122382029891014099121093750 0 0 0 0 
2412000000.0000000000 0.177223354578018188476562500000 0.006305507384240627288818359375 0.002382153412327169938328408350 0.004233282525092363357543945312 0 0 0 0 
2412166666.6666665077 0.177254602313041687011718750000 0.003685598494485021071193076025 0.002558717038482428030726767432 0.004191047046333551406860351562 0 0 0 0 
2412333333.3333334923 0.177061066031455993652343750000 0.000958013813942670822143554688 0.002546468051150441169738769531 0.004227142781019210815429687500 0 0 0 0 
2412500000.0000000000 0.177442178130149813553018134371 -0.001576826791279017925262451172 0.002807450713589787916896201025 0.004354684147983788576607988574 0 0 0 0 
2412666666.6666665077 0.178025558590889004806356865629 -0.004308794625103473663330078125 0.003073598258197308020350790869 0.004321926273405551910400390625 0 0 0 0 
2412833333.3333334923 0.178508445620536804199218750000 -0.006860724650323390960693359375 0.003266452113166451887843466650 0.004202560521662235260009765625 0 0 0 0 
2413000000.0000000000 0.178997576236724909026776231258 -0.009388613514602184295654296875 0.003485982771962881088256835938 0.004423664417117834091186523438 0 0 0 0 
2413166666.6666665077 0.179919362068176297286825615629 -0.011912662535905839747418788477 0.003504064632579683823826455225 0.004102294333279132843017578125 0 0 0 0 
2413333333.3333334923 0.180981189012527493575888115629 -0.014354173094034200150459490430 0.003662612754851580099818564307 0.004085933789610862731933593750 0 0 0 0 
2413500000.0000000000 0.181697249412536593338174384371 -0.016987008973956111562708670704 0.004068796988576650619506835938 0.003960858099162578582763671875 0 0 0 0 
2413666666.6666665077 0.183016344904899597167968750000 -0.019386626780033111572265625000 0.004193860571831464767456054688 0.004054259974509477615356445312 0 0 0 0 
2413833333.3333334923 0.184189721941947909256143134371 -0.021563693881034851074218750000 0.004527871962636709213256835938 0.003741285065189003944396972656 0 0 0 0 
2414000000.0000000000 0.185200035572052001953125000000 -0.023855241015553470956822579296 0.004538008477538824081420898438 0.003656368935480713844299316406 0 0 0 0 
2414166666.6666665077 0.186716616153717013260049384371 -0.025899253785610198974609375000 0.004722625017166137695312500000 0.003496002638712524934055947412 0 0 0 0 
2414333333.3333334923 0.187826469540596008300781250000 -0.028024846687912940979003906250 0.004862753674387931823730468750 0.003407540963962674140930175781 0 0 0 0 
2414500000.0000000000 0.189318612217903109451455634371 -0.029763717204332351684570312500 0.005193261895328760147094726562 0.003349411766976118087768554688 0 0 0 0 
2414666666.6666665077 0.190509945154190091232138115629 -0.031417232006788246845285783593 0.005392402410507202148437500000 0.003063394455239177183863974463 0 0 0 0 
2414833333.3333334923 0.192045912146568298339843750000 -0.033018626272678382183034528907 0.005471130367368459701538085938 0.002800424816086887879612588037 0 0 0 0 
2415000000.0000000000 0.193242877721786499023437500000 -0.034622959792613983154296875000 0.005716719198971986770629882812 0.002569301985204219818115234375 0 0 0 0 
2415166666.6666665077 0.194767162203788812835369981258 -0.035858727991580963134765625000 0.005845331121236085891723632812 0.002282943809404969215393066406 0 0 0 0 
2415333333.3333334923 0.196081593632698086837606865629 -0.036961022764444351196289062500 0.005936203524470329284667968750 0.002169545041397213935852050781 0 0 0 0 
2415500000.0000000000 0.197619527578353909591513115629 -0.037844531238079071044921875000 0.006149488501250743865966796875 0.001799373538233340003369975513 0 0 0 0 
2415666666.6666665077 0.198843628168106106857138115629 -0.038939919322729110717773437500 0.006100877188146114349365234375 0.001537630334496498107910156250 0 0 0 0 
2415833333.3333334923 0.199958816170692388336505018742 -0.039619110524654388427734375000 0.006402094848453999433035566113 0.001380145433358848094940185547 0 0 0 0 
2416000000.0000000000 0.201078698039054898361044365629 -0.040222100913524627685546875000 0.006539565511047840118408203125 0.000905276450794190168380737305 0 0 0 0 
2416166666.6666665077 0.202042594552040100097656250000 -0.040855973958969123149831403907 0.006445846054702997207641601562 0.000745778670534491539001464844 0 0 0 0 
2416333333.3333334923 0.202955216169357299804687500000 -0.041151314973831176757812500000 0.006338113918900489807128906250 0.000321072497172281200259608136 0 0 0 0 
2416500000.0000000000 0.203793346881866510589276231258 -0.041402645409107208251953125000 0.006378348451107740402221679688 0.000060199447034392512660434110 0 0 0 0 
2416666666.6666665077 0.204435065388679504394531250000 -0.041759792715311050415039062500 0.006376137025654315948486328125 -0.000223168171942234012201586313 0 0 0 0 
2416833333.3333334923 0.204884469509124811370526231258 -0.041793026030063629150390625000 0.006194422487169504165649414062 -0.000574251869693398475646972656 0 0 0 0 
2417000000.0000000000 0.205339550971984891036825615629 -0.041881371289491653442382812500 0.006145192775875329971313476562 -0.000883951201103627681732177734 0 0 0 0 
2417166666.6666665077 0.205301582813262911697549384371 -0.041678540408611297607421875000 0.006067936774343252182006835938 -0.001185139757581054947496723706 0 0 0 0 
2417333333.3333334923 0.205268234014511108398437500000 -0.041356388479471206665039062500 0.006008264143019914627075195312 -0.001341455965302885012385702979 0 0 0 0 
2417500000.0000000000 0.205223426222801208496093750000 -0.041417088359594352031667341407 0.005828571971505880355834960938 -0.001576599082909524007084511865 0 0 0 0 
2417666666.6666665077 0.204904958605766296386718750000 -0.041073642671108252788503278907 0.005666086450219154357910156250 -0.001740447361953556971309042822 0 0 0 0 
2417833333.3333334923 0.204786449670791598220986884371 -0.040659289807081222534179687500 0.005610717460513114929199218750 -0.001905690995045006058336567456 0 0 0 0 
2418000000.0000000000 0.204264849424362210372763115629 -0.040203094482421881938893903907 0.005570435430854558944702148438 -0.002026197733357549147364951025 0 0 0 0 
2418166666.6666665077 0.203741058707237188141192518742 -0.039924379438161849975585937500 0.005404768511652947339529706738 -0.002264214213937520980834960938 0 0 0 0 
2418333333.3333334923 0.202913299202919006347656250000 -0.039554558694362640380859375000 0.005330263637006282806396484375 -0.002408572006970643997192382812 0 0 0 0 
2418500000.0000000000 0.202037036418914794921875000000 -0.039282433688640587543527971093 0.005182560998946428298950195312 -0.002495706547051668167114257812 0 0 0 0 
2418666666.6666665077 0.201147735118865994552450615629 -0.039069667458534240722656250000 0.005089951679110527038574218750 -0.002755664056167006926295615088 0 0 0 0 
2418833333.3333334923 0.199964001774787902832031250000 -0.038920767605304718017578125000 0.004901380278170108795166015625 -0.003045959165319799943211220850 0 0 0 0 
2419000000.0000000000 0.198806375265121487716513115629 -0.038913067430257797241210937500 0.004816732369363307952880859375 -0.003073639236390591101405478369 0 0 0 0 
2419166666.6666665077 0.197465211153030395507812500000 -0.039017233997583389282226562500 0.004569382406771183013916015625 -0.003256297437474132017848349463 0 0 0 0 
2419333333.3333334923 0.196009531617164611816406250000 -0.039292939007282257080078125000 0.004283482208847999572753906250 -0.003318241797387599945068359375 0 0 0 0 
2419500000.0000000000 0.194529101252555902679119981258 -0.039502497762441642070729841407 0.004118515178561210632324218750 -0.003375591011717915968654013525 0 0 0 0 
2419666666.6666665077 0.193040311336517306228799384371 -0.040145661681890487670898437500 0.004088802728801965713500976562 -0.003719155909493565993068076025 0 0 0 0 
2419833333.3333334923 0.191272571682929992675781250000 -0.040479566901922232891042341407 0.003788809524849057197570800781 -0.003712190082296729087829589844 0 0 0 0 
2420000000.0000000000 0.189627125859260586837606865629 -0.041150055825710296630859375000 0.003609817242249846892115927588 -0.003796558361500502066371298682 0 0 0 0 
