# Hz S RI R 50
2400000000.0000000000 0.156004041433334406097088731258 0.111486256122589097450337192186 -0.006388346198946238431448652051 -0.000469473772682249600261134015 0 0 0 0 
2400166666.6666665077 0.155384197831153897384481865629 0.109371073544025393387002509371 -0.006332287099212408065795898438 -0.000171679814229719286591130389 0 0 0 0 
2400333333.3333334923 0.155116900801658602615518134371 0.107184983789920806884765625000 -0.006139284931123256683349609375 -0.000098585755040403455495834351 0 0 0 0 
2400500000.0000000000 0.154790937900543212890625000000 0.104426488280296297928018134371 -0.006335904821753501892089843750 0.000004157387138548074290156364 0 0 0 0 
2400666666.6666665077 0.154573321342468289474325615629 0.101865321397781399825888115629 -0.006199391093105077743530273438 0.000222143135033547905370435172 0 0 0 0 
2400833333.3333334923 0.154246211051940890213174384371 0.099024802446365356445312500000 -0.006342164240777493390555097363 0.000380525045329704880714416504 0 0 0 0 
2401000000.0000000000 0.154149726033210809905682481258 0.096072360873222351074218750000 -0.006207127589732409390921308301 0.000418439070926979184150695801 0 0 0 0 
2401166666.6666665077 0.154006183147430392166299384371 0.093268044292926788330078125000 -0.006282514892518520355224609375 0.000814179249573498964309692383 0 0 0 0 
2401333333.3333334923 0.154164418578147888183593750000 0.090341582894325256347656250000 -0.006284260191023349761962890625 0.000793348765000700950622558594 0 0 0 0 
2401500000.0000000000 0.154489919543266296386718750000 0.087164863944053649902343750000 -0.006349741946905851364135742188 0.000991716631688177585601806641 0 0 0 0 
2401666666.6666665077 0.154543325304985101897869981258 0.084156237542629241943359375000 -0.006350232753902673721313476562 0.001213109237141906998277973706 0 0 0 0 
2401833333.3333334923 0.154967099428176907638388115629 0.081496402621269226074218750000 -0.006389938294887542724609375000 0.001394911669194697900059365381 0 0 0 0 
2402000000.0000000000 0.155423671007156399825888115629 0.078412190079689025878906250000 -0.006450559478253126144409179688 0.001565087120980023904087685693 0 0 0 0 
2402166666.6666665077 0.156107157468795804122763115629 0.075750060379505157470703125000 -0.006514278706163167953491210938 0.001804976724088191986083984375 0 0 0 0 
2402333333.3333334923 0.157029896974563598632812500000 0.072727411985397338867187500000 -0.006487415637820959091186523438 0.002019133651629089875462197412 0 0 0 0 
2402500000.0000000000 0.157947123050689697265625000000 0.069969527423381805419921875000 -0.006475333590060473355765058301 0.002313084201887249946594238281 0 0 0 0 
2402666666.6666665077 0.158945783972740201095419365629 0.067277170717716217041015625000 -0.006534895393997430801391601562 0.002571533666923642158508300781 0 0 0 0 
2402833333.3333334923 0.160177022218704195877236884371 0.064608521759510040283203125000 -0.006469617132097482681274414062 0.002853466663509606881382607568 0 0 0 0 
2403000000.0000000000 0.161479443311691311935263115629 0.061908710747957229614257812500 -0.006536103319376707077026367188 0.003284207545220851898193359375 0 0 0 0 
2403166666.6666665077 0.163327753543853787521200615629 0.059383273124694817279856096093 -0.006552403792738915357107831738 0.003554466180503367944004677881 0 0 0 0 
2403333333.3333334923 0.164704889059066800216513115629 0.056994672864675521850585937500 -0.006300285924226045608520507812 0.003768704133108257813694619287 0 0 0 0 
2403500000.0000000000 0.166664510965347290039062500000 0.054743167012929923320729841407 -0.006111745256930589675903320312 0.004281500354409217834472656250 0 0 0 0 
2403666666.6666665077 0.168352931737899808029013115629 0.052549164742231369018554687500 -0.006111520342528820037841796875 0.004496214445680379867553710938 0 0 0 0 
2403833333.3333334923 0.170182406902313204666299384371 0.050399329513311393047292341407 -0.005945558659732341766357421875 0.004785215482115746411795331738 0 0 0 0 
2404000000.0000000000 0.171605125069618197342080634371 0.048254780471324920654296875000 -0.005758723244071006774902343750 0.005157948937267065048217773438 0 0 0 0 
2404166666.6666665077 0.173754170536994906326455634371 0.046608932316303253173828125000 -0.005422674119472503662109375000 0.005535413511097431182861328125 0 0 0 0 
2404333333.3333334923 0.175464555621147211272869981258 0.044775210320949547504465471093 -0.005236545111984015378470136426 0.005733584519475699338431073926 0 0 0 0 
2404500000.0000000000 0.177350491285324096679687500000 0.043277543038129813457448591407 -0.005040523596107959747314453125 0.006074764300137758255004882812 0 0 0 0 
2404666666.6666665077 0.179200246930122403243856865629 0.041998367756605148315429687500 -0.004511096514761447906494140625 0.006257407832890748977661132812 0 0 0 0 
2404833333.3333334923 0.180961191654205294510049384371 0.040768936276435852050781250000 -0.004212070722132921218872070312 0.006619504652917385101318359375 0 0 0 0 
2405000000.0000000000 0.182526215910911587814169365629 0.039914716035127639770507812500 -0.003670174861326814131495810400 0.006775434594601392745971679688 0 0 0 0 
2405166666.6666665077 0.184209227561950711349325615629 0.039178866893053061748464216407 -0.003277991432696580886840820312 0.006791366264224052429199218750 0 0 0 0 
2405333333.3333334923 0.185856312513351412674111884371 0.038510307669639587402343750000 -0.002859654137864708900451660156 0.006787883117794991406912519238 0 0 0 0 
2405500000.0000000000 0.187512069940566988845986884371 0.038020167499780661846120466407 -0.002599708503112196922302246094 0.006881386041641235351562500000 0 0 0 0 
2405666666.6666665077 0.189025372266769409179687500000 0.037545301020145423198659528907 -0.002080592559650539918186806787 0.007112378720194101333618164062 0 0 0 0 
2405833333.3333334923 0.190546184778213500976562500000 0.037306915968656539916992187500 -0.001737047452479600906372070312 0.006890940945595502853393554688 0 0 0 0 
2406000000.0000000000 0.191624671220779391189736884371 0.037108413875102996826171875000 -0.001333169289864599921582866138 0.006943620741367340087890625000 0 0 0 0 
2406166666.6666665077 0.193062901496887207031250000000 0.037040822207927696918527971093 -0.001174409873783587975742959131 0.006745599675923585891723632812 0 0 0 0 
2406333333.3333334923 0.194270253181457491775674384371 0.037182200700044631958007812500 -0.000906284956727176904678344727 0.006595020648092032346243573926 0 0 0 0 
2406500000.0000000000 0.195138931274414090255575615629 0.037317447364330291748046875000 -0.000287910603219643180996495380 0.006612175609916448593139648438 0 0 0 0 
2406666666.6666665077 0.195936903357505798339843750000 0.037599444389343261718750000000 -0.000173092485056258710935869760 0.006391522008925676345825195312 0 0 0 0 
2406833333.3333334923 0.196828424930572509765625000000 0.037755016237497329711914062500 -0.000003119010898444685153663158 0.006351133808493614196777343750 0 0 0 0 
2407000000.0000000000 0.197230547666549710372763115629 0.038032870739698410034179687500 0.000207634191610850393772125244 0.006318889558315277099609375000 0 0 0 0 
2407166666.6666665077 0.197873950004577608963174384371 0.038089193403720862651784528907 0.000500465801451355218887329102 0.006300457753241062164306640625 0 0 0 0 
2407333333.3333334923 0.197995051741600008865518134371 0.038579840213060379028320312500 0.000527274329215288162231445312 0.005884870421141386032104492188 0 0 0 0 
2407500000.0000000000 0.198176473379135104080361884371 0.039124745875597000122070312500 0.000757750414777547121047973633 0.005969862453639507293701171875 0 0 0 0 
2407666666.6666665077 0.198214069008827209472656250000 0.039193730801343917846679687500 0.001122663379646837928174663013 0.005802286323159933090209960938 0 0 0 0 
2407833333.3333334923 0.197909697890281705001669365629 0.039396677166223532939870466407 0.001102212350815535025355673682 0.005621983669698238372802734375 0 0 0 0 
2408000000.0000000000 0.197993978857994107345419365629 0.039554104208946228027343750000 0.001239645178429781956913613428 0.005517699755728244781494140625 0 0 0 0 
2408166666.6666665077 0.197543323040008489410723768742 0.039588041603565223003347028907 0.001555508002638817050336528247 0.005424788687378168106079101562 0 0 0 0 
2408333333.3333334923 0.197160840034484891036825615629 0.039508428424596793437917341407 0.001594525063410400910618447412 0.005036788526922464370727539062 0 0 0 0 
2408500000.0000000000 0.196485817432403592208700615629 0.039428371936082839965820312500 0.001728549948893488103981996851 0.005008240230381488800048828125 0 0 0 0 
2408666666.6666665077 0.195829212665557889083700615629 0.039224609732627868652343750000 0.001822106307372451045392680591 0.004720483906567096710205078125 0 0 0 0 
2408833333.3333334923 0.195041134953498812576455634371 0.038807235658168792724609375000 0.001902952790260314941406250000 0.004648481030017138394827558301 0 0 0 0 
2409000000.0000000000 0.193999871611595209319744981258 0.038206242024898529052734375000 0.001957565080374478860142373193 0.004520092159509658813476562500 0 0 0 0 
2409166666.6666665077 0.193100750446319607833700615629 0.037586551159620291973073591407 0.001945526339113712093950581128 0.004297477193176746368408203125 0 0 0 0 
2409333333.3333334923 0.192015588283538790603799384371 0.036864999681711196899414062500 0.001984734088182448907139443506 0.004172355867922306060791015625 0 0 0 0 
2409500000.0000000000 0.190728053450584411621093750000 0.035966962575912482524831403907 0.001839457079768181064008403247 0.003961080219596624374389648438 0 0 0 0 
2409666666.6666665077 0.189604297280311612228231865629 0.034842934459447860717773437500 0.001897665206342935995814658057 0.003890209132805467085597372900 0 0 0 0 
2409833333.3333334923 0.188409015536308288574218750000 0.033533696085214621807057966407 0.001815133262425661087036132812 0.003836970310658216910121298682 0 0 0 0 
2410000000.0000000000 0.187276199460029602050781250000 0.032141346484422676776926408593 0.001781773637048899910570454175 0.003819752717390656904933310400 0 0 0 0 
2410166666.6666665077 0.186027720570564297775106865629 0.030512085184454921377161795704 0.001881018979474901936174702222 0.003891837783157825903651572119 0 0 0 0 
2410333333.3333334923 0.184850528836250305175781250000 0.028905831277370449411412423046 0.001831201720051466984989785303 0.003826946718618274168727255713 0 0 0 0 
2410500000.0000000000 0.183586880564689608474893134371 0.027265675365924838674525076954 0.001765504013746977069257426685 0.003820753889158368110656738281 0 0 0 0 
2410666666.6666665077 0.182463377714157104492187500000 0.025021156296133998525599295704 0.001731816446408628983738564600 0.003835608717054129080531454932 0 0 0 0 
2410833333.3333334923 0.181689098477363586425781250000 0.022895913571119308471679687500 0.001861320692114531993865966797 0.003864580066874622864964150537 0 0 0 0 
2411000000.0000000000 0.180654987692833002288494981258 0.020787840709090229379674141796 0.001829946297220885970472026294 0.003883505240082740783691406250 0 0 0 0 
2411166666.6666665077 0.179663553833961486816406250000 0.018682321533560749399205391796 0.001838428666815161921857524341 0.003890984691679478125331259619 0 0 0 0 
2411333333.3333334923 0.178934052586555508712606865629 0.016113599762320518493652343750 0.001774023752659559033037495190 0.004086419939994812011718750000 0 0 0 0 
2411500000.0000000000 0.178176522254943903167401231258 0.013758092187345029658307460352 0.001890707411803304932237934644 0.003977297339588403701782226562 0 0 0 0 
2411666666.6666665077 0.177674070000648498535156250000 0.011435981839895250147809413477 0.002130965935066341920139931787 0.004093685653060674667358398438 0 0 0 0 
2411833333.3333334923 0.177224934101104708572549384371 0.009085277095437049865722656250 0.002182169351726769967320107568 0.004136547446250916394705487988 0 0 0 0 
2412000000.0000000000 0.177040860056877108474893134371 0.006194897927343845367431640625 0.002270584460347890853881835938 0.004073218908160924911499023438 0 0 0 0 
2412166666.6666665077 0.177039161324501009842080634371 0.003732051467522979216334677588 0.002382399048656225204467773438 0.004158984869718551635742187500 0 0 0 0 
2412333333.3333334923 0.177100971341133089920205634371 0.001037224195897578976274799878 0.002555244369432330131530761719 0.004124887753278017044067382812 0 0 0 0 
2412500000.0000000000 0.177421823143959100921307481258 -0.001500688726082443974138569409 0.002728391671553254127502441406 0.004217160865664482116699218750 0 0 0 0 
2412666666.6666665077 0.177816048264503506759481865629 -0.004119979217648506164550781250 0.002831856254488230185267783057 0.004288740456104279431814862988 0 0 0 0 
2412833333.3333334923 0.178408369421958895584268134371 -0.006708636414259672164916992188 0.002977517200633883909938193213 0.004191408399492502212524414062 0 0 0 0 
2413000000.0000000000 0.179006248712539700607138115629 -0.009160141460597515106201171875 0.003254086244851350784301757812 0.004305973649024963378906250000 0 0 0 0 
2413166666.6666665077 0.179784372448921203613281250000 -0.011718410998582839965820312500 0.003460816340520977973937988281 0.004185091238468885421752929688 0 0 0 0 
2413333333.3333334923 0.180860534310340909103231865629 -0.014263366349041460209856602148 0.003672333201393485069274902344 0.004279676359146833419799804688 0 0 0 0 
2413500000.0000000000 0.181640997529029901702557481258 -0.016906194388866431499440778907 0.003757159924134612083435058594 0.003962069749832153320312500000 0 0 0 0 
2413666666.6666665077 0.182942822575569208343182481258 -0.019270880147814750671386718750 0.004009339027106761932373046875 0.003831075038760900931117392432 0 0 0 0 
2413833333.3333334923 0.183939918875694302657919365629 -0.021412525326013568532923514454 0.004262953065335750579833984375 0.003614926245063542886021279443 0 0 0 0 
2414000000.0000000000 0.185282528400421087066973768742 -0.023718077689409259450892264454 0.004370062146335840225219726562 0.003623415250331162972691201318 0 0 0 0 
2414166666.6666665077 0.186619609594345092773437500000 -0.025799319148063659667968750000 0.004539396148175001144409179688 0.003490571398288011984584189307 0 0 0 0 
2414333333.3333334923 0.187737435102462796310263115629 -0.027907833456993099557896798046 0.004820457659661769866943359375 0.003323174314573407173156738281 0 0 0 0 
2414500000.0000000000 0.189273521304130609710369981258 -0.029590733349323269235631173046 0.004946291446685791015625000000 0.003230909584090114073512411963 0 0 0 0 
2414666666.6666665077 0.190488293766975402832031250000 -0.031363848596811301494557966407 0.005149537231773138046264648438 0.002957414137199521064758300781 0 0 0 0 
2414833333.3333334923 0.191929072141647311111611884371 -0.033060938119888312602956403907 0.005270621273666620254516601562 0.002824323484674096107482910156 0 0 0 0 
2415000000.0000000000 0.193284019827842712402343750000 -0.034475348889827728271484375000 0.005381097085773944854736328125 0.002691839821636676788330078125 0 0 0 0 
2415166666.6666665077 0.194795697927475003341513115629 -0.035692330449819571758229841407 0.005713239777833223342895507812 0.002521215239539742903468466650 0 0 0 0 
2415333333.3333334923 0.196242287755012512207031250000 -0.036952242255210883403737653907 0.005761363543570041656494140625 0.002180740237236022949218750000 0 0 0 0 
2415500000.0000000000 0.197564348578453091720419365629 -0.037647981196641921997070312500 0.005925933830440044403076171875 0.001918664900586009025573730469 0 0 0 0 
2415666666.6666665077 0.198904976248741205413494981258 -0.038756866008043289184570312500 0.005916748661547899246215820312 0.001693755039013921997667622144 0 0 0 0 
2415833333.3333334923 0.200065284967422513107138115629 -0.039489109069108963012695312500 0.006067628040909767150878906250 0.001414703321643173911451030200 0 0 0 0 
2416000000.0000000000 0.201050877571106012542401231258 -0.040090300142765052104909528907 0.006227133329957723617553710938 0.001144768088124692006352089990 0 0 0 0 
2416166666.6666665077 0.202157840132713290115518134371 -0.040788583457469940185546875000 0.006244631949812173843383789062 0.000778404355514794588088989258 0 0 0 0 
2416333333.3333334923 0.203130990266799899002236884371 -0.041029214859008789062500000000 0.006280096247792243957519531250 0.000510739395394921302795410156 0 0 0 0 
2416500000.0000000000 0.203802436590194702148437500000 -0.041336540132761001586914062500 0.006317561026662588119506835938 0.000136837683385238105624598370 0 0 0 0 
2416666666.6666665077 0.204433530569076510330361884371 -0.041653789579868316650390625000 0.006218887399882078170776367188 0.000046157158067217096686363220 0 0 0 0 
2416833333.3333334923 0.204885870218277005294638115629 -0.041688747704029083251953125000 0.006188599392771720886230468750 -0.000397899711970239877700805664 0 0 0 0 
2417000000.0000000000 0.205305173993110712249432481258 -0.041734706610441207885742187500 0.006157497409731149673461914062 -0.000818363972939550876617431641 0 0 0 0 
2417166666.6666665077 0.205250054597854586502236884371 -0.041486822068691246723215471093 0.006070002913475036621093750000 -0.000987818930298089981079101562 0 0 0 0 
2417333333.3333334923 0.205287903547286987304687500000 -0.041276872158050537109375000000 0.005887073930352926254272460938 -0.001074849395081401088117289966 0 0 0 0 
2417500000.0000000000 0.205234676599502591232138115629 -0.041147258132696151733398437500 0.005881806369870901107788085938 -0.001432836288586259105085063403 0 0 0 0 
2417666666.6666665077 0.205002933740615789215411268742 -0.040790643543004989624023437500 0.005586573854088783264160156250 -0.001621244125999510071398090894 0 0 0 0 
2417833333.3333334923 0.204749912023544311523437500000 -0.040505606681108481670339216407 0.005523488856852054595947265625 -0.001711765071377157948137592847 0 0 0 0 
2418000000.0000000000 0.204380631446838406661825615629 -0.039958331733942031860351562500 0.005492386408150196075439453125 -0.001943208160810172991511679541 0 0 0 0 
2418166666.6666665077 0.203676983714103698730468750000 -0.039910204708576202392578125000 0.005422709975391626358032226562 -0.002161458600312470956089638818 0 0 0 0 
2418333333.3333334923 0.203032732009887695312500000000 -0.039481215178966522216796875000 0.005347773432731628417968750000 -0.002319511957466601891758584131 0 0 0 0 
2418500000.0000000000 0.202231600880622891525106865629 -0.039285104721784591674804687500 0.005035269074141979217529296875 -0.002509627491235733032226562500 0 0 0 0 
2418666666.6666665077 0.201242491602897588531817518742 -0.038907252252101898193359375000 0.005087518133223056793212890625 -0.002729625906795262856724404443 0 0 0 0 
2418833333.3333334923 0.200104549527168301681356865629 -0.038999907672405242919921875000 0.004851859062910079956054687500 -0.002768911188468337059020996094 0 0 0 0 
2419000000.0000000000 0.198820874094963101486044365629 -0.038766741752624511718750000000 0.004700050223618745803833007812 -0.003020667238160967826843261719 0 0 0 0 
2419166666.6666665077 0.197678118944168090820312500000 -0.038911189883947372436523437500 0.004672528710216283798217773438 -0.003089983714744449095485068213 0 0 0 0 
2419333333.3333334923 0.196248412132263211349325615629 -0.039071530103683471679687500000 0.004422808066010475158691406250 -0.003270529210567473931553506006 0 0 0 0 
2419500000.0000000000 0.194677114486694308181924384371 -0.039451014250516891479492187500 0.004186799284070730209350585938 -0.003349868347868322892429970850 0 0 0 0 
2419666666.6666665077 0.193085193634033203125000000000 -0.040041405707597732543945312500 0.004096870776265859603881835938 -0.003420752938836812973022460938 0 0 0 0 
2419833333.3333334923 0.191363319754600497146768134371 -0.040521111339330673217773437500 0.003908671904355288419241620801 -0.003626797115430235862731933594 0 0 0 0 
2420000000.0000000000 0.189786404371261596679687500000 -0.041099134832620620727539062500 0.003690616227686405181884765625 -0.003628954524174333052394247900 0 0 0 0 
