# Hz S RI R 50
2400000000.0000000000 0.155009269714355496505575615629 0.106394246220588697959819057814 0.003608498489484190940856933594 -0.006081667728722096356863691113 0 0 0 0 
2400166666.6666665077 0.154834508895873995681924384371 0.103920020163059206863565009371 0.003434706013649702072143554688 -0.006085923872888088226318359375 0 0 0 0 
2400333333.3333334923 0.154882848262786892989950615629 0.101665757596492795089559990629 0.003394948551431297822239541162 -0.006172055844217538833618164062 0 0 0 0 
2400500000.0000000000 0.154795289039611788650674384371 0.098924383521080017089843750000 0.003538431599736214117762900244 -0.006481828633695840835571289062 0 0 0 0 
2400666666.6666665077 0.154961839318275507171307481258 0.096509501338005065917968750000 0.003321257652714848952052451025 -0.006649817340075969696044921875 0 0 0 0 
2400833333.3333334923 0.155187621712684603592080634371 0.093562550842761993408203125000 0.003307793289422988891601562500 -0.006695119198411703109741210938 0 0 0 0 
2401000000.0000000000 0.155340731143951388260049384371 0.090721316635608673095703125000 0.003172092372551559968235634912 -0.006998967844992876052856445312 0 0 0 0 
2401166666.6666665077 0.155606672167777987381143134371 0.088117614388465881347656250000 0.002983145648613572120666503906 -0.007428206503391265869140625000 0 0 0 0 
2401333333.3333334923 0.155892640352249201018963731258 0.085136309266090393066406250000 0.002796729560941458182093954932 -0.007790241856127977371215820312 0 0 0 0 
2401500000.0000000000 0.156485006213188199142294365629 0.082237109541893005371093750000 0.002404827624559402899501181494 -0.008056123740971088409423828125 0 0 0 0 
2401666666.6666665077 0.156810462474822998046875000000 0.079559214413166046142578125000 0.002193255349993706183192587744 -0.008304121904075145721435546875 0 0 0 0 
2401833333.3333334923 0.157421529293060302734375000000 0.076658539474010467529296875000 0.001689221942797302982927631909 -0.008378760889172554016113281250 0 0 0 0 
2402000000.0000000000 0.158237800002098111251669365629 0.073985464870929718017578125000 0.001220754231326282024383544922 -0.008663857355713844299316406250 0 0 0 0 
2402166666.6666665077 0.159084543585777310470419365629 0.071440681815147399902343750000 0.000764619093388319015502929688 -0.008845718577504158020019531250 0 0 0 0 
2402333333.3333334923 0.160026326775550786774005018742 0.068687416613101959228515625000 0.000456904672319069504737854004 -0.008939983323216438293457031250 0 0 0 0 
2402500000.0000000000 0.161287739872932406326455634371 0.066016003489494323730468750000 -0.000148327249917201697826385498 -0.009076084010303020477294921875 0 0 0 0 
2402666666.6666665077 0.162365421652793912032919365629 0.064017392694950103759765625000 -0.000739278446417301893234252930 -0.009022933430969715118408203125 0 0 0 0 
2402833333.3333334923 0.163626447319984408279580634371 0.061445575207471847534179687500 -0.001193875330500304915784526294 -0.008976207114756107330322265625 0 0 0 0 
2403000000.0000000000 0.165358752012252807617187500000 0.059069465845823287963867187500 -0.001724599744193255901336669922 -0.008964756503701210021972656250 0 0 0 0 
2403166666.6666665077 0.166894361376762390136718750000 0.056912939995527267456054687500 -0.002446261467412114143371582031 -0.008826117962598800659179687500 0 0 0 0 
2403333333.3333334923 0.168198004364967401702557481258 0.054923068732023239135742187500 -0.002783538075163960890529013525 -0.008505025878548622131347656250 0 0 0 0 
2403500000.0000000000 0.169963181018829401214276231258 0.052794683724641799926757812500 -0.003218621248379350142237997900 -0.008170349523425102233886718750 0 0 0 0 
2403666666.6666665077 0.171678274869918795486611884371 0.050869923084974288940429687500 -0.003769421484321355819702148438 -0.007933733053505420684814453125 0 0 0 0 
2403833333.3333334923 0.173293694853782709319744981258 0.049163140356540679931640625000 -0.004015299957245588302612304688 -0.007573320530354976654052734375 0 0 0 0 
2404000000.0000000000 0.174769416451454190353231865629 0.047490410506725311279296875000 -0.004286321811378002166748046875 -0.007014095783233642578125000000 0 0 0 0 
2404166666.6666665077 0.176575079560279901702557481258 0.046110570430755622173268903907 -0.004627521615475416183471679688 -0.006713011302053928375244140625 0 0 0 0 
2404333333.3333334923 0.178107678890228299239950615629 0.044583421200513839721679687500 -0.004777113441377878189086914062 -0.006245584227144718170166015625 0 0 0 0 
2404500000.0000000000 0.179740726947784396072549384371 0.043195463716983802104909528907 -0.004996383562684059143066406250 -0.006053694989532232284545898438 0 0 0 0 
2404666666.6666665077 0.181291922926902798751669365629 0.042315177619457251811940778907 -0.005125548224896193418020917676 -0.005645339842885732650756835938 0 0 0 0 
2404833333.3333334923 0.182919859886169405838174384371 0.041183643043041229248046875000 -0.005113469902426004409790039062 -0.005259784404188395413870527051 0 0 0 0 
2405000000.0000000000 0.184131428599357604980468750000 0.040555164217948906635324846093 -0.004976024385541678342337323926 -0.004956958815455436706542968750 0 0 0 0 
2405166666.6666665077 0.185689792037010192871093750000 0.039841655641794211650807966407 -0.005128754302859306335449218750 -0.004754601046442986402029706738 0 0 0 0 
2405333333.3333334923 0.187073260545730590820312500000 0.039441231638193130493164062500 -0.005247843917459250363821698926 -0.004603641573339700698852539062 0 0 0 0 
2405500000.0000000000 0.188467994332313509842080634371 0.038928043097257607196848283593 -0.005323544610291718569283769824 -0.004355117678642272949218750000 0 0 0 0 
2405666666.6666665077 0.189579203724861200530682481258 0.038546547293663031841237653907 -0.005362386349588632583618164062 -0.004148168023675680160522460938 0 0 0 0 
2405833333.3333334923 0.190811723470687893966513115629 0.038343757390975952148437500000 -0.005407712422311305999755859375 -0.003914134576916694641113281250 0 0 0 0 
2406000000.0000000000 0.191827088594436701018963731258 0.038121111690998077392578125000 -0.005464138463139533996582031250 -0.003682484850287437005283974756 0 0 0 0 
2406166666.6666665077 0.192742347717285211761151231258 0.038166970014572136615793596093 -0.005286482628434897336477948926 -0.003433291800320148901698447119 0 0 0 0 
2406333333.3333334923 0.193567261099815396407919365629 0.038112126290798187255859375000 -0.005556463263928890228271484375 -0.003264480037614703178405761719 0 0 0 0 
2406500000.0000000000 0.194345623254776000976562500000 0.038085464388132102275807966407 -0.005567877553403378400320722363 -0.002930420450866221947910927881 0 0 0 0 
2406666666.6666665077 0.195019334554672213455361884371 0.038149885833263397216796875000 -0.005591546185314655303955078125 -0.002791653387248516082763671875 0 0 0 0 
2406833333.3333334923 0.195416614413261413574218750000 0.038071207702159881591796875000 -0.005564961116760969161987304688 -0.002589367097243667082545615088 0 0 0 0 
2407000000.0000000000 0.195792526006698608398437500000 0.038176398724317550659179687500 -0.005568531341850757598876953125 -0.002248689997941256003138876807 0 0 0 0 
2407166666.6666665077 0.196064934134483309646768134371 0.037910219281911849975585937500 -0.005332366097718477249145507812 -0.001916739623993634960771870190 0 0 0 0 
2407333333.3333334923 0.196018815040588406661825615629 0.038239404559135437011718750000 -0.005413802340626716613769531250 -0.001815965748392045931575156104 0 0 0 0 
2407500000.0000000000 0.195874392986297607421875000000 0.038242220878601067279856096093 -0.005345775745809078216552734375 -0.001702861045487225055694580078 0 0 0 0 
2407666666.6666665077 0.195950627326965304275674384371 0.038014657795429229736328125000 -0.005198407918214797973632812500 -0.001404352718964219093322753906 0 0 0 0 
2407833333.3333334923 0.195492401719093294998330634371 0.037821616977453231811523437500 -0.005133226979523897171020507812 -0.001343256444670259952545166016 0 0 0 0 
2408000000.0000000000 0.195406377315521212478799384371 0.037722893059253692626953125000 -0.005004080943763256072998046875 -0.001248915563337505080579448169 0 0 0 0 
2408166666.6666665077 0.194681242108345003982705634371 0.037304323166608810424804687500 -0.004867183510214090347290039062 -0.001002453849650919003727578271 0 0 0 0 
2408333333.3333334923 0.194194212555885287185830634371 0.036791063845157623291015625000 -0.004791237879544497403616620801 -0.000930526468437165021896362305 0 0 0 0 
2408500000.0000000000 0.193560183048248291015625000000 0.036285933107137680053710937500 -0.004649402573704720410818769238 -0.000913468014914542436599731445 0 0 0 0 
2408666666.6666665077 0.192971259355544988434161268742 0.035710424184799187397043596093 -0.004506596829742193222045898438 -0.000781733542680740356445312500 0 0 0 0 
2408833333.3333334923 0.192313194274902288238848768742 0.035029847174882888793945312500 -0.004557983484119176864624023438 -0.000924482534173876047134399414 0 0 0 0 
2409000000.0000000000 0.191285878419876098632812500000 0.033988334238529212261159528907 -0.004461809527128934860229492188 -0.000801511108875274658203125000 0 0 0 0 
2409166666.6666665077 0.190316483378410311599893134371 0.033026181161403662944753278907 -0.004315072204917669296264648438 -0.000798904395196586847305297852 0 0 0 0 
2409333333.3333334923 0.189295068383216913421307481258 0.031885325908660888671875000000 -0.004319335799664258956909179688 -0.000743742042686790227890014648 0 0 0 0 
2409500000.0000000000 0.188382461667060907561932481258 0.030621264129877090454101562500 -0.004282196052372455596923828125 -0.000787643017247319221496582031 0 0 0 0 
2409666666.6666665077 0.187389954924583407303018134371 0.029054174199700358999232108204 -0.004247822333127260208129882812 -0.000603370135650038719177246094 0 0 0 0 
2409833333.3333334923 0.186267539858818109710369981258 0.027619019150733951223353201954 -0.004190188366919755935668945312 -0.000474392873002216219902038574 0 0 0 0 
2410000000.0000000000 0.185420066118240411956463731258 0.025776861235499378549596016796 -0.004226687364280223846435546875 -0.000527713797055184841156005859 0 0 0 0 
2410166666.6666665077 0.184425398707389803787393134371 0.023905482143163681030273437500 -0.004183444660156965255737304688 -0.000675129937008023262023925781 0 0 0 0 
2410333333.3333334923 0.183500856161117609222088731258 0.022290717810392379760742187500 -0.004223446361720561981201171875 -0.000664277351461350917816162109 0 0 0 0 
2410500000.0000000000 0.182468086481094388107138115629 0.020258476957678798330286795704 -0.004188979510217905044555664062 -0.000475711072795093113749903546 0 0 0 0 
2410666666.6666665077 0.181677028536796597579794365629 0.017841244116425510751744454296 -0.004286494106054306030273437500 -0.000535862578544765710830688477 0 0 0 0 
2410833333.3333334923 0.180970758199691800216513115629 0.015717554837465289724329764454 -0.004067128989845514297485351562 -0.000567746756132692098617553711 0 0 0 0 
2411000000.0000000000 0.180266588926315307617187500000 0.013472049497067930048932460352 -0.004268647171556949615478515625 -0.000586267386097460985183715820 0 0 0 0 
2411166666.6666665077 0.179539740085601806640625000000 0.011305353604257110250452811329 -0.004219013266265392303466796875 -0.000668401829898357391357421875 0 0 0 0 
2411333333.3333334923 0.179216206073760986328125000000 0.008861847221851348876953125000 -0.004337646998465061187744140625 -0.000709573563653975725173950195 0 0 0 0 
2411500000.0000000000 0.178576737642288208007812500000 0.006460269913077354431152343750 -0.004651064984500408172607421875 -0.000739349576178938150405883789 0 0 0 0 
2411666666.6666665077 0.178506314754486111739950615629 0.004014139063656330108642578125 -0.004580289125442504882812500000 -0.000790797115769237279891967773 0 0 0 0 
2411833333.3333334923 0.178180724382400512695312500000 0.001690326142124831893323588794 -0.004842027090489864349365234375 -0.000729567953385412693023681641 0 0 0 0 
2412000000.0000000000 0.178209081292152404785156250000 -0.000994164962321519851684570312 -0.005054156761616468429565429688 -0.000615535362157970666885375977 0 0 0 0 
2412166666.6666665077 0.178314834833145113845986884371 -0.003333967179059981866123818506 -0.005239577498286963376517011426 -0.000498712528496980667114257812 0 0 0 0 
2412333333.3333334923 0.178519427776336697677450615629 -0.005757743492722511291503906250 -0.005293091293424367904663085938 -0.000527637894265353679656982422 0 0 0 0 
2412500000.0000000000 0.179071441292762811858807481258 -0.008012762293219566345214843750 -0.005408706143498420715332031250 -0.000357905286364257281452733173 0 0 0 0 
2412666666.6666665077 0.179454773664474487304687500000 -0.010501603595912459981898123829 -0.005661873146891593933105468750 -0.000173532811459153890609741211 0 0 0 0 
2412833333.3333334923 0.180213913321495111663494981258 -0.012977003119885919743548008398 -0.005769670940935611724853515625 0.000080959296610672026872634888 0 0 0 0 
2413000000.0000000000 0.180757269263267489334268134371 -0.015086900442838670557965663477 -0.006102443207055330276489257812 0.000286834576399996876716613770 0 0 0 0 
2413166666.6666665077 0.181706115603446988204794365629 -0.017153272405266758310338204296 -0.006232593674212694168090820312 0.000585772038903087377548217773 0 0 0 0 
2413333333.3333334923 0.182727873325347900390625000000 -0.019620787352323528635045235546 -0.006253908853977918624877929688 0.000947504013311117887496948242 0 0 0 0 
2413500000.0000000000 0.183573514223098810393963731258 -0.021710628643631938589075858204 -0.006433912087231875333304120801 0.001172131276689470031140971606 0 0 0 0 
2413666666.6666665077 0.184753730893135098556356865629 -0.023826805874705321575124372657 -0.006574855186045169830322265625 0.001567935221828520081163715894 0 0 0 0 
2413833333.3333334923 0.185942053794860812088174384371 -0.025816539302468299865722656250 -0.006444025784730911254882812500 0.001957938075065612792968750000 0 0 0 0 
2414000000.0000000000 0.186871960759162902832031250000 -0.027549266815185550344446951954 -0.006359315011650323867797851562 0.002450641011819242997410439600 0 0 0 0 
2414166666.6666665077 0.188208073377609308440838731258 -0.029292311519384380685826485546 -0.006328046787530183792114257812 0.002901337575167417959925986182 0 0 0 0 
2414333333.3333334923 0.189328685402870205978231865629 -0.031328603625297553325612653907 -0.006240779533982276916503906250 0.003245473839342594146728515625 0 0 0 0 
2414500000.0000000000 0.190525665879249600509481865629 -0.032606706023216247558593750000 -0.005788811948150396347045898438 0.003590468550100923018214560400 0 0 0 0 
2414666666.6666665077 0.191739261150360107421875000000 -0.034010387957096099853515625000 -0.005686054006218910217285156250 0.003802013117820024924037314307 0 0 0 0 
2414833333.3333334923 0.192837953567504910568075615629 -0.035440649837255477905273437500 -0.005464603193104267120361328125 0.004002931062132120132446289062 0 0 0 0 
2415000000.0000000000 0.194033652544021606445312500000 -0.036743793636560440063476562500 -0.005224094260483980178833007812 0.004222830291837453842163085938 0 0 0 0 
2415166666.6666665077 0.195191666483879089355468750000 -0.037660453468561172485351562500 -0.004935631062835454940795898438 0.004458658397197723388671875000 0 0 0 0 
2415333333.3333334923 0.196246713399887112716513115629 -0.038507826626300811767578125000 -0.004718078300356864929199218750 0.004580889362841845426077558301 0 0 0 0 
2415500000.0000000000 0.197332441806793212890625000000 -0.039246659725904471660573591407 -0.004585438407957553863525390625 0.004735415335744619369506835938 0 0 0 0 
2415666666.6666665077 0.198236748576164301116619981258 -0.040078766644001007080078125000 -0.004320558160543441772460937500 0.004900335334241390228271484375 0 0 0 0 
2415833333.3333334923 0.199110195040702792068643134371 -0.040557209402322769165039062500 -0.004132555332034826278686523438 0.005216398742049933347220136426 0 0 0 0 
2416000000.0000000000 0.199810132384300204178018134371 -0.041195921599864959716796875000 -0.003962308168411254882812500000 0.005116940476000308990478515625 0 0 0 0 
2416166666.6666665077 0.200653985142707796951455634371 -0.041646800935268402099609375000 -0.003705859649926424026489257812 0.005345176905393601331228925488 0 0 0 0 
2416333333.3333334923 0.201181888580322293380575615629 -0.042046464979648590087890625000 -0.003479170147329568862915039062 0.005662023555487394332885742188 0 0 0 0 
2416500000.0000000000 0.201617836952209500411825615629 -0.042208511382341391826589216407 -0.003360367845743895010707236182 0.005764726083725690841674804688 0 0 0 0 
2416666666.6666665077 0.201835170388221712967080634371 -0.042501170188188552856445312500 -0.003108903998509048981907509912 0.005909488070756196975708007812 0 0 0 0 
2416833333.3333334923 0.201959416270255986969317518742 -0.042562194168567657470703125000 -0.002828426891937851905822753906 0.006157707422971726331228925488 0 0 0 0 
2417000000.0000000000 0.202221080660820007324218750000 -0.042731530964374542236328125000 -0.002508735749870539145228720557 0.006238396279513835906982421875 0 0 0 0 
2417166666.6666665077 0.201740354299545288085937500000 -0.042617868632078170776367187500 -0.002197209279984236197230673682 0.006276619620621204376220703125 0 0 0 0 
2417333333.3333334923 0.201595529913902310470419365629 -0.042359877377748489379882812500 -0.001839339267462491989135742188 0.006261167116463184356689453125 0 0 0 0 
2417500000.0000000000 0.201214566826820401290731865629 -0.042551502585411071777343750000 -0.001565227517858148054835654150 0.006545679643750190734863281250 0 0 0 0 
2417666666.6666665077 0.200653925538063104827557481258 -0.042322669178247451782226562500 -0.001143488101661205074907612378 0.006373640149831771850585937500 0 0 0 0 
2417833333.3333334923 0.200222715735435513595419365629 -0.042160097509622566913645158593 -0.001003580517135560946223593604 0.006318660452961921691894531250 0 0 0 0 
2418000000.0000000000 0.199440807104110690017861884371 -0.041982162743806838989257812500 -0.000471074163215234875679016113 0.006256831809878349304199218750 0 0 0 0 
2418166666.6666665077 0.198685318231582613845986884371 -0.041907571256160743022878278907 -0.000196737193618901101037702017 0.006141822319477797421927167676 0 0 0 0 
2418333333.3333334923 0.197759807109832791427450615629 -0.041755892336368560791015625000 0.000005416245130618335679173470 0.006019698455929756164550781250 0 0 0 0 
2418500000.0000000000 0.196631923317909212967080634371 -0.041856102645397193218190778907 0.000322513311402872204780578613 0.005914110224694013595581054688 0 0 0 0 
2418666666.6666665077 0.195754542946815490722656250000 -0.041813354939222342754323591407 0.000426355021772906184196472168 0.005715011619031429290771484375 0 0 0 0 
2418833333.3333334923 0.194464057683944702148437500000 -0.042010623961687088012695312500 0.000665128463879227638244628906 0.005576165858656167984008789062 0 0 0 0 
2419000000.0000000000 0.193033963441848810393963731258 -0.042202603071928017353098283593 0.000887517642695456743240356445 0.005375351756811141967773437500 0 0 0 0 
2419166666.6666665077 0.191883966326713589767294365629 -0.042476788163185119628906250000 0.001016506925225258090375590747 0.005293459631502628326416015625 0 0 0 0 
2419333333.3333334923 0.190510079264640808105468750000 -0.043010529130697250366210937500 0.001200295053422451019287109375 0.005015117581933736801147460938 0 0 0 0 
2419500000.0000000000 0.189037457108497591873330634371 -0.043459780514240271831472028907 0.001287639373913406892063759912 0.004863326437771320343017578125 0 0 0 0 
2419666666.6666665077 0.187286257743835504729901231258 -0.044270191341638572002370466407 0.001483380561694503047345805591 0.004817168693989515304565429688 0 0 0 0 
2419833333.3333334923 0.185783892869949313064736884371 -0.044955108314752578735351562500 0.001353803905658423900604248047 0.004523019306361675262451171875 0 0 0 0 
