# Version 1.00
#
freq[Hz];re:Trc1_S11;im:Trc1_S11;re:Trc2_S21;im:Trc2_S21;
2.400000000000000E+009;1.550842225551605E-001;1.065208911895752E-001;-1.541815698146820E-003;-4.359726794064045E-003;
2.400166666666667E+009;1.547882258892059E-001;1.042406931519508E-001;-1.787625602446497E-003;-4.302649758756161E-003;
2.400333333333334E+009;1.548807770013809E-001;1.018717288970947E-001;-2.023638226091862E-003;-4.243560601025820E-003;
2.400500000000000E+009;1.549253910779953E-001;9.921155869960785E-002;-2.209343481808901E-003;-3.985869232565165E-003;
2.400666666666667E+009;1.550216525793076E-001;9.676236659288406E-002;-2.516700653359294E-003;-4.031278192996979E-003;
2.400833333333334E+009;1.549701541662216E-001;9.389477223157883E-002;-2.601350191980600E-003;-3.862171433866024E-003;
2.401000000000000E+009;1.552579700946808E-001;9.087818115949631E-002;-2.678871154785156E-003;-3.575135953724384E-003;
2.401166666666667E+009;1.553700417280197E-001;8.828538656234741E-002;-2.815803280100226E-003;-3.469026880338788E-003;
2.401333333333334E+009;1.556394100189209E-001;8.561649918556213E-002;-2.840336877852678E-003;-3.419145010411739E-003;
2.401500000000000E+009;1.561373472213745E-001;8.265202492475510E-002;-2.928456524387002E-003;-3.305889200419188E-003;
2.401666666666667E+009;1.565442830324173E-001;7.993770390748978E-002;-2.910125767812133E-003;-3.110800636932254E-003;
2.401833333333334E+009;1.571464985609055E-001;7.723536342382431E-002;-3.027464495971799E-003;-3.184740664437413E-003;
2.402000000000000E+009;1.579737514257431E-001;7.444421201944351E-002;-3.174075158312917E-003;-3.039799164980650E-003;
2.402166666666667E+009;1.590294986963272E-001;7.189365476369858E-002;-3.154370700940490E-003;-2.889770315960050E-003;
2.402333333333334E+009;1.600461602210999E-001;6.921138614416122E-002;-3.322770586237311E-003;-2.934995340183377E-003;
2.402500000000000E+009;1.612153500318527E-001;6.676700711250305E-002;-3.522783517837524E-003;-2.872432582080364E-003;
2.402666666666667E+009;1.621943414211273E-001;6.443558633327484E-002;-3.554945345968008E-003;-2.772381296381354E-003;
2.402833333333334E+009;1.636184900999069E-001;6.204827129840851E-002;-3.677848493680358E-003;-2.639316720888019E-003;
2.403000000000000E+009;1.650776267051697E-001;5.975774675607681E-002;-3.851189743727446E-003;-2.630476839840412E-003;
2.403166666666667E+009;1.668305844068527E-001;5.761349201202393E-002;-3.938966430723667E-003;-2.492076717317104E-003;
2.403333333333334E+009;1.681875586509705E-001;5.531816184520721E-002;-4.062438383698463E-003;-2.383233979344368E-003;
2.403500000000000E+009;1.700484603643417E-001;5.329704284667969E-002;-4.348808433860540E-003;-2.111732261255384E-003;
2.403666666666667E+009;1.716236025094986E-001;5.147432163357735E-002;-4.332534503191710E-003;-1.856914721429348E-003;
2.403833333333334E+009;1.733678132295609E-001;4.975067451596260E-002;-4.442104604095221E-003;-1.596168265677989E-003;
2.404000000000000E+009;1.747818291187286E-001;4.799583926796913E-002;-4.552728496491909E-003;-1.391477300785482E-003;
2.404166666666667E+009;1.766280233860016E-001;4.644415527582169E-002;-4.722943529486656E-003;-1.186243374831975E-003;
2.404333333333334E+009;1.782430410385132E-001;4.499050229787827E-002;-4.437820520251989E-003;-9.455183171667159E-004;
2.404500000000000E+009;1.797603368759155E-001;4.360732063651085E-002;-4.462580196559429E-003;-7.513746386393905E-004;
2.404666666666667E+009;1.814507097005844E-001;4.241887852549553E-002;-4.604632966220379E-003;-4.183991404715926E-004;
2.404833333333334E+009;1.832137107849121E-001;4.153307899832726E-002;-4.437964409589768E-003;-2.137049013981596E-004;
2.405000000000000E+009;1.843633949756622E-001;4.072412848472595E-002;-4.429228603839874E-003;-1.019776027533226E-005;
2.405166666666667E+009;1.858591139316559E-001;4.000543057918549E-002;-4.319442436099052E-003;-2.854244121408556E-005;
2.405333333333334E+009;1.872946619987488E-001;3.941505774855614E-002;-4.161571618169546E-003;2.928356116171926E-004;
2.405500000000000E+009;1.886754930019379E-001;3.912386298179627E-002;-4.124473780393601E-003;3.477332065813243E-004;
2.405666666666667E+009;1.897971779108048E-001;3.857318311929703E-002;-3.900707466527820E-003;4.422326746862382E-004;
2.405833333333334E+009;1.911066770553589E-001;3.843762353062630E-002;-3.722000401467085E-003;5.204509943723679E-004;
2.406000000000000E+009;1.920817345380783E-001;3.819048404693604E-002;-3.680080175399780E-003;7.319039432331920E-004;
2.406166666666667E+009;1.930638402700424E-001;3.801686689257622E-002;-3.661020658910275E-003;7.054553716443479E-004;
2.406333333333334E+009;1.939331144094467E-001;3.802739456295967E-002;-3.372462000697851E-003;9.025850449688733E-004;
2.406500000000000E+009;1.946908533573151E-001;3.798525780439377E-002;-3.387427655979991E-003;9.476908016949892E-004;
2.406666666666667E+009;1.952138096094132E-001;3.811264038085938E-002;-3.193340962752700E-003;8.564871386624873E-004;
2.406833333333334E+009;1.957315653562546E-001;3.807735070586205E-002;-3.264976898208261E-003;1.018968643620610E-003;
2.407000000000000E+009;1.960115432739258E-001;3.815905749797821E-002;-3.105047391727567E-003;1.065028365701437E-003;
2.407166666666667E+009;1.963437199592590E-001;3.788975253701210E-002;-2.989723114296794E-003;9.830563794821501E-004;
2.407333333333334E+009;1.963263899087906E-001;3.819805383682251E-002;-3.007675288245082E-003;8.864747942425311E-004;
2.407500000000000E+009;1.961998939514160E-001;3.819513693451881E-002;-2.879523672163487E-003;8.856335771270096E-004;
2.407666666666667E+009;1.962455809116364E-001;3.785330429673195E-002;-2.675498370081186E-003;9.928072104230523E-004;
2.407833333333334E+009;1.957597434520721E-001;3.784381225705147E-002;-2.794828033074737E-003;9.339389507658780E-004;
2.408000000000000E+009;1.956605613231659E-001;3.756535053253174E-002;-2.862715627998114E-003;1.036513596773148E-003;
2.408166666666667E+009;1.951562166213989E-001;3.737079724669457E-002;-2.750904066488147E-003;8.855573250912130E-004;
2.408333333333334E+009;1.946187615394592E-001;3.666267544031143E-002;-2.710772678256035E-003;8.518365211784840E-004;
2.408500000000000E+009;1.938565969467163E-001;3.642244264483452E-002;-2.790327416732907E-003;8.161375881172717E-004;
2.408666666666667E+009;1.931442767381668E-001;3.578904643654823E-002;-2.712169662117958E-003;9.853900410234928E-004;
2.408833333333334E+009;1.926086992025375E-001;3.500880673527718E-002;-2.860429696738720E-003;7.449907134287059E-004;
2.409000000000000E+009;1.916787028312683E-001;3.403164073824883E-002;-2.926880260929465E-003;8.922163979150355E-004;
2.409166666666667E+009;1.906921416521072E-001;3.296995535492897E-002;-2.822314156219363E-003;9.742177790030837E-004;
2.409333333333334E+009;1.897039413452148E-001;3.186264634132385E-002;-2.762632211670280E-003;7.701537688262761E-004;
2.409500000000000E+009;1.886703819036484E-001;3.057784028351307E-002;-2.788628917187452E-003;9.336035000160337E-004;
2.409666666666667E+009;1.877062171697617E-001;2.911854349076748E-002;-2.942285034805536E-003;6.716681527905166E-004;
2.409833333333334E+009;1.866534352302551E-001;2.759527601301670E-002;-2.867991570383310E-003;9.349492611363530E-004;
2.410000000000000E+009;1.857216358184815E-001;2.604751475155354E-002;-2.860427601262927E-003;8.649205556139350E-004;
2.410166666666667E+009;1.847148537635803E-001;2.419598773121834E-002;-3.072037827223539E-003;9.212792501784861E-004;
2.410333333333334E+009;1.837534904479981E-001;2.234178222715855E-002;-3.139830892905593E-003;8.118750411085784E-004;
2.410500000000000E+009;1.828496009111404E-001;2.045328170061112E-002;-3.098169341683388E-003;9.677067864686251E-004;
2.410666666666667E+009;1.819381564855576E-001;1.807977631688118E-002;-3.252938156947494E-003;1.018849201500416E-003;
2.410833333333334E+009;1.813214719295502E-001;1.588266156613827E-002;-3.318401752039790E-003;1.091366983018816E-003;
2.411000000000000E+009;1.805578470230103E-001;1.363105047494173E-002;-3.322057658806443E-003;1.023572171106935E-003;
2.411166666666667E+009;1.799234896898270E-001;1.148967631161213E-002;-3.378124441951513E-003;1.132084056735039E-003;
2.411333333333334E+009;1.794416308403015E-001;8.988519199192524E-003;-3.425482427701354E-003;1.411598292179406E-003;
2.411500000000000E+009;1.790578514337540E-001;6.675179582089186E-003;-3.396681509912014E-003;1.365514472126961E-003;
2.411666666666667E+009;1.788902729749680E-001;4.317845217883587E-003;-3.638057969510555E-003;1.345589640550315E-003;
2.411833333333334E+009;1.785064637660980E-001;1.862532459199429E-003;-3.703845199197531E-003;1.436874968931079E-003;
2.412000000000000E+009;1.787550747394562E-001;-6.986423395574093E-004;-3.643642645329237E-003;1.495106029324234E-003;
2.412166666666667E+009;1.787321418523789E-001;-2.933828858658671E-003;-3.919519949704409E-003;1.784907304681838E-003;
2.412333333333334E+009;1.791595220565796E-001;-5.368057172745466E-003;-3.814727766439319E-003;1.882954267784953E-003;
2.412500000000000E+009;1.794020533561707E-001;-7.842136546969414E-003;-4.117329139262438E-003;2.107957378029823E-003;
2.412666666666667E+009;1.799764037132263E-001;-1.043844595551491E-002;-4.119005054235458E-003;2.237843116745353E-003;
2.412833333333334E+009;1.804990768432617E-001;-1.288298517465591E-002;-4.126496613025665E-003;2.372751943767071E-003;
2.413000000000000E+009;1.813142299652100E-001;-1.486710272729397E-002;-4.407534841448069E-003;2.608597278594971E-003;
2.413166666666667E+009;1.820781528949738E-001;-1.726416684687138E-002;-4.427518695592880E-003;2.888114657253027E-003;
2.413333333333334E+009;1.829815357923508E-001;-1.948595233261585E-002;-4.410177003592253E-003;2.928567351773381E-003;
2.413500000000000E+009;1.839163303375244E-001;-2.164355665445328E-002;-4.417356569319964E-003;3.489787457510829E-003;
2.413666666666667E+009;1.850943118333817E-001;-2.380026504397392E-002;-4.355472046881914E-003;3.942057956010103E-003;
2.413833333333334E+009;1.862125247716904E-001;-2.584630995988846E-002;-4.339089151471853E-003;4.039840307086706E-003;
2.414000000000000E+009;1.873105913400650E-001;-2.769124694168568E-002;-4.341353196650744E-003;4.334992729127407E-003;
2.414166666666667E+009;1.885657459497452E-001;-2.938844822347164E-002;-4.110488574951887E-003;4.713837523013353E-003;
2.414333333333334E+009;1.895699650049210E-001;-3.121511824429035E-002;-3.903559874743223E-003;5.170310847461224E-003;
2.414500000000000E+009;1.908119171857834E-001;-3.278480470180512E-002;-3.805914428085089E-003;5.429882090538740E-003;
2.414666666666667E+009;1.920361369848251E-001;-3.431487455964088E-002;-3.469914663583040E-003;5.603582132607698E-003;
2.414833333333334E+009;1.929926723241806E-001;-3.552458062767983E-002;-3.104566829279065E-003;5.863965954631567E-003;
2.415000000000000E+009;1.941995769739151E-001;-3.674357384443283E-002;-3.040492301806808E-003;6.252160295844078E-003;
2.415166666666667E+009;1.952031850814819E-001;-3.798187896609306E-002;-2.666628221049905E-003;6.427989341318607E-003;
2.415333333333334E+009;1.964655667543411E-001;-3.867546841502190E-002;-2.457604277879000E-003;6.564727518707514E-003;
2.415500000000000E+009;1.975366324186325E-001;-3.946248814463615E-002;-1.872527529485524E-003;6.607598625123501E-003;
2.415666666666667E+009;1.986321061849594E-001;-4.038833081722260E-002;-1.692598219960928E-003;6.825316231697798E-003;
2.415833333333334E+009;1.994127929210663E-001;-4.101628065109253E-002;-1.213180948980153E-003;6.978613324463368E-003;
2.416000000000000E+009;2.000577151775360E-001;-4.154094681143761E-002;-1.028283615596592E-003;7.097163237631321E-003;
2.416166666666667E+009;2.007996886968613E-001;-4.205991327762604E-002;-5.519409314729273E-004;7.028223946690559E-003;
2.416333333333334E+009;2.013566493988037E-001;-4.225274547934532E-002;-2.519380650483072E-004;7.130598649382591E-003;
2.416500000000000E+009;2.018957436084747E-001;-4.260565340518951E-002;8.622684617876075E-006;7.048243656754494E-003;
2.416666666666667E+009;2.020909935235977E-001;-4.291629418730736E-002;3.653258609119803E-004;7.086046505719423E-003;
2.416833333333334E+009;2.021087557077408E-001;-4.281095787882805E-002;7.174598868004978E-004;7.057570386677980E-003;
2.417000000000000E+009;2.023143917322159E-001;-4.312761873006821E-002;1.144987065345049E-003;7.024531718343496E-003;
2.417166666666667E+009;2.019105553627014E-001;-4.307933151721954E-002;1.305521233007312E-003;6.895206402987242E-003;
2.417333333333334E+009;2.017389982938767E-001;-4.284145683050156E-002;1.593894092366099E-003;6.854964420199394E-003;
2.417500000000000E+009;2.013227343559265E-001;-4.305907711386681E-002;1.882555079646409E-003;6.654524244368076E-003;
2.417666666666667E+009;2.007849514484406E-001;-4.279018566012383E-002;2.266337862238288E-003;6.536005996167660E-003;
2.417833333333334E+009;2.003679573535919E-001;-4.255842044949532E-002;2.374914009124041E-003;6.262449547648430E-003;
2.418000000000000E+009;1.995946615934372E-001;-4.240650683641434E-002;2.672147238627076E-003;6.332679651677609E-003;
2.418166666666667E+009;1.987285763025284E-001;-4.221837967634201E-002;2.808361779898405E-003;6.014487240463495E-003;
2.418333333333334E+009;1.978781521320343E-001;-4.224648699164391E-002;3.178614424541593E-003;6.031493190675974E-003;
2.418500000000000E+009;1.967727690935135E-001;-4.217153415083885E-002;3.344068536534905E-003;5.821846891194582E-003;
2.418666666666667E+009;1.958834379911423E-001;-4.207805916666985E-002;3.384940791875124E-003;5.659877322614193E-003;
2.418833333333334E+009;1.945684999227524E-001;-4.236005619168282E-002;3.696289146319032E-003;5.605007521808147E-003;
2.419000000000000E+009;1.932264715433121E-001;-4.251791164278984E-002;3.765869420021772E-003;5.383649840950966E-003;
2.419166666666667E+009;1.920593827962875E-001;-4.282191768288612E-002;4.088923800736666E-003;5.307362880557776E-003;
2.419333333333334E+009;1.905928850173950E-001;-4.327498376369476E-002;4.162568133324385E-003;5.097744520753622E-003;
2.419500000000000E+009;1.889941841363907E-001;-4.369710013270378E-002;4.404414910823107E-003;4.899719264358282E-003;
2.419666666666667E+009;1.874969601631165E-001;-4.449239745736122E-002;4.526109900325537E-003;4.628656897693873E-003;
2.419833333333334E+009;1.859020292758942E-001;-4.507296532392502E-002;4.731368273496628E-003;4.427641164511442E-003;
2.420000000000000E+009;1.843456625938416E-001;-4.605521261692047E-002;4.738562274724245E-003;4.308616742491722E-003;
2.420166666666667E+009;1.828471124172211E-001;-4.698459431529045E-002;5.013261921703816E-003;4.108251538127661E-003;
2.420333333333334E+009;1.812616884708405E-001;-4.825493320822716E-002;5.004742648452520E-003;3.797203768044710E-003;
2.420500000000000E+009;1.796722710132599E-001;-4.942317679524422E-002;5.131265148520470E-003;3.652412677183747E-003;
2.420666666666667E+009;1.781046837568283E-001;-5.046393349766731E-002;5.157825537025929E-003;3.338283859193325E-003;
2.420833333333334E+009;1.763645261526108E-001;-5.213593319058418E-002;5.220095161348581E-003;3.152939025312662E-003;
2.421000000000000E+009;1.749981343746185E-001;-5.365255102515221E-002;5.269000306725502E-003;2.961935708299279E-003;
2.421166666666667E+009;1.736106127500534E-001;-5.531137809157372E-002;5.211511626839638E-003;2.884368645027280E-003;
2.421333333333334E+009;1.720720380544663E-001;-5.682501941919327E-002;5.366569850593805E-003;2.653789473697543E-003;
2.421500000000000E+009;1.707951724529266E-001;-5.872131139039993E-002;5.199857521802187E-003;2.430050866678357E-003;
2.421666666666667E+009;1.695980727672577E-001;-6.068521365523338E-002;5.319327581673861E-003;2.198492176830769E-003;
2.421833333333334E+009;1.685985028743744E-001;-6.232738867402077E-002;5.202927626669407E-003;2.100866520777345E-003;
2.422000000000000E+009;1.674121916294098E-001;-6.430314481258392E-002;5.245390813797712E-003;1.929596299305558E-003;
2.422166666666667E+009;1.666317135095596E-001;-6.637906283140183E-002;5.325831938534975E-003;1.742217224091291E-003;
2.422333333333334E+009;1.656337082386017E-001;-6.835305690765381E-002;5.290837492793798E-003;1.614167122170329E-003;
2.422500000000000E+009;1.648998707532883E-001;-7.014616578817368E-002;5.306480452418327E-003;1.470349961891770E-003;
2.422666666666667E+009;1.642431467771530E-001;-7.229887694120407E-002;5.349915008991957E-003;1.277528703212738E-003;
2.422833333333334E+009;1.638160794973373E-001;-7.430876791477203E-002;5.277162417769432E-003;1.237211399711669E-003;
2.423000000000000E+009;1.632859259843826E-001;-7.639164477586746E-002;5.217833444476128E-003;1.010190579108894E-003;
2.423166666666667E+009;1.629987061023712E-001;-7.812353223562241E-002;5.219374783337116E-003;1.017502858303487E-003;
2.423333333333334E+009;1.627094894647598E-001;-8.017282932996750E-002;5.055588204413652E-003;6.195406313054264E-004;
2.423500000000000E+009;1.628172844648361E-001;-8.187199383974075E-002;5.144900642335415E-003;6.497009890154004E-004;
2.423666666666667E+009;1.627218425273895E-001;-8.365166932344437E-002;5.177170038223267E-003;6.251644808799028E-004;
2.423833333333334E+009;1.627928465604782E-001;-8.546715974807739E-002;5.036765709519386E-003;3.327923477627337E-004;
2.424000000000000E+009;1.628501415252686E-001;-8.724290877580643E-002;5.164891481399536E-003;3.584684454835951E-004;
2.424166666666667E+009;1.629246175289154E-001;-8.872478455305100E-002;5.103200674057007E-003;3.182523505529389E-005;
2.424333333333334E+009;1.631485521793366E-001;-9.022417664527893E-002;5.139430984854698E-003;2.471126754244324E-005;
2.424500000000000E+009;1.635542511940002E-001;-9.184014797210693E-002;5.218730773776770E-003;-1.199255275423639E-004;
2.424666666666667E+009;1.637166589498520E-001;-9.322986006736755E-002;5.270552821457386E-003;-2.078953002637718E-005;
2.424833333333334E+009;1.643213629722595E-001;-9.439337998628616E-002;5.144620779901743E-003;-2.976006944663823E-004;
2.425000000000000E+009;1.645839512348175E-001;-9.564162045717239E-002;5.080684088170528E-003;-4.530927981249988E-004;
2.425166666666667E+009;1.649397015571594E-001;-9.658557176589966E-002;5.096078384667635E-003;-5.654490087181330E-004;
2.425333333333334E+009;1.653783321380615E-001;-9.761761128902435E-002;5.055695772171021E-003;-6.346005829982460E-004;
2.425500000000000E+009;1.658184081315994E-001;-9.858663380146027E-002;5.064082797616720E-003;-8.435749332420528E-004;
2.425666666666667E+009;1.662647873163223E-001;-9.917230904102325E-002;5.062374752014875E-003;-7.993375766091049E-004;
2.425833333333334E+009;1.664827167987824E-001;-1.000751182436943E-001;4.939354490488768E-003;-1.174565288238227E-003;
2.426000000000000E+009;1.668299734592438E-001;-1.004024147987366E-001;4.869120195508003E-003;-1.134629826992750E-003;
2.426166666666667E+009;1.672602295875549E-001;-1.009914800524712E-001;5.042755510658026E-003;-1.346889650449157E-003;
2.426333333333334E+009;1.673169285058975E-001;-1.014748811721802E-001;4.915977362543345E-003;-1.402237568981946E-003;
2.426500000000000E+009;1.677182763814926E-001;-1.016036793589592E-001;5.026054568588734E-003;-1.553375972434878E-003;
2.426666666666667E+009;1.679007411003113E-001;-1.019285917282105E-001;4.980688914656639E-003;-1.642061397433281E-003;
2.426833333333334E+009;1.680402457714081E-001;-1.023692563176155E-001;4.830415360629559E-003;-2.011617412790656E-003;
2.427000000000000E+009;1.680779159069061E-001;-1.024315953254700E-001;4.820922855287790E-003;-1.990085700526834E-003;
2.427166666666667E+009;1.680971831083298E-001;-1.025531888008118E-001;4.734732210636139E-003;-2.018733182922006E-003;
2.427333333333334E+009;1.679959446191788E-001;-1.028217300772667E-001;4.630402661859989E-003;-2.343999221920967E-003;
2.427500000000000E+009;1.676867306232452E-001;-1.030081138014793E-001;4.797113593667746E-003;-2.305547008290887E-003;
2.427666666666667E+009;1.673969179391861E-001;-1.030096113681793E-001;4.499235190451145E-003;-2.466241596266627E-003;
2.427833333333334E+009;1.670462936162949E-001;-1.031432896852493E-001;4.470735788345337E-003;-2.632068004459143E-003;
