# Version 1.00
#
freq[Hz];re:Trc1_S11;im:Trc1_S11;re:Trc2_S21;im:Trc2_S21;
2.400000000000000E+009;1.552400887012482E-001;1.061192676424980E-001;-2.152280882000923E-003;-3.387244651094079E-003;
2.400166666666667E+009;1.549535244703293E-001;1.035489663481712E-001;-2.432615496218205E-003;-2.580830827355385E-003;
2.400333333333334E+009;1.548280268907547E-001;1.019000858068466E-001;-6.751319742761552E-004;-4.325091373175383E-003;
2.400500000000000E+009;1.551469713449478E-001;9.889321774244309E-002;-3.211695468053222E-003;-4.814032465219498E-003;
2.400666666666667E+009;1.550701111555100E-001;9.639497846364975E-002;-3.024641657248139E-003;-4.223283845931292E-003;
2.400833333333334E+009;1.549199223518372E-001;9.375014156103134E-002;-1.140405307523906E-003;-4.186759702861309E-003;
2.401000000000000E+009;1.550565361976624E-001;9.109727293252945E-002;-1.773109892383218E-003;-3.783918218687177E-003;
2.401166666666667E+009;1.553297042846680E-001;8.798534423112869E-002;-2.684084931388497E-003;-3.620699746534228E-003;
2.401333333333334E+009;1.557358950376511E-001;8.524522930383682E-002;-2.840888220816851E-003;-3.312821732833982E-003;
2.401500000000000E+009;1.562152802944183E-001;8.256676793098450E-002;-2.897245809435844E-003;-3.107383614405990E-003;
2.401666666666667E+009;1.565928161144257E-001;7.972095906734467E-002;-3.029704093933106E-003;-3.201088868081570E-003;
2.401833333333334E+009;1.571745127439499E-001;7.693570107221603E-002;-3.033163491636515E-003;-3.061044495552778E-003;
2.402000000000000E+009;1.580085456371307E-001;7.415183633565903E-002;-3.172324504703283E-003;-2.952923066914082E-003;
2.402166666666667E+009;1.588845849037170E-001;7.172272354364395E-002;-3.143848851323128E-003;-2.882911590859294E-003;
2.402333333333334E+009;1.596846580505371E-001;6.901980191469193E-002;-3.296080976724625E-003;-2.888894174247980E-003;
2.402500000000000E+009;1.610720306634903E-001;6.661014258861542E-002;-3.449163399636746E-003;-2.741919131949544E-003;
2.402666666666667E+009;1.622170805931091E-001;6.431032717227936E-002;-3.467481583356857E-003;-2.760523697361350E-003;
2.402833333333334E+009;1.636056154966354E-001;6.185002252459526E-002;-3.614346031099558E-003;-2.652278402820230E-003;
2.403000000000000E+009;1.651621907949448E-001;5.960665643215179E-002;-3.881213720887899E-003;-2.483414718881249E-003;
2.403166666666667E+009;1.669705808162689E-001;5.731676146388054E-002;-3.776001511141658E-003;-2.384564606472850E-003;
2.403333333333334E+009;1.682223826646805E-001;5.509204044938088E-002;-4.226196557283402E-003;-2.238052198663354E-003;
2.403500000000000E+009;1.700279116630554E-001;5.320009961724281E-002;-4.171287640929222E-003;-2.003059955313802E-003;
2.403666666666667E+009;1.717839986085892E-001;5.107533559203148E-002;-4.298658575862646E-003;-1.793957664631307E-003;
2.403833333333334E+009;1.733945906162262E-001;4.938944056630135E-002;-4.555162508040667E-003;-1.593888620845974E-003;
2.404000000000000E+009;1.748040318489075E-001;4.754087701439858E-002;-4.537516273558140E-003;-1.294119516387582E-003;
2.404166666666667E+009;1.766665279865265E-001;4.616469517350197E-002;-4.596515092998743E-003;-1.139282947406173E-003;
2.404333333333334E+009;1.780895143747330E-001;4.467878118157387E-002;-4.503640811890364E-003;-8.523734868504107E-004;
2.404500000000000E+009;1.797136217355728E-001;4.321355372667313E-002;-4.503022879362106E-003;-4.410780384205282E-004;
2.404666666666667E+009;1.814403831958771E-001;4.216622561216354E-002;-4.561013076454401E-003;-4.579314263537526E-004;
2.404833333333334E+009;1.831470429897308E-001;4.115452617406845E-002;-4.296672996133566E-003;-1.862621284089983E-004;
2.405000000000000E+009;1.842607706785202E-001;4.041263461112976E-002;-4.314126446843147E-003;-4.444023215910420E-005;
2.405166666666667E+009;1.858428716659546E-001;3.977416083216667E-002;-4.327300470322371E-003;8.078593236859888E-005;
2.405333333333334E+009;1.872295886278153E-001;3.936400637030602E-002;-4.123031627386808E-003;3.544115752447397E-004;
2.405500000000000E+009;1.885824501514435E-001;3.874576464295387E-002;-4.035648424178362E-003;5.079508409835398E-004;
2.405666666666667E+009;1.897031366825104E-001;3.831154108047485E-002;-3.977570682764053E-003;5.387334385886788E-004;
2.405833333333334E+009;1.910450309514999E-001;3.825857117772102E-002;-3.777507226914167E-003;5.204784101806581E-004;
2.406000000000000E+009;1.919339299201965E-001;3.800131380558014E-002;-3.760459367185831E-003;6.567791569977999E-004;
2.406166666666667E+009;1.928642839193344E-001;3.784945979714394E-002;-3.547779051586986E-003;6.842542788945139E-004;
2.406333333333334E+009;1.938635855913162E-001;3.796460852026939E-002;-3.401954891160131E-003;8.225311757996678E-004;
2.406500000000000E+009;1.944061070680618E-001;3.795162215828896E-002;-3.382536582648754E-003;9.019964491017163E-004;
2.406666666666667E+009;1.951133161783218E-001;3.793195262551308E-002;-3.357231849804521E-003;9.407283505424857E-004;
2.406833333333334E+009;1.956278085708618E-001;3.770315274596214E-002;-3.152003046125174E-003;8.809880819171667E-004;
2.407000000000000E+009;1.958590447902679E-001;3.800525888800621E-002;-2.966174157336354E-003;1.018114387989044E-003;
2.407166666666667E+009;1.961854547262192E-001;3.775643929839134E-002;-3.113953396677971E-003;1.103645889088512E-003;
2.407333333333334E+009;1.961571872234345E-001;3.794002532958984E-002;-2.928021829575300E-003;1.015605870634317E-003;
2.407500000000000E+009;1.960370540618897E-001;3.793971985578537E-002;-2.936652628704906E-003;9.842665167525411E-004;
2.407666666666667E+009;1.960532516241074E-001;3.779269754886627E-002;-2.802973380312324E-003;8.786262478679419E-004;
2.407833333333334E+009;1.955880969762802E-001;3.759478405117989E-002;-2.861989662051201E-003;1.079243258573115E-003;
2.408000000000000E+009;1.954525113105774E-001;3.749577701091766E-002;-2.838959684595466E-003;8.406737470068038E-004;
2.408166666666667E+009;1.947627365589142E-001;3.712639212608337E-002;-2.914429176598787E-003;1.006684964522719E-003;
2.408333333333334E+009;1.944754421710968E-001;3.644090145826340E-002;-2.763654105365276E-003;9.440273279324174E-004;
2.408500000000000E+009;1.937248706817627E-001;3.607957810163498E-002;-2.810916397720575E-003;9.247572743333876E-004;
2.408666666666667E+009;1.930803060531616E-001;3.568161651492119E-002;-2.686537569388747E-003;9.095894638448954E-004;
2.408833333333334E+009;1.923217475414276E-001;3.478345274925232E-002;-2.777006244286895E-003;9.863391751423478E-004;
2.409000000000000E+009;1.914598345756531E-001;3.367976471781731E-002;-2.782238414511085E-003;1.019199262373149E-003;
2.409166666666667E+009;1.905457228422165E-001;3.289642930030823E-002;-2.813275903463364E-003;8.713533752597868E-004;
2.409333333333334E+009;1.894859969615936E-001;3.183025121688843E-002;-2.836690982803702E-003;9.057554998435080E-004;
2.409500000000000E+009;1.885835528373718E-001;3.043660707771778E-002;-2.871828852221370E-003;7.426285301335156E-004;
2.409666666666667E+009;1.874285787343979E-001;2.905547432601452E-002;-2.831684658303857E-003;1.001809025183320E-003;
2.409833333333334E+009;1.863490790128708E-001;2.757851220667362E-002;-2.897165482863784E-003;7.651167106814683E-004;
2.410000000000000E+009;1.853770315647125E-001;2.590167149901390E-002;-2.966706873849034E-003;9.571179980412126E-004;
2.410166666666667E+009;1.844473928213120E-001;2.391359023749828E-002;-3.034067107364535E-003;9.018976124934852E-004;
2.410333333333334E+009;1.834225356578827E-001;2.211234904825687E-002;-3.040531650185585E-003;9.481895249336958E-004;
2.410500000000000E+009;1.825904995203018E-001;2.029689215123653E-002;-3.068404737859964E-003;9.103354532271624E-004;
2.410666666666667E+009;1.815807372331619E-001;1.800804957747459E-002;-3.166795475408435E-003;1.088472083210945E-003;
2.410833333333334E+009;1.809204518795013E-001;1.579354330897331E-002;-3.327301703393459E-003;9.805625304579735E-004;
2.411000000000000E+009;1.802154481410980E-001;1.360290125012398E-002;-3.416690276935697E-003;1.087757525965571E-003;
2.411166666666667E+009;1.797290891408920E-001;1.142112631350756E-002;-3.445079782977700E-003;1.194043201394379E-003;
2.411333333333334E+009;1.792317926883698E-001;9.007672779262066E-003;-3.389067947864533E-003;1.248086919076741E-003;
2.411500000000000E+009;1.786684542894363E-001;6.517785135656595E-003;-3.570860950276256E-003;1.314126886427403E-003;
2.411666666666667E+009;1.785032451152802E-001;4.102682694792748E-003;-3.605201840400696E-003;1.351324957795441E-003;
2.411833333333334E+009;1.782452613115311E-001;1.870666979812086E-003;-3.748198039829731E-003;1.633675303310156E-003;
2.412000000000000E+009;1.783611327409744E-001;-7.558600045740604E-004;-3.844246035441756E-003;1.682420959696174E-003;
2.412166666666667E+009;1.784501224756241E-001;-2.707313047721982E-003;-3.874892136082053E-003;1.806619926355779E-003;
2.412333333333334E+009;1.787735521793366E-001;-5.298066418617964E-003;-4.005825612694025E-003;1.799773192033172E-003;
2.412500000000000E+009;1.790465712547302E-001;-7.907344028353691E-003;-4.179843701422215E-003;2.065201522782445E-003;
2.412666666666667E+009;1.797120273113251E-001;-1.039283350110054E-002;-4.153374582529068E-003;2.296975115314126E-003;
2.412833333333334E+009;1.803519576787949E-001;-1.271381136029959E-002;-4.226158373057842E-003;2.434996655210853E-003;
2.413000000000000E+009;1.811398714780808E-001;-1.494348514825106E-002;-4.357814323157072E-003;2.693435642868280E-003;
2.413166666666667E+009;1.818619221448898E-001;-1.706602424383164E-002;-4.247187171131373E-003;2.764989621937275E-003;
2.413333333333334E+009;1.827541738748550E-001;-1.940056867897511E-002;-4.379668273031712E-003;3.011448308825493E-003;
2.413500000000000E+009;1.838722974061966E-001;-2.165861800312996E-002;-4.318357445299625E-003;3.495864570140839E-003;
2.413666666666667E+009;1.848820447921753E-001;-2.382519841194153E-002;-4.366045352071524E-003;3.707266412675381E-003;
2.413833333333334E+009;1.858767569065094E-001;-2.567787282168865E-002;-4.243973642587662E-003;4.140782635658979E-003;
2.414000000000000E+009;1.869932562112808E-001;-2.763986214995384E-002;-4.087753593921661E-003;4.333422519266605E-003;
2.414166666666667E+009;1.883549988269806E-001;-2.941563352942467E-002;-4.231417551636696E-003;4.770302213728428E-003;
2.414333333333334E+009;1.892097741365433E-001;-3.123706206679344E-002;-3.889542771503329E-003;5.161647219210863E-003;
2.414500000000000E+009;1.905289292335510E-001;-3.276983276009560E-002;-3.576435148715973E-003;5.477342754602432E-003;
2.414666666666667E+009;1.918109357357025E-001;-3.421778231859207E-002;-3.341316245496273E-003;5.658922716975212E-003;
2.414833333333334E+009;1.928205639123917E-001;-3.551407158374786E-002;-3.067007055506110E-003;5.872690584510565E-003;
2.415000000000000E+009;1.939938068389893E-001;-3.663557395339012E-002;-2.844006055966020E-003;6.071779876947403E-003;
2.415166666666667E+009;1.952145546674728E-001;-3.783249109983444E-002;-2.554358914494515E-003;6.315621547400951E-003;
2.415333333333334E+009;1.963690221309662E-001;-3.869735077023506E-002;-2.377904951572418E-003;6.404658779501915E-003;
2.415500000000000E+009;1.973849684000015E-001;-3.943610191345215E-002;-1.960187451913953E-003;6.585275288671255E-003;
2.415666666666667E+009;1.983667016029358E-001;-4.025600850582123E-002;-1.551827299408615E-003;6.764331832528114E-003;
2.415833333333334E+009;1.992284804582596E-001;-4.093131795525551E-002;-1.108694938011468E-003;6.884749047458172E-003;
2.416000000000000E+009;1.999093294143677E-001;-4.137304797768593E-002;-8.782642544247210E-004;6.905810907483101E-003;
2.416166666666667E+009;2.005718052387238E-001;-4.190896078944206E-002;-5.449456511996687E-004;7.250552996993065E-003;
2.416333333333334E+009;2.011967897415161E-001;-4.225851222872734E-002;-2.448614686727524E-004;7.005886640399694E-003;
2.416500000000000E+009;2.016557604074478E-001;-4.246690869331360E-002;1.446698588551953E-004;7.173260208219290E-003;
2.416666666666667E+009;2.020247280597687E-001;-4.284014180302620E-002;3.907809732481837E-004;7.033634465187788E-003;
2.416833333333334E+009;2.020091116428375E-001;-4.278777167201042E-002;8.023950504139066E-004;6.917148362845182E-003;
2.417000000000000E+009;2.022030651569367E-001;-4.300773888826370E-002;1.122059300541878E-003;6.868948694318533E-003;
2.417166666666667E+009;2.017342001199722E-001;-4.297659546136856E-002;1.443741261027753E-003;6.874728016555309E-003;
2.417333333333334E+009;2.015925943851471E-001;-4.275682941079140E-002;1.672975020483136E-003;6.704952102154493E-003;
2.417500000000000E+009;2.012941837310791E-001;-4.282836243510246E-002;2.030504168942571E-003;6.568178068846464E-003;
2.417666666666667E+009;2.006086707115173E-001;-4.247196018695831E-002;2.296276390552521E-003;6.574026774615049E-003;
2.417833333333334E+009;2.001357972621918E-001;-4.246034100651741E-002;2.367813140153885E-003;6.204620469361544E-003;
2.418000000000000E+009;1.994923055171967E-001;-4.210881143808365E-002;2.748500322923064E-003;6.191095337271690E-003;
2.418166666666667E+009;1.986639052629471E-001;-4.212402924895287E-002;2.918436191976070E-003;6.073853000998497E-003;
2.418333333333334E+009;1.977072358131409E-001;-4.199726507067680E-002;3.073790343478322E-003;5.897778552025557E-003;
2.418500000000000E+009;1.965912133455277E-001;-4.206620156764984E-002;3.459446830675006E-003;5.786442197859287E-003;
2.418666666666667E+009;1.956652104854584E-001;-4.190538451075554E-002;3.529521869495511E-003;5.698495078831911E-003;
2.418833333333334E+009;1.944355070590973E-001;-4.201673343777657E-002;3.598308656364679E-003;5.391312763094902E-003;
2.419000000000000E+009;1.930964589118958E-001;-4.227048531174660E-002;3.819245379418135E-003;5.322040989995003E-003;
2.419166666666667E+009;1.919619143009186E-001;-4.255403950810432E-002;4.061950370669365E-003;5.190059542655945E-003;
2.419333333333334E+009;1.904031485319138E-001;-4.298076406121254E-002;4.272013437002897E-003;5.018620286136866E-003;
2.419500000000000E+009;1.890040636062622E-001;-4.350523278117180E-002;4.362511914223433E-003;4.796514287590981E-003;
2.419666666666667E+009;1.873189508914948E-001;-4.428249597549439E-002;4.580853506922722E-003;4.595436155796051E-003;
2.419833333333334E+009;1.859884560108185E-001;-4.490184038877487E-002;4.692118614912033E-003;4.443396814167500E-003;
2.420000000000000E+009;1.843244880437851E-001;-4.587577655911446E-002;4.767120350152254E-003;4.152175504714251E-003;
2.420166666666667E+009;1.826616078615189E-001;-4.681677371263504E-002;4.928669892251492E-003;4.089629277586937E-003;
2.420333333333334E+009;1.811640560626984E-001;-4.797957837581635E-002;4.942329134792090E-003;3.784560598433018E-003;
2.420500000000000E+009;1.795817166566849E-001;-4.932092130184174E-002;5.181390326470137E-003;3.737859660759568E-003;
2.420666666666667E+009;1.780090183019638E-001;-5.036128312349320E-002;5.147711839526892E-003;3.419924294576049E-003;
2.420833333333334E+009;1.763240098953247E-001;-5.183828622102737E-002;5.171006545424461E-003;3.177123842760921E-003;
2.421000000000000E+009;1.750406622886658E-001;-5.338757485151291E-002;5.189231596887112E-003;2.983179874718189E-003;
2.421166666666667E+009;1.736176759004593E-001;-5.503204837441444E-002;5.192794837057591E-003;2.738763345405459E-003;
2.421333333333334E+009;1.721068471670151E-001;-5.664256960153580E-002;5.347547587007284E-003;2.628066577017307E-003;
2.421500000000000E+009;1.707217544317246E-001;-5.840953439474106E-002;5.252042319625616E-003;2.405333099886775E-003;
2.421666666666667E+009;1.694922745227814E-001;-6.029000878334045E-002;5.286865402013063E-003;2.266927389428020E-003;
2.421833333333334E+009;1.685190200805664E-001;-6.220467016100884E-002;5.304750520735979E-003;1.960950903594494E-003;
2.422000000000000E+009;1.675095260143280E-001;-6.404934823513031E-002;5.257587879896164E-003;1.785228261724114E-003;
2.422166666666667E+009;1.666385680437088E-001;-6.614303588867188E-002;5.204251036047936E-003;1.714922487735748E-003;
2.422333333333334E+009;1.656383126974106E-001;-6.808122247457504E-002;5.334744695574045E-003;1.485889428295195E-003;
2.422500000000000E+009;1.648562550544739E-001;-6.993579864501953E-002;5.338732153177261E-003;1.426567556336522E-003;
2.422666666666667E+009;1.642218679189682E-001;-7.191243022680283E-002;5.265529267489910E-003;1.316652284003794E-003;
2.422833333333334E+009;1.637160480022430E-001;-7.404315471649170E-002;5.207834299653769E-003;1.094348728656769E-003;
2.423000000000000E+009;1.634417474269867E-001;-7.604666054248810E-002;5.188435316085815E-003;1.008940045721829E-003;
2.423166666666667E+009;1.629716157913208E-001;-7.799685746431351E-002;5.121936090290546E-003;8.771143038757145E-004;
2.423333333333334E+009;1.627548038959503E-001;-8.004756271839142E-002;5.190831609070301E-003;8.188253268599510E-004;
2.423500000000000E+009;1.627177447080612E-001;-8.169744163751602E-002;5.143535789102316E-003;6.174593581818044E-004;
2.423666666666667E+009;1.629473865032196E-001;-8.352323621511459E-002;5.115680862218142E-003;6.400282727554441E-004;
2.423833333333334E+009;1.625857651233673E-001;-8.527056872844696E-002;4.991910420358181E-003;2.591416996438056E-004;
2.424000000000000E+009;1.629192084074020E-001;-8.706760406494141E-002;5.113515071570873E-003;3.293923218734562E-004;
2.424166666666667E+009;1.629975885152817E-001;-8.852371573448181E-002;5.053980741649866E-003;1.216719247167930E-004;
2.424333333333334E+009;1.631845235824585E-001;-9.007553011178970E-002;5.143296904861927E-003;-2.365258478675969E-005;
2.424500000000000E+009;1.635909676551819E-001;-9.181597083806992E-002;5.254040937870741E-003;1.872986285889056E-005;
2.424666666666667E+009;1.638511866331101E-001;-9.300570935010910E-002;5.117342341691256E-003;-2.650274545885623E-004;
2.424833333333334E+009;1.643575429916382E-001;-9.421141445636749E-002;5.224080290645361E-003;-4.258218687027693E-004;
2.425000000000000E+009;1.647475510835648E-001;-9.561011940240860E-002;5.049902480095625E-003;-3.566767554730177E-004;
2.425166666666667E+009;1.650282889604569E-001;-9.645801037549973E-002;5.087822675704956E-003;-6.038077408447862E-004;
2.425333333333334E+009;1.653456687927246E-001;-9.744086116552353E-002;5.202399566769600E-003;-7.942061638459563E-004;
2.425500000000000E+009;1.658604741096497E-001;-9.843948483467102E-002;5.117228254675865E-003;-7.660581613890827E-004;
2.425666666666667E+009;1.662371456623077E-001;-9.895765036344528E-002;5.084966775029898E-003;-1.028308761306107E-003;
2.425833333333334E+009;1.666378825902939E-001;-9.992317110300064E-002;5.070485174655914E-003;-9.848310146480799E-004;
2.426000000000000E+009;1.670374125242233E-001;-1.002602428197861E-001;4.986753221601248E-003;-1.194652635604143E-003;
2.426166666666667E+009;1.672674864530563E-001;-1.008516103029251E-001;4.946152213960886E-003;-1.388654345646501E-003;
2.426333333333334E+009;1.674052625894547E-001;-1.014272049069405E-001;4.903770051896572E-003;-1.423275563865900E-003;
2.426500000000000E+009;1.678048372268677E-001;-1.015022918581963E-001;4.881468135863543E-003;-1.701261149719358E-003;
2.426666666666667E+009;1.679028421640396E-001;-1.018429026007652E-001;4.791761748492718E-003;-1.706718932837248E-003;
2.426833333333334E+009;1.682246625423431E-001;-1.020880714058876E-001;4.908816888928413E-003;-1.833739806897938E-003;
2.427000000000000E+009;1.682960391044617E-001;-1.023801043629646E-001;4.769382998347282E-003;-2.132000168785453E-003;
2.427166666666667E+009;1.681815683841705E-001;-1.024113893508911E-001;4.775787238031626E-003;-2.080470556393266E-003;
2.427333333333334E+009;1.680654585361481E-001;-1.027072891592979E-001;4.614921286702156E-003;-2.087825676426292E-003;
2.427500000000000E+009;1.678367704153061E-001;-1.029347628355026E-001;4.729032516479492E-003;-2.369251335039735E-003;
2.427666666666667E+009;1.674530953168869E-001;-1.029690802097321E-001;4.547039512544870E-003;-2.514929044991732E-003;
2.427833333333334E+009;1.671376973390579E-001;-1.030802577733994E-001;4.411562811583281E-003;-2.593445824459195E-003;
