# Hz S RI R 
2400000000.0000000000 0.155238255858421297928018134371 0.109270460903644603400941548443 0.002853838959708809852600097656 0.003601704258471726937534951318 0 0 0 0 
2400166666.6666665077 0.154814079403877313811932481258 0.107042856514453901817240932814 0.002893064869567751884460449219 0.003532274160534143014195107568 0 0 0 0 
2400333333.3333334923 0.154629662632942199707031250000 0.104968197643756894210653740629 0.003183928551152348952052451025 0.003493590280413628058192587744 0 0 0 0 
2400500000.0000000000 0.154620096087455805022869981258 0.102147214114665998985209682814 0.003311375388875604109523154150 0.003213837509974836869480752100 0 0 0 0 
2400666666.6666665077 0.154666796326637295821981865629 0.099566444754600524902343750000 0.003262096783146262168884277344 0.002918113954365253014805459131 0 0 0 0 
2400833333.3333334923 0.154649555683135986328125000000 0.096866659820079803466796875000 0.003365007694810628890991210938 0.002856418257579206986668252100 0 0 0 0 
2401000000.0000000000 0.154676496982574490646200615629 0.093891598284244537353515625000 0.003386229043826460838317871094 0.002784861950203775925877236475 0 0 0 0 
2401166666.6666665077 0.154525473713874789138955634371 0.091234073042869567871093750000 0.003252950962632894949672079932 0.002652511233463882966282509912 0 0 0 0 
2401333333.3333334923 0.154741242527961703201455634371 0.088271886110305786132812500000 0.003369507612660526795628213037 0.002511426806449890136718750000 0 0 0 0 
2401500000.0000000000 0.155292823910713195800781250000 0.085497267544269561767578125000 0.003472332376986742019653320312 0.002599500119686127142665243994 0 0 0 0 
2401666666.6666665077 0.155489742755889892578125000000 0.082689389586448669433593750000 0.003667229553684591813328408350 0.002580250846222043037414550781 0 0 0 0 
2401833333.3333334923 0.155978783965110806564169365629 0.079911075532436370849609375000 0.003418364096432923836949013818 0.002478161128237843947169638525 0 0 0 0 
2402000000.0000000000 0.156625747680664090255575615629 0.076979272067546844482421875000 0.003812493290752172903773642432 0.002455435227602719826939248193 0 0 0 0 
2402166666.6666665077 0.157434806227683993240518134371 0.074442207813262939453125000000 0.003758870065212250189540243994 0.002532789018005133108851767432 0 0 0 0 
2402333333.3333334923 0.158293068408966092208700615629 0.071455687284469604492187500000 0.003976465668529272079467773438 0.002424469217658042907714843750 0 0 0 0 
2402500000.0000000000 0.159511283040046691894531250000 0.068683035671710968017578125000 0.004255557432770729064941406250 0.002313312143087387084960937500 0 0 0 0 
2402666666.6666665077 0.160531193017959594726562500000 0.066558808088302612304687500000 0.004246101249009370803833007812 0.002182877855375409126281738281 0 0 0 0 
2402833333.3333334923 0.161830663681030301193075615629 0.063966393470764160156250000000 0.004378009121865034103393554688 0.002064343774691224098205566406 0 0 0 0 
2403000000.0000000000 0.163192003965377807617187500000 0.061494026333093643188476562500 0.004797111731022596359252929688 0.001962301786988974051234579932 0 0 0 0 
2403166666.6666665077 0.165105625987052889724893134371 0.059180833399295806884765625000 0.004819741938263177871704101562 0.001675874809734523079515766675 0 0 0 0 
2403333333.3333334923 0.166577816009521512130575615629 0.056903921067714691162109375000 0.005060345400124788284301757812 0.001421069377101958014844584888 0 0 0 0 
2403500000.0000000000 0.168357074260711697677450615629 0.054669577628374099731445312500 0.005257150623947381973266601562 0.001261648605577647902845073169 0 0 0 0 
2403666666.6666665077 0.170128837227821405608807481258 0.052718434482812881469726562500 0.005219304934144020080566406250 0.000960034842137247323989868164 0 0 0 0 
2403833333.3333334923 0.171866908669471712967080634371 0.050666350871324539184570312500 0.005259021650999785336966230176 0.000445307930931448882252293719 0 0 0 0 
2404000000.0000000000 0.173421308398246792892294365629 0.048664800822734832763671875000 0.005219835788011550903320312500 0.000470564584247767925262451172 0 0 0 0 
2404166666.6666665077 0.175254747271537808517294365629 0.047140937298536300659179687500 0.005389808677136898040771484375 0.000094047172751743346452713013 0 0 0 0 
2404333333.3333334923 0.177063897252082796951455634371 0.045634150505065917968750000000 0.005220381077378988265991210938 -0.000127009290736168595865526743 0 0 0 0 
2404500000.0000000000 0.178787693381309509277343750000 0.043989002704620361328125000000 0.005078244023025035858154296875 -0.000347517372574657201766967773 0 0 0 0 
2404666666.6666665077 0.180440217256545992752236884371 0.042805779725313186645507812500 0.005171687807887792587280273438 -0.000750075734686106443405151367 0 0 0 0 
2404833333.3333334923 0.182284623384475708007812500000 0.041518583893775939941406250000 0.004979297053068876266479492188 -0.000802346621640026569366455078 0 0 0 0 
2405000000.0000000000 0.183741047978401211837606865629 0.040862344205379493022878278907 0.005143702495843172073364257812 -0.001311227097176014943363808740 0 0 0 0 
2405166666.6666665077 0.185388743877410888671875000000 0.040217157453298568725585937500 0.004862978588789702329153730176 -0.001268623047508298917057656396 0 0 0 0 
2405333333.3333334923 0.186922609806060791015625000000 0.039552770555019378662109375000 0.004900805652141571044921875000 -0.001474416349083184979082417065 0 0 0 0 
2405500000.0000000000 0.188262790441513089279013115629 0.039074711501598358154296875000 0.004653381183743476867675781250 -0.001692425226792692921282124097 0 0 0 0 
2405666666.6666665077 0.189693182706832913497763115629 0.038610056042671196674387346093 0.004509977996349334716796875000 -0.001725134323351084969164204175 0 0 0 0 
2405833333.3333334923 0.191113859415054293533486884371 0.038456104695796966552734375000 0.004521683324128389358520507812 -0.001905624405480921051622700269 0 0 0 0 
2406000000.0000000000 0.192229837179183987716513115629 0.038391921669244773174245466407 0.004462773911654949188232421875 -0.001999140484258532957789755713 0 0 0 0 
2406166666.6666665077 0.193322211503982488434161268742 0.038141973316669457172434221093 0.004350699950009584426879882812 -0.002119736513122915787937783350 0 0 0 0 
2406333333.3333334923 0.194375097751617403885049384371 0.038194548338651657104492187500 0.004172656685113906860351562500 -0.002465756377205253081080771338 0 0 0 0 
2406500000.0000000000 0.195206791162490789215411268742 0.038338422775268561626393903907 0.003964502830058336257934570312 -0.002547459211200476126429892432 0 0 0 0 
2406666666.6666665077 0.196089550852775601486044365629 0.038428835570812232280690778907 0.003899500006809831099269247900 -0.002759216818958520889282226562 0 0 0 0 
2406833333.3333334923 0.196600735187530489822549384371 0.038512617349624626850168596093 0.003788334550336002869846963037 -0.002762493211776018142700195312 0 0 0 0 
2407000000.0000000000 0.197112068533897399902343750000 0.038768839091062552715261091407 0.003696911502629518942592001807 -0.003028254024684429168701171875 0 0 0 0 
2407166666.6666665077 0.197636425495147705078125000000 0.038746245205402367328684221093 0.003445239271968603134155273438 -0.002991365501657127900364541162 0 0 0 0 
2407333333.3333334923 0.197674885392188998123330634371 0.039116468280553817749023437500 0.003287617815658450126647949219 -0.003238133387640119032618857275 0 0 0 0 
2407500000.0000000000 0.197647631168365506271200615629 0.039243232458829879760742187500 0.003137154038995503945591591943 -0.003286084858700633049011230469 0 0 0 0 
2407666666.6666665077 0.197754248976707486251669365629 0.039332535117864608764648437500 0.003055673791095613999607705225 -0.003570741042494773864746093750 0 0 0 0 
2407833333.3333334923 0.197422876954078702071981865629 0.039272595196962356567382812500 0.002870137104764581160304404150 -0.003514773445203899903538369287 0 0 0 0 
2408000000.0000000000 0.197456508874893188476562500000 0.039340108633041381835937500000 0.002625270280987023873570107568 -0.003629150334745645956752158057 0 0 0 0 
2408166666.6666665077 0.196924880146980313400106865629 0.039204478263854980468750000000 0.002433459507301450209376669775 -0.003475758945569396018981933594 0 0 0 0 
2408333333.3333334923 0.196552753448486300369424384371 0.038843676447868347167968750000 0.002294064965099095864536904443 -0.003780175698921083970310830225 0 0 0 0 
2408500000.0000000000 0.195828467607498196700888115629 0.038641780614852912212331403907 0.002160672098398209051844931494 -0.003702226094901562170741415869 0 0 0 0 
2408666666.6666665077 0.195311084389686612228231865629 0.038156338036060333251953125000 0.002105063293129206137416220557 -0.003722548717632890181300497900 0 0 0 0 
2408833333.3333334923 0.194676116108894403655682481258 0.037631932646036148071289062500 0.002017646096646786169764853369 -0.003709289245307445959803915869 0 0 0 0 
2409000000.0000000000 0.193703785538673400878906250000 0.036892209202051162719726562500 0.001720021595247090079663920825 -0.003672143910080194906947470557 0 0 0 0 
2409166666.6666665077 0.192840829491615295410156250000 0.035947620868682861328125000000 0.001675338018685579083086323315 -0.003695876337587832970860146631 0 0 0 0 
2409333333.3333334923 0.191876858472824096679687500000 0.035125751048326492309570312500 0.001712183700874448039411235278 -0.003698652843013405799865722656 0 0 0 0 
2409500000.0000000000 0.190752446651458712478799384371 0.033986315131187438964843750000 0.001510382164269685962079692310 -0.003683541435748339133021689307 0 0 0 0 
2409666666.6666665077 0.189653247594833401779013115629 0.032648704946041107177734375000 0.001304978970438241958618164062 -0.003726049093529582023620605469 0 0 0 0 
2409833333.3333334923 0.188546210527419988434161268742 0.031269568949937820434570312500 0.001212790375575423023821186597 -0.003671245649456977844238281250 0 0 0 0 
2410000000.0000000000 0.187529832124710110763388115629 0.029783122241497039794921875000 0.001003758632577955939649272388 -0.003707933239638804955723427881 0 0 0 0 
2410166666.6666665077 0.186469510197639493087606865629 0.027906170114874839782714843750 0.000923848536331206560134887695 -0.003917784895747900009155273438 0 0 0 0 
2410333333.3333334923 0.185383722186088589767294365629 0.026346083730459209787388985546 0.000865200243424624204635620117 -0.003801192389801145033595419775 0 0 0 0 
2410500000.0000000000 0.184389740228653009612713731258 0.024181637912988659250279610546 0.000796028878539800643920898438 -0.003854948794469236893894814600 0 0 0 0 
2410666666.6666665077 0.183338165283203097244424384371 0.022154036909341808664342110546 0.000491013517603278160095214844 -0.003764479886740446090698242188 0 0 0 0 
2410833333.3333334923 0.182652503252029391189736884371 0.019993703812360760080357735546 0.000321893487125635201304835187 -0.003821976948529481887817382812 0 0 0 0 
2411000000.0000000000 0.181689441204070989410723768742 0.017836226150393489492396170704 0.000228912598686292794629773550 -0.003780496539548039002659463037 0 0 0 0 
2411166666.6666665077 0.180914521217346191406250000000 0.015648467466235160827636718750 0.000042106192267965532164981229 -0.003659625537693500952479697119 0 0 0 0 
2411333333.3333334923 0.180432990193367004394531250000 0.013182718306779859715471836523 -0.000184984790394082692548474722 -0.003664303803816438154933310400 0 0 0 0 
2411500000.0000000000 0.179723367094993591308593750000 0.010764383710920810699462890625 -0.000159395087393931990295964374 -0.003543255385011434988734579932 0 0 0 0 
2411666666.6666665077 0.179381877183914212325888115629 0.008400966413319110870361328125 -0.000465145392809063196182250977 -0.003553367685526608987095498193 0 0 0 0 
2411833333.3333334923 0.178898870944976806640625000000 0.005889592226594687375540448926 -0.000610293413046747446060180664 -0.003329125000163913206813193213 0 0 0 0 
2412000000.0000000000 0.179070666432380704025106865629 0.003208846319466828866245888818 -0.000648407149128615856170654297 -0.003201650455594062805175781250 0 0 0 0 
2412166666.6666665077 0.179084390401840209960937500000 0.000944529485423117876052856445 -0.000664035265799611806869506836 -0.003077539848163723945617675781 0 0 0 0 
2412333333.3333334923 0.179233208298683194259481865629 -0.001704574446193874099134135669 -0.000682233134284615516662597656 -0.002897345228120685057399130713 0 0 0 0 
2412500000.0000000000 0.179655224084854098220986884371 -0.004316505976021289825439453125 -0.000621150422375649213790893555 -0.002732719993218779997584677588 0 0 0 0 
2412666666.6666665077 0.180028259754180908203125000000 -0.006711395923048257827758789062 -0.000729011953808367252349853516 -0.002754480112344026999232626807 0 0 0 0 
2412833333.3333334923 0.180823370814323397537393134371 -0.009298339486122131347656250000 -0.000667446351144462823867797852 -0.002745734993368386788609170068 0 0 0 0 
2413000000.0000000000 0.181375250220298794845419365629 -0.011613077484071259934395037305 -0.000595545163378119468688964844 -0.002713818801566957993748330225 0 0 0 0 
2413166666.6666665077 0.181819289922714205642861884371 -0.014209783636033540207832537305 -0.000480361457448452711105346680 -0.002729329047724605040309286963 0 0 0 0 
2413333333.3333334923 0.183090150356292696853799384371 -0.016608156263828281057337576954 -0.000584521738346666097640991211 -0.002480848692357540130615234375 0 0 0 0 
2413500000.0000000000 0.184113308787345886230468750000 -0.018921811133623119699498360546 -0.000603282125666737556457519531 -0.002690843073651195006129599463 0 0 0 0 
2413666666.6666665077 0.185047701001167297363281250000 -0.021145727485418319702148437500 -0.000611574912909418344497680664 -0.002714613452553749084472656250 0 0 0 0 
2413833333.3333334923 0.186111763119697598556356865629 -0.023403707891702648508092110546 -0.000683713355101644992828369141 -0.002759934868663548989536904443 0 0 0 0 
2414000000.0000000000 0.187368422746658297439736884371 -0.025423362851142879831334298046 -0.000708397710695862770080566406 -0.002731971908360720114467001807 0 0 0 0 
2414166666.6666665077 0.188587039709091186523437500000 -0.027308341115713119506835937500 -0.000743112992495298385620117188 -0.002741886069998145103454589844 0 0 0 0 
2414333333.3333334923 0.189676418900489807128906250000 -0.029428096488118171691894531250 -0.001009041792713105895398784106 -0.002727727405726910071132040869 0 0 0 0 
2414500000.0000000000 0.190899699926376287262286268742 -0.031165093183517459524134451954 -0.001010829233564436002018593896 -0.002757264068350195884704589844 0 0 0 0 
2414666666.6666665077 0.192177712917327908614950615629 -0.032626405358314507221262346093 -0.001191423274576663970947265625 -0.003009696491062641143798828125 0 0 0 0 
2414833333.3333334923 0.193386614322662409026776231258 -0.034206550568342208862304687500 -0.001197996898554265932795859229 -0.002700144192203878922703408350 0 0 0 0 
2415000000.0000000000 0.194666221737861605545205634371 -0.035436712205409996723215471093 -0.001329637249000370936152792822 -0.002651045564562081856968545068 0 0 0 0 
2415166666.6666665077 0.195904374122619601150674384371 -0.036723248660564422607421875000 -0.001460455008782445950749062646 -0.002617880702018737792968750000 0 0 0 0 
2415333333.3333334923 0.197079181671142605880575615629 -0.037642944604158401489257812500 -0.001475511468015610954881977612 -0.002425198210403323173522949219 0 0 0 0 
2415500000.0000000000 0.198224186897277804275674384371 -0.038521397858858108520507812500 -0.001507615670561790899989462744 -0.002377541502937674956080771338 0 0 0 0 
2415666666.6666665077 0.199348270893096896072549384371 -0.039339475333690643310546875000 -0.001411082106642425060272216797 -0.002309407107532023949864052881 0 0 0 0 
2415833333.3333334923 0.200384810566902188400106865629 -0.039937239140272140502929687500 -0.001542914891615509986877441406 -0.002219649031758307976963662256 0 0 0 0 
2416000000.0000000000 0.201315090060234097579794365629 -0.040620919317007071758229841407 -0.001538709038868546919581747900 -0.002144772326573729948756552588 0 0 0 0 
2416166666.6666665077 0.202020570635795593261718750000 -0.041122239083051681518554687500 -0.001495669945143162987352680737 -0.002129972679540514945983886719 0 0 0 0 
2416333333.3333334923 0.202840313315391512771768134371 -0.041375979781150817871093750000 -0.001460117986425756974461220850 -0.002174558816477655930760048975 0 0 0 0 
2416500000.0000000000 0.203577414155006408691406250000 -0.041714124381542212749440778907 -0.001505826832726598002790141528 -0.002113416558131576018092490088 0 0 0 0 
2416666666.6666665077 0.203853517770767211914062500000 -0.042007904499769210815429687500 -0.001377193140797317028045654297 -0.002094869734719396071193076025 0 0 0 0 
2416833333.3333334923 0.204060271382331903655682481258 -0.042065296322107322002370466407 -0.001468606526032089970232319409 -0.002102182712405920028686523438 0 0 0 0 
2417000000.0000000000 0.204376265406608609298544365629 -0.042220827192068099975585937500 -0.001442844746634363911272358472 -0.002270486904308199882507324219 0 0 0 0 
2417166666.6666665077 0.204174354672432001311932481258 -0.041986260563135147094726562500 -0.001464658183977008082746196216 -0.002213964238762855963466025244 0 0 0 0 
2417333333.3333334923 0.204174995422363309005575615629 -0.041794314980506896972656250000 -0.001530104666016995906829833984 -0.002308809896931052207946777344 0 0 0 0 
2417500000.0000000000 0.203924387693405206878338731258 -0.041767541319131851196289062500 -0.001640715287066996097564697266 -0.002506778342649341063258505713 0 0 0 0 
2417666666.6666665077 0.203544810414314297775106865629 -0.041487898677587509155273437500 -0.001700104330666363022447895581 -0.002386857755482196807861328125 0 0 0 0 
2417833333.3333334923 0.203136175870895413497763115629 -0.041261319071054458618164062500 -0.001790268579497932954075478662 -0.002631390001624823050258017432 0 0 0 0 
2418000000.0000000000 0.202589198946952792068643134371 -0.040874596685171127319335937500 -0.001999178901314734978916787256 -0.002615066012367606163024902344 0 0 0 0 
2418166666.6666665077 0.201823905110359191894531250000 -0.040883749723434448242187500000 -0.002299901098012924194335937500 -0.002554716542363166809082031250 0 0 0 0 
2418333333.3333334923 0.200941249728202792068643134371 -0.040561974048614501953125000000 -0.002427174709737300872802734375 -0.002521447138860822157618857275 0 0 0 0 
2418500000.0000000000 0.200004652142524691482705634371 -0.040536902844905853271484375000 -0.002736262511461973190307617188 -0.002576619852334260940551757812 0 0 0 0 
2418666666.6666665077 0.199099585413932800292968750000 -0.040291842073202133178710937500 -0.002877431455999612808227539062 -0.002593748271465301947352743994 0 0 0 0 
2418833333.3333334923 0.197862014174461392501669365629 -0.040346346795558929443359375000 -0.003067333484068512916564941406 -0.002348670968785881996154785156 0 0 0 0 
2419000000.0000000000 0.196598798036575289627236884371 -0.040389221161603927612304687500 -0.003136005019769072966334677588 -0.002138209994882345199584960938 0 0 0 0 
2419166666.6666665077 0.195328950881958007812500000000 -0.040623866021633148193359375000 -0.003320379648357630209681845557 -0.002115115523338317871093750000 0 0 0 0 
2419333333.3333334923 0.193902567028999300857705634371 -0.041100632399320602416992187500 -0.003425597446039319038391113281 -0.001771652838215231895446777344 0 0 0 0 
2419500000.0000000000 0.192419096827506991287393134371 -0.041501425206661217426340471093 -0.003654095809906721115112304688 -0.001709342468529940085170126807 0 0 0 0 
2419666666.6666665077 0.190778538584709195236044365629 -0.042248468846082687377929687500 -0.003539883531630039215087890625 -0.001373173552565277056453085791 0 0 0 0 
2419833333.3333334923 0.189046248793601989746093750000 -0.042638186365365982055664062500 -0.003661606926470994949340820312 -0.001222518156282603957532573169 0 0 0 0 
