# Hz S RI R 
2400000000.0000000000 0.171364888548851013183593750000 0.040068190544843666767160783593 0.002185377757996321158168173682 0.003048104466870427131652832031 0 0 0 0 
2400166666.6666665077 0.172049343585967989822549384371 0.039646469056606292724609375000 0.002329429378733038902282714844 0.002793350722640752792358398438 0 0 0 0 
2400333333.3333334923 0.172399520874023409744424384371 0.038907315582036972045898437500 0.002329137409105896949768066406 0.002689937595278025107142783057 0 0 0 0 
2400500000.0000000000 0.172893851995468111892861884371 0.038399200886487960815429687500 0.002524078823626040978672646631 0.002632601419463754133937216650 0 0 0 0 
2400666666.6666665077 0.173070549964904812911825615629 0.037778772413730621337890625000 0.002505898475646973089930868994 0.002430200576782226996180868994 0 0 0 0 
2400833333.3333334923 0.173471763730049105545205634371 0.037302661687135703350026716407 0.002690869849175215201136923682 0.002117240568622947172877646338 0 0 0 0 
2401000000.0000000000 0.173528969287872286697549384371 0.036452665925025939941406250000 0.002660568570718169212341308594 0.002144855679944158034083701025 0 0 0 0 
2401166666.6666665077 0.173748090863227788727130018742 0.035860687494277947162668596093 0.002712055109441279931309365381 0.001978173851966857910156250000 0 0 0 0 
2401333333.3333334923 0.173621207475662203689736884371 0.035397615283727652812917341407 0.002690836554393171830418252100 0.001849761116318405108210898291 0 0 0 0 
2401500000.0000000000 0.173704177141189602950888115629 0.034517925232648849487304687500 0.002655140589922666983363486182 0.001718749408610164902330708081 0 0 0 0 
2401666666.6666665077 0.173548042774200411697549384371 0.033972330391407012939453125000 0.002564320107921957969665527344 0.001593609456904232935664511572 0 0 0 0 
2401833333.3333334923 0.173502713441848810393963731258 0.033397700637578957294504533593 0.002746662124991416931152343750 0.001557707088068128065821982275 0 0 0 0 
2402000000.0000000000 0.173135966062545804122763115629 0.032609649002552032470703125000 0.002633772324770689010620117188 0.001461047795601188919664692456 0 0 0 0 
2402166666.6666665077 0.172860011458396911621093750000 0.031719215214252471923828125000 0.002564490772783755822422646631 0.001390262623317539908765483325 0 0 0 0 
2402333333.3333334923 0.172655895352363586425781250000 0.030951544642448428762415701954 0.002576159313321114020106650244 0.001180870574899018027661967700 0 0 0 0 
2402500000.0000000000 0.172628656029701205154580634371 0.029967896640300750732421875000 0.002551558194682002067565917969 0.001281566335819662050959921729 0 0 0 0 
2402666666.6666665077 0.172070518136024502853231865629 0.029084516689181331289271170704 0.002472295193001627922058105469 0.001163939363323152065277099609 0 0 0 0 
2402833333.3333334923 0.171689853072166387359942518742 0.028297292068600661540944685157 0.002371390815824269814732216943 0.001091124489903450012207031250 0 0 0 0 
2403000000.0000000000 0.171451777219772311111611884371 0.027092484757304191589355468750 0.002540293848142027854919433594 0.001121307723224163055419921875 0 0 0 0 
2403166666.6666665077 0.171294420957565307617187500000 0.025753980502486228942871093750 0.002557435538619757132289267432 0.001046061981469392993329692310 0 0 0 0 
2403333333.3333334923 0.170932456851005609710369981258 0.024810589849948879587193673046 0.002398926764726638793945312500 0.001225515967234968922258686597 0 0 0 0 
2403500000.0000000000 0.170379698276519803146200615629 0.023371059447526928293248360546 0.002497639972716569900512695312 0.001027074176818131966831826318 0 0 0 0 
2403666666.6666665077 0.170119076967239407638388115629 0.022000385448336601257324218750 0.002434427384287118911743164062 0.001263396930880845026728964697 0 0 0 0 
2403833333.3333334923 0.169867515563964788238848768742 0.020564692094922069204310233204 0.002380707068368792967555380713 0.001109470031224190971971821362 0 0 0 0 
2404000000.0000000000 0.169336125254630986969317518742 0.019304012879729270935058593750 0.002520822919905186133143759619 0.001025497680529952049255371094 0 0 0 0 
2404166666.6666665077 0.169020548462867709060830634371 0.017504651099443439138392264454 0.002605298534035683111903525244 0.001138644176535307927372597803 0 0 0 0 
2404333333.3333334923 0.168822363018989590743856865629 0.016235895454883578908900076954 0.002543755574151874022242880713 0.001236492884345353083369589697 0 0 0 0 
2404500000.0000000000 0.168443992733955411056356865629 0.014476370997726920736292655079 0.002622205298393965201136923682 0.001217192388139664909960102612 0 0 0 0 
2404666666.6666665077 0.168328568339347811599893134371 0.012696039862930779892891131055 0.002694849856197834014892578125 0.001167720067314804033992148291 0 0 0 0 
2404833333.3333334923 0.168108135461807306487713731258 0.011099874041974549729316912305 0.002858958207070827917811728369 0.001198691315948962948442768628 0 0 0 0 
2405000000.0000000000 0.168007493019104003906250000000 0.009463202208280563354492187500 0.003020922886207700209376669775 0.001311790081672370000126504053 0 0 0 0 
2405166666.6666665077 0.167739748954773004729901231258 0.007497426122426986694335937500 0.003245475236326456069946289062 0.001385556068271398977992392432 0 0 0 0 
2405333333.3333334923 0.167724639177322387695312500000 0.005627081263810396194458007812 0.003373683895915747122523642432 0.001226188614964484951616596753 0 0 0 0 
2405500000.0000000000 0.167776852846145602127236884371 0.003868614789098501205444335938 0.003331698011606932120082236182 0.001174272503703833060023642432 0 0 0 0 
2405666666.6666665077 0.167703196406364413162393134371 0.001956981606781483130214072119 0.003610832616686820983886718750 0.000894207390956580638885498047 0 0 0 0 
2405833333.3333334923 0.167601346969604492187500000000 0.000283818226307630484730321063 0.003507866989821196036097861182 0.000650125381071120500564575195 0 0 0 0 
2406000000.0000000000 0.167768135666847201248330634371 -0.001750633236952126026153564453 0.003863730467855929894688271631 0.000718000752385705709457397461 0 0 0 0 
2406166666.6666665077 0.167521700263023404220419365629 -0.003405087161809206008911132812 0.003855003044009209112880087744 0.000501281057950109243392944336 0 0 0 0 
2406333333.3333334923 0.167718559503555297851562500000 -0.005323272664099931716918945312 0.003900449024513363838195800781 0.000418521114625036716461181641 0 0 0 0 
2406500000.0000000000 0.167674466967582702636718750000 -0.007165247108787298202514648438 0.003951058257371187210083007812 0.000231024358072318109586992807 0 0 0 0 
2406666666.6666665077 0.167624697089195306975994981258 -0.008790410123765468597412109375 0.004045702517032623291015625000 0.000091003086708951741456985474 0 0 0 0 
2406833333.3333334923 0.167639464139938410003338731258 -0.010516231879591940098772617773 0.004187519662082195281982421875 -0.000186302975635044303819379263 0 0 0 0 
2407000000.0000000000 0.167823866009712191482705634371 -0.012250384315848350524902343750 0.004256275016814470291137695312 -0.000297093443805351907580775128 0 0 0 0 
2407166666.6666665077 0.167951583862304687500000000000 -0.013708012178540229797363281250 0.004197047557681798934936523438 -0.000516967382282018661499023438 0 0 0 0 
2407333333.3333334923 0.167954489588737487792968750000 -0.015280268155038360250452811329 0.004349307622760534286499023438 -0.000837368483189493417739868164 0 0 0 0 
2407500000.0000000000 0.167906120419502313811932481258 -0.016561981290578838693638985546 0.004185710567981004714965820312 -0.001022778451442718939540243994 0 0 0 0 
2407666666.6666665077 0.168145388364791897872763115629 -0.017715711146593090402623360546 0.004285467322915793332571698926 -0.001314269960857928016065288013 0 0 0 0 
2407833333.3333334923 0.168167054653167696853799384371 -0.019105948507785800588587576954 0.004368240479379892349243164062 -0.001508277840912342071533203125 0 0 0 0 
2408000000.0000000000 0.168270438909530611892861884371 -0.020161526277661320077916329296 0.004420790821313858032226562500 -0.001623461605049669959424663013 0 0 0 0 
2408166666.6666665077 0.168604940176010104080361884371 -0.020998442545533180236816406250 0.004183722194284200668334960938 -0.002157218055799603895900107275 0 0 0 0 
2408333333.3333334923 0.168967455625534113128338731258 -0.022019026800990111614186872657 0.003956436645239591598510742188 -0.002202008385211228890659951318 0 0 0 0 
2408500000.0000000000 0.169186607003212002853231865629 -0.022907156497240069997767264454 0.003841782687231897874119423975 -0.002624533371999859809875488281 0 0 0 0 
2408666666.6666665077 0.169448330998420687576455634371 -0.023753572255373001098632812500 0.003568973159417510032653808594 -0.002801421331241726875305175781 0 0 0 0 
2408833333.3333334923 0.169634550809860201736611884371 -0.024464868009090420114537423046 0.003380611771717668013331747900 -0.002999051474034785790684365381 0 0 0 0 
2409000000.0000000000 0.170092061161994906326455634371 -0.025172498077154159545898437500 0.003251724643632770018336630713 -0.003112978069111704826354980469 0 0 0 0 
2409166666.6666665077 0.170514732599258395095986884371 -0.025942021980881690979003906250 0.002933413954451680183410644531 -0.003119667759165167808532714844 0 0 0 0 
2409333333.3333334923 0.170890226960182189941406250000 -0.026630571112036708486536795704 0.002706466475501656965968466650 -0.003151426557451487021205283057 0 0 0 0 
2409500000.0000000000 0.171157076954841613769531250000 -0.027466496452689170837402343750 0.002588000148534775213954306494 -0.003211637027561665014979697119 0 0 0 0 
2409666666.6666665077 0.171326011419296292404013115629 -0.028145438060164451599121093750 0.002352590672671794891357421875 -0.003338879905641078948974609375 0 0 0 0 
2409833333.3333334923 0.171566307544708307464276231258 -0.028690038248896598815917968750 0.002145812381058930917027138818 -0.003139864187687634988072060693 0 0 0 0 
2410000000.0000000000 0.171792283654213007171307481258 -0.029560742899775508535364920704 0.002094286261126399040222167969 -0.003187745576724410057067871094 0 0 0 0 
2410166666.6666665077 0.172023549675941495040731865629 -0.030031636357307430612584298046 0.001857654773630202033399272388 -0.003111035330221056938171386719 0 0 0 0 
2410333333.3333334923 0.171912729740142794510049384371 -0.030616175383329391479492187500 0.001757694757543504021288227612 -0.003081513335928320884704589844 0 0 0 0 
2410500000.0000000000 0.172119617462158203125000000000 -0.031475931406021118164062500000 0.001712578115984797911403036963 -0.003268193686380981965305947412 0 0 0 0 
2410666666.6666665077 0.171940118074417086502236884371 -0.032135620713233947753906250000 0.001575358211994170925737690503 -0.003012647153809667067286826025 0 0 0 0 
2410833333.3333334923 0.171883419156074496170205634371 -0.032538771629333503032643903907 0.001667360076680780107613588648 -0.003196714445948601202723837744 0 0 0 0 
2411000000.0000000000 0.171703293919563293457031250000 -0.033284153789281852031667341407 0.001571202999912201924564980615 -0.003163065062835813002345419775 0 0 0 0 
2411166666.6666665077 0.171342179179191589355468750000 -0.033896721899509429931640625000 0.001375717809423804066301655347 -0.003136965213343501091003417969 0 0 0 0 
2411333333.3333334923 0.171124368906021090408486884371 -0.034526851028203957294504533593 0.001468857983127235932591103662 -0.003267362946644424958470009912 0 0 0 0 
2411500000.0000000000 0.170793473720550509353799384371 -0.035339936614036560058593750000 0.001451735966838896057726215894 -0.003355251392349600791931152344 0 0 0 0 
2411666666.6666665077 0.170538350939750699142294365629 -0.035829469561576843261718750000 0.001290843123570085005519247900 -0.003217623103410006003138876807 0 0 0 0 
2411833333.3333334923 0.170037090778350802322549384371 -0.036564007401466369628906250000 0.001291914260946213982225727612 -0.003233181312680244012119912256 0 0 0 0 
2412000000.0000000000 0.169677838683128412444744981258 -0.037249445915222167968750000000 0.001285079051740467982051230322 -0.003450075164437294006347656250 0 0 0 0 
2412166666.6666665077 0.169164404273033086578692518742 -0.038029015064239501953125000000 0.001204126281663775010349892725 -0.003599726362153888182399130713 0 0 0 0 
2412333333.3333334923 0.168856412172317504882812500000 -0.038788355886936187744140625000 0.001034586923196912028669047778 -0.003588780295103787942173623193 0 0 0 0 
2412500000.0000000000 0.168113365769386291503906250000 -0.039595969021320343017578125000 0.000836743216495960950851440430 -0.003827123902738093896153115381 0 0 0 0 
2412666666.6666665077 0.167454153299331692794638115629 -0.040630593895912170410156250000 0.000704551173839718103408813477 -0.003756165038794279098510742188 0 0 0 0 
2412833333.3333334923 0.166998594999313410003338731258 -0.041347414255142211914062500000 0.000705264683347195386886596680 -0.003988357726484537124633789062 0 0 0 0 
2413000000.0000000000 0.166312113404273986816406250000 -0.042423274368047707294504533593 0.000173927197465673089027404785 -0.003878760850057005882263183594 0 0 0 0 
2413166666.6666665077 0.165549963712692288497763115629 -0.043389864265918731689453125000 0.000092360358394216746091842651 -0.003756677033379673957824707031 0 0 0 0 
2413333333.3333334923 0.164875313639640808105468750000 -0.044431839138269417499582658593 -0.000053391813708003610372543335 -0.003812906099483371214625693213 0 0 0 0 
2413500000.0000000000 0.164198890328407287597656250000 -0.045339774340391159057617187500 -0.000170593077200464904308319092 -0.003796846140176057815551757812 0 0 0 0 
2413666666.6666665077 0.163460522890090886871661268742 -0.046530444175004959106445312500 -0.000492620922159403562545776367 -0.003637641435489058928248740088 0 0 0 0 
2413833333.3333334923 0.162677004933357211013955634371 -0.047668695449829101562500000000 -0.000544996873941272497177124023 -0.003770795650780200958251953125 0 0 0 0 
2414000000.0000000000 0.161942645907402010818643134371 -0.048794262111186981201171875000 -0.000827982963528484106063842773 -0.003393354592844843864440917969 0 0 0 0 
2414166666.6666665077 0.161401420831680297851562500000 -0.049862731248140342021901716407 -0.000757703033741563558578491211 -0.003622535616159439086914062500 0 0 0 0 
2414333333.3333334923 0.160833150148391695877236884371 -0.051047410815954208374023437500 -0.000991915352642536163330078125 -0.003558807540684937997105263818 0 0 0 0 
2414500000.0000000000 0.160328418016433688064736884371 -0.051978278905153281475026716407 -0.001008345047011971907374716650 -0.003413575235754251913783408057 0 0 0 0 
2414666666.6666665077 0.159843578934669494628906250000 -0.053213074803352362895925153907 -0.001032808097079396031023335034 -0.003220223356038331985473632812 0 0 0 0 
2414833333.3333334923 0.159258723258972195724325615629 -0.054570585489273071289062500000 -0.001268676132895051999333047021 -0.003114578314125537872314453125 0 0 0 0 
2415000000.0000000000 0.158908545970916803558026231258 -0.055713240057230002666432966407 -0.001490567810833453915239643628 -0.003058100119233130975010537256 0 0 0 0 
2415166666.6666665077 0.158601790666580200195312500000 -0.057161465287208557128906250000 -0.001528156222775578932521201025 -0.002803651383146644072291708838 0 0 0 0 
2415333333.3333334923 0.158433020114898709396200615629 -0.058484394103288650512695312500 -0.001636496745049953894374228369 -0.002878879429772495789768838037 0 0 0 0 
2415500000.0000000000 0.158168762922286987304687500000 -0.059787023812532431865651716407 -0.001572136068716645023943256909 -0.002779720583930612044093466650 0 0 0 0 
2415666666.6666665077 0.157897114753723089020098768742 -0.061211533844470977783203125000 -0.001807863591238856098772358472 -0.002576201455667614936828613281 0 0 0 0 
2415833333.3333334923 0.157808229327201787750567518742 -0.062690243124961853027343750000 -0.001761446706950664953944540869 -0.002358205150812863869907998193 0 0 0 0 
2416000000.0000000000 0.157407134771347101409588731258 -0.064175173640251159667968750000 -0.001627077581360935948015522534 -0.002172922482714056968688964844 0 0 0 0 
2416166666.6666665077 0.157471582293510409256143134371 -0.065545842051506042480468750000 -0.001620867289602756933925009619 -0.002077317098155618147609091650 0 0 0 0 
2416333333.3333334923 0.157220751047134399414062500000 -0.066988021135330200195312500000 -0.001623668125830590941785502856 -0.001904694712720810933354043115 0 0 0 0 
2416500000.0000000000 0.157120987772941589355468750000 -0.068491667509078979492187500000 -0.001594100962392986037610698169 -0.001920947572216391997096396338 0 0 0 0 
2416666666.6666665077 0.156737789511680603027343750000 -0.069804623723030090332031250000 -0.001617034780792891979217529297 -0.001728549716062844016431498950 0 0 0 0 
2416833333.3333334923 0.156753331422805786132812500000 -0.071406975388526916503906250000 -0.001407508505508304075953818213 -0.001702300738543272018432617188 0 0 0 0 
2417000000.0000000000 0.156387135386467007736044365629 -0.072705090045928955078125000000 -0.001386829884722829081891704028 -0.001695465063676238059997558594 0 0 0 0 
2417166666.6666665077 0.156295269727706909179687500000 -0.073758311569690704345703125000 -0.001382370013743638992309570312 -0.001712185214273632006404257666 0 0 0 0 
2417333333.3333334923 0.156186908483505304534588731258 -0.074904672801494598388671875000 -0.001508341985754668929456401294 -0.001699087675660849051234579932 0 0 0 0 
2417500000.0000000000 0.155913501977920504470986884371 -0.076191581785678863525390625000 -0.001286851707845926067949604565 -0.001739834086038172028185200269 0 0 0 0 
2417666666.6666665077 0.155919790267944308181924384371 -0.077004581689834594726562500000 -0.001398942316882312080980610425 -0.001656784443184732957127236475 0 0 0 0 
2417833333.3333334923 0.155871018767356900314169365629 -0.078023850917816162109375000000 -0.001289951149374247030970908057 -0.001698865671642125086543417822 0 0 0 0 
2418000000.0000000000 0.155800879001617403885049384371 -0.079094476997852325439453125000 -0.001323982258327305100084614331 -0.001689692842774092934252094800 0 0 0 0 
2418166666.6666665077 0.155742511153221102615518134371 -0.079923480749130249023437500000 -0.001422375207766890959498740088 -0.001640233676880598068237304688 0 0 0 0 
2418333333.3333334923 0.155931115150451687911825615629 -0.080784566700458526611328125000 -0.001444604480639100074768066406 -0.001553984475322067954419780200 0 0 0 0 
2418500000.0000000000 0.155633375048637390136718750000 -0.081384874880313873291015625000 -0.001358492067083715958836220850 -0.001576247625052928924560546875 0 0 0 0 
2418666666.6666665077 0.155739083886146600921307481258 -0.082302823662757873535156250000 -0.001421861001290380954742431641 -0.001662672613747417926788330078 0 0 0 0 
2418833333.3333334923 0.155632331967353793045205634371 -0.082969084382057189941406250000 -0.001483013620600103898289345850 -0.001714740530587733008741069263 0 0 0 0 
2419000000.0000000000 0.155421078205108587066973768742 -0.083680354058742523193359375000 -0.001349668600596487955806113135 -0.001559984753839672045466757666 0 0 0 0 
2419166666.6666665077 0.155392587184906005859375000000 -0.084236212074756622314453125000 -0.001423891866579652049421000903 -0.001542701967991888956782675635 0 0 0 0 
2419333333.3333334923 0.155146628618240411956463731258 -0.084481894969940185546875000000 -0.001455140300095080895664834131 -0.001659694011323153972625732422 0 0 0 0 
2419500000.0000000000 0.154989585280418395996093750000 -0.085334777832031250000000000000 -0.001353408326394855976104736328 -0.001641513430513441996333456885 0 0 0 0 
2419666666.6666665077 0.154984131455421503265057481258 -0.085869722068309783935546875000 -0.001535206567496061108232807690 -0.001533057424239814064623188550 0 0 0 0 
2419833333.3333334923 0.154570937156677301604901231258 -0.086135089397430419921875000000 -0.001565252314321696975110698169 -0.001670441124588250897051167065 0 0 0 0 
