# Hz S RI R 50
2400000000.0000000000 0.154952719807624789138955634371 0.106583334505558000038227817186 -0.001451395219191909053205180591 -0.004353469237685204419607831738 0 0 0 0 
2400166666.6666665077 0.154932290315628107268963731258 0.104085892438888605315838731258 -0.001817735144868493080139160156 -0.004383012652397155761718750000 0 0 0 0 
2400333333.3333334923 0.154950305819511413574218750000 0.101725436747074099441690009371 -0.001982059096917510032653808594 -0.004280169494450092315673828125 0 0 0 0 
2400500000.0000000000 0.154874712228774996658486884371 0.099105946719646453857421875000 -0.002230021171271800994873046875 -0.004000307060778141021728515625 0 0 0 0 
2400666666.6666665077 0.154998332262039212325888115629 0.096604064106941223144531250000 -0.002293562050908803939819335938 -0.003861158154904841943028115381 0 0 0 0 
2400833333.3333334923 0.154873192310333307464276231258 0.093694202601909637451171875000 -0.002536661457270383834838867188 -0.003761542495340108871459960938 0 0 0 0 
2401000000.0000000000 0.155261337757110595703125000000 0.090608090162277221679687500000 -0.002534538507461547851562500000 -0.003682090202346444129943847656 0 0 0 0 
2401166666.6666665077 0.154937610030174310882244981258 0.087622500956058502197265625000 -0.002573327627032994790318154443 -0.003841863013803958892822265625 0 0 0 0 
2401333333.3333334923 0.156016513705253601074218750000 0.086311876773834228515625000000 -0.003087485209107398986816406250 -0.003068826161324977874755859375 0 0 0 0 
2401500000.0000000000 0.156045436859130887130575615629 0.082980707287788391113281250000 -0.003130663419142365889308310400 -0.003354007145389914946315146338 0 0 0 0 
2401666666.6666665077 0.156416878104209899902343750000 0.079356692731380462646484375000 -0.002919698366895318031311035156 -0.003237686352804303169250488281 0 0 0 0 
2401833333.3333334923 0.156673029065132113357705634371 0.077329859137535095214843750000 -0.003240432590246200995204306494 -0.003272321540862321853637695312 0 0 0 0 
2402000000.0000000000 0.158146262168884305099325615629 0.074665859341621398925781250000 -0.003119170665740966796875000000 -0.002879872685298324064967490088 0 0 0 0 
2402166666.6666665077 0.158943772315979003906250000000 0.071735143661499023437500000000 -0.003058708505704998970031738281 -0.002814820501953362984898232568 0 0 0 0 
2402333333.3333334923 0.159673258662223788162393134371 0.069178074598312377929687500000 -0.003152530873194336891174316406 -0.002919667866080998940708779443 0 0 0 0 
2402500000.0000000000 0.160877510905265808105468750000 0.066729158163070678710937500000 -0.003464242909103631973266601562 -0.002876409795135260061976767432 0 0 0 0 
2402666666.6666665077 0.162217199802398709396200615629 0.064590387046337127685546875000 -0.003633348736912012100219726562 -0.002800637390464543862583779443 0 0 0 0 
2402833333.3333334923 0.163437396287918090820312500000 0.061952292919158942485768903907 -0.003586676437407732009887695312 -0.002557387808337808089015341650 0 0 0 0 
2403000000.0000000000 0.165052175521850613693075615629 0.059723157435655586933176408593 -0.003771301126107573942897177588 -0.002582751912996172904968261719 0 0 0 0 
2403166666.6666665077 0.166584610939025906661825615629 0.057527069002389907836914062500 -0.003860149532556533813476562500 -0.002440151292830706076381064307 0 0 0 0 
2403333333.3333334923 0.168142944574356106857138115629 0.055509198457002639770507812500 -0.004097103606909514340872480176 -0.002280329819768666787388466943 0 0 0 0 
2403500000.0000000000 0.169833377003669711013955634371 0.053219299763441092754323591407 -0.004231928382068873319143964551 -0.002136586233973503112792968750 0 0 0 0 
2403666666.6666665077 0.171687021851539611816406250000 0.051564559340476989746093750000 -0.004436361603438854217529296875 -0.001841998426243663051007914966 0 0 0 0 
2403833333.3333334923 0.173247888684272793868856865629 0.049554783850908279418945312500 -0.004399085883051156997680664062 -0.001562570687383413097978901440 0 0 0 0 
2404000000.0000000000 0.174770757555961608886718750000 0.047743983566761016845703125000 -0.004660812672227621078491210938 -0.001369921956211328940150595557 0 0 0 0 
2404166666.6666665077 0.176663964986801202972088731258 0.046464715152978897094726562500 -0.004622139967978000640869140625 -0.001194060081616044044494628906 0 0 0 0 
2404333333.3333334923 0.178208127617835998535156250000 0.044826719909906387329101562500 -0.004554774146527051925659179688 -0.000848672119900584220886230469 0 0 0 0 
2404500000.0000000000 0.179803550243377713302450615629 0.043536491692066192626953125000 -0.004546486306935548782348632812 -0.000712726730853319168090820312 0 0 0 0 
2404666666.6666665077 0.181528538465499905685263115629 0.042530979961156852031667341407 -0.004669298883527517318725585938 -0.000230330857448279911845606671 0 0 0 0 
2404833333.3333334923 0.183070436120033291915731865629 0.041228372603654861450195312500 -0.004482022486627101898193359375 -0.000209837424336001304074963980 0 0 0 0 
2405000000.0000000000 0.184312403202056912521200615629 0.040676802396774291992187500000 -0.004342570435255765914916992188 -0.000018903170712292190978323289 0 0 0 0 
2405166666.6666665077 0.185962989926338195800781250000 0.039942130446434020996093750000 -0.004372011870145797729492187500 -0.000003451446218605270101453504 0 0 0 0 
2405333333.3333334923 0.187259629368781987945880018742 0.039530139416456222534179687500 -0.004116193857043982419485761426 0.000386958854505792314380091534 0 0 0 0 
2405500000.0000000000 0.188544526696205111404580634371 0.038986712694168090820312500000 -0.004054529126733542356009198926 0.000400404242100194096565246582 0 0 0 0 
2405666666.6666665077 0.189791902899742098709268134371 0.038487676531076431274414062500 -0.003916703630238770571236894824 0.000564712216146290302276611328 0 0 0 0 
2405833333.3333334923 0.191104188561439486404580634371 0.038366410881280899047851562500 -0.003924674820154905319213867188 0.000765379751101136207580566406 0 0 0 0 
2406000000.0000000000 0.191958993673324612716513115629 0.038200031965970993041992187500 -0.003842101665213704109191894531 0.000777375244069844484329223633 0 0 0 0 
2406166666.6666665077 0.192939355969428988357705634371 0.037935107946395867084543596093 -0.003545578336343169212341308594 0.000989945838227868080139160156 0 0 0 0 
2406333333.3333334923 0.193899810314178494552450615629 0.037938375025987632060964216407 -0.003576306626200675964355468750 0.000964903680142015218734741211 0 0 0 0 
2406500000.0000000000 0.194535449147224398513955634371 0.037922553718090057373046875000 -0.003207644913345574898960732568 0.000850374111905694007873535156 0 0 0 0 
2406666666.6666665077 0.195039898157119806487713731258 0.037913732230663299560546875000 -0.003286442253738642172572470557 0.001039734575897454998613667065 0 0 0 0 
2406833333.3333334923 0.195593208074569702148437500000 0.037914298474788672710378278907 -0.003253400092944502830505371094 0.001032644999213516929029155200 0 0 0 0 
2407000000.0000000000 0.195902094244956997970419365629 0.038077484816312789916992187500 -0.003066741162911057905909872900 0.001016822061501442952397011865 0 0 0 0 
2407166666.6666665077 0.196385920047760009765625000000 0.037934962660074227069895158593 -0.003020877484232186837437295068 0.001027743797749280929565429688 0 0 0 0 
2407333333.3333334923 0.196209773421287508865518134371 0.038104273378849029541015625000 -0.002849749056622385978698730469 0.000949933426454663276672363281 0 0 0 0 
2407500000.0000000000 0.196206077933311490157919365629 0.038081888109445571899414062500 -0.002880524145439267158508300781 0.000963421596679836511611938477 0 0 0 0 
2407666666.6666665077 0.196136131882667513748330634371 0.037959937006235122680664062500 -0.002812447026371955871582031250 0.000941360602155327796936035156 0 0 0 0 
2407833333.3333334923 0.195662736892700195312500000000 0.037797998636960983276367187500 -0.002837406238541007041931152344 0.000914186530280858278274536133 0 0 0 0 
2408000000.0000000000 0.195571899414062500000000000000 0.037630055099725723266601562500 -0.002796723041683435006382607568 0.000885560817550867795944213867 0 0 0 0 
2408166666.6666665077 0.194979593157768305022869981258 0.037282012403011322021484375000 -0.002877153223380446000340127100 0.000840171880554407835006713867 0 0 0 0 
2408333333.3333334923 0.194581881165504511077557481258 0.036642618477344512939453125000 -0.002742433687672019004821777344 0.000906863599084317684173583984 0 0 0 0 
2408500000.0000000000 0.193901225924491910079794365629 0.036305282264947891235351562500 -0.002727582119405270056483603369 0.000776179775130003690719604492 0 0 0 0 
2408666666.6666665077 0.193160191178321810623330634371 0.035748757421970367431640625000 -0.002764845732599496841430664062 0.000753083208110183477401733398 0 0 0 0 
2408833333.3333334923 0.192459151148796109298544365629 0.034948326647281646728515625000 -0.002745424630120397047755576025 0.000853755511343479156494140625 0 0 0 0 
2409000000.0000000000 0.191492632031440707107705634371 0.033902224153280258178710937500 -0.002808217424899340109584189307 0.000959765398874878883361816406 0 0 0 0 
2409166666.6666665077 0.190577089786529513260049384371 0.033072289079427719116210937500 -0.002770592691376804871800088037 0.000810937257483601570129394531 0 0 0 0 
2409333333.3333334923 0.189710378646850613693075615629 0.031928099691867828369140625000 -0.002762517891824245886561728369 0.000801534391939640153586232874 0 0 0 0 
2409500000.0000000000 0.188520044088363702972088731258 0.030523985624313351022740548046 -0.002850748831406236128566122900 0.000768607540521770715713500977 0 0 0 0 
2409666666.6666665077 0.187747165560722406585369981258 0.029159596189856529235839843750 -0.002903741551563144163844443213 0.000822101137600839138031005859 0 0 0 0 
2409833333.3333334923 0.186549291014671297928018134371 0.027673630043864250183105468750 -0.002961784135550260977504111182 0.000910284987185150384902954102 0 0 0 0 
2410000000.0000000000 0.185561269521713312347088731258 0.026012985035777088510533516796 -0.002973180729895830154418945312 0.000907879148144274950027465820 0 0 0 0 
2410166666.6666665077 0.184464111924171503265057481258 0.024031685665249831462819685157 -0.003095948603004217147827148438 0.001019058167003094933153461987 0 0 0 0 
2410333333.3333334923 0.183648094534873990157919365629 0.022306349128484729421595389454 -0.003162429435178637938258505713 0.000876228092238306999206542969 0 0 0 0 
2410500000.0000000000 0.182655453681945800781250000000 0.020460130646824840200403983204 -0.003184169065207242965698242188 0.000906969420611858367919921875 0 0 0 0 
2410666666.6666665077 0.181876718997955294510049384371 0.018193282186985019338587576954 -0.003156919963657855987548828125 0.001071672537364066080806113135 0 0 0 0 
2410833333.3333334923 0.181176468729972811599893134371 0.015923857688903808593750000000 -0.003441171720623970031738281250 0.001022200915031135082244873047 0 0 0 0 
2411000000.0000000000 0.180472865700721712967080634371 0.013760196976363660639752772852 -0.003489542985334991975071572412 0.001273114117793739058850932544 0 0 0 0 
2411166666.6666665077 0.179666250944137600997763115629 0.011663860641419889277448085352 -0.003311769338324666023254394531 0.001375567866489290974260639722 0 0 0 0 
2411333333.3333334923 0.179441973567008999923544365629 0.009006869047880172729492187500 -0.003595822490751742882969521631 0.001294279820285737948176718604 0 0 0 0 
2411500000.0000000000 0.178829520940780611892861884371 0.006666579283773899078369140625 -0.003327453508973122076747275244 0.001226173946633934974670410156 0 0 0 0 
2411666666.6666665077 0.178752481937408502776776231258 0.004229194484651088714599609375 -0.003592200810089706940891884912 0.001308398554101585908177041162 0 0 0 0 
2411833333.3333334923 0.178537696599960299392861884371 0.001994108315557241006138466943 -0.003744017565622926192042685400 0.001494464930146933035609579932 0 0 0 0 
2412000000.0000000000 0.178657263517379788497763115629 -0.000523201189935207366943359375 -0.003879578085616230964660644531 0.001533007249236107089399028247 0 0 0 0 
2412166666.6666665077 0.178708791732788113693075615629 -0.002894243225455284118652343750 -0.003844710765406488938572548975 0.001764332060702145099639892578 0 0 0 0 
2412333333.3333334923 0.178973138332366887848223768742 -0.005379282403737306594848632812 -0.003923783544450998306274414062 0.001932174433022737936732626807 0 0 0 0 
2412500000.0000000000 0.179320231080055209060830634371 -0.007897237315773963928222656250 -0.004046473652124404907226562500 0.002004009438678621812107705225 0 0 0 0 
2412666666.6666665077 0.179880097508430508712606865629 -0.010115006938576700037946132227 -0.004137240815907716751098632812 0.002091649221256374879124306787 0 0 0 0 
2412833333.3333334923 0.180495098233222989181356865629 -0.012579031288623809814453125000 -0.004186704289168119430541992188 0.002389353699982165856602334131 0 0 0 0 
2413000000.0000000000 0.181333631277084406097088731258 -0.015037837438285350799560546875 -0.004298096988350152969360351562 0.002677698386833072142360068213 0 0 0 0 
2413166666.6666665077 0.182117477059364291092080634371 -0.017291883006691929208775704296 -0.004307339899241924285888671875 0.002863830188289285139796591650 0 0 0 0 
2413333333.3333334923 0.183062583208084106445312500000 -0.019496042281389239919642264454 -0.004442526958882808685302734375 0.003109849290922284126281738281 0 0 0 0 
2413500000.0000000000 0.183867514133453396896200615629 -0.021669751033186909067174141796 -0.004431218374520540237426757812 0.003441116074100137190577841650 0 0 0 0 
2413666666.6666665077 0.185092568397522000411825615629 -0.023824030533432960510253906250 -0.004443912766873837384695722363 0.003738690400496124787571572412 0 0 0 0 
2413833333.3333334923 0.186162158846855191329794365629 -0.025708887726068500173548514454 -0.004386503249406814575195312500 0.003981909714639186859130859375 0 0 0 0 
2414000000.0000000000 0.187291413545608492752236884371 -0.027604432776570320129394531250 -0.004245866555720567703247070312 0.004413627553731203079223632812 0 0 0 0 
2414166666.6666665077 0.188397943973541287521200615629 -0.029440781101584441448171247657 -0.004183938261121512326712323926 0.004793317988514900207519531250 0 0 0 0 
2414333333.3333334923 0.189485356211662292480468750000 -0.031314510852098471904714216407 -0.003869149833917617797851562500 0.005089880898594856262207031250 0 0 0 0 
2414500000.0000000000 0.190664127469062805175781250000 -0.032680097967386252666432966407 -0.003640522714704275131225585938 0.005468448158353567123413085938 0 0 0 0 
2414666666.6666665077 0.191837340593338012695312500000 -0.034209672361612319946289062500 -0.003559436881914734840393066406 0.005769876763224601745605468750 0 0 0 0 
2414833333.3333334923 0.193075194954872103592080634371 -0.035501837730407721782643903907 -0.003063816577196121215820312500 0.005978728644549846649169921875 0 0 0 0 
2415000000.0000000000 0.194132879376411410232705634371 -0.036686465144157409667968750000 -0.003043477656319737000706338037 0.006058703642338514328002929688 0 0 0 0 
2415166666.6666665077 0.195355698466300992111044365629 -0.037824060767889022827148437500 -0.002553633647039533095118857275 0.006294910330325365066528320312 0 0 0 0 
2415333333.3333334923 0.196542486548423794845419365629 -0.038762673735618591308593750000 -0.002318646060302854017970419775 0.006570968311280012130737304688 0 0 0 0 
2415500000.0000000000 0.197476476430892888824786268742 -0.039458647370338439941406250000 -0.001850123400799930095672607422 0.006647527683526278409475995801 0 0 0 0 
2415666666.6666665077 0.198558315634727505782919365629 -0.040249757468700408935546875000 -0.001619457267224789099452353369 0.006670789793133735656738281250 0 0 0 0 
2415833333.3333334923 0.199277937412261990646200615629 -0.040975071489810936664621721093 -0.001419397071003914096234965747 0.006890863180160523328299237988 0 0 0 0 
2416000000.0000000000 0.200071379542350796798544365629 -0.041521195322275161743164062500 -0.001077660243026911995531391675 0.006984311621636152267456054688 0 0 0 0 
2416166666.6666665077 0.200725510716438293457031250000 -0.041886530816555023193359375000 -0.000640143931377679109573364258 0.007045056205242872238159179688 0 0 0 0 
2416333333.3333334923 0.201329097151756286621093750000 -0.042334895581006996845285783593 -0.000247795222094282507896423340 0.007042638491839171323294355176 0 0 0 0 
2416500000.0000000000 0.201691672205924987792968750000 -0.042435087263584136962890625000 0.000135256763314828303739270621 0.007107486948370934400076581738 0 0 0 0 
2416666666.6666665077 0.202016353607177706619424384371 -0.042851570993661880493164062500 0.000453899672720581293106079102 0.007035062182694674405569745801 0 0 0 0 
2416833333.3333334923 0.202128216624260004241619981258 -0.042842701077461242675781250000 0.000669773784466087818145751953 0.007001566700637341413016034863 0 0 0 0 
2417000000.0000000000 0.202320918440818786621093750000 -0.043066594749689102172851562500 0.001124428701587020917179726709 0.006967517547309398651123046875 0 0 0 0 
2417166666.6666665077 0.201908260583877591232138115629 -0.042940724641084671020507812500 0.001432181918062269904493022388 0.006866885349154472351074218750 0 0 0 0 
2417333333.3333334923 0.201643720269203213790731865629 -0.042855829000473022460937500000 0.001669523306190967993495322119 0.006662136409431695938110351562 0 0 0 0 
2417500000.0000000000 0.201373279094695989410723768742 -0.042816292494535453105886091407 0.002009536139667034149169921875 0.006598385982215405377859784863 0 0 0 0 
2417666666.6666665077 0.200709939002990694900674384371 -0.042677003890275962139089216407 0.002158406190574169158935546875 0.006516893859952688217163085938 0 0 0 0 
2417833333.3333334923 0.200268432497978210449218750000 -0.042477015405893332744557966407 0.002346342429518700079676962744 0.006495229899883270263671875000 0 0 0 0 
2418000000.0000000000 0.199505552649498013595419365629 -0.042354345321655273437500000000 0.002737746341153978867771767725 0.006186340935528278350830078125 0 0 0 0 
2418166666.6666665077 0.198755517601966913421307481258 -0.042179636657238006591796875000 0.003067493205890059904811240088 0.006024333648383617401123046875 0 0 0 0 
2418333333.3333334923 0.197846204042434692382812500000 -0.042061924934387207031250000000 0.003097845474258064790012978662 0.006004311610013247403616620801 0 0 0 0 
2418500000.0000000000 0.196804806590080288986044365629 -0.042091153562068939208984375000 0.003282696707174181938171386719 0.005783369299024344357962323926 0 0 0 0 
2418666666.6666665077 0.195849895477294894119424384371 -0.042052529752254493022878278907 0.003416844643652439117431640625 0.005642781034111976623535156250 0 0 0 0 
2418833333.3333334923 0.194522306323051508147869981258 -0.042318429797887802124023437500 0.003586066421121358871459960938 0.005488625727593898773193359375 0 0 0 0 
2419000000.0000000000 0.193202778697013910491619981258 -0.042434480041265487670898437500 0.003836001968011260032653808594 0.005295732524245977401733398438 0 0 0 0 
2419166666.6666665077 0.191893547773361206054687500000 -0.042734384536743157123606096093 0.003966861404478549957275390625 0.005268947221338748931884765625 0 0 0 0 
2419333333.3333334923 0.190579995512962313553018134371 -0.043249644339084632183034528907 0.004319400060921907424926757812 0.005105848424136638641357421875 0 0 0 0 
2419500000.0000000000 0.189106583595275906661825615629 -0.043763268738985061645507812500 0.004356176126748322573190019824 0.004871050827205181121826171875 0 0 0 0 
2419666666.6666665077 0.187555864453315707107705634371 -0.044431015849113457416574846093 0.004429344553500413894653320312 0.004691891372203826904296875000 0 0 0 0 
2419833333.3333334923 0.185860246419906588455361884371 -0.045121744275093078613281250000 0.004574633203446865081787109375 0.004505590070039033889770507812 0 0 0 0 
