# Hz S RI R 
2400000000.0000000000 0.173777058720588711837606865629 0.049298141151666641235351562500 0.000145283513120375600740155630 0.000089695342467166483402252197 0 0 0 0 
2400166666.6666665077 0.174298405647277804275674384371 0.048762787133455283428151716407 -0.000066571956267580389976501465 -0.000022584263206226751208305359 0 0 0 0 
2400333333.3333334923 0.174536272883415194412393134371 0.048056531697511672973632812500 -0.000008290100595331750810146332 -0.000094579889264423400163650513 0 0 0 0 
2400500000.0000000000 0.175122678279876708984375000000 0.047529153525829322124440778907 -0.000296229991363361477851867676 0.000049467565986560657620429993 0 0 0 0 
2400666666.6666665077 0.175163656473159790039062500000 0.046671312302350997924804687500 -0.000223041381104849306031903677 0.000078287710493896156549453735 0 0 0 0 
2400833333.3333334923 0.175386711955070495605468750000 0.046101476997137069702148437500 -0.000411744840675965005725306378 0.000113852802314795594341816087 0 0 0 0 
2401000000.0000000000 0.175562158226966913421307481258 0.045761704444885246967356096093 -0.000490223930682986974716186523 0.000282207387499511187702733173 0 0 0 0 
2401166666.6666665077 0.175602868199348505218182481258 0.044919211417436599731445312500 -0.000539323547855019569396972656 0.000290729658445343375205993652 0 0 0 0 
2401333333.3333334923 0.175732836127281188964843750000 0.044111788272857672954518903907 -0.000730708066839724779129028320 0.000490579055622220039367675781 0 0 0 0 
2401500000.0000000000 0.175956889986991910079794365629 0.043482754379510879516601562500 -0.000686270243022590875625610352 0.000605001929216086864471435547 0 0 0 0 
2401666666.6666665077 0.175712436437606811523437500000 0.042768124490976326679270158593 -0.000605941808316856622695922852 0.000566524628084152936935424805 0 0 0 0 
2401833333.3333334923 0.175437048077583312988281250000 0.041934080421924591064453125000 -0.000641623570118099451065063477 0.000746828911360353231430053711 0 0 0 0 
2402000000.0000000000 0.175239324569702203948651231258 0.041055716574192047119140625000 -0.000684208702296018600463867188 0.000837972271256148815155029297 0 0 0 0 
2402166666.6666665077 0.175246551632881192306356865629 0.040269494056701660156250000000 -0.000561521097552031278610229492 0.000826135044917464256286621094 0 0 0 0 
2402333333.3333334923 0.174985677003860501388388115629 0.039329413324594497680664062500 -0.000573880912270396947860717773 0.001022251788526774103280092554 0 0 0 0 
2402500000.0000000000 0.174912348389625604827557481258 0.038182806223630912090261091407 -0.000551256933249533176422119141 0.001062899013049900965449667822 0 0 0 0 
2402666666.6666665077 0.174631878733635004241619981258 0.037058595567941672588307966407 -0.000305933790514245575100499286 0.001104577444493771033046103369 0 0 0 0 
2402833333.3333334923 0.174043625593185397049111884371 0.035968825221061706542968750000 -0.000343183870427310520976466046 0.001106285257264971949933696216 0 0 0 0 
2403000000.0000000000 0.173949941992759704589843750000 0.034483853727579116821289062500 -0.000343562191119417602389735089 0.001013754401355982043622661060 0 0 0 0 
2403166666.6666665077 0.173453271389007596114950615629 0.033295568078756332397460937500 -0.000337259349180385524600428448 0.001230161171406507925746298682 0 0 0 0 
2403333333.3333334923 0.173121452331542996505575615629 0.031710933893918991088867187500 -0.000211054168175905888706761493 0.001108375261537730910657573169 0 0 0 0 
2403500000.0000000000 0.172773376107215909103231865629 0.030206542462110519409179687500 -0.000369654240785166621208190918 0.001058746245689689896227192456 0 0 0 0 
2403666666.6666665077 0.172490552067756708343182481258 0.028409695252776149404505545704 -0.000190009144716896089628496713 0.001055910135619341893437050928 0 0 0 0 
2403833333.3333334923 0.172159120440483093261718750000 0.026638086885213848459263985546 -0.000195814456674270304754534311 0.000981795019470155239105224609 0 0 0 0 
2404000000.0000000000 0.171812862157821710784588731258 0.025007784366607669485071951954 -0.000319016369758173823356628418 0.000909590162336826324462890625 0 0 0 0 
2404166666.6666665077 0.171351984143257113357705634371 0.022985126823186870920201485546 -0.000193871164810843792840680533 0.001041985931806266090990376050 0 0 0 0 
2404333333.3333334923 0.170831888914108304122763115629 0.021330138668417930603027343750 -0.000108457170426845604747217999 0.001227407599799335002899169922 0 0 0 0 
2404500000.0000000000 0.170541599392890902420205634371 0.019072553142905238759974295704 -0.000391900830436497926712036133 0.001138602616265415928484272534 0 0 0 0 
2404666666.6666665077 0.170298427343368502517861884371 0.017033357173204418527623360546 -0.000270661112153902704089564191 0.001071190112270415046094584888 0 0 0 0 
2404833333.3333334923 0.170021474361419705489950615629 0.015069763176143169403076171875 -0.000377905351342633420794886456 0.001231801696121693091151572119 0 0 0 0 
2405000000.0000000000 0.169829830527305603027343750000 0.013170640915632249659528163477 -0.000391625333577394485473632812 0.001192345283925533077837299878 0 0 0 0 
2405166666.6666665077 0.169856712222099304199218750000 0.011201147921383379155169102148 -0.000706847000401467084884643555 0.001274675247259438037872314453 0 0 0 0 
2405333333.3333334923 0.169828563928604098220986884371 0.008912221528589725494384765625 -0.000614079297520220279693603516 0.001424606423825025992152548682 0 0 0 0 
2405500000.0000000000 0.169871374964714105804119981258 0.006869889795780181884765625000 -0.000462936033727601224749964581 0.001539082615636288902880024487 0 0 0 0 
2405666666.6666665077 0.169881239533424405196981865629 0.004823093302547931671142578125 -0.000550050754100084304809570312 0.001635374617762864069697714697 0 0 0 0 
2405833333.3333334923 0.170120730996131896972656250000 0.002842447021976112885716103662 -0.000733482069335877895355224609 0.001819506869651376984239887769 0 0 0 0 
2406000000.0000000000 0.170317128300666809082031250000 0.000667497632093727588653564453 -0.000639519246760755777359008789 0.001950522069819271998164511572 0 0 0 0 
2406166666.6666665077 0.170575112104415893554687500000 -0.001333329244516789913177490234 -0.000326723442412912899821680890 0.002199806971475481986999511719 0 0 0 0 
2406333333.3333334923 0.171195432543754605392294365629 -0.003322736360132693810703896631 -0.000388292712159454822540283203 0.002421648241579533056971884619 0 0 0 0 
2406500000.0000000000 0.171609967947006197830361884371 -0.005187464877963066101074218750 -0.000231027632253244492128649301 0.002664528321474791006800986182 0 0 0 0 
2406666666.6666665077 0.172108411788940401931924384371 -0.007259939331561326980590820312 0.000102738908026367398813524789 0.002735311631113290786743164062 0 0 0 0 
2406833333.3333334923 0.172825127840042086502236884371 -0.009186956100165843963623046875 0.000040410628571407869458198547 0.002928210189566016197204589844 0 0 0 0 
2407000000.0000000000 0.173405215144157409667968750000 -0.010996375232934950047503086523 0.000366791762644424980312901630 0.002939959522336720986607216943 0 0 0 0 
2407166666.6666665077 0.174171179533004788497763115629 -0.012806219980120660609235194727 0.000547024654224514961242675781 0.003130289493128656907322548975 0 0 0 0 
2407333333.3333334923 0.174710690975189208984375000000 -0.014714415185153479140311993945 0.001002227538265288092969584888 0.003175835823640226884129189600 0 0 0 0 
2407500000.0000000000 0.175739392638206509689169365629 -0.016331234946846958505650704296 0.001070103258825838999507285010 0.003106345422565937042236328125 0 0 0 0 
2407666666.6666665077 0.176458403468131991287393134371 -0.017999276518821719778040701954 0.001532495254650712013244628906 0.003103319788351655006408691406 0 0 0 0 
2407833333.3333334923 0.177068337798118591308593750000 -0.019746148958802219736119454296 0.001743290922604501030565571362 0.002884191693738102912902832031 0 0 0 0 
2408000000.0000000000 0.177827477455139187911825615629 -0.021367898210883140563964843750 0.001922351540997623963596963037 0.003006142564117908911464072119 0 0 0 0 
2408166666.6666665077 0.178610295057296808440838731258 -0.022509070113301280630091483204 0.002277100691571832136866904150 0.002824150724336504936218261719 0 0 0 0 
2408333333.3333334923 0.179496064782142611404580634371 -0.024095520377159118652343750000 0.002382898470386863188502646338 0.002603465225547552108764648438 0 0 0 0 
2408500000.0000000000 0.180011659860610989669638115629 -0.025493618100881580007532889454 0.002595369238406420187709189307 0.002382089383900165991542197119 0 0 0 0 
2408666666.6666665077 0.180557817220687893966513115629 -0.026761149987578388559361641796 0.002819584915414452986476279150 0.002208187710493803024291992188 0 0 0 0 
2408833333.3333334923 0.181109234690666198730468750000 -0.027694707736372951162318045704 0.002846418181434274153468466650 0.002036969177424908118007040869 0 0 0 0 
2409000000.0000000000 0.181675270199775695800781250000 -0.028752535581588748586634451954 0.003141142195090651945826865088 0.001905545126646756909014057690 0 0 0 0 
2409166666.6666665077 0.182071968913078308105468750000 -0.029588438570499420166015625000 0.003101440146565436883213662256 0.001623959513381123976466513525 0 0 0 0 
2409333333.3333334923 0.182640954852104187011718750000 -0.030409863218665119516392891796 0.003261758014559745788574218750 0.001378136454150080897687602466 0 0 0 0 
2409500000.0000000000 0.182971388101577786544638115629 -0.031257871538400650024414062500 0.003164752619341015815734863281 0.001342168427072464986088418115 0 0 0 0 
2409666666.6666665077 0.183073833584785489181356865629 -0.031773090362548828125000000000 0.003265640465542674064636230469 0.001016244408674537918688129956 0 0 0 0 
2409833333.3333334923 0.183298841118812588790731865629 -0.032150134444236762309987653907 0.003452082863077520890476845850 0.000871486437972635030746459961 0 0 0 0 
2410000000.0000000000 0.183664575219154413421307481258 -0.032537057995796196674387346093 0.003326281439512968063354492188 0.000681747158523648977279663086 0 0 0 0 
2410166666.6666665077 0.183842673897743197342080634371 -0.033063210546970367431640625000 0.003419687971472740173339843750 0.000533341255504637956619262695 0 0 0 0 
2410333333.3333334923 0.183762699365615789215411268742 -0.033458389341831207275390625000 0.003332412568852304978611611475 0.000356566481059417074352818622 0 0 0 0 
2410500000.0000000000 0.183729514479637201507244981258 -0.033679001033306121826171875000 0.003320808755233883857727050781 -0.000024560345991631038486957550 0 0 0 0 
2410666666.6666665077 0.183535113930702209472656250000 -0.033872563391923897480051408593 0.003378837835043669180629111182 -0.000028888855013065040111541748 0 0 0 0 
2410833333.3333334923 0.183433115482330294510049384371 -0.034227743744850158691406250000 0.003382752416655420823338173975 -0.000370688765542581677436828613 0 0 0 0 
2411000000.0000000000 0.183267354965209988693075615629 -0.034565102308988571166992187500 0.003269106382504106001612997900 -0.000309339287923649007647913800 0 0 0 0 
2411166666.6666665077 0.183004960417747497558593750000 -0.034865181893110282207448591407 0.003289387561380863189697265625 -0.000387131294701248407363891602 0 0 0 0 
2411333333.3333334923 0.182470485568046597579794365629 -0.035119798034429550170898437500 0.003118532942607998847961425781 -0.000812379119452089071273803711 0 0 0 0 
2411500000.0000000000 0.181921735405921908279580634371 -0.035534180700778961181640625000 0.003236002055928111076354980469 -0.000972445530351251363754272461 0 0 0 0 
2411666666.6666665077 0.181344389915466308593750000000 -0.035869620740413672710378278907 0.002834907267242670059204101562 -0.001241309917531907992122031104 0 0 0 0 
2411833333.3333334923 0.180730193853378295898437500000 -0.036237142980098717426340471093 0.002804471878334879875183105469 -0.001337782596237957911250449072 0 0 0 0 
2412000000.0000000000 0.180054321885109003265057481258 -0.036726310849189758300781250000 0.002781757386401296095607138525 -0.001486292690970004038569785010 0 0 0 0 
2412166666.6666665077 0.178884685039520291427450615629 -0.037088785320520401000976562500 0.002563158515840768814086914062 -0.001590421190485358021379780347 0 0 0 0 
2412333333.3333334923 0.178141310811042813400106865629 -0.037641249597072601318359375000 0.002490074373781681060791015625 -0.001593544962815939946415566553 0 0 0 0 
2412500000.0000000000 0.177052766084670992752236884371 -0.038131266832351691509206403907 0.002418179297819734053370810400 -0.001694821519777178981183696216 0 0 0 0 
2412666666.6666665077 0.175831988453865106780682481258 -0.039029680192470550537109375000 0.001937097869813442013384174878 -0.001719412975944579081294394385 0 0 0 0 
2412833333.3333334923 0.174794569611549405196981865629 -0.039496105164289467548410783593 0.002014004392549395994899130713 -0.001757678808644413948059082031 0 0 0 0 
2413000000.0000000000 0.173444077372550992111044365629 -0.040523093193769461894948591407 0.001849597902037203095079731519 -0.001905114506371319077135395581 0 0 0 0 
2413166666.6666665077 0.172107994556427001953125000000 -0.041269760578870773315429687500 0.001726158196106553077697753906 -0.001877010217867792086360312354 0 0 0 0 
2413333333.3333334923 0.170838892459869412521200615629 -0.042340863496065139770507812500 0.001488079200498759963391948169 -0.001643548253923654989955283057 0 0 0 0 
2413500000.0000000000 0.169616192579269409179687500000 -0.043408043682575232768972028907 0.001369164790958165905596088940 -0.001618038979358970902086567456 0 0 0 0 
2413666666.6666665077 0.168169692158699007888955634371 -0.044361472129821777343750000000 0.001361727365292608954785991138 -0.001712961122393608093261718750 0 0 0 0 
2413833333.3333334923 0.166855931282043512542401231258 -0.045515116304159157489817033593 0.001078639412298798994777060400 -0.001623315387405454895616840894 0 0 0 0 
2414000000.0000000000 0.165492117404937688629473768742 -0.046760696917772293090820312500 0.001106993062421679930446005713 -0.001528194407001137950299907153 0 0 0 0 
2414166666.6666665077 0.164291962981224087814169365629 -0.048171628266572952270507812500 0.000958997930865734815597534180 -0.001601740601472557024714804541 0 0 0 0 
2414333333.3333334923 0.163119554519653292556924384371 -0.049482427537441246723215471093 0.001094873645342886014225625146 -0.001480411621741950945613242041 0 0 0 0 
2414500000.0000000000 0.162101194262504605392294365629 -0.050839416682720177387277971093 0.000864803441800177097320556641 -0.001447238610126077911974262769 0 0 0 0 
2414666666.6666665077 0.160793095827102688888388115629 -0.052371751517057418823242187500 0.000947989639826118946075439453 -0.001272784895263612053514790112 0 0 0 0 
2414833333.3333334923 0.159757152199745205978231865629 -0.054068472236394882202148437500 0.000891921226866543292999267578 -0.001104292809031903960584330981 0 0 0 0 
2415000000.0000000000 0.158753678202629089355468750000 -0.055730905383825302124023437500 0.001090208068490027947666787256 -0.001220046309754252000095986475 0 0 0 0 
2415166666.6666665077 0.157911181449890108963174384371 -0.057470463216304779052734375000 0.000958861666731536388397216797 -0.001125409500673413059831928784 0 0 0 0 
2415333333.3333334923 0.157029867172241210937500000000 -0.059460129588842391967773437500 0.000988531974144279956817626953 -0.001035880297422409057617187500 0 0 0 0 
2415500000.0000000000 0.156233057379722595214843750000 -0.061151154339313507080078125000 0.000997208058834075927734375000 -0.000984116806648671627044677734 0 0 0 0 
2415666666.6666665077 0.155448794364929199218750000000 -0.063007339835166931152343750000 0.001074322848580778078791952979 -0.001037561916746198914171528394 0 0 0 0 
2415833333.3333334923 0.154908657073974609375000000000 -0.065016031265258789062500000000 0.001095246523618697903276753003 -0.000871394935529679059982299805 0 0 0 0 
2416000000.0000000000 0.154224812984466608245526231258 -0.067062273621559143066406250000 0.001215058029629290103912353516 -0.001022589043714106082916259766 0 0 0 0 
2416166666.6666665077 0.153909608721733093261718750000 -0.068985916674137115478515625000 0.001217922894284128925920795972 -0.001002204255200922922847128760 0 0 0 0 
2416333333.3333334923 0.153476953506469698806924384371 -0.070893250405788421630859375000 0.001176725840196014101143862085 -0.001004784833639859936357807690 0 0 0 0 
2416500000.0000000000 0.153032585978507995605468750000 -0.073024280369281768798828125000 0.001377548091113566918614052881 -0.000937416567467153072357177734 0 0 0 0 
2416666666.6666665077 0.152628481388092013260049384371 -0.074915520846843719482421875000 0.001232316019013524055480957031 -0.001111252582632004997850727612 0 0 0 0 
2416833333.3333334923 0.152556136250495910644531250000 -0.076935559511184692382812500000 0.001387257245369255976435995947 -0.001126595190726221041438437354 0 0 0 0 
2417000000.0000000000 0.152099996805191012283486884371 -0.078956805169582366943359375000 0.001472450559958816008326865088 -0.001195757533423603014705038916 0 0 0 0 
2417166666.6666665077 0.152026608586311312576455634371 -0.080591171979904174804687500000 0.001495751435868442058563232422 -0.001197767094708978912950825269 0 0 0 0 
2417333333.3333334923 0.152130603790283203125000000000 -0.082354262471199035644531250000 0.001604740507900715091108012622 -0.001358514768071473078486777197 0 0 0 0 
2417500000.0000000000 0.152022123336791992187500000000 -0.084258697926998138427734375000 0.001567985513247549967524863135 -0.001407553441822529055951762622 0 0 0 0 
2417666666.6666665077 0.152139976620674105545205634371 -0.085665792226791381835937500000 0.001545608509331942038295126807 -0.001521595986559987068176269531 0 0 0 0 
2417833333.3333334923 0.152159452438354492187500000000 -0.087071873247623443603515625000 0.001575711532495916106580424731 -0.001616683439351618073107075269 0 0 0 0 
2418000000.0000000000 0.152222931385040310958700615629 -0.088801927864551544189453125000 0.001518284087069333033320761572 -0.001747315516695379994036030347 0 0 0 0 
2418166666.6666665077 0.152423605322837801834268134371 -0.089894063770771026611328125000 0.001635833061300218105316162109 -0.001904055941849946975708007812 0 0 0 0 
2418333333.3333334923 0.152757853269576998611611884371 -0.091201916337013244628906250000 0.001619645510800183036206889575 -0.002223792718723415894749306787 0 0 0 0 
2418500000.0000000000 0.152880981564521789550781250000 -0.092306360602378845214843750000 0.001504529616795480034471821362 -0.002113148104399443106410361182 0 0 0 0 
2418666666.6666665077 0.153190433979034396072549384371 -0.093439579010009765625000000000 0.001380074652843177101732563550 -0.002298823790624738173243857275 0 0 0 0 
2418833333.3333334923 0.153249770402908297439736884371 -0.094275608658790588378906250000 0.001329319900833070061327290112 -0.002595421159639955000636435400 0 0 0 0 
2419000000.0000000000 0.153360173106193486969317518742 -0.095048673450946807861328125000 0.001253093476407229900360107422 -0.002673964481800795035121298682 0 0 0 0 
2419166666.6666665077 0.153715193271636990646200615629 -0.095734208822250366210937500000 0.001139948028139770030975341797 -0.002798056229948997931239462744 0 0 0 0 
2419333333.3333334923 0.153791829943656893631143134371 -0.096105106174945831298828125000 0.000973864924162626266479492188 -0.002779601840302348136901855469 0 0 0 0 
2419500000.0000000000 0.153907179832458496093750000000 -0.096683360636234283447265625000 0.000755017506889998912811279297 -0.002879181411117314858677529443 0 0 0 0 
2419666666.6666665077 0.154369369149208096603231865629 -0.096991531550884246826171875000 0.000634840282145887613296508789 -0.003104016650468111038208007812 0 0 0 0 
2419833333.3333334923 0.154456451535224886795205634371 -0.097281940281391143798828125000 0.000461869378341361880302429199 -0.003062099218368529839756631006 0 0 0 0 
