# Hz S RI R 50
2400000000.0000000000 0.155394837260246304611044365629 0.110597103834152193924111884371 0.000999317737296223640441894531 0.004580639302730560302734375000 0 0 0 0 
2400166666.6666665077 0.154770806431770296951455634371 0.108331531286239596267861884371 0.000977141200564801692962646484 0.004394161514937877655029296875 0 0 0 0 
2400333333.3333334923 0.154610335826873807052450615629 0.106123432517051696777343750000 0.001137902378104626915575336987 0.004370507784187793731689453125 0 0 0 0 
2400500000.0000000000 0.154339373111724909026776231258 0.103477828204631805419921875000 0.001152878510765730901005410303 0.004209959879517555236816406250 0 0 0 0 
2400666666.6666665077 0.153998166322708102127236884371 0.101043328642845195441957173443 0.001192586263641715049743652344 0.004257286433130502700805664062 0 0 0 0 
2400833333.3333334923 0.153717532753944396972656250000 0.098116561770439147949218750000 0.001282592886127531962153769385 0.004178338218480348587036132812 0 0 0 0 
2401000000.0000000000 0.153698533773422213455361884371 0.095307618379592895507812500000 0.001612197142094373919843364185 0.004363009240478277206420898438 0 0 0 0 
2401166666.6666665077 0.153442636132240295410156250000 0.092328697443008422851562500000 0.001761687337420881011365580981 0.004447534680366516113281250000 0 0 0 0 
2401333333.3333334923 0.153655946254730196853799384371 0.089631676673889160156250000000 0.001711737131699919917462993091 0.004280221648514270782470703125 0 0 0 0 
2401500000.0000000000 0.153865367174148587325888115629 0.086533717811107635498046875000 0.001800058060325681946398090894 0.004247000906616449356079101562 0 0 0 0 
2401666666.6666665077 0.153898075222969110686932481258 0.083594977855682373046875000000 0.002052181167528032822849892725 0.004424988757818937301635742188 0 0 0 0 
2401833333.3333334923 0.154123932123184204101562500000 0.080602489411830902099609375000 0.002264854265376925902125693213 0.004360119346529245376586914062 0 0 0 0 
2402000000.0000000000 0.154840096831321688553018134371 0.077629484236240386962890625000 0.002338587073609232902526855469 0.004352874588221311569213867188 0 0 0 0 
2402166666.6666665077 0.155496507883071899414062500000 0.074820555746555328369140625000 0.002690289169549942016601562500 0.004135743714869022369384765625 0 0 0 0 
2402333333.3333334923 0.156196087598800686935263115629 0.071872800588607788085937500000 0.002722372533753513856175088037 0.004149983637034893035888671875 0 0 0 0 
2402500000.0000000000 0.157284602522850008865518134371 0.069064207375049591064453125000 0.003179824678227304978611611475 0.003916244488209486007690429688 0 0 0 0 
2402666666.6666665077 0.158236682415008489410723768742 0.066558815538883209228515625000 0.003341593081131577925441122900 0.003949054051190614700317382812 0 0 0 0 
2402833333.3333334923 0.159697160124778803069744981258 0.063941486179828643798828125000 0.003555171191692351861241006006 0.003872290253639221191406250000 0 0 0 0 
2403000000.0000000000 0.160865232348442105392294365629 0.061295032501220703125000000000 0.003915549255907536420340253613 0.003532561007887125015258789062 0 0 0 0 
2403166666.6666665077 0.162664219737052889724893134371 0.058865852653980262065847028907 0.004141524434089660644531250000 0.003206714987754822211024618994 0 0 0 0 
2403333333.3333334923 0.163882851600647000411825615629 0.056396126747131347656250000000 0.004288722295314074429983808301 0.003036054084077477888820029150 0 0 0 0 
2403500000.0000000000 0.165761515498161288162393134371 0.054223675280809402465820312500 0.004488727543503046035766601562 0.002608567709103227095362997900 0 0 0 0 
2403666666.6666665077 0.167604103684425409515057481258 0.052102942019700997089426408593 0.004701515659689903259277343750 0.002320568542927504019496298682 0 0 0 0 
2403833333.3333334923 0.169367194175720187088174384371 0.050112038850784301757812500000 0.004601529799401760101318359375 0.002055688994005322890040732275 0 0 0 0 
2404000000.0000000000 0.171077698469161987304687500000 0.047993645071983337402343750000 0.004861705005168914794921875000 0.001686868839897214932682656396 0 0 0 0 
2404166666.6666665077 0.172910675406455993652343750000 0.046366035938262939453125000000 0.004587623290717601776123046875 0.001174301840364933013916015625 0 0 0 0 
2404333333.3333334923 0.174758896231651306152343750000 0.044669296592473976825754533593 0.004580867942422628402709960938 0.000931166810914874076843261719 0 0 0 0 
2404500000.0000000000 0.176611021161079406738281250000 0.043209608644247061992604841407 0.004337460268288850784301757812 0.000511986669152975082397460938 0 0 0 0 
2404666666.6666665077 0.178434520959854098220986884371 0.041833166033029563213307966407 0.004178191069513559341430664062 0.000483099196571856682926732196 0 0 0 0 
2404833333.3333334923 0.180352777242660494705361884371 0.040623027831315987323801408593 0.004094699397683143615722656250 0.000223639901378192007541656494 0 0 0 0 
2405000000.0000000000 0.182139381766319302657919365629 0.039884828031063079833984375000 0.003842815523967146873474121094 0.000059217800298938527703285217 0 0 0 0 
2405166666.6666665077 0.183773115277290288727130018742 0.039029665291309356689453125000 0.003611666848883032798767089844 -0.000007565342912130290642380714 0 0 0 0 
2405333333.3333334923 0.185426369309425409515057481258 0.038534931838512420654296875000 0.003538900520652533011195517432 -0.000116532806714530993573604445 0 0 0 0 
2405500000.0000000000 0.187025755643844604492187500000 0.037947732955217361450195312500 0.003484167624264955954310751807 -0.000208436613320372998714447021 0 0 0 0 
2405666666.6666665077 0.188569113612174987792968750000 0.037485916167497641826589216407 0.003338404931128025054931640625 -0.000213836436159908798619946890 0 0 0 0 
2405833333.3333334923 0.190193325281143188476562500000 0.037384599447250373149831403907 0.003367881523445249037501669775 -0.000456804089481010978848057880 0 0 0 0 
2406000000.0000000000 0.191430762410163907150106865629 0.037002284079790122295339216407 0.003254509065300226211547851562 -0.000369087036233395283848363055 0 0 0 0 
2406166666.6666665077 0.192584216594695989410723768742 0.037139706313610076904296875000 0.003066462231799960136413574219 -0.000539255852345377206802368164 0 0 0 0 
2406333333.3333334923 0.193954080343246487716513115629 0.037248112261295318603515625000 0.003041603136807680130004882812 -0.000549601565580815076828002930 0 0 0 0 
2406500000.0000000000 0.194978550076484707931356865629 0.037488218396902077411692033593 0.002920772181823850111720419775 -0.000566708156839013099670410156 0 0 0 0 
2406666666.6666665077 0.195825681090354891678018134371 0.037580255419015877460520158593 0.002915416378527880148646689307 -0.000684104685205966234207153320 0 0 0 0 
2406833333.3333334923 0.196602612733840886871661268742 0.037888273596763610839843750000 0.002757785841822624206542968750 -0.000595415011048316955566406250 0 0 0 0 
2407000000.0000000000 0.197103351354598999023437500000 0.038392774760723107074777971093 0.002679466269910335974452353369 -0.000728975515812635421752929688 0 0 0 0 
2407166666.6666665077 0.197692960500717190841513115629 0.038317035883665091777761091407 0.002579052234068512916564941406 -0.000972584297414869070053100586 0 0 0 0 
2407333333.3333334923 0.197882428765296908279580634371 0.038767330348491668701171875000 0.002420493867248297171351767432 -0.000970158725976943969726562500 0 0 0 0 
2407500000.0000000000 0.197983756661415100097656250000 0.039135806262493126606027971093 0.002269981428980826897862099756 -0.000882983789779245853424072266 0 0 0 0 
2407666666.6666665077 0.198162481188774108886718750000 0.039392977952957153320312500000 0.002058976329863071007969521631 -0.001013103290461003997205424731 0 0 0 0 
2407833333.3333334923 0.197842866182327298263388115629 0.039577633142471306537668596093 0.002052213530987501144409179688 -0.001012060674838721969007182544 0 0 0 0 
2408000000.0000000000 0.197885245084762600997763115629 0.039812855422496802593190778907 0.001754823373630643107770610278 -0.001042477204464375972747802734 0 0 0 0 
2408166666.6666665077 0.197319179773330688476562500000 0.039844118058681488037109375000 0.001729830983094871044158935547 -0.000842124107293784618377685547 0 0 0 0 
2408333333.3333334923 0.197021275758743286132812500000 0.039530776441097259521484375000 0.001602912088856101036071777344 -0.000728456943761557340621948242 0 0 0 0 
2408500000.0000000000 0.196247398853302001953125000000 0.039485808461904532695729841407 0.001540772616863250949262309497 -0.000591126037761569023132324219 0 0 0 0 
2408666666.6666665077 0.195663064718246487716513115629 0.039411768317222602153737653907 0.001446823589503765106201171875 -0.000475627835839986801147460938 0 0 0 0 
2408833333.3333334923 0.194941654801368713378906250000 0.039023436605930328369140625000 0.001483918167650700049159384619 -0.000402453792048618197441101074 0 0 0 0 
2409000000.0000000000 0.193942666053772000411825615629 0.038383707404136657714843750000 0.001378602348268032073974609375 -0.000225646203034557402133941650 0 0 0 0 
2409166666.6666665077 0.193029046058654812911825615629 0.037841975688934333110768903907 0.001446147100068629004834819263 -0.000055146789236459881067276001 0 0 0 0 
2409333333.3333334923 0.191811829805374201018963731258 0.036962043493986129760742187500 0.001549235079437494061113667065 0.000094360875664278864860534668 0 0 0 0 
2409500000.0000000000 0.190566241741180392166299384371 0.036045409739017486572265625000 0.001594196190126240036608051831 0.000058518213336355977434704440 0 0 0 0 
2409666666.6666665077 0.189525291323661804199218750000 0.034722827374935150146484375000 0.001626357319764792919158935547 0.000069818168412894010543823242 0 0 0 0 
2409833333.3333334923 0.188244283199310302734375000000 0.033799421042203903198242187500 0.001921552699059247970581054688 0.000075892181484960019588470459 0 0 0 0 
2410000000.0000000000 0.187113955616950988769531250000 0.032168310135602951049804687500 0.001913843327201903083203959888 0.000174209708347916603088378906 0 0 0 0 
2410166666.6666665077 0.185766592621803311446981865629 0.030663643032312389719029610546 0.002033636672422289848327636719 0.000075771284173242747783660889 0 0 0 0 
2410333333.3333334923 0.184703022241592407226562500000 0.029070435091853138315221016796 0.002025554655119777159449911963 0.000303782260743901079327183856 0 0 0 0 
2410500000.0000000000 0.183435574173927307128906250000 0.027306517586112018930455391796 0.002152746077626944021937704932 0.000156330323079600903108873911 0 0 0 0 
2410666666.6666665077 0.182381346821785000900106865629 0.025090210139751430856724923046 0.002197378315031528906581259619 0.000056717530242167413234710693 0 0 0 0 
2410833333.3333334923 0.181436732411384610275106865629 0.023018434643745418893834298046 0.002369341673329472975489951025 0.000014617116903536949643884965 0 0 0 0 
2411000000.0000000000 0.180426910519599886795205634371 0.020854139700531959533691406250 0.002425920916721224784851074219 0.000152685563080012798309326172 0 0 0 0 
2411166666.6666665077 0.179511904716491699218750000000 0.018738025799393650400181954296 0.002389245200902224020717001807 -0.000081425387179479002952575684 0 0 0 0 
2411333333.3333334923 0.178834602236747686188067518742 0.016328817233443260192871093750 0.002479756483808159828186035156 0.000116087496280670206673206468 0 0 0 0 
2411500000.0000000000 0.178044602274894686599893134371 0.013881657272577289236048514454 0.002602559980005025863647460938 -0.000073514369432814419269561768 0 0 0 0 
2411666666.6666665077 0.177699193358421297928018134371 0.011361551471054550516148751171 0.002716970397159457206726074219 -0.000116128903755452497444967952 0 0 0 0 
2411833333.3333334923 0.177225366234779413421307481258 0.008962548337876796722412109375 0.002810374367982149124145507812 -0.000060362021031323820352554321 0 0 0 0 
2412000000.0000000000 0.177134111523628207107705634371 0.006209504324942827224731445312 0.002804692368954420089721679688 -0.000141452983370982110500335693 0 0 0 0 
2412166666.6666665077 0.177027121186256408691406250000 0.003912429325282573699951171875 0.003004270372912288145778036963 -0.000136494563776068389415740967 0 0 0 0 
2412333333.3333334923 0.177090600132942199707031250000 0.001135954167693852944615029443 0.003181335981935263113734579932 -0.000211364982533268603399553842 0 0 0 0 
2412500000.0000000000 0.177457526326179504394531250000 -0.001498929923400283076642680591 0.003339398885145782990696572412 -0.000246569223236292600631713867 0 0 0 0 
2412666666.6666665077 0.177929669618606595138388115629 -0.004366870038211345672607421875 0.003304458688944578170776367188 -0.000344035972375422716140747070 0 0 0 0 
2412833333.3333334923 0.178322240710258511642294365629 -0.006763129960745573043823242188 0.003649010090157390074488974463 -0.000572639924939721822738647461 0 0 0 0 
2413000000.0000000000 0.178990557789802606780682481258 -0.009455665014684200286865234375 0.003888585371896624998805380713 -0.000854034384246915578842163086 0 0 0 0 
2413166666.6666665077 0.179736256599426297286825615629 -0.012038268148899080103864100977 0.003970401827245950698852539062 -0.000827157869935035705566406250 0 0 0 0 
2413333333.3333334923 0.180928513407707186599893134371 -0.014592933468520639592180820898 0.004083091858774423599243164062 -0.001216432661749422983882285010 0 0 0 0 
2413500000.0000000000 0.181548610329627990722656250000 -0.016964992508292201650599295704 0.004163593519479036331176757812 -0.001518807024694978973985981519 0 0 0 0 
2413666666.6666665077 0.182847872376442011077557481258 -0.019391216337680820119837576954 0.004362971521914005279541015625 -0.001804469269700347943546914209 0 0 0 0 
2413833333.3333334923 0.184018284082412691970986884371 -0.021719546988606449472447579296 0.004420701414346694946289062500 -0.001987385563552380041835165869 0 0 0 0 
2414000000.0000000000 0.185235336422920199295205634371 -0.023896779865026470529576485546 0.004235622473061084747314453125 -0.002540545538067818121669150244 0 0 0 0 
2414166666.6666665077 0.186640545725822504241619981258 -0.025987459346652030944824218750 0.004216201603412628173828125000 -0.002856871578842401938197470557 0 0 0 0 
2414333333.3333334923 0.187921240925788907150106865629 -0.028039712458848949777623360546 0.004176354501396417617797851562 -0.003295772941783070997950888525 0 0 0 0 
2414500000.0000000000 0.189452067017555209060830634371 -0.029804993420839309692382812500 0.003969338256865739822387695312 -0.003649175167083739800694131006 0 0 0 0 
2414666666.6666665077 0.190670356154441805740518134371 -0.031470727175474166870117187500 0.003833983326330780982971191406 -0.004036024678498507413382245801 0 0 0 0 
2414833333.3333334923 0.192117854952812194824218750000 -0.033236786723136901855468750000 0.003386262804269791083094931494 -0.004151248838752508163452148438 0 0 0 0 
2415000000.0000000000 0.193399608135223388671875000000 -0.034652736037969589233398437500 0.003305995371192694144008017432 -0.004430971574038267135620117188 0 0 0 0 
2415166666.6666665077 0.195054411888122586349325615629 -0.035976171493530273437500000000 0.003031376050785183906555175781 -0.004725131206214427947998046875 0 0 0 0 
2415333333.3333334923 0.196397945284843389313067518742 -0.037043746560812003398854841407 0.002714561298489571051356650244 -0.004745092708617448806762695312 0 0 0 0 
2415500000.0000000000 0.197657123208045987228231865629 -0.037945169955492019653320312500 0.002392223570495843887329101562 -0.004948228597640991210937500000 0 0 0 0 
2415666666.6666665077 0.199113652110099792480468750000 -0.038951359689235687255859375000 0.002086210530251265005824423682 -0.005094205494970083236694335938 0 0 0 0 
2415833333.3333334923 0.200259566307067898849325615629 -0.039661325514316558837890625000 0.001945836353115737004521035303 -0.005315881688147783279418945312 0 0 0 0 
2416000000.0000000000 0.201237484812736511230468750000 -0.040383458137512207031250000000 0.001673705410212277932407998193 -0.005327038001269102096557617188 0 0 0 0 
2416166666.6666665077 0.202415466308593805511151231258 -0.041032630950212478637695312500 0.001328060287050903060315776294 -0.005401120055466890335083007812 0 0 0 0 
2416333333.3333334923 0.203329294919967706878338731258 -0.041243281215429312969167341407 0.001026175450533628897425986182 -0.005314236041158437728881835938 0 0 0 0 
2416500000.0000000000 0.204111993312835693359375000000 -0.041544869542121887207031250000 0.000730833329726010560989379883 -0.005481450352817773818969726562 0 0 0 0 
2416666666.6666665077 0.204645216464996310135049384371 -0.041952222585678100585937500000 0.000420669734012335484654027118 -0.005661355797201395034790039062 0 0 0 0 
2416833333.3333334923 0.205067723989486694335937500000 -0.041856419295072562480886091407 0.000232146208873018595293322153 -0.005690017249435186386108398438 0 0 0 0 
2417000000.0000000000 0.205399110913276700118856865629 -0.042125884443521499633789062500 -0.000341523002134635990292149677 -0.005569356493651866912841796875 0 0 0 0 
2417166666.6666665077 0.205495879054069491287393134371 -0.041772745549678802490234375000 -0.000598428770899772644042968750 -0.005559076555073261260986328125 0 0 0 0 
2417333333.3333334923 0.205545634031295804122763115629 -0.041601508855819702148437500000 -0.000851339660584926605224609375 -0.005575908813625574111938476562 0 0 0 0 
2417500000.0000000000 0.205516070127487210372763115629 -0.041374389082193381572682966407 -0.001159740262664854960200644385 -0.005321935750544071197509765625 0 0 0 0 
2417666666.6666665077 0.205135971307754488845986884371 -0.041150454431772232055664062500 -0.001524736522696912071825336987 -0.005275562871247529983520507812 0 0 0 0 
2417833333.3333334923 0.204958975315093994140625000000 -0.040788296610116958618164062500 -0.001727203605696558952331542969 -0.005199432373046875000000000000 0 0 0 0 
2418000000.0000000000 0.204548180103302001953125000000 -0.040332768112421042705495466407 -0.002012525452300906181335449219 -0.004946569912135601043701171875 0 0 0 0 
2418166666.6666665077 0.203891456127166803558026231258 -0.040118757635355002666432966407 -0.002282063942402600808384560693 -0.004761619493365287780761718750 0 0 0 0 
2418333333.3333334923 0.203131020069122286697549384371 -0.039721224457025527954101562500 -0.002518619177863001823425292969 -0.004417722579091787338256835938 0 0 0 0 
2418500000.0000000000 0.202237606048584012130575615629 -0.039497159421443939208984375000 -0.002692012116312981085536337744 -0.004345068708062171936035156250 0 0 0 0 
2418666666.6666665077 0.201291009783744812011718750000 -0.039248093962669372558593750000 -0.002824722556397318840026855469 -0.004154227674007415771484375000 0 0 0 0 
2418833333.3333334923 0.200160428881645202636718750000 -0.039073485881090157245676408593 -0.002969427732750772996189736475 -0.003709584940224885940551757812 0 0 0 0 
2419000000.0000000000 0.198911339044570895095986884371 -0.039085056632757186889648437500 -0.003204799955710769133326865088 -0.003581584664061665968654013525 0 0 0 0 
2419166666.6666665077 0.197451218962669400314169365629 -0.039250776171684272075612653907 -0.003126568393781781196594238281 -0.003359668655321002006530761719 0 0 0 0 
2419333333.3333334923 0.196254625916480990310830634371 -0.039500642567873001098632812500 -0.003376203356310725212097167969 -0.003134222468361258940455771338 0 0 0 0 
2419500000.0000000000 0.194747984409332303146200615629 -0.039684392511844641948659528907 -0.003133547259494661851170205225 -0.002821288071572781042811728369 0 0 0 0 
2419666666.6666665077 0.193010404706001309493856865629 -0.040398638695478439331054687500 -0.003281686687842011885402060400 -0.002644824096933006806614541162 0 0 0 0 
2419833333.3333334923 0.191281110048294095138388115629 -0.040741328150033950805664062500 -0.003167564980685710906982421875 -0.002415305003523827032801962744 0 0 0 0 
