# Version 1.00
#
freq[Hz];re:Trc1_S11;im:Trc1_S11;re:Trc2_S21;im:Trc2_S21;
2.400000000000000E+009;1.584090441465378E-001;6.203510612249374E-002;-2.228578552603722E-003;-2.824287803377956E-004;
2.400166666666667E+009;1.584314107894898E-001;6.046636775135994E-002;-2.558454405516386E-003;-1.464857341488823E-004;
2.400333333333334E+009;1.581687480211258E-001;5.857250466942787E-002;-2.456995658576489E-003;-5.115993553772569E-005;
2.400500000000000E+009;1.581647247076035E-001;5.668064579367638E-002;-2.529648831114173E-003;3.730006574187428E-005;
2.400666666666667E+009;1.581165194511414E-001;5.492916703224182E-002;-2.591400174424052E-003;3.236354677937925E-004;
2.400833333333334E+009;1.583568751811981E-001;5.274112150073052E-002;-2.494589658454061E-003;2.336233155801892E-004;
2.401000000000000E+009;1.583250313997269E-001;5.070094391703606E-002;-2.547488082200289E-003;4.294935788493604E-004;
2.401166666666667E+009;1.586184352636337E-001;4.864931479096413E-002;-2.454867586493492E-003;5.059590330347419E-004;
2.401333333333334E+009;1.588654667139053E-001;4.656417295336723E-002;-2.240413334220648E-003;6.284954142756760E-004;
2.401500000000000E+009;1.593445241451263E-001;4.455751553177834E-002;-2.146295737475157E-003;6.205654353834689E-004;
2.401666666666667E+009;1.594903767108917E-001;4.269485175609589E-002;-1.976505154743791E-003;7.702017319388688E-004;
2.401833333333334E+009;1.598890572786331E-001;4.068602994084358E-002;-1.914177322760224E-003;9.855097159743309E-004;
2.402000000000000E+009;1.601182967424393E-001;3.869944065809250E-002;-2.038309350609779E-003;1.097964588552713E-003;
2.402166666666667E+009;1.607510447502136E-001;3.653003275394440E-002;-1.918173511512578E-003;1.211689086630940E-003;
2.402333333333334E+009;1.612296402454376E-001;3.482083976268768E-002;-1.751538831740618E-003;1.318973954766989E-003;
2.402500000000000E+009;1.621466577053070E-001;3.284025192260742E-002;-1.686705509200692E-003;1.336931483820081E-003;
2.402666666666667E+009;1.626280546188355E-001;3.136455640196800E-002;-1.475757802836597E-003;1.260507269762456E-003;
2.402833333333334E+009;1.633642017841339E-001;2.958959527313709E-002;-1.505998778156936E-003;1.520991674624383E-003;
2.403000000000000E+009;1.642041206359863E-001;2.783549390733242E-002;-1.239899662323296E-003;1.506121363490820E-003;
2.403166666666667E+009;1.649848073720932E-001;2.644296176731587E-002;-1.135821221396327E-003;1.572902896441519E-003;
2.403333333333334E+009;1.657934337854385E-001;2.508069202303886E-002;-8.608754724264145E-004;1.462174812331796E-003;
2.403500000000000E+009;1.667035967111588E-001;2.354630082845688E-002;-8.500239928252995E-004;1.494347699917853E-003;
2.403666666666667E+009;1.677425652742386E-001;2.225810475647450E-002;-6.414636154659092E-004;1.300349249504507E-003;
2.403833333333334E+009;1.686930507421494E-001;2.100923471152782E-002;-6.010025972500444E-004;1.570065971463919E-003;
2.404000000000000E+009;1.696070283651352E-001;1.976576633751392E-002;-5.171287339180708E-004;1.422386383637786E-003;
2.404166666666667E+009;1.705516278743744E-001;1.867185160517693E-002;-1.462492946302518E-004;1.660911366343498E-003;
2.404333333333334E+009;1.713372766971588E-001;1.769434660673142E-002;-2.931301423814148E-004;1.298026647418737E-003;
2.404500000000000E+009;1.722773909568787E-001;1.657966524362564E-002;-1.150235475506634E-004;1.298994990065694E-003;
2.404666666666667E+009;1.731925457715988E-001;1.579850353300571E-002;8.530151535524055E-005;1.232952694408596E-003;
2.404833333333334E+009;1.740186661481857E-001;1.508658844977617E-002;-1.702817826298997E-004;1.106545329093933E-003;
2.405000000000000E+009;1.749413013458252E-001;1.427563466131687E-002;1.603140262886882E-004;1.077006105333567E-003;
2.405166666666667E+009;1.756875067949295E-001;1.349091622978449E-002;2.994563255924732E-004;9.039950673468411E-004;
2.405333333333334E+009;1.765366345643997E-001;1.288429554551840E-002;3.615497844293714E-004;8.563180454075337E-004;
2.405500000000000E+009;1.772318333387375E-001;1.248692907392979E-002;3.774112847167999E-004;7.524185930378735E-004;
2.405666666666667E+009;1.778376996517181E-001;1.201080158352852E-002;1.766980858519673E-004;6.399411358870566E-004;
2.405833333333334E+009;1.781982183456421E-001;1.164528913795948E-002;2.907275629695505E-004;5.427625728771091E-004;
2.406000000000000E+009;1.788176894187927E-001;1.108994707465172E-002;4.737458948511630E-004;4.356400459073484E-004;
2.406166666666667E+009;1.791476607322693E-001;1.083423569798470E-002;4.152606416027993E-004;4.908111877739430E-004;
2.406333333333334E+009;1.797946393489838E-001;1.059681642800570E-002;4.191988846287131E-004;3.826869651675224E-004;
2.406500000000000E+009;1.799177527427673E-001;1.019558403640986E-002;3.875690163113177E-004;2.575255930423737E-004;
2.406666666666667E+009;1.799788922071457E-001;9.828077629208565E-003;3.186649701092392E-004;1.404033973813057E-004;
2.406833333333334E+009;1.802678704261780E-001;9.553487412631512E-003;3.220459038857371E-004;1.147064685937949E-004;
2.407000000000000E+009;1.804515719413757E-001;9.039106778800488E-003;2.539469860494137E-004;4.005391383543611E-005;
2.407166666666667E+009;1.804206818342209E-001;8.768541738390923E-003;3.673959290608764E-004;-3.211895091226324E-005;
2.407333333333334E+009;1.801116317510605E-001;8.296158164739609E-003;3.296793147455901E-004;-4.691359572461806E-005;
2.407500000000000E+009;1.800599098205566E-001;7.914860732853413E-003;2.083601284539327E-004;-1.686079485807568E-004;
2.407666666666667E+009;1.798077523708344E-001;7.374387700110674E-003;2.382397360634059E-004;-1.776022982085124E-004;
2.407833333333334E+009;1.794468611478806E-001;6.717704236507416E-003;1.980364177143201E-004;-2.662412298377603E-004;
2.408000000000000E+009;1.791786402463913E-001;6.059313192963600E-003;2.300881897099316E-005;-5.194657132960856E-004;
2.408166666666667E+009;1.786801517009735E-001;5.551827140152454E-003;-5.052473625255516E-006;-4.266827018000186E-004;
2.408333333333334E+009;1.784016489982605E-001;4.696868360042572E-003;3.623986413003877E-005;-3.512507828418165E-004;
2.408500000000000E+009;1.778042167425156E-001;3.816111944615841E-003;5.141452675161418E-006;-4.253064398653805E-004;
2.408666666666667E+009;1.771208494901657E-001;2.921516541391611E-003;-1.460605708416551E-004;-5.585878388956189E-004;
2.408833333333334E+009;1.764733493328095E-001;1.977263018488884E-003;-1.205375010613352E-004;-4.600964020937681E-004;
2.409000000000000E+009;1.757661998271942E-001;9.187958203256130E-004;-1.465683162678033E-004;-4.935963661409915E-004;
2.409166666666667E+009;1.751373708248138E-001;-2.556542458478361E-004;-1.750819938024506E-004;-6.655373726971448E-004;
2.409333333333334E+009;1.747038811445236E-001;-1.456047059036791E-003;-3.176014579366893E-004;-6.743480917066336E-004;
2.409500000000000E+009;1.738968789577484E-001;-2.826415002346039E-003;-3.471460659056902E-004;-6.856334512121975E-004;
2.409666666666667E+009;1.731616705656052E-001;-4.075245466083288E-003;-3.611183201428503E-004;-6.445058970712125E-004;
2.409833333333334E+009;1.725485175848007E-001;-5.548221524804831E-003;-5.323329241946340E-004;-5.849946755915880E-004;
2.410000000000000E+009;1.720768809318543E-001;-7.139749825000763E-003;-4.145418934058398E-004;-6.616317550651729E-004;
2.410166666666667E+009;1.712939739227295E-001;-8.606306277215481E-003;-4.324319015722722E-004;-8.080510888248682E-004;
2.410333333333334E+009;1.707447171211243E-001;-1.019936800003052E-002;-6.249897414818406E-004;-8.524883887730539E-004;
2.410500000000000E+009;1.703333258628845E-001;-1.193728018552065E-002;-7.212044438347220E-004;-8.363665547221899E-004;
2.410666666666667E+009;1.697968244552612E-001;-1.387495268136263E-002;-6.135181174613535E-004;-8.028003503568471E-004;
2.410833333333334E+009;1.694179326295853E-001;-1.532752439379692E-002;-7.751947850920260E-004;-8.624359616078436E-004;
2.411000000000000E+009;1.689523756504059E-001;-1.715096458792687E-002;-7.200400577858090E-004;-8.795342291705310E-004;
2.411166666666667E+009;1.685933172702789E-001;-1.931293867528439E-002;-1.009505591355264E-003;-9.228427661582828E-004;
2.411333333333334E+009;1.685743033885956E-001;-2.094980701804161E-002;-1.294342917390168E-003;-8.627455681562424E-004;
2.411500000000000E+009;1.682905852794647E-001;-2.321043610572815E-002;-1.253706752322614E-003;-6.640797946602106E-004;
2.411666666666667E+009;1.683147847652435E-001;-2.489783801138401E-002;-1.246814616024494E-003;-8.669682429172099E-004;
2.411833333333334E+009;1.681798398494721E-001;-2.675721421837807E-002;-1.340648741461337E-003;-5.362001829780638E-004;
2.412000000000000E+009;1.684520095586777E-001;-2.869330532848835E-002;-1.600678428076208E-003;-6.175467278808355E-004;
2.412166666666667E+009;1.684736758470535E-001;-3.057066723704338E-002;-1.561460550874472E-003;-4.856273881159723E-004;
2.412333333333334E+009;1.687042862176895E-001;-3.256369754672051E-002;-1.664171577431262E-003;-4.378351150080562E-004;
2.412500000000000E+009;1.686405688524246E-001;-3.434855118393898E-002;-1.721616950817406E-003;-3.472472599241883E-004;
2.412666666666667E+009;1.691330522298813E-001;-3.619572892785072E-002;-1.972771482542157E-003;-4.151379107497633E-004;
2.412833333333334E+009;1.695379316806793E-001;-3.791355341672897E-002;-1.732104108668864E-003;-3.156808088533580E-004;
2.413000000000000E+009;1.697579771280289E-001;-3.972033038735390E-002;-1.991438912227750E-003;-2.192471147282049E-004;
2.413166666666667E+009;1.703356802463532E-001;-4.155138507485390E-002;-2.088111825287342E-003;-1.319439470535144E-004;
2.413333333333334E+009;1.705394685268402E-001;-4.295217245817184E-002;-2.007755450904369E-003;-1.973080179595854E-005;
2.413500000000000E+009;1.711777448654175E-001;-4.455722868442535E-002;-2.215987304225564E-003;3.047202480956912E-004;
2.413666666666667E+009;1.718294769525528E-001;-4.619006440043449E-002;-2.284231595695019E-003;4.474501765798777E-004;
2.413833333333334E+009;1.721761822700501E-001;-4.767573997378349E-002;-2.367483451962471E-003;3.219649079255760E-004;
2.414000000000000E+009;1.725505292415619E-001;-4.915412515401840E-002;-2.348106121644378E-003;6.342150736600161E-004;
2.414166666666667E+009;1.733454465866089E-001;-5.024712905287743E-002;-2.270934171974659E-003;7.538059726357460E-004;
2.414333333333334E+009;1.738536357879639E-001;-5.159217491745949E-002;-2.267823554575443E-003;9.214002639055252E-004;
2.414500000000000E+009;1.746509969234467E-001;-5.262235552072525E-002;-2.333513228222728E-003;9.304903214797378E-004;
2.414666666666667E+009;1.748178601264954E-001;-5.361169949173927E-002;-2.322017215192318E-003;1.026623183861375E-003;
2.414833333333334E+009;1.753602772951126E-001;-5.474918708205223E-002;-2.334685996174812E-003;1.173793920315802E-003;
2.415000000000000E+009;1.756576448678970E-001;-5.540917441248894E-002;-2.254802500829101E-003;1.390978344716132E-003;
2.415166666666667E+009;1.761143058538437E-001;-5.644840747117996E-002;-2.268099691718817E-003;1.591339940205216E-003;
2.415333333333334E+009;1.767014116048813E-001;-5.708245933055878E-002;-2.241710200905800E-003;1.749724964611232E-003;
2.415500000000000E+009;1.766977310180664E-001;-5.759761855006218E-002;-2.168284729123116E-003;1.724620233289897E-003;
2.415666666666667E+009;1.769549846649170E-001;-5.800073593854904E-002;-2.011068630963564E-003;1.906907185912132E-003;
2.415833333333334E+009;1.773249953985214E-001;-5.873737111687660E-002;-1.957307802513242E-003;2.063318155705929E-003;
2.416000000000000E+009;1.772155016660690E-001;-5.916003137826920E-002;-1.922985073179007E-003;2.030948875471950E-003;
2.416166666666667E+009;1.775034666061401E-001;-5.960278213024139E-002;-1.744940993376076E-003;2.288095187395811E-003;
2.416333333333334E+009;1.773599833250046E-001;-5.980294942855835E-002;-1.697712345048785E-003;2.282372443005443E-003;
2.416500000000000E+009;1.772103458642960E-001;-6.026643142104149E-002;-1.708800438791513E-003;2.434130758047104E-003;
2.416666666666667E+009;1.768928170204163E-001;-6.051920354366303E-002;-1.550229615531862E-003;2.570013748481870E-003;
2.416833333333334E+009;1.768423616886139E-001;-6.081476062536240E-002;-1.330182538367808E-003;2.718786941841245E-003;
2.417000000000000E+009;1.763229221105576E-001;-6.120730191469193E-002;-1.374852028675377E-003;2.778412075713277E-003;
2.417166666666667E+009;1.758040636777878E-001;-6.120518967509270E-002;-1.153764780610800E-003;2.813777187839150E-003;
2.417333333333334E+009;1.752913743257523E-001;-6.148882210254669E-002;-9.891900699585676E-004;2.802825300022960E-003;
2.417500000000000E+009;1.745890080928803E-001;-6.204938143491745E-002;-1.000442192889750E-003;2.812090562656522E-003;
2.417666666666667E+009;1.739915758371353E-001;-6.205972284078598E-002;-8.925909060053527E-004;2.953046234324575E-003;
2.417833333333334E+009;1.732333004474640E-001;-6.222031265497208E-002;-5.584682803601027E-004;3.078328911215067E-003;
2.418000000000000E+009;1.723881214857101E-001;-6.275403499603272E-002;-4.173275665380061E-004;3.157697850838304E-003;
2.418166666666667E+009;1.713430881500244E-001;-6.300720572471619E-002;-2.387475833529607E-004;3.153031924739480E-003;
2.418333333333334E+009;1.706388890743256E-001;-6.356596946716309E-002;-1.920933573273942E-004;3.251620801165700E-003;
2.418500000000000E+009;1.694675087928772E-001;-6.394702941179276E-002;-4.578437074087560E-005;3.185067558661103E-003;
2.418666666666667E+009;1.684358268976212E-001;-6.450059264898300E-002;8.040849206736311E-005;3.116560168564320E-003;
2.418833333333334E+009;1.672432124614716E-001;-6.512200832366943E-002;1.473075390094891E-004;3.074850421398878E-003;
2.419000000000000E+009;1.659698933362961E-001;-6.567166745662689E-002;4.274412349332124E-004;3.215658478438854E-003;
2.419166666666667E+009;1.649058610200882E-001;-6.629928946495056E-002;5.826066480949521E-004;3.126211930066347E-003;
2.419333333333334E+009;1.636716425418854E-001;-6.706639379262924E-002;5.907011800445616E-004;3.091276157647371E-003;
2.419500000000000E+009;1.624527722597122E-001;-6.809028983116150E-002;8.903368725441396E-004;3.072272753342986E-003;
2.419666666666667E+009;1.615582108497620E-001;-6.899511069059372E-002;8.188543142750859E-004;3.047747770324349E-003;
2.419833333333334E+009;1.602972596883774E-001;-6.972075253725052E-002;1.086765551008284E-003;2.937295474112034E-003;
2.420000000000000E+009;1.591604799032211E-001;-7.080365717411041E-002;1.165964524261653E-003;2.874040976166725E-003;
2.420166666666667E+009;1.580495536327362E-001;-7.206217199563980E-002;1.313100568950176E-003;2.878575120121241E-003;
2.420333333333334E+009;1.570712774991989E-001;-7.321844249963760E-002;1.405577408149838E-003;2.673454582691193E-003;
2.420500000000000E+009;1.561263352632523E-001;-7.442774623632431E-002;1.534512965008616E-003;2.656976459547877E-003;
2.420666666666667E+009;1.549343466758728E-001;-7.572460919618607E-002;1.559481024742127E-003;2.715423703193665E-003;
2.420833333333334E+009;1.542363166809082E-001;-7.719232887029648E-002;1.767285051755607E-003;2.501251175999641E-003;
2.421000000000000E+009;1.532870084047318E-001;-7.863239943981171E-002;1.834542723372579E-003;2.509540179744363E-003;
2.421166666666667E+009;1.527094841003418E-001;-8.013265579938889E-002;2.008462790399790E-003;2.404682571068406E-003;
2.421333333333334E+009;1.520651429891586E-001;-8.170946687459946E-002;2.149609848856926E-003;2.205864991992712E-003;
2.421500000000000E+009;1.513216346502304E-001;-8.321161568164825E-002;1.937235007062554E-003;2.119925105944276E-003;
2.421666666666667E+009;1.509153544902802E-001;-8.477398753166199E-002;2.010222058743238E-003;2.116362797096372E-003;
2.421833333333334E+009;1.504520028829575E-001;-8.634486049413681E-002;2.164466306567192E-003;1.958343898877502E-003;
2.422000000000000E+009;1.500470489263535E-001;-8.810047060251236E-002;2.244073664769530E-003;1.890518702566624E-003;
2.422166666666667E+009;1.498896628618240E-001;-8.989622443914414E-002;2.321404172107577E-003;1.781319384463131E-003;
2.422333333333334E+009;1.495420336723328E-001;-9.149211645126343E-002;2.252767793834209E-003;1.858300995081663E-003;
2.422500000000000E+009;1.496150791645050E-001;-9.294860810041428E-002;2.427054336294532E-003;1.654722727835178E-003;
2.422666666666667E+009;1.494256407022476E-001;-9.489002823829651E-002;2.299359301105142E-003;1.634436426684260E-003;
2.422833333333334E+009;1.495801359415054E-001;-9.655344486236572E-002;2.431597560644150E-003;1.391354016959667E-003;
2.423000000000000E+009;1.495048701763153E-001;-9.793448448181152E-002;2.506297547370195E-003;1.552822766825557E-003;
2.423166666666667E+009;1.497822552919388E-001;-9.964401274919510E-002;2.441468415781856E-003;1.328860991634429E-003;
2.423333333333334E+009;1.503422111272812E-001;-1.009648293256760E-001;2.477085916325450E-003;1.204375992529094E-003;
2.423500000000000E+009;1.505421698093414E-001;-1.027546375989914E-001;2.597349928691983E-003;1.283107441850007E-003;
2.423666666666667E+009;1.505932509899139E-001;-1.043964326381683E-001;2.484953496605158E-003;1.103325979784131E-003;
2.423833333333334E+009;1.510266810655594E-001;-1.054835766553879E-001;2.684239530935884E-003;9.853146038949490E-004;
2.424000000000000E+009;1.513262987136841E-001;-1.068672686815262E-001;2.699861768633127E-003;9.231245494447649E-004;
2.424166666666667E+009;1.518943905830383E-001;-1.082006916403770E-001;2.512839157134295E-003;8.249534876085818E-004;
2.424333333333334E+009;1.523277908563614E-001;-1.093832105398178E-001;2.696822397410870E-003;8.716449956409633E-004;
2.424500000000000E+009;1.528184115886688E-001;-1.104813665151596E-001;2.720125485211611E-003;7.412787526845932E-004;
2.424666666666667E+009;1.533061861991882E-001;-1.114452481269836E-001;2.856896258890629E-003;6.606735405512154E-004;
2.424833333333334E+009;1.537165343761444E-001;-1.124201789498329E-001;2.814451232552528E-003;5.376632907427847E-004;
2.425000000000000E+009;1.541709154844284E-001;-1.133053004741669E-001;2.920702332630754E-003;4.701678699348122E-004;
2.425166666666667E+009;1.542852669954300E-001;-1.141282990574837E-001;2.831245539709926E-003;3.317011869512498E-004;
2.425333333333334E+009;1.548313498497009E-001;-1.147561296820641E-001;2.968472661450505E-003;1.396771986037493E-004;
2.425500000000000E+009;1.552550941705704E-001;-1.155616044998169E-001;2.980247139930725E-003;1.109382355934940E-004;
2.425666666666667E+009;1.553412079811096E-001;-1.160677447915077E-001;2.959648380056024E-003;1.185829096357338E-004;
2.425833333333334E+009;1.556070148944855E-001;-1.165463551878929E-001;2.720894524827600E-003;-2.629595983307809E-004;
2.426000000000000E+009;1.557247489690781E-001;-1.170909926295281E-001;2.860591746866703E-003;-1.845906081143767E-004;
2.426166666666667E+009;1.561570167541504E-001;-1.175352334976196E-001;2.835940569639206E-003;-2.117089170496911E-004;
2.426333333333334E+009;1.560111492872238E-001;-1.177790984511375E-001;2.804479794576764E-003;-3.986838855780661E-004;
2.426500000000000E+009;1.560799032449722E-001;-1.180303320288658E-001;2.815877320244908E-003;-5.519869737327099E-004;
2.426666666666667E+009;1.559739708900452E-001;-1.180945560336113E-001;2.666465705260634E-003;-6.619343766942620E-004;
2.426833333333334E+009;1.557576358318329E-001;-1.184041425585747E-001;2.505193231627345E-003;-5.657227011397481E-004;
2.427000000000000E+009;1.554348766803742E-001;-1.185964271426201E-001;2.636039163917303E-003;-8.070330368354917E-004;
2.427166666666667E+009;1.550148129463196E-001;-1.186351254582405E-001;2.471830463036895E-003;-8.342440705746412E-004;
2.427333333333334E+009;1.545364707708359E-001;-1.187967211008072E-001;2.414481481537223E-003;-1.066508586518467E-003;
2.427500000000000E+009;1.541769057512283E-001;-1.189248338341713E-001;2.487296471372247E-003;-1.094816136173904E-003;
2.427666666666667E+009;1.533659547567368E-001;-1.190142929553986E-001;2.522872295230627E-003;-1.172042102552950E-003;
2.427833333333334E+009;1.525231599807739E-001;-1.191607937216759E-001;2.470108680427074E-003;-1.206671237014234E-003;
