# Version 1.00
#
freq[Hz];re:Trc1_S11;im:Trc1_S11;re:Trc2_S21;im:Trc2_S21;
2.400000000000000E+009;1.585057079792023E-001;6.196859478950501E-002;-2.684200182557106E-003;-1.867708779172972E-004;
2.400166666666667E+009;1.584195345640183E-001;6.061955168843269E-002;-2.596050035208464E-003;-1.776591088855639E-004;
2.400333333333334E+009;1.581967025995255E-001;5.853464826941490E-002;-2.516220090910792E-003;-4.398165765451267E-005;
2.400500000000000E+009;1.582824587821960E-001;5.677823349833489E-002;-2.422085497528315E-003;9.013220551423729E-005;
2.400666666666667E+009;1.581491231918335E-001;5.475598946213722E-002;-2.495504450052977E-003;1.609401224413887E-004;
2.400833333333334E+009;1.583209335803986E-001;5.291021615266800E-002;-2.414933871477842E-003;2.704283397179097E-004;
2.401000000000000E+009;1.583162248134613E-001;5.080373212695122E-002;-2.379911253228784E-003;4.899717168882489E-004;
2.401166666666667E+009;1.587174832820892E-001;4.878133907914162E-002;-2.484166529029608E-003;4.147182335145772E-004;
2.401333333333334E+009;1.587931513786316E-001;4.678560793399811E-002;-2.295101061463356E-003;4.016125749330968E-004;
2.401500000000000E+009;1.593541800975800E-001;4.465112835168839E-002;-2.239813096821308E-003;7.665338926017284E-004;
2.401666666666667E+009;1.595541238784790E-001;4.263969510793686E-002;-2.263073343783617E-003;8.523677824996412E-004;
2.401833333333334E+009;1.599460244178772E-001;4.061283916234970E-002;-2.076296368613839E-003;8.998422417789698E-004;
2.402000000000000E+009;1.601513475179672E-001;3.872789442539215E-002;-1.953651430085301E-003;1.141362125054002E-003;
2.402166666666667E+009;1.607636958360672E-001;3.664566576480866E-002;-1.911554601974785E-003;1.181131228804588E-003;
2.402333333333334E+009;1.613029390573502E-001;3.487249836325645E-002;-1.811634632758796E-003;1.234919414855540E-003;
2.402500000000000E+009;1.621467322111130E-001;3.302123025059700E-002;-1.811342546716332E-003;1.444962224923074E-003;
2.402666666666667E+009;1.627268046140671E-001;3.141890838742256E-002;-1.544874976389110E-003;1.536084571853280E-003;
2.402833333333334E+009;1.635149270296097E-001;2.963387407362461E-002;-1.510861678980291E-003;1.531289773993194E-003;
2.403000000000000E+009;1.641623973846436E-001;2.793572843074799E-002;-1.253990572877228E-003;1.504944986663759E-003;
2.403166666666667E+009;1.651318520307541E-001;2.644384838640690E-002;-1.122181536629796E-003;1.631259918212891E-003;
2.403333333333334E+009;1.659167408943176E-001;2.507017925381661E-002;-1.193179865367711E-003;1.512303482741118E-003;
2.403500000000000E+009;1.668777912855148E-001;2.370434254407883E-002;-8.854455081745982E-004;1.579260802827776E-003;
2.403666666666667E+009;1.677642613649368E-001;2.222891338169575E-002;-6.174778100103140E-004;1.602528151124716E-003;
2.403833333333334E+009;1.687974929809570E-001;2.075525186955929E-002;-5.941631970927119E-004;1.475909841246903E-003;
2.404000000000000E+009;1.696578115224838E-001;1.985382102429867E-002;-4.629423783626407E-004;1.378458109684289E-003;
2.404166666666667E+009;1.705049574375153E-001;1.855935528874397E-002;-5.167108611203730E-004;1.487510045990348E-003;
2.404333333333334E+009;1.715446561574936E-001;1.763074472546578E-002;-3.266097337473184E-004;1.293779467232525E-003;
2.404500000000000E+009;1.724850982427597E-001;1.668512821197510E-002;-8.125607564579696E-005;1.445757225155830E-003;
2.404666666666667E+009;1.734132766723633E-001;1.578062027692795E-002;-2.376345946686342E-005;1.227822504006326E-003;
2.404833333333334E+009;1.742245554924011E-001;1.491565816104412E-002;-1.177550293505192E-004;1.248486805707216E-003;
2.405000000000000E+009;1.750794053077698E-001;1.435108762234449E-002;3.100864996667951E-004;1.021967385895550E-003;
2.405166666666667E+009;1.758345067501068E-001;1.373590435832739E-002;2.126865001628175E-004;9.151778067462146E-004;
2.405333333333334E+009;1.766786575317383E-001;1.288043148815632E-002;2.797086199279875E-004;9.096399880945683E-004;
2.405500000000000E+009;1.773144751787186E-001;1.259860582649708E-002;2.927787718363106E-004;6.612083525396884E-004;
2.405666666666667E+009;1.780256778001785E-001;1.200513355433941E-002;3.103123453911394E-004;6.277068750932813E-004;
2.405833333333334E+009;1.785209178924561E-001;1.158565748482943E-002;3.474021214060485E-004;5.975987296551466E-004;
2.406000000000000E+009;1.789350360631943E-001;1.109366305172443E-002;3.756083897314966E-004;5.986983305774629E-004;
2.406166666666667E+009;1.793843805789948E-001;1.087646558880806E-002;4.902564105577767E-004;4.818899906240404E-004;
2.406333333333334E+009;1.797782480716705E-001;1.058076415210962E-002;3.303539706394076E-004;2.496200031600893E-004;
2.406500000000000E+009;1.800611466169357E-001;1.018132921308279E-002;3.787857422139496E-004;2.727149694692344E-004;
2.406666666666667E+009;1.801024824380875E-001;9.855424053966999E-003;4.464214725885540E-004;2.323404332855716E-004;
2.406833333333334E+009;1.803310215473175E-001;9.448984637856484E-003;1.953521277755499E-004;7.822230691090226E-005;
2.407000000000000E+009;1.802818626165390E-001;9.079017676413059E-003;3.203277301508933E-004;2.072104871331248E-005;
2.407166666666667E+009;1.804881542921066E-001;8.707364089787006E-003;3.391095669940114E-004;-8.650952804600820E-005;
2.407333333333334E+009;1.803311556577683E-001;8.213387802243233E-003;3.202548832632601E-004;-1.076147964340635E-004;
2.407500000000000E+009;1.801072061061859E-001;7.975432090461254E-003;2.194738772232086E-004;-1.252846268471330E-004;
2.407666666666667E+009;1.799237281084061E-001;7.409027311950922E-003;2.587018534541130E-004;-1.809702807804570E-004;
2.407833333333334E+009;1.794357895851135E-001;6.755761336535215E-003;2.541691355872899E-004;-3.951191902160645E-004;
2.408000000000000E+009;1.791575700044632E-001;6.147267762571573E-003;1.461028004996479E-004;-2.093363727908582E-004;
2.408166666666667E+009;1.787040382623673E-001;5.550826899707317E-003;2.811447484418750E-004;-2.257792220916599E-004;
2.408333333333334E+009;1.784373670816422E-001;4.673291463404894E-003;-7.855716103222221E-005;-3.685471601784229E-004;
2.408500000000000E+009;1.778097301721573E-001;3.797561861574650E-003;-1.018751863739453E-004;-4.124972329009324E-004;
2.408666666666667E+009;1.772304326295853E-001;2.758290152996779E-003;-3.613159788073972E-005;-5.559619748964906E-004;
2.408833333333334E+009;1.765783131122589E-001;2.070710528641939E-003;-1.179895407403819E-004;-5.399871151894331E-004;
2.409000000000000E+009;1.759228855371475E-001;9.008860797621310E-004;-1.704393944237381E-004;-5.074148066341877E-004;
2.409166666666667E+009;1.753104329109192E-001;-2.035885117948055E-004;-1.102136739064008E-004;-6.012803642079234E-004;
2.409333333333334E+009;1.746506094932556E-001;-1.489577232860029E-003;-2.557087573222816E-004;-6.147840176708996E-004;
2.409500000000000E+009;1.741030067205429E-001;-2.693169750273228E-003;-2.922100247815251E-004;-6.380226113833487E-004;
2.409666666666667E+009;1.733161807060242E-001;-4.155039321631193E-003;-3.907066711690277E-004;-6.538284360431135E-004;
2.409833333333334E+009;1.725293099880219E-001;-5.530747119337320E-003;-4.159899835940450E-004;-6.106520886532962E-004;
2.410000000000000E+009;1.720920354127884E-001;-6.901277694851160E-003;-4.114486800972372E-004;-7.858226890675724E-004;
2.410166666666667E+009;1.714890152215958E-001;-8.469714783132076E-003;-5.029879393987358E-004;-7.107997662387788E-004;
2.410333333333334E+009;1.709439158439636E-001;-1.021555252373219E-002;-5.349109997041524E-004;-7.982527022249997E-004;
2.410500000000000E+009;1.705106347799301E-001;-1.191408373415470E-002;-6.971716065891087E-004;-8.232428808696568E-004;
2.410666666666667E+009;1.697345077991486E-001;-1.379413623362780E-002;-6.826455355621874E-004;-8.442393736913800E-004;
2.410833333333334E+009;1.695300340652466E-001;-1.545146200805903E-002;-8.313430007547140E-004;-9.138404857367277E-004;
2.411000000000000E+009;1.692383885383606E-001;-1.711713895201683E-002;-8.708023815415800E-004;-8.522669086232781E-004;
2.411166666666667E+009;1.687307804822922E-001;-1.909884065389633E-002;-9.676942718215287E-004;-8.341236971318722E-004;
2.411333333333334E+009;1.684674322605133E-001;-2.099742181599140E-002;-1.010405831038952E-003;-8.056667866185308E-004;
2.411500000000000E+009;1.684831827878952E-001;-2.298070117831230E-002;-1.188996364362538E-003;-8.200635202229023E-004;
2.411666666666667E+009;1.684421449899674E-001;-2.486542426049709E-002;-1.306762918829918E-003;-7.779598818160594E-004;
2.411833333333334E+009;1.683373302221298E-001;-2.665740624070168E-002;-1.378788496367633E-003;-6.443618913181126E-004;
2.412000000000000E+009;1.685601472854614E-001;-2.898935601115227E-002;-1.608336810022593E-003;-5.253434064798057E-004;
2.412166666666667E+009;1.684628576040268E-001;-3.058041073381901E-002;-1.719397958368063E-003;-6.483026663772762E-004;
2.412333333333334E+009;1.687356829643250E-001;-3.243001922965050E-002;-1.820018980652094E-003;-5.661196773871779E-004;
2.412500000000000E+009;1.688525229692459E-001;-3.414817899465561E-002;-1.816329080611467E-003;-4.464938247110695E-004;
2.412666666666667E+009;1.692843735218048E-001;-3.622208908200264E-002;-1.877173548564315E-003;-5.049457540735602E-004;
2.412833333333334E+009;1.696599572896957E-001;-3.803036734461784E-002;-2.011968521401286E-003;-3.295343194622546E-004;
2.413000000000000E+009;1.698951870203018E-001;-3.978032618761063E-002;-2.094650873914361E-003;-6.268862489378080E-005;
2.413166666666667E+009;1.701773554086685E-001;-4.154052212834358E-002;-2.085514133796096E-003;2.594577745185234E-005;
2.413333333333334E+009;1.706551313400269E-001;-4.322626441717148E-002;-2.116966992616653E-003;-5.404378953244304E-006;
2.413500000000000E+009;1.713499873876572E-001;-4.472353681921959E-002;-2.217137720435858E-003;3.356828237883747E-004;
2.413666666666667E+009;1.717485636472702E-001;-4.623781889677048E-002;-2.213435480371118E-003;4.857103922404349E-004;
2.413833333333334E+009;1.721992045640945E-001;-4.776347801089287E-002;-2.176766050979495E-003;5.145787727087736E-004;
2.414000000000000E+009;1.726180016994476E-001;-4.901342466473579E-002;-2.225317293778062E-003;7.279136334545910E-004;
2.414166666666667E+009;1.732652932405472E-001;-5.034169554710388E-002;-2.294570207595825E-003;6.096449214965105E-004;
2.414333333333334E+009;1.738011389970779E-001;-5.158809199929237E-002;-2.495205262675881E-003;7.872703718021512E-004;
2.414500000000000E+009;1.744989305734634E-001;-5.263466015458107E-002;-2.235556254163384E-003;1.005064928904176E-003;
2.414666666666667E+009;1.748744398355484E-001;-5.369915068149567E-002;-2.240764442831278E-003;1.006695558317006E-003;
2.414833333333334E+009;1.752507537603378E-001;-5.470283702015877E-002;-2.342385472729802E-003;1.099403016269207E-003;
2.415000000000000E+009;1.757982969284058E-001;-5.558146908879280E-002;-2.291022101417184E-003;1.378126675263047E-003;
2.415166666666667E+009;1.760447025299072E-001;-5.639286339282990E-002;-2.290376927703619E-003;1.567542552947998E-003;
2.415333333333334E+009;1.764625161886215E-001;-5.700474977493286E-002;-2.122434321790934E-003;1.569950487464666E-003;
2.415500000000000E+009;1.767028421163559E-001;-5.757769942283630E-002;-2.015999518334866E-003;1.817893935367465E-003;
2.415666666666667E+009;1.770583987236023E-001;-5.806278064846993E-002;-2.098296768963337E-003;1.871158136054874E-003;
2.415833333333334E+009;1.771978288888931E-001;-5.867820605635643E-002;-1.957073574885726E-003;2.090740948915482E-003;
2.416000000000000E+009;1.771307587623596E-001;-5.915801599621773E-002;-1.999897183850408E-003;2.154591958969832E-003;
2.416166666666667E+009;1.774839758872986E-001;-5.955296754837036E-002;-1.890815561637282E-003;2.227629302069545E-003;
2.416333333333334E+009;1.773008257150650E-001;-5.990329012274742E-002;-1.774863689206541E-003;2.273513469845057E-003;
2.416500000000000E+009;1.771367043256760E-001;-6.020981445908546E-002;-1.648125355131924E-003;2.446190919727087E-003;
2.416666666666667E+009;1.769058555364609E-001;-6.046510487794876E-002;-1.646345248445869E-003;2.566050505265594E-003;
2.416833333333334E+009;1.767350882291794E-001;-6.073876470327377E-002;-1.379710505716503E-003;2.662949031218886E-003;
2.417000000000000E+009;1.761784851551056E-001;-6.114081293344498E-002;-1.259665470570326E-003;2.702302997931838E-003;
2.417166666666667E+009;1.757646054029465E-001;-6.123096495866776E-002;-1.130704651586711E-003;2.897493075579405E-003;
2.417333333333334E+009;1.752470135688782E-001;-6.148152053356171E-002;-1.123441150411964E-003;2.807364100590348E-003;
2.417500000000000E+009;1.745487600564957E-001;-6.188075616955757E-002;-8.059317478910089E-004;2.831905847415328E-003;
2.417666666666667E+009;1.739379167556763E-001;-6.202284991741180E-002;-8.232165127992630E-004;2.913716249167919E-003;
2.417833333333334E+009;1.730807572603226E-001;-6.232398003339768E-002;-6.646520923823118E-004;3.203499130904675E-003;
2.418000000000000E+009;1.722061187028885E-001;-6.286141276359558E-002;-4.687964683398604E-004;3.171636024489999E-003;
2.418166666666667E+009;1.713321506977081E-001;-6.295598298311234E-002;-4.107017011847347E-004;3.148067742586136E-003;
2.418333333333334E+009;1.706597357988358E-001;-6.344289332628250E-002;-2.529886260163039E-004;3.135242266580463E-003;
2.418500000000000E+009;1.694393455982208E-001;-6.391865760087967E-002;-3.971767728216946E-005;3.214921103790402E-003;
2.418666666666667E+009;1.684124916791916E-001;-6.443077325820923E-002;-4.537297354545444E-005;3.161067608743906E-003;
2.418833333333334E+009;1.671681255102158E-001;-6.499049812555313E-002;2.014070923905820E-004;3.187441732734442E-003;
2.419000000000000E+009;1.659415662288666E-001;-6.566426157951355E-002;3.075542626902461E-004;3.150653559714556E-003;
2.419166666666667E+009;1.648414731025696E-001;-6.630431860685349E-002;4.297405248507857E-004;3.174430225044489E-003;
2.419333333333334E+009;1.635911166667938E-001;-6.683504581451416E-002;5.695038707926869E-004;3.259953809902072E-003;
2.419500000000000E+009;1.625518798828125E-001;-6.802084296941757E-002;8.306229137815535E-004;3.213522722944617E-003;
2.419666666666667E+009;1.614364832639694E-001;-6.897219270467758E-002;8.582134032621980E-004;3.076988738030195E-003;
2.419833333333334E+009;1.603323817253113E-001;-6.971264630556107E-002;1.024616300128400E-003;2.987553365528584E-003;
2.420000000000000E+009;1.591235101222992E-001;-7.082451134920120E-002;1.094992272555828E-003;2.933608600869775E-003;
2.420166666666667E+009;1.581877022981644E-001;-7.200278341770172E-002;1.267251907847822E-003;2.834413433447480E-003;
2.420333333333334E+009;1.571660786867142E-001;-7.311864197254181E-002;1.259762910194695E-003;2.824834547936916E-003;
2.420500000000000E+009;1.563621610403061E-001;-7.442919909954071E-002;1.577177434228361E-003;2.813462633639574E-003;
2.420666666666667E+009;1.552026420831680E-001;-7.560945302248001E-002;1.518024597316980E-003;2.708726562559605E-003;
2.420833333333334E+009;1.543559283018112E-001;-7.707468420267105E-002;1.566186780110002E-003;2.694872673600912E-003;
2.421000000000000E+009;1.534216850996018E-001;-7.861775904893875E-002;1.704375375993550E-003;2.734181936830282E-003;
2.421166666666667E+009;1.528784930706024E-001;-8.003958314657211E-002;1.795514719560742E-003;2.540843095630407E-003;
2.421333333333334E+009;1.522872745990753E-001;-8.171751350164414E-002;1.947743236087263E-003;2.375949406996369E-003;
2.421500000000000E+009;1.515366435050964E-001;-8.302158117294312E-002;1.823049969971180E-003;2.211239188909531E-003;
2.421666666666667E+009;1.510571688413620E-001;-8.478841185569763E-002;2.085311803966761E-003;2.226700773462653E-003;
2.421833333333334E+009;1.506048589944840E-001;-8.644033968448639E-002;2.019833074882627E-003;2.079893369227648E-003;
2.422000000000000E+009;1.501418501138687E-001;-8.823650330305100E-002;2.207358600571752E-003;1.902595628052950E-003;
2.422166666666667E+009;1.498714089393616E-001;-9.002134203910828E-002;2.045980421826243E-003;1.908166334033012E-003;
2.422333333333334E+009;1.497246325016022E-001;-9.138179570436478E-002;2.241343259811401E-003;1.820375560782850E-003;
2.422500000000000E+009;1.496179699897766E-001;-9.313040971755981E-002;2.525418763980269E-003;1.642297836951911E-003;
2.422666666666667E+009;1.494671553373337E-001;-9.484454989433289E-002;2.249890007078648E-003;1.678184373304248E-003;
2.422833333333334E+009;1.496796458959580E-001;-9.651879966259003E-002;2.375165466219187E-003;1.544839353300631E-003;
2.423000000000000E+009;1.496990174055100E-001;-9.807925671339035E-002;2.387224696576595E-003;1.484794192947447E-003;
2.423166666666667E+009;1.500093638896942E-001;-9.974352270364761E-002;2.527029719203711E-003;1.424781046807766E-003;
2.423333333333334E+009;1.501762866973877E-001;-1.010294854640961E-001;2.437288174405694E-003;1.129964482970536E-003;
2.423500000000000E+009;1.504455655813217E-001;-1.026155576109886E-001;2.581960055977106E-003;1.157356775365770E-003;
2.423666666666667E+009;1.506941318511963E-001;-1.043970882892609E-001;2.612883457913995E-003;1.086957170628011E-003;
2.423833333333334E+009;1.511828154325485E-001;-1.056499853730202E-001;2.636767691001296E-003;1.016951398923993E-003;
2.424000000000000E+009;1.513706892728806E-001;-1.067648753523827E-001;2.586288144811988E-003;1.131008611992002E-003;
2.424166666666667E+009;1.519263982772827E-001;-1.082221791148186E-001;2.589163836091757E-003;1.018938724882901E-003;
2.424333333333334E+009;1.523122042417526E-001;-1.092440187931061E-001;2.545227529481053E-003;8.430333109572530E-004;
2.424500000000000E+009;1.528257280588150E-001;-1.104697287082672E-001;2.735081361606717E-003;7.486261893063784E-004;
2.424666666666667E+009;1.533751338720322E-001;-1.112360805273056E-001;2.692056586965919E-003;6.842408911325038E-004;
2.424833333333334E+009;1.537099480628967E-001;-1.122350469231606E-001;2.651668852195144E-003;6.331547629088163E-004;
2.425000000000000E+009;1.541148424148560E-001;-1.132601946592331E-001;2.691222587600350E-003;4.183864803053439E-004;
2.425166666666667E+009;1.543854624032974E-001;-1.140331551432610E-001;2.787049859762192E-003;3.709506709128618E-004;
2.425333333333334E+009;1.549532860517502E-001;-1.147143617272377E-001;2.860085340216756E-003;1.037529509630986E-004;
2.425500000000000E+009;1.554136276245117E-001;-1.155010610818863E-001;2.894205274060369E-003;5.653288826579228E-005;
2.425666666666667E+009;1.554876565933228E-001;-1.160127893090248E-001;2.808437217026949E-003;1.632812636671588E-004;
2.425833333333334E+009;1.557476669549942E-001;-1.165360286831856E-001;2.801512600854039E-003;-1.935429463628680E-005;
2.426000000000000E+009;1.557951569557190E-001;-1.170457899570465E-001;2.754304092377424E-003;-1.865976082626730E-004;
2.426166666666667E+009;1.561629772186279E-001;-1.175279319286346E-001;2.665763720870018E-003;-2.893061318900436E-004;
2.426333333333334E+009;1.559982448816299E-001;-1.176601350307465E-001;2.645183121785522E-003;-2.607374335639179E-004;
2.426500000000000E+009;1.561220437288284E-001;-1.180586293339729E-001;2.748093334957957E-003;-5.375761538743973E-004;
2.426666666666667E+009;1.560332626104355E-001;-1.181163415312767E-001;2.757179783657193E-003;-4.926513065584004E-004;
2.426833333333334E+009;1.557514816522598E-001;-1.183593422174454E-001;2.500531030818820E-003;-7.283542654477060E-004;
2.427000000000000E+009;1.554905474185944E-001;-1.186050772666931E-001;2.543325535953045E-003;-8.140478748828173E-004;
2.427166666666667E+009;1.550775170326233E-001;-1.185627877712250E-001;2.586069051176310E-003;-8.828942663967609E-004;
2.427333333333334E+009;1.545142978429794E-001;-1.186621263623238E-001;2.630488015711308E-003;-9.667313424870372E-004;
2.427500000000000E+009;1.541380286216736E-001;-1.188374236226082E-001;2.359829610213637E-003;-8.622457389719784E-004;
2.427666666666667E+009;1.533747315406799E-001;-1.190434247255325E-001;2.406569197773933E-003;-1.097826287150383E-003;
2.427833333333334E+009;1.526144295930862E-001;-1.191138774156570E-001;2.278399886563420E-003;-1.174550154246390E-003;
