# Hz S RI R 50
2400000000.0000000000 0.171157345175743103027343750000 0.040115479379892349243164062500 -0.002554372418671845956089638818 0.001169057097285985946655273438 0 0 0 0 
2400166666.6666665077 0.171760201454162597656250000000 0.039467763155698783184011091407 -0.002234191400930285887477255713 0.001127644209191202900530170972 0 0 0 0 
2400333333.3333334923 0.172144874930381802657919365629 0.038858979940414428710937500000 -0.002221201313659549193141318213 0.001241591875441371960880898584 0 0 0 0 
2400500000.0000000000 0.172608643770217895507812500000 0.038379937410354607318918596093 -0.002058972837403417067286826025 0.000969714659731835126876831055 0 0 0 0 
2400666666.6666665077 0.172937646508216913421307481258 0.037709470838308327411692033593 -0.002066075103357433839085244287 0.001139469095505774021148681641 0 0 0 0 
2400833333.3333334923 0.173465430736541803558026231258 0.037276230752468109130859375000 -0.001984041649848223166224814307 0.001036310801282525062561035156 0 0 0 0 
2401000000.0000000000 0.173432752490043612381143134371 0.036711085587739937519113908593 -0.002077915705740451812744140625 0.001013287575915456035016704028 0 0 0 0 
2401166666.6666665077 0.173602521419525201995526231258 0.035885911434888839721679687500 -0.002014574827626347975489951025 0.001028334139846265099169086987 0 0 0 0 
2401333333.3333334923 0.173426061868667602539062500000 0.035443890839815139770507812500 -0.002172719920054078102111816406 0.001040763105265795967699360425 0 0 0 0 
2401500000.0000000000 0.173707827925682095626669365629 0.034702789038419716571848283593 -0.002173378132283688025233603369 0.001006243401207030036328959888 0 0 0 0 
2401666666.6666665077 0.173514813184738186935263115629 0.034087508916854858398437500000 -0.002283443929627538161036826025 0.001160792424343525929691933740 0 0 0 0 
2401833333.3333334923 0.173463329672813387771768134371 0.033203836530447013164479841407 -0.001981782959774136976954794775 0.001112869591452180905583047021 0 0 0 0 
2402000000.0000000000 0.173058360815048190017861884371 0.032647259533405297016184221093 -0.001998342806473373933079384912 0.001248864689841866926905966650 0 0 0 0 
2402166666.6666665077 0.172865360975265502929687500000 0.031941160559654242778737653907 -0.001992504810914396806004189600 0.001286572543904185078264545972 0 0 0 0 
2402333333.3333334923 0.172417953610420199295205634371 0.031000802293419841421107108204 -0.001938388450071216063258505713 0.001354043488390743949292827075 0 0 0 0 
2402500000.0000000000 0.172534689307212801834268134371 0.030366631224751469003697579296 -0.001772702555172144932987832178 0.001397115876898169951197958838 0 0 0 0 
2402666666.6666665077 0.172123432159423800369424384371 0.029422013089060779916783516796 -0.001638003741391002915026020581 0.001287450664676726081250834888 0 0 0 0 
2402833333.3333334923 0.171770453453063992599325615629 0.028216434642672538757324218750 -0.001626552199013530991197895581 0.001289561740122735934016562354 0 0 0 0 
2403000000.0000000000 0.171485707163810702224893134371 0.027126520872116088867187500000 -0.001682770438492297909380268628 0.001375383464619516892674111475 0 0 0 0 
2403166666.6666665077 0.171320065855979891678018134371 0.026011506095528599130650704296 -0.001545724575407803058624267578 0.001559675671160221099853515625 0 0 0 0 
2403333333.3333334923 0.170848771929740905761718750000 0.024971295148134231567382812500 -0.001540211727842688994166708838 0.001405452378094196102739643628 0 0 0 0 
2403500000.0000000000 0.170509308576583890060263115629 0.023655379191040989267369454296 -0.001468867179937660910962748950 0.001325070275925100066541362231 0 0 0 0 
2403666666.6666665077 0.169976174831390408614950615629 0.022054011002182960510253906250 -0.001591325155459343953373574365 0.001205735723488033034681010669 0 0 0 0 
2403833333.3333334923 0.169837459921836908538494981258 0.020775880664587020874023437500 -0.001668141805566847107530903394 0.001199728809297085025190043872 0 0 0 0 
2404000000.0000000000 0.169516548514366205413494981258 0.019494693726301189767857735546 -0.001660818466916679902317666162 0.001259667682461440996882773291 0 0 0 0 
2404166666.6666665077 0.169251903891563387771768134371 0.017808072268962860107421875000 -0.001655458705499768040300678784 0.001238575321622193076490092700 0 0 0 0 
2404333333.3333334923 0.168906673789024408538494981258 0.016164125874638560903528983204 -0.001759103033691645102259970557 0.001137914019636810042737651294 0 0 0 0 
2404500000.0000000000 0.168570384383201599121093750000 0.014653815887868399184257306445 -0.001693990780040621974347758716 0.001238027238287032084224081885 0 0 0 0 
2404666666.6666665077 0.168374434113502502441406250000 0.012905500829219819849957850977 -0.001671355566941201903699565356 0.001420350978150964000104594653 0 0 0 0 
2404833333.3333334923 0.168217152357101412674111884371 0.011321324855089189356793788477 -0.001920854090712964968440390479 0.001381624490022659084917378003 0 0 0 0 
2405000000.0000000000 0.168182224035263089279013115629 0.009365648031234741210937500000 -0.001859868876636028072954487378 0.001465056324377655982971191406 0 0 0 0 
2405166666.6666665077 0.167856708168983487228231865629 0.007693739142268896102905273438 -0.001841819845139980099321674878 0.001621830509975552992579794775 0 0 0 0 
2405333333.3333334923 0.168078869581222506424111884371 0.005833239294588565826416015625 -0.001780276419594883918762207031 0.001620664843358099894282675635 0 0 0 0 
2405500000.0000000000 0.167985022068023709396200615629 0.004018967505544424057006835938 -0.001789213973097502968431782300 0.001767675275914371013641357422 0 0 0 0 
2405666666.6666665077 0.167869523167610196212606865629 0.002047488698735833168029785156 -0.001703274901956320025800395435 0.001875308691523968956590961987 0 0 0 0 
2405833333.3333334923 0.167732432484626797775106865629 0.000305164896417409181594848633 -0.001856040093116462013841938550 0.001936569111421704075456928784 0 0 0 0 
2406000000.0000000000 0.167897552251815795898437500000 -0.001716215047053992965100932544 -0.001807765220291912989375449072 0.002109947381541132926940917969 0 0 0 0 
2406166666.6666665077 0.167680799961090087890625000000 -0.003493285737931727929356240381 -0.001773824333213269927381205981 0.002172364154830574989318847656 0 0 0 0 
2406333333.3333334923 0.167989149689674405196981865629 -0.005355594214051961898803710938 -0.001684473245404660918592143481 0.002355059143155812783482216943 0 0 0 0 
2406500000.0000000000 0.167876675724983187576455634371 -0.007132505532354115572457597949 -0.001622147741727530956268310547 0.002329546492546796798706054688 0 0 0 0 
2406666666.6666665077 0.167659804224968012054119981258 -0.008797285147011280059814453125 -0.001513118273578583977342915112 0.002577249193564056916477822412 0 0 0 0 
2406833333.3333334923 0.167897999286651611328125000000 -0.010718636214733120309849923046 -0.001394580118358135006548237378 0.002645401516929268836975097656 0 0 0 0 
2407000000.0000000000 0.167911782860755892654580634371 -0.012262169271707539994209490430 -0.001447884133085608916041708838 0.002706375671550631956813193213 0 0 0 0 
2407166666.6666665077 0.168014749884605407714843750000 -0.013655764982104299717913242773 -0.001346444129012525081634521484 0.002788861980661749839782714844 0 0 0 0 
2407333333.3333334923 0.167975768446922302246093750000 -0.015371602028608320408831211523 -0.001047122408635913892033242334 0.002800715155899525122401572119 0 0 0 0 
2407500000.0000000000 0.167957067489623995681924384371 -0.016605455428361889230748360546 -0.000957492389716207981109619141 0.002746255369856954054591513525 0 0 0 0 
2407666666.6666665077 0.168090522289276095291299384371 -0.017882119864225391042689139454 -0.000739593990147113800048828125 0.002875238889828323884251259912 0 0 0 0 
2407833333.3333334923 0.168183982372283907791299384371 -0.019069381058216098440150076954 -0.000764877360779792070388793945 0.002733618253841996192932128906 0 0 0 0 
2408000000.0000000000 0.168383523821830805022869981258 -0.020143330097198489797571951954 -0.000462957017589360475540161133 0.002849886426702142195460654150 0 0 0 0 
2408166666.6666665077 0.168483883142471313476562500000 -0.020983174443244930612584298046 -0.000329138332745060324668884277 0.002684992272406816916224814307 0 0 0 0 
2408333333.3333334923 0.168919533491134588043536268742 -0.022023402154445651662806326954 -0.000351786758983507806628626691 0.002690230030566453933715820312 0 0 0 0 
2408500000.0000000000 0.169089302420616205413494981258 -0.022830888628959659231165701954 -0.000350651971530169302791041241 0.002458246657624841170070029150 0 0 0 0 
2408666666.6666665077 0.169452339410781888107138115629 -0.023708295077085498464564139454 -0.000234164181165397194310864859 0.002684598555788397789001464844 0 0 0 0 
2408833333.3333334923 0.169703006744384793380575615629 -0.024540269747376438486119454296 -0.000096890282293315976858139038 0.002449799794703722000122070312 0 0 0 0 
2409000000.0000000000 0.170060217380523709396200615629 -0.025064622983336448669433593750 -0.000135690686875023001998347150 0.002581579610705376105067587744 0 0 0 0 
2409166666.6666665077 0.170467495918273898025674384371 -0.025845121592283248901367187500 -0.000124229525681585100576123648 0.002386579290032387213466025244 0 0 0 0 
2409333333.3333334923 0.171032622456550598144531250000 -0.026612421497702598571777343750 -0.000103963648143690106555661612 0.002456238493323326110839843750 0 0 0 0 
2409500000.0000000000 0.171174630522727994064169365629 -0.027382580563426021230677420704 -0.000205590229597874012872418814 0.002446193015202879905700683594 0 0 0 0 
2409666666.6666665077 0.171518176794052096267861884371 -0.028161678463220599782923514454 -0.000062945953686721622943878174 0.002551984973251820044276572119 0 0 0 0 
2409833333.3333334923 0.171631261706352206131143134371 -0.028634484857320788991907889454 -0.000094683440693188458681106567 0.002393647562712430953979492188 0 0 0 0 
2410000000.0000000000 0.171918779611587496658486884371 -0.029361052438616749155064766796 -0.000128614294226281290680485858 0.002590700052678585052490234375 0 0 0 0 
2410166666.6666665077 0.172204375267028808593750000000 -0.030119821429252631450612653907 -0.000055818421969888731837272644 0.002515472006052732901332236182 0 0 0 0 
2410333333.3333334923 0.172080114483833312988281250000 -0.030753884464502341533620466407 -0.000047282952436944469809532166 0.002487829187884926795959472656 0 0 0 0 
2410500000.0000000000 0.172049224376678494552450615629 -0.031368639320135116577148437500 -0.000097788157290779054164886475 0.002842070069164038138148642432 0 0 0 0 
2410666666.6666665077 0.172008916735649108886718750000 -0.032174147665500640869140625000 0.000032816256862133741378784180 0.002613841090351343154907226562 0 0 0 0 
2410833333.3333334923 0.171961456537246704101562500000 -0.032619711011648178100585937500 0.000122168872621841701582232065 0.002649730769917368888854980469 0 0 0 0 
2411000000.0000000000 0.171881467103958102127236884371 -0.033321991562843322753906250000 0.000216089581954293007224482404 0.002863204339519143104553222656 0 0 0 0 
2411166666.6666665077 0.171431377530097989181356865629 -0.033878404647111892700195312500 0.000252927799010649323463439941 0.002795523731037973923924111475 0 0 0 0 
2411333333.3333334923 0.171177431941032409667968750000 -0.034566957503557212139089216407 0.000376335287000984007686060773 0.002914411248639225959777832031 0 0 0 0 
2411500000.0000000000 0.170754775404930086990518134371 -0.035231430083513259887695312500 0.000502689799759536981582641602 0.003001565579324961142299033057 0 0 0 0 
2411666666.6666665077 0.170479536056518610198651231258 -0.035927604883909232402761091407 0.000594730139710009098052978516 0.002982127713039516968968056787 0 0 0 0 
2411833333.3333334923 0.169999986886978204925213731258 -0.036649096757173538208007812500 0.000711213855538517236709594727 0.003010814078152180151698447119 0 0 0 0 
2412000000.0000000000 0.169676661491393987457598768742 -0.037267725914716720581054687500 0.000864676956553012132644653320 0.002848125295713543891906738281 0 0 0 0 
2412166666.6666665077 0.169285669922828702071981865629 -0.038236230611801147460937500000 0.000931326532736420631408691406 0.002854563761502503915074013818 0 0 0 0 
2412333333.3333334923 0.168954148888588007171307481258 -0.038922298699617392803151716407 0.000969695451203733682632446289 0.002954342635348439216613769531 0 0 0 0 
2412500000.0000000000 0.168025836348533602615518134371 -0.039785210043191909790039062500 0.001161469728685915903804160010 0.002892833901569246812107705225 0 0 0 0 
2412666666.6666665077 0.167593777179717989822549384371 -0.040713220834732062602956403907 0.000999128795228898525238037109 0.002912061521783471107482910156 0 0 0 0 
2412833333.3333334923 0.167060881853103609939736884371 -0.041653048247098922729492187500 0.001298566698096692995784140479 0.002989276079460978941676474463 0 0 0 0 
2413000000.0000000000 0.166295036673545809646768134371 -0.042536869645118713378906250000 0.001375129679217935042140341650 0.002840194152668118910548544775 0 0 0 0 
2413166666.6666665077 0.165502503514289911468182481258 -0.043570850044488906860351562500 0.001356960390694438977482461084 0.003027835162356495857238769531 0 0 0 0 
2413333333.3333334923 0.164726629853248596191406250000 -0.044557310640811920166015625000 0.001398594817146658897399902344 0.003015774767845869064331054688 0 0 0 0 
2413500000.0000000000 0.164107099175453213790731865629 -0.045575931668281562114675153907 0.001786360982805490927455283057 0.002861822256818414168116904150 0 0 0 0 
2413666666.6666665077 0.163301318883895901779013115629 -0.046563077718019492412526716407 0.001704551395960151932360004956 0.003051647683605552153346396338 0 0 0 0 
2413833333.3333334923 0.162660732865333612640057481258 -0.047663036733865737915039062500 0.001841596909798681952832866138 0.002852971898391842842102050781 0 0 0 0 
2414000000.0000000000 0.161810159683227511306924384371 -0.048820968717336661601979841407 0.001968295080587267875671386719 0.002862169407308102087733603369 0 0 0 0 
2414166666.6666665077 0.161355882883071899414062500000 -0.049933657050132751464843750000 0.002111261244863272146937704932 0.003130061086267232894897460938 0 0 0 0 
2414333333.3333334923 0.160550117492675809005575615629 -0.051098942756652832031250000000 0.002580122789368032975437783350 0.002986971521750092940089560400 0 0 0 0 
2414500000.0000000000 0.160235702991485595703125000000 -0.052293386310338967060129533593 0.002949248068034648895263671875 0.002781098475679755210876464844 0 0 0 0 
2414666666.6666665077 0.159565508365631103515625000000 -0.053366314619779586791992187500 0.002495542168617248968837118994 0.002802824601531029181239462744 0 0 0 0 
2414833333.3333334923 0.159108877182006808181924384371 -0.054596457630395889282226562500 0.002812025137245655059814453125 0.002406794345006347136256552588 0 0 0 0 
2415000000.0000000000 0.158822834491729708572549384371 -0.055794246494770050048828125000 0.003040397539734839959385537256 0.002283488400280476050135947119 0 0 0 0 
2415166666.6666665077 0.158537626266479492187500000000 -0.057162672281265258789062500000 0.003239901736378670172450400244 0.002306730253621935844421386719 0 0 0 0 
2415333333.3333334923 0.158318132162094088455361884371 -0.058471553027629852294921875000 0.003233645576983689828159951318 0.002320417901501059965846396338 0 0 0 0 
2415500000.0000000000 0.158033818006515502929687500000 -0.059793226420879357074777971093 0.003523764433339238166809082031 0.002134798094630240960362099756 0 0 0 0 
2415666666.6666665077 0.157753705978393610198651231258 -0.061194527894258499145507812500 0.003670304780825972990748740088 0.002015979960560799078700400244 0 0 0 0 
2415833333.3333334923 0.157692670822143610198651231258 -0.062687598168849945068359375000 0.003811008762568234963657998193 0.001684347284026443958282470703 0 0 0 0 
2416000000.0000000000 0.157339781522750910003338731258 -0.064207106828689575195312500000 0.003796753706410526795628213037 0.001688841031864285902736044775 0 0 0 0 
2416166666.6666665077 0.157330349087715204436932481258 -0.065541446208953857421875000000 0.003886528313159943060633993994 0.001396363135427236990687704932 0 0 0 0 
2416333333.3333334923 0.157184734940528897384481865629 -0.067004054784774780273437500000 0.003904205514118074937107705225 0.001086556585505604960797954028 0 0 0 0 
2416500000.0000000000 0.157026305794715909103231865629 -0.068505696952342987060546875000 0.003886834252625703811645507812 0.000892287935130298137664794922 0 0 0 0 
2416666666.6666665077 0.156665995717048700530682481258 -0.069794334471225738525390625000 0.003862993558868765830993652344 0.000626926892437040805816650391 0 0 0 0 
2416833333.3333334923 0.156723275780677795410156250000 -0.071346268057823181152343750000 0.003894508816301823096034384619 0.000384052284061908721923828125 0 0 0 0 
2417000000.0000000000 0.156323745846748407561932481258 -0.072546929121017456054687500000 0.003908522427082061767578125000 0.000213211271329782903194427490 0 0 0 0 
2417166666.6666665077 0.156291976571083096603231865629 -0.073727913200855255126953125000 0.003926410339772701263427734375 0.000090262692538090050220489502 0 0 0 0 
2417333333.3333334923 0.156072452664375305175781250000 -0.074800148606300354003906250000 0.003656977321952580971958779443 -0.000295337231364101225703638898 0 0 0 0 
2417500000.0000000000 0.155949339270591708084268134371 -0.076111041009426116943359375000 0.003621614072471857070922851562 -0.000490956241264939308166503906 0 0 0 0 
2417666666.6666665077 0.155984073877334594726562500000 -0.076947599649429321289062500000 0.003500788006931542916538857568 -0.000563442823477089405059814453 0 0 0 0 
2417833333.3333334923 0.155877113342285211761151231258 -0.077975459396839141845703125000 0.003318489063531159920933388818 -0.000635832780972123146057128906 0 0 0 0 
2418000000.0000000000 0.155668079853057889083700615629 -0.079018555581569671630859375000 0.003241181373596190972569131006 -0.000709251151420176029205322266 0 0 0 0 
2418166666.6666665077 0.155683591961860712249432481258 -0.079868718981742858886718750000 0.003035219386219977898838662256 -0.000907386827748268842697143555 0 0 0 0 
2418333333.3333334923 0.155824288725852994064169365629 -0.080668650567531585693359375000 0.002950728638097643852233886719 -0.000931391841731965541839599609 0 0 0 0 
2418500000.0000000000 0.155751705169677706619424384371 -0.081459984183311462402343750000 0.002943682717159390015843056787 -0.001166114700026809952379536206 0 0 0 0 
2418666666.6666665077 0.155793935060501098632812500000 -0.082455046474933624267578125000 0.002814798848703504042384482275 -0.000993693596683442592620849609 0 0 0 0 
2418833333.3333334923 0.155587717890739413162393134371 -0.083140686154365539550781250000 0.002774587133899331092834472656 -0.001003513694740832068799663013 0 0 0 0 
2419000000.0000000000 0.155297651886940002441406250000 -0.083659321069717407226562500000 0.002665810054168105125427246094 -0.001225371379405260086059570312 0 0 0 0 
2419166666.6666665077 0.155293330550193786621093750000 -0.084310129284858703613281250000 0.002835030900314449830296181787 -0.001016866299323738054988242041 0 0 0 0 
2419333333.3333334923 0.155050024390220586578692518742 -0.084571272134780883789062500000 0.002562222536653279824497841943 -0.001101793721318244934082031250 0 0 0 0 
2419500000.0000000000 0.154907926917076110839843750000 -0.085353985428810119628906250000 0.002358428901061416105983115088 -0.001237694057635962963104248047 0 0 0 0 
2419666666.6666665077 0.154956489801406888107138115629 -0.085742980241775512695312500000 0.002405676757916808128356933594 -0.001250733621418476104736328125 0 0 0 0 
2419833333.3333334923 0.154533386230468805511151231258 -0.085931628942489624023437500000 0.002463890006765722794773720850 -0.001339556416496634917018271338 0 0 0 0 
