# Hz S RI R 50
2400000000.0000000000 0.171209007501602200607138115629 0.040059693157672882080078125000 -0.002417698502540587945225381006 0.001101162633858620903612446362 0 0 0 0 
2400166666.6666665077 0.171871691942214993575888115629 0.039658933877944953227956403907 -0.002275570295751094818115234375 0.001252459129318594932556152344 0 0 0 0 
2400333333.3333334923 0.172290936112403897384481865629 0.038989178836345672607421875000 -0.002177783288061618804931640625 0.001273101894184947013854980469 0 0 0 0 
2400500000.0000000000 0.172680065035820007324218750000 0.038331143558025360107421875000 -0.002216444816440343856811523438 0.001148143550381063981297158350 0 0 0 0 
2400666666.6666665077 0.172986909747123690506143134371 0.037727631628513343120534528907 -0.002060022205114365057704306494 0.001139087835326791026471782153 0 0 0 0 
2400833333.3333334923 0.173434942960739107986611884371 0.037271834909915917133371721093 -0.001997254556044936180114746094 0.001197071745991707064984965747 0 0 0 0 
2401000000.0000000000 0.173344284296035794357138115629 0.036520417779684066772460937500 -0.002167906844988464875462197412 0.001110881799831985993626259912 0 0 0 0 
2401166666.6666665077 0.173608198761940002441406250000 0.036005105823278427124023437500 -0.001977591076865791840794228662 0.001138645806349813938140869141 0 0 0 0 
2401333333.3333334923 0.173602104187011690994424384371 0.035381205379962921142578125000 -0.001974378246814012961146689307 0.001071674749255179925205849756 0 0 0 0 
2401500000.0000000000 0.173577487468719510177450615629 0.034692361950874328613281250000 -0.002000040607526897950413369287 0.001202177722007035992266010815 0 0 0 0 
2401666666.6666665077 0.173483416438102694412393134371 0.034103557467460632324218750000 -0.002060662722215055985691689600 0.001129118259996175982831645435 0 0 0 0 
2401833333.3333334923 0.173326268792152404785156250000 0.033372551202774047851562500000 -0.002052721567451953887939453125 0.001226731808856130079982138525 0 0 0 0 
2402000000.0000000000 0.173010438680648803710937500000 0.032745618373155586933176408593 -0.002149279695004225210902548682 0.001395089784637093977687216650 0 0 0 0 
2402166666.6666665077 0.172756269574165288727130018742 0.031699951738119132305104841407 -0.001901705982163548903224326025 0.001222839695401489951490092700 0 0 0 0 
2402333333.3333334923 0.172764405608177212814169365629 0.031026775017380710947056954296 -0.001938165398314595005632710034 0.001313198008574544949772500146 0 0 0 0 
2402500000.0000000000 0.172565758228302001953125000000 0.030212398618459701538085937500 -0.001807654858566821055171347510 0.001410622149705887057660746997 0 0 0 0 
2402666666.6666665077 0.172091588377952603439169365629 0.029203785583376880991002266796 -0.001788055873475969054578471606 0.001515896175988018946406699072 0 0 0 0 
2402833333.3333334923 0.171732753515243502517861884371 0.028148049488663669931431954296 -0.001589969615451991991755820166 0.001550686312839389064191508716 0 0 0 0 
2403000000.0000000000 0.171403795480728204925213731258 0.027038468047976490366002266796 -0.001699962071143090941785502856 0.001429447438567877032636332935 0 0 0 0 
2403166666.6666665077 0.171287819743156405349893134371 0.025996731594204899179478829296 -0.001614753738977015018463134766 0.001401030458509922027587890625 0 0 0 0 
2403333333.3333334923 0.170756131410598810393963731258 0.024839937686920169485071951954 -0.001600737799890338940861367334 0.001394584425725043036817241138 0 0 0 0 
2403500000.0000000000 0.170500352978706387618856865629 0.023533560335636138916015625000 -0.001543365186080337004420615088 0.001419400330632925033569335938 0 0 0 0 
2403666666.6666665077 0.170164361596107510665731865629 0.022019254043698310852050781250 -0.001430400880053638978245400537 0.001340389018878340937970805591 0 0 0 0 
2403833333.3333334923 0.169790059328079195877236884371 0.020760787650942798959752266796 -0.001586988219060003974317241138 0.001216812757775187926051474463 0 0 0 0 
2404000000.0000000000 0.169608667492866488357705634371 0.019274793565273288381556326954 -0.001562034711241722106933593750 0.001166849629953504042384482275 0 0 0 0 
2404166666.6666665077 0.169187963008880587478799384371 0.017694465816020969045618826954 -0.001621932140551507906672812354 0.001304636010900140025495219653 0 0 0 0 
2404333333.3333334923 0.168833911418914794921875000000 0.016138520091772079467773437500 -0.001756336889229715087293315356 0.001234813476912677071214985425 0 0 0 0 
2404500000.0000000000 0.168530628085136413574218750000 0.014502537436783310281773751171 -0.001780190505087376074550009619 0.001343680894933640956878662109 0 0 0 0 
2404666666.6666665077 0.168388441205024691482705634371 0.012933885678648950404157069727 -0.001822395017370582060572958838 0.001403388450853527025935507666 0 0 0 0 
2404833333.3333334923 0.168189868330955505371093750000 0.011181465350091460836390311329 -0.001771728275343775966046977466 0.001508002518676220937016152490 0 0 0 0 
2405000000.0000000000 0.168093264102935791015625000000 0.009413908235728740692138671875 -0.001764645567163825035095214844 0.001567731262184679941890097510 0 0 0 0 
2405166666.6666665077 0.167864292860031100174111884371 0.007651537191122770309448242188 -0.001860014745034277005436562646 0.001512664835900068066240620190 0 0 0 0 
2405333333.3333334923 0.168048530817031888107138115629 0.005661872215569019317626953125 -0.001867323298938571973087929834 0.001674309838563204028485942310 0 0 0 0 
2405500000.0000000000 0.167924448847770690917968750000 0.003851201385259627862217568506 -0.001816230476833879947662353516 0.001816312316805124065996479565 0 0 0 0 
2405666666.6666665077 0.167903035879135104080361884371 0.002127131214365363121032714844 -0.001810708316043019077898335034 0.001868254155851901011226035010 0 0 0 0 
2405833333.3333334923 0.167646810412406893631143134371 0.000310200557578355073928833008 -0.001779520651325583891627646338 0.001958203501999378204345703125 0 0 0 0 
2406000000.0000000000 0.167941391468048095703125000000 -0.001756018027663230895996093750 -0.001877360162325202985050820459 0.002123657381162046952488564600 0 0 0 0 
2406166666.6666665077 0.167710855603218106368856865629 -0.003447754541411995887756347656 -0.001877152011729777076123881763 0.002130944747477769851684570312 0 0 0 0 
2406333333.3333334923 0.167883515357971191406250000000 -0.005424760282039642333984375000 -0.001660203328356147029279399341 0.002236955566331744194030761719 0 0 0 0 
2406500000.0000000000 0.167772114276885986328125000000 -0.007209641858935356140136718750 -0.001646030461415648894069052588 0.002431888366118073897120810400 0 0 0 0 
2406666666.6666665077 0.167700424790382413009481865629 -0.008875155821442604064941406250 -0.001723109860904515006421733325 0.002419504569843411011936806787 0 0 0 0 
2406833333.3333334923 0.167928725481033297439736884371 -0.010597363114356999833076677930 -0.001434444217011332945582724463 0.002624191809445620016810751807 0 0 0 0 
2407000000.0000000000 0.167839691042900113204794365629 -0.012115846388041969644566719921 -0.001287723891437053897260356372 0.002658507786691188812255859375 0 0 0 0 
2407166666.6666665077 0.167947903275489807128906250000 -0.013630639761686330277412615430 -0.001125618931837379932403564453 0.002670947695150970978977822412 0 0 0 0 
2407333333.3333334923 0.167882964015006991287393134371 -0.015287846326827999460240548046 -0.001146932947449385903002094800 0.002824797062203288078308105469 0 0 0 0 
2407500000.0000000000 0.167954266071319607833700615629 -0.016548961400985721242884451954 -0.000961322220973670482635498047 0.002905989997088909149169921875 0 0 0 0 
2407666666.6666665077 0.168147087097167996505575615629 -0.017721673473715778696080391796 -0.000802855473011732101440429688 0.002994492650032043890712118994 0 0 0 0 
2407833333.3333334923 0.168178558349609402755575615629 -0.019018124788999560964564139454 -0.000598641345277428627014160156 0.002864610170945525169372558594 0 0 0 0 
2408000000.0000000000 0.168327167630195589920205634371 -0.020145889371633529663085937500 -0.000522943038959056138992309570 0.002855876693502068953273154150 0 0 0 0 
2408166666.6666665077 0.168597608804702786544638115629 -0.020917503163218501699427420704 -0.000556501152459532022476196289 0.002699972596019506888148642432 0 0 0 0 
2408333333.3333334923 0.168960496783256503006143134371 -0.021908950060605999338170235546 -0.000276824837783351486355382098 0.002705156803131103949305868994 0 0 0 0 
2408500000.0000000000 0.169181227684020996093750000000 -0.022938018664717670785924141796 -0.000156068810611032003730219708 0.002695177216082810921909951318 0 0 0 0 
2408666666.6666665077 0.169493168592453002929687500000 -0.023547722026705738412877266796 -0.000214607411180622902795514517 0.002528901910409330888035439600 0 0 0 0 
2408833333.3333334923 0.169735863804817199707031250000 -0.024412525817751880991002266796 -0.000011870079106302000582218170 0.002486854093149303956272744287 0 0 0 0 
2409000000.0000000000 0.169975295662879888336505018742 -0.025113064795732501638392264454 -0.000118936288345139500781735831 0.002507179975509643988368368994 0 0 0 0 
2409166666.6666665077 0.170446634292602511306924384371 -0.025878332555294040334681326954 -0.000177599402377381893709459848 0.002586224582046269936802529443 0 0 0 0 
2409333333.3333334923 0.170905247330665588378906250000 -0.026507556438446048391321951954 -0.000168954211403615799829205923 0.002357772318646312193629599463 0 0 0 0 
2409500000.0000000000 0.171123042702674893478231865629 -0.027372673153877258300781250000 -0.000093605536676477640867233276 0.002466883743181825117823935400 0 0 0 0 
2409666666.6666665077 0.171487584710121210296307481258 -0.027957953512668609619140625000 -0.000095005292678251862525939941 0.002573446137830615043640136719 0 0 0 0 
2409833333.3333334923 0.171646267175674410720986884371 -0.028660964220762249338170235546 -0.000103454673080705106258392334 0.002532430225983262062072753906 0 0 0 0 
2410000000.0000000000 0.171921193599700899978799384371 -0.029264774173498150217076485546 -0.000141068769153207513407030649 0.002652200404554605917689658057 0 0 0 0 
2410166666.6666665077 0.171934977173805209060830634371 -0.030116487294435501098632812500 -0.000047390509280376143079211576 0.002560999244451522827148437500 0 0 0 0 
2410333333.3333334923 0.172031834721565302093182481258 -0.030713394284248348581334298046 -0.000003500431830616435036063194 0.002574357669800519943237304688 0 0 0 0 
2410500000.0000000000 0.172038510441780090332031250000 -0.031397033482789993286132812500 -0.000067866101744584739208221436 0.002658968558534979820251464844 0 0 0 0 
2410666666.6666665077 0.171911597251892089843750000000 -0.032179575413465499877929687500 -0.000005897381470276741310954094 0.002776954323053359985351562500 0 0 0 0 
2410833333.3333334923 0.171861156821250887771768134371 -0.032508641481399543071706403907 0.000089772591309156268835067749 0.002740252763032913208007812500 0 0 0 0 
2411000000.0000000000 0.171749621629714993575888115629 -0.033346723765134811401367187500 0.000158230497618205899566096173 0.002846441930159925980808877100 0 0 0 0 
2411166666.6666665077 0.171425089240074213225994981258 -0.033967275172472000122070312500 0.000373657094314694404602050781 0.002947773318737744851353310693 0 0 0 0 
2411333333.3333334923 0.171175464987754794021768134371 -0.034599855542182922363281250000 0.000274366000667214393615722656 0.002942175604403018951416015625 0 0 0 0 
2411500000.0000000000 0.170646756887435913085937500000 -0.035360615700483322143554687500 0.000573946512304246425628662109 0.003073215484619141058680868994 0 0 0 0 
2411666666.6666665077 0.170565173029899597167968750000 -0.035982728004455573345143903907 0.000866420101374387741088867188 0.002989673754200338883640908350 0 0 0 0 
2411833333.3333334923 0.170068740844726590255575615629 -0.036630064249038703227956403907 0.000788310659117996692657470703 0.002969924127683043913600302588 0 0 0 0 
2412000000.0000000000 0.169606864452362088302450615629 -0.037364367395639419555664062500 0.000883362954482436180114746094 0.003005323465913534164428710938 0 0 0 0 
2412166666.6666665077 0.169021770358085604568643134371 -0.038134559988975531841237653907 0.001030217623338103077532124097 0.002875728765502572059631347656 0 0 0 0 
2412333333.3333334923 0.168773978948593111892861884371 -0.038986817002296447753906250000 0.001169378287158906893489218604 0.002847284078598022894618368994 0 0 0 0 
2412500000.0000000000 0.167945608496666010100994981258 -0.039696443825960159301757812500 0.001132852397859096960780478369 0.002870718017220497131347656250 0 0 0 0 
2412666666.6666665077 0.167615801095962496658486884371 -0.040823612362146377563476562500 0.001161244697868824005126953125 0.002910155104473232789280556787 0 0 0 0 
2412833333.3333334923 0.166831105947494506835937500000 -0.041568275541067123413085937500 0.001272736233659089045283652197 0.002689905464649200005772256006 0 0 0 0 
2413000000.0000000000 0.166264057159423800369424384371 -0.042615037411451339721679687500 0.001287870341911911964416503906 0.002852506469935179190394736182 0 0 0 0 
2413166666.6666665077 0.165414810180664090255575615629 -0.043563399463891983032226562500 0.001407204661518334908726357568 0.002929815789684652848484658350 0 0 0 0 
2413333333.3333334923 0.164709255099296597579794365629 -0.044649187475442893291432966407 0.001555323251523077921626425635 0.002896649995818734169006347656 0 0 0 0 
2413500000.0000000000 0.164089635014533996582031250000 -0.045659333467483520507812500000 0.001618319656699896075605082935 0.002930343383923172950744628906 0 0 0 0 
2413666666.6666665077 0.163415461778640802581463731258 -0.046685922890901572490651716407 0.001610498409718275070190429688 0.002936963457614182992222451318 0 0 0 0 
2413833333.3333334923 0.162588223814964294433593750000 -0.047783903777599341655690778907 0.001963097834959626197814941406 0.002908173715695738792419433594 0 0 0 0 
2414000000.0000000000 0.161761313676834106445312500000 -0.048915244638919830322265625000 0.002005513524636625809910439600 0.002916655037552117867710732568 0 0 0 0 
2414166666.6666665077 0.161060899496078491210937500000 -0.050077538937330252910573591407 0.002238841960206627845764160156 0.002878297353163361983058310400 0 0 0 0 
2414333333.3333334923 0.160592615604400607010049384371 -0.051148891448974609375000000000 0.002224168041720985932591103662 0.002946003107354044914245605469 0 0 0 0 
2414500000.0000000000 0.160161063075065612792968750000 -0.052216239273548133159597028907 0.002395787509158254103419638525 0.002750803716480731964111328125 0 0 0 0 
2414666666.6666665077 0.159586593508720397949218750000 -0.053349714726209640502929687500 0.002714104950428009033203125000 0.002846401417627931074855185400 0 0 0 0 
2414833333.3333334923 0.159188613295555086990518134371 -0.054630860686302191997487653907 0.002814053092151879830601357568 0.002675463911145925955531454932 0 0 0 0 
2415000000.0000000000 0.158775299787521390060263115629 -0.055945523083209991455078125000 0.003042658092454075813293457031 0.002777271205559372901916503906 0 0 0 0 
2415166666.6666665077 0.158452928066253689864950615629 -0.057222571223974227905273437500 0.003235681448131800131556845557 0.002496397122740745978114462744 0 0 0 0 
2415333333.3333334923 0.158199280500411987304687500000 -0.058650542050600051879882812500 0.003612654982134699821472167969 0.002329325536265968842747353662 0 0 0 0 
2415500000.0000000000 0.158122792840003995040731865629 -0.059897687286138541484792341407 0.003634336171671748161315917969 0.002091086469590663909912109375 0 0 0 0 
2415666666.6666665077 0.157892972230911310393963731258 -0.061117175966501242900807966407 0.003649580525234342055079794775 0.001866924110800028064130473560 0 0 0 0 
2415833333.3333334923 0.157740652561187688629473768742 -0.062655285000801086425781250000 0.003734717145562171936035156250 0.001707387040369213061091757666 0 0 0 0 
2416000000.0000000000 0.157361507415771512130575615629 -0.064064875245094299316406250000 0.003978144377470017346853925488 0.001449977979063987948774028247 0 0 0 0 
2416166666.6666665077 0.157340556383132906814736884371 -0.065512701869010925292968750000 0.004010793287307024002075195312 0.001222040737047791914698935400 0 0 0 0 
2416333333.3333334923 0.157117098569869995117187500000 -0.067036695778369903564453125000 0.003873989218845963911769247900 0.001136217266321182034136128003 0 0 0 0 
2416500000.0000000000 0.156988158822059603592080634371 -0.068498685956001281738281250000 0.003934633918106555938720703125 0.000867592170834541320800781250 0 0 0 0 
2416666666.6666665077 0.156838446855544988434161268742 -0.069722272455692291259765625000 0.003879050025716423988342285156 0.000492306542582809925079345703 0 0 0 0 
2416833333.3333334923 0.156698301434516906738281250000 -0.071292370557785034179687500000 0.003850991139188408851623535156 0.000369258486898616010516566144 0 0 0 0 
2417000000.0000000000 0.156284838914871188064736884371 -0.072538308799266815185546875000 0.003867811057716608047485351562 -0.000008082798558461945503950119 0 0 0 0 
2417166666.6666665077 0.156227916479110690017861884371 -0.073686085641384124755859375000 0.003771451069042087034938193213 -0.000186368197319097789839068002 0 0 0 0 
2417333333.3333334923 0.156075611710548400878906250000 -0.074714258313179016113281250000 0.003676747437566518783569335938 -0.000253507925663143396377563477 0 0 0 0 
2417500000.0000000000 0.155967041850089999099893134371 -0.076112218201160430908203125000 0.003626280231401323838474892725 -0.000520553498063236474990844727 0 0 0 0 
2417666666.6666665077 0.155861929059028597732705634371 -0.077074527740478515625000000000 0.003548562293872237205505371094 -0.000629741756711155176162719727 0 0 0 0 
2417833333.3333334923 0.156062439084053011795205634371 -0.078004181385040283203125000000 0.003381188958883285956141806494 -0.000671952439006417989730834961 0 0 0 0 
2418000000.0000000000 0.155665457248687688629473768742 -0.079110905528068542480468750000 0.003217327408492565155029296875 -0.000888716604094952344894409180 0 0 0 0 
2418166666.6666665077 0.155625090003013610839843750000 -0.079822950065135955810546875000 0.003076367313042283058166503906 -0.000834152742754667997360229492 0 0 0 0 
2418333333.3333334923 0.155748352408409090896768134371 -0.080627895891666412353515625000 0.002955642296001315116882324219 -0.001000557793304323933245014722 0 0 0 0 
2418500000.0000000000 0.155694738030433710296307481258 -0.081515990197658538818359375000 0.002897435566410421891453408350 -0.000955766532570123672485351562 0 0 0 0 
2418666666.6666665077 0.155738905072212191482705634371 -0.082276366651058197021484375000 0.002815431449562311172485351562 -0.000993243767879903316497802734 0 0 0 0 
2418833333.3333334923 0.155519887804985101897869981258 -0.083022490143775939941406250000 0.002809021621942520141601562500 -0.000976772163994610309600830078 0 0 0 0 
2419000000.0000000000 0.155361935496330288986044365629 -0.083743281662464141845703125000 0.002705719321966170830967568506 -0.001099484856240450902226113428 0 0 0 0 
2419166666.6666665077 0.155465543270111111739950615629 -0.084374807775020599365234375000 0.002542248228564858002903603662 -0.001106459298171103000640869141 0 0 0 0 
2419333333.3333334923 0.155013829469680786132812500000 -0.084547080099582672119140625000 0.002513838233426212830784463037 -0.001176465186290442943572998047 0 0 0 0 
2419500000.0000000000 0.154905691742897005935830634371 -0.085360877215862274169921875000 0.002404593164101243019104003906 -0.001287555089220405058619833838 0 0 0 0 
2419666666.6666665077 0.154773920774459811111611884371 -0.085629142820835113525390625000 0.002439727308228611946105957031 -0.001315561239607631943346333081 0 0 0 0 
2419833333.3333334923 0.154527992010116604904013115629 -0.086127161979675292968750000000 0.002432111417874693870544433594 -0.001236023497767746014835976709 0 0 0 0 
