# Version 1.00
#
freq[Hz];re:Trc1_S11;im:Trc1_S11;re:Trc2_S21;im:Trc2_S21;
2.400000000000000E+009;1.564300209283829E-001;6.006921827793121E-002;1.588838058523834E-004;1.186995184980333E-003;
2.400166666666667E+009;1.564997136592865E-001;5.843090265989304E-002;1.169859315268695E-004;1.131312688812614E-003;
2.400333333333334E+009;1.567051410675049E-001;5.635594949126244E-002;9.904488979373127E-005;1.125558163039386E-003;
2.400500000000000E+009;1.567351222038269E-001;5.435688048601151E-002;2.438224764773622E-004;9.940818417817354E-004;
2.400666666666667E+009;1.569056957960129E-001;5.221936851739883E-002;1.825447980081663E-004;1.090976293198764E-003;
2.400833333333334E+009;1.572958827018738E-001;5.019464716315270E-002;3.479640581645072E-004;8.992718067020178E-004;
2.401000000000000E+009;1.574504226446152E-001;4.808339104056358E-002;2.098774421028793E-004;9.692964958958328E-004;
2.401166666666667E+009;1.579023152589798E-001;4.605479910969734E-002;1.612341875443235E-004;8.986754110082984E-004;
2.401333333333334E+009;1.584337204694748E-001;4.404740035533905E-002;3.571704437490553E-004;7.168503943830729E-004;
2.401500000000000E+009;1.589508354663849E-001;4.201728478074074E-002;2.173046086682007E-004;9.065814083442092E-004;
2.401666666666667E+009;1.594934910535812E-001;4.015884548425674E-002;2.618058642838150E-004;7.361275493167341E-004;
2.401833333333334E+009;1.600891053676605E-001;3.810632601380348E-002;2.493847568985075E-004;6.812237552367151E-004;
2.402000000000000E+009;1.608249098062515E-001;3.638299927115440E-002;2.672257833182812E-004;6.395217496901751E-004;
2.402166666666667E+009;1.615010797977448E-001;3.435453400015831E-002;3.030574298463762E-004;7.082234369590879E-004;
2.402333333333334E+009;1.620669066905975E-001;3.257725760340691E-002;1.946177653735504E-004;6.634095916524530E-004;
2.402500000000000E+009;1.630799621343613E-001;3.113731369376183E-002;1.752403040882200E-004;6.130891852080822E-004;
2.402666666666667E+009;1.637873947620392E-001;2.954761311411858E-002;2.576560837042052E-005;5.864797858521342E-004;
2.402833333333334E+009;1.646735072135925E-001;2.797994017601013E-002;5.555764073505998E-005;8.210501982830465E-004;
2.403000000000000E+009;1.656662076711655E-001;2.667194604873657E-002;-1.870263658929616E-004;6.825061864219606E-004;
2.403166666666667E+009;1.666433513164520E-001;2.524203248322010E-002;-1.114858241635375E-004;6.288980948738754E-004;
2.403333333333334E+009;1.676362454891205E-001;2.415948174893856E-002;-1.469989947509021E-004;6.946935900487006E-004;
2.403500000000000E+009;1.684494465589523E-001;2.288636937737465E-002;-2.511228958610445E-004;8.444528793916106E-004;
2.403666666666667E+009;1.693019866943359E-001;2.170918695628643E-002;-6.914613913977519E-005;8.909126045182347E-004;
2.403833333333334E+009;1.704272776842117E-001;2.073569037020207E-002;-2.732340180955362E-005;8.920088876038790E-004;
2.404000000000000E+009;1.713360249996185E-001;1.977219060063362E-002;-2.920945407822728E-004;1.049793092533946E-003;
2.404166666666667E+009;1.723867058753967E-001;1.894350536167622E-002;-2.707266539800912E-004;1.058596186339855E-003;
2.404333333333334E+009;1.732999086380005E-001;1.805540546774864E-002;-1.306595077039674E-004;9.966423967853189E-004;
2.404500000000000E+009;1.739795804023743E-001;1.733792386949062E-002;-1.897552574519068E-004;1.051702885888517E-003;
2.404666666666667E+009;1.748738586902618E-001;1.674159988760948E-002;-2.481049741618335E-004;1.143367146141827E-003;
2.404833333333334E+009;1.756993681192398E-001;1.614770479500294E-002;-9.543282794766128E-005;1.343122334219515E-003;
2.405000000000000E+009;1.764363497495651E-001;1.560176070779562E-002;-1.137522122007795E-004;1.464347820729017E-003;
2.405166666666667E+009;1.770447492599487E-001;1.520364638417959E-002;-1.655019004829228E-004;1.296957489103079E-003;
2.405333333333334E+009;1.777751743793488E-001;1.457952056080103E-002;5.176295235287398E-005;1.385852112434804E-003;
2.405500000000000E+009;1.782254278659821E-001;1.452385168522596E-002;5.104316733195446E-005;1.330604311078787E-003;
2.405666666666667E+009;1.787953972816467E-001;1.422008220106363E-002;2.568115596659482E-004;1.485501765273511E-003;
2.405833333333334E+009;1.791222393512726E-001;1.379037275910378E-002;2.587285416666418E-004;1.372056663967669E-003;
2.406000000000000E+009;1.794441789388657E-001;1.343156397342682E-002;2.286545059178025E-004;1.419255975633860E-003;
2.406166666666667E+009;1.795975863933563E-001;1.329841651022434E-002;2.787210105452687E-004;1.608784659765661E-003;
2.406333333333334E+009;1.799473911523819E-001;1.302527822554112E-002;4.456583410501480E-004;1.676457934081554E-003;
2.406500000000000E+009;1.798316836357117E-001;1.263049896806479E-002;5.020539392717183E-004;1.563974772579968E-003;
2.406666666666667E+009;1.796891391277313E-001;1.241880096495152E-002;4.794387496076524E-004;1.710019656457007E-003;
2.406833333333334E+009;1.798184663057327E-001;1.207877416163683E-002;5.700240726582706E-004;1.746448804624379E-003;
2.407000000000000E+009;1.795964539051056E-001;1.161752734333277E-002;6.540654576383531E-004;1.682929811067879E-003;
2.407166666666667E+009;1.795035302639008E-001;1.133167091757059E-002;7.569777662865818E-004;1.786143984645605E-003;
2.407333333333334E+009;1.790346354246140E-001;1.062054652720690E-002;7.729532080702484E-004;1.600699732080102E-003;
2.407500000000000E+009;1.787212640047073E-001;1.019495073705912E-002;8.925462607294321E-004;1.485850545577705E-003;
2.407666666666667E+009;1.782433688640595E-001;9.602549485862255E-003;8.631136734038591E-004;1.480969833210111E-003;
2.407833333333334E+009;1.776382774114609E-001;8.852784521877766E-003;1.088151591829956E-003;1.512802322395146E-003;
2.408000000000000E+009;1.772093325853348E-001;8.097440004348755E-003;9.380804258398712E-004;1.510016270913184E-003;
2.408166666666667E+009;1.766703724861145E-001;7.372073829174042E-003;1.088321092538536E-003;1.420093351043761E-003;
2.408333333333334E+009;1.761650890111923E-001;6.227253004908562E-003;1.235029776580632E-003;1.519027864560485E-003;
2.408500000000000E+009;1.754181087017059E-001;5.291662644594908E-003;1.243366627022624E-003;1.400637789629400E-003;
2.408666666666667E+009;1.748743057250977E-001;4.107152577489615E-003;1.257223892025650E-003;1.358573674224317E-003;
2.408833333333334E+009;1.739511936903000E-001;3.039786824956536E-003;1.263801939785481E-003;1.227740547619760E-003;
2.409000000000000E+009;1.732908040285111E-001;1.739989733323455E-003;1.301160664297640E-003;1.267627929337323E-003;
2.409166666666667E+009;1.727647483348846E-001;3.334525099489838E-004;1.481711748056114E-003;1.361500704661012E-003;
2.409333333333334E+009;1.722221076488495E-001;-1.021855510771275E-003;1.413662335835397E-003;1.188340946100652E-003;
2.409500000000000E+009;1.714596897363663E-001;-2.729445230215788E-003;1.395565806888044E-003;1.231546048074961E-003;
2.409666666666667E+009;1.707873940467835E-001;-4.266043193638325E-003;1.557933166623116E-003;1.103530055843294E-003;
2.409833333333334E+009;1.702834963798523E-001;-5.857672542333603E-003;1.494803116656840E-003;1.131605589762330E-003;
2.410000000000000E+009;1.697010099887848E-001;-7.440826855599880E-003;1.437116414308548E-003;1.121710287407041E-003;
2.410166666666667E+009;1.692158728837967E-001;-9.270721115171909E-003;1.513071474619210E-003;9.076542337425053E-004;
2.410333333333334E+009;1.687960326671600E-001;-1.117525622248650E-002;1.546954619698227E-003;9.291775058954954E-004;
2.410500000000000E+009;1.684597879648209E-001;-1.307457312941551E-002;1.482362276874483E-003;9.666289552114904E-004;
2.410666666666667E+009;1.680018901824951E-001;-1.491334661841393E-002;1.502250321209431E-003;9.676022455096245E-004;
2.410833333333334E+009;1.677809506654739E-001;-1.678094826638699E-002;1.662471098825336E-003;9.330020402558148E-004;
2.411000000000000E+009;1.676170974969864E-001;-1.870279945433140E-002;1.560849137604237E-003;1.078517525456846E-003;
2.411166666666667E+009;1.674612462520599E-001;-2.078719809651375E-002;1.535568037070334E-003;9.592047426849604E-004;
2.411333333333334E+009;1.673943549394608E-001;-2.254479937255383E-002;1.579820411279798E-003;9.589532855898142E-004;
2.411500000000000E+009;1.674104481935501E-001;-2.483591437339783E-002;1.550547080114484E-003;9.129044483415783E-004;
2.411666666666667E+009;1.677165329456329E-001;-2.672125026583672E-002;1.530246809124947E-003;8.578934939578176E-004;
2.411833333333334E+009;1.679676175117493E-001;-2.864482812583447E-002;1.630501006729901E-003;8.979314588941634E-004;
2.412000000000000E+009;1.682542264461517E-001;-3.049374930560589E-002;1.738358289003372E-003;9.666471160016954E-004;
2.412166666666667E+009;1.684333235025406E-001;-3.243912383913994E-002;1.733325421810150E-003;1.064388896338642E-003;
2.412333333333334E+009;1.691703200340271E-001;-3.418533876538277E-002;1.850429922342300E-003;9.537140140309930E-004;
2.412500000000000E+009;1.694760620594025E-001;-3.593046218156815E-002;1.760241691954434E-003;8.694721618667245E-004;
2.412666666666667E+009;1.697915345430374E-001;-3.792786970734596E-002;1.912503619678319E-003;1.108730793930590E-003;
2.412833333333334E+009;1.703804731369019E-001;-3.955055028200150E-002;1.932115294039249E-003;1.091694342903793E-003;
2.413000000000000E+009;1.708223521709442E-001;-4.121414199471474E-002;1.988713396713138E-003;9.556628065183759E-004;
2.413166666666667E+009;1.714976429939270E-001;-4.277430847287178E-002;2.217787550762296E-003;1.031220541335642E-003;
2.413333333333334E+009;1.719323694705963E-001;-4.420154914259911E-002;2.288746880367398E-003;8.439610828645527E-004;
2.413500000000000E+009;1.728498786687851E-001;-4.561914131045342E-002;2.358368132263422E-003;7.751744124107063E-004;
2.413666666666667E+009;1.733811497688294E-001;-4.722689092159271E-002;2.479818882420659E-003;8.254607673734427E-004;
2.413833333333334E+009;1.739680618047714E-001;-4.844932630658150E-002;2.538961591199040E-003;6.786640733480454E-004;
2.414000000000000E+009;1.743470132350922E-001;-4.964809864759445E-002;2.475475426763296E-003;7.129953592084348E-004;
2.414166666666667E+009;1.751060187816620E-001;-5.060715228319168E-002;2.745639067143202E-003;6.050105439499021E-004;
2.414333333333334E+009;1.756177693605423E-001;-5.163753777742386E-002;2.827626653015614E-003;4.494957975111902E-004;
2.414500000000000E+009;1.764665544033051E-001;-5.255586653947830E-002;2.975329989567399E-003;4.397501179482788E-004;
2.414666666666667E+009;1.768532842397690E-001;-5.343421176075935E-002;2.931445371359587E-003;2.722807985264808E-004;
2.414833333333334E+009;1.771242767572403E-001;-5.430048331618309E-002;3.005305770784617E-003;1.125188719015569E-004;
2.415000000000000E+009;1.775228530168533E-001;-5.480812862515450E-002;3.059306414797902E-003;-3.403680238989182E-005;
2.415166666666667E+009;1.779562234878540E-001;-5.547472462058067E-002;3.170805517584086E-003;-2.202956966357306E-004;
2.415333333333334E+009;1.784336268901825E-001;-5.607293918728828E-002;3.278582356870174E-003;-4.197497910354286E-004;
2.415500000000000E+009;1.786037236452103E-001;-5.626482516527176E-002;3.080871887505055E-003;-4.613433557096869E-004;
2.415666666666667E+009;1.786000579595566E-001;-5.678419023752213E-002;3.179644700139761E-003;-6.021917215548456E-004;
2.415833333333334E+009;1.786898523569107E-001;-5.726531147956848E-002;3.353111445903778E-003;-8.531684870831668E-004;
2.416000000000000E+009;1.785557270050049E-001;-5.753466486930847E-002;3.354964777827263E-003;-9.102671174332500E-004;
2.416166666666667E+009;1.786281913518906E-001;-5.775492638349533E-002;3.058568108826876E-003;-1.259080483578146E-003;
2.416333333333334E+009;1.783223301172257E-001;-5.806976184248924E-002;3.170883283019066E-003;-1.380232744850218E-003;
2.416500000000000E+009;1.779970079660416E-001;-5.836537480354309E-002;3.057940863072872E-003;-1.465641893446446E-003;
2.416666666666667E+009;1.776007264852524E-001;-5.831786245107651E-002;2.952875103801489E-003;-1.592923887073994E-003;
2.416833333333334E+009;1.772608458995819E-001;-5.874779820442200E-002;3.023005090653896E-003;-1.798131386749446E-003;
2.417000000000000E+009;1.764530688524246E-001;-5.896975845098496E-002;2.877791179344058E-003;-1.879672054201365E-003;
2.417166666666667E+009;1.759270131587982E-001;-5.912611261010170E-002;2.876544604077935E-003;-2.066161949187517E-003;
2.417333333333334E+009;1.751732826232910E-001;-5.923425778746605E-002;2.818684792146087E-003;-2.094510709866881E-003;
2.417500000000000E+009;1.743239164352417E-001;-5.967268347740173E-002;2.681138226762414E-003;-2.259884029626846E-003;
2.417666666666667E+009;1.733795702457428E-001;-5.978401005268097E-002;2.490122104063630E-003;-2.153497654944658E-003;
2.417833333333334E+009;1.724552065134049E-001;-6.022555381059647E-002;2.492717932909727E-003;-2.525342395529151E-003;
2.418000000000000E+009;1.713056266307831E-001;-6.066962331533432E-002;2.240150235593319E-003;-2.508581848815084E-003;
2.418166666666667E+009;1.702070981264114E-001;-6.088972836732864E-002;2.107022562995553E-003;-2.751462627202272E-003;
2.418333333333334E+009;1.691780239343643E-001;-6.154814362525940E-002;2.136884257197380E-003;-2.763913944363594E-003;
2.418500000000000E+009;1.679807305335999E-001;-6.216000765562058E-002;1.995241502299905E-003;-2.835333114489913E-003;
2.418666666666667E+009;1.668674796819687E-001;-6.283679604530335E-002;1.817987300455570E-003;-2.876285929232836E-003;
2.418833333333334E+009;1.654317826032639E-001;-6.345689296722412E-002;1.738806604407728E-003;-2.985663479194045E-003;
2.419000000000000E+009;1.641455292701721E-001;-6.423015147447586E-002;1.672576880082488E-003;-2.989931264892221E-003;
2.419166666666667E+009;1.629298180341721E-001;-6.516137719154358E-002;1.541263773106039E-003;-2.965004881843925E-003;
2.419333333333334E+009;1.616289168596268E-001;-6.590370088815689E-002;1.437261234968901E-003;-3.064916236326098E-003;
2.419500000000000E+009;1.606185585260391E-001;-6.710090488195419E-002;1.010806416161358E-003;-3.022463293746114E-003;
2.419666666666667E+009;1.594519168138504E-001;-6.809362769126892E-002;1.218210672959685E-003;-3.071285551413894E-003;
2.419833333333334E+009;1.582353413105011E-001;-6.920901685953140E-002;9.421322611160576E-004;-3.208215814083815E-003;
2.420000000000000E+009;1.571359187364578E-001;-7.043170928955078E-002;8.702658233232796E-004;-3.165492787957192E-003;
2.420166666666667E+009;1.560920029878616E-001;-7.168383151292801E-002;7.909771520644426E-004;-3.179339226335287E-003;
2.420333333333334E+009;1.551271229982376E-001;-7.319033145904541E-002;5.534515948966146E-004;-3.042029449716210E-003;
2.420500000000000E+009;1.542033702135086E-001;-7.448751479387283E-002;3.991008852608502E-004;-3.161339554935694E-003;
2.420666666666667E+009;1.532716602087021E-001;-7.595928013324738E-002;3.795955562964082E-004;-3.044625744223595E-003;
2.420833333333334E+009;1.527219861745834E-001;-7.755820453166962E-002;2.652827824931592E-004;-3.101958194747567E-003;
2.421000000000000E+009;1.517540216445923E-001;-7.926099002361298E-002;2.360578801017255E-004;-3.033127868548036E-003;
2.421166666666667E+009;1.512987464666367E-001;-8.067665994167328E-002;2.961227619380225E-005;-2.968980697914958E-003;
2.421333333333334E+009;1.507708132266998E-001;-8.245438337326050E-002;2.849086195055861E-005;-2.863517496734858E-003;
2.421500000000000E+009;1.502649486064911E-001;-8.423776179552078E-002;-5.316446549841203E-005;-2.868096577003598E-003;
2.421666666666667E+009;1.500191539525986E-001;-8.580365031957626E-002;-2.198203292209655E-004;-2.759410301223397E-003;
2.421833333333334E+009;1.497394591569901E-001;-8.748366683721542E-002;-3.909521037712693E-004;-2.747748047113419E-003;
2.422000000000000E+009;1.494961529970169E-001;-8.916408568620682E-002;-3.433875390328467E-004;-2.797803608700633E-003;
2.422166666666667E+009;1.494345664978027E-001;-9.118568897247315E-002;-3.113240527454764E-004;-2.729922765865922E-003;
2.422333333333334E+009;1.494750678539276E-001;-9.250441193580627E-002;-6.032013916410506E-004;-2.664326224476099E-003;
2.422500000000000E+009;1.494351178407669E-001;-9.428140521049500E-002;-6.154112052172422E-004;-2.620112616568804E-003;
2.422666666666667E+009;1.494935452938080E-001;-9.584789723157883E-002;-5.756620666943491E-004;-2.625832101330161E-003;
2.422833333333334E+009;1.499012708663940E-001;-9.759474545717239E-002;-7.477317121811211E-004;-2.600728999823332E-003;
2.423000000000000E+009;1.502071917057037E-001;-9.915938973426819E-002;-6.847298936918378E-004;-2.548775868490338E-003;
2.423166666666667E+009;1.504844278097153E-001;-1.006051301956177E-001;-7.992718601599336E-004;-2.587959636002779E-003;
2.423333333333334E+009;1.508599817752838E-001;-1.019748300313950E-001;-8.185589686036110E-004;-2.439168747514486E-003;
2.423500000000000E+009;1.512657552957535E-001;-1.035381779074669E-001;-8.694406715221703E-004;-2.455576555803418E-003;
2.423666666666667E+009;1.515752226114273E-001;-1.048218309879303E-001;-1.011475687846541E-003;-2.210663631558418E-003;
2.423833333333334E+009;1.524396389722824E-001;-1.062112972140312E-001;-8.790956926532090E-004;-2.197443973273039E-003;
2.424000000000000E+009;1.527563929557800E-001;-1.072953566908836E-001;-9.087495855055749E-004;-2.193525666370988E-003;
2.424166666666667E+009;1.531509011983872E-001;-1.083366945385933E-001;-1.081586233340204E-003;-2.199407666921616E-003;
2.424333333333334E+009;1.537969112396240E-001;-1.095022708177567E-001;-1.205273088999093E-003;-2.178925089538097E-003;
2.424500000000000E+009;1.543514281511307E-001;-1.103947460651398E-001;-1.318315975368023E-003;-2.082417719066143E-003;
2.424666666666667E+009;1.549242138862610E-001;-1.112349852919579E-001;-1.186962123028934E-003;-1.975429477170110E-003;
2.424833333333334E+009;1.552547514438629E-001;-1.120030730962753E-001;-1.406316296197474E-003;-1.945613534189761E-003;
2.425000000000000E+009;1.557965874671936E-001;-1.127945557236671E-001;-1.339980750344694E-003;-1.782323815859854E-003;
2.425166666666667E+009;1.559208035469055E-001;-1.135077998042107E-001;-1.357880537398160E-003;-1.821393612772226E-003;
2.425333333333334E+009;1.565041840076447E-001;-1.140314564108849E-001;-1.293524517677724E-003;-1.755508477799594E-003;
2.425500000000000E+009;1.567413657903671E-001;-1.147241517901421E-001;-1.433455268852413E-003;-1.662492169998586E-003;
2.425666666666667E+009;1.567806154489517E-001;-1.151381283998489E-001;-1.578206662088633E-003;-1.576316775754094E-003;
2.425833333333334E+009;1.570218056440353E-001;-1.155301928520203E-001;-1.428209361620247E-003;-1.332991290837526E-003;
2.426000000000000E+009;1.570470631122589E-001;-1.159309521317482E-001;-1.514462055638433E-003;-1.548174885101616E-003;
2.426166666666667E+009;1.572373509407044E-001;-1.161724254488945E-001;-1.479629310779274E-003;-1.469735288992524E-003;
2.426333333333334E+009;1.570692360401154E-001;-1.163192540407181E-001;-1.371647580526769E-003;-1.529908855445683E-003;
2.426500000000000E+009;1.569541096687317E-001;-1.164262071251869E-001;-1.488647190853953E-003;-1.413403195329011E-003;
2.426666666666667E+009;1.567348837852478E-001;-1.165132746100426E-001;-1.327731413766742E-003;-1.315167639404535E-003;
2.426833333333334E+009;1.563628166913986E-001;-1.167113557457924E-001;-1.356860157102346E-003;-1.290086423978210E-003;
2.427000000000000E+009;1.558654904365540E-001;-1.169376745820046E-001;-1.471993164159358E-003;-1.248165965080261E-003;
2.427166666666667E+009;1.553773432970047E-001;-1.168811172246933E-001;-1.421698252670467E-003;-1.327541773207486E-003;
2.427333333333334E+009;1.545712053775787E-001;-1.171132698655129E-001;-1.475181779824197E-003;-1.214827294461429E-003;
2.427500000000000E+009;1.540849059820175E-001;-1.170916333794594E-001;-1.445772009901702E-003;-1.304940669797361E-003;
2.427666666666667E+009;1.531286835670471E-001;-1.172989979386330E-001;-1.450470532290638E-003;-1.334985718131065E-003;
2.427833333333334E+009;1.520654261112213E-001;-1.174899488687515E-001;-1.431218232028186E-003;-1.277673407457769E-003;
