# Version 1.00
#
freq[Hz];re:Trc1_S11;im:Trc1_S11;re:Trc2_S21;im:Trc2_S21;
2.400000000000000E+009;1.550306379795075E-001;1.066535562276840E-001;-3.331493644509465E-004;2.654727315530181E-003;
2.400166666666667E+009;1.547007262706757E-001;1.042979285120964E-001;-2.610016381368041E-004;2.577841049060226E-003;
2.400333333333334E+009;1.547363847494125E-001;1.020157858729363E-001;-5.597409199253889E-006;2.531640231609345E-003;
2.400500000000000E+009;1.546849161386490E-001;9.936019778251648E-002;7.228559115901589E-005;2.652542898431420E-003;
2.400666666666667E+009;1.548446118831635E-001;9.697824716567993E-002;2.876567014027387E-004;2.807764569297433E-003;
2.400833333333334E+009;1.548900604248047E-001;9.396043419837952E-002;4.160849202889949E-004;2.813671482726932E-003;
2.401000000000000E+009;1.551533788442612E-001;9.114566445350647E-002;5.311007262207568E-004;2.668529283255339E-003;
2.401166666666667E+009;1.552209109067917E-001;8.822214603424072E-002;8.756339084357023E-004;2.816279418766499E-003;
2.401333333333334E+009;1.555406004190445E-001;8.561951667070389E-002;9.344919235445559E-004;2.846636110916734E-003;
2.401500000000000E+009;1.560448557138443E-001;8.253786712884903E-002;1.189378206618130E-003;2.698268042877317E-003;
2.401666666666667E+009;1.564449816942215E-001;7.982693612575531E-002;1.253093010745943E-003;2.579556545242667E-003;
2.401833333333334E+009;1.569030433893204E-001;7.707178592681885E-002;1.436917111277580E-003;2.562711015343666E-003;
2.402000000000000E+009;1.578038036823273E-001;7.443604618310928E-002;1.718882005661726E-003;2.549473661929369E-003;
2.402166666666667E+009;1.586147248744965E-001;7.167631387710571E-002;1.679468783549964E-003;2.463367069140077E-003;
2.402333333333334E+009;1.596566289663315E-001;6.916517019271851E-002;1.798022538423538E-003;2.173346932977438E-003;
2.402500000000000E+009;1.608463823795319E-001;6.651634722948074E-002;1.802263199351728E-003;2.097977325320244E-003;
2.402666666666667E+009;1.617946326732636E-001;6.417327374219894E-002;2.015347825363278E-003;1.963193528354168E-003;
2.402833333333334E+009;1.632563173770905E-001;6.188074871897697E-002;1.910036662593484E-003;1.782135106623173E-003;
2.403000000000000E+009;1.646705120801926E-001;5.957846716046333E-002;2.041097963228822E-003;1.766098081134260E-003;
2.403166666666667E+009;1.664436012506485E-001;5.732664465904236E-002;1.985772978514433E-003;1.408963347785175E-003;
2.403333333333334E+009;1.678357124328613E-001;5.515915900468826E-002;2.187692560255528E-003;1.555979833938181E-003;
2.403500000000000E+009;1.695894449949265E-001;5.303775146603584E-002;2.025042427703738E-003;1.479471800848842E-003;
2.403666666666667E+009;1.714097410440445E-001;5.123998969793320E-002;2.088376553729177E-003;1.284173922613263E-003;
2.403833333333334E+009;1.729162931442261E-001;4.930286481976509E-002;2.058390062302351E-003;1.513133407570422E-003;
2.404000000000000E+009;1.745985448360443E-001;4.766732454299927E-002;2.167431171983481E-003;1.456389669328928E-003;
2.404166666666667E+009;1.762178987264633E-001;4.599728807806969E-002;2.243300899863243E-003;1.381521229632199E-003;
2.404333333333334E+009;1.778857856988907E-001;4.457272589206696E-002;2.402206417173147E-003;1.350119826383889E-003;
2.404500000000000E+009;1.795668005943298E-001;4.330730065703392E-002;2.414440037682653E-003;1.146470080129802E-003;
2.404666666666667E+009;1.812352240085602E-001;4.218437522649765E-002;2.538667991757393E-003;9.334465139545500E-004;
2.404833333333334E+009;1.828952282667160E-001;4.101717099547386E-002;2.675187075510621E-003;1.024001394398511E-003;
2.405000000000000E+009;1.842231452465057E-001;4.034833610057831E-002;2.702568192034960E-003;7.110600126907229E-004;
2.405166666666667E+009;1.856729388237000E-001;3.959822282195091E-002;2.657657489180565E-003;6.372478674165905E-004;
2.405333333333334E+009;1.868497878313065E-001;3.914396464824677E-002;2.702678320929408E-003;5.298291798681021E-004;
2.405500000000000E+009;1.885583400726318E-001;3.873880207538605E-002;2.564001362770796E-003;2.531730278860778E-004;
2.405666666666667E+009;1.896358430385590E-001;3.843803703784943E-002;2.591307973489165E-003;1.631508639547974E-004;
2.405833333333334E+009;1.909614652395248E-001;3.805653378367424E-002;2.494192216545343E-003;-3.849672430078499E-005;
2.406000000000000E+009;1.918077170848846E-001;3.793246299028397E-002;2.554054139181972E-003;-5.056822556070983E-005;
2.406166666666667E+009;1.927954256534576E-001;3.778130561113358E-002;2.348328242078424E-003;-1.700158754829317E-004;
2.406333333333334E+009;1.936932057142258E-001;3.779968991875649E-002;2.234588144347072E-003;-1.617638627067208E-004;
2.406500000000000E+009;1.945239752531052E-001;3.776185959577560E-002;2.299129264429212E-003;-3.072330437134951E-004;
2.406666666666667E+009;1.950351893901825E-001;3.787025436758995E-002;2.132389461621642E-003;-2.997635165229440E-004;
2.406833333333334E+009;1.957058012485504E-001;3.784651309251785E-002;2.258808119222522E-003;-2.837838546838611E-004;
2.407000000000000E+009;1.959492564201355E-001;3.806259855628014E-002;2.140370663255453E-003;-2.509846235625446E-004;
2.407166666666667E+009;1.963709294795990E-001;3.786778450012207E-002;2.273120451718569E-003;-3.636754117906094E-004;
2.407333333333334E+009;1.961198449134827E-001;3.804742917418480E-002;2.192268380895257E-003;-2.166646881960332E-004;
2.407500000000000E+009;1.960884630680084E-001;3.799007833003998E-002;2.073849318549037E-003;-3.364751173648983E-004;
2.407666666666667E+009;1.960746794939041E-001;3.797928616404533E-002;2.175448695197702E-003;-4.859129840042442E-004;
2.407833333333334E+009;1.957426369190216E-001;3.785930946469307E-002;2.186462283134460E-003;-6.197834736667574E-004;
2.408000000000000E+009;1.956036239862442E-001;3.763260692358017E-002;2.141713397577405E-003;-7.035478483885527E-004;
2.408166666666667E+009;1.948913484811783E-001;3.741016238927841E-002;2.280008513480425E-003;-6.515127024613321E-004;
2.408333333333334E+009;1.944547742605209E-001;3.688593581318855E-002;2.076950622722507E-003;-7.011248380877078E-004;
2.408500000000000E+009;1.936591863632202E-001;3.641128167510033E-002;2.049499889835715E-003;-7.592519978061318E-004;
2.408666666666667E+009;1.930623203516007E-001;3.597142174839973E-002;2.222839044407010E-003;-6.018067360855639E-004;
2.408833333333334E+009;1.923401057720184E-001;3.519875183701515E-002;2.062977291643620E-003;-7.506039692088962E-004;
2.409000000000000E+009;1.914214491844177E-001;3.431283682584763E-002;2.113748807460070E-003;-9.504319750703871E-004;
2.409166666666667E+009;1.904645860195160E-001;3.316516056656838E-002;2.152591012418270E-003;-9.757638908922672E-004;
2.409333333333334E+009;1.895441710948944E-001;3.230084851384163E-002;2.203489886596799E-003;-1.113348873332143E-003;
2.409500000000000E+009;1.883701831102371E-001;3.095369413495064E-002;2.218684414401650E-003;-1.291432767175138E-003;
2.409666666666667E+009;1.874992996454239E-001;2.950100600719452E-002;2.147095277905464E-003;-1.141339656896889E-003;
2.409833333333334E+009;1.862468868494034E-001;2.811108529567719E-002;2.205428900197148E-003;-1.289182342588902E-003;
2.410000000000000E+009;1.854316443204880E-001;2.639586664736271E-002;2.180018695071340E-003;-1.382409362122417E-003;
2.410166666666667E+009;1.844312548637390E-001;2.457158453762531E-002;2.043366665020585E-003;-1.504889107309282E-003;
2.410333333333334E+009;1.834938675165176E-001;2.287423610687256E-002;2.165967598557472E-003;-1.590788247995079E-003;
2.410500000000000E+009;1.824746429920197E-001;2.105129696428776E-002;2.017957391217351E-003;-1.759743201546371E-003;
2.410666666666667E+009;1.816694438457489E-001;1.866087689995766E-002;2.083313651382923E-003;-1.754567376337946E-003;
2.410833333333334E+009;1.809447258710861E-001;1.639326848089695E-002;1.834094407968223E-003;-1.804455416277051E-003;
2.411000000000000E+009;1.803174167871475E-001;1.424794271588326E-002;1.853230758570135E-003;-1.897695008665323E-003;
2.411166666666667E+009;1.795864105224609E-001;1.203332655131817E-002;1.747398637235165E-003;-1.989442855119705E-003;
2.411333333333334E+009;1.791845858097076E-001;9.682699106633663E-003;1.791037735529244E-003;-2.191738691180944E-003;
2.411500000000000E+009;1.786444634199143E-001;7.179980631917715E-003;1.669283374212682E-003;-2.045984612777829E-003;
2.411666666666667E+009;1.785012483596802E-001;4.922614432871342E-003;1.623082323931158E-003;-2.252185018733144E-003;
2.411833333333334E+009;1.783020198345184E-001;2.440163400024176E-003;1.560136792249978E-003;-2.201830036938191E-003;
2.412000000000000E+009;1.784457564353943E-001;-9.816308011068031E-005;1.462006359361112E-003;-2.193940337747335E-003;
2.412166666666667E+009;1.785252690315247E-001;-2.270631957799196E-003;1.496695680543780E-003;-2.454389119520783E-003;
2.412333333333334E+009;1.786517798900604E-001;-4.897760227322578E-003;1.172253047116101E-003;-2.539234003052115E-003;
2.412500000000000E+009;1.791778653860092E-001;-7.269729394465685E-003;1.011933200061321E-003;-2.483243588358164E-003;
2.412666666666667E+009;1.796164661645889E-001;-9.772820398211479E-003;1.011766027659178E-003;-2.567800460383296E-003;
2.412833333333334E+009;1.803998947143555E-001;-1.215203944593668E-002;8.953943033702672E-004;-2.660661237314344E-003;
2.413000000000000E+009;1.810601353645325E-001;-1.453883573412895E-002;7.951166480779648E-004;-2.567037241533399E-003;
2.413166666666667E+009;1.818021237850189E-001;-1.660650037229061E-002;4.659167025238276E-004;-2.696086186915636E-003;
2.413333333333334E+009;1.829012930393219E-001;-1.893668435513973E-002;4.307679482735694E-004;-2.632901538163424E-003;
2.413500000000000E+009;1.837429255247116E-001;-2.118024788796902E-002;2.926021115854383E-004;-2.725379075855017E-003;
2.413666666666667E+009;1.848430782556534E-001;-2.332001551985741E-002;9.963079355657101E-005;-2.380803925916553E-003;
2.413833333333334E+009;1.861079037189484E-001;-2.543838135898113E-002;9.465046605328098E-005;-2.381530823186040E-003;
2.414000000000000E+009;1.872636079788208E-001;-2.731728367507458E-002;3.162438588333316E-005;-2.223983872681856E-003;
2.414166666666667E+009;1.885324567556381E-001;-2.909251116216183E-002;-5.404759940574877E-005;-2.089373068884015E-003;
2.414333333333334E+009;1.894714683294296E-001;-3.110208176076412E-002;-9.547105582896620E-005;-2.177155110985041E-003;
2.414500000000000E+009;1.906218975782394E-001;-3.240927308797836E-002;-1.548538130009547E-004;-1.987976022064686E-003;
2.414666666666667E+009;1.918815225362778E-001;-3.391504660248756E-002;-2.211708633694798E-004;-2.050545532256365E-003;
2.414833333333334E+009;1.931044906377792E-001;-3.531121462583542E-002;-1.710710639599711E-004;-2.031755400821567E-003;
2.415000000000000E+009;1.941461563110352E-001;-3.651518747210503E-002;-5.583143138210289E-005;-2.138863084837794E-003;
2.415166666666667E+009;1.954977065324783E-001;-3.770181536674500E-002;-8.041375258471817E-005;-2.071533119305968E-003;
2.415333333333334E+009;1.966684609651566E-001;-3.842575475573540E-002;-1.953128230525181E-004;-2.077969722449780E-003;
2.415500000000000E+009;1.976450681686401E-001;-3.918391838669777E-002;-4.742283199448139E-004;-2.181610325351358E-003;
2.415666666666667E+009;1.986435651779175E-001;-3.996239602565765E-002;-2.416241331957281E-004;-2.152444329112768E-003;
2.415833333333334E+009;1.995840519666672E-001;-4.073768109083176E-002;-3.628557606134564E-004;-2.081063576042652E-003;
2.416000000000000E+009;2.003402858972549E-001;-4.115104675292969E-002;-4.969846340827644E-004;-2.184212440624833E-003;
2.416166666666667E+009;2.010169774293900E-001;-4.174161329865456E-002;-5.258843884803355E-004;-2.082452178001404E-003;
2.416333333333334E+009;2.016722708940506E-001;-4.198387637734413E-002;-5.495336954481900E-004;-2.026143716648221E-003;
2.416500000000000E+009;2.021367996931076E-001;-4.225291311740875E-002;-6.132047274149954E-004;-2.048259600996971E-003;
2.416666666666667E+009;2.024384588003159E-001;-4.261372238397598E-002;-6.278256769292057E-004;-1.903374097310007E-003;
2.416833333333334E+009;2.025902420282364E-001;-4.259148612618446E-002;-5.929163307882845E-004;-1.792848575860262E-003;
2.417000000000000E+009;2.026885598897934E-001;-4.265923053026199E-002;-5.605594487860799E-004;-1.847062492743135E-003;
2.417166666666667E+009;2.023900151252747E-001;-4.262196645140648E-002;-4.644820000976324E-004;-1.833753427490592E-003;
2.417333333333334E+009;2.022111266851425E-001;-4.252937808632851E-002;-4.358276200946420E-004;-1.914476393721998E-003;
2.417500000000000E+009;2.019309699535370E-001;-4.249584302306175E-002;-5.214490811340511E-004;-1.961076864972711E-003;
2.417666666666667E+009;2.014956325292587E-001;-4.234811663627625E-002;-7.086852565407753E-004;-2.143877325579524E-003;
2.417833333333334E+009;2.010055482387543E-001;-4.216413572430611E-002;-5.662996554747224E-004;-2.011195058003068E-003;
2.418000000000000E+009;2.002430409193039E-001;-4.190135747194290E-002;-7.873577415011823E-004;-2.131472108885646E-003;
2.418166666666667E+009;1.994479298591614E-001;-4.188812524080277E-002;-8.691681432537735E-004;-2.257918473333120E-003;
2.418333333333334E+009;1.985206305980682E-001;-4.173863306641579E-002;-8.743761572986841E-004;-2.295021666213870E-003;
2.418500000000000E+009;1.975399404764175E-001;-4.174277186393738E-002;-8.985873428173363E-004;-2.365201711654663E-003;
2.418666666666667E+009;1.967108249664307E-001;-4.182866215705872E-002;-1.271785702556372E-003;-2.322309883311391E-003;
2.418833333333334E+009;1.953002363443375E-001;-4.193560406565666E-002;-1.161679159849882E-003;-2.335719764232636E-003;
2.419000000000000E+009;1.939663290977478E-001;-4.214322566986084E-002;-1.311479602009058E-003;-2.361166058108211E-003;
2.419166666666667E+009;1.928078681230545E-001;-4.249491542577744E-002;-1.306253485381603E-003;-2.362372819334269E-003;
2.419333333333334E+009;1.913213878870010E-001;-4.291166365146637E-002;-1.285115024074912E-003;-2.445954596623778E-003;
2.419500000000000E+009;1.898129433393478E-001;-4.334798082709312E-002;-1.481122337281704E-003;-2.423323923721910E-003;
2.419666666666667E+009;1.882612854242325E-001;-4.419051110744476E-002;-1.604508142918348E-003;-2.291126642376185E-003;
2.419833333333334E+009;1.865950226783752E-001;-4.486553743481636E-002;-1.859414274804294E-003;-2.088883193209767E-003;
2.420000000000000E+009;1.849874556064606E-001;-4.586070775985718E-002;-1.812525326386094E-003;-2.343424130231142E-003;
2.420166666666667E+009;1.835294067859650E-001;-4.692777991294861E-002;-1.973997801542282E-003;-2.157653681933880E-003;
2.420333333333334E+009;1.818955093622208E-001;-4.795009270310402E-002;-2.073807176202536E-003;-2.143372781574726E-003;
2.420500000000000E+009;1.801654398441315E-001;-4.928264021873474E-002;-2.142674522474408E-003;-2.092863665893674E-003;
2.420666666666667E+009;1.787044405937195E-001;-5.053692683577538E-002;-2.303358167409897E-003;-2.042386913672090E-003;
2.420833333333334E+009;1.769820451736450E-001;-5.202347785234451E-002;-2.377037424594164E-003;-1.965680159628391E-003;
2.421000000000000E+009;1.753628998994827E-001;-5.360192060470581E-002;-2.457558177411556E-003;-1.883959979750216E-003;
2.421166666666667E+009;1.740637719631195E-001;-5.522060021758080E-002;-2.604128094390035E-003;-1.848329324275255E-003;
2.421333333333334E+009;1.724670678377152E-001;-5.666588991880417E-002;-2.713743830099702E-003;-1.625728211365640E-003;
2.421500000000000E+009;1.712277978658676E-001;-5.856466665863991E-002;-2.879227045923472E-003;-1.703278976492584E-003;
2.421666666666667E+009;1.699270159006119E-001;-6.043755635619164E-002;-2.946365391835570E-003;-1.436573336832225E-003;
2.421833333333334E+009;1.689957529306412E-001;-6.234884262084961E-002;-2.904285676777363E-003;-1.399719971232116E-003;
2.422000000000000E+009;1.676806062459946E-001;-6.423941999673843E-002;-3.055720357224345E-003;-1.281333039514720E-003;
2.422166666666667E+009;1.669355779886246E-001;-6.631845235824585E-002;-3.157724626362324E-003;-1.143990317359567E-003;
2.422333333333334E+009;1.659262627363205E-001;-6.834730505943298E-002;-3.174746176227927E-003;-1.098746201023459E-003;
2.422500000000000E+009;1.651500016450882E-001;-7.031393796205521E-002;-3.168184310197830E-003;-9.245859109796584E-004;
2.422666666666667E+009;1.645182222127914E-001;-7.233896851539612E-002;-3.268062137067318E-003;-6.900659645907581E-004;
2.422833333333334E+009;1.640975773334503E-001;-7.437836378812790E-002;-3.295156871899962E-003;-7.117325440049171E-004;
2.423000000000000E+009;1.634557545185089E-001;-7.635007798671722E-002;-3.307684790343046E-003;-6.011290242895484E-004;
2.423166666666667E+009;1.633234471082687E-001;-7.844014465808868E-002;-3.328534541651607E-003;-4.639340331777930E-004;
2.423333333333334E+009;1.629755645990372E-001;-8.030844479799271E-002;-3.332100342959166E-003;-3.404556773602963E-004;
2.423500000000000E+009;1.628791242837906E-001;-8.206801116466522E-002;-3.443291643634439E-003;-1.092280872398987E-004;
2.423666666666667E+009;1.629419177770615E-001;-8.393555134534836E-002;-3.412183606997132E-003;-5.406494892667979E-005;
2.423833333333334E+009;1.627824157476425E-001;-8.576186001300812E-002;-3.474123775959015E-003;1.126480583479861E-005;
2.424000000000000E+009;1.629907786846161E-001;-8.760623633861542E-002;-3.449213923886418E-003;4.295594699215144E-004;
2.424166666666667E+009;1.630240529775620E-001;-8.904923498630524E-002;-3.345927223563194E-003;4.102315288037062E-004;
2.424333333333334E+009;1.632090657949448E-001;-9.069136530160904E-002;-3.434031270444393E-003;7.637676899321377E-004;
2.424500000000000E+009;1.635598093271256E-001;-9.228938072919846E-002;-3.293153597041965E-003;9.147621458396316E-004;
2.424666666666667E+009;1.639174818992615E-001;-9.367992728948593E-002;-3.113138722255826E-003;1.073838793672621E-003;
2.424833333333334E+009;1.643532514572144E-001;-9.497741609811783E-002;-2.895941957831383E-003;1.193022704683244E-003;
2.425000000000000E+009;1.647430509328842E-001;-9.605779498815537E-002;-2.841062378138304E-003;1.229443703778088E-003;
2.425166666666667E+009;1.651290655136108E-001;-9.707839041948319E-002;-2.967576263472438E-003;1.248537562787533E-003;
2.425333333333334E+009;1.654013991355896E-001;-9.815113991498947E-002;-2.734984969720244E-003;1.389032229781151E-003;
2.425500000000000E+009;1.659388840198517E-001;-9.895767271518707E-002;-2.771526342257857E-003;1.440431340597570E-003;
2.425666666666667E+009;1.662993431091309E-001;-9.967279434204102E-002;-2.701461547985673E-003;1.660426263697445E-003;
2.425833333333334E+009;1.665451973676682E-001;-1.005903929471970E-001;-2.517686923965812E-003;1.539746299386025E-003;
2.426000000000000E+009;1.670639216899872E-001;-1.008518114686012E-001;-2.509262645617127E-003;1.643990981392562E-003;
2.426166666666667E+009;1.673434972763062E-001;-1.014554873108864E-001;-2.390718320384622E-003;1.707521383650601E-003;
2.426333333333334E+009;1.674585193395615E-001;-1.019208878278732E-001;-2.392447320744395E-003;1.771640498191118E-003;
2.426500000000000E+009;1.678915023803711E-001;-1.021484956145287E-001;-2.284808317199349E-003;1.821721438318491E-003;
2.426666666666667E+009;1.680146008729935E-001;-1.024542301893234E-001;-2.106899162754417E-003;1.922196592204273E-003;
2.426833333333334E+009;1.683050841093063E-001;-1.027583554387093E-001;-2.095157979056239E-003;1.917131361551583E-003;
2.427000000000000E+009;1.681928485631943E-001;-1.029110625386238E-001;-2.029120689257979E-003;1.926001277752221E-003;
2.427166666666667E+009;1.681817770004273E-001;-1.030459627509117E-001;-1.938335597515106E-003;1.931670820340514E-003;
2.427333333333334E+009;1.681983470916748E-001;-1.032474637031555E-001;-1.944388030096889E-003;2.072500530630350E-003;
2.427500000000000E+009;1.679727882146835E-001;-1.034215018153191E-001;-1.864637597464025E-003;2.015638630837202E-003;
2.427666666666667E+009;1.675453186035156E-001;-1.034433990716934E-001;-1.681179041042924E-003;2.133644884452224E-003;
