# Hz S RI R 
2400000000.0000000000 0.158089667558669988434161268742 0.062144812196493148803710937500 -0.002307276474311947822570800781 -0.000954046146944165229797363281 0 0 0 0 
2400166666.6666665077 0.158082008361816406250000000000 0.060592431575059890747070312500 -0.002335413824766873879673623193 -0.000806041876785457134246826172 0 0 0 0 
2400333333.3333334923 0.157964259386062594314736884371 0.058634053915739059448242187500 -0.002289137104526162147521972656 -0.000850965210702270269393920898 0 0 0 0 
2400500000.0000000000 0.158144310116767911056356865629 0.056689348071813583374023437500 -0.002352304290980101065394736182 -0.000892347015906125307083129883 0 0 0 0 
2400666666.6666665077 0.158032149076461791992187500000 0.054724376648664467548410783593 -0.002450159052386879920959472656 -0.000849742558784782886505126953 0 0 0 0 
2400833333.3333334923 0.158254891633987399002236884371 0.052885062992572777484934221093 -0.002373031340539454980137490381 -0.000794813386164605617523193359 0 0 0 0 
2401000000.0000000000 0.158397734165191705901776231258 0.050864648073911666870117187500 -0.002557989908382296995875693213 -0.000809208373539149761199951172 0 0 0 0 
2401166666.6666665077 0.158608943223953302581463731258 0.048546433448791496967356096093 -0.002488355385139584975001669775 -0.000656052143312990665435791016 0 0 0 0 
2401333333.3333334923 0.158573493361473111251669365629 0.046575576066970832134206403907 -0.002518931636586784882786416162 -0.000565346970688551664352416992 0 0 0 0 
2401500000.0000000000 0.159039407968521090408486884371 0.044669616967439651489257812500 -0.002740087453275918960571289062 -0.000657007039990276098251342773 0 0 0 0 
2401666666.6666665077 0.159317359328269986251669365629 0.042704958468675613403320312500 -0.002666091546416283087489462744 -0.000522181973792612552642822266 0 0 0 0 
2401833333.3333334923 0.159665465354919405838174384371 0.040471524000167846679687500000 -0.002853971440345048904418945312 -0.000478948146337643319934290753 0 0 0 0 
2402000000.0000000000 0.160222291946411105056924384371 0.038666136562824249267578125000 -0.002915619872510433197021484375 -0.000455162546131759881973266602 0 0 0 0 
2402166666.6666665077 0.160515695810317993164062500000 0.036652531474828720092773437500 -0.002862608293071389198303222656 -0.000391694309655576890141087665 0 0 0 0 
2402333333.3333334923 0.161011725664138793945312500000 0.034887418150901787494699846093 -0.003002618439495563940760947119 -0.000213986888411454910605830060 0 0 0 0 
2402500000.0000000000 0.162129238247871398925781250000 0.033077701926231377338449846093 -0.003138190135359764099121093750 -0.000086614636529702693223953247 0 0 0 0 
2402666666.6666665077 0.162686318159103393554687500000 0.031405661255121231079101562500 -0.003130813827738165855407714844 -0.000048373989557148888707160950 0 0 0 0 
2402833333.3333334923 0.163305386900901794433593750000 0.029719501733779910696009451954 -0.003077324712648988203761435400 -0.000082861595728900283575057983 0 0 0 0 
2403000000.0000000000 0.164171621203422601897869981258 0.028094235807657238351842110546 -0.003266133368015288872959756006 0.000165448436746373799726209097 0 0 0 0 
2403166666.6666665077 0.165080472826957702636718750000 0.026496933773159980773925781250 -0.003273584181442856788635253906 0.000202680486836470690652570181 0 0 0 0 
2403333333.3333334923 0.165938913822174100021200615629 0.025128373876214030874232108204 -0.003450772026553750038146972656 0.000444921810412779504626673566 0 0 0 0 
2403500000.0000000000 0.166740536689758300781250000000 0.023660995066165920602818673046 -0.003343568881973623795750283350 0.000444510980742052197456359863 0 0 0 0 
2403666666.6666665077 0.167744889855384798904580634371 0.022277463227510448801060860546 -0.003223336301743983788731240381 0.000690960732754319906234741211 0 0 0 0 
2403833333.3333334923 0.168884292244911193847656250000 0.020954770967364311218261718750 -0.003443866968154906792881631006 0.000649060937575995922088623047 0 0 0 0 
2404000000.0000000000 0.169753953814506503006143134371 0.019863011315464969980260079296 -0.003397502470761537985560751807 0.001001195283606648011448525537 0 0 0 0 
2404166666.6666665077 0.170620113611221313476562500000 0.018675658851861950265904610546 -0.003405692987143992944004677881 0.001174287288449705080745077979 0 0 0 0 
2404333333.3333334923 0.171554386615753201583700615629 0.017746517434716231609304060157 -0.003377982648089528083801269531 0.001326296944171190045000385815 0 0 0 0 
2404500000.0000000000 0.172486588358879089355468750000 0.016662050038576129568079764454 -0.003398081520572305159327841650 0.001529166591353714899775839697 0 0 0 0 
2404666666.6666665077 0.173452690243721008300781250000 0.015916371718049049377441406250 -0.003212610259652138190028525244 0.001514293486252427101135253906 0 0 0 0 
2404833333.3333334923 0.174145132303237887283486884371 0.014933680184185510117500506055 -0.003242318984121084213256835938 0.001776164514012634971021342700 0 0 0 0 
2405000000.0000000000 0.175002500414848299881143134371 0.014323084615170960862129412305 -0.003297487040981649918797158350 0.001791409682482481002807617188 0 0 0 0 
2405166666.6666665077 0.175808340311050387283486884371 0.013680927455425260716448399023 -0.003186313901096581979038857568 0.002198163419961928887608193506 0 0 0 0 
2405333333.3333334923 0.176609799265861511230468750000 0.012851455248892310750941092579 -0.003126009367406367821934365381 0.002138204406946897940394736182 0 0 0 0 
2405500000.0000000000 0.177408799529075594803018134371 0.012566232122480869293212890625 -0.002855344908311963081359863281 0.002360591199249029159545898438 0 0 0 0 
2405666666.6666665077 0.177950277924537686446981865629 0.012084855698049070185651210352 -0.002897140104323625998256064307 0.002581398701295257048365927588 0 0 0 0 
2405833333.3333334923 0.178406879305839510818643134371 0.011714782565832139796246913477 -0.002782172989100217819213867188 0.002756331348791718916652060400 0 0 0 0 
2406000000.0000000000 0.179129540920257596114950615629 0.011160924099385740107526210352 -0.002633898518979548974278115381 0.002966552274301648139953613281 0 0 0 0 
2406166666.6666665077 0.179416418075561495681924384371 0.011006175540387630462646484375 -0.002535742707550526098964072119 0.003076458349823952154872275244 0 0 0 0 
2406333333.3333334923 0.179836019873619107345419365629 0.010365569032728670292864414648 -0.002388313645496964888331747900 0.003066548611968756155726767432 0 0 0 0 
2406500000.0000000000 0.180202752351760892013388115629 0.009934260509908199310302734375 -0.002170253777876495881321572412 0.003261037403717637062072753906 0 0 0 0 
2406666666.6666665077 0.180175840854644803146200615629 0.009843184612691402435302734375 -0.002061089733615518049952841650 0.003443335182964801788330078125 0 0 0 0 
2406833333.3333334923 0.180347010493278503417968750000 0.009408173151314258575439453125 -0.001727582537569106058833456885 0.003412047866731882095336914062 0 0 0 0 
2407000000.0000000000 0.180479973554611206054687500000 0.009015633724629878997802734375 -0.001726467162370681979535746997 0.003554528811946510834934853662 0 0 0 0 
2407166666.6666665077 0.180475115776062011718750000000 0.008673063479363918304443359375 -0.001550717162899672985076904297 0.003579585580155252976658486475 0 0 0 0 
2407333333.3333334923 0.180384382605552701095419365629 0.008255959488451480865478515625 -0.001262948848307132937787700122 0.003672606078907846970799111475 0 0 0 0 
2407500000.0000000000 0.180190324783325195312500000000 0.007765829563140869140625000000 -0.001144610461778938987134623950 0.003620169358327984809875488281 0 0 0 0 
2407666666.6666665077 0.179909363389015197753906250000 0.007407662458717823028564453125 -0.000803278584498912096023559570 0.003573046764358878135681152344 0 0 0 0 
2407833333.3333334923 0.179481402039527893066406250000 0.006699587218463420867919921875 -0.000799464120063930749893188477 0.003614922752603888945338583838 0 0 0 0 
2408000000.0000000000 0.179289624094963101486044365629 0.006060692016035318374633789062 -0.000577532220631837844848632812 0.003592462511733173890354775537 0 0 0 0 
2408166666.6666665077 0.178823038935661288162393134371 0.005440252367407084378714277051 -0.000347559689544141292572021484 0.003492272226139903068542480469 0 0 0 0 
2408333333.3333334923 0.178453370928764287750567518742 0.004648019559681416425223066113 -0.000284351495793089324801844464 0.003558442695066332817077636719 0 0 0 0 
2408500000.0000000000 0.177814781665802001953125000000 0.003796255681663752035853720557 -0.000199378657271154197767534799 0.003648404963314532799961709131 0 0 0 0 
2408666666.6666665077 0.177211359143257113357705634371 0.002959241392090917067286826025 0.000018404163711238649079595872 0.003422883572056889967677451025 0 0 0 0 
2408833333.3333334923 0.176529884338378906250000000000 0.001890107523649930953979492188 0.000069971807533875107765197754 0.003323463955894113020655966650 0 0 0 0 
2409000000.0000000000 0.175890207290649386306924384371 0.000832234625704586505889892578 0.000160535200848244103506365366 0.003376060165464878082275390625 0 0 0 0 
2409166666.6666665077 0.175467714667320306975994981258 -0.000266142422333359718322753906 0.000492837803903967142105102539 0.003420948050916194915771484375 0 0 0 0 
2409333333.3333334923 0.174869149923324612716513115629 -0.001537929754704236984252929688 0.000564244342967867851257324219 0.003232409711927175955531454932 0 0 0 0 
2409500000.0000000000 0.173909410834312411209268134371 -0.003001185366883873939514160156 0.000572942430153489112854003906 0.003424090100452303886413574219 0 0 0 0 
2409666666.6666665077 0.173399120569229098220986884371 -0.004063817672431468963623046875 0.000661918835248798131942749023 0.003350973827764391899108886719 0 0 0 0 
2409833333.3333334923 0.172632157802581787109375000000 -0.005630285944789648056030273438 0.000710565131157636642456054688 0.003077131230384110970738076318 0 0 0 0 
2410000000.0000000000 0.172030121088028009612713731258 -0.007147928699851036071777343750 0.000861057254951447248458862305 0.003000994445756078200099326025 0 0 0 0 
2410166666.6666665077 0.171319365501403808593750000000 -0.008632333017885684967041015625 0.001049206592142581939697265625 0.003089273115620017051696777344 0 0 0 0 
2410333333.3333334923 0.170860782265663202483807481258 -0.010327778756618499755859375000 0.001232084236107767061946249854 0.002962253056466579003574990381 0 0 0 0 
2410500000.0000000000 0.170237928628921508789062500000 -0.011999594047665599477747733204 0.001109233824536203904392861475 0.002969407476484775976893759619 0 0 0 0 
2410666666.6666665077 0.169899225234985407073651231258 -0.014043141156435009347935860546 0.001258604112081229903577495044 0.002772761741653085188624716650 0 0 0 0 
2410833333.3333334923 0.169417217373847989181356865629 -0.015568736940622329711914062500 0.001361654489301145076751708984 0.002768734470009804205653525244 0 0 0 0 
2411000000.0000000000 0.169020518660545404632244981258 -0.017352974042296409606933593750 0.001462477142922580025316547925 0.002685874933376907868626259912 0 0 0 0 
2411166666.6666665077 0.168622180819511413574218750000 -0.019277842715382579458216483204 0.001653055893257260105730366284 0.002612892072647809982299804688 0 0 0 0 
2411333333.3333334923 0.168339908123016412933026231258 -0.021007319912314418447474295704 0.001622416544705628915074013818 0.002598866354674100875854492188 0 0 0 0 
2411500000.0000000000 0.168103486299514798263388115629 -0.023186370730400088918665701954 0.001673237769864500002620077979 0.002599652856588364081141806494 0 0 0 0 
2411666666.6666665077 0.168167144060134887695312500000 -0.024944420903921130788782889454 0.001780052552931010939954448169 0.002518520224839448928833007812 0 0 0 0 
2411833333.3333334923 0.168097913265228299239950615629 -0.026949698105454448354700858204 0.001678675995208323001861572266 0.002474891953170299963710165869 0 0 0 0 
2412000000.0000000000 0.168201804161071805099325615629 -0.028753601014614108694056326954 0.001768038258887826962711953271 0.002331805415451527075526572119 0 0 0 0 
2412166666.6666665077 0.168334662914276095291299384371 -0.030657101422548290597935860546 0.001958320615813136100769042969 0.002261285902932285828831338037 0 0 0 0 
2412333333.3333334923 0.168625220656394986251669365629 -0.032546121627092361450195312500 0.002031228505074977874755859375 0.002183257834985851807835244287 0 0 0 0 
2412500000.0000000000 0.168616145849227905273437500000 -0.034345947206020362163503278907 0.002276005456224083900451660156 0.001971493009477854208705283057 0 0 0 0 
2412666666.6666665077 0.169053450226783807952557481258 -0.036403022706508643413503278907 0.002146854065358639197108603369 0.001902418094687164046643901294 0 0 0 0 
2412833333.3333334923 0.169386640191078213790731865629 -0.038274347782135009765625000000 0.002244154457002878189086914062 0.001681611873209476904628134619 0 0 0 0 
2413000000.0000000000 0.169850990176200894454794365629 -0.039827678352594382549245466407 0.002301386557519435882568359375 0.001564263016916811899897910010 0 0 0 0 
2413166666.6666665077 0.170069888234138488769531250000 -0.041543141007423400878906250000 0.002354092197492719130275107275 0.001348359277471899986267089844 0 0 0 0 
2413333333.3333334923 0.170445472002029391189736884371 -0.043146882206201553344726562500 0.002392437076196074919459677588 0.001337951864115894057630229419 0 0 0 0 
2413500000.0000000000 0.171093687415123013595419365629 -0.044901367276906967163085937500 0.002348612295463680787327431787 0.001099694520235062079188681494 0 0 0 0 
2413666666.6666665077 0.171525046229362487792968750000 -0.046488881111145019531250000000 0.002250089077278972105738974463 0.001057509565725923018214560400 0 0 0 0 
2413833333.3333334923 0.172062367200851412674111884371 -0.047834768891334526752512346093 0.002369358902797102928161621094 0.000878058490343391895294189453 0 0 0 0 
2414000000.0000000000 0.172533288598060607910156250000 -0.049288604408502578735351562500 0.002345917280763388113734579932 0.000879514380358159542083740234 0 0 0 0 
2414166666.6666665077 0.173137888312339810470419365629 -0.050502952188253402709960937500 0.002286920789629220962524414062 0.000668921507894992828369140625 0 0 0 0 
2414333333.3333334923 0.173635989427566500564736884371 -0.051689840853214256977121721093 0.002373697701841592788696289062 0.000578242004849016666412353516 0 0 0 0 
2414500000.0000000000 0.174274951219558688064736884371 -0.052905868738889687274973283593 0.002302068052813411192653036963 0.000478176050819456577301025391 0 0 0 0 
2414666666.6666665077 0.174754410982132013518963731258 -0.053781267255544662475585937500 0.002312831813469529151916503906 0.000434129557106643915176391602 0 0 0 0 
2414833333.3333334923 0.175152420997619601150674384371 -0.054691329598426818847656250000 0.002216369379311800003051757812 0.000301207765005528926849365234 0 0 0 0 
2415000000.0000000000 0.175472438335418701171875000000 -0.055595293641090393066406250000 0.002170185092836617989781045068 0.000202031631488352986887255258 0 0 0 0 
2415166666.6666665077 0.175970599055290194412393134371 -0.056411512196064002300222028907 0.002100041368976234956028603662 0.000204339143238030401155194693 0 0 0 0 
2415333333.3333334923 0.176449075341224698165731865629 -0.057150673121213912963867187500 0.001995767699554563002345419775 0.000132606466650031507015228271 0 0 0 0 
2415500000.0000000000 0.176624476909637506683026231258 -0.057675279676914222026784528907 0.002001782646402717070338583838 -0.000052431107178563252091407776 0 0 0 0 
2415666666.6666665077 0.176886841654777499099893134371 -0.058150213211774832988698591407 0.001968408934772015051600790869 0.000129982770886272192001342773 0 0 0 0 
2415833333.3333334923 0.177147865295410211761151231258 -0.058696169406175613403320312500 0.001959914341568946838378906250 0.000013623569429910279473270110 0 0 0 0 
2416000000.0000000000 0.176950916647911099532919365629 -0.059186842292547232891042341407 0.001969875534996389909031533350 -0.000249200180405750924914759503 0 0 0 0 
2416166666.6666665077 0.177341237664222689529580634371 -0.059529080986976616596262346093 0.001886528683826327107073139722 -0.000247006566496565883785802020 0 0 0 0 
2416333333.3333334923 0.177230104804039001464843750000 -0.059880353510379791259765625000 0.001692643738351762077928852612 -0.000101676312624476904242915021 0 0 0 0 
2416500000.0000000000 0.177097365260124206542968750000 -0.060239225625991821289062500000 0.001878017326816916899440146338 -0.000121912802569568197853626390 0 0 0 0 
2416666666.6666665077 0.176819324493408203125000000000 -0.060481466352939612651784528907 0.001735207973979413943049765479 -0.000246858922764658873707371844 0 0 0 0 
2416833333.3333334923 0.176710844039916992187500000000 -0.060898743569850921630859375000 0.001791904796846210956573486328 -0.000276798265986144488483983173 0 0 0 0 
2417000000.0000000000 0.176139935851097106933593750000 -0.061123754829168319702148437500 0.001645056647248565933824848706 -0.000325993198202922886044102802 0 0 0 0 
2417166666.6666665077 0.175748392939567593673544365629 -0.061093654483556747436523437500 0.001691606477834284088732075269 -0.000223791037569753798559465952 0 0 0 0 
2417333333.3333334923 0.175275281071662902832031250000 -0.061533927917480468750000000000 0.001619403483346105055568076025 -0.000306434696540236473083496094 0 0 0 0 
2417500000.0000000000 0.174516856670379610916299384371 -0.061854399740695953369140625000 0.001503492123447359041926718604 -0.000489699363242834806442260742 0 0 0 0 
2417666666.6666665077 0.173842728137969998458700615629 -0.062092017382383346557617187500 0.001515786745585500977159809644 -0.000509648700244724750518798828 0 0 0 0 
2417833333.3333334923 0.172977924346923800369424384371 -0.062268353998661041259765625000 0.001506138360127807097194052588 -0.000423232966568320989608764648 0 0 0 0 
2418000000.0000000000 0.172159388661384610275106865629 -0.062741816043853759765625000000 0.001371353399008512930629111182 -0.000357535987859591787487584247 0 0 0 0 
2418166666.6666665077 0.171203225851058987716513115629 -0.063008554279804229736328125000 0.001434528268873691992518759619 -0.000467324192868545705645960675 0 0 0 0 
2418333333.3333334923 0.170586585998535211761151231258 -0.063406914472579956054687500000 0.001311409869231284098384238135 -0.000464560434920713305473327637 0 0 0 0 
2418500000.0000000000 0.169329464435577392578125000000 -0.063849434256553649902343750000 0.001327447476796806075452495044 -0.000535814382601529359817504883 0 0 0 0 
2418666666.6666665077 0.168375179171562194824218750000 -0.064486786723136901855468750000 0.001275934278964995904209756006 -0.000476468994747847318649291992 0 0 0 0 
2418833333.3333334923 0.167161673307418795486611884371 -0.065012529492378234863281250000 0.001329028164036571979522705078 -0.000553064106497913599014282227 0 0 0 0 
2419000000.0000000000 0.165922611951828002929687500000 -0.065622225403785705566406250000 0.001484642503783107020734477466 -0.000497125613037496805191040039 0 0 0 0 
2419166666.6666665077 0.164829522371292086502236884371 -0.066282674670219421386718750000 0.001296077040024101951001811450 -0.000515151943545788526535034180 0 0 0 0 
2419333333.3333334923 0.163366943597793606857138115629 -0.066966451704502105712890625000 0.001349986181594430966618203271 -0.000563774432521313428878784180 0 0 0 0 
2419500000.0000000000 0.162367537617683410644531250000 -0.067972593009471893310546875000 0.001270881504751742102979350513 -0.000595847901422530412673950195 0 0 0 0 
2419666666.6666665077 0.161200463771820096114950615629 -0.068854235112667083740234375000 0.001257006078958510918858193506 -0.000600961269810795783996582031 0 0 0 0 
2419833333.3333334923 0.159958586096763610839843750000 -0.069658286869525909423828125000 0.001319373142905533096910786206 -0.000458357972092926502227783203 0 0 0 0 
