# Hz S RI R 
2400000000.0000000000 0.156368017196655301193075615629 0.105826593935489696174379048443 0.002488427329808474020717001807 0.004926130641251801577096269824 0 0 0 0 
2400166666.6666665077 0.156513229012489291092080634371 0.103731840848922701736611884371 0.002347703091800212860107421875 0.004707994870841503143310546875 0 0 0 0 
2400333333.3333334923 0.156729668378830011565838731258 0.101410180330276503135600307814 0.002332211937755345864536904443 0.004331874661147595319266034863 0 0 0 0 
2400500000.0000000000 0.156849950551986694335937500000 0.098887935280799865722656250000 0.002411496592685579819920205225 0.004054774995893239974975585938 0 0 0 0 
2400666666.6666665077 0.157183021306991604904013115629 0.096761085093021392822265625000 0.002227145014330745177028036963 0.003797368612140417098999023438 0 0 0 0 
2400833333.3333334923 0.157334938645362909515057481258 0.094089880585670471191406250000 0.002092876704409718947169638525 0.003586639650166035132167197119 0 0 0 0 
2401000000.0000000000 0.157713621854782104492187500000 0.091381549835205078125000000000 0.002058567712083458900451660156 0.003465904621407390074488974463 0 0 0 0 
2401166666.6666665077 0.158025890588760403732138115629 0.088826052844524383544921875000 0.001877167378552258014678955078 0.003264014609158039093017578125 0 0 0 0 
2401333333.3333334923 0.158425375819206210037393134371 0.086301133036613464355468750000 0.001748585375025867982151650537 0.003410303266718984083888388525 0 0 0 0 
2401500000.0000000000 0.159127637743949890136718750000 0.083489574491977691650390625000 0.001612737891264260032056498950 0.003337763948366045951843261719 0 0 0 0 
2401666666.6666665077 0.159633144736290005782919365629 0.081052772700786590576171875000 0.001511939568445086912867880713 0.003402482252568006949183798682 0 0 0 0 
2401833333.3333334923 0.160153299570083590408486884371 0.078423492610454559326171875000 0.001393511658534408049342490088 0.003404636401683092117309570312 0 0 0 0 
2402000000.0000000000 0.161068156361579895019531250000 0.075877241790294647216796875000 0.001303373370319605090497661060 0.003480603685602546171901083838 0 0 0 0 
2402166666.6666665077 0.161804437637329101562500000000 0.073600187897682189941406250000 0.001251550507731735923169780200 0.003606821410357952117919921875 0 0 0 0 
2402333333.3333334923 0.162908688187599209884481865629 0.071029886603355407714843750000 0.001352417864836751981022500146 0.003649372607469559149501181494 0 0 0 0 
2402500000.0000000000 0.164168179035186795333700615629 0.068823575973510742187500000000 0.001479158643633126995683979565 0.003907585982233285903930664062 0 0 0 0 
2402666666.6666665077 0.165069043636321993728799384371 0.066684186458587646484375000000 0.001591033767908812002894736182 0.003948613535612821578979492188 0 0 0 0 
2402833333.3333334923 0.166290000081062289138955634371 0.064266301691532135009765625000 0.001774184871464967944501567310 0.004107813816517592343802167676 0 0 0 0 
2403000000.0000000000 0.167709156870842007736044365629 0.062143161892890930175781250000 0.002008387353271245956420898438 0.004018653649836778640747070312 0 0 0 0 
2403166666.6666665077 0.169211477041244506835937500000 0.060104943811893463134765625000 0.002169381128624082045314169775 0.004107215441763401031494140625 0 0 0 0 
2403333333.3333334923 0.170486196875572204589843750000 0.057892382144927978515625000000 0.002466960810124874114990234375 0.004001517780125141143798828125 0 0 0 0 
2403500000.0000000000 0.172054097056388910491619981258 0.055990777909755706787109375000 0.002548660384491086006164550781 0.003924716729670763015747070312 0 0 0 0 
2403666666.6666665077 0.173512741923332186599893134371 0.054336879402399063110351562500 0.002791537903249264197108603369 0.003804990556091070175170898438 0 0 0 0 
2403833333.3333334923 0.175105020403861999511718750000 0.052409097552299499511718750000 0.002920474391430615945103310693 0.003684777533635497093200683594 0 0 0 0 
2404000000.0000000000 0.176477998495101900955361884371 0.050752531737089157104492187500 0.003061923431232572035548544775 0.003719762433320283889770507812 0 0 0 0 
2404166666.6666665077 0.177991762757301302810830634371 0.049208108335733406757395158593 0.003140805987641214890720986475 0.003480039071291685104370117188 0 0 0 0 
2404333333.3333334923 0.179377406835556002517861884371 0.047715313732624047016184221093 0.003178797196596860885620117188 0.003409537486732006072998046875 0 0 0 0 
2404500000.0000000000 0.180813819169998196700888115629 0.046210031956434249877929687500 0.003210405819118022918701171875 0.003295529633760451836826943506 0 0 0 0 
2404666666.6666665077 0.182171821594238309005575615629 0.045050140470266342163085937500 0.003324396442621945901157998193 0.003123730188235640959498740088 0 0 0 0 
2404833333.3333334923 0.183602020144462613204794365629 0.043997630476951599121093750000 0.003431984456256031990051269531 0.003133164951577783064601279150 0 0 0 0 
2405000000.0000000000 0.184788852930068997482138115629 0.043310619890689849853515625000 0.003448665607720613913295126807 0.003078369190916419029235839844 0 0 0 0 
2405166666.6666665077 0.185818761587142888824786268742 0.042469944804906852031667341407 0.003649864578619598908665322412 0.003079520072788000106811523438 0 0 0 0 
2405333333.3333334923 0.187014713883399991134481865629 0.041723061352968222881276716407 0.003399877808988093896153115381 0.002801308175548911094665527344 0 0 0 0 
2405500000.0000000000 0.188370019197463989257812500000 0.041130069643259048461914062500 0.003574894042685627937316894531 0.002874524798244237899780273438 0 0 0 0 
2405666666.6666665077 0.189210489392280606368856865629 0.040785763412714011455495466407 0.003661171533167362213134765625 0.002886489732190967039821005713 0 0 0 0 
2405833333.3333334923 0.190221220254898099044638115629 0.040427986532449722290039062500 0.003911829553544521331787109375 0.002770313061773777008056640625 0 0 0 0 
2406000000.0000000000 0.190984651446342496017294365629 0.040014050900936126708984375000 0.003966363146901130676269531250 0.002549306256696581840515136719 0 0 0 0 
2406166666.6666665077 0.191894933581352206131143134371 0.039576545357704162597656250000 0.004026351030915975570678710938 0.002406711224466561837437295068 0 0 0 0 
2406333333.3333334923 0.192758858203887911697549384371 0.039469756186008453369140625000 0.004032555036246776580810546875 0.002271460369229317145106650244 0 0 0 0 
2406500000.0000000000 0.193285569548606900314169365629 0.039231970906257629394531250000 0.004161806777119637403006269238 0.002288216957822442054748535156 0 0 0 0 
2406666666.6666665077 0.193753078579902704436932481258 0.038958076387643807148020158593 0.004216616507619619369506835938 0.002135778078809380964991904150 0 0 0 0 
2406833333.3333334923 0.194254264235496493240518134371 0.038908004760742187500000000000 0.004254433326423168182373046875 0.001953260274603962898254394531 0 0 0 0 
2407000000.0000000000 0.194345176219940213302450615629 0.038898661732673651958425153907 0.004410427995026111602783203125 0.001908261212520300908329629053 0 0 0 0 
2407166666.6666665077 0.194816529750824002364950615629 0.038475502282381057739257812500 0.004448419902473688125610351562 0.001602609059773385958430624854 0 0 0 0 
2407333333.3333334923 0.194732800126075689117755018742 0.038453228771686547016184221093 0.004513628315180540084838867188 0.001586551079526544050929404150 0 0 0 0 
2407500000.0000000000 0.194676861166954012771768134371 0.038323756307363510131835937500 0.004567487630993127822875976562 0.001383671071380377032636332935 0 0 0 0 
2407666666.6666665077 0.194734305143356295486611884371 0.038041535764932632446289062500 0.004522620700299739837646484375 0.001358613371849060058593750000 0 0 0 0 
2407833333.3333334923 0.194260239601135309417401231258 0.037677682936191558837890625000 0.004471422173082829389090253613 0.001203200081363319916966103662 0 0 0 0 
2408000000.0000000000 0.194320440292358398437500000000 0.037365149706602096557617187500 0.004480030853301286697387695312 0.001097102416679262898088764722 0 0 0 0 
2408166666.6666665077 0.193740352988243103027343750000 0.036915186792612082744557966407 0.004432567395269870758056640625 0.000919041049201041460037231445 0 0 0 0 
2408333333.3333334923 0.193428888916969299316406250000 0.036210134625434882427175153907 0.004426756873726844787597656250 0.000749325845390558242797851562 0 0 0 0 
2408500000.0000000000 0.192842096090316800216513115629 0.035820577293634421611745466407 0.004499640781432390213012695312 0.000602615822572261095046997070 0 0 0 0 
2408666666.6666665077 0.192360296845436096191406250000 0.035069234669208526611328125000 0.004675508942455053329467773438 0.000638386816717684268951416016 0 0 0 0 
2408833333.3333334923 0.191937968134880093673544365629 0.034181855618953711772878278907 0.004629516974091529846191406250 0.000445560988737270181805211200 0 0 0 0 
2409000000.0000000000 0.191100448369979886154013115629 0.033180750906467437744140625000 0.004682802595198153582101152637 0.000350649061147123575210571289 0 0 0 0 
2409166666.6666665077 0.190483748912811307052450615629 0.032184351235628128051757812500 0.004514993634074926376342773438 0.000341773149557411724894923077 0 0 0 0 
2409333333.3333334923 0.189743235707282992263955634371 0.031121026724576950073242187500 0.004521428607404232025146484375 0.000132720670080743702963152475 0 0 0 0 
2409500000.0000000000 0.188814550638198908050213731258 0.029800355434417731548268903907 0.004657882731407880783081054688 0.000000714703048743103863671422 0 0 0 0 
2409666666.6666665077 0.188114374876022311111611884371 0.028441935777664191509206403907 0.004573368933051824569702148438 -0.000050578015361679717898368835 0 0 0 0 
2409833333.3333334923 0.187321364879608209808026231258 0.026898769661784168588658516796 0.004482943098992109298706054688 -0.000178709160536527606561937875 0 0 0 0 
2410000000.0000000000 0.186361894011497497558593750000 0.025368858128786090505579764454 0.004672138020396232604980468750 -0.000214157917071133906215113507 0 0 0 0 
2410166666.6666665077 0.185630083084106500823651231258 0.023554570972919460641881173046 0.004727098159492015838623046875 -0.000326853187289089018672388898 0 0 0 0 
2410333333.3333334923 0.184946566820144708831463731258 0.021909113973379138601282889454 0.004621976986527442932128906250 -0.000534415943548083305358886719 0 0 0 0 
2410500000.0000000000 0.184021130204200689117755018742 0.020259108394384380685826485546 0.004638902377337217330932617188 -0.000677658885251730680465698242 0 0 0 0 
2410666666.6666665077 0.183435320854187011718750000000 0.017990307882428169250488281250 0.004526097793132066726684570312 -0.000764924683608114719390869141 0 0 0 0 
2410833333.3333334923 0.182959184050559997558593750000 0.016039419919252399099329764454 0.004590610507875680923461914062 -0.000728085520677268505096435547 0 0 0 0 
2411000000.0000000000 0.182371437549591092208700615629 0.014025724492967130488385585352 0.004334436263889074325561523438 -0.000913969473913311958312988281 0 0 0 0 
2411166666.6666665077 0.181815728545188903808593750000 0.011835410259664060420026210352 0.004462667275220155715942382812 -0.001028634142130612893345498193 0 0 0 0 
2411333333.3333334923 0.181254222989082308670205634371 0.009695101529359817504882812500 0.004440094344317913055419921875 -0.001261897268705070018768310547 0 0 0 0 
2411500000.0000000000 0.180976688861846896072549384371 0.007590539753437042236328125000 0.004474319983273744583129882812 -0.001272499794140458106994628906 0 0 0 0 
2411666666.6666665077 0.180991813540458706954794365629 0.005427454598248004913330078125 0.004402715247124434384817792676 -0.001373581239022314982173300635 0 0 0 0 
2411833333.3333334923 0.180673465132713290115518134371 0.003305263118818401856663369287 0.004327600821852684020996093750 -0.001471006311476231055018759619 0 0 0 0 
2412000000.0000000000 0.180923402309417696853799384371 0.000936581636779010295867919922 0.004476850386708974838256835938 -0.001574972062371670982958149487 0 0 0 0 
2412166666.6666665077 0.181077495217323303222656250000 -0.001117188017815351919886923682 0.004476235248148441314697265625 -0.001692536869086324951769184644 0 0 0 0 
2412333333.3333334923 0.181058987975120488922442518742 -0.003468216862529515786411904443 0.004292658064514398574829101562 -0.001707470277324319102643657153 0 0 0 0 
2412500000.0000000000 0.181584134697914095779580634371 -0.005557610653340817365164472363 0.004293214995414018630981445312 -0.001942759146913886070251464844 0 0 0 0 
2412666666.6666665077 0.182122945785522488693075615629 -0.007788167800754308700561523438 0.004276745952665805816650390625 -0.002081679878756403923034667969 0 0 0 0 
2412833333.3333334923 0.182789817452430697342080634371 -0.009818050079047679901123046875 0.004394290503114461898803710938 -0.002090642461553215980529785156 0 0 0 0 
2413000000.0000000000 0.183371603488922091385049384371 -0.011952830478549000131627266796 0.004256478510797023773193359375 -0.002247020835056900978088378906 0 0 0 0 
2413166666.6666665077 0.184191092848777798751669365629 -0.013958619907498359680175781250 0.004382310435175895690917968750 -0.002436108887195587158203125000 0 0 0 0 
2413333333.3333334923 0.185102626681327792068643134371 -0.016083154827356338500976562500 0.004373269621282815933227539062 -0.002598129212856293158290243994 0 0 0 0 
2413500000.0000000000 0.185876831412315396407919365629 -0.017980974167585369455357735546 0.004296293482184410095214843750 -0.002863705623894929885864257812 0 0 0 0 
2413666666.6666665077 0.186887547373771695236044365629 -0.020076671615242961538294608204 0.004286060575395823392386152051 -0.003119197674095631079432822119 0 0 0 0 
2413833333.3333334923 0.187906563282012911697549384371 -0.021802766248583790170689766796 0.004284233320504426956176757812 -0.003250095527619123892543173682 0 0 0 0 
2414000000.0000000000 0.188767403364181490799111884371 -0.023652100935578349721888358204 0.004063637927174568176269531250 -0.003293917514383792877197265625 0 0 0 0 
2414166666.6666665077 0.190012618899345397949218750000 -0.025250419974327090871790701954 0.003949163481593132019042968750 -0.003656020853668450875523232568 0 0 0 0 
2414333333.3333334923 0.190749660134315490722656250000 -0.027161784470081329345703125000 0.003821092424914240837097167969 -0.003930807579308748245239257812 0 0 0 0 
2414500000.0000000000 0.192040741443634005447549384371 -0.028632475063204768789271170704 0.003767232410609722137451171875 -0.004161497112363576889038085938 0 0 0 0 
2414666666.6666665077 0.192995756864547701736611884371 -0.030004182830452919006347656250 0.003480286104604601860046386719 -0.004232925362884998321533203125 0 0 0 0 
2414833333.3333334923 0.194021865725517300704794365629 -0.031282871961593627929687500000 0.003267891239374876022338867188 -0.004406395368278026580810546875 0 0 0 0 
2415000000.0000000000 0.194928005337715204436932481258 -0.032583318650722496723215471093 0.003141722409054636955261230469 -0.004594583529978991422171308301 0 0 0 0 
2415166666.6666665077 0.195981442928314208984375000000 -0.033614549785852432250976562500 0.002728145802393556074855185400 -0.004627876915037631988525390625 0 0 0 0 
2415333333.3333334923 0.196930661797523498535156250000 -0.034591760486364371562917341407 0.002612676238641142845153808594 -0.004766188096255064010620117188 0 0 0 0 
2415500000.0000000000 0.197881221771240206619424384371 -0.035458579659461982036550153907 0.002356545068323612213134765625 -0.004863106179982423782348632812 0 0 0 0 
2415666666.6666665077 0.198778092861175509353799384371 -0.036358054727315902709960937500 0.002143727149814366860630654443 -0.004743791650980710983276367188 0 0 0 0 
2415833333.3333334923 0.199246317148208590408486884371 -0.037045732140541076660156250000 0.002035168465226889090297079932 -0.004854505416005849838256835938 0 0 0 0 
2416000000.0000000000 0.199854448437690707107705634371 -0.037808470427989959716796875000 0.001613565371371806101558066260 -0.004898300394415855407714843750 0 0 0 0 
2416166666.6666665077 0.200487077236175509353799384371 -0.038504693657159812236745466407 0.001421547727659345106837607275 -0.004891939461231231689453125000 0 0 0 0 
2416333333.3333334923 0.201023399829864501953125000000 -0.038869697600603096698801408593 0.001395899918861686966539692456 -0.004788728896528481569772051074 0 0 0 0 
2416500000.0000000000 0.201218813657760592361611884371 -0.039342436939477920532226562500 0.001073315856046975092646933447 -0.004927951842546463012695312500 0 0 0 0 
2416666666.6666665077 0.201524227857589693924111884371 -0.039817985147237777709960937500 0.000952435133513063192367553711 -0.004717183299362660321707441113 0 0 0 0 
2416833333.3333334923 0.201603978872299194335937500000 -0.039943113923072821880300153907 0.000855876016430556774139404297 -0.004765767138451337814331054688 0 0 0 0 
2417000000.0000000000 0.201542660593986511230468750000 -0.040364503860473632812500000000 0.000689391396008431911468505859 -0.004653911106288433074951171875 0 0 0 0 
2417166666.6666665077 0.201141387224197387695312500000 -0.040410824120044708251953125000 0.000471463397843763178021031512 -0.004569305106997489929199218750 0 0 0 0 
2417333333.3333334923 0.200918078422546386718750000000 -0.040493778884410858154296875000 0.000368384266039356589317321777 -0.004659021273255348205566406250 0 0 0 0 
2417500000.0000000000 0.200644850730895996093750000000 -0.040740139782428741455078125000 0.000181021416210569387108403339 -0.004422192461788654327392578125 0 0 0 0 
2417666666.6666665077 0.200184836983680697342080634371 -0.040757875889539718627929687500 0.000163777818670496290356236591 -0.004451447632163763046264648438 0 0 0 0 
2417833333.3333334923 0.199796512722969110686932481258 -0.040720630437135703350026716407 0.000006362308340612798929214478 -0.004529870580881834030151367188 0 0 0 0 
2418000000.0000000000 0.199134722352027893066406250000 -0.040633376687765121459960937500 -0.000109318025351967703230442186 -0.004569569602608680725097656250 0 0 0 0 
2418166666.6666665077 0.198433071374893188476562500000 -0.040876872837543487548828125000 -0.000217320965020917410224360333 -0.004622725769877433776855468750 0 0 0 0 
2418333333.3333334923 0.197572261095046997070312500000 -0.040841843932867050170898437500 -0.000441436422988772392272949219 -0.004487302619963884353637695312 0 0 0 0 
2418500000.0000000000 0.196669563651084899902343750000 -0.041070170700550079345703125000 -0.000587369955610483884811401367 -0.004427453503012657165527343750 0 0 0 0 
2418666666.6666665077 0.195920377969741793533486884371 -0.041211202740669250488281250000 -0.000753301428630948066711425781 -0.004276161082088947296142578125 0 0 0 0 
2418833333.3333334923 0.194749131798744201660156250000 -0.041467379778623580932617187500 -0.001004198333248496055603027344 -0.004149932414293289184570312500 0 0 0 0 
2419000000.0000000000 0.193615898489952087402343750000 -0.041947111487388610839843750000 -0.000958130171056836843490600586 -0.004087339155375958356375409863 0 0 0 0 
2419166666.6666665077 0.192655369639396695236044365629 -0.042342249304056167602539062500 -0.001206650282256305000902485425 -0.003920591901987791061401367188 0 0 0 0 
2419333333.3333334923 0.191284373402595492263955634371 -0.042969334870576858520507812500 -0.001301888725720345973968505859 -0.003796730656176805929896689307 0 0 0 0 
2419500000.0000000000 0.190108582377433804611044365629 -0.043385829776525497436523437500 -0.001276574679650366089464497144 -0.003593849949538708166835165869 0 0 0 0 
2419666666.6666665077 0.188574254512786892989950615629 -0.044388972222805023193359375000 -0.001227771979756653092027973706 -0.003336706897243856950047158350 0 0 0 0 
2419833333.3333334923 0.187268540263175992111044365629 -0.045151196420192718505859375000 -0.001287261024117470004438090747 -0.003313126973807812170741415869 0 0 0 0 
2420000000.0000000000 0.185965672135353088378906250000 -0.046016391366720199584960937500 -0.001236402196809649901149130713 -0.003008432919159532027003622900 0 0 0 0 
