# Version 1.00
#
freq[Hz];re:Trc1_S11;im:Trc1_S11;re:Trc2_S21;im:Trc2_S21;
2.400000000000000E+009;1.713759005069733E-001;4.002908244729042E-002;2.638089470565319E-003;1.684710965491831E-003;
2.400166666666667E+009;1.721197962760925E-001;3.962201252579689E-002;2.742128213867545E-003;1.557435258291662E-003;
2.400333333333334E+009;1.724771112203598E-001;3.905278444290161E-002;3.000186756253243E-003;1.628069789148867E-003;
2.400500000000000E+009;1.730135530233383E-001;3.840744495391846E-002;2.956741489470005E-003;1.480107894167304E-003;
2.400666666666667E+009;1.731912791728973E-001;3.773798421025276E-002;3.194423625245690E-003;1.263627666048706E-003;
2.400833333333334E+009;1.737209707498550E-001;3.723469376564026E-002;3.166706068441272E-003;1.226221909746528E-003;
2.401000000000000E+009;1.737858653068543E-001;3.650091588497162E-002;3.276247531175613E-003;8.803430246189237E-004;
2.401166666666667E+009;1.737275719642639E-001;3.571601584553719E-002;3.218172118067741E-003;8.359099156223238E-004;
2.401333333333334E+009;1.736667454242706E-001;3.520628064870834E-002;3.254140494391322E-003;5.256009171716869E-004;
2.401500000000000E+009;1.737892925739288E-001;3.435613587498665E-002;3.334288252517581E-003;3.962902992498130E-004;
2.401666666666667E+009;1.736400425434113E-001;3.387758880853653E-002;3.280469914898276E-003;2.140730648534372E-004;
2.401833333333334E+009;1.734120398759842E-001;3.299304842948914E-002;3.185508539900184E-003;1.634050713619217E-004;
2.402000000000000E+009;1.731272935867310E-001;3.233784809708595E-002;3.139887237921357E-003;-9.666550613474101E-005;
2.402166666666667E+009;1.729870438575745E-001;3.157377615571022E-002;3.202942200005055E-003;-1.713689416646957E-004;
2.402333333333334E+009;1.727282702922821E-001;3.072860650718212E-002;3.178128041327000E-003;-3.214307653252035E-004;
2.402500000000000E+009;1.726784259080887E-001;2.988389320671558E-002;2.864313311874867E-003;-4.059214261360467E-004;
2.402666666666667E+009;1.720782667398453E-001;2.890117466449738E-002;2.915154444053769E-003;-6.107699591666460E-004;
2.402833333333334E+009;1.717710793018341E-001;2.782075293362141E-002;2.721165306866169E-003;-6.414638482965529E-004;
2.403000000000000E+009;1.714807450771332E-001;2.688703685998917E-002;2.729405416175723E-003;-8.049464086070657E-004;
2.403166666666667E+009;1.709536612033844E-001;2.565477788448334E-002;2.550691133365035E-003;-8.724774816073477E-004;
2.403333333333334E+009;1.706537604331970E-001;2.446473948657513E-002;2.364450832828879E-003;-8.841836242936552E-004;
2.403500000000000E+009;1.702441424131393E-001;2.332753874361515E-002;2.400734927505255E-003;-7.825006032362580E-004;
2.403666666666667E+009;1.699504405260086E-001;2.186925895512104E-002;2.218856010586023E-003;-9.604749502614141E-004;
2.403833333333334E+009;1.697003394365311E-001;2.046012505888939E-002;2.156789414584637E-003;-9.105635690502822E-004;
2.404000000000000E+009;1.693447083234787E-001;1.900088787078857E-002;2.112387446686626E-003;-7.409260724671185E-004;
2.404166666666667E+009;1.688835173845291E-001;1.764596626162529E-002;1.869393745437264E-003;-9.109997190535069E-004;
2.404333333333334E+009;1.686105877161026E-001;1.616591215133667E-002;1.849541440606117E-003;-9.075994021259248E-004;
2.404500000000000E+009;1.682974845170975E-001;1.445769891142845E-002;2.031643874943256E-003;-7.271377253346145E-004;
2.404666666666667E+009;1.680957674980164E-001;1.279338728636503E-002;1.703984919004142E-003;-7.884551887400448E-004;
2.404833333333334E+009;1.678796410560608E-001;1.118658855557442E-002;1.811854075640440E-003;-7.268649060279131E-004;
2.405000000000000E+009;1.680591851472855E-001;9.453624486923218E-003;1.798433833755553E-003;-4.550820740405470E-004;
2.405166666666667E+009;1.677756905555725E-001;7.620303425937891E-003;1.781961182132363E-003;-5.745568778365850E-004;
2.405333333333334E+009;1.677119284868240E-001;5.688974168151617E-003;1.866707811132073E-003;-5.172297242097557E-004;
2.405500000000000E+009;1.676593571901321E-001;4.022918175905943E-003;1.970887882634997E-003;-5.196705460548401E-004;
2.405666666666667E+009;1.676608622074127E-001;2.081459853798151E-003;1.995900878682733E-003;-3.258350770920515E-004;
2.405833333333334E+009;1.675679683685303E-001;3.020267176907510E-004;1.967188669368625E-003;-5.509418551810086E-004;
2.406000000000000E+009;1.677399575710297E-001;-1.633107545785606E-003;2.007518662139773E-003;-5.299980402924120E-004;
2.406166666666667E+009;1.675784587860107E-001;-3.309838939458132E-003;2.039640676230192E-003;-5.459583480842412E-004;
2.406333333333334E+009;1.677070260047913E-001;-5.224596709012985E-003;2.153035253286362E-003;-6.014356622472405E-004;
2.406500000000000E+009;1.677085608243942E-001;-7.074654102325440E-003;2.098854165524244E-003;-5.233475239947438E-004;
2.406666666666667E+009;1.675511598587036E-001;-8.685702458024025E-003;2.395783318206668E-003;-5.126926698721945E-004;
2.406833333333334E+009;1.677155941724777E-001;-1.042083185166121E-002;2.393949311226606E-003;-6.205218960531056E-004;
2.407000000000000E+009;1.678770631551743E-001;-1.212217193096876E-002;2.362186787649989E-003;-6.595174199901521E-004;
2.407166666666667E+009;1.679908782243729E-001;-1.357504539191723E-002;2.387000015005469E-003;-7.297743577510119E-004;
2.407333333333334E+009;1.678250432014465E-001;-1.515787094831467E-002;2.555685583502054E-003;-7.010934641584754E-004;
2.407500000000000E+009;1.680778861045837E-001;-1.635725423693657E-002;2.705916063860059E-003;-8.497936651110649E-004;
2.407666666666667E+009;1.682642102241516E-001;-1.763014122843742E-002;2.810109872370958E-003;-1.019733957946301E-003;
2.407833333333334E+009;1.682492196559906E-001;-1.891732960939407E-002;2.874749945476651E-003;-1.144066220149398E-003;
2.408000000000000E+009;1.685341447591782E-001;-2.011143602430821E-002;2.876398619264364E-003;-1.278827083297074E-003;
2.408166666666667E+009;1.686691492795944E-001;-2.099809236824513E-002;2.856742125004530E-003;-1.444231136702001E-003;
2.408333333333334E+009;1.690249443054199E-001;-2.193749882280827E-002;2.855230355635285E-003;-1.639209222048521E-003;
2.408500000000000E+009;1.692927181720734E-001;-2.279129438102245E-002;2.839818131178618E-003;-1.775020849891007E-003;
2.408666666666667E+009;1.695807725191116E-001;-2.372652664780617E-002;2.691745990887284E-003;-1.953481696546078E-003;
2.408833333333334E+009;1.697477400302887E-001;-2.452928572893143E-002;2.883221954107285E-003;-2.204622374847531E-003;
2.409000000000000E+009;1.702145636081696E-001;-2.521880716085434E-002;2.696749288588762E-003;-2.348596695810556E-003;
2.409166666666667E+009;1.705111116170883E-001;-2.599009126424789E-002;2.422469435259700E-003;-2.301159081980586E-003;
2.409333333333334E+009;1.710176616907120E-001;-2.666585519909859E-002;2.399309538304806E-003;-2.540966728702188E-003;
2.409500000000000E+009;1.711702048778534E-001;-2.763023041188717E-002;2.323928056284785E-003;-2.593804849311709E-003;
2.409666666666667E+009;1.715510338544846E-001;-2.824827656149864E-002;2.251188270747662E-003;-2.761250361800194E-003;
2.409833333333334E+009;1.717906147241592E-001;-2.879364416003227E-002;2.202645642682910E-003;-2.760626375675201E-003;
2.410000000000000E+009;1.719129383563995E-001;-2.964274212718010E-002;2.219562651589513E-003;-2.930092392489314E-003;
2.410166666666667E+009;1.720346510410309E-001;-3.024584427475929E-002;1.993700396269560E-003;-2.815963700413704E-003;
2.410333333333334E+009;1.720593720674515E-001;-3.093710727989674E-002;1.915305154398084E-003;-3.043271135538817E-003;
2.410500000000000E+009;1.721237748861313E-001;-3.157282620668411E-002;1.781089929863811E-003;-3.157381666824222E-003;
2.410666666666667E+009;1.718465685844421E-001;-3.236914053559303E-002;1.703818095847964E-003;-3.273633774369955E-003;
2.410833333333334E+009;1.719603538513184E-001;-3.291021287441254E-002;1.605670549906790E-003;-3.310383297502995E-003;
2.411000000000000E+009;1.715499311685562E-001;-3.358052670955658E-002;1.410004333592951E-003;-3.283427096903324E-003;
2.411166666666667E+009;1.712484359741211E-001;-3.422116488218308E-002;1.310554565861821E-003;-3.518680576235056E-003;
2.411333333333334E+009;1.711144596338272E-001;-3.478589653968811E-002;1.295926631428301E-003;-3.564416198059917E-003;
2.411500000000000E+009;1.705162674188614E-001;-3.543057292699814E-002;1.305699930526316E-003;-3.500178456306458E-003;
2.411666666666667E+009;1.704273968935013E-001;-3.602381050586700E-002;1.095575396902859E-003;-3.550769295543432E-003;
2.411833333333334E+009;1.699171364307404E-001;-3.668576106429100E-002;1.036572502925992E-003;-3.654082072898746E-003;
2.412000000000000E+009;1.695707589387894E-001;-3.740878403186798E-002;9.306208812631667E-004;-3.858287818729878E-003;
2.412166666666667E+009;1.690401583909988E-001;-3.816806152462959E-002;7.054642192088068E-004;-3.802448976784945E-003;
2.412333333333334E+009;1.685954630374908E-001;-3.878137096762657E-002;6.268164725042880E-004;-3.958697896450758E-003;
2.412500000000000E+009;1.678396314382553E-001;-3.958319500088692E-002;4.106503911316395E-004;-3.890633815899491E-003;
2.412666666666667E+009;1.673035919666290E-001;-4.054192453622818E-002;2.513564541004598E-004;-4.017952363938093E-003;
2.412833333333334E+009;1.667145788669586E-001;-4.155530035495758E-002;2.689655229914933E-004;-4.086795728653669E-003;
2.413000000000000E+009;1.661261618137360E-001;-4.238280653953552E-002;-2.936317468993366E-005;-4.120662808418274E-003;
2.413166666666667E+009;1.653465330600739E-001;-4.338616505265236E-002;-1.069029967766255E-004;-4.214417189359665E-003;
2.413333333333334E+009;1.645515561103821E-001;-4.448230564594269E-002;-2.462177362758666E-004;-4.099023994058371E-003;
2.413500000000000E+009;1.639027893543243E-001;-4.548626393079758E-002;-4.607299342751503E-004;-4.118069075047970E-003;
2.413666666666667E+009;1.632407903671265E-001;-4.664711654186249E-002;-6.473726243712008E-004;-4.046464804559946E-003;
2.413833333333334E+009;1.625375151634216E-001;-4.755967482924461E-002;-8.743547368794680E-004;-3.932297695428133E-003;
2.414000000000000E+009;1.617770045995712E-001;-4.868485406041145E-002;-1.055633183568716E-003;-4.036955069750547E-003;
2.414166666666667E+009;1.611802577972412E-001;-4.969295486807823E-002;-1.019472372718155E-003;-3.764346241950989E-003;
2.414333333333334E+009;1.605666726827622E-001;-5.102303996682167E-002;-1.238423399627209E-003;-4.151683300733566E-003;
2.414500000000000E+009;1.602837741374970E-001;-5.195562168955803E-002;-1.970948418602347E-003;-3.973342478275299E-003;
2.414666666666667E+009;1.596103012561798E-001;-5.311648920178413E-002;-2.059262478724122E-003;-3.736329264938831E-003;
2.414833333333334E+009;1.591449677944183E-001;-5.452927574515343E-002;-1.984869828447700E-003;-3.890591440722346E-003;
2.415000000000000E+009;1.590356975793839E-001;-5.570629611611366E-002;-2.247627358883619E-003;-4.038727842271328E-003;
2.415166666666667E+009;1.586140841245651E-001;-5.717790126800537E-002;-2.250795718282461E-003;-3.824145765975118E-003;
2.415333333333334E+009;1.584624946117401E-001;-5.840333923697472E-002;-2.725955564528704E-003;-3.654207801446319E-003;
2.415500000000000E+009;1.582185029983521E-001;-5.968188866972923E-002;-2.998219104483724E-003;-3.114210208877921E-003;
2.415666666666667E+009;1.579031497240067E-001;-6.111004948616028E-002;-3.000156255438924E-003;-3.268990432843566E-003;
2.415833333333334E+009;1.578048318624497E-001;-6.260445713996887E-002;-3.116921754553914E-003;-2.900777384638786E-003;
2.416000000000000E+009;1.573210656642914E-001;-6.423364579677582E-002;-3.162580076605082E-003;-2.640484599396586E-003;
2.416166666666667E+009;1.575403064489365E-001;-6.560564041137695E-002;-3.274595132097602E-003;-2.451146719977260E-003;
2.416333333333334E+009;1.572667211294174E-001;-6.700812280178070E-002;-3.317694878205657E-003;-2.224670490249991E-003;
2.416500000000000E+009;1.570821702480316E-001;-6.853105127811432E-002;-3.288566367700696E-003;-1.884136116132140E-003;
2.416666666666667E+009;1.567811220884323E-001;-6.965310871601105E-002;-3.126529511064291E-003;-1.725747599266470E-003;
2.416833333333334E+009;1.567409187555313E-001;-7.134582847356796E-002;-3.234106581658125E-003;-1.655968721024692E-003;
2.417000000000000E+009;1.564429551362991E-001;-7.259713858366013E-002;-3.220217302441597E-003;-1.397057436406612E-003;
2.417166666666667E+009;1.562737822532654E-001;-7.379657775163651E-002;-3.099008928984404E-003;-1.366270356811583E-003;
2.417333333333334E+009;1.560751795768738E-001;-7.489812374114990E-002;-3.054328495636582E-003;-1.195796881802380E-003;
2.417500000000000E+009;1.559556126594544E-001;-7.629286497831345E-002;-2.976065501570702E-003;-1.000978169031441E-003;
2.417666666666667E+009;1.559225767850876E-001;-7.717464119195938E-002;-2.886609407141805E-003;-9.698834619484842E-004;
2.417833333333334E+009;1.558552086353302E-001;-7.809842377901077E-002;-2.855544909834862E-003;-8.451243629679084E-004;
2.418000000000000E+009;1.556204706430435E-001;-7.920674234628677E-002;-2.712314482778311E-003;-7.775893318466842E-004;
2.418166666666667E+009;1.556641608476639E-001;-7.997641712427139E-002;-2.549423137679696E-003;-8.608896750956774E-004;
2.418333333333334E+009;1.559741348028183E-001;-8.084962517023087E-002;-2.651906106621027E-003;-6.853928789496422E-004;
2.418500000000000E+009;1.556938737630844E-001;-8.162324130535126E-002;-2.656577387824655E-003;-6.545611540786922E-004;
2.418666666666667E+009;1.557281762361527E-001;-8.241332322359085E-002;-2.629994414746761E-003;-7.383486372418702E-004;
2.418833333333334E+009;1.556131839752197E-001;-8.309669792652130E-002;-2.516400068998337E-003;-6.839854759164155E-004;
2.419000000000000E+009;1.554441601037979E-001;-8.376045525074005E-002;-2.553361235186458E-003;-6.383749423548579E-004;
2.419166666666667E+009;1.553032100200653E-001;-8.430226892232895E-002;-2.484128344804049E-003;-6.088176160119474E-004;
2.419333333333334E+009;1.551612764596939E-001;-8.472924679517746E-002;-2.513043582439423E-003;-6.442727753892541E-004;
2.419500000000000E+009;1.549444496631622E-001;-8.548811823129654E-002;-2.574557438492775E-003;-6.306516006588936E-004;
2.419666666666667E+009;1.548560261726379E-001;-8.573114871978760E-002;-2.448526211082935E-003;-5.379051435738802E-004;
2.419833333333334E+009;1.546164751052856E-001;-8.630260825157166E-002;-2.404181985184550E-003;-3.860408614855260E-004;
2.420000000000000E+009;1.544408053159714E-001;-8.662827312946320E-002;-2.416750648990274E-003;-4.134588816668838E-004;
2.420166666666667E+009;1.540539264678955E-001;-8.707009255886078E-002;-2.486507408320904E-003;-3.142882487736642E-004;
2.420333333333334E+009;1.539089977741242E-001;-8.734702318906784E-002;-2.402347512543201E-003;-3.759112441912293E-004;
2.420500000000000E+009;1.537217795848846E-001;-8.764086663722992E-002;-2.599249826744199E-003;-3.750489850062877E-004;
2.420666666666667E+009;1.534064263105393E-001;-8.778387308120728E-002;-2.481651725247502E-003;-2.798656350933015E-004;
2.420833333333334E+009;1.528567373752594E-001;-8.832953125238419E-002;-2.644021995365620E-003;-2.072916540782899E-004;
2.421000000000000E+009;1.524766385555267E-001;-8.861485868692398E-002;-2.612450392916799E-003;-3.901010786648840E-004;
2.421166666666667E+009;1.521265804767609E-001;-8.911737054586411E-002;-2.545991679653525E-003;-1.779710146365687E-004;
2.421333333333334E+009;1.515758186578751E-001;-8.949298411607742E-002;-2.539577195420861E-003;-8.782570512266830E-005;
2.421500000000000E+009;1.508594453334808E-001;-8.991452306509018E-002;-2.658192068338394E-003;-1.238202821696177E-004;
2.421666666666667E+009;1.506269723176956E-001;-9.033624082803726E-002;-2.622643951326609E-003;-3.905541598214768E-005;
2.421833333333334E+009;1.498547494411469E-001;-9.080769121646881E-002;-2.485710429027677E-003;1.443763467250392E-004;
2.422000000000000E+009;1.491054296493530E-001;-9.147135168313980E-002;-2.567172283306718E-003;1.851624256232753E-004;
2.422166666666667E+009;1.483350843191147E-001;-9.217260777950287E-002;-2.562194131314755E-003;2.196813002228737E-004;
2.422333333333334E+009;1.476242691278458E-001;-9.256815910339356E-002;-2.387938322499394E-003;4.061351355630904E-004;
2.422500000000000E+009;1.468455791473389E-001;-9.307056665420532E-002;-2.443436533212662E-003;3.790263726841658E-004;
2.422666666666667E+009;1.457717567682266E-001;-9.397126734256744E-002;-2.449837978929281E-003;3.233216993976384E-004;
2.422833333333334E+009;1.450696736574173E-001;-9.472499787807465E-002;-2.322181127965450E-003;4.608252493198961E-004;
2.423000000000000E+009;1.442228257656097E-001;-9.539115428924561E-002;-2.403398044407368E-003;3.989387478213757E-004;
2.423166666666667E+009;1.433233171701431E-001;-9.631453454494476E-002;-2.395364921540022E-003;3.606040845625103E-004;
2.423333333333334E+009;1.425665616989136E-001;-9.692420810461044E-002;-2.490286715328693E-003;3.544124483596534E-004;
2.423500000000000E+009;1.415959149599075E-001;-9.802536666393280E-002;-2.484833588823676E-003;3.614133456721902E-004;
2.423666666666667E+009;1.404770612716675E-001;-9.903939813375473E-002;-2.736135385930538E-003;4.100106016267091E-004;
2.423833333333334E+009;1.397480219602585E-001;-9.983426332473755E-002;-2.599336905404925E-003;4.520527436397970E-004;
2.424000000000000E+009;1.387158930301666E-001;-1.007792875170708E-001;-2.764242235571146E-003;5.986767937429249E-004;
2.424166666666667E+009;1.378632932901382E-001;-1.017920523881912E-001;-2.893046941608191E-003;6.499438895843923E-004;
2.424333333333334E+009;1.370135843753815E-001;-1.028122454881668E-001;-2.777952700853348E-003;7.795397541485727E-004;
2.424500000000000E+009;1.361833065748215E-001;-1.039653569459915E-001;-2.925408305600286E-003;1.172115444205701E-003;
2.424666666666667E+009;1.355276256799698E-001;-1.047059968113899E-001;-2.821989590302110E-003;1.115304650738835E-003;
2.424833333333334E+009;1.347026824951172E-001;-1.058914214372635E-001;-2.848281525075436E-003;1.357710454612970E-003;
2.425000000000000E+009;1.339755058288574E-001;-1.070825085043907E-001;-2.766195451840758E-003;1.507461536675692E-003;
2.425166666666667E+009;1.332414001226425E-001;-1.083595007658005E-001;-2.632159506902099E-003;1.454816199839115E-003;
2.425333333333334E+009;1.327737271785736E-001;-1.094604507088661E-001;-2.579262014478445E-003;1.788521069101989E-003;
2.425500000000000E+009;1.320937871932983E-001;-1.106349080801010E-001;-2.502144547179341E-003;1.732764067128301E-003;
2.425666666666667E+009;1.315096467733383E-001;-1.118983402848244E-001;-2.174722030758858E-003;1.741108135320246E-003;
2.425833333333334E+009;1.310779303312302E-001;-1.132923066616058E-001;-2.267513424158096E-003;1.970470882952213E-003;
2.426000000000000E+009;1.304788738489151E-001;-1.144790872931480E-001;-2.189021790400147E-003;1.967295538634062E-003;
2.426166666666667E+009;1.302985250949860E-001;-1.156068071722984E-001;-2.066378248855472E-003;1.904575270600617E-003;
2.426333333333334E+009;1.298007965087891E-001;-1.167190372943878E-001;-1.899730297736824E-003;2.019173698499799E-003;
2.426500000000000E+009;1.295187026262283E-001;-1.178697794675827E-001;-1.762488856911659E-003;2.007839968428016E-003;
2.426666666666667E+009;1.291364431381226E-001;-1.188228502869606E-001;-1.821578131057322E-003;2.107529435306788E-003;
2.426833333333334E+009;1.288861781358719E-001;-1.200338006019592E-001;-1.772718271240592E-003;1.987094059586525E-003;
2.427000000000000E+009;1.284932643175125E-001;-1.212311014533043E-001;-1.702089328318834E-003;1.976865576580167E-003;
2.427166666666667E+009;1.283473670482636E-001;-1.219287365674973E-001;-1.588178449310362E-003;2.092829905450344E-003;
2.427333333333334E+009;1.280003339052200E-001;-1.229034364223480E-001;-1.645298441872001E-003;2.116505522280932E-003;
2.427500000000000E+009;1.280067116022110E-001;-1.238137409090996E-001;-1.677828608080745E-003;2.208023564890027E-003;
2.427666666666667E+009;1.278699040412903E-001;-1.246907263994217E-001;-1.604994758963585E-003;2.095993375405669E-003;
