# Version 1.00
#
freq[Hz];re:Trc1_S11;im:Trc1_S11;re:Trc2_S21;im:Trc2_S21;
2.400000000000000E+009;1.712728738784790E-001;4.005494341254234E-002;2.708222949877381E-003;1.689961645752192E-003;
2.400166666666667E+009;1.720481365919113E-001;3.968615084886551E-002;2.836915198713541E-003;1.728140399791300E-003;
2.400333333333334E+009;1.724728345870972E-001;3.904869779944420E-002;2.955012489110231E-003;1.476574805565178E-003;
2.400500000000000E+009;1.729423850774765E-001;3.833398967981339E-002;3.051999257877469E-003;1.417896593920887E-003;
2.400666666666667E+009;1.732481420040131E-001;3.777513653039932E-002;3.213046817108989E-003;1.290553016588092E-003;
2.400833333333334E+009;1.736294627189636E-001;3.731751441955566E-002;3.345566801726818E-003;1.143508474342525E-003;
2.401000000000000E+009;1.737985461950302E-001;3.659805282950401E-002;3.330504521727562E-003;1.047702739015222E-003;
2.401166666666667E+009;1.737627834081650E-001;3.599284589290619E-002;3.333643544465303E-003;8.645385387353599E-004;
2.401333333333334E+009;1.737991124391556E-001;3.525112941861153E-002;3.408429678529501E-003;5.462973495014012E-004;
2.401500000000000E+009;1.740443706512451E-001;3.476426377892494E-002;3.482010681182146E-003;2.576604892965406E-004;
2.401666666666667E+009;1.737041324377060E-001;3.406176716089249E-002;3.512611147016287E-003;3.538052842486650E-004;
2.401833333333334E+009;1.736771315336227E-001;3.320965170860291E-002;3.306314582005143E-003;-6.017324994900264E-005;
2.402000000000000E+009;1.733735799789429E-001;3.254762664437294E-002;3.151563694700599E-003;-1.787355868145824E-004;
2.402166666666667E+009;1.731833666563034E-001;3.149675577878952E-002;3.240508260205388E-003;-2.442435652483255E-004;
2.402333333333334E+009;1.727305352687836E-001;3.088532015681267E-002;3.013781271874905E-003;-4.510882426984608E-004;
2.402500000000000E+009;1.727226823568344E-001;2.999014966189861E-002;2.848885022103787E-003;-4.355463606771082E-004;
2.402666666666667E+009;1.722334325313568E-001;2.902230247855187E-002;2.833946142345667E-003;-6.133365677669644E-004;
2.402833333333334E+009;1.718477606773377E-001;2.794145978987217E-002;2.710426459088922E-003;-5.946823512203991E-004;
2.403000000000000E+009;1.713688373565674E-001;2.675485052168369E-002;2.560703549534082E-003;-7.512799929827452E-004;
2.403166666666667E+009;1.711982488632202E-001;2.573911100625992E-002;2.661587204784155E-003;-8.939162944443524E-004;
2.403333333333334E+009;1.708556562662125E-001;2.466280199587345E-002;2.376506570726633E-003;-7.913484587334096E-004;
2.403500000000000E+009;1.703367531299591E-001;2.327012084424496E-002;2.299246843904257E-003;-7.721959846094251E-004;
2.403666666666667E+009;1.701012253761292E-001;2.183328568935394E-002;2.320639789104462E-003;-8.812765590846539E-004;
2.403833333333334E+009;1.696647405624390E-001;2.058173343539238E-002;2.232230501249433E-003;-9.201997308991849E-004;
2.404000000000000E+009;1.694000214338303E-001;1.912876032292843E-002;2.109559951350093E-003;-9.574005962349474E-004;
2.404166666666667E+009;1.688395440578461E-001;1.755590550601482E-002;1.880405354313552E-003;-7.680615526624024E-004;
2.404333333333334E+009;1.685740500688553E-001;1.613143645226955E-002;1.859630574472249E-003;-7.024792721495032E-004;
2.404500000000000E+009;1.684114634990692E-001;1.444177608937025E-002;1.954486127942801E-003;-7.272009388543665E-004;
2.404666666666667E+009;1.680098921060562E-001;1.296535786241293E-002;1.848408021032810E-003;-6.984967039898038E-004;
2.404833333333334E+009;1.679335534572601E-001;1.124067511409521E-002;1.740687526762486E-003;-6.295601488091052E-004;
2.405000000000000E+009;1.678803116083145E-001;9.342904202640057E-003;1.875933376140893E-003;-4.704972670879215E-004;
2.405166666666667E+009;1.676764637231827E-001;7.541480474174023E-003;1.888013677671552E-003;-5.143208545632660E-004;
2.405333333333334E+009;1.676539629697800E-001;5.776947364211083E-003;1.785073545761406E-003;-5.708645330742002E-004;
2.405500000000000E+009;1.676993519067764E-001;3.991995472460985E-003;1.918684574775398E-003;-3.736765065696091E-004;
2.405666666666667E+009;1.676675081253052E-001;2.106536878272891E-003;2.083804924041033E-003;-5.124211311340332E-004;
2.405833333333334E+009;1.673369258642197E-001;3.769228933379054E-004;2.117546508088708E-003;-4.224793519824743E-004;
2.406000000000000E+009;1.675967127084732E-001;-1.576355309225619E-003;2.148075727745891E-003;-5.314121954143047E-004;
2.406166666666667E+009;1.676143705844879E-001;-3.395140171051025E-003;2.176486188545823E-003;-5.468898452818394E-004;
2.406333333333334E+009;1.677273958921433E-001;-5.098481662571430E-003;2.218274399638176E-003;-5.849382141605020E-004;
2.406500000000000E+009;1.676583141088486E-001;-6.933171767741442E-003;2.234411658719182E-003;-4.004700458608568E-004;
2.406666666666667E+009;1.675931364297867E-001;-8.595031686127186E-003;2.438763622194529E-003;-6.777336820960045E-004;
2.406833333333334E+009;1.678873896598816E-001;-1.031990628689528E-002;2.254464430734515E-003;-4.923020605929196E-004;
2.407000000000000E+009;1.677651554346085E-001;-1.192750781774521E-002;2.400469500571489E-003;-5.668979138135910E-004;
2.407166666666667E+009;1.679889410734177E-001;-1.353657897561789E-002;2.278046216815710E-003;-7.511852891184390E-004;
2.407333333333334E+009;1.680868119001389E-001;-1.509593240916729E-002;2.574042649939656E-003;-8.095981902442873E-004;
2.407500000000000E+009;1.680998802185059E-001;-1.633805409073830E-002;2.652738709002733E-003;-8.575761457905173E-004;
2.407666666666667E+009;1.681998521089554E-001;-1.757688634097576E-002;2.603900851681829E-003;-9.941817261278629E-004;
2.407833333333334E+009;1.682364940643311E-001;-1.894686184823513E-002;2.789661986753345E-003;-1.127972267568111E-003;
2.408000000000000E+009;1.683123558759689E-001;-2.005110681056976E-002;2.974436618387699E-003;-1.319971051998437E-003;
2.408166666666667E+009;1.686428785324097E-001;-2.085854113101959E-002;2.881964202970266E-003;-1.346916309557855E-003;
2.408333333333334E+009;1.690715253353119E-001;-2.181612141430378E-002;2.774225780740380E-003;-1.693523721769452E-003;
2.408500000000000E+009;1.690955758094788E-001;-2.282983809709549E-002;2.928175730630755E-003;-1.816944801248610E-003;
2.408666666666667E+009;1.695837080478668E-001;-2.366861514747143E-002;2.669919747859240E-003;-2.008480019867420E-003;
2.408833333333334E+009;1.697500646114349E-001;-2.442948706448078E-002;2.817270345985889E-003;-1.983652357012034E-003;
2.409000000000000E+009;1.701733469963074E-001;-2.520939894020557E-002;2.680819481611252E-003;-2.130422042682767E-003;
2.409166666666667E+009;1.705484688282013E-001;-2.601240575313568E-002;2.588525414466858E-003;-2.367827109992504E-003;
2.409333333333334E+009;1.709981858730316E-001;-2.666379883885384E-002;2.594232792034745E-003;-2.564643742516637E-003;
2.409500000000000E+009;1.712352186441422E-001;-2.758666872978210E-002;2.405119128525257E-003;-2.654814394190908E-003;
2.409666666666667E+009;1.714063584804535E-001;-2.809823676943779E-002;2.236922271549702E-003;-2.768474863842130E-003;
2.409833333333334E+009;1.715379953384399E-001;-2.873826771974564E-002;2.232453553006053E-003;-2.743749413639307E-003;
2.410000000000000E+009;1.718792319297791E-001;-2.948328293859959E-002;2.241583308205009E-003;-2.800739835947752E-003;
2.410166666666667E+009;1.720598489046097E-001;-3.020741790533066E-002;1.967843156307936E-003;-3.003927413374186E-003;
2.410333333333334E+009;1.721779555082321E-001;-3.074782527983189E-002;1.879894523881376E-003;-2.933159470558167E-003;
2.410500000000000E+009;1.720678359270096E-001;-3.142807260155678E-002;1.940307207405567E-003;-3.114524530246854E-003;
2.410666666666667E+009;1.718852370977402E-001;-3.234267979860306E-002;1.747986767441034E-003;-3.186112269759178E-003;
2.410833333333334E+009;1.718217134475708E-001;-3.287847712635994E-002;1.661889371462166E-003;-3.258568234741688E-003;
2.411000000000000E+009;1.715981066226959E-001;-3.359850868582726E-002;1.465559238567948E-003;-3.171047428622842E-003;
2.411166666666667E+009;1.713329553604126E-001;-3.415646031498909E-002;1.391961821354926E-003;-3.408175660297275E-003;
2.411333333333334E+009;1.710798591375351E-001;-3.478648886084557E-002;1.308135804720223E-003;-3.331408370286226E-003;
2.411500000000000E+009;1.705414205789566E-001;-3.553126752376556E-002;1.372337690554559E-003;-3.605475183576345E-003;
2.411666666666667E+009;1.706079095602036E-001;-3.607328236103058E-002;1.260144403204322E-003;-3.678646171465516E-003;
2.411833333333334E+009;1.697589159011841E-001;-3.657136112451553E-002;1.119491178542376E-003;-3.811785485595465E-003;
2.412000000000000E+009;1.694453656673431E-001;-3.750275447964668E-002;8.333105361089110E-004;-3.769132075831294E-003;
2.412166666666667E+009;1.689358651638031E-001;-3.818848356604576E-002;7.747968775220215E-004;-3.712232224643230E-003;
2.412333333333334E+009;1.686387360095978E-001;-3.884850814938545E-002;6.232934538275003E-004;-3.848365042358637E-003;
2.412500000000000E+009;1.679400950670242E-001;-3.956309333443642E-002;4.800051974598318E-004;-3.945911303162575E-003;
2.412666666666667E+009;1.673218905925751E-001;-4.073794558644295E-002;4.537991480901837E-004;-3.979576285928488E-003;
2.412833333333334E+009;1.666846871376038E-001;-4.159389808773994E-002;2.655392745509744E-004;-4.059280734509230E-003;
2.413000000000000E+009;1.660052984952927E-001;-4.230546578764916E-002;-2.724073237914126E-005;-3.802841529250145E-003;
2.413166666666667E+009;1.653321832418442E-001;-4.340862482786179E-002;-1.901267678476870E-004;-4.100460559129715E-003;
2.413333333333334E+009;1.645812839269638E-001;-4.442707449197769E-002;-2.228109369752929E-004;-4.220121074467897E-003;
2.413500000000000E+009;1.638965159654617E-001;-4.559441283345223E-002;-5.017217481508851E-004;-4.073041491210461E-003;
2.413666666666667E+009;1.632270514965057E-001;-4.652230069041252E-002;-6.139452452771366E-004;-4.284955561161041E-003;
2.413833333333334E+009;1.623648107051849E-001;-4.757928848266602E-002;-6.646518595516682E-004;-4.170485306531191E-003;
2.414000000000000E+009;1.616922616958618E-001;-4.877991601824760E-002;-9.851611685007811E-004;-4.183391574770212E-003;
2.414166666666667E+009;1.610475182533264E-001;-4.980689287185669E-002;-1.280853175558150E-003;-4.154971335083246E-003;
2.414333333333334E+009;1.605706810951233E-001;-5.087988823652268E-002;-1.402859459631145E-003;-4.097350873053074E-003;
2.414500000000000E+009;1.601599901914597E-001;-5.214373767375946E-002;-1.613343716599047E-003;-3.990062046796084E-003;
2.414666666666667E+009;1.596171855926514E-001;-5.323259532451630E-002;-1.877456903457642E-003;-4.007294308394194E-003;
2.414833333333334E+009;1.591778993606567E-001;-5.447401478886604E-002;-2.028368180617690E-003;-3.831718815490603E-003;
2.415000000000000E+009;1.588226854801178E-001;-5.564733967185020E-002;-2.117467345669866E-003;-3.781513310968876E-003;
2.415166666666667E+009;1.584143191576004E-001;-5.698626860976219E-002;-2.460636431351304E-003;-3.785771084949374E-003;
2.415333333333334E+009;1.583883017301559E-001;-5.845385789871216E-002;-2.547301352024078E-003;-3.558453172445297E-003;
2.415500000000000E+009;1.580963283777237E-001;-5.967191606760025E-002;-2.832602011039853E-003;-3.402397967875004E-003;
2.415666666666667E+009;1.579240858554840E-001;-6.100640073418617E-002;-2.955591306090355E-003;-2.966223983094096E-003;
2.415833333333334E+009;1.577380448579788E-001;-6.262744963169098E-002;-3.079444635659456E-003;-2.957875840365887E-003;
2.416000000000000E+009;1.574556976556778E-001;-6.404174864292145E-002;-3.081168979406357E-003;-2.811616053804755E-003;
2.416166666666667E+009;1.573542058467865E-001;-6.545864045619965E-002;-3.318840172141790E-003;-2.326721791177988E-003;
2.416333333333334E+009;1.573326140642166E-001;-6.677022576332092E-002;-3.205947345122695E-003;-2.261765068396926E-003;
2.416500000000000E+009;1.571149230003357E-001;-6.836181879043579E-002;-3.122567897662520E-003;-2.144724130630493E-003;
2.416666666666667E+009;1.568258553743362E-001;-6.967913359403610E-002;-3.240301972255111E-003;-1.890269923023880E-003;
2.416833333333334E+009;1.567640453577042E-001;-7.109032571315765E-002;-3.099629422649741E-003;-1.552695524878800E-003;
2.417000000000000E+009;1.564417779445648E-001;-7.246528565883637E-002;-3.245616098865867E-003;-1.455444376915693E-003;
2.417166666666667E+009;1.564193814992905E-001;-7.367709279060364E-002;-3.141226479783654E-003;-1.303113764151931E-003;
2.417333333333334E+009;1.562847644090653E-001;-7.489700615406036E-002;-3.084932221099734E-003;-1.174250384792686E-003;
2.417500000000000E+009;1.560157537460327E-001;-7.601879537105560E-002;-2.905366010963917E-003;-1.055933302268386E-003;
2.417666666666667E+009;1.561230421066284E-001;-7.704728096723557E-002;-2.855963073670864E-003;-8.638066356070340E-004;
2.417833333333334E+009;1.560304313898087E-001;-7.810842245817184E-002;-2.815383486449719E-003;-9.274050826206803E-004;
2.418000000000000E+009;1.558514833450317E-001;-7.904840260744095E-002;-2.739462768658996E-003;-9.358606766909361E-004;
2.418166666666667E+009;1.557648777961731E-001;-7.978607714176178E-002;-2.748619066551328E-003;-8.160289144143462E-004;
2.418333333333334E+009;1.559664607048035E-001;-8.087918907403946E-002;-2.595219761133194E-003;-7.754424586892128E-004;
2.418500000000000E+009;1.558980643749237E-001;-8.153714239597321E-002;-2.645478583872318E-003;-7.014309521764517E-004;
2.418666666666667E+009;1.558682769536972E-001;-8.233018219470978E-002;-2.721138298511505E-003;-6.305573042482138E-004;
2.418833333333334E+009;1.557022333145142E-001;-8.307302743196487E-002;-2.551740035414696E-003;-6.057161954231560E-004;
2.419000000000000E+009;1.555477529764175E-001;-8.372106403112412E-002;-2.506884513422847E-003;-5.495087825693190E-004;
2.419166666666667E+009;1.555100977420807E-001;-8.432939648628235E-002;-2.324544824659824E-003;-6.475544068962336E-004;
2.419333333333334E+009;1.552709341049194E-001;-8.473307639360428E-002;-2.480793511494994E-003;-6.182010401971638E-004;
2.419500000000000E+009;1.551066488027573E-001;-8.537562936544418E-002;-2.496007364243269E-003;-5.852250033058226E-004;
2.419666666666667E+009;1.549117863178253E-001;-8.580952882766724E-002;-2.489358419552445E-003;-6.189971463754773E-004;
2.419833333333334E+009;1.546059697866440E-001;-8.617489039897919E-002;-2.497467678040266E-003;-5.479059182107449E-004;
2.420000000000000E+009;1.545642018318176E-001;-8.669734746217728E-002;-2.495294436812401E-003;-3.534016141202301E-004;
2.420166666666667E+009;1.542037427425385E-001;-8.694341033697128E-002;-2.467224374413490E-003;-4.050997958984226E-004;
2.420333333333334E+009;1.539714187383652E-001;-8.732122182846069E-002;-2.469692844897509E-003;-3.490462549962103E-004;
2.420500000000000E+009;1.536471992731094E-001;-8.763198554515839E-002;-2.440641866996884E-003;-3.577896568458527E-004;
2.420666666666667E+009;1.531137079000473E-001;-8.774007856845856E-002;-2.478172769770026E-003;-3.075347049161792E-004;
2.420833333333334E+009;1.529165059328079E-001;-8.824954181909561E-002;-2.429636428132653E-003;-3.359165566507727E-004;
2.421000000000000E+009;1.524714082479477E-001;-8.872704952955246E-002;-2.537201158702374E-003;-1.273951347684488E-004;
2.421166666666667E+009;1.521417200565338E-001;-8.905631303787231E-002;-2.526016440242529E-003;-1.911958970595151E-004;
2.421333333333334E+009;1.518008112907410E-001;-8.943114429712296E-002;-2.502105897292495E-003;-1.558595104143024E-004;
2.421500000000000E+009;1.509584188461304E-001;-8.981453627347946E-002;-2.657827921211720E-003;-6.883921014377847E-005;
2.421666666666667E+009;1.503450274467468E-001;-9.024990350008011E-002;-2.448068931698799E-003;3.830362038570456E-005;
2.421833333333334E+009;1.497779786586762E-001;-9.085924923419952E-002;-2.664293395355344E-003;1.663358998484910E-004;
2.422000000000000E+009;1.488318741321564E-001;-9.133387356996536E-002;-2.656240714713931E-003;1.324736513197422E-004;
2.422166666666667E+009;1.481838822364807E-001;-9.200440347194672E-002;-2.549388678744435E-003;1.574051420902833E-004;
2.422333333333334E+009;1.476287692785263E-001;-9.239967167377472E-002;-2.461709082126617E-003;1.678402768447995E-004;
2.422500000000000E+009;1.468030959367752E-001;-9.299496561288834E-002;-2.579443622380495E-003;4.132121975999326E-004;
2.422666666666667E+009;1.458030343055725E-001;-9.381802380084992E-002;-2.445152727887034E-003;3.518450830597431E-004;
2.422833333333334E+009;1.450689285993576E-001;-9.449598193168640E-002;-2.452238695695996E-003;2.637653378769755E-004;
2.423000000000000E+009;1.441694349050522E-001;-9.523968398571014E-002;-2.527450909838080E-003;3.183173830620945E-004;
2.423166666666667E+009;1.434285044670105E-001;-9.606722742319107E-002;-2.487563062459230E-003;3.035018162336201E-004;
2.423333333333334E+009;1.425575762987137E-001;-9.693264961242676E-002;-2.582382643595338E-003;3.850053763017058E-004;
2.423500000000000E+009;1.414334326982498E-001;-9.792773425579071E-002;-2.497057430446148E-003;3.366729652043432E-004;
2.423666666666667E+009;1.404738873243332E-001;-9.894210845232010E-002;-2.636892255395651E-003;4.978415090590715E-004;
2.423833333333334E+009;1.398134976625443E-001;-9.977436810731888E-002;-2.733216388151050E-003;4.906853428110480E-004;
2.424000000000000E+009;1.387101113796234E-001;-1.006667241454125E-001;-3.017182694748044E-003;6.311910692602396E-004;
2.424166666666667E+009;1.378001868724823E-001;-1.016934812068939E-001;-2.824642229825258E-003;7.404466159641743E-004;
2.424333333333334E+009;1.370619386434555E-001;-1.026990637183189E-001;-2.953598508611321E-003;8.510448969900608E-004;
2.424500000000000E+009;1.362390965223312E-001;-1.039191111922264E-001;-2.801120048388839E-003;1.053005689755082E-003;
2.424666666666667E+009;1.355101764202118E-001;-1.047981083393097E-001;-2.998933428898454E-003;1.151351490989327E-003;
2.424833333333334E+009;1.346062570810318E-001;-1.059702932834625E-001;-2.769601996988058E-003;1.303903642110527E-003;
2.425000000000000E+009;1.340666562318802E-001;-1.071702837944031E-001;-2.800225745886564E-003;1.393723883666098E-003;
2.425166666666667E+009;1.332603394985199E-001;-1.082091033458710E-001;-2.668417757377029E-003;1.640595262870193E-003;
2.425333333333334E+009;1.327533721923828E-001;-1.094162613153458E-001;-2.677065785974264E-003;1.666160183958709E-003;
2.425500000000000E+009;1.321595460176468E-001;-1.108221560716629E-001;-2.493530279025435E-003;1.728764385916293E-003;
2.425666666666667E+009;1.315064728260040E-001;-1.119021996855736E-001;-2.381914295256138E-003;1.734398771077395E-003;
2.425833333333334E+009;1.310296058654785E-001;-1.130969524383545E-001;-2.213867148384452E-003;1.924982527270913E-003;
2.426000000000000E+009;1.305703818798065E-001;-1.144439727067947E-001;-2.124965656548739E-003;1.918489462696016E-003;
2.426166666666667E+009;1.302683502435684E-001;-1.156492754817009E-001;-2.047691727057099E-003;2.003345871344209E-003;
2.426333333333334E+009;1.297242939472199E-001;-1.168517246842384E-001;-1.883802004158497E-003;2.026369795203209E-003;
2.426500000000000E+009;1.293712109327316E-001;-1.178472191095352E-001;-1.942990464158356E-003;2.041596220806241E-003;
2.426666666666667E+009;1.293213367462158E-001;-1.188268736004829E-001;-1.766644651070237E-003;2.087415894493461E-003;
2.426833333333334E+009;1.286971420049667E-001;-1.200005039572716E-001;-1.740757026709616E-003;2.026854781433940E-003;
2.427000000000000E+009;1.285586506128311E-001;-1.211697235703468E-001;-1.817075069993734E-003;2.011109841987491E-003;
2.427166666666667E+009;1.282866895198822E-001;-1.219823062419891E-001;-1.699594082310796E-003;2.151277149096131E-003;
2.427333333333334E+009;1.280732750892639E-001;-1.229009479284287E-001;-1.531712478026748E-003;2.112987451255322E-003;
2.427500000000000E+009;1.280117630958557E-001;-1.237758696079254E-001;-1.451703836210072E-003;2.008315408602357E-003;
2.427666666666667E+009;1.277509331703186E-001;-1.246116235852242E-001;-1.601798343472183E-003;1.937652123160660E-003;
