# Version 1.00
#
freq[Hz];re:Trc1_S11;im:Trc1_S11;re:Trc2_S21;im:Trc2_S21;
2.400000000000000E+009;1.581011861562729E-001;6.191033869981766E-002;-4.261040594428778E-003;-2.021930646151304E-003;
2.400166666666667E+009;1.582206040620804E-001;6.042671576142311E-002;-4.405118059366942E-003;-1.846924424171448E-003;
2.400333333333334E+009;1.579964011907578E-001;5.846476182341576E-002;-4.447123501449823E-003;-1.749157207086682E-003;
2.400500000000000E+009;1.580260246992111E-001;5.650734156370163E-002;-4.316596314311028E-003;-1.634949236176908E-003;
2.400666666666667E+009;1.579126417636871E-001;5.458202213048935E-002;-4.242241382598877E-003;-1.538037555292249E-003;
2.400833333333334E+009;1.583482623100281E-001;5.283204093575478E-002;-4.353486467152834E-003;-1.407035160809755E-003;
2.401000000000000E+009;1.582456231117249E-001;5.064811930060387E-002;-4.407495725899935E-003;-1.311553176492453E-003;
2.401166666666667E+009;1.585476547479630E-001;4.869826138019562E-002;-4.359380342066288E-003;-1.117842271924019E-003;
2.401333333333334E+009;1.586984992027283E-001;4.642549902200699E-002;-4.349235910922289E-003;-1.225031330250204E-003;
2.401500000000000E+009;1.589876264333725E-001;4.444900155067444E-002;-4.514049272984266E-003;-9.187352261506021E-004;
2.401666666666667E+009;1.592997014522553E-001;4.260012507438660E-002;-4.432097543030977E-003;-8.444793056696653E-004;
2.401833333333334E+009;1.597338169813156E-001;4.047160968184471E-002;-4.226570948958397E-003;-7.496011094190180E-004;
2.402000000000000E+009;1.600272208452225E-001;3.861480951309204E-002;-4.473762121051550E-003;-4.952382878400385E-004;
2.402166666666667E+009;1.606848835945129E-001;3.642249479889870E-002;-4.408954642713070E-003;-5.438643274828792E-004;
2.402333333333334E+009;1.611763685941696E-001;3.480990603566170E-002;-4.473596345633268E-003;-4.167510778643191E-004;
2.402500000000000E+009;1.618354320526123E-001;3.308086842298508E-002;-4.349492024630308E-003;-4.004510410595685E-004;
2.402666666666667E+009;1.626543402671814E-001;3.123936615884304E-002;-4.533495288342238E-003;-4.221037306706421E-005;
2.402833333333334E+009;1.633477807044983E-001;2.969795837998390E-002;-4.592835437506437E-003;-8.027402509469539E-005;
2.403000000000000E+009;1.640980392694473E-001;2.811193279922009E-002;-4.395971540361643E-003;-5.770261486759409E-005;
2.403166666666667E+009;1.649570018053055E-001;2.641309052705765E-002;-4.452143795788288E-003;1.689497003098950E-004;
2.403333333333334E+009;1.660458147525787E-001;2.496068179607391E-002;-4.470065701752901E-003;3.455549885984510E-004;
2.403500000000000E+009;1.668845713138580E-001;2.364302799105644E-002;-4.494376014918089E-003;5.918490933254361E-004;
2.403666666666667E+009;1.675630360841751E-001;2.209986746311188E-002;-4.589826799929142E-003;4.692711227107793E-004;
2.403833333333334E+009;1.686398983001709E-001;2.085723169147968E-002;-4.490916617214680E-003;8.417770150117576E-004;
2.404000000000000E+009;1.694919764995575E-001;1.986287347972393E-002;-4.598780535161495E-003;8.738767355680466E-004;
2.404166666666667E+009;1.705247312784195E-001;1.866331137716770E-002;-4.629732575267553E-003;1.057564397342503E-003;
2.404333333333334E+009;1.713997572660446E-001;1.767634041607380E-002;-4.453864879906178E-003;1.321719610132277E-003;
2.404500000000000E+009;1.722349375486374E-001;1.669823937118053E-002;-4.436851944774389E-003;1.538462820462883E-003;
2.404666666666667E+009;1.732949912548065E-001;1.576749049127102E-002;-4.482935648411512E-003;1.601678901351988E-003;
2.404833333333334E+009;1.740007698535919E-001;1.500607281923294E-002;-4.472577013075352E-003;1.645837677642703E-003;
2.405000000000000E+009;1.749583929777145E-001;1.430017687380314E-002;-4.279999993741512E-003;1.991950906813145E-003;
2.405166666666667E+009;1.756914407014847E-001;1.360112894326448E-002;-4.193357191979885E-003;1.990931807085872E-003;
2.405333333333334E+009;1.765906661748886E-001;1.293906290084124E-002;-4.024130292236805E-003;2.254082355648279E-003;
2.405500000000000E+009;1.772333234548569E-001;1.241171546280384E-002;-4.009398631751537E-003;2.392039867118001E-003;
2.405666666666667E+009;1.776811182498932E-001;1.190934982150793E-002;-3.935538232326508E-003;2.588767092674971E-003;
2.405833333333334E+009;1.782498806715012E-001;1.168083027005196E-002;-3.768863156437874E-003;2.668994711712003E-003;
2.406000000000000E+009;1.789209693670273E-001;1.108174398541451E-002;-3.742719767615199E-003;2.709194319322705E-003;
2.406166666666667E+009;1.792108714580536E-001;1.086473558098078E-002;-3.386397380381823E-003;3.110906807705760E-003;
2.406333333333334E+009;1.797362565994263E-001;1.055137254297733E-002;-3.217676188796759E-003;3.172205761075020E-003;
2.406500000000000E+009;1.800089627504349E-001;1.012384518980980E-002;-3.173309378325939E-003;3.158210776746273E-003;
2.406666666666667E+009;1.799223721027374E-001;9.928517974913120E-003;-2.866711234673858E-003;3.331569954752922E-003;
2.406833333333334E+009;1.802879571914673E-001;9.357288479804993E-003;-2.754841232672334E-003;3.201018087565899E-003;
2.407000000000000E+009;1.803515702486038E-001;9.047154337167740E-003;-2.549261786043644E-003;3.520342521369457E-003;
2.407166666666667E+009;1.804697215557098E-001;8.794418536126614E-003;-2.395824762061238E-003;3.362328745424748E-003;
2.407333333333334E+009;1.802385151386261E-001;8.129050023853779E-003;-2.206590725108981E-003;3.405274357646704E-003;
2.407500000000000E+009;1.800018399953842E-001;7.705403957515955E-003;-1.937546650879085E-003;3.457315033301711E-003;
2.407666666666667E+009;1.798666864633560E-001;7.366372738033533E-003;-1.938587403856218E-003;3.504126798361540E-003;
2.407833333333334E+009;1.793622076511383E-001;6.656128913164139E-003;-1.868348335847259E-003;3.364259144291282E-003;
2.408000000000000E+009;1.790450960397720E-001;6.041369866579771E-003;-1.818922464735806E-003;3.317420836538076E-003;
2.408166666666667E+009;1.786020994186401E-001;5.483591929078102E-003;-1.485056709498167E-003;3.451435826718807E-003;
2.408333333333334E+009;1.783015280961990E-001;4.624321125447750E-003;-1.434586127288640E-003;3.502017352730036E-003;
2.408500000000000E+009;1.776062846183777E-001;3.836909774690867E-003;-1.182060223072767E-003;3.447786672040820E-003;
2.408666666666667E+009;1.771352589130402E-001;2.962925704196096E-003;-1.319448812864721E-003;3.268827684223652E-003;
2.408833333333334E+009;1.765459179878235E-001;1.948883291333914E-003;-1.224156818352640E-003;3.121626330539584E-003;
2.409000000000000E+009;1.757874339818955E-001;9.564975043758750E-004;-1.046895980834961E-003;3.106279764324427E-003;
2.409166666666667E+009;1.751250177621841E-001;-2.427350700600073E-004;-8.903332054615021E-004;3.207670059055090E-003;
2.409333333333334E+009;1.746114045381546E-001;-1.491097034886479E-003;-8.142188307829201E-004;3.175874240696430E-003;
2.409500000000000E+009;1.738603264093399E-001;-2.965275663882494E-003;-8.259130991064012E-004;3.120113862678409E-003;
2.409666666666667E+009;1.729443073272705E-001;-4.132354632019997E-003;-8.362226071767509E-004;3.285254351794720E-003;
2.409833333333334E+009;1.724902838468552E-001;-5.492896772921085E-003;-7.140233065001667E-004;3.149277530610561E-003;
2.410000000000000E+009;1.719067692756653E-001;-7.047407794743776E-003;-6.356671801768243E-004;3.202690742909908E-003;
2.410166666666667E+009;1.713505089282990E-001;-8.436892181634903E-003;-6.383528816513717E-004;2.939447527751327E-003;
2.410333333333334E+009;1.706695556640625E-001;-1.036557648330927E-002;-5.826183478347957E-004;3.002001671120524E-003;
2.410500000000000E+009;1.703236252069473E-001;-1.189601235091686E-002;-6.484083714894950E-004;2.946135587990284E-003;
2.410666666666667E+009;1.697180420160294E-001;-1.374319009482861E-002;-5.113591905683279E-004;2.973021008074284E-003;
2.410833333333334E+009;1.694671213626862E-001;-1.534527912735939E-002;-3.778691461775452E-004;2.918827813118696E-003;
2.411000000000000E+009;1.689216494560242E-001;-1.718265749514103E-002;-3.385601157788187E-004;3.014485584571958E-003;
2.411166666666667E+009;1.687047034502029E-001;-1.905036903917790E-002;-4.064560052938759E-004;2.998816547915340E-003;
2.411333333333334E+009;1.684106141328812E-001;-2.109272405505180E-002;-4.212963394820690E-004;3.085787408053875E-003;
2.411500000000000E+009;1.682868152856827E-001;-2.305741235613823E-002;-1.341390452580527E-004;2.966809319332242E-003;
2.411666666666667E+009;1.683352887630463E-001;-2.485127002000809E-002;-2.626988280098885E-004;3.058846807107329E-003;
2.411833333333334E+009;1.682377755641937E-001;-2.670748159289360E-002;-1.629975158721209E-004;3.213940421119332E-003;
2.412000000000000E+009;1.683497428894043E-001;-2.866633981466293E-002;-9.796207450563088E-005;3.085439093410969E-003;
2.412166666666667E+009;1.683057397603989E-001;-3.057552315294743E-002;-4.374223863123916E-005;3.225398715585470E-003;
2.412333333333334E+009;1.687629222869873E-001;-3.234332054853439E-002;9.383454744238406E-005;3.242687555029988E-003;
2.412500000000000E+009;1.688460856676102E-001;-3.413743153214455E-002;5.775430690846406E-005;3.250316251069307E-003;
2.412666666666667E+009;1.692283153533936E-001;-3.627763316035271E-002;2.942605060525239E-004;3.307250095531344E-003;
2.412833333333334E+009;1.694840788841248E-001;-3.801067546010017E-002;3.199183556716889E-004;3.314860863611102E-003;
2.413000000000000E+009;1.697504967451096E-001;-3.969027101993561E-002;4.304030444473028E-004;3.264064434915781E-003;
2.413166666666667E+009;1.702259480953217E-001;-4.159059375524521E-002;3.774812503252178E-004;3.100901842117310E-003;
2.413333333333334E+009;1.706788688898087E-001;-4.301771894097328E-002;6.296471110545099E-004;3.087824676185846E-003;
2.413500000000000E+009;1.711758971214294E-001;-4.469083994626999E-002;6.389169138856232E-004;3.114576218649745E-003;
2.413666666666667E+009;1.716724485158920E-001;-4.617377743124962E-002;7.495643221773207E-004;3.008574713021517E-003;
2.413833333333334E+009;1.722481697797775E-001;-4.757415503263474E-002;6.821194547228515E-004;3.122331108897924E-003;
2.414000000000000E+009;1.725300401449204E-001;-4.904210194945335E-002;9.704208350740373E-004;3.057407680898905E-003;
2.414166666666667E+009;1.733134239912033E-001;-5.037332698702812E-002;9.442574228160083E-004;3.069475525990129E-003;
2.414333333333334E+009;1.737619340419769E-001;-5.153232440352440E-002;1.060666749253869E-003;3.063168376684189E-003;
2.414500000000000E+009;1.743917614221573E-001;-5.271645262837410E-002;1.024578115902841E-003;3.058976726606488E-003;
2.414666666666667E+009;1.748408824205399E-001;-5.372077971696854E-002;1.376010011881590E-003;2.980712102726102E-003;
2.414833333333334E+009;1.752490252256393E-001;-5.473664775490761E-002;1.479153521358967E-003;2.956961514428258E-003;
2.415000000000000E+009;1.756242215633392E-001;-5.546226352453232E-002;1.504214014858007E-003;2.690869150683284E-003;
2.415166666666667E+009;1.760899722576141E-001;-5.618060752749443E-002;1.618529437109828E-003;2.785327844321728E-003;
2.415333333333334E+009;1.764510571956635E-001;-5.697287246584892E-002;1.805174979381263E-003;2.723692916333675E-003;
2.415500000000000E+009;1.767846494913101E-001;-5.756333842873573E-002;1.753235934302211E-003;2.690218156203628E-003;
2.415666666666667E+009;1.770104467868805E-001;-5.820135027170181E-002;1.765677821822465E-003;2.616774756461382E-003;
2.415833333333334E+009;1.772626191377640E-001;-5.876795575022697E-002;1.953219994902611E-003;2.542115747928619E-003;
2.416000000000000E+009;1.772612035274506E-001;-5.918868631124497E-002;1.908991951495409E-003;2.403945894911885E-003;
2.416166666666667E+009;1.773503124713898E-001;-5.959422141313553E-002;1.974163111299276E-003;2.224923809990287E-003;
2.416333333333334E+009;1.772738397121429E-001;-5.985691398382187E-002;1.940744230523706E-003;2.442730823531747E-003;
2.416500000000000E+009;1.772077679634094E-001;-6.024062633514404E-002;2.144649857655168E-003;2.094320021569729E-003;
2.416666666666667E+009;1.769489198923111E-001;-6.051081791520119E-002;2.002259017899633E-003;2.181169111281633E-003;
2.416833333333334E+009;1.766930222511292E-001;-6.087658554315567E-002;2.152940258383751E-003;2.113147638738155E-003;
2.417000000000000E+009;1.761967092752457E-001;-6.124814227223396E-002;2.038620645180345E-003;1.997100654989481E-003;
2.417166666666667E+009;1.758276075124741E-001;-6.124600023031235E-002;2.252114703878760E-003;1.941137597896159E-003;
2.417333333333334E+009;1.753288805484772E-001;-6.154204905033112E-002;2.205167897045612E-003;1.966035226359963E-003;
2.417500000000000E+009;1.746863424777985E-001;-6.197647750377655E-002;2.251375932246447E-003;2.113517140969634E-003;
2.417666666666667E+009;1.740607321262360E-001;-6.198092177510262E-002;2.244142116978765E-003;1.969831297174096E-003;
2.417833333333334E+009;1.732005774974823E-001;-6.228357553482056E-002;2.199105452746153E-003;1.828271080739796E-003;
2.418000000000000E+009;1.722137182950974E-001;-6.282235682010651E-002;2.168264007195830E-003;1.912518870085478E-003;
2.418166666666667E+009;1.713041812181473E-001;-6.301493942737579E-002;2.228220459073782E-003;1.798783778212965E-003;
2.418333333333334E+009;1.706552505493164E-001;-6.359288841485977E-002;2.251645317301154E-003;1.729638897813857E-003;
2.418500000000000E+009;1.694486290216446E-001;-6.395854055881500E-002;2.254999941214919E-003;1.657553482800722E-003;
2.418666666666667E+009;1.685063242912293E-001;-6.455682963132858E-002;2.234908053651452E-003;1.777509110979736E-003;
2.418833333333334E+009;1.671406328678131E-001;-6.519639492034912E-002;2.082965802401304E-003;1.678812433965504E-003;
2.419000000000000E+009;1.659216135740280E-001;-6.564187258481979E-002;2.420206554234028E-003;1.684470800682902E-003;
2.419166666666667E+009;1.649244725704193E-001;-6.645357608795166E-002;2.244406379759312E-003;1.672201440669596E-003;
2.419333333333334E+009;1.635928601026535E-001;-6.693451106548309E-002;2.398030366748571E-003;1.565564889460802E-003;
2.419500000000000E+009;1.624621897935867E-001;-6.800197064876556E-002;2.433623652905226E-003;1.601019524969161E-003;
2.419666666666667E+009;1.614657193422318E-001;-6.885536760091782E-002;2.426282269880176E-003;1.669077551923692E-003;
2.419833333333334E+009;1.600593775510788E-001;-6.970426440238953E-002;2.663553692400456E-003;1.495496951974928E-003;
2.420000000000000E+009;1.591572314500809E-001;-7.073239982128143E-002;2.685864921659231E-003;1.687018433585763E-003;
2.420166666666667E+009;1.579784750938416E-001;-7.196979224681854E-002;2.763657597824931E-003;1.593359629623592E-003;
2.420333333333334E+009;1.570099890232086E-001;-7.319754362106323E-002;2.697276649996638E-003;1.608211314305663E-003;
2.420500000000000E+009;1.559631824493408E-001;-7.435947656631470E-002;2.867919160053134E-003;1.580565352924168E-003;
2.420666666666667E+009;1.551474332809448E-001;-7.571098208427429E-002;2.889757975935936E-003;1.615138025954366E-003;
2.420833333333334E+009;1.542430967092514E-001;-7.706304639577866E-002;3.060807473957539E-003;1.545659382827580E-003;
2.421000000000000E+009;1.532620042562485E-001;-7.860928028821945E-002;3.112396923825145E-003;1.460969215258956E-003;
2.421166666666667E+009;1.526291817426682E-001;-7.995381206274033E-002;3.242370439693332E-003;1.551166060380638E-003;
2.421333333333334E+009;1.520542055368424E-001;-8.164127171039581E-002;3.551014699041843E-003;1.350288861431181E-003;
2.421500000000000E+009;1.512314826250076E-001;-8.302877098321915E-002;3.419771557673812E-003;1.408864278346300E-003;
2.421666666666667E+009;1.508097499608994E-001;-8.470769226551056E-002;3.618063172325492E-003;1.148312119767070E-003;
2.421833333333334E+009;1.504806578159332E-001;-8.637762069702148E-002;3.779753576964140E-003;1.080435817129910E-003;
2.422000000000000E+009;1.502109467983246E-001;-8.791388571262360E-002;3.814175492152572E-003;1.016270252875984E-003;
2.422166666666667E+009;1.498629599809647E-001;-8.982109278440476E-002;3.881532000377774E-003;8.523071883246303E-004;
2.422333333333334E+009;1.498565375804901E-001;-9.136063605546951E-002;4.106069449335337E-003;5.138666601851583E-004;
2.422500000000000E+009;1.494928002357483E-001;-9.317463636398315E-002;4.053323063999414E-003;4.092984017916024E-004;
2.422666666666667E+009;1.495456993579865E-001;-9.476415812969208E-002;4.164951387792826E-003;2.015751233557239E-004;
2.422833333333334E+009;1.496437042951584E-001;-9.658257663249970E-002;4.170835483819246E-003;2.433957852190360E-004;
2.423000000000000E+009;1.496666520833969E-001;-9.800250083208084E-002;4.251712467521429E-003;-8.116550816339441E-006;
2.423166666666667E+009;1.499767601490021E-001;-9.966192394495010E-002;4.226612392812967E-003;-3.549224929884076E-004;
2.423333333333334E+009;1.502901911735535E-001;-1.011450067162514E-001;4.155197180807591E-003;-4.022653156425804E-004;
2.423500000000000E+009;1.506435424089432E-001;-1.026163399219513E-001;4.207153804600239E-003;-6.514495471492410E-004;
2.423666666666667E+009;1.507424712181091E-001;-1.043519899249077E-001;4.323248285800219E-003;-6.816776003688574E-004;
2.423833333333334E+009;1.513275504112244E-001;-1.057919487357140E-001;4.052237607538700E-003;-9.236168698407710E-004;
2.424000000000000E+009;1.515832990407944E-001;-1.067837923765183E-001;4.071021452546120E-003;-1.155512058176100E-003;
2.424166666666667E+009;1.518418937921524E-001;-1.082319840788841E-001;3.961908631026745E-003;-1.252739690244198E-003;
2.424333333333334E+009;1.525885462760925E-001;-1.093801110982895E-001;3.890463383868337E-003;-1.511396374553442E-003;
2.424500000000000E+009;1.529411226511002E-001;-1.107782348990440E-001;3.918376751244068E-003;-1.598259899765253E-003;
2.424666666666667E+009;1.534763574600220E-001;-1.114498078823090E-001;3.973428625613451E-003;-1.864360528998077E-003;
2.424833333333334E+009;1.536838412284851E-001;-1.124464198946953E-001;3.691371530294418E-003;-1.888265251182020E-003;
2.425000000000000E+009;1.542819440364838E-001;-1.134378686547279E-001;3.684226656332612E-003;-2.178882248699665E-003;
2.425166666666667E+009;1.545388102531433E-001;-1.141469478607178E-001;3.482998581603169E-003;-2.175419824197888E-003;
2.425333333333334E+009;1.550013870000839E-001;-1.149708926677704E-001;3.600331256166101E-003;-2.243703464046121E-003;
2.425500000000000E+009;1.553729772567749E-001;-1.157326325774193E-001;3.271349240094423E-003;-2.449741121381521E-003;
2.425666666666667E+009;1.555758565664291E-001;-1.163422912359238E-001;3.220498329028487E-003;-2.410885645076633E-003;
2.425833333333334E+009;1.557699143886566E-001;-1.167867407202721E-001;3.111832542344928E-003;-2.564710797742009E-003;
2.426000000000000E+009;1.558714210987091E-001;-1.173732578754425E-001;3.112639533355832E-003;-2.546820323914290E-003;
2.426166666666667E+009;1.562092751264572E-001;-1.176368221640587E-001;3.045440418645740E-003;-2.769218059256673E-003;
2.426333333333334E+009;1.561231464147568E-001;-1.179309338331223E-001;2.921272069215775E-003;-2.742439508438110E-003;
2.426500000000000E+009;1.560389846563339E-001;-1.181790381669998E-001;2.677725628018379E-003;-2.803377807140350E-003;
2.426666666666667E+009;1.560662835836411E-001;-1.183017939329147E-001;2.633581403642893E-003;-2.932119183242321E-003;
2.426833333333334E+009;1.557635664939880E-001;-1.185063719749451E-001;2.447841456159949E-003;-2.790606347844005E-003;
2.427000000000000E+009;1.554405242204666E-001;-1.188198402523994E-001;2.481094561517239E-003;-2.919596387073398E-003;
2.427166666666667E+009;1.551119387149811E-001;-1.187101453542709E-001;2.300615189597011E-003;-3.022026037797332E-003;
2.427333333333334E+009;1.546306163072586E-001;-1.189804971218109E-001;2.292439108714461E-003;-3.035970730707049E-003;
2.427500000000000E+009;1.540946662425995E-001;-1.190640479326248E-001;2.223638584837318E-003;-2.988875610753894E-003;
2.427666666666667E+009;1.533400714397430E-001;-1.192649081349373E-001;2.181282499805093E-003;-3.058215137571096E-003;
2.427833333333334E+009;1.525483876466751E-001;-1.193385571241379E-001;2.169776242226362E-003;-3.102383110672236E-003;
