# Version 1.00
#
freq[Hz];re:Trc1_S11;im:Trc1_S11;re:Trc2_S21;im:Trc2_S21;
2.400000000000000E+009;1.582743674516678E-001;6.194397807121277E-002;-4.484959878027439E-003;-1.823099097236991E-003;
2.400166666666667E+009;1.581717431545258E-001;6.024158746004105E-002;-4.291473422199488E-003;-1.580497017130256E-003;
2.400333333333334E+009;1.579707711935043E-001;5.832770466804504E-002;-4.185650032013655E-003;-1.367330667562783E-003;
2.400500000000000E+009;1.580250114202499E-001;5.652239918708801E-002;-4.238681867718697E-003;-1.499417820014060E-003;
2.400666666666667E+009;1.581220775842667E-001;5.460279807448387E-002;-4.045907407999039E-003;-1.276501337997615E-003;
2.400833333333334E+009;1.581439822912216E-001;5.266027152538300E-002;-4.206325393170118E-003;-1.237421995028853E-003;
2.401000000000000E+009;1.581693589687347E-001;5.070919916033745E-002;-4.288860596716404E-003;-1.060534035786986E-003;
2.401166666666667E+009;1.583695262670517E-001;4.858139902353287E-002;-4.255327861756086E-003;-9.213933954015374E-004;
2.401333333333334E+009;1.584013998508453E-001;4.653765261173248E-002;-4.268278833478689E-003;-1.059471745975316E-003;
2.401500000000000E+009;1.590041667222977E-001;4.441235214471817E-002;-4.114334937185049E-003;-6.806582096032798E-004;
2.401666666666667E+009;1.593396663665772E-001;4.257577657699585E-002;-4.199649207293987E-003;-7.650818442925811E-004;
2.401833333333334E+009;1.597865223884583E-001;4.063770547509193E-002;-4.271190613508225E-003;-6.402048165909946E-004;
2.402000000000000E+009;1.600829511880875E-001;3.865431994199753E-002;-4.201762843877077E-003;-4.950400907546282E-004;
2.402166666666667E+009;1.604529023170471E-001;3.669565171003342E-002;-4.262225236743689E-003;-4.569183511193842E-004;
2.402333333333334E+009;1.611832827329636E-001;3.471603989601135E-002;-4.364151507616043E-003;-2.661750768311322E-004;
2.402500000000000E+009;1.619760990142822E-001;3.309735655784607E-002;-4.168132785707712E-003;-1.516137126600370E-004;
2.402666666666667E+009;1.625434458255768E-001;3.116072900593281E-002;-4.248956218361855E-003;-8.800475188763812E-005;
2.402833333333334E+009;1.631435602903366E-001;2.962946332991123E-002;-4.172397311776876E-003;9.328384476248175E-005;
2.403000000000000E+009;1.640492081642151E-001;2.804592251777649E-002;-4.292296245694161E-003;1.040069037117064E-004;
2.403166666666667E+009;1.650607585906982E-001;2.652253769338131E-002;-4.298803862184286E-003;3.731356118805707E-004;
2.403333333333334E+009;1.658329665660858E-001;2.509474195539951E-002;-4.336968995630741E-003;4.335890698712319E-004;
2.403500000000000E+009;1.666671782732010E-001;2.370386756956577E-002;-4.252400249242783E-003;4.147949512116611E-004;
2.403666666666667E+009;1.674747765064240E-001;2.235422097146511E-002;-4.326283931732178E-003;7.612239569425583E-004;
2.403833333333334E+009;1.686161607503891E-001;2.092791721224785E-002;-4.279153421521187E-003;8.250375976786017E-004;
2.404000000000000E+009;1.695975214242935E-001;1.985720358788967E-002;-4.233766812831163E-003;1.007871585898101E-003;
2.404166666666667E+009;1.704288274049759E-001;1.866520196199417E-002;-4.227581433951855E-003;1.135619822889566E-003;
2.404333333333334E+009;1.713242083787918E-001;1.784832216799259E-002;-4.216092173010111E-003;1.149048446677625E-003;
2.404500000000000E+009;1.722946465015411E-001;1.658860035240650E-002;-4.208334721624851E-003;1.413273159414530E-003;
2.404666666666667E+009;1.732992827892304E-001;1.586733944714069E-002;-4.155599512159824E-003;1.511653419584036E-003;
2.404833333333334E+009;1.741341501474381E-001;1.506631541997194E-002;-4.045581910759211E-003;1.584991579875350E-003;
2.405000000000000E+009;1.748961657285690E-001;1.427695062011480E-002;-4.054348450154066E-003;1.821491168811917E-003;
2.405166666666667E+009;1.758732497692108E-001;1.362689305096865E-002;-3.944731317460537E-003;2.008817857131362E-003;
2.405333333333334E+009;1.764719039201737E-001;1.296161673963070E-002;-3.816998098045588E-003;2.191783394664526E-003;
2.405500000000000E+009;1.774273514747620E-001;1.248423941433430E-002;-3.642362775281072E-003;2.363593084737659E-003;
2.405666666666667E+009;1.779891252517700E-001;1.199026498943567E-002;-3.658259287476540E-003;2.470100065693259E-003;
2.405833333333334E+009;1.783416867256165E-001;1.157969422638416E-002;-3.420481691136956E-003;2.407366642728448E-003;
2.406000000000000E+009;1.789293140172958E-001;1.109987869858742E-002;-3.309007501229644E-003;2.797750523313880E-003;
2.406166666666667E+009;1.791789978742600E-001;1.099588070064783E-002;-3.244721796363592E-003;2.758334157988429E-003;
2.406333333333334E+009;1.796881109476090E-001;1.051648892462254E-002;-3.043847391381860E-003;2.771791303530335E-003;
2.406500000000000E+009;1.800270676612854E-001;1.014326047152281E-002;-2.934306394308806E-003;2.973187481984496E-003;
2.406666666666667E+009;1.799465417861939E-001;9.790645912289619E-003;-2.931832801550627E-003;3.099642926827073E-003;
2.406833333333334E+009;1.802484542131424E-001;9.395902976393700E-003;-2.723230747506023E-003;3.386250929906964E-003;
2.407000000000000E+009;1.804179996252060E-001;9.018889628350735E-003;-2.509339945390821E-003;3.040366806089878E-003;
2.407166666666667E+009;1.803986877202988E-001;8.737852796912193E-003;-2.356270560994744E-003;3.120232839137316E-003;
2.407333333333334E+009;1.801508814096451E-001;8.282481692731381E-003;-2.111567184329033E-003;3.284964244812727E-003;
2.407500000000000E+009;1.800407171249390E-001;7.850306108593941E-003;-1.996189355850220E-003;3.271265421062708E-003;
2.407666666666667E+009;1.797965019941330E-001;7.509916089475155E-003;-1.834000926464796E-003;3.286460647359490E-003;
2.407833333333334E+009;1.794400960206986E-001;6.643856875598431E-003;-1.673796679824591E-003;3.252744441851974E-003;
2.408000000000000E+009;1.791383475065231E-001;6.172429770231247E-003;-1.579887117259204E-003;3.067432902753353E-003;
2.408166666666667E+009;1.786462217569351E-001;5.554615054279566E-003;-1.391285564750433E-003;3.167728893458843E-003;
2.408333333333334E+009;1.784187108278275E-001;4.856717772781849E-003;-1.428437535651028E-003;3.195687197148800E-003;
2.408500000000000E+009;1.777582317590714E-001;3.892756998538971E-003;-1.224444480612874E-003;3.287927480414510E-003;
2.408666666666667E+009;1.770676225423813E-001;2.859801054000855E-003;-1.164579647593200E-003;3.143526846542954E-003;
2.408833333333334E+009;1.765642464160919E-001;2.074336865916848E-003;-1.070044585503638E-003;3.047361271455884E-003;
2.409000000000000E+009;1.758332997560501E-001;1.019276678562164E-003;-1.034408342093229E-003;3.248826367780566E-003;
2.409166666666667E+009;1.751262396574020E-001;-1.591743639437482E-004;-9.336806251667440E-004;2.964483108371496E-003;
2.409333333333334E+009;1.747325062751770E-001;-1.332331332378089E-003;-7.179809617809951E-004;2.992102876305580E-003;
2.409500000000000E+009;1.738209426403046E-001;-2.877194900065661E-003;-7.915081223472953E-004;2.860260196030140E-003;
2.409666666666667E+009;1.733179539442062E-001;-4.130317363888025E-003;-8.946161251515150E-004;2.964288229122758E-003;
2.409833333333334E+009;1.723970323801041E-001;-5.476457066833973E-003;-6.786744925193489E-004;2.798714675009251E-003;
2.410000000000000E+009;1.720920205116272E-001;-7.011644542217255E-003;-6.246074335649610E-004;2.825178438797593E-003;
2.410166666666667E+009;1.714119762182236E-001;-8.494168519973755E-003;-7.191314361989498E-004;2.895996673032641E-003;
2.410333333333334E+009;1.709156483411789E-001;-1.029555778950453E-002;-6.509691593237221E-004;2.890561707317829E-003;
2.410500000000000E+009;1.702921390533447E-001;-1.174748782068491E-002;-6.358008831739426E-004;2.795410808175802E-003;
2.410666666666667E+009;1.697646677494049E-001;-1.368699781596661E-002;-6.112166447564960E-004;2.775036497041583E-003;
2.410833333333334E+009;1.695278286933899E-001;-1.555636990815401E-002;-5.952282808721066E-004;2.851665252819657E-003;
2.411000000000000E+009;1.689751446247101E-001;-1.721105352044106E-002;-4.230172198731452E-004;2.766239456832409E-003;
2.411166666666667E+009;1.687618046998978E-001;-1.920083165168762E-002;-3.836789983324707E-004;2.967620268464088E-003;
2.411333333333334E+009;1.684046685695648E-001;-2.091016061604023E-002;-4.271284851711243E-004;2.822037786245346E-003;
2.411500000000000E+009;1.682140380144119E-001;-2.281645312905312E-002;-2.987279149238020E-004;2.919176826253533E-003;
2.411666666666667E+009;1.682119220495224E-001;-2.483462914824486E-002;-2.553731901571155E-004;2.963125472888351E-003;
2.411833333333334E+009;1.682597398757935E-001;-2.675314992666245E-002;-3.057041903957725E-004;2.996493596583605E-003;
2.412000000000000E+009;1.682947725057602E-001;-2.862552739679813E-002;-3.115717554464936E-004;3.039516042917967E-003;
2.412166666666667E+009;1.682047247886658E-001;-3.045508265495300E-002;-8.490752952639014E-005;2.937410492449999E-003;
2.412333333333334E+009;1.687010973691940E-001;-3.239199519157410E-002;-4.260146670276299E-005;3.046044148504734E-003;
2.412500000000000E+009;1.687718182802200E-001;-3.432630747556686E-002;7.679867121623829E-005;3.029125276952982E-003;
2.412666666666667E+009;1.691613793373108E-001;-3.621607273817062E-002;1.082291928469203E-004;3.104558214545250E-003;
2.412833333333334E+009;1.695013195276260E-001;-3.797663748264313E-002;2.221744653070346E-004;3.048897953704000E-003;
2.413000000000000E+009;1.698474287986755E-001;-3.978934511542320E-002;2.694402646739036E-004;2.995918737724423E-003;
2.413166666666667E+009;1.701324880123138E-001;-4.156864434480667E-002;3.470616647973657E-004;2.983411075547338E-003;
2.413333333333334E+009;1.706407070159912E-001;-4.300836473703384E-002;3.940323367714882E-004;3.077517496421933E-003;
2.413500000000000E+009;1.710305660963059E-001;-4.467763006687164E-002;5.991435027681291E-004;3.063517855480313E-003;
2.413666666666667E+009;1.716041266918182E-001;-4.618516936898232E-002;5.608092760667205E-004;2.981368685141206E-003;
2.413833333333334E+009;1.721342056989670E-001;-4.763834178447723E-002;7.764772162772715E-004;2.976345131173730E-003;
2.414000000000000E+009;1.726094782352448E-001;-4.902800172567368E-002;8.361695217899978E-004;3.096046391874552E-003;
2.414166666666667E+009;1.731500774621964E-001;-5.034725740551949E-002;9.576587472110987E-004;2.915212884545326E-003;
2.414333333333334E+009;1.737429946660996E-001;-5.159522220492363E-002;1.047560828737915E-003;2.904510358348489E-003;
2.414500000000000E+009;1.743852496147156E-001;-5.272112786769867E-002;1.224870444275439E-003;2.899774583056569E-003;
2.414666666666667E+009;1.748713850975037E-001;-5.363634601235390E-002;1.129281590692699E-003;2.801819471642375E-003;
2.414833333333334E+009;1.750897169113159E-001;-5.460429564118385E-002;1.211209339089692E-003;2.746245590969920E-003;
2.415000000000000E+009;1.755395680665970E-001;-5.536418408155441E-002;1.202220795676112E-003;2.779277507215738E-003;
2.415166666666667E+009;1.760455965995789E-001;-5.627202242612839E-002;1.373027916997671E-003;2.795355394482613E-003;
2.415333333333334E+009;1.764744073152542E-001;-5.701349675655365E-002;1.488962327130139E-003;2.556353574618697E-003;
2.415500000000000E+009;1.767983734607697E-001;-5.755565315485001E-002;1.487701898440719E-003;2.564174821600318E-003;
2.415666666666667E+009;1.771148741245270E-001;-5.814432725310326E-002;1.591385109350085E-003;2.598777413368225E-003;
2.415833333333334E+009;1.772675365209580E-001;-5.863048881292343E-002;1.675944542512298E-003;2.480939030647278E-003;
2.416000000000000E+009;1.771530658006668E-001;-5.918490514159203E-002;1.732630655169487E-003;2.446222584694624E-003;
2.416166666666667E+009;1.774797439575195E-001;-5.946333706378937E-002;1.714457641355693E-003;2.353865420445800E-003;
2.416333333333334E+009;1.772017925977707E-001;-5.981402099132538E-002;1.745123765431345E-003;2.299760468304157E-003;
2.416500000000000E+009;1.771710962057114E-001;-6.025712937116623E-002;1.841732999309897E-003;2.237474080175161E-003;
2.416666666666667E+009;1.769159138202667E-001;-6.031613051891327E-002;2.012035343796015E-003;2.210730919614434E-003;
2.416833333333334E+009;1.767477989196777E-001;-6.071855500340462E-002;1.835135975852609E-003;2.166823484003544E-003;
2.417000000000000E+009;1.762976348400116E-001;-6.109886243939400E-002;1.907580182887614E-003;2.001754008233547E-003;
2.417166666666667E+009;1.757478863000870E-001;-6.112457439303398E-002;2.011195523664355E-003;1.986997900530696E-003;
2.417333333333334E+009;1.752255111932755E-001;-6.145078688859940E-002;1.987310824915767E-003;2.125286962836981E-003;
2.417500000000000E+009;1.746721565723419E-001;-6.182440370321274E-002;1.862348872236908E-003;1.896020374260843E-003;
2.417666666666667E+009;1.740538775920868E-001;-6.195996701717377E-002;1.918289810419083E-003;1.876352587714791E-003;
2.417833333333334E+009;1.731218248605728E-001;-6.224548071622849E-002;1.948043354786933E-003;1.981678884476423E-003;
2.418000000000000E+009;1.723161190748215E-001;-6.264832615852356E-002;1.999231986701489E-003;1.820220146328211E-003;
2.418166666666667E+009;1.713513880968094E-001;-6.294763833284378E-002;2.114722970873117E-003;1.863497076556087E-003;
2.418333333333334E+009;1.705804467201233E-001;-6.337118893861771E-002;2.067737746983767E-003;1.815914292819798E-003;
2.418500000000000E+009;1.695197373628616E-001;-6.379593163728714E-002;2.019603038206697E-003;1.810610527172685E-003;
2.418666666666667E+009;1.685015857219696E-001;-6.432675570249558E-002;2.199081238359213E-003;1.829599379561842E-003;
2.418833333333334E+009;1.672732084989548E-001;-6.489008665084839E-002;2.091260161250830E-003;1.681087189354003E-003;
2.419000000000000E+009;1.660902053117752E-001;-6.566698104143143E-002;2.214216161519289E-003;1.758342841640115E-003;
2.419166666666667E+009;1.648653894662857E-001;-6.631016731262207E-002;2.337952377274633E-003;1.778957201167941E-003;
2.419333333333334E+009;1.635659635066986E-001;-6.676255911588669E-002;2.166100777685642E-003;1.617361675016582E-003;
2.419500000000000E+009;1.626127064228058E-001;-6.780656427145004E-002;2.195859095081687E-003;1.858426025137305E-003;
2.419666666666667E+009;1.614654511213303E-001;-6.885355710983276E-002;2.402861369773746E-003;1.760286279022694E-003;
2.419833333333334E+009;1.602795869112015E-001;-6.964623928070068E-002;2.560842316597700E-003;1.878713374026120E-003;
2.420000000000000E+009;1.591434180736542E-001;-7.083183526992798E-002;2.469101222231984E-003;1.735205994918943E-003;
2.420166666666667E+009;1.580034047365189E-001;-7.182408869266510E-002;2.540765330195427E-003;1.746648922562599E-003;
2.420333333333334E+009;1.570520997047424E-001;-7.322670519351959E-002;2.723876619711518E-003;1.709017786197364E-003;
2.420500000000000E+009;1.562074273824692E-001;-7.431295514106751E-002;2.848621690645814E-003;1.717398758046329E-003;
2.420666666666667E+009;1.550747454166412E-001;-7.552895694971085E-002;2.932372968643904E-003;1.643162802793086E-003;
2.420833333333334E+009;1.543880850076675E-001;-7.711230963468552E-002;2.999948570504785E-003;1.567862462252379E-003;
2.421000000000000E+009;1.534051597118378E-001;-7.840497791767120E-002;3.124193055555224E-003;1.555473310872912E-003;
2.421166666666667E+009;1.526953876018524E-001;-8.003360778093338E-002;3.196747973561287E-003;1.390494173392654E-003;
2.421333333333334E+009;1.521960049867630E-001;-8.154893666505814E-002;3.289405722171068E-003;1.438355189748108E-003;
2.421500000000000E+009;1.515691429376602E-001;-8.308078348636627E-002;3.479152219370008E-003;1.305003766901791E-003;
2.421666666666667E+009;1.509541571140289E-001;-8.474829047918320E-002;3.473419463261962E-003;1.304795383475721E-003;
2.421833333333334E+009;1.506654173135757E-001;-8.639340102672577E-002;3.547370899468660E-003;1.279750722460449E-003;
2.422000000000000E+009;1.501843929290772E-001;-8.800987899303436E-002;3.694618586450815E-003;9.869007626548410E-004;
2.422166666666667E+009;1.499924361705780E-001;-8.999628573656082E-002;3.693183418363333E-003;9.840443963184953E-004;
2.422333333333334E+009;1.498321145772934E-001;-9.156879782676697E-002;3.899987321346998E-003;6.996918236836791E-004;
2.422500000000000E+009;1.495673656463623E-001;-9.292080998420715E-002;4.016183782368898E-003;7.447697571478784E-004;
2.422666666666667E+009;1.494388431310654E-001;-9.486106038093567E-002;3.986968193203211E-003;5.217676516622305E-004;
2.422833333333334E+009;1.496694535017014E-001;-9.656739234924316E-002;4.142503719776869E-003;1.701363798929378E-004;
2.423000000000000E+009;1.498934328556061E-001;-9.811270236968994E-002;4.069747868925333E-003;2.898619277402759E-005;
2.423166666666667E+009;1.500736474990845E-001;-9.976836293935776E-002;4.179326817393303E-003;-8.379349310416728E-005;
2.423333333333334E+009;1.503472924232483E-001;-1.012306809425354E-001;4.180052317678928E-003;-3.094310231972486E-004;
2.423500000000000E+009;1.506190598011017E-001;-1.028151139616966E-001;4.192677792161703E-003;-4.075054021086544E-004;
2.423666666666667E+009;1.507581025362015E-001;-1.042739450931549E-001;4.092984832823277E-003;-5.111160571686924E-004;
2.423833333333334E+009;1.513506472110748E-001;-1.056026741862297E-001;4.158224444836378E-003;-8.527715690433979E-004;
2.424000000000000E+009;1.515506803989410E-001;-1.068948283791542E-001;4.029722418636084E-003;-8.615143015049398E-004;
2.424166666666667E+009;1.518978625535965E-001;-1.082287803292275E-001;4.091027192771435E-003;-1.192197902128100E-003;
2.424333333333334E+009;1.526085138320923E-001;-1.094082295894623E-001;3.933718893676996E-003;-1.220553182065487E-003;
2.424500000000000E+009;1.529710292816162E-001;-1.105821356177330E-001;3.974570892751217E-003;-1.346941222436726E-003;
2.424666666666667E+009;1.535147428512573E-001;-1.114734411239624E-001;3.887051017954946E-003;-1.644701231271029E-003;
2.424833333333334E+009;1.538478732109070E-001;-1.124322265386581E-001;3.631905186921358E-003;-1.636990811675787E-003;
2.425000000000000E+009;1.542242616415024E-001;-1.134124994277954E-001;3.493432188406587E-003;-1.801104517653585E-003;
2.425166666666667E+009;1.546147763729096E-001;-1.141598299145699E-001;3.744364483281970E-003;-1.903852913528681E-003;
2.425333333333334E+009;1.549336165189743E-001;-1.149261370301247E-001;3.434990765526891E-003;-2.106731059029698E-003;
2.425500000000000E+009;1.554643660783768E-001;-1.156940013170242E-001;3.353136125952005E-003;-2.151540713384748E-003;
2.425666666666667E+009;1.554949283599854E-001;-1.163055449724197E-001;3.243023529648781E-003;-2.267313888296485E-003;
2.425833333333334E+009;1.557676941156387E-001;-1.167692393064499E-001;3.038746770471335E-003;-2.264443552121520E-003;
2.426000000000000E+009;1.559330224990845E-001;-1.172604560852051E-001;3.037503222003579E-003;-2.388143446296454E-003;
2.426166666666667E+009;1.562148332595825E-001;-1.176438927650452E-001;3.028459614142776E-003;-2.447538077831268E-003;
2.426333333333334E+009;1.560336202383041E-001;-1.179660260677338E-001;2.932457020506263E-003;-2.499233465641737E-003;
2.426500000000000E+009;1.560859084129334E-001;-1.181662976741791E-001;2.748765749856830E-003;-2.552483463659883E-003;
2.426666666666667E+009;1.561966836452484E-001;-1.182455494999886E-001;2.772661158815026E-003;-2.540076151490212E-003;
2.426833333333334E+009;1.557890623807907E-001;-1.185743138194084E-001;2.671692520380020E-003;-2.786102006211877E-003;
2.427000000000000E+009;1.554591655731201E-001;-1.187972277402878E-001;2.475179964676499E-003;-2.832622500136495E-003;
2.427166666666667E+009;1.550457328557968E-001;-1.188073083758354E-001;2.311978023499250E-003;-2.899233018979430E-003;
2.427333333333334E+009;1.545040011405945E-001;-1.190698891878128E-001;2.299345331266522E-003;-2.792720450088382E-003;
2.427500000000000E+009;1.541307568550110E-001;-1.190509498119354E-001;2.268951851874590E-003;-2.839060733094811E-003;
2.427666666666667E+009;1.534193009138107E-001;-1.192947179079056E-001;2.218380104750395E-003;-2.855008002370596E-003;
2.427833333333334E+009;1.525747179985046E-001;-1.194043830037117E-001;2.174815395846963E-003;-2.945866668596864E-003;
