# Version 1.00
#
freq[Hz];re:Trc1_S11;im:Trc1_S11;re:Trc2_S21;im:Trc2_S21;
2.400000000000000E+009;1.677236855030060E-001;4.091359674930573E-002;-1.794013543985784E-003;-1.118548563681543E-003;
2.400166666666667E+009;1.683775782585144E-001;4.030424728989601E-002;-1.897270441986620E-003;-1.119128544814885E-003;
2.400333333333334E+009;1.685925573110580E-001;3.924489021301270E-002;-1.902031246572733E-003;-1.118532731197774E-003;
2.400500000000000E+009;1.692252606153488E-001;3.831500932574272E-002;-1.969048986211419E-003;-1.231440226547420E-003;
2.400666666666667E+009;1.695174872875214E-001;3.745734319090843E-002;-2.003153786063194E-003;-1.049324520863593E-003;
2.400833333333334E+009;1.697703748941422E-001;3.669096902012825E-002;-1.869533793069422E-003;-1.065631280653179E-003;
2.401000000000000E+009;1.700443923473358E-001;3.571599349379540E-002;-2.104599261656404E-003;-1.036344328895211E-003;
2.401166666666667E+009;1.704045236110687E-001;3.486466407775879E-002;-2.060492057353258E-003;-1.061708782799542E-003;
2.401333333333334E+009;1.703583896160126E-001;3.386677801609039E-002;-2.243083901703358E-003;-1.129283569753170E-003;
2.401500000000000E+009;1.708258390426636E-001;3.304498642683029E-002;-2.485762583091855E-003;-1.210584305226803E-003;
2.401666666666667E+009;1.707808673381805E-001;3.236572071909905E-002;-2.505895448848605E-003;-1.222987659275532E-003;
2.401833333333334E+009;1.710759252309799E-001;3.135142847895622E-002;-2.546798903495073E-003;-1.244539977051318E-003;
2.402000000000000E+009;1.709145158529282E-001;3.057163394987583E-002;-2.726092934608460E-003;-1.000209129415453E-003;
2.402166666666667E+009;1.710797697305679E-001;2.933941781520844E-002;-2.737977541983128E-003;-1.119461609050632E-003;
2.402333333333334E+009;1.710231900215149E-001;2.852748334407806E-002;-2.752772998064756E-003;-1.020138850435615E-003;
2.402500000000000E+009;1.712196767330170E-001;2.765108272433281E-002;-3.048617858439684E-003;-9.509261581115425E-004;
2.402666666666667E+009;1.711416989564896E-001;2.653736248612404E-002;-3.193857613950968E-003;-8.498909301124513E-004;
2.402833333333334E+009;1.712710410356522E-001;2.572380937635899E-002;-3.192115575075150E-003;-6.031125085428357E-004;
2.403000000000000E+009;1.711946576833725E-001;2.455636300146580E-002;-3.354530083015561E-003;-5.983193987049162E-004;
2.403166666666667E+009;1.710746288299561E-001;2.340418845415115E-002;-3.534105140715838E-003;-5.770357092842460E-004;
2.403333333333334E+009;1.710447221994400E-001;2.235001139342785E-002;-3.606852144002914E-003;-4.120631492696703E-004;
2.403500000000000E+009;1.709066033363342E-001;2.112163603305817E-002;-3.586064791306853E-003;-1.671589998295531E-004;
2.403666666666667E+009;1.707704216241837E-001;1.994809880852699E-002;-3.695102874189615E-003;-7.564313273178414E-005;
2.403833333333334E+009;1.707522422075272E-001;1.871238090097904E-002;-3.825166262686253E-003;-8.827100828057155E-005;
2.404000000000000E+009;1.707623451948166E-001;1.758101209998131E-002;-3.863498102873564E-003;1.192267809528858E-004;
2.404166666666667E+009;1.706329733133316E-001;1.619573682546616E-002;-3.937643021345139E-003;3.411340876482427E-004;
2.404333333333334E+009;1.704649180173874E-001;1.495667733252049E-002;-3.811115864664316E-003;4.527789424173534E-004;
2.404500000000000E+009;1.703685969114304E-001;1.342102047055960E-002;-3.859566524624825E-003;5.326399113982916E-004;
2.404666666666667E+009;1.703420728445053E-001;1.202607899904251E-002;-3.987497650086880E-003;6.707712309435010E-004;
2.404833333333334E+009;1.705571264028549E-001;1.060344092547894E-002;-4.138460848480463E-003;9.117996087297797E-004;
2.405000000000000E+009;1.703690439462662E-001;9.150258265435696E-003;-4.165261052548885E-003;1.106279320083559E-003;
2.405166666666667E+009;1.703256368637085E-001;7.513828575611115E-003;-4.110632464289665E-003;1.193622243590653E-003;
2.405333333333334E+009;1.704924255609512E-001;6.024953909218311E-003;-4.236433655023575E-003;1.428583753295243E-003;
2.405500000000000E+009;1.704016625881195E-001;4.496292676776648E-003;-4.144261125475168E-003;1.816329662688077E-003;
2.405666666666667E+009;1.703020781278610E-001;2.916570520028472E-003;-4.221932962536812E-003;1.941010123118758E-003;
2.405833333333334E+009;1.702113896608353E-001;1.499746576882899E-003;-4.090444184839726E-003;2.281826455146074E-003;
2.406000000000000E+009;1.703913509845734E-001;-2.409754961263388E-004;-4.069786984473467E-003;2.472986467182636E-003;
2.406166666666667E+009;1.700149178504944E-001;-1.640824601054192E-003;-3.935988061130047E-003;2.796631306409836E-003;
2.406333333333334E+009;1.701463609933853E-001;-3.376227570697665E-003;-3.763810964301229E-003;3.043413627892733E-003;
2.406500000000000E+009;1.700138449668884E-001;-4.910712596029043E-003;-3.606857731938362E-003;3.379886271432042E-003;
2.406666666666667E+009;1.696437001228333E-001;-6.509728264063597E-003;-3.330073785036802E-003;3.494931384921074E-003;
2.406833333333334E+009;1.695978790521622E-001;-8.051621727645397E-003;-3.228776389732957E-003;3.680382156744599E-003;
2.407000000000000E+009;1.694328486919403E-001;-9.376563131809235E-003;-2.885109512135387E-003;3.781895851716399E-003;
2.407166666666667E+009;1.693223565816879E-001;-1.082045678049326E-002;-2.666245913133025E-003;3.920237999409437E-003;
2.407333333333334E+009;1.689662635326386E-001;-1.228358037769795E-002;-2.497015986591578E-003;3.929367288947105E-003;
2.407500000000000E+009;1.688120514154434E-001;-1.350850053131580E-002;-2.303701592609286E-003;4.204216413199902E-003;
2.407666666666667E+009;1.685876697301865E-001;-1.465148292481899E-002;-2.065062290057540E-003;4.424051381647587E-003;
2.407833333333334E+009;1.684912443161011E-001;-1.586624979972839E-002;-1.802892889827490E-003;4.308954346925020E-003;
2.408000000000000E+009;1.684508919715881E-001;-1.694253832101822E-002;-1.440449268557131E-003;4.382339306175709E-003;
2.408166666666667E+009;1.681859344244003E-001;-1.786494627594948E-002;-1.287883729673922E-003;4.475811962038279E-003;
2.408333333333334E+009;1.683562844991684E-001;-1.888206601142883E-002;-1.014595385640860E-003;4.586255177855492E-003;
2.408500000000000E+009;1.682147234678268E-001;-1.972416602075100E-002;-7.743594469502568E-004;4.414585884660482E-003;
2.408666666666667E+009;1.682370007038117E-001;-2.055909298360348E-002;-3.829133347608149E-004;4.406871274113655E-003;
2.408833333333334E+009;1.681842356920242E-001;-2.131966315209866E-002;-3.017912677023560E-004;4.322660621255636E-003;
2.409000000000000E+009;1.682622283697128E-001;-2.233620360493660E-002;8.314827573485673E-005;4.223708063364029E-003;
2.409166666666667E+009;1.684875339269638E-001;-2.323435433208942E-002;2.121790603268892E-004;4.098176024854183E-003;
2.409333333333334E+009;1.687384843826294E-001;-2.415050752460957E-002;5.325674428604543E-004;3.906184574589133E-003;
2.409500000000000E+009;1.687901914119721E-001;-2.503154799342156E-002;4.426483355928212E-004;3.788205794990063E-003;
2.409666666666667E+009;1.688757538795471E-001;-2.592503465712071E-002;7.052570581436157E-004;3.649357939139009E-003;
2.409833333333334E+009;1.688872128725052E-001;-2.678228169679642E-002;7.664534496143460E-004;3.516599768772721E-003;
2.410000000000000E+009;1.690098941326141E-001;-2.763763442635536E-002;8.295063744299114E-004;3.362167393788695E-003;
2.410166666666667E+009;1.690998822450638E-001;-2.849339880049229E-002;9.871551301330328E-004;3.128058509901166E-003;
2.410333333333334E+009;1.689630746841431E-001;-2.939674817025662E-002;1.108813448809087E-003;3.066076431423426E-003;
2.410500000000000E+009;1.689794510602951E-001;-3.043695911765099E-002;1.114905695430934E-003;2.987696789205074E-003;
2.410666666666667E+009;1.688782274723053E-001;-3.148151189088821E-002;1.188408816233277E-003;2.664503874257207E-003;
2.410833333333334E+009;1.688247919082642E-001;-3.221421316266060E-002;1.121175475418568E-003;2.742353826761246E-003;
2.411000000000000E+009;1.688305735588074E-001;-3.309009596705437E-002;1.115419087000191E-003;2.575283404439688E-003;
2.411166666666667E+009;1.685557216405869E-001;-3.424447774887085E-002;1.307631959207356E-003;2.567754359915853E-003;
2.411333333333334E+009;1.683235466480255E-001;-3.500015288591385E-002;1.094765262678266E-003;2.581633394584060E-003;
2.411500000000000E+009;1.679308265447617E-001;-3.598326072096825E-002;1.153927994892001E-003;2.362378407269716E-003;
2.411666666666667E+009;1.680199652910233E-001;-3.671857714653015E-002;1.385353505611420E-003;2.239579102024436E-003;
2.411833333333334E+009;1.678072661161423E-001;-3.766039013862610E-002;1.235608360730112E-003;2.140704542398453E-003;
2.412000000000000E+009;1.676439493894577E-001;-3.874290362000465E-002;1.223980565555394E-003;2.043181098997593E-003;
2.412166666666667E+009;1.671056300401688E-001;-3.949549049139023E-002;1.186003792099655E-003;2.074589021503925E-003;
2.412333333333334E+009;1.671841442584992E-001;-4.034377634525299E-002;1.100802561268210E-003;2.071417402476072E-003;
2.412500000000000E+009;1.665069013834000E-001;-4.149368032813072E-002;1.230008900165558E-003;2.009486779570580E-003;
2.412666666666667E+009;1.664107292890549E-001;-4.272239655256271E-002;1.349008525721729E-003;1.971421297639608E-003;
2.412833333333334E+009;1.658965349197388E-001;-4.343253374099731E-002;1.477629295550287E-003;2.113181864842773E-003;
2.413000000000000E+009;1.653618365526199E-001;-4.453401267528534E-002;1.624394091777504E-003;1.893238280899823E-003;
2.413166666666667E+009;1.649973392486572E-001;-4.557633027434349E-002;1.330010243691504E-003;1.825747312977910E-003;
2.413333333333334E+009;1.646298170089722E-001;-4.674458503723145E-002;1.512010348960757E-003;1.828005071729422E-003;
2.413500000000000E+009;1.640750765800476E-001;-4.767975211143494E-002;1.455054269172251E-003;1.851131441071630E-003;
2.413666666666667E+009;1.637767404317856E-001;-4.876366257667542E-002;1.701316097751260E-003;1.527834101580083E-003;
2.413833333333334E+009;1.634038239717484E-001;-4.977429285645485E-002;1.572459703311324E-003;1.561494893394411E-003;
2.414000000000000E+009;1.627936512231827E-001;-5.073489993810654E-002;1.607721438631415E-003;1.463668537326157E-003;
2.414166666666667E+009;1.623033881187439E-001;-5.176153033971787E-002;1.593264518305659E-003;1.244720420800149E-003;
2.414333333333334E+009;1.620777696371079E-001;-5.277037993073463E-002;1.509882858954370E-003;1.218436984345317E-003;
2.414500000000000E+009;1.617674231529236E-001;-5.362251028418541E-002;1.365474425256252E-003;1.225623418577015E-003;
2.414666666666667E+009;1.614179909229279E-001;-5.449375882744789E-002;1.324182958342135E-003;1.060139620676637E-003;
2.414833333333334E+009;1.611561924219132E-001;-5.561560019850731E-002;1.140302629210055E-003;8.571287617087364E-004;
2.415000000000000E+009;1.608283072710037E-001;-5.668208003044128E-002;1.160779735073447E-003;8.452335605397821E-004;
2.415166666666667E+009;1.607208698987961E-001;-5.781643465161324E-002;7.455111481249332E-004;9.476287523284555E-004;
2.415333333333334E+009;1.606473028659821E-001;-5.897134169936180E-002;9.113352862186730E-004;1.077017979696393E-003;
2.415500000000000E+009;1.605384349822998E-001;-5.996470525860786E-002;7.250336930155754E-004;1.130599994212389E-003;
2.415666666666667E+009;1.602203845977783E-001;-6.126922369003296E-002;6.999411270953715E-004;9.406364406459034E-004;
2.415833333333334E+009;1.601179689168930E-001;-6.239775568246841E-002;4.738273855764419E-004;1.325863297097385E-003;
2.416000000000000E+009;1.597712785005570E-001;-6.360510736703873E-002;7.332178065553308E-004;1.288396422751248E-003;
2.416166666666667E+009;1.598153412342072E-001;-6.468015909194946E-002;5.547507316805422E-004;1.518307719379664E-003;
2.416333333333334E+009;1.593917757272720E-001;-6.589469313621521E-002;4.293808306101710E-004;1.696041668765247E-003;
2.416500000000000E+009;1.591599285602570E-001;-6.716768443584442E-002;4.376625001896173E-004;1.795797492377460E-003;
2.416666666666667E+009;1.588717103004456E-001;-6.815235316753388E-002;5.982833681628108E-004;2.027668291702867E-003;
2.416833333333334E+009;1.586302816867828E-001;-6.961201876401901E-002;6.278331857174635E-004;2.051405608654022E-003;
2.417000000000000E+009;1.581884920597076E-001;-7.063587009906769E-002;5.712634301744402E-004;2.194146392866969E-003;
2.417166666666667E+009;1.579105854034424E-001;-7.151322066783905E-002;9.172090212814510E-004;2.254661638289690E-003;
2.417333333333334E+009;1.576517224311829E-001;-7.241871953010559E-002;9.501767344772816E-004;2.261161571368575E-003;
2.417500000000000E+009;1.572545617818832E-001;-7.366169244050980E-002;1.074329251423478E-003;2.503250958397985E-003;
2.417666666666667E+009;1.570185869932175E-001;-7.430325448513031E-002;1.302751363255084E-003;2.439653035253286E-003;
2.417833333333334E+009;1.566389799118042E-001;-7.508550584316254E-002;1.498644123785198E-003;2.407341264188290E-003;
2.418000000000000E+009;1.562896668910980E-001;-7.610300928354263E-002;1.493319985456765E-003;2.328649628907442E-003;
2.418166666666667E+009;1.559327095746994E-001;-7.674948871135712E-002;1.887198537588120E-003;2.479218877851963E-003;
2.418333333333334E+009;1.559581011533737E-001;-7.764182239770889E-002;1.959419343620539E-003;2.470621839165688E-003;
2.418500000000000E+009;1.555723547935486E-001;-7.838034629821777E-002;2.016673795878887E-003;2.388486405834556E-003;
2.418666666666667E+009;1.553351581096649E-001;-7.914119958877564E-002;2.267402363941073E-003;2.365269465371966E-003;
2.418833333333334E+009;1.548141390085220E-001;-7.999902218580246E-002;2.535705920308828E-003;2.189077669754624E-003;
2.419000000000000E+009;1.544226706027985E-001;-8.070626109838486E-002;2.539580455049872E-003;2.268980955705047E-003;
2.419166666666667E+009;1.542953401803970E-001;-8.124689757823944E-002;2.717927098274231E-003;2.075109165161848E-003;
2.419333333333334E+009;1.537776887416840E-001;-8.177477866411209E-002;2.813853789120913E-003;2.148629166185856E-003;
2.419500000000000E+009;1.534555405378342E-001;-8.258278667926788E-002;3.020133823156357E-003;1.870706328190863E-003;
2.419666666666667E+009;1.532813161611557E-001;-8.315546810626984E-002;3.136623185127974E-003;1.833130605518818E-003;
2.419833333333334E+009;1.526697874069214E-001;-8.368215709924698E-002;3.068116726353765E-003;1.797167700715363E-003;
2.420000000000000E+009;1.525339782238007E-001;-8.432801067829132E-002;3.240685444325209E-003;1.731678610667586E-003;
2.420166666666667E+009;1.520325392484665E-001;-8.463586866855621E-002;3.360592992976308E-003;1.507646171376109E-003;
2.420333333333334E+009;1.517251133918762E-001;-8.547122031450272E-002;3.520349739119411E-003;1.337670371867716E-003;
2.420500000000000E+009;1.514478623867035E-001;-8.575457334518433E-002;3.467898350208998E-003;1.276447786949575E-003;
2.420666666666667E+009;1.509256809949875E-001;-8.648743480443955E-002;3.594860434532166E-003;1.185159664601088E-003;
2.420833333333334E+009;1.506101489067078E-001;-8.711588382720947E-002;3.481204854324460E-003;1.102383597753942E-003;
2.421000000000000E+009;1.500656455755234E-001;-8.783105015754700E-002;3.777029691264033E-003;6.975051946938038E-004;
2.421166666666667E+009;1.496817022562027E-001;-8.839317411184311E-002;3.585398430004716E-003;7.674063672311604E-004;
2.421333333333334E+009;1.492668986320496E-001;-8.924024552106857E-002;3.726418130099773E-003;5.518195684999228E-004;
2.421500000000000E+009;1.487473994493485E-001;-8.989568799734116E-002;3.791960189118981E-003;5.848964792676270E-004;
2.421666666666667E+009;1.482880115509033E-001;-9.057810902595520E-002;3.748066723346710E-003;2.566000039223582E-004;
2.421833333333334E+009;1.478257328271866E-001;-9.122909605503082E-002;3.596676513552666E-003;-7.335399487828909E-008;
2.422000000000000E+009;1.469713896512985E-001;-9.193843603134155E-002;3.867000574246049E-003;6.386944005498663E-005;
2.422166666666667E+009;1.464883983135223E-001;-9.289097785949707E-002;3.838169388473034E-003;-1.794601266738027E-004;
2.422333333333334E+009;1.458803713321686E-001;-9.351055324077606E-002;3.822949947789311E-003;-2.242041373392567E-004;
2.422500000000000E+009;1.453351974487305E-001;-9.408427774906158E-002;3.770967945456505E-003;-3.002854646183550E-004;
2.422666666666667E+009;1.443614661693573E-001;-9.514421224594116E-002;3.772718831896782E-003;-5.536999087780714E-004;
2.422833333333334E+009;1.439455002546310E-001;-9.604732692241669E-002;3.874370595440269E-003;-4.909366252832115E-004;
2.423000000000000E+009;1.435320228338242E-001;-9.701428562402725E-002;3.968665841966867E-003;-6.110473768785596E-004;
2.423166666666667E+009;1.428007334470749E-001;-9.780822694301605E-002;3.805030370131135E-003;-8.697801968082786E-004;
2.423333333333334E+009;1.421916037797928E-001;-9.865186363458633E-002;3.768172813579440E-003;-1.007060287520289E-003;
2.423500000000000E+009;1.415380388498306E-001;-9.964219480752945E-002;3.796482691541314E-003;-9.698313078843057E-004;
2.423666666666667E+009;1.405897289514542E-001;-1.006567701697350E-001;3.790592541918159E-003;-1.208263332955539E-003;
2.423833333333334E+009;1.402062475681305E-001;-1.015410870313644E-001;3.948822151869535E-003;-1.572072505950928E-003;
2.424000000000000E+009;1.393728256225586E-001;-1.023612171411514E-001;3.765781875699759E-003;-1.496171462349594E-003;
2.424166666666667E+009;1.387863159179688E-001;-1.034488454461098E-001;3.849779255688191E-003;-1.775059266947210E-003;
2.424333333333334E+009;1.381460875272751E-001;-1.042970269918442E-001;3.705245908349752E-003;-1.882297103293240E-003;
2.424500000000000E+009;1.376219987869263E-001;-1.053471788764000E-001;3.584686899557710E-003;-1.921161194331944E-003;
2.424666666666667E+009;1.371246874332428E-001;-1.061130687594414E-001;3.578115487471223E-003;-2.270822180435062E-003;
2.424833333333334E+009;1.363692581653595E-001;-1.071887463331223E-001;3.500555641949177E-003;-2.276445971801877E-003;
2.425000000000000E+009;1.360285133123398E-001;-1.082029417157173E-001;3.525705076754093E-003;-2.552389632910490E-003;
2.425166666666667E+009;1.352967470884323E-001;-1.091250926256180E-001;3.444204339757562E-003;-2.718379255384207E-003;
2.425333333333334E+009;1.348349153995514E-001;-1.102035567164421E-001;3.341680625453591E-003;-2.846905030310154E-003;
2.425500000000000E+009;1.344080269336700E-001;-1.111783310770989E-001;2.962907310575247E-003;-2.993089379742742E-003;
2.425666666666667E+009;1.338012218475342E-001;-1.120937317609787E-001;3.124265698716044E-003;-3.237107535824180E-003;
2.425833333333334E+009;1.334272921085358E-001;-1.131515055894852E-001;2.926148241385818E-003;-3.270165063440800E-003;
2.426000000000000E+009;1.330239772796631E-001;-1.141637340188026E-001;2.882919507101178E-003;-3.519789781421423E-003;
2.426166666666667E+009;1.327219605445862E-001;-1.151243224740028E-001;2.495681168511510E-003;-3.658461617305875E-003;
2.426333333333334E+009;1.320861279964447E-001;-1.160074546933174E-001;2.559259068220854E-003;-3.778307931497693E-003;
2.426500000000000E+009;1.317566782236099E-001;-1.168494448065758E-001;2.252148929983378E-003;-3.901158692315221E-003;
2.426666666666667E+009;1.314378380775452E-001;-1.175445318222046E-001;2.047822112217546E-003;-4.145167302340269E-003;
2.426833333333334E+009;1.310147196054459E-001;-1.185050979256630E-001;1.739248516969383E-003;-4.082912579178810E-003;
2.427000000000000E+009;1.305145323276520E-001;-1.193245947360992E-001;1.532609690912068E-003;-4.217516165226698E-003;
2.427166666666667E+009;1.302505284547806E-001;-1.199956014752388E-001;1.231874688528478E-003;-4.075800534337759E-003;
2.427333333333334E+009;1.298650056123734E-001;-1.207261905074120E-001;1.065991586074233E-003;-4.348868038505316E-003;
2.427500000000000E+009;1.297416985034943E-001;-1.213632151484489E-001;7.676797104068101E-004;-4.269102588295937E-003;
2.427666666666667E+009;1.293644309043884E-001;-1.221494823694229E-001;4.687675391323865E-004;-4.158400464802980E-003;
2.427833333333334E+009;1.290300488471985E-001;-1.227867230772972E-001;2.542599104344845E-004;-4.033753648400307E-003;
