# Version 1.00
#
freq[Hz];re:Trc1_S11;im:Trc1_S11;re:Trc2_S21;im:Trc2_S21;
2.400000000000000E+009;1.729021668434143E-001;4.925651475787163E-002;7.832447066903114E-003;-1.582661498105153E-004;
2.400166666666667E+009;1.735582649707794E-001;4.870522022247315E-002;7.787282112985849E-003;-2.713590802159160E-004;
2.400333333333334E+009;1.741326451301575E-001;4.785117506980896E-002;7.724158465862274E-003;-4.249528574291617E-004;
2.400500000000000E+009;1.745172739028931E-001;4.722714051604271E-002;7.759556639939547E-003;-7.211776683107019E-004;
2.400666666666667E+009;1.747390031814575E-001;4.647980630397797E-002;7.687547244131565E-003;-8.358253398910165E-004;
2.400833333333334E+009;1.751745790243149E-001;4.601438716053963E-002;7.493147626519203E-003;-1.032119500450790E-003;
2.401000000000000E+009;1.754102110862732E-001;4.541969299316406E-002;7.601675577461720E-003;-1.217237673699856E-003;
2.401166666666667E+009;1.755634993314743E-001;4.463605210185051E-002;7.640428375452757E-003;-1.482642372138798E-003;
2.401333333333334E+009;1.757818311452866E-001;4.406252875924110E-002;7.377402391284704E-003;-1.491536968387663E-003;
2.401500000000000E+009;1.759380698204041E-001;4.334436357021332E-002;7.666352670639753E-003;-1.769505208358169E-003;
2.401666666666667E+009;1.759719401597977E-001;4.275320470333099E-002;7.501543033868074E-003;-1.910123508423567E-003;
2.401833333333334E+009;1.758354306221008E-001;4.194397479295731E-002;7.596346549689770E-003;-2.124405466020107E-003;
2.402000000000000E+009;1.757241785526276E-001;4.112935066223145E-002;7.539656013250351E-003;-2.480135532096028E-003;
2.402166666666667E+009;1.756083220243454E-001;4.018706083297730E-002;7.353186141699553E-003;-2.647508867084980E-003;
2.402333333333334E+009;1.755909174680710E-001;3.939969837665558E-002;7.413951680064201E-003;-2.745814621448517E-003;
2.402500000000000E+009;1.754340827465057E-001;3.870107233524323E-002;7.364300545305014E-003;-3.069429658353329E-003;
2.402666666666667E+009;1.752945184707642E-001;3.747950866818428E-002;7.435432169586420E-003;-3.086238633841276E-003;
2.402833333333334E+009;1.749756485223770E-001;3.630590066313744E-002;7.307820022106171E-003;-3.481938503682613E-003;
2.403000000000000E+009;1.746595650911331E-001;3.506926819682121E-002;7.100526709109545E-003;-3.872497705742717E-003;
2.403166666666667E+009;1.743879914283752E-001;3.376648575067520E-002;7.259879261255264E-003;-3.903859062120318E-003;
2.403333333333334E+009;1.742158383131027E-001;3.249460831284523E-002;7.155216298997402E-003;-4.340338520705700E-003;
2.403500000000000E+009;1.738517731428146E-001;3.090192750096321E-002;7.072026375681162E-003;-4.570352379232645E-003;
2.403666666666667E+009;1.734432727098465E-001;2.921959199011326E-002;6.659207865595818E-003;-4.905215464532375E-003;
2.403833333333334E+009;1.732168495655060E-001;2.756420336663723E-002;6.613799370825291E-003;-5.006578750908375E-003;
2.404000000000000E+009;1.727717220783234E-001;2.585697360336781E-002;6.258017383515835E-003;-5.408075638115406E-003;
2.404166666666667E+009;1.723733097314835E-001;2.403360605239868E-002;6.101571489125490E-003;-5.700355395674706E-003;
2.404333333333334E+009;1.721009463071823E-001;2.221960760653019E-002;5.961358547210693E-003;-5.836951080709696E-003;
2.404500000000000E+009;1.717655211687088E-001;2.023740857839584E-002;5.702185910195112E-003;-5.997521337121725E-003;
2.404666666666667E+009;1.715920716524124E-001;1.843424700200558E-002;5.304058548063040E-003;-6.175431422889233E-003;
2.404833333333334E+009;1.711847782135010E-001;1.632267609238625E-002;5.230449605733156E-003;-6.471052300184965E-003;
2.405000000000000E+009;1.712291687726975E-001;1.441281195729971E-002;4.905772395431995E-003;-6.395673379302025E-003;
2.405166666666667E+009;1.709220260381699E-001;1.252224016934633E-002;4.548379685729742E-003;-6.631557364016771E-003;
2.405333333333334E+009;1.709423214197159E-001;1.016362942755222E-002;4.301116801798344E-003;-6.887301802635193E-003;
2.405500000000000E+009;1.709932982921600E-001;8.362056687474251E-003;4.085805732756853E-003;-6.812858860939741E-003;
2.405666666666667E+009;1.710936278104782E-001;6.217865273356438E-003;3.790544811636210E-003;-6.936007179319859E-003;
2.405833333333334E+009;1.712841540575028E-001;4.203381948173046E-003;3.515100339427590E-003;-6.852657534182072E-003;
2.406000000000000E+009;1.715464442968369E-001;1.992154866456986E-003;3.281180746853352E-003;-6.864150520414114E-003;
2.406166666666667E+009;1.717145293951035E-001;1.536466334073339E-005;2.891848329454660E-003;-6.881311070173979E-003;
2.406333333333334E+009;1.722604632377625E-001;-2.013862365856767E-003;2.884949324652553E-003;-7.020944263786078E-003;
2.406500000000000E+009;1.724909543991089E-001;-4.142522811889648E-003;2.497426699846983E-003;-6.751881446689367E-003;
2.406666666666667E+009;1.728262007236481E-001;-6.136876996606588E-003;2.460980787873268E-003;-6.868117023259401E-003;
2.406833333333334E+009;1.735240519046783E-001;-8.169705048203468E-003;2.275062259286642E-003;-6.718437187373638E-003;
2.407000000000000E+009;1.741357296705246E-001;-1.019667647778988E-002;2.147942082956433E-003;-6.860274355858564E-003;
2.407166666666667E+009;1.748616248369217E-001;-1.193346083164215E-002;1.823449973016977E-003;-6.745767313987017E-003;
2.407333333333334E+009;1.753379702568054E-001;-1.386595703661442E-002;1.852174871601164E-003;-6.827356293797493E-003;
2.407500000000000E+009;1.760261505842209E-001;-1.565335132181644E-002;1.682324917055666E-003;-6.671394221484661E-003;
2.407666666666667E+009;1.768130809068680E-001;-1.730545796453953E-002;1.484950655139983E-003;-6.999351549893618E-003;
2.407833333333334E+009;1.774474680423737E-001;-1.918607950210571E-002;1.312769134528935E-003;-6.997464690357447E-003;
2.408000000000000E+009;1.782569885253906E-001;-2.080559916794300E-002;1.371079357340932E-003;-7.068538106977940E-003;
2.408166666666667E+009;1.788791418075562E-001;-2.229223027825356E-002;1.206019544042647E-003;-7.129297126084566E-003;
2.408333333333334E+009;1.797502487897873E-001;-2.380453050136566E-002;1.025316538289189E-003;-7.187154144048691E-003;
2.408500000000000E+009;1.804583221673966E-001;-2.520913071930409E-002;7.487731054425240E-004;-7.330726832151413E-003;
2.408666666666667E+009;1.809708923101425E-001;-2.666262537240982E-002;5.924177821725607E-004;-7.210609037429094E-003;
2.408833333333334E+009;1.814318299293518E-001;-2.771038748323917E-002;2.088690234813839E-004;-7.319028954952955E-003;
2.409000000000000E+009;1.819328814744949E-001;-2.882778458297253E-002;-1.393537240801379E-004;-7.443157024681568E-003;
2.409166666666667E+009;1.825087070465088E-001;-3.015203215181828E-002;-6.341991684166715E-005;-7.368987891823053E-003;
2.409333333333334E+009;1.829181313514710E-001;-3.106040135025978E-002;-6.003763992339373E-004;-7.456453517079353E-003;
2.409500000000000E+009;1.832122504711151E-001;-3.186607733368874E-002;-7.295182440429926E-004;-7.375240791589022E-003;
2.409666666666667E+009;1.833482086658478E-001;-3.252323716878891E-002;-1.153313089162111E-003;-7.428251206874847E-003;
2.409833333333334E+009;1.835877895355225E-001;-3.309944644570351E-002;-1.184421940706670E-003;-7.277929689735174E-003;
2.410000000000000E+009;1.840577274560928E-001;-3.365655988454819E-002;-1.698665553703904E-003;-7.229089271277189E-003;
2.410166666666667E+009;1.840123981237412E-001;-3.412038832902908E-002;-1.835011760704219E-003;-7.121464237570763E-003;
2.410333333333334E+009;1.839507371187210E-001;-3.461275994777679E-002;-2.192985732108355E-003;-7.039476186037064E-003;
2.410500000000000E+009;1.840919256210327E-001;-3.494195267558098E-002;-2.273741178214550E-003;-6.985784042626619E-003;
2.410666666666667E+009;1.838595420122147E-001;-3.557659313082695E-002;-2.565630711615086E-003;-6.854664068669081E-003;
2.410833333333334E+009;1.838667541742325E-001;-3.581500425934792E-002;-2.769010141491890E-003;-6.691550835967064E-003;
2.411000000000000E+009;1.837079823017120E-001;-3.589706867933273E-002;-2.981920260936022E-003;-6.552804261445999E-003;
2.411166666666667E+009;1.834879964590073E-001;-3.632131218910217E-002;-3.179417457431555E-003;-6.322091445326805E-003;
2.411333333333334E+009;1.828407347202301E-001;-3.675037622451782E-002;-3.470774507150054E-003;-6.250089500099421E-003;
2.411500000000000E+009;1.824853122234345E-001;-3.703803196549416E-002;-3.518965793773532E-003;-6.054712925106287E-003;
2.411666666666667E+009;1.819382607936859E-001;-3.727868199348450E-002;-3.701879642903805E-003;-5.992678459733725E-003;
2.411833333333334E+009;1.810641437768936E-001;-3.747165575623512E-002;-3.777631325647235E-003;-5.730743519961834E-003;
2.412000000000000E+009;1.804724782705307E-001;-3.830799087882042E-002;-4.011247772723436E-003;-5.667598452419043E-003;
2.412166666666667E+009;1.793642044067383E-001;-3.859220817685127E-002;-4.086781293153763E-003;-5.406302865594626E-003;
2.412333333333334E+009;1.787185668945313E-001;-3.900814056396484E-002;-4.244344774633646E-003;-5.207189358770847E-003;
2.412500000000000E+009;1.774257421493530E-001;-3.973697125911713E-002;-4.332927055656910E-003;-4.973602015525103E-003;
2.412666666666667E+009;1.765479147434235E-001;-4.033987969160080E-002;-4.386228509247303E-003;-4.812504164874554E-003;
2.412833333333334E+009;1.754428595304489E-001;-4.102576896548271E-002;-4.480200354009867E-003;-4.697809461504221E-003;
2.413000000000000E+009;1.739757210016251E-001;-4.159579426050186E-002;-4.511034116148949E-003;-4.606745671480894E-003;
2.413166666666667E+009;1.726862341165543E-001;-4.227251186966896E-002;-4.568389151245356E-003;-4.365016240626574E-003;
2.413333333333334E+009;1.715139299631119E-001;-4.332460090517998E-002;-4.526255652308464E-003;-4.374764859676361E-003;
2.413500000000000E+009;1.701928228139877E-001;-4.424095526337624E-002;-4.746344406157732E-003;-4.020052496343851E-003;
2.413666666666667E+009;1.689900159835815E-001;-4.536381736397743E-002;-4.543035291135311E-003;-3.850550157949328E-003;
2.413833333333334E+009;1.675523817539215E-001;-4.644983261823654E-002;-4.751585423946381E-003;-3.829743945971131E-003;
2.414000000000000E+009;1.661619842052460E-001;-4.739017412066460E-002;-4.876299295574427E-003;-3.823988372460008E-003;
2.414166666666667E+009;1.650400161743164E-001;-4.864550009369850E-002;-5.003059282898903E-003;-3.526387037709355E-003;
2.414333333333334E+009;1.636869758367539E-001;-5.001507326960564E-002;-4.816566593945026E-003;-3.435637569054961E-003;
2.414500000000000E+009;1.625950187444687E-001;-5.133209004998207E-002;-4.989223089069128E-003;-3.327440237626433E-003;
2.414666666666667E+009;1.614029258489609E-001;-5.283934623003006E-002;-5.105617456138134E-003;-3.184586064890027E-003;
2.414833333333334E+009;1.601831316947937E-001;-5.451592057943344E-002;-4.961506929248571E-003;-3.002214943990111E-003;
2.415000000000000E+009;1.592389345169067E-001;-5.592096224427223E-002;-5.125741474330425E-003;-2.747821388766170E-003;
2.415166666666667E+009;1.582542508840561E-001;-5.760110542178154E-002;-5.050602834671736E-003;-2.676481846719980E-003;
2.415333333333334E+009;1.574002504348755E-001;-5.947246029973030E-002;-5.165740847587585E-003;-2.659561112523079E-003;
2.415500000000000E+009;1.564152538776398E-001;-6.120586395263672E-002;-5.259675439447165E-003;-2.451049862429500E-003;
2.415666666666667E+009;1.557471752166748E-001;-6.285959482192993E-002;-5.339959636330605E-003;-2.213631523773074E-003;
2.415833333333334E+009;1.550792455673218E-001;-6.480740755796433E-002;-5.246555432677269E-003;-1.985111273825169E-003;
2.416000000000000E+009;1.542200148105621E-001;-6.684195995330811E-002;-5.283133126795292E-003;-1.866829697974026E-003;
2.416166666666667E+009;1.539474278688431E-001;-6.865933537483215E-002;-5.194613244384527E-003;-1.701927976682782E-003;
2.416333333333334E+009;1.533748507499695E-001;-7.063405215740204E-002;-5.173841491341591E-003;-1.539538847282529E-003;
2.416500000000000E+009;1.528080105781555E-001;-7.257129251956940E-002;-5.208500195294619E-003;-1.376714440993965E-003;
2.416666666666667E+009;1.523956507444382E-001;-7.455893605947495E-002;-5.072238389402628E-003;-1.326584839262068E-003;
2.416833333333334E+009;1.523034870624542E-001;-7.649976760149002E-002;-4.884850699454546E-003;-1.342308241873980E-003;
2.417000000000000E+009;1.518098711967468E-001;-7.839594781398773E-002;-4.834949038922787E-003;-1.051710220053792E-003;
2.417166666666667E+009;1.517973989248276E-001;-8.009304851293564E-002;-4.862262401729822E-003;-9.407424950040877E-004;
2.417333333333334E+009;1.515972614288330E-001;-8.173164725303650E-002;-4.756948910653591E-003;-9.550205431878567E-004;
2.417500000000000E+009;1.515681296586990E-001;-8.379997313022614E-002;-4.661905113607645E-003;-9.117764420807362E-004;
2.417666666666667E+009;1.516122967004776E-001;-8.509935438632965E-002;-4.462495446205139E-003;-7.812650874257088E-004;
2.417833333333334E+009;1.516120284795761E-001;-8.662723004817963E-002;-4.537992645055056E-003;-9.503146284259856E-004;
2.418000000000000E+009;1.515786796808243E-001;-8.827646821737289E-002;-4.534365609288216E-003;-8.912533521652222E-004;
2.418166666666667E+009;1.516933888196945E-001;-8.955788612365723E-002;-4.327083937823772E-003;-8.225337369367480E-004;
2.418333333333334E+009;1.520922482013702E-001;-9.091585874557495E-002;-4.465798847377300E-003;-8.989276830106974E-004;
2.418500000000000E+009;1.522188633680344E-001;-9.200392663478851E-002;-4.601412452757359E-003;-1.089125289581716E-003;
2.418666666666667E+009;1.524595022201538E-001;-9.312847256660461E-002;-4.519917070865631E-003;-1.002803910523653E-003;
2.418833333333334E+009;1.526204049587250E-001;-9.411820769309998E-002;-4.679447505623102E-003;-1.118606072850525E-003;
2.419000000000000E+009;1.527447998523712E-001;-9.497933089733124E-002;-4.918742459267378E-003;-1.047800062224269E-003;
2.419166666666667E+009;1.528938114643097E-001;-9.571839869022369E-002;-4.827776923775673E-003;-1.146290916949511E-003;
2.419333333333334E+009;1.529415696859360E-001;-9.609577804803848E-002;-5.050956271588802E-003;-9.999689646065235E-004;
2.419500000000000E+009;1.532595753669739E-001;-9.683477878570557E-002;-5.279412958770990E-003;-9.598920005373657E-004;
2.419666666666667E+009;1.535525619983673E-001;-9.729434549808502E-002;-5.356383509933949E-003;-9.728398290462792E-004;
2.419833333333334E+009;1.534369438886643E-001;-9.725248068571091E-002;-5.457128398120403E-003;-8.766320534050465E-004;
2.420000000000000E+009;1.538165807723999E-001;-9.753468632698059E-002;-5.836200434714556E-003;-8.692591800354421E-004;
2.420166666666667E+009;1.538947671651840E-001;-9.768214821815491E-002;-6.019793450832367E-003;-6.152206915430725E-004;
2.420333333333334E+009;1.539439857006073E-001;-9.770523756742477E-002;-6.003069225698710E-003;-5.845245323143899E-004;
2.420500000000000E+009;1.541105657815933E-001;-9.741348773241043E-002;-6.238577887415886E-003;-4.102204111404717E-004;
2.420666666666667E+009;1.540263891220093E-001;-9.721039980649948E-002;-6.462292745709419E-003;-2.874373458325863E-004;
2.420833333333334E+009;1.539028584957123E-001;-9.710215032100678E-002;-6.644378416240215E-003;-3.817578908638097E-005;
2.421000000000000E+009;1.536330282688141E-001;-9.661585837602615E-002;-6.745322607457638E-003;2.699824981391430E-004;
2.421166666666667E+009;1.535222977399826E-001;-9.644113481044769E-002;-7.035051006823778E-003;5.508880130946636E-004;
2.421333333333334E+009;1.533620506525040E-001;-9.618736803531647E-002;-7.215845864266157E-003;6.824010633863509E-004;
2.421500000000000E+009;1.531096696853638E-001;-9.579513967037201E-002;-7.417460437864065E-003;1.021926756948233E-003;
2.421666666666667E+009;1.525252610445023E-001;-9.556014090776444E-002;-7.386863697320223E-003;1.359853195026517E-003;
2.421833333333334E+009;1.520522087812424E-001;-9.524083882570267E-002;-7.507377304136753E-003;1.813231967389584E-003;
2.422000000000000E+009;1.514100134372711E-001;-9.471959620714188E-002;-7.599411066621542E-003;2.189220860600472E-003;
2.422166666666667E+009;1.507388800382614E-001;-9.464920312166214E-002;-7.501875050365925E-003;2.549068536609411E-003;
2.422333333333334E+009;1.498754620552063E-001;-9.427824616432190E-002;-7.614842150360346E-003;2.878631465137005E-003;
2.422500000000000E+009;1.490558385848999E-001;-9.402979165315628E-002;-7.594936992973089E-003;3.604519413784146E-003;
2.422666666666667E+009;1.479977220296860E-001;-9.391133487224579E-002;-7.345423102378845E-003;3.915843088179827E-003;
2.422833333333334E+009;1.467802524566650E-001;-9.382627159357071E-002;-7.124448195099831E-003;4.370930138975382E-003;
2.423000000000000E+009;1.455747187137604E-001;-9.378771483898163E-002;-7.025734521448612E-003;4.788789898157120E-003;
2.423166666666667E+009;1.444168686866760E-001;-9.364324808120728E-002;-6.871125660836697E-003;5.184203386306763E-003;
2.423333333333334E+009;1.432241648435593E-001;-9.349951893091202E-002;-6.502288393676281E-003;5.510452203452587E-003;
2.423500000000000E+009;1.416938453912735E-001;-9.382834285497665E-002;-6.244774907827377E-003;5.915896967053413E-003;
2.423666666666667E+009;1.402101963758469E-001;-9.393514692783356E-002;-5.912606604397297E-003;6.191696971654892E-003;
2.423833333333334E+009;1.389513164758682E-001;-9.410739690065384E-002;-5.393551196902990E-003;6.499994546175003E-003;
2.424000000000000E+009;1.374395936727524E-001;-9.432237595319748E-002;-4.937754943966866E-003;6.780918221920729E-003;
2.424166666666667E+009;1.357998102903366E-001;-9.476608037948608E-002;-4.769300110638142E-003;6.971811410039663E-003;
2.424333333333334E+009;1.343414634466171E-001;-9.519523382186890E-002;-4.430574364960194E-003;6.951103918254376E-003;
2.424500000000000E+009;1.330167353153229E-001;-9.603372216224670E-002;-3.768858266994357E-003;7.266319822520018E-003;
2.424666666666667E+009;1.315396130084992E-001;-9.636691957712174E-002;-3.391857491806150E-003;7.386259268969297E-003;
2.424833333333334E+009;1.299627125263214E-001;-9.718166291713715E-002;-3.064571646973491E-003;7.362070493400097E-003;
2.425000000000000E+009;1.285887509584427E-001;-9.808317571878433E-002;-2.666817512363195E-003;7.450585719197989E-003;
2.425166666666667E+009;1.271447092294693E-001;-9.896202385425568E-002;-2.362804021686316E-003;7.509788032621145E-003;
2.425333333333334E+009;1.257669180631638E-001;-9.993667900562286E-002;-1.834383234381676E-003;7.232480216771364E-003;
2.425500000000000E+009;1.248129159212112E-001;-1.010906845331192E-001;-1.572789275087416E-003;7.219916209578514E-003;
2.425666666666667E+009;1.235020831227303E-001;-1.023823246359825E-001;-1.277781091630459E-003;7.062831427901983E-003;
2.425833333333334E+009;1.222853213548660E-001;-1.035955771803856E-001;-8.356700418516994E-004;6.942795589566231E-003;
2.426000000000000E+009;1.213038638234139E-001;-1.050670817494392E-001;-6.125762010924518E-004;6.925310008227825E-003;
2.426166666666667E+009;1.205689907073975E-001;-1.065545603632927E-001;-3.376607201062143E-004;6.644214037805796E-003;
2.426333333333334E+009;1.194013133645058E-001;-1.079274415969849E-001;-1.419704640284181E-004;6.558714434504509E-003;
2.426500000000000E+009;1.187433674931526E-001;-1.094186380505562E-001;1.322050957242027E-004;6.244071759283543E-003;
2.426666666666667E+009;1.180900707840920E-001;-1.108964383602142E-001;3.907711943611503E-004;6.135050207376480E-003;
2.426833333333334E+009;1.173333749175072E-001;-1.126055270433426E-001;5.267626256681979E-004;5.922654643654823E-003;
2.427000000000000E+009;1.167140752077103E-001;-1.143204197287560E-001;8.311243727803230E-004;5.765530280768871E-003;
2.427166666666667E+009;1.162206903100014E-001;-1.158197447657585E-001;9.011585498228669E-004;5.651960149407387E-003;
2.427333333333334E+009;1.158256381750107E-001;-1.174287050962448E-001;1.021219184622169E-003;5.289787892252207E-003;
2.427500000000000E+009;1.155989542603493E-001;-1.192027032375336E-001;9.358345414511859E-004;5.133995320647955E-003;
2.427666666666667E+009;1.151555478572846E-001;-1.207510009407997E-001;1.084627583622932E-003;4.837608896195889E-003;
