# Hz S RI R 50
2400000000.0000000000 0.167589053511619595626669365629 0.041203428059816360473632812500 -0.001578233437612652995465922778 0.001156708807684480927110981519 0 0 0 0 
2400166666.6666665077 0.168452084064483587066973768742 0.040466342121362693096120466407 -0.001558325602672993919969868237 0.001007803715765476009966206128 0 0 0 0 
2400333333.3333334923 0.168700426816940307617187500000 0.039406362920999526977539062500 -0.001432286808267235972760844653 0.001194128999486566023585654150 0 0 0 0 
2400500000.0000000000 0.169291466474533108810263115629 0.038610745221376419067382812500 -0.001629527658224106051801371997 0.001114356680773199038264609229 0 0 0 0 
2400666666.6666665077 0.169703513383865411956463731258 0.037814546376466751098632812500 -0.001771782874129713015315390479 0.001112797646783292076708149487 0 0 0 0 
2400833333.3333334923 0.170100912451744107345419365629 0.036766808480024337768554687500 -0.001700283028185368017909384619 0.001133052865043282942530966650 0 0 0 0 
2401000000.0000000000 0.170387551188468905349893134371 0.035902123898267752910573591407 -0.001686931587755680084228515625 0.001067970879375935034510947119 0 0 0 0 
2401166666.6666665077 0.170708969235420199295205634371 0.034948177635669708251953125000 -0.001823693281039596037623740088 0.001137539511546493010279990088 0 0 0 0 
2401333333.3333334923 0.170748755335807800292968750000 0.034143064171075820922851562500 -0.001718776184134185097338032300 0.001215940923430026011226035010 0 0 0 0 
2401500000.0000000000 0.171211689710617093185263115629 0.033139828592538826679270158593 -0.001766858971677720980403281104 0.000994399306364357471466064453 0 0 0 0 
2401666666.6666665077 0.171140387654304504394531250000 0.032474625855684280395507812500 -0.001814829767681658051134419019 0.001136932638473808982251811450 0 0 0 0 
2401833333.3333334923 0.171204000711441012283486884371 0.031479902565479278564453125000 -0.001991774188354610963108681787 0.001279336516745388941523886572 0 0 0 0 
2402000000.0000000000 0.171148791909217806717080634371 0.030616564676165580749511718750 -0.002045445609837770895717001807 0.001423302455805242061614990234 0 0 0 0 
2402166666.6666665077 0.171304911375045804122763115629 0.029453238472342491149902343750 -0.002097141696140170097351074219 0.001370018813759088949916220557 0 0 0 0 
2402333333.3333334923 0.171123221516609191894531250000 0.028638873249292370187779610546 -0.002203360665589570999145507812 0.001563788391649723052978515625 0 0 0 0 
2402500000.0000000000 0.171503409743308993240518134371 0.027550706639885898935338204296 -0.002183674369007349014282226562 0.001505424152128397984745644678 0 0 0 0 
2402666666.6666665077 0.171314537525177001953125000000 0.026558747515082359313964843750 -0.002160065574571489854099892725 0.001777899684384465000749897534 0 0 0 0 
2402833333.3333334923 0.171373426914215087890625000000 0.025575652718544009817103201954 -0.002244247589260340170619345557 0.001975665101781487898585654150 0 0 0 0 
2403000000.0000000000 0.171336904168128995040731865629 0.024475226178765300405482108204 -0.002293367870151997046229697119 0.002140833763405681090113974463 0 0 0 0 
2403166666.6666665077 0.171430423855781610686932481258 0.023319426923990249633789062500 -0.002231600694358348846435546875 0.002247359603643416924717568506 0 0 0 0 
2403333333.3333334923 0.171128526329994201660156250000 0.022030670195817950857142264454 -0.002176112029701470895054482568 0.002267775358632206916809082031 0 0 0 0 
2403500000.0000000000 0.170976951718330411056356865629 0.021109689027070999145507812500 -0.002001356566324830055236816406 0.002534885890781878991367959131 0 0 0 0 
2403666666.6666665077 0.170824155211448697189169365629 0.019683882594108581542968750000 -0.001861145719885825893999409253 0.002460862044245005087611533057 0 0 0 0 
2403833333.3333334923 0.170922562479972811599893134371 0.018528955057263370859166329296 -0.001727710012346505901933979565 0.002822533017024397850036621094 0 0 0 0 
2404000000.0000000000 0.170686095952987698654013115629 0.017390411347150799142857735546 -0.001915861386805772998212504810 0.002973683876916766166687011719 0 0 0 0 
2404166666.6666665077 0.170496493577957208831463731258 0.015950977802276611328125000000 -0.001582101453095674948451376807 0.003048751736059784889221191406 0 0 0 0 
2404333333.3333334923 0.170509964227676391601562500000 0.014737572520971299952496913477 -0.001591309206560254096984863281 0.003088313387706875801086425781 0 0 0 0 
2404500000.0000000000 0.170328661799430902679119981258 0.013298509642481800424596016796 -0.001523730810731648965122841943 0.003183363936841487884521484375 0 0 0 0 
2404666666.6666665077 0.170420065522193908691406250000 0.011930627748370170593261718750 -0.001365090138278902010676718604 0.003504934255033731894252158057 0 0 0 0 
2404833333.3333334923 0.170288547873497009277343750000 0.010604267939925190317174141796 -0.001241730176843703009961772388 0.003470015944913030104396201025 0 0 0 0 
2405000000.0000000000 0.170225396752357510665731865629 0.009169947355985641479492187500 -0.001135289203375577926635742188 0.003592231078073381943943642725 0 0 0 0 
2405166666.6666665077 0.170248135924339294433593750000 0.007668656297028064727783203125 -0.000938241952098906040191650391 0.003764111548662186102626181494 0 0 0 0 
2405333333.3333334923 0.170390576124191311935263115629 0.005911654327064752578735351562 -0.000793315703049302101135253906 0.003627777798101305961608886719 0 0 0 0 
2405500000.0000000000 0.170332178473472595214843750000 0.004634598735719919204711914062 -0.000532511388882994651794433594 0.003872195957228540940525673975 0 0 0 0 
2405666666.6666665077 0.170319586992263793945312500000 0.003031339729204773902893066406 -0.000247036747168749625056666241 0.003972096834331750869750976562 0 0 0 0 
2405833333.3333334923 0.170142173767089788238848768742 0.001467981142923235893249511719 -0.000220187605009414309829157697 0.003793054493144154982325888525 0 0 0 0 
2406000000.0000000000 0.170127823948860196212606865629 -0.000378053024178370779186802997 0.000029133607313269749283790588 0.003706454299390316009521484375 0 0 0 0 
2406166666.6666665077 0.169930338859558105468750000000 -0.001785197993740438981297158350 0.000114995913463644696913580623 0.003705473151057959036586142432 0 0 0 0 
2406333333.3333334923 0.170000776648521395584268134371 -0.003236689371988176865818642725 0.000302146858302876407473963605 0.003786059096455574035644531250 0 0 0 0 
2406500000.0000000000 0.169893249869346590896768134371 -0.004856725689023733139038085938 0.000617321813479065895080566406 0.003658183384686708883998251807 0 0 0 0 
2406666666.6666665077 0.169539213180541992187500000000 -0.006468931678682565689086914062 0.000615237921010702848434448242 0.003562614088878035979029990088 0 0 0 0 
2406833333.3333334923 0.169559553265571594238281250000 -0.008023288100957870483398437500 0.000689469219651073217391967773 0.003451700089499353928806923975 0 0 0 0 
2407000000.0000000000 0.169385388493537902832031250000 -0.009450335986912250518798828125 0.000989510212093591690063476562 0.003516455413773655891418457031 0 0 0 0 
2407166666.6666665077 0.169342696666717501541299384371 -0.010792055167257789266566092579 0.001000230084173380894901894678 0.003282579360529779954197548975 0 0 0 0 
2407333333.3333334923 0.169014960527419988434161268742 -0.012133286334574220829973789648 0.001030775601975620009778666919 0.003265095409005879922154091943 0 0 0 0 
2407500000.0000000000 0.168972700834274291992187500000 -0.013400558382272720336914062500 0.001153339748270810084102011572 0.003380358451977372169494628906 0 0 0 0 
2407666666.6666665077 0.168846219778060913085937500000 -0.014566645026206970214843750000 0.001210821093991399028180766528 0.003116915002465248107910156250 0 0 0 0 
2407833333.3333334923 0.168509945273399408538494981258 -0.015822393819689750671386718750 0.001254145987331867001177143628 0.003114013001322745843174599756 0 0 0 0 
2408000000.0000000000 0.168472811579704312423544365629 -0.016955439001321789133092110546 0.001231035217642783901811909253 0.003114691702648996873142861475 0 0 0 0 
2408166666.6666665077 0.168241903185844393631143134371 -0.017732691019773479806920235546 0.001377367530949413993238139575 0.002942201681435108184814453125 0 0 0 0 
2408333333.3333334923 0.168428704142570495605468750000 -0.018764752894639968872070312500 0.001569055486470460891723632812 0.002989802975207567214965820312 0 0 0 0 
2408500000.0000000000 0.168261781334876986404580634371 -0.019799806177616119384765625000 0.001606473582796753103371645288 0.003011579625308514075038290869 0 0 0 0 
2408666666.6666665077 0.168346360325813293457031250000 -0.020706271752715110778808593750 0.001631400780752300999285053784 0.002961706370115280151367187500 0 0 0 0 
2408833333.3333334923 0.168298125267028808593750000000 -0.021529292687773711467702497657 0.001823765807785094001172709888 0.002905411412939428849461220850 0 0 0 0 
2409000000.0000000000 0.168312937021255493164062500000 -0.022448437288403511047363281250 0.001950669917277991988538432544 0.002825274597853422164916992188 0 0 0 0 
2409166666.6666665077 0.168481990694999694824218750000 -0.023299654945731159555455391796 0.002001882530748844146728515625 0.002874099183827639059779501807 0 0 0 0 
2409333333.3333334923 0.168762907385826110839843750000 -0.024266898632049560546875000000 0.002098211552947760061976767432 0.002693848917260766029357910156 0 0 0 0 
2409500000.0000000000 0.168848052620887811858807481258 -0.025244172662496570241907889454 0.002160054631531238989589072119 0.002640385180711746215820312500 0 0 0 0 
2409666666.6666665077 0.168865665793418912032919365629 -0.026006795465946200979212576954 0.002345487242564558982849121094 0.002634148113429545922520302881 0 0 0 0 
2409833333.3333334923 0.168883353471756009200888115629 -0.026879688724875450134277343750 0.002295205835252999825718545068 0.002557069994509220123291015625 0 0 0 0 
2410000000.0000000000 0.168909072875976590255575615629 -0.027844492346048358571986014454 0.002417533425614237785339355469 0.002446981612592935995814658057 0 0 0 0 
2410166666.6666665077 0.169157832860946710784588731258 -0.028703445568680759775181954296 0.002603565342724322839024209131 0.002432096982374786896946572412 0 0 0 0 
2410333333.3333334923 0.169107303023338290115518134371 -0.029597096145153049123743826954 0.002643460175022482872009277344 0.002360619837418199019191122900 0 0 0 0 
2410500000.0000000000 0.168970882892608587066973768742 -0.030662760138511661184290701954 0.002606839407235383987426757812 0.002287704730406403975245810400 0 0 0 0 
2410666666.6666665077 0.168856441974639892578125000000 -0.031613137573003768920898437500 0.002694904571399093107936240088 0.002163221128284931182861328125 0 0 0 0 
2410833333.3333334923 0.168770536780357388595419365629 -0.032441042363643653179128278907 0.002958682132884860038757324219 0.001940531772561370892765664209 0 0 0 0 
2411000000.0000000000 0.168479189276695306975994981258 -0.033393185585737228393554687500 0.002865093760192393822910927881 0.002032394986599684195277548682 0 0 0 0 
2411166666.6666665077 0.168484941124916104415731865629 -0.034204933792352683330495466407 0.002929013920947908921482705225 0.001947639510035515048383403247 0 0 0 0 
2411333333.3333334923 0.168273076415062006194744981258 -0.035120610147714621807057966407 0.003158124163746833801269531250 0.001858230680227280096766806494 0 0 0 0 
2411500000.0000000000 0.167868196964263888260049384371 -0.036092001944780349731445312500 0.003054571105167270140406943213 0.001594687113538384003880166162 0 0 0 0 
2411666666.6666665077 0.167762592434883089920205634371 -0.036938861012458801269531250000 0.003116642590612173080444335938 0.001633995678275824026820517432 0 0 0 0 
2411833333.3333334923 0.167567685246467590332031250000 -0.037803363054990768432617187500 0.003216429613530635833740234375 0.001478821155615150928497314453 0 0 0 0 
2412000000.0000000000 0.167394325137138394454794365629 -0.038723979145288467407226562500 0.003323584329336882071254111182 0.001439027255401015064836811597 0 0 0 0 
2412166666.6666665077 0.166790291666984613616619981258 -0.039676655083894729614257812500 0.003300546901300549940821982275 0.001123464666306972937342978369 0 0 0 0 
2412333333.3333334923 0.166672706604003906250000000000 -0.040538456290960311889648437500 0.003437300911173224015476845850 0.000953949987888336181640625000 0 0 0 0 
2412500000.0000000000 0.166192978620529202560263115629 -0.041462857276201248168945312500 0.003546363441273570060729980469 0.000847049290314316749572753906 0 0 0 0 
2412666666.6666665077 0.166000604629516601562500000000 -0.042635358870029449462890625000 0.003592490917071700096130371094 0.000443319964688271284103393555 0 0 0 0 
2412833333.3333334923 0.165717571973800686935263115629 -0.043589800596237182617187500000 0.003620452480390667915344238281 0.000463682255940511822700500488 0 0 0 0 
2413000000.0000000000 0.165258705615997286697549384371 -0.044532138854265213012695312500 0.003621988929808139801025390625 0.000327683839714154601097106934 0 0 0 0 
2413166666.6666665077 0.164735928177833612640057481258 -0.045586057007312781597097028907 0.003405935363844037055969238281 0.000189092534128576490000048227 0 0 0 0 
2413333333.3333334923 0.164287835359573392013388115629 -0.046438485383987426757812500000 0.003694770857691764831542968750 0.000021090769223519600927829742 0 0 0 0 
2413500000.0000000000 0.163802206516265896896200615629 -0.047618322074413299560546875000 0.003567476524040102958679199219 -0.000237586238654330399915418082 0 0 0 0 
2413666666.6666665077 0.163565620779991205413494981258 -0.048655971884727478027343750000 0.003449085634201765060424804688 -0.000349223410012200474739074707 0 0 0 0 
2413833333.3333334923 0.163036495447158813476562500000 -0.049565728753805160522460937500 0.003450985299423336982727050781 -0.000662687874864786863327026367 0 0 0 0 
2414000000.0000000000 0.162473574280738802810830634371 -0.050687350332736968994140625000 0.003222446423023939132690429688 -0.000741629395633935928344726562 0 0 0 0 
2414166666.6666665077 0.162359490990638705154580634371 -0.051507648080587387084960937500 0.003139653941616415977478027344 -0.000920734368264675140380859375 0 0 0 0 
2414333333.3333334923 0.161801144480705288986044365629 -0.052634261548519141460378278907 0.003033862449228764014003134619 -0.001205525361001491980311728369 0 0 0 0 
2414500000.0000000000 0.161619350314140292068643134371 -0.053405553102493293071706403907 0.002887968905270100073573447119 -0.001089347759261726899387978662 0 0 0 0 
2414666666.6666665077 0.161144867539405794998330634371 -0.054494690150022506713867187500 0.002928092377260326905491494287 -0.001279978430829942009569477612 0 0 0 0 
2414833333.3333334923 0.160955891013145502288494981258 -0.055465873330831527709960937500 0.002748810453340411186218261719 -0.001319814589805901050567626953 0 0 0 0 
2415000000.0000000000 0.160827383399009704589843750000 -0.056516651064157492900807966407 0.002426659688353538946864462744 -0.001430786331184207959416054834 0 0 0 0 
2415166666.6666665077 0.160618230700492886642294365629 -0.057652067393064498901367187500 0.002250381046906114058253622900 -0.001432241057045757987378764575 0 0 0 0 
2415333333.3333334923 0.160521924495696993728799384371 -0.058749642223119742656667341407 0.002223821356892586188075400244 -0.001459260587580502033233642578 0 0 0 0 
2415500000.0000000000 0.160284087061881991287393134371 -0.059694167226552963256835937500 0.001888069207780062935472797925 -0.001626606681384145996691059644 0 0 0 0 
2415666666.6666665077 0.160241082310676602462606865629 -0.060942392796277999877929687500 0.001739558647386729934095073169 -0.001567550003528594970703125000 0 0 0 0 
2415833333.3333334923 0.160114139318466186523437500000 -0.062124274671077728271484375000 0.001596188638359308025957417065 -0.001540754688903688950779580225 0 0 0 0 
2416000000.0000000000 0.159746527671813992599325615629 -0.063302457332611083984375000000 0.001505190739408134980442666162 -0.001490886905230581977246928638 0 0 0 0 
2416166666.6666665077 0.159729242324829101562500000000 -0.064413592219352722167968750000 0.001163579639978707053540873950 -0.001476336037740110917332314600 0 0 0 0 
2416333333.3333334923 0.159544318914413507659588731258 -0.065661191940307617187500000000 0.000946881540585309267044067383 -0.001225604792125523090362548828 0 0 0 0 
2416500000.0000000000 0.159292995929717989822549384371 -0.066999666392803192138671875000 0.000877698359545320272445678711 -0.001102615613490343093872070312 0 0 0 0 
2416666666.6666665077 0.158933475613594110686932481258 -0.067981615662574768066406250000 0.000756036140955984592437744141 -0.001002121600322424931767129053 0 0 0 0 
2416833333.3333334923 0.158816397190093994140625000000 -0.069290667772293090820312500000 0.000881885702256113290786743164 -0.000809779390692710876464843750 0 0 0 0 
2417000000.0000000000 0.158232033252716092208700615629 -0.070314109325408935546875000000 0.000850919284857809543609619141 -0.000722410390153527259826660156 0 0 0 0 
2417166666.6666665077 0.158076182007789611816406250000 -0.071327023208141326904296875000 0.000929114932660013437271118164 -0.000655130192171782255172729492 0 0 0 0 
2417333333.3333334923 0.157720744609832791427450615629 -0.072230972349643707275390625000 0.000664377177599817514419555664 -0.000342849438311532085568028583 0 0 0 0 
2417500000.0000000000 0.157296076416969299316406250000 -0.073477469384670257568359375000 0.000756027176976203918457031250 -0.000364975247066468000411987305 0 0 0 0 
2417666666.6666665077 0.157063841819763211349325615629 -0.074123308062553405761718750000 0.000919332262128591537475585938 -0.000163018528837710591867724008 0 0 0 0 
2417833333.3333334923 0.156727105379104586502236884371 -0.075104042887687683105468750000 0.001012690481729805903193808447 -0.000131541019072756198331555777 0 0 0 0 
2418000000.0000000000 0.156337857246398898025674384371 -0.076099641621112823486328125000 0.001229899004101753018022846753 -0.000008699901627551298588514328 0 0 0 0 
2418166666.6666665077 0.156092584133148193359375000000 -0.076582573354244232177734375000 0.001359689398668705983402871240 0.000074728057370521128177642822 0 0 0 0 
2418333333.3333334923 0.156085401773452786544638115629 -0.077500849962234497070312500000 0.001341161085292696952819824219 -0.000026262927349307570943628617 0 0 0 0 
2418500000.0000000000 0.155650705099105807205361884371 -0.078358583152294158935546875000 0.001573420595377684073207236182 0.000215584499528631595060071402 0 0 0 0 
2418666666.6666665077 0.155437082052230807205361884371 -0.078969404101371765136718750000 0.001750339870341121933580708081 0.000209802499739453196525573730 0 0 0 0 
2418833333.3333334923 0.155010908842086791992187500000 -0.079920403659343719482421875000 0.001839988981373607895494770581 0.000042406602005939930677413940 0 0 0 0 
2419000000.0000000000 0.154678463935852106292401231258 -0.080506727099418640136718750000 0.001889525097794831015943217700 0.000194560183444991707801818848 0 0 0 0 
2419166666.6666665077 0.154319852590560913085937500000 -0.081160031259059906005859375000 0.001974252518266439004185341943 0.000099798242445103824138641357 0 0 0 0 
2419333333.3333334923 0.153862327337264986892861884371 -0.081831730902194976806640625000 0.002238748595118523077723837744 0.000028680258765234608540331193 0 0 0 0 
2419500000.0000000000 0.153521195054054288009481865629 -0.082586109638214111328125000000 0.002292577875778079032897949219 0.000063906321884132921695709229 0 0 0 0 
2419666666.6666665077 0.153221338987350491622763115629 -0.083172403275966644287109375000 0.002576371887698770003077841650 -0.000140171629027463495731353760 0 0 0 0 
2419833333.3333334923 0.152851775288581903655682481258 -0.083610191941261291503906250000 0.002559331711381673812866210938 -0.000241181565797887688309270038 0 0 0 0 
