# Version 1.00
#
freq[Hz];re:Trc1_S11;im:Trc1_S11;re:Trc2_S21;im:Trc2_S21;
2.400000000000000E+009;1.714234352111816E-001;4.010642319917679E-002;1.880961237475276E-003;3.829377936199307E-003;
2.400166666666667E+009;1.720667630434036E-001;3.977931663393974E-002;2.081434708088636E-003;3.650331869721413E-003;
2.400333333333334E+009;1.724037826061249E-001;3.909680992364883E-002;2.368900459259749E-003;3.488520858809352E-003;
2.400500000000000E+009;1.728902012109757E-001;3.856930881738663E-002;2.575088990852237E-003;3.439830150455236E-003;
2.400666666666667E+009;1.732893884181976E-001;3.780823573470116E-002;2.866237889975309E-003;3.216883167624474E-003;
2.400833333333334E+009;1.734486073255539E-001;3.739642724394798E-002;2.803880954161286E-003;2.890427829697728E-003;
2.401000000000000E+009;1.737428009510040E-001;3.672010451555252E-002;2.988324733451009E-003;2.805039985105395E-003;
2.401166666666667E+009;1.736460179090500E-001;3.594613820314407E-002;2.983401529490948E-003;2.546679461374879E-003;
2.401333333333334E+009;1.736680716276169E-001;3.542989864945412E-002;3.114807885140181E-003;2.321677748113871E-003;
2.401500000000000E+009;1.738286614418030E-001;3.468264639377594E-002;3.200274659320712E-003;2.211144659668207E-003;
2.401666666666667E+009;1.736654341220856E-001;3.423016518354416E-002;3.262612270191312E-003;2.080085454508662E-003;
2.401833333333334E+009;1.734066009521484E-001;3.341310843825340E-002;3.291027387604117E-003;1.946789561770856E-003;
2.402000000000000E+009;1.732314676046372E-001;3.260159492492676E-002;3.219216363504529E-003;1.846861676312983E-003;
2.402166666666667E+009;1.730058640241623E-001;3.166825324296951E-002;3.188764443621039E-003;1.580485259182751E-003;
2.402333333333334E+009;1.727439463138580E-001;3.097679838538170E-002;3.127038944512606E-003;1.493499730713666E-003;
2.402500000000000E+009;1.726774871349335E-001;3.001690469682217E-002;3.125329734757543E-003;1.218348625116050E-003;
2.402666666666667E+009;1.720887124538422E-001;2.925175800919533E-002;2.961897058412433E-003;1.186719397082925E-003;
2.402833333333334E+009;1.717330068349838E-001;2.807742543518543E-002;3.154027275741100E-003;1.140212756581605E-003;
2.403000000000000E+009;1.715530008077622E-001;2.713947184383869E-002;3.123913425952196E-003;9.741865796968341E-004;
2.403166666666667E+009;1.710205823183060E-001;2.591233141720295E-002;2.937645651400089E-003;7.459137705154717E-004;
2.403333333333334E+009;1.706085652112961E-001;2.479591593146324E-002;3.074886510148644E-003;8.318839245475829E-004;
2.403500000000000E+009;1.701323091983795E-001;2.347440086305141E-002;2.793432911857963E-003;5.580758443102241E-004;
2.403666666666667E+009;1.700186133384705E-001;2.204426750540733E-002;2.657495206221938E-003;6.046948838047683E-004;
2.403833333333334E+009;1.696277409791946E-001;2.086635492742062E-002;2.728658029809594E-003;5.238567828200758E-004;
2.404000000000000E+009;1.693073213100433E-001;1.936681009829044E-002;2.794144442304969E-003;5.316538736224175E-004;
2.404166666666667E+009;1.689985692501068E-001;1.780480518937111E-002;2.664187224581838E-003;5.340843927115202E-004;
2.404333333333334E+009;1.685163974761963E-001;1.620282791554928E-002;2.489811973646283E-003;6.534371641464531E-004;
2.404500000000000E+009;1.684066206216812E-001;1.471982337534428E-002;2.597311511635780E-003;5.370079306885600E-004;
2.404666666666667E+009;1.684677153825760E-001;1.304052304476500E-002;2.390339504927397E-003;6.329151801764965E-004;
2.404833333333334E+009;1.682098954916000E-001;1.138407830148935E-002;2.428747247904539E-003;7.040270720608532E-004;
2.405000000000000E+009;1.680642217397690E-001;9.531342424452305E-003;2.489418257027865E-003;7.272566435858607E-004;
2.405166666666667E+009;1.679192930459976E-001;7.766903843730688E-003;2.571309683844447E-003;7.042270735837519E-004;
2.405333333333334E+009;1.679161638021469E-001;5.657942499965429E-003;2.575444988906384E-003;7.265790482051671E-004;
2.405500000000000E+009;1.679121553897858E-001;4.134060814976692E-003;2.615270903334022E-003;6.281694513745606E-004;
2.405666666666667E+009;1.678246855735779E-001;2.089216373860836E-003;2.703857840970159E-003;6.400583661161363E-004;
2.405833333333334E+009;1.676375418901444E-001;3.138772153761238E-004;2.811024198308587E-003;5.017922958359122E-004;
2.406000000000000E+009;1.677907109260559E-001;-1.625305740162730E-003;2.766577759757638E-003;4.948248388245702E-004;
2.406166666666667E+009;1.678802520036697E-001;-3.462124150246382E-003;2.951098838821054E-003;4.865608061663806E-004;
2.406333333333334E+009;1.680184602737427E-001;-5.222514737397432E-003;2.964158542454243E-003;4.419343895278871E-004;
2.406500000000000E+009;1.679411381483078E-001;-7.171133533120155E-003;3.007188672199845E-003;3.608750703278929E-004;
2.406666666666667E+009;1.678121387958527E-001;-8.827704936265945E-003;3.064715070649982E-003;3.474413533695042E-004;
2.406833333333334E+009;1.680201292037964E-001;-1.052706595510244E-002;3.260175231844187E-003;4.255977983120829E-004;
2.407000000000000E+009;1.680831462144852E-001;-1.229645125567913E-002;3.168560797348619E-003;2.395638148300350E-004;
2.407166666666667E+009;1.682476252317429E-001;-1.376077346503735E-002;3.347461344674230E-003;7.921496580820531E-005;
2.407333333333334E+009;1.681529581546783E-001;-1.531906519085169E-002;3.416820429265499E-003;1.285480539081618E-004;
2.407500000000000E+009;1.683224588632584E-001;-1.675255410373211E-002;3.587440587580204E-003;-1.000687916530296E-006;
2.407666666666667E+009;1.683763116598129E-001;-1.794853433966637E-002;3.502072999253869E-003;-1.050990758812986E-004;
2.407833333333334E+009;1.682664901018143E-001;-1.920942217111588E-002;3.579145297408104E-003;-3.070335951633751E-004;
2.408000000000000E+009;1.685421019792557E-001;-2.041429840028286E-002;3.656762419268489E-003;-4.651847411878407E-004;
2.408166666666667E+009;1.687072515487671E-001;-2.136225253343582E-002;3.670693608000875E-003;-5.789370043203235E-004;
2.408333333333334E+009;1.690640300512314E-001;-2.224346809089184E-002;3.952104132622480E-003;-8.952611824497581E-004;
2.408500000000000E+009;1.692479550838471E-001;-2.329816482961178E-002;3.839837387204170E-003;-1.132276142016053E-003;
2.408666666666667E+009;1.694363355636597E-001;-2.396114915609360E-002;3.976334817707539E-003;-1.284217461943626E-003;
2.408833333333334E+009;1.696938127279282E-001;-2.467343583703041E-002;3.851129207760096E-003;-1.536977593787015E-003;
2.409000000000000E+009;1.700006276369095E-001;-2.537408657371998E-002;3.795950906351209E-003;-1.653525047004223E-003;
2.409166666666667E+009;1.703540086746216E-001;-2.614969201385975E-002;3.612538101151586E-003;-1.927782665006816E-003;
2.409333333333334E+009;1.707780212163925E-001;-2.687755599617958E-002;3.522196551784873E-003;-2.193931723013520E-003;
2.409500000000000E+009;1.711304336786270E-001;-2.756999433040619E-002;3.315376583486795E-003;-2.286186441779137E-003;
2.409666666666667E+009;1.713728308677673E-001;-2.827144786715508E-002;3.224518382921815E-003;-2.511102240532637E-003;
2.409833333333334E+009;1.715472340583801E-001;-2.897496894001961E-002;3.095432883128524E-003;-2.671478083357215E-003;
2.410000000000000E+009;1.718493700027466E-001;-2.957763709127903E-002;2.768006641417742E-003;-2.724240999668837E-003;
2.410166666666667E+009;1.719780713319778E-001;-3.032550588250160E-002;2.646792912855744E-003;-2.751601394265890E-003;
2.410333333333334E+009;1.719336807727814E-001;-3.085002489387989E-002;2.460400108247995E-003;-2.748139901086688E-003;
2.410500000000000E+009;1.720929741859436E-001;-3.160417079925537E-002;2.311386633664370E-003;-2.782256342470646E-003;
2.410666666666667E+009;1.719299107789993E-001;-3.234215825796127E-002;2.132134279236198E-003;-2.668910659849644E-003;
2.410833333333334E+009;1.718847751617432E-001;-3.285558521747589E-002;2.010856289416552E-003;-2.932633273303509E-003;
2.411000000000000E+009;1.715296208858490E-001;-3.351097926497459E-002;1.868498511612415E-003;-2.623468171805143E-003;
2.411166666666667E+009;1.713505089282990E-001;-3.404081240296364E-002;1.760139712132514E-003;-2.861926332116127E-003;
2.411333333333334E+009;1.709839105606079E-001;-3.460404276847839E-002;1.762723550200462E-003;-2.734392415732145E-003;
2.411500000000000E+009;1.704859584569931E-001;-3.545791283249855E-002;1.857451512478292E-003;-2.806745702400804E-003;
2.411666666666667E+009;1.701387912034988E-001;-3.599338978528976E-002;1.694375649094582E-003;-2.687323372811079E-003;
2.411833333333334E+009;1.698746383190155E-001;-3.663107380270958E-002;1.585671911016107E-003;-2.777243964374065E-003;
2.412000000000000E+009;1.693979650735855E-001;-3.737317025661469E-002;1.455929130315781E-003;-2.754393499344587E-003;
2.412166666666667E+009;1.687351465225220E-001;-3.811838477849960E-002;1.552550587803125E-003;-2.728795399889350E-003;
2.412333333333334E+009;1.686101257801056E-001;-3.865949809551239E-002;1.374914310872555E-003;-2.878251718357205E-003;
2.412500000000000E+009;1.679864972829819E-001;-3.957581892609596E-002;1.183826941996813E-003;-2.939383964985609E-003;
2.412666666666667E+009;1.672201454639435E-001;-4.069181531667709E-002;1.301481272093952E-003;-3.062047297134996E-003;
2.412833333333334E+009;1.667848229408264E-001;-4.138845577836037E-002;1.053889980539680E-003;-2.852558391168714E-003;
2.413000000000000E+009;1.660447269678116E-001;-4.237391427159309E-002;7.935159956105053E-004;-2.896257210522890E-003;
2.413166666666667E+009;1.653919667005539E-001;-4.316741973161697E-002;8.140064892359078E-004;-2.885589608922601E-003;
2.413333333333334E+009;1.646369695663452E-001;-4.434226080775261E-002;7.048289990052581E-004;-2.774170599877834E-003;
2.413500000000000E+009;1.640327274799347E-001;-4.532629996538162E-002;6.491435342468321E-004;-3.065231721848249E-003;
2.413666666666667E+009;1.633546948432922E-001;-4.648632928729057E-002;6.310574826784432E-004;-2.873410005122423E-003;
2.413833333333334E+009;1.624889373779297E-001;-4.737617075443268E-002;5.179793806746602E-004;-2.983882557600737E-003;
2.414000000000000E+009;1.617327630519867E-001;-4.861290380358696E-002;5.073549109511077E-004;-2.863455098122358E-003;
2.414166666666667E+009;1.613417714834213E-001;-4.976459592580795E-002;2.837111242115498E-004;-2.730721607804298E-003;
2.414333333333334E+009;1.606318354606628E-001;-5.085774511098862E-002;2.562987792771310E-004;-2.710241125896573E-003;
2.414500000000000E+009;1.602549403905869E-001;-5.196923017501831E-002;2.266232477268204E-004;-2.598234452307224E-003;
2.414666666666667E+009;1.597764045000076E-001;-5.322453379631043E-002;2.404531551292166E-004;-2.555941930040717E-003;
2.414833333333334E+009;1.592536121606827E-001;-5.456315726041794E-002;3.688561264425516E-004;-2.665996784344316E-003;
2.415000000000000E+009;1.588888913393021E-001;-5.567962303757668E-002;4.590473836287856E-004;-2.781766932457686E-003;
2.415166666666667E+009;1.584618389606476E-001;-5.705917626619339E-002;2.418341318843886E-004;-2.734413603320718E-003;
2.415333333333334E+009;1.584109216928482E-001;-5.840213596820831E-002;1.840990735217929E-004;-2.861738437786698E-003;
2.415500000000000E+009;1.580782830715179E-001;-5.975540727376938E-002;1.152115873992443E-004;-2.797628054395318E-003;
2.415666666666667E+009;1.579773724079132E-001;-6.111682206392288E-002;8.236359280999750E-005;-2.858784748241305E-003;
2.415833333333334E+009;1.577826291322708E-001;-6.248412653803825E-002;7.364709017565474E-005;-2.783800940960646E-003;
2.416000000000000E+009;1.574139297008514E-001;-6.410712003707886E-002;-2.668828346941155E-005;-2.845850307494402E-003;
2.416166666666667E+009;1.575009226799011E-001;-6.547495722770691E-002;-2.634871925693005E-004;-2.907687332481146E-003;
2.416333333333334E+009;1.572986096143723E-001;-6.697902083396912E-002;-4.120957746636123E-004;-3.066585399210453E-003;
2.416500000000000E+009;1.569933444261551E-001;-6.849399954080582E-002;-5.094505031593144E-004;-2.886938862502575E-003;
2.416666666666667E+009;1.567913144826889E-001;-6.974920630455017E-002;-5.476549849845469E-004;-2.654326846823096E-003;
2.416833333333334E+009;1.567772477865219E-001;-7.116796821355820E-002;-6.995492731221020E-004;-2.649928675964475E-003;
2.417000000000000E+009;1.564097553491592E-001;-7.275831699371338E-002;-7.811092073097825E-004;-2.563179703429341E-003;
2.417166666666667E+009;1.563197374343872E-001;-7.384378463029862E-002;-6.752008921466768E-004;-2.357481513172388E-003;
2.417333333333334E+009;1.561764776706696E-001;-7.497942447662354E-002;-7.749853539280593E-004;-2.351762959733605E-003;
2.417500000000000E+009;1.560086309909821E-001;-7.619258761405945E-002;-6.626847316510975E-004;-2.137360861524940E-003;
2.417666666666667E+009;1.560146808624268E-001;-7.716866582632065E-002;-6.570416153408587E-004;-2.158279996365309E-003;
2.417833333333334E+009;1.558798849582672E-001;-7.819908857345581E-002;-4.502600640989840E-004;-1.982839545235038E-003;
2.418000000000000E+009;1.557491868734360E-001;-7.921886444091797E-002;-5.277844029478729E-004;-1.986419549211860E-003;
2.418166666666667E+009;1.557194143533707E-001;-7.994678616523743E-002;-4.496639303397387E-004;-2.064497675746679E-003;
2.418333333333334E+009;1.558289676904678E-001;-8.078593760728836E-002;-1.963729591807351E-004;-2.094166819006205E-003;
2.418500000000000E+009;1.555189341306686E-001;-8.154936879873276E-002;-3.385943709872663E-004;-2.153848996385932E-003;
2.418666666666667E+009;1.555947214365006E-001;-8.229439705610275E-002;-5.328168481355533E-005;-2.281780587509275E-003;
2.418833333333334E+009;1.552631855010986E-001;-8.315387368202210E-002;-2.084645711875055E-005;-2.389991423115134E-003;
2.419000000000000E+009;1.551921814680100E-001;-8.368843793869019E-002;-5.633385808323510E-005;-2.780839335173369E-003;
2.419166666666667E+009;1.551346778869629E-001;-8.418706059455872E-002;-7.881196506787092E-005;-2.737828763201833E-003;
2.419333333333334E+009;1.549163758754730E-001;-8.463706076145172E-002;-2.110257191816345E-004;-2.937289653345943E-003;
2.419500000000000E+009;1.548957228660584E-001;-8.527568727731705E-002;-3.045482444576919E-004;-3.119326196610928E-003;
2.419666666666667E+009;1.547708809375763E-001;-8.569467812776566E-002;-3.722432011272758E-004;-3.265417180955410E-003;
2.419833333333334E+009;1.544045060873032E-001;-8.587417751550674E-002;-7.682327413931489E-004;-3.142368048429489E-003;
2.420000000000000E+009;1.542949676513672E-001;-8.640729635953903E-002;-9.928771760314703E-004;-3.408616874366999E-003;
2.420166666666667E+009;1.540150493383408E-001;-8.672961592674255E-002;-1.076077925972641E-003;-3.587684128433466E-003;
2.420333333333334E+009;1.537968367338181E-001;-8.710312098264694E-002;-1.311597647145391E-003;-3.556513460353017E-003;
2.420500000000000E+009;1.535355746746063E-001;-8.716896176338196E-002;-1.507410779595375E-003;-3.437003353610635E-003;
2.420666666666667E+009;1.532300561666489E-001;-8.767630904912949E-002;-1.771439448930323E-003;-3.501344006508589E-003;
2.420833333333334E+009;1.528882682323456E-001;-8.805149048566818E-002;-1.898375572636724E-003;-3.341369563713670E-003;
2.421000000000000E+009;1.525571793317795E-001;-8.838284015655518E-002;-2.170149469748139E-003;-3.481249324977398E-003;
2.421166666666667E+009;1.520572900772095E-001;-8.874373883008957E-002;-2.258584601804614E-003;-3.401704365387559E-003;
2.421333333333334E+009;1.516393870115280E-001;-8.932853490114212E-002;-2.489475766196847E-003;-3.251409158110619E-003;
2.421500000000000E+009;1.509388536214829E-001;-8.965635299682617E-002;-2.639271551743150E-003;-3.099909052252770E-003;
2.421666666666667E+009;1.506005972623825E-001;-8.999948948621750E-002;-2.937000012025237E-003;-2.966062398627400E-003;
2.421833333333334E+009;1.499089747667313E-001;-9.069265425205231E-002;-3.014040412381291E-003;-2.960974117740989E-003;
2.422000000000000E+009;1.492094546556473E-001;-9.125940501689911E-002;-3.032888285815716E-003;-2.641279948875308E-003;
2.422166666666667E+009;1.484335362911224E-001;-9.205365926027298E-002;-3.130164928734303E-003;-2.581770997494459E-003;
2.422333333333334E+009;1.476189047098160E-001;-9.251845628023148E-002;-3.249254077672958E-003;-2.493917709216476E-003;
2.422500000000000E+009;1.468161195516586E-001;-9.295815229415894E-002;-3.270176006481051E-003;-2.274791477248073E-003;
2.422666666666667E+009;1.459525376558304E-001;-9.380029886960983E-002;-3.515112446621060E-003;-2.217531204223633E-003;
2.422833333333334E+009;1.452454030513763E-001;-9.459647536277771E-002;-3.590781940147281E-003;-2.128149149939418E-003;
2.423000000000000E+009;1.444118320941925E-001;-9.529051184654236E-002;-3.762714797630906E-003;-1.897786278277636E-003;
2.423166666666667E+009;1.436557322740555E-001;-9.618028998374939E-002;-3.693377831950784E-003;-1.955362269654870E-003;
2.423333333333334E+009;1.427688449621201E-001;-9.678906202316284E-002;-3.786567365750670E-003;-1.703768735751510E-003;
2.423500000000000E+009;1.417690664529800E-001;-9.783250093460083E-002;-3.868348663672805E-003;-1.570813357830048E-003;
2.423666666666667E+009;1.407010406255722E-001;-9.896007925271988E-002;-3.873151028528810E-003;-1.455474295653403E-003;
2.423833333333334E+009;1.399511694908142E-001;-9.982983767986298E-002;-3.927052486687899E-003;-1.358192646875978E-003;
2.424000000000000E+009;1.389000862836838E-001;-1.007303297519684E-001;-4.063223022967577E-003;-1.147049013525248E-003;
2.424166666666667E+009;1.379157602787018E-001;-1.018171161413193E-001;-4.141512792557478E-003;-9.778568055480719E-004;
2.424333333333334E+009;1.372932940721512E-001;-1.027865558862686E-001;-4.071983508765698E-003;-7.742465240880847E-004;
2.424500000000000E+009;1.364352405071259E-001;-1.039810031652451E-001;-4.105316009372473E-003;-6.217641057446599E-004;
2.424666666666667E+009;1.357086449861527E-001;-1.049356535077095E-001;-4.171045962721109E-003;-5.703750648535788E-004;
2.424833333333334E+009;1.347688734531403E-001;-1.061700135469437E-001;-3.922349307686091E-003;-4.664334410335869E-004;
2.425000000000000E+009;1.340721100568771E-001;-1.073519065976143E-001;-4.171843640506268E-003;-3.639812930487096E-004;
2.425166666666667E+009;1.331771612167358E-001;-1.084282174706459E-001;-4.144203849136829E-003;-9.804550791159272E-005;
2.425333333333334E+009;1.327044069766998E-001;-1.095805242657661E-001;-4.119036719202995E-003;-2.914917058660649E-005;
2.425500000000000E+009;1.322131454944611E-001;-1.107469350099564E-001;-4.321654792875052E-003;1.108831711462699E-004;
2.425666666666667E+009;1.314327716827393E-001;-1.121085137128830E-001;-4.225106909871101E-003;5.435572820715606E-004;
2.425833333333334E+009;1.310602873563767E-001;-1.131972819566727E-001;-4.249027930200100E-003;6.014516111463308E-004;
2.426000000000000E+009;1.305090636014938E-001;-1.145754754543304E-001;-4.189791623502970E-003;9.097862639464438E-004;
2.426166666666667E+009;1.302782297134399E-001;-1.157581061124802E-001;-4.091447684913874E-003;1.075590844266117E-003;
2.426333333333334E+009;1.297285407781601E-001;-1.168857291340828E-001;-4.176527727395296E-003;1.297481590881944E-003;
2.426500000000000E+009;1.293713450431824E-001;-1.180562824010849E-001;-3.977785352617502E-003;1.464079483412206E-003;
2.426666666666667E+009;1.291261315345764E-001;-1.189845725893974E-001;-3.712844103574753E-003;1.722903805784881E-003;
2.426833333333334E+009;1.287580430507660E-001;-1.200708746910095E-001;-3.463819855824113E-003;1.899429946206510E-003;
2.427000000000000E+009;1.285108625888825E-001;-1.211905851960182E-001;-3.401323454454541E-003;1.914886757731438E-003;
2.427166666666667E+009;1.282619237899780E-001;-1.220748052001000E-001;-3.093802137300372E-003;2.046569949015975E-003;
2.427333333333334E+009;1.279528588056564E-001;-1.229621618986130E-001;-2.961148042231798E-003;2.054024022072554E-003;
2.427500000000000E+009;1.279522627592087E-001;-1.238178610801697E-001;-2.839807188138366E-003;2.183841308578849E-003;
2.427666666666667E+009;1.277859956026077E-001;-1.248074918985367E-001;-2.857387531548739E-003;2.169796498492360E-003;
