# Hz S RI R 50
2400000000.0000000000 0.155340090394020108321981865629 0.106865227222442599197549384371 -0.004034438170492649078369140625 -0.000967742642387747764587402344 0 0 0 0 
2400166666.6666665077 0.154963999986648587325888115629 0.104377128183841705322265625000 -0.004284929018467664718627929688 -0.000969014537986367940902709961 0 0 0 0 
2400333333.3333334923 0.155039042234420804122763115629 0.102199286222457899619975307814 -0.004076129756867885589599609375 -0.000565618509426712989807128906 0 0 0 0 
2400500000.0000000000 0.154998555779457092285156250000 0.099568806588649749755859375000 -0.004267577081918716430664062500 -0.000724840734619647264480590820 0 0 0 0 
2400666666.6666665077 0.155033484101295498946981865629 0.096840955317020416259765625000 -0.004262137226760387420654296875 -0.000532725534867495298385620117 0 0 0 0 
2400833333.3333334923 0.155059829354286193847656250000 0.093934983015060424804687500000 -0.004271094687283039093017578125 -0.000545879069250077009201049805 0 0 0 0 
2401000000.0000000000 0.155089959502220209319744981258 0.091141030192375183105468750000 -0.004294399637728930387015058301 -0.000355226773535832816928309308 0 0 0 0 
2401166666.6666665077 0.155181214213371304611044365629 0.088256083428859710693359375000 -0.004302721936255692568307207324 -0.000266688206465914899676722394 0 0 0 0 
2401333333.3333334923 0.155462056398391695877236884371 0.085457272827625274658203125000 -0.004269022028893232345581054688 -0.000015192250430118289181982347 0 0 0 0 
2401500000.0000000000 0.155863195657730102539062500000 0.082472994923591613769531250000 -0.004306970164179801940917968750 0.000010360277883592060004370843 0 0 0 0 
2401666666.6666665077 0.156234711408615112304687500000 0.079687036573886871337890625000 -0.004417663440108299255371093750 0.000044485914258984848856925964 0 0 0 0 
2401833333.3333334923 0.156661391258239801604901231258 0.076902143657207489013671875000 -0.004498717375099658966064453125 0.000257900857832282781600952148 0 0 0 0 
2402000000.0000000000 0.157601252198219299316406250000 0.074113637208938598632812500000 -0.004311870317906141281127929688 0.000308171700453385710716247559 0 0 0 0 
2402166666.6666665077 0.158269286155700711349325615629 0.071572065353393554687500000000 -0.004430326633155345916748046875 0.000434363406384363824695032941 0 0 0 0 
2402333333.3333334923 0.159063622355461092849893134371 0.068994596600532531738281250000 -0.004189740400761365890502929688 0.000452066014986485188633519305 0 0 0 0 
2402500000.0000000000 0.160409450531005887130575615629 0.066435247659683227539062500000 -0.004435989540070295333862304688 0.000675744260661303997039794922 0 0 0 0 
2402666666.6666665077 0.161479055881500188629473768742 0.063869141042232513427734375000 -0.004326365422457456588745117188 0.000759742921218276023864746094 0 0 0 0 
2402833333.3333334923 0.162772193551063509842080634371 0.061676573008298866962473283593 -0.004469031002372503280639648438 0.000911156763322651386260986328 0 0 0 0 
2403000000.0000000000 0.164196833968162508865518134371 0.059320904314517981792409528907 -0.004541017115116119384765625000 0.000987439649179577827453613281 0 0 0 0 
2403166666.6666665077 0.166001617908477810958700615629 0.057060860097408301616628278907 -0.004553851205855607986450195312 0.001163347274996340057970356519 0 0 0 0 
2403333333.3333334923 0.167313650250434903243856865629 0.054993435740470893169362653907 -0.004511474166065455350393964551 0.001403267495334147973301552881 0 0 0 0 
2403500000.0000000000 0.169014871120452908614950615629 0.052885208278894417499582658593 -0.004604529589414597424978925488 0.001835352042689919905421591650 0 0 0 0 
2403666666.6666665077 0.170986890792846707443075615629 0.050949662923812873149831403907 -0.004530766978859901428222656250 0.001795295975171030001399374854 0 0 0 0 
2403833333.3333334923 0.172537475824356106857138115629 0.049144037067890167236328125000 -0.004502608440816401567940996387 0.002066619461402297019958496094 0 0 0 0 
2404000000.0000000000 0.174005731940269497970419365629 0.047320391982793807983398437500 -0.004360586404800415039062500000 0.002294780686497687859776162256 0 0 0 0 
2404166666.6666665077 0.175888344645500210861044365629 0.045928601175546653057057966407 -0.004291418939828872680664062500 0.002521194051951169967651367188 0 0 0 0 
2404333333.3333334923 0.177636817097663907150106865629 0.044306900352239608764648437500 -0.003926440142095088958740234375 0.002663919469341636137721396338 0 0 0 0 
2404500000.0000000000 0.179123103618621798416299384371 0.042876269668340682983398437500 -0.003817972727119923071620322119 0.002825170056894422011134482275 0 0 0 0 
2404666666.6666665077 0.181002914905548095703125000000 0.041738681495189666748046875000 -0.003703225404024124145507812500 0.003056034911423922018763876807 0 0 0 0 
2404833333.3333334923 0.182517454028129605392294365629 0.040803678333759307861328125000 -0.003590749809518456892726279150 0.003114641178399323983433388818 0 0 0 0 
2405000000.0000000000 0.183942258358001708984375000000 0.040265485644340522075612653907 -0.003307356964796781973597861182 0.003270754823461174964904785156 0 0 0 0 
2405166666.6666665077 0.185321927070617703536825615629 0.039451673626899719238281250000 -0.003259448101744056181666708838 0.003257938195019959969761513818 0 0 0 0 
2405333333.3333334923 0.186851784586906405349893134371 0.038994885981082923198659528907 -0.003090219805017114119288779150 0.003428899683058261871337890625 0 0 0 0 
2405500000.0000000000 0.188325881958007812500000000000 0.038438539952039718627929687500 -0.002923770109191536903381347656 0.003330338280647993087768554688 0 0 0 0 
2405666666.6666665077 0.189568385481834411621093750000 0.038194146007299423217773437500 -0.002652108203619718985316611182 0.003722943831235169930699013818 0 0 0 0 
2405833333.3333334923 0.190808817744255093673544365629 0.037876803427934646606445312500 -0.002448548097163438796997070312 0.003589776810258626937866210938 0 0 0 0 
2406000000.0000000000 0.191770121455192593673544365629 0.037627235054969787597656250000 -0.002495301887392998175380087744 0.003649089252576231956481933594 0 0 0 0 
2406166666.6666665077 0.192948564887046786209268134371 0.037555113434791571880300153907 -0.002358626108616590933558798682 0.003672536462545394897460937500 0 0 0 0 
2406333333.3333334923 0.193792700767517089843750000000 0.037689488381147391582448591407 -0.002057955134660006003138876807 0.003733124118298292160034179688 0 0 0 0 
2406500000.0000000000 0.194622248411178588867187500000 0.037617918103933327411692033593 -0.002001225482672452926635742188 0.003742423374205828146693564307 0 0 0 0 
2406666666.6666665077 0.195166647434234591385049384371 0.037689100950956351543386091407 -0.001818142249248922088025737231 0.003711767960339785055873251807 0 0 0 0 
2406833333.3333334923 0.195795804262161310393963731258 0.037764813750982291484792341407 -0.001706797978840767903568886865 0.003742699511349201202392578125 0 0 0 0 
2407000000.0000000000 0.196004629135131808181924384371 0.038003571331501007080078125000 -0.001393861020915210030199360425 0.003689264645799994902369833838 0 0 0 0 
2407166666.6666665077 0.196402966976165799239950615629 0.037811771035194396972656250000 -0.001404910814017056985142373193 0.003803099971264601187465048682 0 0 0 0 
2407333333.3333334923 0.196386933326721191406250000000 0.038044318556785576557199846093 -0.001161432825028895898106240381 0.003664333606138824982884072412 0 0 0 0 
2407500000.0000000000 0.196344390511512811858807481258 0.038091253489255912090261091407 -0.001004274352453649044036865234 0.003669100813567637963535927881 0 0 0 0 
2407666666.6666665077 0.196305021643638610839843750000 0.038038831204175949096679687500 -0.000888384529389441013336181641 0.003619376569986342950108193506 0 0 0 0 
2407833333.3333334923 0.195842295885086087325888115629 0.037969317287206649780273437500 -0.000864914036355912685394287109 0.003667870070785284042358398438 0 0 0 0 
2408000000.0000000000 0.195842519402503995040731865629 0.037815552204847342754323591407 -0.000880493607837706804275512695 0.003527815919369459152221679688 0 0 0 0 
2408166666.6666665077 0.195289537310600308517294365629 0.037605941295623779296875000000 -0.000519538763910531997680664062 0.003457865677773952917811728369 0 0 0 0 
2408333333.3333334923 0.194857686758041409591513115629 0.037060368806123726581613908593 -0.000507866672705858945846557617 0.003415562678128480911254882812 0 0 0 0 
2408500000.0000000000 0.194108694791793795486611884371 0.036723785102367401123046875000 -0.000403081416152417713969630109 0.003433230565860867933986044775 0 0 0 0 
2408666666.6666665077 0.193435683846473693847656250000 0.036238692700862891460378278907 -0.000242302136030048104837694711 0.003143424401059747175929404150 0 0 0 0 
2408833333.3333334923 0.192821055650711087325888115629 0.035591531544923782348632812500 -0.000221449095988646203845423566 0.003229946363717318014857626807 0 0 0 0 
2409000000.0000000000 0.191901817917823791503906250000 0.034577604383230209350585937500 -0.000199919144506566199377337045 0.003091283142566680908203125000 0 0 0 0 
2409166666.6666665077 0.191134169697761507888955634371 0.033560592681169509887695312500 -0.000128193190903402892038068228 0.003056235611438750787022256006 0 0 0 0 
2409333333.3333334923 0.190223544836044311523437500000 0.032568957656621932983398437500 -0.000026514489945839159190654755 0.003019892610609530968907021631 0 0 0 0 
2409500000.0000000000 0.189008802175521906097088731258 0.031313385814428329467773437500 -0.000176151370396837592124938965 0.002989878645166755156276083838 0 0 0 0 
2409666666.6666665077 0.188023030757904108245526231258 0.029831906780600551259974295704 -0.000147357393871061503887176514 0.002938167890533804893493652344 0 0 0 0 
2409833333.3333334923 0.187075018882751492599325615629 0.028438381850719448434849923046 -0.000047827958042034879326820374 0.002785718999803065819981240381 0 0 0 0 
2410000000.0000000000 0.186039254069328308105468750000 0.026742111891508098947545235546 -0.000149583007441833588197985239 0.002908446593210101127624511719 0 0 0 0 
2410166666.6666665077 0.185074552893638610839843750000 0.024860266596078869211217110546 0.000103466540167573798768459181 0.002823928603902459144592285156 0 0 0 0 
2410333333.3333334923 0.183981224894523592849893134371 0.023040365427732471120814139454 -0.000029868886485928669571876526 0.002844723174348473982570029150 0 0 0 0 
2410500000.0000000000 0.183090865612030001541299384371 0.020999200642108920705775076954 0.000022593027097173038532937697 0.002813249826431273980381631006 0 0 0 0 
2410666666.6666665077 0.182176530361175509353799384371 0.018813783302903178823450858204 -0.000022325344616547230293954543 0.002867680042982101006748818506 0 0 0 0 
2410833333.3333334923 0.181474387645721407791299384371 0.016381405293941501272181326954 0.000243724003667011911242884503 0.002791586564853786988499306787 0 0 0 0 
2411000000.0000000000 0.180710524320602389236611884371 0.014271547086536880838414376171 0.000212547398405149606153211050 0.002729104133322834968566894531 0 0 0 0 
2411166666.6666665077 0.180107131600379888336505018742 0.012127337045967580622662929102 0.000265760201727971380383092059 0.002830107696354389190673828125 0 0 0 0 
2411333333.3333334923 0.179505437612533597091513115629 0.009565427899360656738281250000 0.000325126573443412780761718750 0.002678970107808709144592285156 0 0 0 0 
2411500000.0000000000 0.179083794355392511565838731258 0.007045872043818235397338867188 0.000379586301278322880894261493 0.002836313564330338998081826318 0 0 0 0 
2411666666.6666665077 0.178882107138633700271768134371 0.004607874900102615356445312500 0.000420839292928576523631495343 0.002782150870189071135279990088 0 0 0 0 
2411833333.3333334923 0.178353860974311800857705634371 0.002290180651471018791198730469 0.000528917647898197174072265625 0.002791195875033735795262002100 0 0 0 0 
2412000000.0000000000 0.178636744618415804763955634371 -0.000342176121193915605545043945 0.000456728332210332209437769757 0.002510224003344773812534951318 0 0 0 0 
2412166666.6666665077 0.178685620427131708343182481258 -0.002496325410902500152587890625 0.000622660154476761817932128906 0.002645041560754179954528808594 0 0 0 0 
2412333333.3333334923 0.178661420941352788727130018742 -0.005130433943122625350952148438 0.000708698120433837175369262695 0.002424824051558970971348427881 0 0 0 0 
2412500000.0000000000 0.179354503750801086425781250000 -0.007824532687664031982421875000 0.000530430756043642759323120117 0.002422008896246552901027060400 0 0 0 0 
2412666666.6666665077 0.179973915219307001311932481258 -0.010230882093310359609583670704 0.000437283713836222887039184570 0.002504121977835894064662314307 0 0 0 0 
2412833333.3333334923 0.180571392178535489181356865629 -0.012674734927713869267473789648 0.000540949811693280935287475586 0.002430791733786464171168661963 0 0 0 0 
2413000000.0000000000 0.181251391768455505371093750000 -0.015085076913237569981585117773 0.000497609609737992286682128906 0.002443204401060938835144042969 0 0 0 0 
2413166666.6666665077 0.182220175862312289138955634371 -0.017243979498744010925292968750 0.000478790258057415485382080078 0.002452809829264878793003701318 0 0 0 0 
2413333333.3333334923 0.183061659336090087890625000000 -0.019574895501136779785156250000 0.000492407183628529310226440430 0.002473780652508140043971396338 0 0 0 0 
2413500000.0000000000 0.183770716190338107010049384371 -0.021987499669194221496582031250 0.000374030845705419778823852539 0.002552054589614272117614746094 0 0 0 0 
2413666666.6666665077 0.185074642300605801681356865629 -0.024116983637213710439661795704 0.000531260448042303323745727539 0.002678965684026480154750204932 0 0 0 0 
2413833333.3333334923 0.186248376965522793868856865629 -0.026169644668698310852050781250 0.000549030781257897615432739258 0.002663787454366683959960937500 0 0 0 0 
2414000000.0000000000 0.187178477644920404632244981258 -0.028119942173361781728724295704 0.000598488259129226207733154297 0.002839402062818408012390136719 0 0 0 0 
2414166666.6666665077 0.188403874635696411132812500000 -0.029882341623306270944615548046 0.000750117702409625053405761719 0.003002069424837828116175986182 0 0 0 0 
2414333333.3333334923 0.189613863825798006912393134371 -0.031950224190950386737863908593 0.000907419365830719470977783203 0.002918071579188108010532998193 0 0 0 0 
2414500000.0000000000 0.190821707248687688629473768742 -0.033410701900720603252370466407 0.001081839087419212081311870044 0.003096276894211769104003906250 0 0 0 0 
2414666666.6666665077 0.191972970962524386306924384371 -0.034780248999595642089843750000 0.001154716243036090893986367334 0.002884806599467993216273642432 0 0 0 0 
2414833333.3333334923 0.193092912435531588455361884371 -0.036254849284887306903879533593 0.001426801318302751021144247900 0.003035325324162840843200683594 0 0 0 0 
2415000000.0000000000 0.194257915019989013671875000000 -0.037431132048368447040598283593 0.001380273257382214069366455078 0.002942710649222135977504111182 0 0 0 0 
2415166666.6666665077 0.195477128028869601150674384371 -0.038566876202821731567382812500 0.001688361284323037104365683447 0.002786658471450210051295615088 0 0 0 0 
2415333333.3333334923 0.196687087416648892501669365629 -0.039614807814359671855886091407 0.001698342850431800105451274341 0.002738425042480229897740029443 0 0 0 0 
2415500000.0000000000 0.197699889540672302246093750000 -0.040315661579370498657226562500 0.001841556513682008006452250903 0.002741230884566903114318847656 0 0 0 0 
2415666666.6666665077 0.198760062456131009200888115629 -0.040976352989673621440847028907 0.001877845730632543997523642432 0.002630220493301748795750283350 0 0 0 0 
2415833333.3333334923 0.199499830603599603850994981258 -0.041578788310289382934570312500 0.001864596386440098068834614331 0.002566308481618762016296386719 0 0 0 0 
2416000000.0000000000 0.200354337692260686676348768742 -0.042041152715682983398437500000 0.002059144899249076843261718750 0.002356217708438634872436523438 0 0 0 0 
2416166666.6666665077 0.201121941208839388748330634371 -0.042749512940645217895507812500 0.002047908259555697007420205225 0.002283152425661683082580566406 0 0 0 0 
2416333333.3333334923 0.201759368181228609939736884371 -0.042895231395959847187082658593 0.001991475000977516174316406250 0.002216608962044119834899902344 0 0 0 0 
2416500000.0000000000 0.202114418148994501311932481258 -0.043077066540718078613281250000 0.002107471227645874023437500000 0.002139715943485497994663857568 0 0 0 0 
2416666666.6666665077 0.202402040362358093261718750000 -0.043600309640169136737863908593 0.002157702110707759857177734375 0.002145700622349977926967001807 0 0 0 0 
2416833333.3333334923 0.202593222260475186446981865629 -0.043499119579792022705078125000 0.002244425471872090859654091943 0.002210034988820552825927734375 0 0 0 0 
2417000000.0000000000 0.202687114477157592773437500000 -0.043570157140493392944335937500 0.002230417914688587188720703125 0.002083782805129886107203818213 0 0 0 0 
2417166666.6666665077 0.202520146965980502029580634371 -0.043462682515382766723632812500 0.002094266470521688894984579932 0.002129950094968080954310751807 0 0 0 0 
2417333333.3333334923 0.202293381094932611663494981258 -0.043215092271566390991210937500 0.002345367334783076806309365381 0.002034452045336366133448935400 0 0 0 0 
2417500000.0000000000 0.201991856098175104339276231258 -0.043164785951375961303710937500 0.002475553657859563827514648438 0.002109983237460256056544638525 0 0 0 0 
2417666666.6666665077 0.201432198286056490799111884371 -0.043088607490062706684152971093 0.002380231861025094985961914062 0.001962298294529318809509277344 0 0 0 0 
2417833333.3333334923 0.201043039560317993164062500000 -0.042849611490964889526367187500 0.002484752796590328216552734375 0.001923050498589873097063374097 0 0 0 0 
2418000000.0000000000 0.200296789407730102539062500000 -0.042599063366651541973073591407 0.002670398214831947846653603662 0.002073484240099788145778036963 0 0 0 0 
2418166666.6666665077 0.199588268995285006424111884371 -0.042394004762172698974609375000 0.002784877549856901168823242188 0.001835370901972055001499795068 0 0 0 0 
2418333333.3333334923 0.198671802878379794021768134371 -0.042335581034421920776367187500 0.002818407258018850846531533350 0.001777967088855803012847900391 0 0 0 0 
2418500000.0000000000 0.197588801383972195724325615629 -0.042324792593717582012136091407 0.002911309013143181800842285156 0.001706532319076359055162739331 0 0 0 0 
2418666666.6666665077 0.196635425090789794921875000000 -0.042187348008155822753906250000 0.003132764482870697975158691406 0.001641766633838414929033588940 0 0 0 0 
2418833333.3333334923 0.195267900824546786209268134371 -0.042385458946228027343750000000 0.003205674467608333067653036963 0.001528052263893187046051025391 0 0 0 0 
2419000000.0000000000 0.193992525339126586914062500000 -0.042681861668825149536132812500 0.003149352036416531042811728369 0.001401969231665133996250771631 0 0 0 0 
2419166666.6666665077 0.192744672298431396484375000000 -0.042856626212596893310546875000 0.003343721386045217947718954932 0.001325283432379364967346191406 0 0 0 0 
2419333333.3333334923 0.191243171691894503494424384371 -0.043296050280332572246511091407 0.003217006102204322814941406250 0.001265247352421283938764262622 0 0 0 0 
2419500000.0000000000 0.189775988459587097167968750000 -0.043819990009069442749023437500 0.003363869385793805122375488281 0.001004504621960222937940288013 0 0 0 0 
2419666666.6666665077 0.188076600432395907303018134371 -0.044596135616302490234375000000 0.003430763958021997971775673975 0.000873077893629670143127441406 0 0 0 0 
2419833333.3333334923 0.186354711651802090743856865629 -0.045270204544067382812500000000 0.003515260061249136924743652344 0.000906124652829021215438842773 0 0 0 0 
2420000000.0000000000 0.184850886464119013030682481258 -0.046087339520454406738281250000 0.003454502206295729117152548682 0.000740544986911118030548095703 0 0 0 0 
