# Version 1.00
#
freq[Hz];re:Trc1_S11;im:Trc1_S11;re:Trc2_S21;im:Trc2_S21;
2.400000000000000E+009;1.679015606641769E-001;4.097640141844750E-002;-3.941654867958278E-004;-1.795155578292906E-003;
2.400166666666667E+009;1.685518026351929E-001;4.031656682491303E-002;-3.154392761643976E-004;-1.891773892566562E-003;
2.400333333333334E+009;1.689554750919342E-001;3.936815261840820E-002;-2.670894609764218E-004;-1.927205943502486E-003;
2.400500000000000E+009;1.693856269121170E-001;3.853443637490273E-002;-2.995745744556189E-004;-1.946239266544581E-003;
2.400666666666667E+009;1.697757989168167E-001;3.747938573360443E-002;-3.561365592759103E-004;-2.217824338003993E-003;
2.400833333333334E+009;1.701018214225769E-001;3.676546365022659E-002;-3.388262703083456E-004;-2.364937448874116E-003;
2.401000000000000E+009;1.703183650970459E-001;3.583807498216629E-002;-3.091277903877199E-004;-2.530840924009681E-003;
2.401166666666667E+009;1.706872135400772E-001;3.492461889982224E-002;-4.133245383854955E-004;-2.446117810904980E-003;
2.401333333333334E+009;1.708090156316757E-001;3.412020578980446E-002;-4.688409098889679E-004;-2.628586255013943E-003;
2.401500000000000E+009;1.713232845067978E-001;3.322118893265724E-002;-5.701465415768325E-004;-2.625699155032635E-003;
2.401666666666667E+009;1.713021099567413E-001;3.241519629955292E-002;-7.997456123121083E-004;-2.805815543979406E-003;
2.401833333333334E+009;1.714223921298981E-001;3.133162111043930E-002;-9.115428547374904E-004;-2.709398511797190E-003;
2.402000000000000E+009;1.711290627717972E-001;3.050853684544563E-002;-1.037388225086033E-003;-2.932648872956634E-003;
2.402166666666667E+009;1.714346408843994E-001;2.947559021413326E-002;-1.039532013237476E-003;-2.778489841148257E-003;
2.402333333333334E+009;1.713814139366150E-001;2.875469252467156E-002;-1.158666796982288E-003;-2.887633163481951E-003;
2.402500000000000E+009;1.715450435876846E-001;2.766568772494793E-002;-1.257781637832522E-003;-2.831953112035990E-003;
2.402666666666667E+009;1.714572459459305E-001;2.664258517324925E-002;-1.437941449694336E-003;-2.866024617105722E-003;
2.402833333333334E+009;1.714593172073364E-001;2.555465884506702E-002;-1.443814020603895E-003;-2.953775459900498E-003;
2.403000000000000E+009;1.714488416910172E-001;2.464010193943977E-002;-1.570300315506756E-003;-2.886377973482013E-003;
2.403166666666667E+009;1.712432354688644E-001;2.340136095881462E-002;-1.562910620123148E-003;-2.910755109041929E-003;
2.403333333333334E+009;1.713196486234665E-001;2.250696532428265E-002;-1.734431833028793E-003;-2.981849480420351E-003;
2.403500000000000E+009;1.709691286087036E-001;2.117666043341160E-002;-1.765807974152267E-003;-2.774751279503107E-003;
2.403666666666667E+009;1.709115356206894E-001;1.996288448572159E-002;-1.956582069396973E-003;-3.006912069395185E-003;
2.403833333333334E+009;1.709508597850800E-001;1.858310028910637E-002;-2.168822335079312E-003;-3.075455082580447E-003;
2.404000000000000E+009;1.707441359758377E-001;1.752792298793793E-002;-2.262142486870289E-003;-3.078245557844639E-003;
2.404166666666667E+009;1.706075966358185E-001;1.612985134124756E-002;-2.482144627720118E-003;-2.952232956886292E-003;
2.404333333333334E+009;1.707060486078262E-001;1.494558807462454E-002;-2.778729889541864E-003;-3.079812973737717E-003;
2.404500000000000E+009;1.704276949167252E-001;1.341921649873257E-002;-2.847584895789623E-003;-2.922216430306435E-003;
2.404666666666667E+009;1.702993810176849E-001;1.205067522823811E-002;-3.084354568272829E-003;-2.805412514135242E-003;
2.404833333333334E+009;1.703551262617111E-001;1.053571607917547E-002;-3.392554353922606E-003;-2.885915571823716E-003;
2.405000000000000E+009;1.701781451702118E-001;9.171196259558201E-003;-3.532140981405973E-003;-2.665731124579907E-003;
2.405166666666667E+009;1.702140420675278E-001;7.605478633195162E-003;-3.626828780397773E-003;-2.430689753964543E-003;
2.405333333333334E+009;1.702391803264618E-001;5.878169555217028E-003;-3.680711146444082E-003;-2.205029362812638E-003;
2.405500000000000E+009;1.701723933219910E-001;4.446476232260466E-003;-3.910230938345194E-003;-1.921591931022704E-003;
2.405666666666667E+009;1.701227873563767E-001;3.083143383264542E-003;-4.060124047100544E-003;-1.876298105344176E-003;
2.405833333333334E+009;1.699800342321396E-001;1.419492298737168E-003;-4.108991473913193E-003;-1.557693700306118E-003;
2.406000000000000E+009;1.699353456497192E-001;-2.723756770137698E-004;-4.116524476557970E-003;-1.446019858121872E-003;
2.406166666666667E+009;1.697745770215988E-001;-1.711471006274223E-003;-4.140471108257771E-003;-1.169774332083762E-003;
2.406333333333334E+009;1.699221283197403E-001;-3.323188051581383E-003;-4.147421102970839E-003;-9.678608621470630E-004;
2.406500000000000E+009;1.697789430618286E-001;-4.941386636346579E-003;-4.130662418901920E-003;-8.698755991645157E-004;
2.406666666666667E+009;1.694828122854233E-001;-6.372939795255661E-003;-4.245157353579998E-003;-5.786680267192423E-004;
2.406833333333334E+009;1.694281846284866E-001;-7.976376451551914E-003;-4.096505232155323E-003;-3.907111822627485E-004;
2.407000000000000E+009;1.692716777324677E-001;-9.410452097654343E-003;-4.157723393291235E-003;-3.302787081338465E-004;
2.407166666666667E+009;1.692741662263870E-001;-1.081816200166941E-002;-3.913500346243382E-003;-8.985981548903510E-005;
2.407333333333334E+009;1.689448803663254E-001;-1.229564752429724E-002;-3.989435732364655E-003;6.971904076635838E-005;
2.407500000000000E+009;1.688356399536133E-001;-1.346673537045717E-002;-4.104627761989832E-003;2.693075221031904E-004;
2.407666666666667E+009;1.686047911643982E-001;-1.469817012548447E-002;-3.968397621065378E-003;4.076351469848305E-004;
2.407833333333334E+009;1.685506403446198E-001;-1.589247584342957E-002;-3.833185415714979E-003;4.812112892977893E-004;
2.408000000000000E+009;1.683509647846222E-001;-1.708288304507732E-002;-3.569541266188026E-003;7.025368395261467E-004;
2.408166666666667E+009;1.682198345661163E-001;-1.800815574824810E-002;-3.683773102238774E-003;6.218277267180383E-004;
2.408333333333334E+009;1.683104187250137E-001;-1.896827109158039E-002;-3.366032848134637E-003;7.606068393215537E-004;
2.408500000000000E+009;1.682197004556656E-001;-1.994505152106285E-002;-3.314090194180608E-003;7.686855969950557E-004;
2.408666666666667E+009;1.682620346546173E-001;-2.082312479615212E-002;-3.206296125426889E-003;8.758414769545198E-004;
2.408833333333334E+009;1.681974381208420E-001;-2.164804376661778E-002;-3.165482776239514E-003;8.141711005009711E-004;
2.409000000000000E+009;1.683650314807892E-001;-2.245860919356346E-002;-3.154802601784468E-003;7.256792159751058E-004;
2.409166666666667E+009;1.685577034950256E-001;-2.340717427432537E-002;-3.124774433672428E-003;8.025151910260320E-004;
2.409333333333334E+009;1.686883866786957E-001;-2.436774037778378E-002;-3.203662112355232E-003;8.514947257936001E-004;
2.409500000000000E+009;1.686639636754990E-001;-2.540879137814045E-002;-3.294496797025204E-003;7.780456217005849E-004;
2.409666666666667E+009;1.687519848346710E-001;-2.607276290655136E-002;-3.088895464316011E-003;9.338111267425120E-004;
2.409833333333334E+009;1.688835620880127E-001;-2.697299420833588E-002;-3.116201842203736E-003;1.016337540932000E-003;
2.410000000000000E+009;1.689995378255844E-001;-2.779292501509190E-002;-3.356938483193517E-003;9.887649212032557E-004;
2.410166666666667E+009;1.691455692052841E-001;-2.871116623282433E-002;-3.268876811489463E-003;1.029212493449450E-003;
2.410333333333334E+009;1.689848154783249E-001;-2.955329045653343E-002;-3.324298420920968E-003;1.276650349609554E-003;
2.410500000000000E+009;1.689485758543015E-001;-3.041946329176426E-002;-3.311059437692165E-003;1.246690517291427E-003;
2.410666666666667E+009;1.689080148935318E-001;-3.146974369883537E-002;-3.274607239291072E-003;1.314943539910018E-003;
2.410833333333334E+009;1.689811199903488E-001;-3.229949250817299E-002;-3.329022089019418E-003;1.388308592140675E-003;
2.411000000000000E+009;1.687779873609543E-001;-3.302816674113274E-002;-3.326190169900656E-003;1.500843325629830E-003;
2.411166666666667E+009;1.685298681259155E-001;-3.403763100504875E-002;-3.140065819025040E-003;1.739020342938602E-003;
2.411333333333334E+009;1.685178279876709E-001;-3.485022485256195E-002;-3.205765970051289E-003;1.900708884932101E-003;
2.411500000000000E+009;1.681285351514816E-001;-3.603106364607811E-002;-3.330199047923088E-003;1.939773908816278E-003;
2.411666666666667E+009;1.681242883205414E-001;-3.668900951743126E-002;-3.154070815071464E-003;2.074143383651972E-003;
2.411833333333334E+009;1.678446829319000E-001;-3.763062134385109E-002;-3.127888310700655E-003;2.097720978781581E-003;
2.412000000000000E+009;1.677839159965515E-001;-3.873986005783081E-002;-3.052768064662814E-003;2.279723063111305E-003;
2.412166666666667E+009;1.671785712242127E-001;-3.952112048864365E-002;-2.912891097366810E-003;2.443393692374229E-003;
2.412333333333334E+009;1.671657860279083E-001;-4.035126790404320E-002;-2.926420420408249E-003;2.584461588412523E-003;
2.412500000000000E+009;1.665343493223190E-001;-4.125361889600754E-002;-2.791569801047444E-003;2.730917651206255E-003;
2.412666666666667E+009;1.663841456174851E-001;-4.235340282320976E-002;-2.899781800806522E-003;2.814584178850055E-003;
2.412833333333334E+009;1.659214794635773E-001;-4.325860738754273E-002;-2.659652382135391E-003;3.122158814221621E-003;
2.413000000000000E+009;1.655880361795425E-001;-4.441807419061661E-002;-2.789521357044578E-003;3.282768651843071E-003;
2.413166666666667E+009;1.650637090206146E-001;-4.530549794435501E-002;-2.544362796470523E-003;3.243144601583481E-003;
2.413333333333334E+009;1.645223051309586E-001;-4.639894142746925E-002;-2.363069914281368E-003;3.251200309023261E-003;
2.413500000000000E+009;1.641917526721954E-001;-4.748301953077316E-002;-2.136554336175323E-003;3.398976288735867E-003;
2.413666666666667E+009;1.638073176145554E-001;-4.835093393921852E-002;-2.017230493947864E-003;3.424093825742602E-003;
2.413833333333334E+009;1.633431911468506E-001;-4.933146014809609E-002;-1.843781443312764E-003;3.774782409891486E-003;
2.414000000000000E+009;1.628060191869736E-001;-5.062416195869446E-002;-1.687008189037442E-003;3.767011221498251E-003;
2.414166666666667E+009;1.624583303928375E-001;-5.146485939621925E-002;-1.609975704923272E-003;3.803718369454145E-003;
2.414333333333334E+009;1.620808094739914E-001;-5.230878293514252E-002;-1.240494078956544E-003;3.801392391324043E-003;
2.414500000000000E+009;1.619694530963898E-001;-5.330676212906838E-002;-1.090694568119943E-003;3.747021313756704E-003;
2.414666666666667E+009;1.613997519016266E-001;-5.427598208189011E-002;-7.900680066086352E-004;3.639894537627697E-003;
2.414833333333334E+009;1.611147671937943E-001;-5.536523088812828E-002;-6.219745264388621E-004;3.584032645449042E-003;
2.415000000000000E+009;1.609295010566711E-001;-5.633217096328735E-002;-4.330943629611284E-004;3.628604346886277E-003;
2.415166666666667E+009;1.608064025640488E-001;-5.748657137155533E-002;-4.349759256001562E-004;3.428388619795442E-003;
2.415333333333334E+009;1.607139259576798E-001;-5.872031301259995E-002;-2.891226031351835E-004;3.208533627912402E-003;
2.415500000000000E+009;1.605965346097946E-001;-5.975319817662239E-002;-1.084066607290879E-004;3.064231248572469E-003;
2.415666666666667E+009;1.603514552116394E-001;-6.090071052312851E-002;-1.616307781659998E-005;3.150074975565076E-003;
2.415833333333334E+009;1.601637899875641E-001;-6.220326200127602E-002;-9.216595208272338E-005;2.843696856871247E-003;
2.416000000000000E+009;1.598391234874725E-001;-6.325998157262802E-002;6.421601483452832E-006;2.827410120517016E-003;
2.416166666666667E+009;1.598310619592667E-001;-6.455576419830322E-002;-1.355210843030363E-004;2.519198693335056E-003;
2.416333333333334E+009;1.595754027366638E-001;-6.578344851732254E-002;4.585220949593349E-007;2.519930945709348E-003;
2.416500000000000E+009;1.592412143945694E-001;-6.707841157913208E-002;-2.966843894682825E-004;2.603610279038549E-003;
2.416666666666667E+009;1.589166074991226E-001;-6.815908849239349E-002;-1.764382468536496E-004;2.651689108461142E-003;
2.416833333333334E+009;1.587357372045517E-001;-6.946333497762680E-002;-1.581557298777625E-004;2.646610839292407E-003;
2.417000000000000E+009;1.581385284662247E-001;-7.057830691337585E-002;-2.604421461001039E-004;2.771957544609904E-003;
2.417166666666667E+009;1.578368842601776E-001;-7.158605009317398E-002;-2.072854840662330E-004;2.775002270936966E-003;
2.417333333333334E+009;1.576007306575775E-001;-7.250815629959106E-002;-1.804902130970731E-004;2.997257281094790E-003;
2.417500000000000E+009;1.572090238332748E-001;-7.361277192831039E-002;-1.730737421894446E-004;2.951527712866664E-003;
2.417666666666667E+009;1.569740772247315E-001;-7.443986088037491E-002;-2.148674684576690E-004;3.101749811321497E-003;
2.417833333333334E+009;1.566790342330933E-001;-7.531319558620453E-002;5.199508814257570E-005;3.010428976267576E-003;
2.418000000000000E+009;1.562446355819702E-001;-7.630289345979691E-002;-4.965343396179378E-005;3.215522272512317E-003;
2.418166666666667E+009;1.559334248304367E-001;-7.687824964523315E-002;2.199905866291374E-004;2.997724805027247E-003;
2.418333333333334E+009;1.559365838766098E-001;-7.769291102886200E-002;2.661469625309110E-004;3.078950103372335E-003;
2.418500000000000E+009;1.555323898792267E-001;-7.849512994289398E-002;3.764626744668931E-004;2.884086221456528E-003;
2.418666666666667E+009;1.552524268627167E-001;-7.923850417137146E-002;6.000549765303731E-004;2.893340541049838E-003;
2.418833333333334E+009;1.548040807247162E-001;-8.013126999139786E-002;5.208910442888737E-004;2.780543407425284E-003;
2.419000000000000E+009;1.544635146856308E-001;-8.074857294559479E-002;6.417618133127689E-004;2.639658050611615E-003;
2.419166666666667E+009;1.541440933942795E-001;-8.136063814163208E-002;5.679053138010204E-004;2.630244009196758E-003;
2.419333333333334E+009;1.538756936788559E-001;-8.183119446039200E-002;5.004525301046670E-004;2.612491371110082E-003;
2.419500000000000E+009;1.534347683191299E-001;-8.265758305788040E-002;6.090276292525232E-004;2.709917956963182E-003;
2.419666666666667E+009;1.531982272863388E-001;-8.330111205577850E-002;6.569836987182498E-004;2.595731057226658E-003;
2.419833333333334E+009;1.527840495109558E-001;-8.372434228658676E-002;5.820970400236547E-004;2.585315844044089E-003;
2.420000000000000E+009;1.524831205606461E-001;-8.426520228385925E-002;5.265704821795225E-004;2.598367864266038E-003;
2.420166666666667E+009;1.521224528551102E-001;-8.489214628934860E-002;5.668384837917984E-004;2.679642522707582E-003;
2.420333333333334E+009;1.517754048109055E-001;-8.544047176837921E-002;4.899789346382022E-004;2.709500258788467E-003;
2.420500000000000E+009;1.515821665525436E-001;-8.583386987447739E-002;4.551192978397012E-004;2.786087105050683E-003;
2.420666666666667E+009;1.510104238986969E-001;-8.638692647218704E-002;5.551843205466867E-004;3.023785538971424E-003;
2.420833333333334E+009;1.508655250072479E-001;-8.715182542800903E-002;5.508631002157927E-004;2.926134271547198E-003;
2.421000000000000E+009;1.502482593059540E-001;-8.777479827404022E-002;6.277748034335673E-004;3.096562344580889E-003;
2.421166666666667E+009;1.500235646963120E-001;-8.844666182994843E-002;7.267561159096658E-004;3.134603844955564E-003;
2.421333333333334E+009;1.495975404977799E-001;-8.921447396278381E-002;7.291488582268357E-004;3.257347270846367E-003;
2.421500000000000E+009;1.488216817378998E-001;-8.979170769453049E-002;8.252002880908549E-004;3.348378464579582E-003;
2.421666666666667E+009;1.485141068696976E-001;-9.047833830118179E-002;9.683987591415644E-004;3.488725982606411E-003;
2.421833333333334E+009;1.480511873960495E-001;-9.129855781793594E-002;1.239479053765535E-003;3.380717942491174E-003;
2.422000000000000E+009;1.472955197095871E-001;-9.205813705921173E-002;1.322732539847493E-003;3.598275827243924E-003;
2.422166666666667E+009;1.466759741306305E-001;-9.287993609905243E-002;1.359686837531626E-003;3.612938802689314E-003;
2.422333333333334E+009;1.461742818355560E-001;-9.355790168046951E-002;1.602935721166432E-003;3.685186384245753E-003;
2.422500000000000E+009;1.455140411853790E-001;-9.429558366537094E-002;1.639737165533006E-003;3.691463265568018E-003;
2.422666666666667E+009;1.448106616735458E-001;-9.523589164018631E-002;1.914899679832161E-003;3.740950953215361E-003;
2.422833333333334E+009;1.443386375904083E-001;-9.613172709941864E-002;2.087170258164406E-003;3.946755081415176E-003;
2.423000000000000E+009;1.435476094484329E-001;-9.693028032779694E-002;2.311882097274065E-003;3.807777771726251E-003;
2.423166666666667E+009;1.429509967565537E-001;-9.781667590141296E-002;2.474721521139145E-003;3.822677768766880E-003;
2.423333333333334E+009;1.422373801469803E-001;-9.872033447027206E-002;2.800092799589038E-003;3.975036088377237E-003;
2.423500000000000E+009;1.415620893239975E-001;-9.966857731342316E-002;3.153409110382199E-003;3.701332490891218E-003;
2.423666666666667E+009;1.407568007707596E-001;-1.006571501493454E-001;3.502296283841133E-003;3.708832664415240E-003;
2.423833333333334E+009;1.401806324720383E-001;-1.016465872526169E-001;3.818254685029388E-003;3.598731011152268E-003;
2.424000000000000E+009;1.394115090370178E-001;-1.025168225169182E-001;4.124702420085669E-003;3.378656227141619E-003;
2.424166666666667E+009;1.386883258819580E-001;-1.034384667873383E-001;4.367634188383818E-003;2.933134324848652E-003;
2.424333333333334E+009;1.381513029336929E-001;-1.044319793581963E-001;4.594213794916868E-003;2.799870213493705E-003;
2.424500000000000E+009;1.377189010381699E-001;-1.053994446992874E-001;4.864113871008158E-003;2.441684715449810E-003;
2.424666666666667E+009;1.370078027248383E-001;-1.061320826411247E-001;4.953917115926743E-003;2.199926413595676E-003;
2.424833333333334E+009;1.363921612501144E-001;-1.072147563099861E-001;5.066746380180121E-003;1.751318341121078E-003;
2.425000000000000E+009;1.359215974807739E-001;-1.082397177815437E-001;5.089007318019867E-003;1.525671803392470E-003;
2.425166666666667E+009;1.351830810308456E-001;-1.090133041143417E-001;5.294899921864271E-003;9.970043320208788E-004;
2.425333333333334E+009;1.346532255411148E-001;-1.100567206740379E-001;5.139155313372612E-003;7.368638762272894E-004;
2.425500000000000E+009;1.343382894992828E-001;-1.110977977514267E-001;4.973520059138537E-003;3.547939122654498E-004;
2.425666666666667E+009;1.336599588394165E-001;-1.119867935776711E-001;5.134721752256155E-003;2.109661872964352E-004;
2.425833333333334E+009;1.333041340112686E-001;-1.128965467214584E-001;4.742062650620937E-003;-3.408677002880722E-004;
2.426000000000000E+009;1.328961104154587E-001;-1.138838604092598E-001;4.713066387921572E-003;-6.188432453200221E-004;
2.426166666666667E+009;1.326624155044556E-001;-1.148892119526863E-001;4.621885716915131E-003;-8.045206777751446E-004;
2.426333333333334E+009;1.321217566728592E-001;-1.158755347132683E-001;4.220426082611084E-003;-1.237497664988041E-003;
2.426500000000000E+009;1.318140178918839E-001;-1.167096421122551E-001;3.823729464784265E-003;-1.178490580059588E-003;
2.426666666666667E+009;1.314510703086853E-001;-1.175069138407707E-001;3.772285999730229E-003;-1.262301346287131E-003;
2.426833333333334E+009;1.310395747423172E-001;-1.184462979435921E-001;3.564769634976983E-003;-1.474071526899934E-003;
2.427000000000000E+009;1.306614428758621E-001;-1.193562000989914E-001;3.280114848166704E-003;-1.397507963702083E-003;
2.427166666666667E+009;1.304231286048889E-001;-1.201302036643028E-001;2.913600997999311E-003;-1.465229433961213E-003;
2.427333333333334E+009;1.299840807914734E-001;-1.208807677030563E-001;2.772547770291567E-003;-1.350839505903423E-003;
2.427500000000000E+009;1.297435909509659E-001;-1.217521727085114E-001;2.645392436534166E-003;-1.290877931751311E-003;
2.427666666666667E+009;1.294127255678177E-001;-1.223945841193199E-001;2.477726433426142E-003;-1.268044812604785E-003;
