# Hz S RI R 50
2400000000.0000000000 0.155617430806160000900106865629 0.106376215815544100662393134371 -0.000874503108207136392593383789 -0.004239005967974662780761718750 0 0 0 0 
2400166666.6666665077 0.155436635017394991775674384371 0.103896245360374506194744981258 -0.000904011190868914127349853516 -0.004040010739117860794067382812 0 0 0 0 
2400333333.3333334923 0.155503138899803189376669365629 0.101779960095882401893696567186 -0.001068307552486658096313476562 -0.003952638246119022369384765625 0 0 0 0 
2400500000.0000000000 0.155260697007179288009481865629 0.098921418190002441406250000000 -0.001256089075468481020686484229 -0.003902001306414604187011718750 0 0 0 0 
2400666666.6666665077 0.155331179499626187423544365629 0.096464395523071289062500000000 -0.001397331710904837088343954932 -0.003510896814987062974217080225 0 0 0 0 
2400833333.3333334923 0.155411332845687893966513115629 0.093501158058643341064453125000 -0.001372273429296910979627299731 -0.003355109598487616019008017432 0 0 0 0 
2401000000.0000000000 0.155691161751747103592080634371 0.090726986527442932128906250000 -0.001355208340100944042205810547 -0.003302032826468348936793661963 0 0 0 0 
2401166666.6666665077 0.155577480792999295333700615629 0.087940506637096405029296875000 -0.001331141218543053107020712744 -0.003109905170276761054992675781 0 0 0 0 
2401333333.3333334923 0.156112000346183804611044365629 0.085077442228794097900390625000 -0.001287736115045845942256308447 -0.002990504261106253103968954932 0 0 0 0 
2401500000.0000000000 0.156637743115425109863281250000 0.082192704081535339355468750000 -0.001203940599225461916682577979 -0.002997112693265080885646201025 0 0 0 0 
2401666666.6666665077 0.156911760568618802169638115629 0.079445354640483856201171875000 -0.001228055683895945982692099463 -0.002901332452893257141113281250 0 0 0 0 
2401833333.3333334923 0.157294765114784212967080634371 0.076623752713203430175781250000 -0.001147081260569394068477011572 -0.002861099783331156210658408057 0 0 0 0 
2402000000.0000000000 0.158113867044448908050213731258 0.073903687298297882080078125000 -0.001307012629695236899732280200 -0.002875221427530049844029091943 0 0 0 0 
2402166666.6666665077 0.159105658531188992599325615629 0.071335352957248687744140625000 -0.001282594283111394102211977319 -0.002800057642161846160888671875 0 0 0 0 
2402333333.3333334923 0.160109072923660306075888115629 0.068770356476306915283203125000 -0.001212582341395318941829062354 -0.002795276697725058035609579932 0 0 0 0 
2402500000.0000000000 0.161039054393768310546875000000 0.066291667520999908447265625000 -0.001469258917495607896092080225 -0.002998013049364089965820312500 0 0 0 0 
2402666666.6666665077 0.162305667996406610686932481258 0.063902892172336578369140625000 -0.001450793002732098102569580078 -0.002795382868498564200160361182 0 0 0 0 
2402833333.3333334923 0.163738638162612887283486884371 0.061367522925138466571848283593 -0.001603672280907630920410156250 -0.002862073946744204001185751807 0 0 0 0 
2403000000.0000000000 0.164975270628929110428018134371 0.058977670967578887939453125000 -0.001755737815983593897578574072 -0.002720852848142385916468954932 0 0 0 0 
2403166666.6666665077 0.166653901338577298263388115629 0.056982878595590591430664062500 -0.001723106019198894934413290869 -0.002623609267175198034999228369 0 0 0 0 
2403333333.3333334923 0.168300375342369107345419365629 0.054626170545816421508789062500 -0.002077986951917409896850585938 -0.002610977506265044212341308594 0 0 0 0 
2403500000.0000000000 0.169737994670867892166299384371 0.052590876817703247070312500000 -0.002103779930621386008021689307 -0.002278103027492762045619345557 0 0 0 0 
2403666666.6666665077 0.171618744730949401855468750000 0.050620753318071372295339216407 -0.002159547526389359994175576318 -0.002139493124559522108790732275 0 0 0 0 
2403833333.3333334923 0.173335537314415005782919365629 0.048800185322761542583425153907 -0.002517418935894966125488281250 -0.002031391719356178803684853662 0 0 0 0 
2404000000.0000000000 0.174836471676826504806356865629 0.047128621488809592510182966407 -0.002308781491592526002171181787 -0.001760642277076839967014931787 0 0 0 0 
2404166666.6666665077 0.176597163081169100662393134371 0.045623462647199630737304687500 -0.002232173690572381019592285156 -0.001521214144304394938825297778 0 0 0 0 
2404333333.3333334923 0.178201511502265902420205634371 0.044095251709222786640207658593 -0.002214906504377723173854208838 -0.001426726696081459955928183447 0 0 0 0 
2404500000.0000000000 0.179674938321113586425781250000 0.042635168880224227905273437500 -0.002008858369663358168361044775 -0.001339196227490901947021484375 0 0 0 0 
2404666666.6666665077 0.181338548660278292556924384371 0.041740212589502341533620466407 -0.001982689369469881057739257812 -0.001290107029490173079847026294 0 0 0 0 
2404833333.3333334923 0.183161973953247098068075615629 0.040493465960025787353515625000 -0.002029868075624107880833291162 -0.001095944433473051028010702979 0 0 0 0 
2405000000.0000000000 0.184350892901420593261718750000 0.039998777210712432861328125000 -0.001659158035181462981580424731 -0.001106782234273850917816162109 0 0 0 0 
2405166666.6666665077 0.185823470354080200195312500000 0.039067078381776809692382812500 -0.001637720852158963897107768481 -0.001071748556569219069239951025 0 0 0 0 
2405333333.3333334923 0.187308743596076993087606865629 0.038725480437278747558593750000 -0.001697054831311106898664164966 -0.001154181314632296995875693213 0 0 0 0 
2405500000.0000000000 0.188657149672508211990518134371 0.038134925067424767231027971093 -0.001500139012932776971104287256 -0.001096181687898934104322123950 0 0 0 0 
2405666666.6666665077 0.189828991889953613281250000000 0.037932157516479492187500000000 -0.001575747155584394931793212891 -0.001122340443544090010999370044 0 0 0 0 
2405833333.3333334923 0.191028058528900201995526231258 0.037564329802989959716796875000 -0.001460672821849585013148642432 -0.000926611945033073425292968750 0 0 0 0 
2406000000.0000000000 0.192126825451850891113281250000 0.037443619221448898315429687500 -0.001504697953350841999053955078 -0.001071766484528779983520507812 0 0 0 0 
2406166666.6666665077 0.193027153611183194259481865629 0.037155862897634513164479841407 -0.001452411059290171103236533057 -0.000911739480216056108474731445 0 0 0 0 
2406333333.3333334923 0.193887725472450311858807481258 0.037281602621078491210937500000 -0.001501807710155844905255961841 -0.001023955759592354080797504956 0 0 0 0 
2406500000.0000000000 0.194497704505920410156250000000 0.037306249141693122173268903907 -0.001422541448846458955052041162 -0.000940800877287983894348144531 0 0 0 0 
2406666666.6666665077 0.195178821682929992675781250000 0.037362590432167053222656250000 -0.001342227798886596939684223706 -0.000914613599888980388641357422 0 0 0 0 
2406833333.3333334923 0.195683538913726806640625000000 0.037224069237709052349050153907 -0.001450288342311977906468056787 -0.000910751812625676393508911133 0 0 0 0 
2407000000.0000000000 0.195950016379356412032919365629 0.037601351737976067279856096093 -0.001288817496970295906066894531 -0.000939304067287594079971313477 0 0 0 0 
2407166666.6666665077 0.196354344487190302093182481258 0.037482578307390213012695312500 -0.001280510798096657016156840747 -0.000966825755313038825988769531 0 0 0 0 
2407333333.3333334923 0.196183592081070001800213731258 0.037591762840747833251953125000 -0.001252287300303577943089150537 -0.000976670882664620876312255859 0 0 0 0 
2407500000.0000000000 0.196099817752838107010049384371 0.037583310157060623168945312500 -0.000999968615360558032989501953 -0.000886566354893148053824269983 0 0 0 0 
2407666666.6666665077 0.196274623274803189376669365629 0.037521183490753166889231096093 -0.001112116151489316983463906396 -0.001086733536794781901715922778 0 0 0 0 
2407833333.3333334923 0.195755988359451293945312500000 0.037409629672765731811523437500 -0.000882209569681435823440551758 -0.000918634294066578149795532227 0 0 0 0 
2408000000.0000000000 0.195473268628120394607705634371 0.037266697734594352031667341407 -0.000890853814780712127685546875 -0.001061800518073142008540488135 0 0 0 0 
2408166666.6666665077 0.194922357797622708419638115629 0.036988653242588043212890625000 -0.000974045891780406236648559570 -0.001098522683605551936505961841 0 0 0 0 
2408333333.3333334923 0.194404587149620111663494981258 0.036432053893804550170898437500 -0.000825711060315370559692382812 -0.001195066492073237895965576172 0 0 0 0 
2408500000.0000000000 0.193608537316322298904580634371 0.036190226674079901958425153907 -0.000953153241425752639770507812 -0.001267148763872683048248291016 0 0 0 0 
2408666666.6666665077 0.192977368831634493728799384371 0.035613823682069778442382812500 -0.000819326611235737800598144531 -0.001331065315753221945521689307 0 0 0 0 
2408833333.3333334923 0.192253679037094088455361884371 0.034880217164754867553710937500 -0.000728425686247646808624267578 -0.001491780276410282091853476416 0 0 0 0 
2409000000.0000000000 0.191393390297889709472656250000 0.033952906727790832519531250000 -0.000854615296702831983566284180 -0.001534888055175543048261332935 0 0 0 0 
2409166666.6666665077 0.190357238054275512695312500000 0.032916225492954247211496721093 -0.000897679536137729883193969727 -0.001711516408249736049054789966 0 0 0 0 
2409333333.3333334923 0.189642727375030489822549384371 0.031888008117675781250000000000 -0.000936351076234132051467895508 -0.001849184045568108992335654150 0 0 0 0 
2409500000.0000000000 0.188412278890609713455361884371 0.030615499243140220642089843750 -0.001141230226494372107862163013 -0.001973881153389811949488974463 0 0 0 0 
2409666666.6666665077 0.187442153692245511154013115629 0.029287504032254219055175781250 -0.001063980977050960063934326172 -0.001981856068596243858337402344 0 0 0 0 
2409833333.3333334923 0.186346799135208102127236884371 0.027738906443119049072265625000 -0.001391440397128463008283305591 -0.002124623861163855032679892432 0 0 0 0 
2410000000.0000000000 0.185434341430664090255575615629 0.026236839592456821096400076954 -0.001505677239038049957872700269 -0.002173395361751317977905273438 0 0 0 0 
2410166666.6666665077 0.184362888336181612869424384371 0.024390045553445819509486014454 -0.001667836913838983015773154150 -0.001940864254720509052276611328 0 0 0 0 
2410333333.3333334923 0.183372035622596712967080634371 0.022457154467701908456822579296 -0.001776112127117813067195273291 -0.002089917659759521918055868994 0 0 0 0 
2410500000.0000000000 0.182433843612670898437500000000 0.020608553662896159780482108204 -0.002029764465987681908848427881 -0.002058365615084766907932900537 0 0 0 0 
2410666666.6666665077 0.181506812572479303558026231258 0.018488684669137001037597656250 -0.002144634956493974165675497900 -0.002144147641956806182861328125 0 0 0 0 
2410833333.3333334923 0.180852532386779812911825615629 0.016173956915736198425292968750 -0.002002360532060265974757529150 -0.002089687157422304153442382812 0 0 0 0 
2411000000.0000000000 0.180089250206947298904580634371 0.013930758461356159555455391796 -0.002299121115356684164759970557 -0.002024974441155790848972939600 0 0 0 0 
2411166666.6666665077 0.179535269737243707854901231258 0.011744367890059949702252772852 -0.002286497037857770919799804688 -0.001969305099919437928440713037 0 0 0 0 
2411333333.3333334923 0.178815513849258395095986884371 0.009475088678300380706787109375 -0.002565916161984204812290810693 -0.001815497293137013912200927734 0 0 0 0 
2411500000.0000000000 0.178635925054550198654013115629 0.006987728178501129150390625000 -0.002554505597800015969517373193 -0.001753647928126155896427773584 0 0 0 0 
2411666666.6666665077 0.178301662206649808029013115629 0.004619788844138383865356445312 -0.002672059694305061860325478662 -0.001615770393982530073878622900 0 0 0 0 
2411833333.3333334923 0.178103566169738797286825615629 0.002276320708915590806248330225 -0.002696009585633873939514160156 -0.001739965169690548939945839990 0 0 0 0 
2412000000.0000000000 0.178160846233367892166299384371 -0.000507545191794633865356445312 -0.002825893694534897804260253906 -0.001592063112184404893162392725 0 0 0 0 
2412166666.6666665077 0.178409039974212701995526231258 -0.002639335347339510917663574219 -0.002857084153220057921168661963 -0.001678350148722528977635048975 0 0 0 0 
2412333333.3333334923 0.178482547402381896972656250000 -0.005203141830861569318289472363 -0.003063357667997479005100869287 -0.001637596404179930903791118091 0 0 0 0 
2412500000.0000000000 0.179095968604087801834268134371 -0.007611446548253297805786132812 -0.003313393564894794984104775537 -0.001373410806991159915924072266 0 0 0 0 
2412666666.6666665077 0.179358080029487609863281250000 -0.010087583214044569188128086523 -0.003451300552114843888523720850 -0.001416994608007370991947793115 0 0 0 0 
2412833333.3333334923 0.180150613188743591308593750000 -0.012508885003626350057581717579 -0.003549281973391770882847451318 -0.001366291893646121025085449219 0 0 0 0 
2413000000.0000000000 0.180893823504447909256143134371 -0.014822894707322120666503906250 -0.003718075575307012037989951025 -0.001184463617391883893253945459 0 0 0 0 
2413166666.6666665077 0.181680902838706997970419365629 -0.017013145610690120351771170704 -0.003829638706520200209376669775 -0.001282630488276482062098837744 0 0 0 0 
2413333333.3333334923 0.182683408260345486739950615629 -0.019327294081449508666992187500 -0.004012406338006258010864257812 -0.001015715650282799980760883862 0 0 0 0 
2413500000.0000000000 0.183585867285728510100994981258 -0.021484410390257838857630545704 -0.004016424994915723800659179688 -0.000652765331324189901351928711 0 0 0 0 
2413666666.6666665077 0.184909373521804809570312500000 -0.023712351918220520019531250000 -0.004244870506227015581612871387 -0.000278267194516956806182861328 0 0 0 0 
2413833333.3333334923 0.185827523469924899002236884371 -0.025674978271126750600794608204 -0.004266150761395692825317382812 -0.000180051676579751101419171744 0 0 0 0 
2414000000.0000000000 0.186861321330070495605468750000 -0.027626123279333121562917341407 -0.004267009440809488296508789062 0.000073770985181909054517745972 0 0 0 0 
2414166666.6666665077 0.188308194279670687576455634371 -0.029276832938194278371790701954 -0.004240620881319046020507812500 0.000429463572800159508555811749 0 0 0 0 
2414333333.3333334923 0.189367368817329406738281250000 -0.031111260876059528696080391796 -0.004298073705285787582397460938 0.000574410310946404933929443359 0 0 0 0 
2414500000.0000000000 0.190552487969398498535156250000 -0.032719589769840240478515625000 -0.004157101735472679138183593750 0.000886388821527361869812011719 0 0 0 0 
2414666666.6666665077 0.191684439778327886383380018742 -0.034105822443962097167968750000 -0.004079422913491725921630859375 0.001138432766310871081111288916 0 0 0 0 
2414833333.3333334923 0.192817956209182711502236884371 -0.035494692623615271831472028907 -0.003767215181142092184779501807 0.001390294637531042098999023438 0 0 0 0 
2415000000.0000000000 0.193961009383201599121093750000 -0.036713249981403350830078125000 -0.003928697668015956878662109375 0.001517495024017990069148398291 0 0 0 0 
2415166666.6666665077 0.195174574851989801604901231258 -0.037796664983034126972238908593 -0.003585482714697719053981161963 0.001681673573330044963239360278 0 0 0 0 
2415333333.3333334923 0.196422293782234191894531250000 -0.038713630288839340209960937500 -0.003732954850420355796813964844 0.001859600655734539031982421875 0 0 0 0 
2415500000.0000000000 0.197510406374931307693643134371 -0.039407528936862952495534528907 -0.003616792149841784997227334131 0.001760933082550764083862304688 0 0 0 0 
2415666666.6666665077 0.198485508561134310623330634371 -0.040321253240108489990234375000 -0.003294346854090691046473837744 0.002025792142376304106471396338 0 0 0 0 
2415833333.3333334923 0.199273183941841097732705634371 -0.040836609899997711181640625000 -0.003207046305760740800144814600 0.002263100119307637214660644531 0 0 0 0 
2416000000.0000000000 0.200087159872055109222088731258 -0.041480258107185356830637346093 -0.002983886050060390992405556787 0.002295088954269886016845703125 0 0 0 0 
2416166666.6666665077 0.200875625014305086990518134371 -0.041978146880865097045898437500 -0.002843987662345170974731445312 0.002411483554169536070582724463 0 0 0 0 
2416333333.3333334923 0.201447978615760803222656250000 -0.042203761637210852886159528907 -0.002887837123125791983363486182 0.002528231125324964956996298682 0 0 0 0 
2416500000.0000000000 0.201867729425430297851562500000 -0.042396549135446548461914062500 -0.002438948722556232972386025537 0.002546336036175488991978310693 0 0 0 0 
2416666666.6666665077 0.202189877629280090332031250000 -0.042866777628660202026367187500 -0.002460404764860868887660361182 0.002770067192614078955409384619 0 0 0 0 
2416833333.3333334923 0.202383920550346402267294365629 -0.042801778763532638549804687500 -0.002127541461959480805637978662 0.002622933592647314071655273438 0 0 0 0 
2417000000.0000000000 0.202354460954666109939736884371 -0.043008957058191299438476562500 -0.002024596091359854178187704932 0.002688114531338214874267578125 0 0 0 0 
2417166666.6666665077 0.202113687992096002776776231258 -0.042826399207115173339843750000 -0.001853392226621509032008505713 0.002768513979390263991114951025 0 0 0 0 
2417333333.3333334923 0.201963379979133605957031250000 -0.042671564966440200805664062500 -0.001804441213607788085937500000 0.002679510274901986122131347656 0 0 0 0 
2417500000.0000000000 0.201625898480415288727130018742 -0.042758204042911529541015625000 -0.001562933786772191958186484229 0.002718844218179583983180380713 0 0 0 0 
2417666666.6666665077 0.201003715395927401443643134371 -0.042486090213060379028320312500 -0.001382185495458543083788227612 0.002623700071126223044154501807 0 0 0 0 
2417833333.3333334923 0.200656935572624206542968750000 -0.042360357940196990966796875000 -0.001306721591390668912174843896 0.002440606709569693045375204932 0 0 0 0 
2418000000.0000000000 0.199912995100021390060263115629 -0.042092427611351013183593750000 -0.001145606976933776898625039209 0.002391321817412972883937216650 0 0 0 0 
2418166666.6666665077 0.198942363262176513671875000000 -0.042101260274648673320729841407 -0.001076368964277208068250346606 0.002479407470673323111293173682 0 0 0 0 
2418333333.3333334923 0.198204815387725802322549384371 -0.041860029101371772075612653907 -0.001085241558030247905133891528 0.002462832257151604132411337744 0 0 0 0 
2418500000.0000000000 0.197127193212509210784588731258 -0.041986335068941123271901716407 -0.000854003126733005046844482422 0.002233122475445270972010947119 0 0 0 0 
2418666666.6666665077 0.196270927786827087402343750000 -0.041795711964368820190429687500 -0.000902430445421487092971801758 0.002231360878795384927036904443 0 0 0 0 
2418833333.3333334923 0.194979563355445889571981865629 -0.041991200298070907592773437500 -0.000935408752411603927612304688 0.002106704516336321830749511719 0 0 0 0 
2419000000.0000000000 0.193598836660385104080361884371 -0.042173989117145538330078125000 -0.000662702659610658884048461914 0.001992904115468264059779501807 0 0 0 0 
2419166666.6666665077 0.192440465092658996582031250000 -0.042562797665596008300781250000 -0.000659331795759499073028564453 0.001847574720159173011779785156 0 0 0 0 
2419333333.3333334923 0.191061452031135586837606865629 -0.043068472295999526977539062500 -0.000702132470905780792236328125 0.001646517659537493965746235425 0 0 0 0 
2419500000.0000000000 0.189496621489524813553018134371 -0.043580558151006698608398437500 -0.000631590373814105987548828125 0.001608317601494491100311279297 0 0 0 0 
2419666666.6666665077 0.187795847654342706878338731258 -0.044371943920850746845285783593 -0.000704849197063595056533813477 0.001644149539060891108271933447 0 0 0 0 
2419833333.3333334923 0.186303287744522094726562500000 -0.045018803328275680541992187500 -0.000712443841621279716491699219 0.001603081705980003096936870044 0 0 0 0 
