# Version 1.00
#
freq[Hz];re:Trc1_S11;im:Trc1_S11;re:Trc2_S21;im:Trc2_S21;
2.400000000000000E+009;1.736185848712921E-001;4.853283986449242E-002;1.348169753327966E-003;6.898103281855583E-003;
2.400166666666667E+009;1.744242906570435E-001;4.800340533256531E-002;1.734910882078111E-003;6.872868165373802E-003;
2.400333333333334E+009;1.748165339231491E-001;4.731588065624237E-002;1.917545800097287E-003;6.786196492612362E-003;
2.400500000000000E+009;1.752346754074097E-001;4.656763002276421E-002;2.130203181877732E-003;6.882447283715010E-003;
2.400666666666667E+009;1.753756701946259E-001;4.600972309708595E-002;2.570815384387970E-003;6.702789105474949E-003;
2.400833333333334E+009;1.757849454879761E-001;4.535716027021408E-002;2.881329273805022E-003;6.662975065410137E-003;
2.401000000000000E+009;1.761291921138763E-001;4.471275582909584E-002;3.030012827366591E-003;6.675247568637133E-003;
2.401166666666667E+009;1.760657578706741E-001;4.394661262631416E-002;3.251669928431511E-003;6.582666188478470E-003;
2.401333333333334E+009;1.762231588363648E-001;4.321521893143654E-002;3.762865904718638E-003;6.299452856183052E-003;
2.401500000000000E+009;1.763095855712891E-001;4.256746917963028E-002;3.938409965485334E-003;6.075825076550245E-003;
2.401666666666667E+009;1.763824969530106E-001;4.196113720536232E-002;4.308890085667372E-003;6.245761178433895E-003;
2.401833333333334E+009;1.764363497495651E-001;4.123569652438164E-002;4.455050919204950E-003;5.966629832983017E-003;
2.402000000000000E+009;1.760072857141495E-001;4.032575339078903E-002;4.781529307365418E-003;5.703377537429333E-003;
2.402166666666667E+009;1.759495884180069E-001;3.928888216614723E-002;4.929718561470509E-003;5.269348155707121E-003;
2.402333333333334E+009;1.757455468177795E-001;3.831477835774422E-002;5.233432631939650E-003;5.052747670561075E-003;
2.402500000000000E+009;1.757841259241104E-001;3.764968737959862E-002;5.405007395893335E-003;4.819210153073072E-003;
2.402666666666667E+009;1.754250973463059E-001;3.639767318964005E-002;5.651882383972406E-003;4.464280325919390E-003;
2.402833333333334E+009;1.749873459339142E-001;3.523806110024452E-002;5.762234330177307E-003;4.085431341081858E-003;
2.403000000000000E+009;1.748009175062180E-001;3.401880711317062E-002;5.764002911746502E-003;3.794636810198426E-003;
2.403166666666667E+009;1.744780242443085E-001;3.275669366121292E-002;5.852285306900740E-003;3.635486355051398E-003;
2.403333333333334E+009;1.740592122077942E-001;3.127998486161232E-002;5.984214600175619E-003;3.184207016602159E-003;
2.403500000000000E+009;1.736131012439728E-001;2.971076406538487E-002;5.969344638288021E-003;2.677658805623651E-003;
2.403666666666667E+009;1.734133362770081E-001;2.821447141468525E-002;5.834018345922232E-003;2.314885379746556E-003;
2.403833333333334E+009;1.730437576770783E-001;2.667953073978424E-002;5.786636844277382E-003;2.163188997656107E-003;
2.404000000000000E+009;1.725934147834778E-001;2.495970763266087E-002;5.788855720311403E-003;1.913318992592394E-003;
2.404166666666667E+009;1.722981184720993E-001;2.315451391041279E-002;5.770089104771614E-003;1.570959342643619E-003;
2.404333333333334E+009;1.717658042907715E-001;2.139056101441383E-002;5.690306890755892E-003;1.381957437843084E-003;
2.404500000000000E+009;1.713424772024155E-001;1.938992924988270E-002;5.522924009710550E-003;1.097112777642906E-003;
2.404666666666667E+009;1.710700988769531E-001;1.753883622586727E-002;5.263416562229395E-003;9.091309620998800E-004;
2.404833333333334E+009;1.709559410810471E-001;1.549346279352903E-002;5.196084734052420E-003;5.358358030207455E-004;
2.405000000000000E+009;1.707124412059784E-001;1.370878890156746E-002;5.096764303743839E-003;6.008755299262703E-004;
2.405166666666667E+009;1.705548316240311E-001;1.146440859884024E-002;4.847764503210783E-003;2.788337587844580E-004;
2.405333333333334E+009;1.705883443355560E-001;9.408721700310707E-003;4.698680248111486E-003;2.313581207999960E-004;
2.405500000000000E+009;1.705270856618881E-001;7.472367025911808E-003;4.394537769258022E-003;1.308810024056584E-004;
2.405666666666667E+009;1.706663221120834E-001;5.435576662421227E-003;4.382584244012833E-003;3.019043069798499E-004;
2.405833333333334E+009;1.706422418355942E-001;3.553956048563123E-003;4.210474435240030E-003;-5.378409696277231E-006;
2.406000000000000E+009;1.709031164646149E-001;1.343303942121565E-003;4.208432044833899E-003;-3.270201432314934E-006;
2.406166666666667E+009;1.711280345916748E-001;-5.275416187942028E-004;4.246527329087257E-003;8.657484613650013E-006;
2.406333333333334E+009;1.717285066843033E-001;-2.577338367700577E-003;4.044130910187960E-003;1.988236763281748E-004;
2.406500000000000E+009;1.721001118421555E-001;-4.728747066110373E-003;4.191997926682234E-003;3.277145151514560E-005;
2.406666666666667E+009;1.722983121871948E-001;-6.725733634084463E-003;3.980830777436495E-003;1.014300723909400E-004;
2.406833333333334E+009;1.729947626590729E-001;-8.613607846200466E-003;4.136888310313225E-003;-5.858163149241591E-006;
2.407000000000000E+009;1.735154390335083E-001;-1.055333670228720E-002;4.170726984739304E-003;5.281821358948946E-005;
2.407166666666667E+009;1.743319034576416E-001;-1.235660444945097E-002;4.030096344649792E-003;2.655876960488968E-005;
2.407333333333334E+009;1.748382300138474E-001;-1.432401128113270E-002;4.190461710095406E-003;-3.026289050467312E-005;
2.407500000000000E+009;1.755269467830658E-001;-1.600295305252075E-002;4.314375575631857E-003;-1.200106780743226E-004;
2.407666666666667E+009;1.761903017759323E-001;-1.770013757050037E-002;4.304430913180113E-003;-2.631056413520128E-004;
2.407833333333334E+009;1.768440455198288E-001;-1.948678679764271E-002;4.375820513814688E-003;-4.376872966531664E-004;
2.408000000000000E+009;1.775892376899719E-001;-2.127451822161675E-002;4.453953355550766E-003;-6.504345219582319E-004;
2.408166666666667E+009;1.782004535198212E-001;-2.253991365432739E-002;4.465945530682802E-003;-9.701710077933967E-004;
2.408333333333334E+009;1.790281683206558E-001;-2.412228845059872E-002;4.496986977756023E-003;-9.439348359592259E-004;
2.408500000000000E+009;1.796455532312393E-001;-2.551227621734142E-002;4.378275945782661E-003;-1.090347301214933E-003;
2.408666666666667E+009;1.802715808153153E-001;-2.677532844245434E-002;4.360505379736424E-003;-1.259735785424709E-003;
2.408833333333334E+009;1.806652545928955E-001;-2.796857059001923E-002;4.304573871195316E-003;-1.445728354156017E-003;
2.409000000000000E+009;1.811121702194214E-001;-2.906167507171631E-002;4.267565440386534E-003;-1.727624563500285E-003;
2.409166666666667E+009;1.815467625856400E-001;-3.002257831394672E-002;4.070302471518517E-003;-1.924382639117539E-003;
2.409333333333334E+009;1.821712255477905E-001;-3.092371672391892E-002;3.896886715665460E-003;-2.010430442169309E-003;
2.409500000000000E+009;1.824349611997604E-001;-3.176841884851456E-002;3.882936900481582E-003;-2.181150484830141E-003;
2.409666666666667E+009;1.826441437005997E-001;-3.246088325977325E-002;3.745242720469832E-003;-2.363904379308224E-003;
2.409833333333334E+009;1.828191131353378E-001;-3.299359232187271E-002;3.572339890524745E-003;-2.333197277039290E-003;
2.410000000000000E+009;1.832866221666336E-001;-3.332094475626946E-002;3.493453375995159E-003;-2.659604186192155E-003;
2.410166666666667E+009;1.833397746086121E-001;-3.381219878792763E-002;3.302715718746185E-003;-2.545576309785247E-003;
2.410333333333334E+009;1.834715902805328E-001;-3.403927385807037E-002;3.049115650355816E-003;-2.577252918854356E-003;
2.410500000000000E+009;1.835897564888001E-001;-3.448373079299927E-002;2.730889013037086E-003;-2.740601776167750E-003;
2.410666666666667E+009;1.833968609571457E-001;-3.514178842306137E-002;2.764788689091802E-003;-2.674946095794439E-003;
2.410833333333334E+009;1.835215687751770E-001;-3.516653925180435E-002;2.610832219943404E-003;-2.737351693212986E-003;
2.411000000000000E+009;1.831783205270767E-001;-3.539996221661568E-002;2.245172392576933E-003;-2.790279919281602E-003;
2.411166666666667E+009;1.829082965850830E-001;-3.576402738690376E-002;2.183684846386313E-003;-2.716048154979944E-003;
2.411333333333334E+009;1.826067566871643E-001;-3.623492270708084E-002;1.955562969669700E-003;-2.740667667239904E-003;
2.411500000000000E+009;1.818950772285461E-001;-3.668471798300743E-002;1.869121449999511E-003;-2.676727483049035E-003;
2.411666666666667E+009;1.815675199031830E-001;-3.677801415324211E-002;1.833110232837498E-003;-2.710652537643910E-003;
2.411833333333334E+009;1.808617413043976E-001;-3.708951547741890E-002;1.504204119555652E-003;-2.656631171703339E-003;
2.412000000000000E+009;1.804149597883225E-001;-3.771029040217400E-002;1.515257405117154E-003;-2.549481112509966E-003;
2.412166666666667E+009;1.795072704553604E-001;-3.804169595241547E-002;1.393557409755886E-003;-2.500235568732023E-003;
2.412333333333334E+009;1.785501092672348E-001;-3.847626969218254E-002;1.158570754341781E-003;-2.417572075501084E-003;
2.412500000000000E+009;1.775368601083756E-001;-3.917717188596726E-002;1.200665836222470E-003;-2.325603039935231E-003;
2.412666666666667E+009;1.763621717691422E-001;-3.984203189611435E-002;9.979394963011146E-004;-2.213732106611133E-003;
2.412833333333334E+009;1.754243969917297E-001;-4.040456190705299E-002;1.002440927550197E-003;-2.095172647386789E-003;
2.413000000000000E+009;1.743424683809280E-001;-4.110752046108246E-002;9.111578692682087E-004;-2.114180708304048E-003;
2.413166666666667E+009;1.729660183191299E-001;-4.204315692186356E-002;9.430234204046428E-004;-1.952729420736432E-003;
2.413333333333334E+009;1.714739054441452E-001;-4.278325289487839E-002;7.231090567074716E-004;-1.804284984245896E-003;
2.413500000000000E+009;1.704396158456802E-001;-4.383955523371697E-002;8.489329484291375E-004;-1.688390620984137E-003;
2.413666666666667E+009;1.691218912601471E-001;-4.501298442482948E-002;8.307378157041967E-004;-1.464532804675400E-003;
2.413833333333334E+009;1.677452921867371E-001;-4.605179280042648E-002;7.884272490628064E-004;-1.403143745847046E-003;
2.414000000000000E+009;1.664129346609116E-001;-4.717643186450005E-002;9.275102638639510E-004;-1.189348753541708E-003;
2.414166666666667E+009;1.653639823198319E-001;-4.829298704862595E-002;1.150866504758596E-003;-1.078845816664398E-003;
2.414333333333334E+009;1.640470325946808E-001;-4.979570955038071E-002;1.162740169093013E-003;-1.119504915550351E-003;
2.414500000000000E+009;1.630938500165939E-001;-5.115433409810066E-002;1.335902721621096E-003;-9.941324824467301E-004;
2.414666666666667E+009;1.616474241018295E-001;-5.268081277608872E-002;1.535686897113919E-003;-9.507352369837463E-004;
2.414833333333334E+009;1.604896783828735E-001;-5.428118258714676E-002;1.374530605971813E-003;-9.631086140871048E-004;
2.415000000000000E+009;1.593911945819855E-001;-5.574248358607292E-002;1.601214287802577E-003;-8.807317353785038E-004;
2.415166666666667E+009;1.585630327463150E-001;-5.749738216400147E-002;1.776923192664981E-003;-1.105457195080817E-003;
2.415333333333334E+009;1.578872054815292E-001;-5.932328104972839E-002;1.857218565419316E-003;-9.907546918839216E-004;
2.415500000000000E+009;1.568990796804428E-001;-6.119801849126816E-002;2.062406158074737E-003;-1.127150724641979E-003;
2.415666666666667E+009;1.561085879802704E-001;-6.295617669820786E-002;2.060974482446909E-003;-1.352254650555551E-003;
2.415833333333334E+009;1.555808633565903E-001;-6.494557112455368E-002;2.218351699411869E-003;-1.438377425074577E-003;
2.416000000000000E+009;1.546912044286728E-001;-6.684722006320953E-002;2.266086637973785E-003;-1.522294478490949E-003;
2.416166666666667E+009;1.543277204036713E-001;-6.877065449953079E-002;2.284480957314372E-003;-1.758967526257038E-003;
2.416333333333334E+009;1.537214070558548E-001;-7.070957124233246E-002;2.162581775337458E-003;-1.911122817546129E-003;
2.416500000000000E+009;1.532135605812073E-001;-7.281308621168137E-002;2.181063639000058E-003;-1.904361997731030E-003;
2.416666666666667E+009;1.527953445911408E-001;-7.473712414503098E-002;2.218092558905482E-003;-2.214567735791206E-003;
2.416833333333334E+009;1.527027338743210E-001;-7.673406600952148E-002;2.141539240255952E-003;-2.216991269961000E-003;
2.417000000000000E+009;1.522015631198883E-001;-7.866423577070236E-002;2.163343131542206E-003;-2.311359159648418E-003;
2.417166666666667E+009;1.521117240190506E-001;-8.036212623119354E-002;1.988568576052785E-003;-2.560732886195183E-003;
2.417333333333334E+009;1.519270837306976E-001;-8.213137835264206E-002;1.945166266523302E-003;-2.659725025296211E-003;
2.417500000000000E+009;1.517929732799530E-001;-8.404906839132309E-002;1.840212033130229E-003;-2.756999805569649E-003;
2.417666666666667E+009;1.519506275653839E-001;-8.566362410783768E-002;1.699004089459777E-003;-2.767217811197043E-003;
2.417833333333334E+009;1.518783718347549E-001;-8.702176064252853E-002;1.639158232137561E-003;-2.920719329267740E-003;
2.418000000000000E+009;1.518574804067612E-001;-8.864618837833405E-002;1.527337008155882E-003;-3.022131742909551E-003;
2.418166666666667E+009;1.520538330078125E-001;-8.986749500036240E-002;1.458216924220324E-003;-3.014964982867241E-003;
2.418333333333334E+009;1.524368971586227E-001;-9.119274467229843E-002;1.401604851707816E-003;-3.118748776614666E-003;
2.418500000000000E+009;1.522217988967896E-001;-9.250015020370483E-002;1.052103121764958E-003;-3.056250978261232E-003;
2.418666666666667E+009;1.525724977254868E-001;-9.351795166730881E-002;1.041703158989549E-003;-2.949545858427882E-003;
2.418833333333334E+009;1.526579111814499E-001;-9.457869082689285E-002;9.553597192279995E-004;-2.916989848017693E-003;
2.419000000000000E+009;1.527571678161621E-001;-9.534238278865814E-002;8.831719169393182E-004;-2.983921440318227E-003;
2.419166666666667E+009;1.530410945415497E-001;-9.606410562992096E-002;7.857689051888883E-004;-2.948514418676496E-003;
2.419333333333334E+009;1.531236171722412E-001;-9.644860774278641E-002;7.632629130966961E-004;-2.974494127556682E-003;
2.419500000000000E+009;1.533199995756149E-001;-9.705327451229096E-002;6.125036161392927E-004;-3.000271972268820E-003;
2.419666666666667E+009;1.537477672100067E-001;-9.748318046331406E-002;6.325740250758827E-004;-2.876695478335023E-003;
2.419833333333334E+009;1.535377055406570E-001;-9.763899445533752E-002;7.103864918462932E-004;-2.936068456619978E-003;
2.420000000000000E+009;1.539104133844376E-001;-9.778749942779541E-002;6.942775798961520E-004;-3.029829356819391E-003;
2.420166666666667E+009;1.539818644523621E-001;-9.794293344020844E-002;6.021847948431969E-004;-2.971349982544780E-003;
2.420333333333334E+009;1.539453268051148E-001;-9.789761155843735E-002;6.871115765534341E-004;-2.787139965221286E-003;
2.420500000000000E+009;1.541497856378555E-001;-9.774630516767502E-002;7.225189474411309E-004;-2.987915882840753E-003;
2.420666666666667E+009;1.540320515632629E-001;-9.742939472198486E-002;6.753871566615999E-004;-3.048128448426724E-003;
2.420833333333334E+009;1.539782732725143E-001;-9.736901521682739E-002;7.083666860125959E-004;-3.177332226186991E-003;
2.421000000000000E+009;1.537425369024277E-001;-9.712295979261398E-002;5.988306947983801E-004;-3.133682534098625E-003;
2.421166666666667E+009;1.538226604461670E-001;-9.676767140626907E-002;7.664750446565449E-004;-3.294058144092560E-003;
2.421333333333334E+009;1.535556167364121E-001;-9.668738394975662E-002;6.016005063429475E-004;-3.309214022010565E-003;
2.421500000000000E+009;1.529041528701782E-001;-9.625258296728134E-002;5.863605183549225E-004;-3.397942055016756E-003;
2.421666666666667E+009;1.526364386081696E-001;-9.594343602657318E-002;3.937575093004853E-004;-3.509866073727608E-003;
2.421833333333334E+009;1.521520316600800E-001;-9.562291204929352E-002;2.814921608660370E-004;-3.563232254236937E-003;
2.422000000000000E+009;1.514127105474472E-001;-9.549632668495178E-002;2.393724716966972E-004;-3.791562281548977E-003;
2.422166666666667E+009;1.506669819355011E-001;-9.534412622451782E-002;1.883152290247381E-004;-3.806984517723322E-003;
2.422333333333334E+009;1.499007642269135E-001;-9.488563239574432E-002;7.740539149381220E-005;-3.766411682590842E-003;
2.422500000000000E+009;1.488806158304215E-001;-9.463875740766525E-002;-4.844449358643033E-005;-3.738206112757325E-003;
2.422666666666667E+009;1.476498395204544E-001;-9.459640085697174E-002;-1.986879797186703E-004;-3.890587948262692E-003;
2.422833333333334E+009;1.465479284524918E-001;-9.449316561222076E-002;-1.051512954290956E-004;-3.912280313670635E-003;
2.423000000000000E+009;1.453987210988998E-001;-9.452755749225617E-002;-2.481733972672373E-004;-3.887528320774436E-003;
2.423166666666667E+009;1.441093087196350E-001;-9.435491263866425E-002;-5.204074550420046E-004;-4.023167304694653E-003;
2.423333333333334E+009;1.427134722471237E-001;-9.440430253744125E-002;-4.869385738857091E-004;-4.036073107272387E-003;
2.423500000000000E+009;1.412938833236694E-001;-9.437703341245651E-002;-5.672667757607997E-004;-4.003995563834906E-003;
2.423666666666667E+009;1.397065222263336E-001;-9.461767226457596E-002;-6.483297329396009E-004;-4.104102496057749E-003;
2.423833333333334E+009;1.384762376546860E-001;-9.485683590173721E-002;-7.591834291815758E-004;-4.095496144145727E-003;
2.424000000000000E+009;1.369246542453766E-001;-9.495837241411209E-002;-8.328129770234227E-004;-4.194861277937889E-003;
2.424166666666667E+009;1.351136863231659E-001;-9.523873031139374E-002;-8.767195977270603E-004;-4.264286719262600E-003;
2.424333333333334E+009;1.337363421916962E-001;-9.569605439901352E-002;-1.064404961653054E-003;-4.383353050798178E-003;
2.424500000000000E+009;1.323574781417847E-001;-9.631675481796265E-002;-1.454695709981024E-003;-4.457657225430012E-003;
2.424666666666667E+009;1.309990137815476E-001;-9.672479331493378E-002;-1.416225335560739E-003;-4.406366031616926E-003;
2.424833333333334E+009;1.293156892061234E-001;-9.750649333000183E-002;-1.521884230896831E-003;-4.572653677314520E-003;
2.425000000000000E+009;1.280885636806488E-001;-9.843552112579346E-002;-1.777179073542357E-003;-4.502603784203529E-003;
2.425166666666667E+009;1.266003251075745E-001;-9.922002255916596E-002;-2.054600277915597E-003;-4.606122616678476E-003;
2.425333333333334E+009;1.253159791231155E-001;-1.003572419285774E-001;-2.162944991141558E-003;-4.618245176970959E-003;
2.425500000000000E+009;1.241565942764282E-001;-1.014874577522278E-001;-2.294317353516817E-003;-4.415007773786783E-003;
2.425666666666667E+009;1.229571849107742E-001;-1.026260554790497E-001;-2.593982731923461E-003;-4.339340608566999E-003;
2.425833333333334E+009;1.217626035213471E-001;-1.039205491542816E-001;-2.869235351681709E-003;-4.455278627574444E-003;
2.426000000000000E+009;1.207933574914932E-001;-1.053211092948914E-001;-2.886692993342876E-003;-4.319767002016306E-003;
2.426166666666667E+009;1.199053600430489E-001;-1.067292317748070E-001;-3.039761679247022E-003;-4.139159340411425E-003;
2.426333333333334E+009;1.188210099935532E-001;-1.081619337201119E-001;-3.256099997088313E-003;-4.104546271264553E-003;
2.426500000000000E+009;1.181413307785988E-001;-1.096752509474754E-001;-3.351000836119056E-003;-3.848388325423002E-003;
2.426666666666667E+009;1.175202801823616E-001;-1.110285148024559E-001;-3.516188589856029E-003;-3.758554579690099E-003;
2.426833333333334E+009;1.167045906186104E-001;-1.127751320600510E-001;-3.546908264979720E-003;-3.601589938625693E-003;
2.427000000000000E+009;1.161285266280174E-001;-1.144575104117394E-001;-3.764565335586667E-003;-3.576060757040978E-003;
2.427166666666667E+009;1.157077401876450E-001;-1.158468723297119E-001;-3.734173253178597E-003;-3.404106711968780E-003;
2.427333333333334E+009;1.151459738612175E-001;-1.175920516252518E-001;-3.779896767809987E-003;-3.335356479510665E-003;
2.427500000000000E+009;1.150091961026192E-001;-1.190895661711693E-001;-3.828723682090640E-003;-3.264551516622305E-003;
2.427666666666667E+009;1.146964356303215E-001;-1.207789629697800E-001;-4.012990277260542E-003;-3.197105601429939E-003;
