# Hz S RI R 
2400000000.0000000000 0.167597234249114990234375000000 0.041179098188877112651784528907 -0.001728601986542344093322753906 0.001569881802424788908717490088 0 0 0 0 
2400166666.6666665077 0.168361693620681790450888115629 0.040380645543336868286132812500 -0.001735136960633099079132080078 0.001274168724194169044494628906 0 0 0 0 
2400333333.3333334923 0.168683513998985290527343750000 0.039545368403196341777761091407 -0.001590123400092124938964843750 0.001216211356222629980800009619 0 0 0 0 
2400500000.0000000000 0.169097155332565307617187500000 0.038500089198350913310964216407 -0.001627905061468482017517089844 0.001176141668111085891723632812 0 0 0 0 
2400666666.6666665077 0.169581398367881802657919365629 0.037526369094848632812500000000 -0.001720861764624715068219829028 0.001125320559367537932154990088 0 0 0 0 
2400833333.3333334923 0.169954165816307095626669365629 0.036893971264362342143972028907 -0.001655134954489767985102988135 0.001052658422850071950199746240 0 0 0 0 
2401000000.0000000000 0.170178547501563998123330634371 0.035724651068449020385742187500 -0.001658226596191525892970419775 0.001051440951414406082750629956 0 0 0 0 
2401166666.6666665077 0.170529887080192593673544365629 0.034883603453636169433593750000 -0.001829659217037260966060019385 0.001056757057085633061052631909 0 0 0 0 
2401333333.3333334923 0.170561879873275812347088731258 0.033893220126628882671315778907 -0.001680836197920144037959433447 0.001111845136620104096056294019 0 0 0 0 
2401500000.0000000000 0.170820385217666598220986884371 0.032981321215629577636718750000 -0.001797788077965378978131938403 0.001138427993282675959943461841 0 0 0 0 
2401666666.6666665077 0.170947968959808405120526231258 0.032344277948141098022460937500 -0.001844649668782949013950966943 0.001148108160123229026794433594 0 0 0 0 
2401833333.3333334923 0.171047046780586187164630018742 0.031298819929361343383789062500 -0.001674558967351914102669740991 0.001154634519480169036267924731 0 0 0 0 
2402000000.0000000000 0.171076968312263488769531250000 0.030414678156375888479212576954 -0.001601313590072094960453652490 0.001344393356703222014783549731 0 0 0 0 
2402166666.6666665077 0.171098977327346801757812500000 0.029268382117152210580846016796 -0.001468828297220170931575156104 0.001211416791193187019945454175 0 0 0 0 
2402333333.3333334923 0.171184152364730807205361884371 0.028447847813367840158482735546 -0.001470876857638359069824218750 0.001383637194521724960924458081 0 0 0 0 
2402500000.0000000000 0.171379804611206110198651231258 0.027300635352730751037597656250 -0.001486130524426698901532817310 0.001239061704836786010144877856 0 0 0 0 
2402666666.6666665077 0.171261012554168701171875000000 0.026383366435766220092773437500 -0.001323411008343100981471396338 0.001261948491446674086927104419 0 0 0 0 
2402833333.3333334923 0.171225115656852694412393134371 0.025310834869742390024205391796 -0.001212069531902671077130961841 0.001104548224247992038726806641 0 0 0 0 
2403000000.0000000000 0.171116158366203308105468750000 0.024426562711596488952636718750 -0.001119977794587611935259174878 0.001104552648030221895930624854 0 0 0 0 
2403166666.6666665077 0.171073406934738186935263115629 0.023133078590035438537597656250 -0.001261809607967733903172158350 0.000987389939837157726287841797 0 0 0 0 
2403333333.3333334923 0.171067386865615789215411268742 0.022163860499858859670618826954 -0.001080912421457469897029257666 0.000943289604038000106811523438 0 0 0 0 
2403500000.0000000000 0.170918673276901300628338731258 0.020952081307768821716308593750 -0.001240325043909251906751323169 0.000804255309049040079116821289 0 0 0 0 
2403666666.6666665077 0.170844569802284212967080634371 0.019611334428191188467005545704 -0.001062742667272686958312988281 0.000886671768967062234878540039 0 0 0 0 
2403833333.3333334923 0.170768603682518005371093750000 0.018377417698502540588378906250 -0.001260198187083005905151367188 0.000778858142439275979995727539 0 0 0 0 
2404000000.0000000000 0.170714467763900812347088731258 0.017229110002517700195312500000 -0.001401757355779408974888466943 0.000951385882217437028884887695 0 0 0 0 
2404166666.6666665077 0.170512884855270413497763115629 0.015909532085061069833775704296 -0.001627433812245727019069052588 0.000669769302476197481155395508 0 0 0 0 
2404333333.3333334923 0.170370623469352694412393134371 0.014682733453810220200508318555 -0.001706382259726523919346474756 0.000684814818669110536575317383 0 0 0 0 
2404500000.0000000000 0.170286491513252313811932481258 0.013097352348268030339251133398 -0.001740880659781395955326699365 0.000861938286107033491134643555 0 0 0 0 
2404666666.6666665077 0.170358747243881197830361884371 0.011971291154623029881487461523 -0.001851424109190702004673623193 0.000864057685248553752899169922 0 0 0 0 
2404833333.3333334923 0.170293241739273099044638115629 0.010502817109227180480957031250 -0.001943749492056668021558452075 0.000770774669945240020751953125 0 0 0 0 
2405000000.0000000000 0.170256391167640713790731865629 0.009023179300129413604736328125 -0.002058040816336870193481445312 0.001053664600476623015162802588 0 0 0 0 
2405166666.6666665077 0.170339122414588900467080634371 0.007530536036938428878784179688 -0.002075103344395757155177451025 0.001151889562606811957118368994 0 0 0 0 
2405333333.3333334923 0.170376911759376498123330634371 0.005817065015435218811035156250 -0.002100337529554963111877441406 0.001145643997006118080736469800 0 0 0 0 
2405500000.0000000000 0.170350894331932095626669365629 0.004261770751327276229858398438 -0.002163276774808764891383505713 0.001319497474469244913813925635 0 0 0 0 
2405666666.6666665077 0.170357719063758905608807481258 0.002911270828917622999904013525 -0.002052999800071119828465127100 0.001308128237724303982378315503 0 0 0 0 
2405833333.3333334923 0.170090511441230801681356865629 0.001380869885906576893450092847 -0.002031830372288823127746582031 0.001619133166968822912928915869 0 0 0 0 
2406000000.0000000000 0.170175358653068486969317518742 -0.000549889053218066692352294922 -0.002141936682164669036865234375 0.001671770587563514926313090747 0 0 0 0 
2406166666.6666665077 0.169967561960220309158486884371 -0.001788704888895153999328613281 -0.002168345963582396940944052588 0.001779506797902286052703857422 0 0 0 0 
2406333333.3333334923 0.170081838965416010100994981258 -0.003447164082899690108058310400 -0.002236593514680861993076943506 0.001879515126347542025922465747 0 0 0 0 
2406500000.0000000000 0.169854283332824707031250000000 -0.005072637461125850677490234375 -0.002109657274559140205383300781 0.001954700564965606169459677588 0 0 0 0 
2406666666.6666665077 0.169586077332496587555255018742 -0.006514220498502255353445722363 -0.002158894669264554977416992188 0.002152790781110525131225585938 0 0 0 0 
2406833333.3333334923 0.169464170932769803146200615629 -0.008165153674781322479248046875 -0.002237247535958886146545410156 0.002251041354611515998840332031 0 0 0 0 
2407000000.0000000000 0.169412568211555508712606865629 -0.009659848175942897796630859375 -0.002137449570000172095057822119 0.002371350070461630821228027344 0 0 0 0 
2407166666.6666665077 0.169345304369926508147869981258 -0.010851775296032430476178554102 -0.002040384104475378990173339844 0.002481985837221146063563681494 0 0 0 0 
2407333333.3333334923 0.168905913829803494552450615629 -0.012294369749724870163887224805 -0.002143904566764831976649618994 0.002580688567832111878636025537 0 0 0 0 
2407500000.0000000000 0.168743133544921902755575615629 -0.013485959731042390305488787305 -0.001843817997723818042157817310 0.002848660806193947792053222656 0 0 0 0 
2407666666.6666665077 0.168569445610046386718750000000 -0.014600637368857860565185546875 -0.001811498659662901921513222803 0.003139700042083859009983681787 0 0 0 0 
2407833333.3333334923 0.168398097157478304763955634371 -0.015772327780723568307896798046 -0.001486949040554464080213237231 0.003020506352186203002929687500 0 0 0 0 
2408000000.0000000000 0.168206021189689608474893134371 -0.017014998942613601684570312500 -0.001492133596912025971653603662 0.003103482304140924973728798975 0 0 0 0 
2408166666.6666665077 0.168139323592186001876669365629 -0.017774077132344249380091483204 -0.001343819079920649962184286963 0.003199970582500100135803222656 0 0 0 0 
2408333333.3333334923 0.168193444609642001053018134371 -0.018672533333301540720006173046 -0.001264033722691237926483154297 0.003399136709049344062805175781 0 0 0 0 
2408500000.0000000000 0.167998731136321993728799384371 -0.019708998501300808298131173046 -0.000988239771686494350433349609 0.003391291946172713799717568506 0 0 0 0 
2408666666.6666665077 0.168105855584144592285156250000 -0.020665477961301800119420235546 -0.000911463692318648099899291992 0.003432304598391056060791015625 0 0 0 0 
2408833333.3333334923 0.168029546737670898437500000000 -0.021383121609687808645228201954 -0.000862183107528835535049438477 0.003405887400731443925144814600 0 0 0 0 
2409000000.0000000000 0.168049097061157198806924384371 -0.022238999605178829538365548046 -0.000779272580984979867935180664 0.003446711692959070205688476562 0 0 0 0 
2409166666.6666665077 0.168344676494598388671875000000 -0.023145468905568119394322579296 -0.000474172789836302399635314941 0.003578190924599767164943076025 0 0 0 0 
2409333333.3333334923 0.168560370802879305740518134371 -0.023923406377434730529785156250 -0.000542599009349942207336425781 0.003498576348647474808933877100 0 0 0 0 
2409500000.0000000000 0.168627738952636690994424384371 -0.025010028854012489318847656250 -0.000461342016933485919803065167 0.003498164005577563805821084131 0 0 0 0 
2409666666.6666665077 0.168624699115753201583700615629 -0.025855196639895439147949218750 -0.000244414113694801926612854004 0.003550060791894793944117880713 0 0 0 0 
2409833333.3333334923 0.168680354952812194824218750000 -0.026537749916315078735351562500 -0.000168836879311129505008143292 0.003504555905237793922424316406 0 0 0 0 
2410000000.0000000000 0.168875962495803805252236884371 -0.027502235025167468679407889454 -0.000106752995634451494969506535 0.003560605691745876832249306787 0 0 0 0 
2410166666.6666665077 0.168694406747817993164062500000 -0.028429241850972179067591483204 0.000145629979670047787114819937 0.003748645074665545983555459131 0 0 0 0 
2410333333.3333334923 0.168925747275352505782919365629 -0.029384296387434009206751639454 0.000171881169080734307139796124 0.003643513889983295960667275537 0 0 0 0 
2410500000.0000000000 0.168816030025482205489950615629 -0.030238013714551929128626639454 0.000233356156968511586815434589 0.003721008775755763053894042969 0 0 0 0 
2410666666.6666665077 0.168668255209922790527343750000 -0.031485710293054580688476562500 0.000341092672897502779960632324 0.003620844800025225119349814307 0 0 0 0 
2410833333.3333334923 0.168552756309509305099325615629 -0.032251603901386260986328125000 0.000508023425936698913574218750 0.003634310327470303015467978369 0 0 0 0 
2411000000.0000000000 0.168454632163047790527343750000 -0.033141199499368667602539062500 0.000754336244426667690277099609 0.003654902102425694899318076025 0 0 0 0 
2411166666.6666665077 0.168170928955078097244424384371 -0.034031748771667480468750000000 0.000766551005654036998748779297 0.003671857761219143867492675781 0 0 0 0 
2411333333.3333334923 0.168084219098091097732705634371 -0.034850582480430603027343750000 0.000834999140352010726928710938 0.003708447096869349913356161963 0 0 0 0 
2411500000.0000000000 0.167786896228790310958700615629 -0.035844121128320687030832658593 0.001077717286534606976750039209 0.003737125545740127997157431494 0 0 0 0 
2411666666.6666665077 0.167641401290893610198651231258 -0.036766041070222861553151716407 0.001051687169820070049883198315 0.003626838326454163031337118994 0 0 0 0 
2411833333.3333334923 0.167409464716911288162393134371 -0.037481699138879782939870466407 0.001134458114393055005314492334 0.003742208471521735191345214844 0 0 0 0 
2412000000.0000000000 0.167359918355941800216513115629 -0.038572214543819427490234375000 0.001417227205820382075068808447 0.003695357823744415803196572412 0 0 0 0 
2412166666.6666665077 0.166944399476051302810830634371 -0.039511404931545257568359375000 0.001644299947656691074371337891 0.003614813089370727972743368994 0 0 0 0 
2412333333.3333334923 0.166980400681495694259481865629 -0.040408480912446982646901716407 0.001534235896542667908909463037 0.003723471891134976907017373193 0 0 0 0 
2412500000.0000000000 0.166394770145416287521200615629 -0.041196104139089577411692033593 0.001984802074730395837071084131 0.003668467979878187179565429688 0 0 0 0 
2412666666.6666665077 0.166142433881759588043536268742 -0.042409639805555336689035783593 0.002069183858111501173732138525 0.003645357443019748167750693213 0 0 0 0 
2412833333.3333334923 0.165789470076561001876669365629 -0.043402329087257392192800153907 0.002288006246089934869053506006 0.003420253749936819076538085938 0 0 0 0 
2413000000.0000000000 0.165390208363532992263955634371 -0.044334866106510162353515625000 0.002339490456506609916687011719 0.003553845221176743941066122900 0 0 0 0 
2413166666.6666665077 0.164830684661865206619424384371 -0.045472618192434310913085937500 0.002689937362447381019592285156 0.003422308247536420822143554688 0 0 0 0 
2413333333.3333334923 0.164411351084709195236044365629 -0.046499148011207580566406250000 0.002747092861682177023646689307 0.003233743598684668974635458838 0 0 0 0 
2413500000.0000000000 0.164066016674041803558026231258 -0.047572631388902657245676408593 0.003095923922955989837646484375 0.003022300777956842942478798975 0 0 0 0 
2413666666.6666665077 0.163640767335891695877236884371 -0.048656880855560302734375000000 0.003173700533807278113124228369 0.002886329311877489089965820312 0 0 0 0 
2413833333.3333334923 0.163183301687240600585937500000 -0.049620721489191062236745466407 0.003386823227629065947291708838 0.002759503899142146110534667969 0 0 0 0 
2414000000.0000000000 0.162719205021858187576455634371 -0.050572201609611511230468750000 0.003413964528590441183802939307 0.002736341906711459159851074219 0 0 0 0 
2414166666.6666665077 0.162475749850273104568643134371 -0.051728881895542151714284528907 0.003613197710365056991577148438 0.002415860071778296990635537256 0 0 0 0 
2414333333.3333334923 0.161916300654411288162393134371 -0.052504420280456542968750000000 0.003618930000811814828159951318 0.002086716471239923997166298975 0 0 0 0 
2414500000.0000000000 0.161830127239227294921875000000 -0.053455241024494171142578125000 0.003668174846097826957702636719 0.001907307654619216918945312500 0 0 0 0 
2414666666.6666665077 0.161422029137611389160156250000 -0.054473094642162322998046875000 0.003763551358133554892299033057 0.001548306085169314904453896631 0 0 0 0 
2414833333.3333334923 0.161059677600860595703125000000 -0.055578965693712227558176408593 0.003695317544043064117431640625 0.001321917981840669891954731519 0 0 0 0 
2415000000.0000000000 0.161058202385902404785156250000 -0.056532911956310272216796875000 0.003692572470754384994506835938 0.001248678076080977916717529297 0 0 0 0 
2415166666.6666665077 0.160778865218162508865518134371 -0.057593863457441329956054687500 0.003698540152981876893284463037 0.000945471401792019605636596680 0 0 0 0 
2415333333.3333334923 0.160656854510307312011718750000 -0.058782782405614852905273437500 0.003706939751282333894016884912 0.000909046328160911798477172852 0 0 0 0 
2415500000.0000000000 0.160522073507308987716513115629 -0.059803254902362816547434221093 0.003527519293129444122314453125 0.000577818078454583883285522461 0 0 0 0 
2415666666.6666665077 0.160322979092597989181356865629 -0.060916628688573837280273437500 0.003356665140017867088317871094 0.000361051468644291216700953351 0 0 0 0 
2415833333.3333334923 0.160308957099914606292401231258 -0.062186997383832931518554687500 0.003235778538510202927830361475 0.000339471560437232310145777570 0 0 0 0 
2416000000.0000000000 0.160014525055885287185830634371 -0.063335008919239044189453125000 0.003228638321161270141601562500 0.000242849608184769803851527081 0 0 0 0 
2416166666.6666665077 0.159880995750427301604901231258 -0.064513258635997772216796875000 0.002963504986837505860569619287 0.000132443907205015393808641977 0 0 0 0 
2416333333.3333334923 0.159714818000793512542401231258 -0.065637305378913879394531250000 0.002845559269189835028407431494 0.000055084834457375109195709229 0 0 0 0 
2416500000.0000000000 0.159451499581337002853231865629 -0.066976010799407958984375000000 0.002643215702846645875218056787 0.000095297255029436200857162476 0 0 0 0 
2416666666.6666665077 0.159102067351341303069744981258 -0.067951738834381103515625000000 0.002739051822572946982142783057 0.000056885699450504041533877714 0 0 0 0 
2416833333.3333334923 0.158880203962326105315838731258 -0.069357015192508697509765625000 0.002545241732150315804722451318 0.000164105964358895989969530649 0 0 0 0 
2417000000.0000000000 0.158417537808418301681356865629 -0.070379905402660369873046875000 0.002496591070666908784153603662 0.000088809560111258178949356079 0 0 0 0 
2417166666.6666665077 0.158231601119041387359942518742 -0.071439698338508605957031250000 0.002480694791302084922790527344 0.000056402743211947381496429443 0 0 0 0 
2417333333.3333334923 0.157822564244270296951455634371 -0.072334527969360351562500000000 0.002473994158208370208740234375 0.000086362662841565907001495361 0 0 0 0 
2417500000.0000000000 0.157492458820342989822549384371 -0.073485538363456726074218750000 0.002386473352089523835423134912 -0.000040633156459080062132289274 0 0 0 0 
2417666666.6666665077 0.157227754592895507812500000000 -0.074288919568061828613281250000 0.002524881158024073080775595557 0.000163196469657123088836669922 0 0 0 0 
2417833333.3333334923 0.156891405582428006271200615629 -0.075098484754562377929687500000 0.002659462857991456985473632812 0.000257144682109355926513671875 0 0 0 0 
2418000000.0000000000 0.156513467431068392654580634371 -0.076130509376525878906250000000 0.002504627220332622961757040869 0.000098512333352118730545043945 0 0 0 0 
2418166666.6666665077 0.156177654862403897384481865629 -0.076710872352123260498046875000 0.002469112398102879957911826025 0.000101087607617955695517124315 0 0 0 0 
2418333333.3333334923 0.156135782599449213225994981258 -0.077680505812168121337890625000 0.002597765997052193121669150244 -0.000016188349036383439192568132 0 0 0 0 
2418500000.0000000000 0.155714005231857299804687500000 -0.078334666788578033447265625000 0.002659804420545697212219238281 0.000030207113013602789828573533 0 0 0 0 
2418666666.6666665077 0.155246958136558504959268134371 -0.079221487045288085937500000000 0.002717054914683103995082236182 -0.000084913706814404577016830444 0 0 0 0 
2418833333.3333334923 0.154967099428176907638388115629 -0.079971536993980407714843750000 0.002638767473399639129638671875 -0.000099004071671515703201293945 0 0 0 0 
2419000000.0000000000 0.154495745897293090820312500000 -0.080601632595062255859375000000 0.002636326476931571960449218750 -0.000195984364836476689011174335 0 0 0 0 
2419166666.6666665077 0.154193490743637112716513115629 -0.081262499094009399414062500000 0.002602799329906702041625976562 -0.000296988087939098477363586426 0 0 0 0 
2419333333.3333334923 0.153629153966903686523437500000 -0.081660836935043334960937500000 0.002486246172338724136352539062 -0.000327896530507132411003112793 0 0 0 0 
2419500000.0000000000 0.153419837355613708496093750000 -0.082391917705535888671875000000 0.002626374363899230957031250000 -0.000353015551809221506118774414 0 0 0 0 
2419666666.6666665077 0.153031021356582613845986884371 -0.083006791770458221435546875000 0.002726765815168619155883789062 -0.000543622882105410099029541016 0 0 0 0 
2419833333.3333334923 0.152628883719444302657919365629 -0.083467595279216766357421875000 0.002697383519262074990513466943 -0.000438629911513999104499816895 0 0 0 0 
