# Hz S RI R 50
2400000000.0000000000 0.171533748507499694824218750000 0.040336955338716506958007812500 0.001612205291166902022120810400 -0.003048146842047572135925292969 0 0 0 0 
2400166666.6666665077 0.172110989689826993087606865629 0.039893243461847312236745466407 0.001421091146767139001133584131 -0.003045817604288458824157714844 0 0 0 0 
2400333333.3333334923 0.172637537121772793868856865629 0.039297714829444892192800153907 0.001338630216196178956272744287 -0.003237644676119089126586914062 0 0 0 0 
2400500000.0000000000 0.173077344894409207443075615629 0.038425453007221221923828125000 0.001210441463626920960069965894 -0.003323449753224850134608603369 0 0 0 0 
2400666666.6666665077 0.173422008752822903732138115629 0.037846934050321578979492187500 0.001155365025624633052228618091 -0.003183876862749456925633095850 0 0 0 0 
2400833333.3333334923 0.173829004168510409256143134371 0.037463720887899398803710937500 0.001045094220899045901057577979 -0.003400977235287427902221679688 0 0 0 0 
2401000000.0000000000 0.173764884471893310546875000000 0.036679893732070922851562500000 0.000938907382078468799591064453 -0.003538254415616393089294433594 0 0 0 0 
2401166666.6666665077 0.173939332365989712814169365629 0.036156378686428070068359375000 0.000818844244349747896194458008 -0.003331843996420503096339560400 0 0 0 0 
2401333333.3333334923 0.173896312713623102386151231258 0.035381924360990517353098283593 0.000616830133367329835891723633 -0.003347016870975493951084756006 0 0 0 0 
2401500000.0000000000 0.173927649855613708496093750000 0.034735705703496932983398437500 0.000420897122239693999290466309 -0.003553051268681883811950683594 0 0 0 0 
2401666666.6666665077 0.173993915319442804534588731258 0.034199554473161697387695312500 0.000396250747144222313731592999 -0.003578037256374955177307128906 0 0 0 0 
2401833333.3333334923 0.173569619655609103103799384371 0.033543057739734649658203125000 0.000364062841981649398803710938 -0.003541917307302356199977255713 0 0 0 0 
2402000000.0000000000 0.173262402415275601486044365629 0.032653916627168662334401716407 0.000127298597362823811456403189 -0.003659144276753067970275878906 0 0 0 0 
2402166666.6666665077 0.173344388604164095779580634371 0.031754933297634131694753278907 0.000026441863155923780391012498 -0.003731675678864121003391884912 0 0 0 0 
2402333333.3333334923 0.172837927937507601638955634371 0.030917480587959289550781250000 -0.000137266979436390101909637451 -0.003608088940382003784179687500 0 0 0 0 
2402500000.0000000000 0.172903537750244112869424384371 0.030149875208735469472864920704 -0.000117224277346394996769489427 -0.003640240291133522987365722656 0 0 0 0 
2402666666.6666665077 0.172463431954383905608807481258 0.029039250686764720571497733204 -0.000286444992525502985149937762 -0.003610954619944096045253134619 0 0 0 0 
2402833333.3333334923 0.172133490443229703048544365629 0.028133522719144821166992187500 -0.000444860226707533001899719238 -0.003662485862150787873509072412 0 0 0 0 
2403000000.0000000000 0.171782001852989196777343750000 0.026972269639372829092005545704 -0.000686202780343592166900634766 -0.003641908755525947050807333838 0 0 0 0 
2403166666.6666665077 0.171500906348228510100994981258 0.025741668418049808847447579296 -0.000646604748908430337905883789 -0.003620018484070897102355957031 0 0 0 0 
2403333333.3333334923 0.171178802847862188141192518742 0.024712482467293739318847656250 -0.000804058858193457126617431641 -0.003978005144745112332815839551 0 0 0 0 
2403500000.0000000000 0.170535087585449190994424384371 0.023302808403968811035156250000 -0.001078834873624145984649658203 -0.003765370231121778921840048682 0 0 0 0 
2403666666.6666665077 0.170234784483909606933593750000 0.021873766556382179260253906250 -0.001421005697920918898341513525 -0.003827412612736225128173828125 0 0 0 0 
2403833333.3333334923 0.170075103640556307693643134371 0.020543018355965610849400704296 -0.001549487933516501946690224756 -0.003650751430541276931762695312 0 0 0 0 
2404000000.0000000000 0.169591769576072692871093750000 0.018995055928826328622838204296 -0.001757973805069922967198037256 -0.003672874765470623970031738281 0 0 0 0 
2404166666.6666665077 0.169290527701377896407919365629 0.017358103767037391662597656250 -0.001984077272936702208278036963 -0.003436142578721046014073037256 0 0 0 0 
2404333333.3333334923 0.168880492448806790450888115629 0.016012029722332950937291329296 -0.002357950666919351057765341650 -0.003485002787783741950988769531 0 0 0 0 
2404500000.0000000000 0.168574124574661310393963731258 0.014371019788086409132987775195 -0.002556996187195181846618652344 -0.003246793756261467933654785156 0 0 0 0 
2404666666.6666665077 0.168296635150909396072549384371 0.012816113419830800837506679102 -0.002605522284284234046936035156 -0.003060203744098544120788574219 0 0 0 0 
2404833333.3333334923 0.168057426810264587402343750000 0.010863400995731350290318673046 -0.002597704296931623978855752100 -0.002894816221669315858128213037 0 0 0 0 
2405000000.0000000000 0.168068945407867403885049384371 0.009214311838150024414062500000 -0.002819232176989316940307617188 -0.002692194189876317977905273438 0 0 0 0 
2405166666.6666665077 0.167895913124084500411825615629 0.007506901863962411880493164062 -0.002845031442120670838596963037 -0.002116610528901218934300088037 0 0 0 0 
2405333333.3333334923 0.167889460921287508865518134371 0.005557044409215450286865234375 -0.002982958452776073975803994287 -0.002023372566327453093287802588 0 0 0 0 
2405500000.0000000000 0.167873620986938504318075615629 0.003849168540909885926487588037 -0.002945674816146492958068847656 -0.001831679604947566986083984375 0 0 0 0 
2405666666.6666665077 0.167764753103256197830361884371 0.002102692145854235129115439307 -0.002931792754679917855503701318 -0.001687671057879924991010356372 0 0 0 0 
2405833333.3333334923 0.167621299624443109710369981258 0.000149890023749321699142456055 -0.002841738983988761901855468750 -0.001429550582543015913722372900 0 0 0 0 
2406000000.0000000000 0.167719647288322504241619981258 -0.001755926874466239972355507959 -0.002716306829825044111964560400 -0.001270627253688872077344584888 0 0 0 0 
2406166666.6666665077 0.167518615722656305511151231258 -0.003559800330549478964564658057 -0.002666373271495103836059570312 -0.001012424123473465008976601709 0 0 0 0 
2406333333.3333334923 0.167850196361541803558026231258 -0.005355597939342260360717773438 -0.002491582185029983954188681494 -0.000828529242426156997680664062 0 0 0 0 
2406500000.0000000000 0.167663201689720209319744981258 -0.007176350336521863937377929688 -0.002550506964325904846191406250 -0.000902505416888743638992309570 0 0 0 0 
2406666666.6666665077 0.167544797062873812576455634371 -0.008964401669800281524658203125 -0.002384901046752930121180868994 -0.000808494223747402429580688477 0 0 0 0 
2406833333.3333334923 0.167753338813781710525674384371 -0.010537347756326200312604335352 -0.002301672007888555960414267432 -0.000603628752287477254867553711 0 0 0 0 
2407000000.0000000000 0.167820140719413812835369981258 -0.012161632068455219268798828125 -0.002302607521414757208583212744 -0.000586159236263483762741088867 0 0 0 0 
2407166666.6666665077 0.167947232723236111739950615629 -0.013664163649082180368443673046 -0.002228518249467014832737588037 -0.000528231728821992874145507812 0 0 0 0 
2407333333.3333334923 0.167940497398376492599325615629 -0.015355203300714489328404610546 -0.001997724408283830122706747900 -0.000623028783593326807022094727 0 0 0 0 
2407500000.0000000000 0.167946696281433105468750000000 -0.016472078859806060791015625000 -0.002009627874940634207484579932 -0.000659193494357168674468994141 0 0 0 0 
2407666666.6666665077 0.168103024363517788986044365629 -0.017807407304644591594655622657 -0.001659764559008181095123291016 -0.000515419000294059514999389648 0 0 0 0 
2407833333.3333334923 0.168210387229919405838174384371 -0.019179612398147579538365548046 -0.001747485133819282054901123047 -0.000480234710266813581616002216 0 0 0 0 
2408000000.0000000000 0.168328702449798611739950615629 -0.020189147442579269409179687500 -0.001724020345136523029924702222 -0.000474510743515565991401672363 0 0 0 0 
2408166666.6666665077 0.168480157852172907073651231258 -0.021126864477992061269739920704 -0.001565338578075170950648642432 -0.000519644061569124460220336914 0 0 0 0 
2408333333.3333334923 0.168915748596191406250000000000 -0.022049019113183021545410156250 -0.001688311924226582050323486328 -0.000500180874951183795928955078 0 0 0 0 
2408500000.0000000000 0.169146999716758700271768134371 -0.022980423644185069692591483204 -0.001599323004484177069423056494 -0.000470763305202126502990722656 0 0 0 0 
2408666666.6666665077 0.169400632381439208984375000000 -0.023892190307378768920898437500 -0.001465331879444419903996132959 -0.000594125071074813604354858398 0 0 0 0 
2408833333.3333334923 0.169538021087646512130575615629 -0.024480247870087620126744454296 -0.001515451469458640055415488135 -0.000722126744221895933151245117 0 0 0 0 
2409000000.0000000000 0.169994264841079711914062500000 -0.025278588756918910634974295704 -0.001324764569289982102037739331 -0.000654455157928168773651123047 0 0 0 0 
2409166666.6666665077 0.170458212494850186446981865629 -0.026023443788290020334263985546 -0.001368694938719273047206259619 -0.000733566761482506990432739258 0 0 0 0 
2409333333.3333334923 0.170930087566375704666299384371 -0.026703719049692150461217110546 -0.001381206209771334908129047925 -0.000760354043450206518173217773 0 0 0 0 
2409500000.0000000000 0.171067446470260592361611884371 -0.027650000527501109731653983204 -0.001343679963611065907719277490 -0.000827986863441765308380126953 0 0 0 0 
2409666666.6666665077 0.171348825097084100921307481258 -0.028114603832364078866978829296 -0.001378096523694694042205810547 -0.001012932509183884100673056494 0 0 0 0 
2409833333.3333334923 0.171607792377471896072549384371 -0.028740119189023971557617187500 -0.001291511463932693004608154297 -0.000983773265033960342407226562 0 0 0 0 
2410000000.0000000000 0.171881601214408902267294365629 -0.029374333098530769348144531250 -0.001605969970114528916002583081 -0.001162678701803087971330952222 0 0 0 0 
2410166666.6666665077 0.172066897153854397872763115629 -0.030177941545844081533411795704 -0.001519228913821280002593994141 -0.001265612547285855033277202075 0 0 0 0 
2410333333.3333334923 0.172066569328308105468750000000 -0.030767614021897319448450858204 -0.001671848236583173058153461987 -0.001291333232074975967407226562 0 0 0 0 
2410500000.0000000000 0.172047317028045709808026231258 -0.031619790941476821899414062500 -0.001864617457613348960876464844 -0.001437085913494229099870991284 0 0 0 0 
2410666666.6666665077 0.171841293573379488845986884371 -0.032272476702928543090820312500 -0.001971186604350804848911904443 -0.001424381975084543011308979565 0 0 0 0 
2410833333.3333334923 0.171858280897140502929687500000 -0.032706521451473243022878278907 -0.002021112246438860893249511719 -0.001385950250551104979274130713 0 0 0 0 
2411000000.0000000000 0.171621486544609097579794365629 -0.033415362238883972167968750000 -0.002189587801694869995117187500 -0.001305526238866149945500039209 0 0 0 0 
2411166666.6666665077 0.171478793025016812423544365629 -0.034091986715793609619140625000 -0.002416396280750631852390908350 -0.001283148885704576969146728516 0 0 0 0 
2411333333.3333334923 0.171170845627784701248330634371 -0.034677024930715560913085937500 -0.002452492713928223089930868994 -0.001320827053859829902648925781 0 0 0 0 
2411500000.0000000000 0.170810490846633911132812500000 -0.035309482365846626972238908593 -0.002687326632440090179443359375 -0.001289588399231434085248637622 0 0 0 0 
2411666666.6666665077 0.170527234673500088790731865629 -0.036011125892400741577148437500 -0.002841141307726501984837197412 -0.001165024004876614050624228369 0 0 0 0 
2411833333.3333334923 0.170155033469200106521768134371 -0.036704666912555701518972028907 -0.002817770931869744820835732568 -0.000921840954106301069259643555 0 0 0 0 
2412000000.0000000000 0.169571220874786404708700615629 -0.037450488656759262084960937500 -0.002919509075582027001621865381 -0.000903009728062897920608520508 0 0 0 0 
2412166666.6666665077 0.169194921851158086578692518742 -0.038110457360744483257253278907 -0.003002736018970609144923544775 -0.000829908763989806175231933594 0 0 0 0 
2412333333.3333334923 0.168650001287460299392861884371 -0.038894210010766983032226562500 -0.003169403411448001861572265625 -0.000717595918104052543640136719 0 0 0 0 
2412500000.0000000000 0.168139249086380004882812500000 -0.039604678750038146972656250000 -0.003232201328501104874851845850 -0.000476708286441862583160400391 0 0 0 0 
2412666666.6666665077 0.167581960558891296386718750000 -0.040816254913806922222097028907 -0.003306364640593529181239462744 -0.000403397250920534079701024188 0 0 0 0 
2412833333.3333334923 0.166921496391296386718750000000 -0.041705414652824401855468750000 -0.003269870067015289826634072412 -0.000133316789288073805257520132 0 0 0 0 
2413000000.0000000000 0.166219398379325894454794365629 -0.042482379823923110961914062500 -0.003448065603151917891261435400 -0.000154259629198350012302398682 0 0 0 0 
2413166666.6666665077 0.165392696857452392578125000000 -0.043630033731460571289062500000 -0.003455819096416234970092773438 -0.000051950970373582101684024198 0 0 0 0 
2413333333.3333334923 0.164762437343597412109375000000 -0.044593308120965957641601562500 -0.003451234893873333930969238281 0.000098438205895945429801940918 0 0 0 0 
2413500000.0000000000 0.164037093520164489746093750000 -0.045662496238946921611745466407 -0.003542453981935977935791015625 0.000265714043052867109149378644 0 0 0 0 
2413666666.6666665077 0.163512766361236600021200615629 -0.046812172979116439819335937500 -0.003545338986441493034362792969 0.000411265675211325287818908691 0 0 0 0 
2413833333.3333334923 0.162574231624603299239950615629 -0.047780934721231460571289062500 -0.003499522572383285002467490088 0.000650816189590841531753540039 0 0 0 0 
2414000000.0000000000 0.161837145686149597167968750000 -0.048960518091917037963867187500 -0.003604960162192583084106445312 0.000834529870189726352691650391 0 0 0 0 
2414166666.6666665077 0.161168158054351806640625000000 -0.050054863095283508300781250000 -0.003628266043961048126220703125 0.000878668506629765033721923828 0 0 0 0 
2414333333.3333334923 0.160480499267578097244424384371 -0.051090460270643227314035783593 -0.003662945702672005133387900244 0.001004636636935174898860312354 0 0 0 0 
2414500000.0000000000 0.160193607211113003829794365629 -0.052203141152858727191965471093 -0.003576842602342367172241210938 0.001235153642483056025264120947 0 0 0 0 
2414666666.6666665077 0.159572422504425104339276231258 -0.053459953516721732402761091407 -0.003566862782463430924656533350 0.001128174946643411896349262769 0 0 0 0 
2414833333.3333334923 0.159145936369895907303018134371 -0.054653547704219818115234375000 -0.003637817222625017166137695312 0.001480736769735812924028706128 0 0 0 0 
2415000000.0000000000 0.158720329403877313811932481258 -0.055798567831516272808034528907 -0.003595641581341623826267861475 0.001590954838320612907409667969 0 0 0 0 
2415166666.6666665077 0.158514395356178311446981865629 -0.057085894048213958740234375000 -0.003597853239625691933872841943 0.001988464966416358947753906250 0 0 0 0 
2415333333.3333334923 0.158276349306106595138388115629 -0.058460485190153121948242187500 -0.003368449164554477171656943213 0.001912305597215891101239848560 0 0 0 0 
2415500000.0000000000 0.158002406358718899825888115629 -0.059730518609285361553151716407 -0.003293307498097420172450400244 0.002134527545422316031215048682 0 0 0 0 
2415666666.6666665077 0.157776549458503695388955634371 -0.061132594943046569824218750000 -0.003270630259066820144653320312 0.002451555803418159918544150244 0 0 0 0 
2415833333.3333334923 0.157687366008758489410723768742 -0.062616169452667236328125000000 -0.003168239258229732947108603369 0.002615983830764890150782919775 0 0 0 0 
2416000000.0000000000 0.157321795821189908126669365629 -0.064061246812343597412109375000 -0.002929898211732507185695029150 0.002625079127028584913966513525 0 0 0 0 
2416166666.6666665077 0.157414212822914095779580634371 -0.065550386905670166015625000000 -0.002752447966486216025111533057 0.002898323815315961837768554688 0 0 0 0 
2416333333.3333334923 0.157135918736457796951455634371 -0.066896371543407440185546875000 -0.002547256182879209952113486182 0.002863339846953750090358115088 0 0 0 0 
2416500000.0000000000 0.156948238611221313476562500000 -0.068450182676315307617187500000 -0.002458557486534119086024618994 0.003018327988684176965000771631 0 0 0 0 
2416666666.6666665077 0.156739637255668612381143134371 -0.069775082170963287353515625000 -0.002379887970164417786839150537 0.003130944445729256109950400244 0 0 0 0 
2416833333.3333334923 0.156690478324890108963174384371 -0.071094438433647155761718750000 -0.002168136416003108024597167969 0.003218270139768720106837607275 0 0 0 0 
2417000000.0000000000 0.156269297003746004959268134371 -0.072576016187667846679687500000 -0.001883530057966708920122456128 0.003335613058879971937892294775 0 0 0 0 
2417166666.6666665077 0.156241670250892611404580634371 -0.073727771639823913574218750000 -0.001769400900229812102076865088 0.003263023216277360916137695312 0 0 0 0 
2417333333.3333334923 0.156165823340416010100994981258 -0.074786506593227386474609375000 -0.001573549583554268100141215747 0.003319442039355636076686240088 0 0 0 0 
2417500000.0000000000 0.155940368771553011795205634371 -0.076101444661617279052734375000 -0.001517316908575593991520547021 0.003260176163166760964634560693 0 0 0 0 
2417666666.6666665077 0.155931547284126309493856865629 -0.077019080519676208496093750000 -0.001371220336295664093614887769 0.003301473334431647820713662256 0 0 0 0 
2417833333.3333334923 0.155860245227813692947549384371 -0.078040689229965209960937500000 -0.001187222427688539028167724609 0.003364533185958861871006631006 0 0 0 0 
2418000000.0000000000 0.155724018812179593185263115629 -0.079169109463691711425781250000 -0.001181164640001953081843710791 0.003190415212884544892552041162 0 0 0 0 
2418166666.6666665077 0.155771777033805902679119981258 -0.079760700464248657226562500000 -0.000874160614330321550369262695 0.003213189076632260842564248193 0 0 0 0 
2418333333.3333334923 0.155977636575698908050213731258 -0.080592386424541473388671875000 -0.000806526746600866317749023438 0.003164094174280763106105185400 0 0 0 0 
2418500000.0000000000 0.155707195401191711425781250000 -0.081447131931781768798828125000 -0.000666633772198110818862915039 0.003138332860544323921203613281 0 0 0 0 
2418666666.6666665077 0.155694231390953091720419365629 -0.082192055881023406982421875000 -0.000727212172932922840118408203 0.002967500826343894004821777344 0 0 0 0 
2418833333.3333334923 0.155536502599716186523437500000 -0.082815915346145629882812500000 -0.000625128392130136489868164062 0.003111655823886394934413290869 0 0 0 0 
2419000000.0000000000 0.155421346426010104080361884371 -0.083495751023292541503906250000 -0.000710698252078145742416381836 0.003087657503783702850341796875 0 0 0 0 
2419166666.6666665077 0.155368760228156987945880018742 -0.083980977535247802734375000000 -0.000511004589498043060302734375 0.003010048298165202140808105469 0 0 0 0 
2419333333.3333334923 0.155194431543350191970986884371 -0.084429271519184112548828125000 -0.000373891816707328016131800519 0.003029349260032176971435546875 0 0 0 0 
2419500000.0000000000 0.154968976974487304687500000000 -0.085124321281909942626953125000 -0.000396648305468261187702733173 0.002942273160442709922790527344 0 0 0 0 
2419666666.6666665077 0.155091494321823092361611884371 -0.085638791322708129882812500000 -0.000272466044407337903976440430 0.003046646947041153907775878906 0 0 0 0 
2419833333.3333334923 0.154736846685409601409588731258 -0.085871703922748565673828125000 -0.000229149460210464894771575928 0.002976695308461784882786416162 0 0 0 0 
