# Version 1.00
#
freq[Hz];re:Trc1_S11;im:Trc1_S11;re:Trc2_S21;im:Trc2_S21;
2.400000000000000E+009;1.584360897541046E-001;6.295066326856613E-002;-2.354289463255554E-004;-1.622645533643663E-003;
2.400166666666667E+009;1.580527573823929E-001;6.141291186213493E-002;-2.292614663019776E-004;-1.471272204071283E-003;
2.400333333333334E+009;1.580672115087509E-001;5.951206013560295E-002;-2.864858251996338E-004;-1.547855790704489E-003;
2.400500000000000E+009;1.579519361257553E-001;5.756420642137528E-002;-3.350094484630972E-004;-1.610189676284790E-003;
2.400666666666667E+009;1.578086912631989E-001;5.574537441134453E-002;-2.859057567548007E-004;-1.722351531498134E-003;
2.400833333333334E+009;1.579145491123200E-001;5.377087742090225E-002;-2.251260884804651E-004;-1.454882323741913E-003;
2.401000000000000E+009;1.580070704221726E-001;5.188302323222160E-002;-3.225012915208936E-004;-1.555488095618784E-003;
2.401166666666667E+009;1.580286771059036E-001;4.965651407837868E-002;-3.868182539008558E-004;-1.710560056380928E-003;
2.401333333333334E+009;1.580774486064911E-001;4.737407714128494E-002;-4.506855621002615E-004;-1.785157946869731E-003;
2.401500000000000E+009;1.585637032985687E-001;4.540736600756645E-002;-3.669788420666009E-004;-1.853354973718524E-003;
2.401666666666667E+009;1.587812304496765E-001;4.352954775094986E-002;-2.671930706128478E-004;-1.824937411583960E-003;
2.401833333333334E+009;1.590595543384552E-001;4.140730202198029E-002;-3.260421799495816E-004;-1.840555225498974E-003;
2.402000000000000E+009;1.593973636627197E-001;3.923803940415382E-002;-3.160886990372092E-004;-2.023550448939204E-003;
2.402166666666667E+009;1.599127501249313E-001;3.727173432707787E-002;-5.592489033006132E-004;-1.853353343904018E-003;
2.402333333333334E+009;1.604290604591370E-001;3.562900424003601E-002;-7.077080663293600E-004;-2.038772683590651E-003;
2.402500000000000E+009;1.612341701984406E-001;3.362622857093811E-002;-7.708107004873455E-004;-1.983951311558485E-003;
2.402666666666667E+009;1.617618203163147E-001;3.175824508070946E-002;-6.911628879606724E-004;-2.186821773648262E-003;
2.402833333333334E+009;1.625815927982330E-001;3.013886511325836E-002;-7.561976672150195E-004;-2.257916145026684E-003;
2.403000000000000E+009;1.632938385009766E-001;2.836920693516731E-002;-9.913834510371089E-004;-2.181775867938995E-003;
2.403166666666667E+009;1.643959879875183E-001;2.675418183207512E-002;-1.088590943254530E-003;-2.035472076386213E-003;
2.403333333333334E+009;1.651336699724197E-001;2.517247945070267E-002;-1.097467145882547E-003;-2.061629900708795E-003;
2.403500000000000E+009;1.659089475870132E-001;2.373935468494892E-002;-1.274332404136658E-003;-2.059075282886624E-003;
2.403666666666667E+009;1.669982671737671E-001;2.214021980762482E-002;-1.583001692779362E-003;-1.938435714691877E-003;
2.403833333333334E+009;1.678739637136459E-001;2.094094082713127E-002;-1.673208083957434E-003;-1.945951138623059E-003;
2.404000000000000E+009;1.688897013664246E-001;1.966017112135887E-002;-1.636052154935896E-003;-1.856661285273731E-003;
2.404166666666667E+009;1.698901355266571E-001;1.850118301808834E-002;-1.822014804929495E-003;-1.811362919397652E-003;
2.404333333333334E+009;1.707488149404526E-001;1.747060194611549E-002;-1.941862748935819E-003;-1.834726775996387E-003;
2.404500000000000E+009;1.714891344308853E-001;1.642154157161713E-002;-2.080887556076050E-003;-1.543351681903005E-003;
2.404666666666667E+009;1.726990640163422E-001;1.544335950165987E-002;-1.986500108614564E-003;-1.463605090975761E-003;
2.404833333333334E+009;1.736769527196884E-001;1.458556950092316E-002;-2.155657159164548E-003;-1.366565236821771E-003;
2.405000000000000E+009;1.745159775018692E-001;1.397481374442577E-002;-2.377600874751806E-003;-1.284233061596751E-003;
2.405166666666667E+009;1.753602921962738E-001;1.323910616338253E-002;-2.215755404904485E-003;-1.180063700303435E-003;
2.405333333333334E+009;1.762352883815765E-001;1.249926351010799E-002;-2.269599586725235E-003;-9.448679629713297E-004;
2.405500000000000E+009;1.768822669982910E-001;1.207546144723892E-002;-2.318104496225715E-003;-9.056236594915390E-004;
2.405666666666667E+009;1.777272224426270E-001;1.163278985768557E-002;-2.362668979912996E-003;-8.247703663073480E-004;
2.405833333333334E+009;1.781857013702393E-001;1.122306101024151E-002;-2.286522183567286E-003;-9.039940778166056E-004;
2.406000000000000E+009;1.788793206214905E-001;1.071028225123882E-002;-2.386737149208784E-003;-4.948072019033134E-004;
2.406166666666667E+009;1.792214810848236E-001;1.044728048145771E-002;-2.424727892503142E-003;-4.861176130361855E-004;
2.406333333333334E+009;1.799851804971695E-001;1.014019921422005E-002;-2.429451560601592E-003;-4.234949592500925E-004;
2.406500000000000E+009;1.801920682191849E-001;9.757164865732193E-003;-2.220381051301956E-003;-3.766176814679056E-004;
2.406666666666667E+009;1.803526431322098E-001;9.548248723149300E-003;-2.297383034601808E-003;-3.326129226479679E-004;
2.406833333333334E+009;1.806680560112000E-001;9.141711518168449E-003;-2.221189439296722E-003;-1.629886828595772E-004;
2.407000000000000E+009;1.808255761861801E-001;8.818908594548702E-003;-2.225385047495365E-003;-1.355190943286289E-005;
2.407166666666667E+009;1.809276938438416E-001;8.627478033304215E-003;-2.355442848056555E-003;2.456824176988448E-006;
2.407333333333334E+009;1.807994544506073E-001;8.179344236850739E-003;-2.195676788687706E-003;-2.248170312668663E-005;
2.407500000000000E+009;1.807205528020859E-001;7.836285047233105E-003;-2.131733344867826E-003;3.147671523038298E-004;
2.407666666666667E+009;1.805716902017593E-001;7.508051116019487E-003;-2.048734109848738E-003;2.663004270289093E-004;
2.407833333333334E+009;1.800469458103180E-001;6.823214702308178E-003;-2.063821768388152E-003;3.197159967385232E-004;
2.408000000000000E+009;1.798989772796631E-001;6.276452913880348E-003;-1.970237819477916E-003;3.402085567358881E-004;
2.408166666666667E+009;1.795496642589569E-001;5.768892820924521E-003;-2.128774533048272E-003;3.354109067004174E-004;
2.408333333333334E+009;1.792167723178864E-001;5.055445246398449E-003;-1.948087126947939E-003;4.389986279420555E-004;
2.408500000000000E+009;1.786006540060043E-001;4.324976354837418E-003;-1.715698279440403E-003;4.967382410541177E-004;
2.408666666666667E+009;1.780028343200684E-001;3.305895486846566E-003;-1.790138776414096E-003;3.654406464193016E-004;
2.408833333333334E+009;1.772290170192719E-001;2.494778716936708E-003;-1.731631578877568E-003;5.124562303535640E-004;
2.409000000000000E+009;1.765704005956650E-001;1.439811429008842E-003;-1.595114008523524E-003;5.615644622594118E-004;
2.409166666666667E+009;1.759485006332398E-001;4.870884586125612E-004;-1.634158776141703E-003;6.053787074051797E-004;
2.409333333333334E+009;1.754642575979233E-001;-7.079062634147704E-004;-1.387009280733764E-003;6.554762949235737E-004;
2.409500000000000E+009;1.745666712522507E-001;-2.051714807748795E-003;-1.406111288815737E-003;6.384509615600109E-004;
2.409666666666667E+009;1.738094985485077E-001;-3.368408884853125E-003;-1.313672284595668E-003;6.217297632247210E-004;
2.409833333333334E+009;1.731468141078949E-001;-4.714922513812780E-003;-1.514017698355019E-003;6.105502834543586E-004;
2.410000000000000E+009;1.725988090038300E-001;-5.991020705550909E-003;-1.332156476564705E-003;5.349272978492081E-004;
2.410166666666667E+009;1.718573123216629E-001;-7.814329117536545E-003;-1.350124948658049E-003;4.986333078704774E-004;
2.410333333333334E+009;1.712551712989807E-001;-9.288175031542778E-003;-1.369063276797533E-003;5.167090566828847E-004;
2.410500000000000E+009;1.708046793937683E-001;-1.106972340494394E-002;-1.198465935885906E-003;6.132950657047331E-004;
2.410666666666667E+009;1.700703054666519E-001;-1.277154590934515E-002;-1.301181735470891E-003;6.336683291010559E-004;
2.410833333333334E+009;1.697697937488556E-001;-1.453298795968294E-002;-1.287494204007089E-003;5.074999062344432E-004;
2.411000000000000E+009;1.693534851074219E-001;-1.624133437871933E-002;-1.053083455190063E-003;5.313051515258849E-004;
2.411166666666667E+009;1.687223762273789E-001;-1.817990653216839E-002;-1.215000054799020E-003;4.579436790663749E-004;
2.411333333333334E+009;1.685427874326706E-001;-1.996829733252525E-002;-1.203227788209915E-003;3.158148028887808E-004;
2.411500000000000E+009;1.682131141424179E-001;-2.222527936100960E-002;-1.250215223990381E-003;3.896278503816575E-004;
2.411666666666667E+009;1.681642681360245E-001;-2.397808805108070E-002;-1.147971139289439E-003;4.638131649699062E-004;
2.411833333333334E+009;1.681882143020630E-001;-2.575065381824970E-002;-1.257881056517363E-003;3.912795509677380E-004;
2.412000000000000E+009;1.681530028581619E-001;-2.784324064850807E-002;-1.266620820388198E-003;5.964795709587634E-004;
2.412166666666667E+009;1.680324971675873E-001;-2.979645878076553E-002;-1.413212739862502E-003;4.587697621900588E-004;
2.412333333333334E+009;1.684905588626862E-001;-3.170750290155411E-002;-1.365492353215814E-003;5.774211022071540E-004;
2.412500000000000E+009;1.684884279966354E-001;-3.361195698380470E-002;-1.442541019059718E-003;5.472436314448714E-004;
2.412666666666667E+009;1.687402725219727E-001;-3.565729036927223E-002;-1.440918422304094E-003;5.961174611002207E-004;
2.412833333333334E+009;1.692419648170471E-001;-3.752951323986054E-002;-1.370364450849593E-003;5.409099394455552E-004;
2.413000000000000E+009;1.694439500570297E-001;-3.934054821729660E-002;-1.648416277021170E-003;6.880108849145472E-004;
2.413166666666667E+009;1.697443574666977E-001;-4.100202023983002E-002;-1.371677499264479E-003;6.677634664811194E-004;
2.413333333333334E+009;1.701855361461639E-001;-4.286158457398415E-002;-1.473790733143687E-003;7.125224219635129E-004;
2.413500000000000E+009;1.707130223512650E-001;-4.445688799023628E-002;-1.630204380489886E-003;8.303368813358247E-004;
2.413666666666667E+009;1.712156385183334E-001;-4.619379341602325E-002;-1.376769971102476E-003;7.812182884663343E-004;
2.413833333333334E+009;1.717414706945419E-001;-4.761304333806038E-002;-1.368776313029230E-003;8.580621215514839E-004;
2.414000000000000E+009;1.720672100782394E-001;-4.901826009154320E-002;-1.382437185384333E-003;9.725596173666418E-004;
2.414166666666667E+009;1.727497130632401E-001;-5.037601664662361E-002;-1.455187797546387E-003;8.237825240939856E-004;
2.414333333333334E+009;1.734547019004822E-001;-5.164591223001480E-002;-1.365823787637055E-003;8.944611181505024E-004;
2.414500000000000E+009;1.740356832742691E-001;-5.294173583388329E-002;-1.275725429877639E-003;1.040807343088090E-003;
2.414666666666667E+009;1.744549721479416E-001;-5.376663804054260E-002;-1.231137779541314E-003;1.021215459331870E-003;
2.414833333333334E+009;1.748237758874893E-001;-5.502990260720253E-002;-1.383358612656593E-003;1.204982982017100E-003;
2.415000000000000E+009;1.753684878349304E-001;-5.581364780664444E-002;-1.311776693910360E-003;1.252453890629113E-003;
2.415166666666667E+009;1.759161055088043E-001;-5.664219334721565E-002;-1.264191814698279E-003;1.335777109488845E-003;
2.415333333333334E+009;1.763018965721130E-001;-5.758708342909813E-002;-1.198336249217391E-003;1.206229091621935E-003;
2.415500000000000E+009;1.765869557857513E-001;-5.808147415518761E-002;-1.213009469211102E-003;1.351994578726590E-003;
2.415666666666667E+009;1.769077330827713E-001;-5.862923711538315E-002;-1.180771738290787E-003;1.444106223061681E-003;
2.415833333333334E+009;1.771283745765686E-001;-5.922565981745720E-002;-1.082844799384475E-003;1.364027033559978E-003;
2.416000000000000E+009;1.771712601184845E-001;-5.966131389141083E-002;-8.542740251868963E-004;1.431000884622335E-003;
2.416166666666667E+009;1.775304526090622E-001;-5.998171120882034E-002;-1.052045961841941E-003;1.639154856093228E-003;
2.416333333333334E+009;1.774386018514633E-001;-6.036921963095665E-002;-1.088819466531277E-003;1.586879021488130E-003;
2.416500000000000E+009;1.773466914892197E-001;-6.071788817644119E-002;-1.082581002265215E-003;1.547777559608221E-003;
2.416666666666667E+009;1.770765334367752E-001;-6.096917018294334E-002;-1.066282973624766E-003;1.636895816773176E-003;
2.416833333333334E+009;1.770171225070953E-001;-6.127605214715004E-002;-9.292967733927071E-004;1.513382303528488E-003;
2.417000000000000E+009;1.765431612730026E-001;-6.150953844189644E-002;-8.834291365928948E-004;1.646218239329755E-003;
2.417166666666667E+009;1.761107742786408E-001;-6.162221729755402E-002;-8.505175355821848E-004;1.665160991251469E-003;
2.417333333333334E+009;1.757204234600067E-001;-6.173662468791008E-002;-9.557175799272955E-004;1.678136875852943E-003;
2.417500000000000E+009;1.750159114599228E-001;-6.210835278034210E-002;-7.060297066345811E-004;1.683040172792971E-003;
2.417666666666667E+009;1.744691580533981E-001;-6.221858784556389E-002;-6.836357642896473E-004;1.645042328163981E-003;
2.417833333333334E+009;1.737952977418900E-001;-6.249827891588211E-002;-6.926538771949709E-004;1.804179628379643E-003;
2.418000000000000E+009;1.728671938180924E-001;-6.303082406520844E-002;-6.137355812825263E-004;1.856405986472964E-003;
2.418166666666667E+009;1.719668209552765E-001;-6.301320344209671E-002;-7.210616022348404E-004;1.816810341551900E-003;
2.418333333333334E+009;1.712768822908402E-001;-6.337884068489075E-002;-6.564299110323191E-004;1.883648918010294E-003;
2.418500000000000E+009;1.701931506395340E-001;-6.378426402807236E-002;-4.234423104207963E-004;1.862166333012283E-003;
2.418666666666667E+009;1.690787822008133E-001;-6.416393816471100E-002;-4.787095240317285E-004;1.879466464743018E-003;
2.418833333333334E+009;1.678583920001984E-001;-6.470888853073120E-002;-4.253491060808301E-004;1.848708023317158E-003;
2.419000000000000E+009;1.666406989097595E-001;-6.539003551006317E-002;-4.188792372588068E-004;1.970949349924922E-003;
2.419166666666667E+009;1.655021905899048E-001;-6.595954298973084E-002;-3.646791737992317E-004;1.856505754403770E-003;
2.419333333333334E+009;1.642354130744934E-001;-6.645664572715759E-002;-3.261871170252562E-004;1.909059239551425E-003;
2.419500000000000E+009;1.630915254354477E-001;-6.749507039785385E-002;-2.531156642362475E-004;1.736499019898474E-003;
2.419666666666667E+009;1.620170772075653E-001;-6.828249245882034E-002;-1.430552947567776E-004;1.989255193620920E-003;
2.419833333333334E+009;1.607176363468170E-001;-6.899759918451309E-002;-1.286372134927660E-004;1.914995955303311E-003;
2.420000000000000E+009;1.597144752740860E-001;-7.014507800340653E-002;-1.108859578380361E-004;1.982887275516987E-003;
2.420166666666667E+009;1.586056053638458E-001;-7.127031683921814E-002;-5.108198365633143E-006;1.984484493732452E-003;
2.420333333333334E+009;1.574118137359619E-001;-7.246021926403046E-002;1.360603710054420E-005;1.891553518362343E-003;
2.420500000000000E+009;1.565230041742325E-001;-7.348854094743729E-002;-2.592971213744022E-005;1.905670622363687E-003;
2.420666666666667E+009;1.555437445640564E-001;-7.477927953004837E-002;5.822588718729094E-005;1.840182696469128E-003;
2.420833333333334E+009;1.546435058116913E-001;-7.635546475648880E-002;2.394294424448162E-004;1.953968778252602E-003;
2.421000000000000E+009;1.535929292440414E-001;-7.760047167539597E-002;1.414566650055349E-004;1.887484802864492E-003;
2.421166666666667E+009;1.527594327926636E-001;-7.914894074201584E-002;2.181356539949775E-004;1.895527006126940E-003;
2.421333333333334E+009;1.522412747144699E-001;-8.074204623699188E-002;3.641322837211192E-004;1.918394817039371E-003;
2.421500000000000E+009;1.513103544712067E-001;-8.235967159271240E-002;3.279865486547351E-004;1.800402766093612E-003;
2.421666666666667E+009;1.509285420179367E-001;-8.383776247501373E-002;3.663855313789100E-004;1.945715746842325E-003;
2.421833333333334E+009;1.507230699062347E-001;-8.567094802856445E-002;3.285987186245620E-004;1.923565985634923E-003;
2.422000000000000E+009;1.498371511697769E-001;-8.717871457338333E-002;3.936630382668227E-004;1.787536661140621E-003;
2.422166666666667E+009;1.497491598129273E-001;-8.906549215316773E-002;5.887508741579950E-004;1.866235281340778E-003;
2.422333333333334E+009;1.495802402496338E-001;-9.060309827327728E-002;4.366828652564436E-004;1.918469555675983E-003;
2.422500000000000E+009;1.493633389472961E-001;-9.223579615354538E-002;5.595163092948496E-004;1.845826860517263E-003;
2.422666666666667E+009;1.492591053247452E-001;-9.396986663341522E-002;6.179460324347019E-004;1.865907805040479E-003;
2.422833333333334E+009;1.494638174772263E-001;-9.584803134202957E-002;6.712283939123154E-004;1.656072796322405E-003;
2.423000000000000E+009;1.494664996862412E-001;-9.749979525804520E-002;6.328685558401048E-004;1.825676066800952E-003;
2.423166666666667E+009;1.495886594057083E-001;-9.911853075027466E-002;7.320156437344849E-004;1.849658670835197E-003;
2.423333333333334E+009;1.500645726919174E-001;-1.005470156669617E-001;7.259362610056996E-004;1.783514628186822E-003;
2.423500000000000E+009;1.503332406282425E-001;-1.022602841258049E-001;8.246130892075598E-004;1.877047936432064E-003;
2.423666666666667E+009;1.504510343074799E-001;-1.039953082799912E-001;8.300584158860147E-004;1.710854703560472E-003;
2.423833333333334E+009;1.509578377008438E-001;-1.050938069820404E-001;8.074780926108360E-004;1.832520356401801E-003;
2.424000000000000E+009;1.511889249086380E-001;-1.065698489546776E-001;9.150333353318274E-004;1.875952933914959E-003;
2.424166666666667E+009;1.516820043325424E-001;-1.078202128410339E-001;9.566309163346887E-004;1.981573179364204E-003;
2.424333333333334E+009;1.522340029478073E-001;-1.091423481702805E-001;1.182435196824372E-003;1.846465165726841E-003;
2.424500000000000E+009;1.525509655475617E-001;-1.101959571242333E-001;1.083838753402233E-003;1.710037700831890E-003;
2.424666666666667E+009;1.531845778226852E-001;-1.113105192780495E-001;1.176427700556815E-003;1.751421368680894E-003;
2.424833333333334E+009;1.535664498806000E-001;-1.125618442893028E-001;1.180990715511143E-003;1.807382213883102E-003;
2.425000000000000E+009;1.541021019220352E-001;-1.133163049817085E-001;1.324857817962766E-003;1.858567818999291E-003;
2.425166666666667E+009;1.544411629438400E-001;-1.142613142728806E-001;1.301281154155731E-003;1.794589450582862E-003;
2.425333333333334E+009;1.549191027879715E-001;-1.150028780102730E-001;1.490101218223572E-003;1.840573851950467E-003;
2.425500000000000E+009;1.554110348224640E-001;-1.157911345362663E-001;1.547334133647382E-003;1.860569696873426E-003;
2.425666666666667E+009;1.555580943822861E-001;-1.164384633302689E-001;1.465875422582030E-003;1.769713824614883E-003;
2.425833333333334E+009;1.559352278709412E-001;-1.169055253267288E-001;1.614119741134346E-003;1.852316781878471E-003;
2.426000000000000E+009;1.561309248209000E-001;-1.175758093595505E-001;1.612972933799028E-003;1.740390434861183E-003;
2.426166666666667E+009;1.563860774040222E-001;-1.179658770561218E-001;1.714263926260173E-003;1.565998420119286E-003;
2.426333333333334E+009;1.563602685928345E-001;-1.182141900062561E-001;1.930015161633492E-003;1.643857802264392E-003;
2.426500000000000E+009;1.564332544803619E-001;-1.185004487633705E-001;2.010332886129618E-003;1.480382052250207E-003;
2.426666666666667E+009;1.565177291631699E-001;-1.186865493655205E-001;1.997056417167187E-003;1.375381718389690E-003;
2.426833333333334E+009;1.562713682651520E-001;-1.189359948039055E-001;2.010012511163950E-003;1.444046967662871E-003;
2.427000000000000E+009;1.560099422931671E-001;-1.192107498645783E-001;2.195478882640600E-003;1.472820062190294E-003;
2.427166666666667E+009;1.556641310453415E-001;-1.192099899053574E-001;2.219496760517359E-003;1.335504348389804E-003;
2.427333333333334E+009;1.550737917423248E-001;-1.193589270114899E-001;2.202314790338278E-003;1.261279452592135E-003;
2.427500000000000E+009;1.546682268381119E-001;-1.194967254996300E-001;2.239006804302335E-003;1.205069711431861E-003;
2.427666666666667E+009;1.540366262197495E-001;-1.196911409497261E-001;2.192217856645584E-003;1.245659659616649E-003;
