# Hz S RI R 50
2400000000.0000000000 0.157465368509292602539062500000 0.111713573336601298957582173443 0.003905233228579163985011435400 -0.001940682413987814946415566553 0 0 0 0 
2400166666.6666665077 0.156786561012268094161825615629 0.109511569142341599891743442186 0.004142326768487691879272460938 -0.002479161368682980971095419775 0 0 0 0 
2400333333.3333334923 0.156608015298843411544638115629 0.107567287981510203986879048443 0.004090749658644199371337890625 -0.001870659296400845050811767578 0 0 0 0 
2400500000.0000000000 0.156172275543212890625000000000 0.104965016245841993858256557814 0.003632302861660718917846679688 -0.002630768343806266784667968750 0 0 0 0 
2400666666.6666665077 0.155832290649414090255575615629 0.102478630840778406341229356258 0.003397936001420021057128906250 -0.002896553138270974159240722656 0 0 0 0 
2400833333.3333334923 0.155444383621215792556924384371 0.099730439484119415283203125000 0.003231206210330129103419638525 -0.003108735661953688101527548682 0 0 0 0 
2401000000.0000000000 0.155310943722724886795205634371 0.097068555653095245361328125000 0.002851392142474650902989052881 -0.003289591521024703979492187500 0 0 0 0 
2401166666.6666665077 0.154906377196312006194744981258 0.094083227217197418212890625000 0.002705143298953772024867392432 -0.003533043665811419920680380713 0 0 0 0 
2401333333.3333334923 0.154846176505088806152343750000 0.091193161904811859130859375000 0.002370047848671675162074423682 -0.003490437753498553796055459131 0 0 0 0 
2401500000.0000000000 0.154958233237266512771768134371 0.088144801557064056396484375000 0.002156399423256516890284872900 -0.003503389889374374909641884912 0 0 0 0 
2401666666.6666665077 0.155049905180931091308593750000 0.085137970745563507080078125000 0.001756791374646127007128071362 -0.003598824376240373091456747900 0 0 0 0 
2401833333.3333334923 0.155022874474525507171307481258 0.082220122218132019042968750000 0.001614617765881120941759419019 -0.003600519150495529174804687500 0 0 0 0 
2402000000.0000000000 0.155615314841270502288494981258 0.079230464994907379150390625000 0.001682744943536818027496337891 -0.003521290607750415802001953125 0 0 0 0 
2402166666.6666665077 0.156200721859932001311932481258 0.076586335897445678710937500000 0.001354468287900090000749897534 -0.003345915116369723840000771631 0 0 0 0 
2402333333.3333334923 0.156886264681816101074218750000 0.073312759399414062500000000000 0.001256282557733356952667236328 -0.003472492564469575881958007812 0 0 0 0 
2402500000.0000000000 0.157638058066368103027343750000 0.070505790412425994873046875000 0.001034780289046465916874550928 -0.003542952239513397216796875000 0 0 0 0 
2402666666.6666665077 0.158614650368690490722656250000 0.068080186843872070312500000000 0.000758874637540429830551147461 -0.003319497918710113005397177588 0 0 0 0 
2402833333.3333334923 0.159576445817947387695312500000 0.065339073538780212402343750000 0.000909532071091234683990478516 -0.003402891103178263144252158057 0 0 0 0 
2403000000.0000000000 0.161068290472030611892861884371 0.062527626752853393554687500000 0.000655652082059532403945922852 -0.003392310114577413038966513525 0 0 0 0 
2403166666.6666665077 0.162852957844734191894531250000 0.060077611356973648071289062500 0.000696982315275818109512329102 -0.003314426168799399895908974756 0 0 0 0 
2403333333.3333334923 0.164118006825447110275106865629 0.057530365884304046630859375000 0.000584542634896934032440185547 -0.003264051163569093184230185400 0 0 0 0 
2403500000.0000000000 0.165669754147529602050781250000 0.055057477205991751934011091407 0.000495641783345490694046020508 -0.003129059448838233947753906250 0 0 0 0 
2403666666.6666665077 0.167430937290191705901776231258 0.052744369953870773315429687500 0.000569538970012217760086059570 -0.003263348946347833113429404150 0 0 0 0 
2403833333.3333334923 0.169212177395820589920205634371 0.050570003688335418701171875000 0.000461380172055214589268284930 -0.003189350711181759834289550781 0 0 0 0 
2404000000.0000000000 0.170915603637695312500000000000 0.048403479158878333354909528907 0.000389792345231398885876256122 -0.003268975066021084785461425781 0 0 0 0 
2404166666.6666665077 0.172714695334434509277343750000 0.046606153249740600585937500000 0.000306728732539340907901209698 -0.003318466013297439055201865088 0 0 0 0 
2404333333.3333334923 0.174419954419136102874432481258 0.044693265110254287719726562500 0.000107167063106317100211820059 -0.003183998866006731986999511719 0 0 0 0 
2404500000.0000000000 0.176159620285034207443075615629 0.042971137911081307148020158593 0.000083296843513380736112594604 -0.003319191513583064079284667969 0 0 0 0 
2404666666.6666665077 0.178139150142669705489950615629 0.041549932211637496948242187500 0.000004001878551207482814788818 -0.003412644146010280089137411963 0 0 0 0 
2404833333.3333334923 0.179891958832740811446981865629 0.040164768695831298828125000000 -0.000234950217418372603967943735 -0.003396332962438464164733886719 0 0 0 0 
2405000000.0000000000 0.181596040725708007812500000000 0.039273943752050399780273437500 -0.000310971721773967201083582745 -0.003290833206847310066223144531 0 0 0 0 
2405166666.6666665077 0.183381289243698092361611884371 0.038415085524320602416992187500 -0.000445711280917748808860778809 -0.003226029220968484878540039062 0 0 0 0 
2405333333.3333334923 0.185002610087394686599893134371 0.037663314491510391235351562500 -0.000518267974257469177246093750 -0.003303680336102842850926064600 0 0 0 0 
2405500000.0000000000 0.186874240636825589279013115629 0.037044815719127661968190778907 -0.000713244429789483547210693359 -0.003460412379354238943812704932 0 0 0 0 
2405666666.6666665077 0.188292428851127596756143134371 0.036568149924278259277343750000 -0.000790777150541543960571289062 -0.003227194072678685188293457031 0 0 0 0 
2405833333.3333334923 0.189845174551010104080361884371 0.036131069064140319824218750000 -0.000963217869866639375686645508 -0.003239207668229937987086630713 0 0 0 0 
2406000000.0000000000 0.191314220428466796875000000000 0.035903435200452811504323591407 -0.001052894280292093970655131763 -0.003227283712476491928100585938 0 0 0 0 
2406166666.6666665077 0.192661926150321988204794365629 0.035699568688869483257253278907 -0.001209796173498034910914755713 -0.003141263267025351958033896338 0 0 0 0 
2406333333.3333334923 0.193943202495575006683026231258 0.035812061280012130737304687500 -0.001394822844304143948795937646 -0.003000451484695076942443847656 0 0 0 0 
2406500000.0000000000 0.195098966360092190841513115629 0.035918373614549636840820312500 -0.001452910830266773917554545825 -0.002871898002922534942626953125 0 0 0 0 
2406666666.6666665077 0.196122363209724398513955634371 0.036053985357284552837331403907 -0.001332501531578599972965859521 -0.002872892189770936965942382812 0 0 0 0 
2406833333.3333334923 0.196944773197174100021200615629 0.036109562963247299194335937500 -0.001536346040666102929356240381 -0.002690461231395601792576455225 0 0 0 0 
2407000000.0000000000 0.197629198431968688964843750000 0.036472275853157043457031250000 -0.001581157208420336029650044019 -0.002562969690188765959498740088 0 0 0 0 
2407166666.6666665077 0.198486953973770113845986884371 0.036612730473279953002929687500 -0.001609099213965236923815083081 -0.002524084877222775979282998193 0 0 0 0 
2407333333.3333334923 0.198695823550224304199218750000 0.037048604339361190795898437500 -0.001742270309478044943568564307 -0.002445096615701913833618164062 0 0 0 0 
2407500000.0000000000 0.199019968509674100021200615629 0.037329044193029396747629533593 -0.001824232633225620009778666919 -0.002505742246285080909729003906 0 0 0 0 
2407666666.6666665077 0.199309960007667513748330634371 0.037556584924459457397460937500 -0.001730774412862956957576132666 -0.002366714412346481843235634912 0 0 0 0 
2407833333.3333334923 0.199056074023246792892294365629 0.037821430712938308715820312500 -0.001779133453965187072753906250 -0.002293122466653585000279091943 0 0 0 0 
2408000000.0000000000 0.199327543377876309493856865629 0.037919178605079650878906250000 -0.001722605084069072983385395581 -0.002348942682147026062011718750 0 0 0 0 
2408166666.6666665077 0.198981687426567105392294365629 0.038120023906230933452565778907 -0.001885229721665381951573037256 -0.002303441520780324935913085938 0 0 0 0 
2408333333.3333334923 0.198691308498382596114950615629 0.037981372326612472534179687500 -0.002023721579462289810180664062 -0.002127334475517272949218750000 0 0 0 0 
2408500000.0000000000 0.198075324296951293945312500000 0.038015995174646377563476562500 -0.001973525620996952056884765625 -0.002052633324638009071350097656 0 0 0 0 
2408666666.6666665077 0.197497844696044894119424384371 0.038025360554456710815429687500 -0.001913606189191340966465615381 -0.002210353966802359061000204932 0 0 0 0 
2408833333.3333334923 0.196811720728874206542968750000 0.037626769393682479858398437500 -0.001941827591508626937866210938 -0.001892694155685604052302695166 0 0 0 0 
2409000000.0000000000 0.195856004953384399414062500000 0.037157475948333740234375000000 -0.002029024297371507124659872900 -0.002147334394976497130153036963 0 0 0 0 
2409166666.6666665077 0.194979771971702603439169365629 0.036533456295728676532785783593 -0.002107897540554403825047158350 -0.001929027610458434061763144385 0 0 0 0 
2409333333.3333334923 0.194049447774887112716513115629 0.036053497344255447387695312500 -0.002028367482125759124755859375 -0.001951404614374041990992880713 0 0 0 0 
2409500000.0000000000 0.192822366952896090408486884371 0.035214964300394058227539062500 -0.002028647111728786988499306787 -0.001836700481362641074536967700 0 0 0 0 
2409666666.6666665077 0.191629484295845003982705634371 0.034092430025339126586914062500 -0.002083662664517759843113564600 -0.001747665344737469933153461987 0 0 0 0 
2409833333.3333334923 0.190470427274704007247763115629 0.032981093972921371459960937500 -0.002003606408834456963780068506 -0.001777640078216790936113667065 0 0 0 0 
2410000000.0000000000 0.189347475767135592361611884371 0.031611762940883643413503278907 -0.002016884973272680802586220850 -0.001743234810419381098506308447 0 0 0 0 
2410166666.6666665077 0.188187703490257290939169365629 0.030062533915042880666712576954 -0.002121453173458576202392578125 -0.001867261715233325958251953125 0 0 0 0 
2410333333.3333334923 0.186991974711418207366619981258 0.028645610436797138559361641796 -0.002247012220323085784912109375 -0.001946461852639913992640829932 0 0 0 0 
2410500000.0000000000 0.185713812708854703048544365629 0.026973361149430278432825858204 -0.002242117421701550917384482275 -0.001885999459773302078247070312 0 0 0 0 
2410666666.6666665077 0.184605479240417508224325615629 0.024787064641714099538782889454 -0.002397535135969520048854208838 -0.001769750029779971079585410010 0 0 0 0 
2410833333.3333334923 0.183544397354126004318075615629 0.022841859608888629568079764454 -0.002575506689026951789855957031 -0.001848982414230704090715717847 0 0 0 0 
2411000000.0000000000 0.182558029890060397049111884371 0.020833399146795269357701485546 -0.002610997529700398011448525537 -0.001799173536710440895677876050 0 0 0 0 
2411166666.6666665077 0.181493222713470486739950615629 0.018817840144038200378417968750 -0.002725582104176282882690429688 -0.001691354205831884904148720850 0 0 0 0 
2411333333.3333334923 0.180772796273231506347656250000 0.016208639368414878845214843750 -0.002918001264333724975585937500 -0.001765248831361531994463276440 0 0 0 0 
2411500000.0000000000 0.179955229163169888595419365629 0.014020185917615890502929687500 -0.002995407907292246818542480469 -0.001463541528210043907165527344 0 0 0 0 
2411666666.6666665077 0.179464936256408691406250000000 0.011616600677371030289619646680 -0.002865963615477085113525390625 -0.001256710616871715025660849463 0 0 0 0 
2411833333.3333334923 0.178753256797790499588174384371 0.009177924133837223052978515625 -0.002964266110211610794067382812 -0.001240399782545865015742636572 0 0 0 0 
2412000000.0000000000 0.178540959954261807540731865629 0.006435484159737825393676757812 -0.003086756914854050116298056494 -0.001266044098883867046953510815 0 0 0 0 
2412166666.6666665077 0.178240120410919189453125000000 0.003895069472491741180419921875 -0.003049570135772227807285927881 -0.001183098880574106953264545972 0 0 0 0 
2412333333.3333334923 0.178238451480865506271200615629 0.001256449962966144084930419922 -0.003265932202339171929600381006 -0.000955427647568285465240478516 0 0 0 0 
2412500000.0000000000 0.178713083267211886306924384371 -0.001424350193701684908625937354 -0.003248233348131179809570312500 -0.000762038573157042264938354492 0 0 0 0 
2412666666.6666665077 0.178746238350868197342080634371 -0.004204016178846359252929687500 -0.003207143628969788985011435400 -0.000701082579325884580612182617 0 0 0 0 
2412833333.3333334923 0.179114401340484591385049384371 -0.006778198294341564178466796875 -0.003235485404729843139648437500 -0.000397543917642906308174133301 0 0 0 0 
2413000000.0000000000 0.179790437221527099609375000000 -0.009297753684222698211669921875 -0.003278180956840515136718750000 -0.000459637521998956799507141113 0 0 0 0 
2413166666.6666665077 0.180448487401008605957031250000 -0.011906247586011890066126639454 -0.003240072401240468025207519531 -0.000166150479344651103019714355 0 0 0 0 
2413333333.3333334923 0.181404367089271600921307481258 -0.014710426330566409719446951954 -0.003516882425174117088317871094 -0.000214807136217132210731506348 0 0 0 0 
2413500000.0000000000 0.182030752301216097732705634371 -0.017218369990587231027623360546 -0.003296942682936788038966513525 -0.000089463101176079362630844116 0 0 0 0 
2413666666.6666665077 0.183217763900756808181924384371 -0.019637146964669231069544608204 -0.003436314873397349877598427881 0.000086503881902899593114852905 0 0 0 0 
2413833333.3333334923 0.184322789311408996582031250000 -0.021989457309246059762974923046 -0.003286795923486351966857910156 0.000120209573651663999683918138 0 0 0 0 
2414000000.0000000000 0.185332313179969787597656250000 -0.024335831403732299804687500000 -0.003233480034396051926853798975 0.000281616463325917720794677734 0 0 0 0 
2414166666.6666665077 0.186645433306694003006143134371 -0.026462420821189880371093750000 -0.003248340915888547897338867188 0.000479667360195890123217982159 0 0 0 0 
2414333333.3333334923 0.187756448984146090408486884371 -0.028900148347020149230957031250 -0.003221201011911035017726279150 0.000565377355087548494338989258 0 0 0 0 
2414500000.0000000000 0.189097762107849093338174384371 -0.030499543994665149343470389454 -0.003216334385797380967381142725 0.000684550323057919740676879883 0 0 0 0 
2414666666.6666665077 0.190337955951690701583700615629 -0.032446816563606262207031250000 -0.003117042127996683120727539062 0.000959231867454946041107177734 0 0 0 0 
2414833333.3333334923 0.191586747765541104415731865629 -0.034049432724714279174804687500 -0.003113943850621581077575683594 0.000932842376641929149627685547 0 0 0 0 
2415000000.0000000000 0.192983135581016512771768134371 -0.035767201334238052368164062500 -0.002996064024046062989475869287 0.001024662749841809055925678784 0 0 0 0 
2415166666.6666665077 0.194317221641540499588174384371 -0.037070922553539283061940778907 -0.002904025372117757797241210938 0.000937372911721467971801757812 0 0 0 0 
2415333333.3333334923 0.195672541856765802581463731258 -0.038221448659896850585937500000 -0.002967356471344829039332724463 0.001125997048802674033521342700 0 0 0 0 
2415500000.0000000000 0.197031229734420804122763115629 -0.039252493530511863017995466407 -0.003009328152984381155726767432 0.001180641469545661969425820459 0 0 0 0 
2415666666.6666665077 0.198385566473007202148437500000 -0.040393665432929992675781250000 -0.002967796754091978073120117188 0.001189014525152743079541850513 0 0 0 0 
2415833333.3333334923 0.199591383337974603850994981258 -0.041111461818218231201171875000 -0.003003136022016406059265136719 0.001442328211851418018341064453 0 0 0 0 
2416000000.0000000000 0.200622394680976895431356865629 -0.041915729641914367675781250000 -0.002743561519309877915623330225 0.001725418609566986994502402197 0 0 0 0 
2416166666.6666665077 0.201618313789367703536825615629 -0.042627394199371337890625000000 -0.002851972356438637213466025244 0.001633404521271585984470986475 0 0 0 0 
2416333333.3333334923 0.202646329998970003982705634371 -0.042998775839805603027343750000 -0.002706000814214348793029785156 0.001773028285242616913439106519 0 0 0 0 
2416500000.0000000000 0.203464627265930203536825615629 -0.043434783816337592388112653907 -0.002579321153461933135986328125 0.001961134141311049895045615088 0 0 0 0 
2416666666.6666665077 0.204157009720802307128906250000 -0.043686829507350921630859375000 -0.002406959189102054075953818213 0.001953391823917626900913857568 0 0 0 0 
2416833333.3333334923 0.204679951071739196777343750000 -0.043927010148763656616210937500 -0.002286421600729227066040039062 0.002277909778058528900146484375 0 0 0 0 
2417000000.0000000000 0.205052778124809292892294365629 -0.043982196599245071411132812500 -0.002139271935448050932643271338 0.002233740175142883820774697412 0 0 0 0 
2417166666.6666665077 0.205152809619903592208700615629 -0.043820496648550026630442033593 -0.002062513260170816941502236475 0.002249235520139337019679404150 0 0 0 0 
2417333333.3333334923 0.205305501818656893631143134371 -0.043585669249296188354492187500 -0.001918800408020616011378622900 0.002284361748024820847752236475 0 0 0 0 
2417500000.0000000000 0.205289512872695895095986884371 -0.043557532131671912456472028907 -0.001663448289036751010297465747 0.002255319152027368979213095557 0 0 0 0 
2417666666.6666665077 0.205064252018928500076455634371 -0.043168496340513229370117187500 -0.001533596310764550945879292065 0.002037223428487778143641806494 0 0 0 0 
2417833333.3333334923 0.204907700419425992111044365629 -0.042879398912191390991210937500 -0.001464208238758146979688334888 0.002226564101874827904942177881 0 0 0 0 
2418000000.0000000000 0.204605847597122192382812500000 -0.042325995862483978271484375000 -0.001497897668741642995121621240 0.002098206197842956022975302588 0 0 0 0 
2418166666.6666665077 0.203945979475975008865518134371 -0.042065329849720001220703125000 -0.001468259841203690008876181494 0.002089920220896602110621786963 0 0 0 0 
2418333333.3333334923 0.203228726983070401290731865629 -0.041724752634763717651367187500 -0.001578387920744716904283833081 0.001897137961350380940678261865 0 0 0 0 
2418500000.0000000000 0.202362895011901910979901231258 -0.041557252407073981548268903907 -0.001651942613534628911259316553 0.001990624470636249022242880713 0 0 0 0 
2418666666.6666665077 0.201693370938301086425781250000 -0.040972627699375152587890625000 -0.001592712826095522100564028101 0.001968707423657178878784179688 0 0 0 0 
2418833333.3333334923 0.200543984770774813553018134371 -0.040918894112110137939453125000 -0.001681615831330419020411826025 0.002049148082733153863194131006 0 0 0 0 
2419000000.0000000000 0.199281468987464904785156250000 -0.040786091238260269165039062500 -0.001704767695628107027766562354 0.002172091975808144049403525244 0 0 0 0 
2419166666.6666665077 0.198097571730613708496093750000 -0.040915992110967643047292341407 -0.001665679970756172917009663159 0.002256911946460605101344443213 0 0 0 0 
2419333333.3333334923 0.196597829461097689529580634371 -0.041138231754302978515625000000 -0.001610343111678957939147949219 0.002389186294749379158020019531 0 0 0 0 
2419500000.0000000000 0.195275723934173611739950615629 -0.041171118617057800292968750000 -0.001634346321225166103960346753 0.002623485401272774176356650244 0 0 0 0 
2419666666.6666665077 0.193509727716445895095986884371 -0.041693627834320068359375000000 -0.001569973188452423052546835791 0.002694407943636178970336914062 0 0 0 0 
2419833333.3333334923 0.191766455769538907150106865629 -0.042030144482851028442382812500 -0.001272723544389009909388876807 0.002767113503068685965297079932 0 0 0 0 
