# Version 1.00
#
freq[Hz];re:Trc1_S11;im:Trc1_S11;re:Trc2_S21;im:Trc2_S21;
2.400000000000000E+009;1.551558524370194E-001;1.064643561840057E-001;4.418604075908661E-004;-4.941719118505716E-003;
2.400166666666667E+009;1.548908054828644E-001;1.039225384593010E-001;2.719619951676577E-004;-4.910520277917385E-003;
2.400333333333334E+009;1.548162996768951E-001;1.017081886529923E-001;3.466572379693389E-004;-4.857194144278765E-003;
2.400500000000000E+009;1.551593393087387E-001;9.923379868268967E-002;5.168478237465024E-004;-5.318244919180870E-003;
2.400666666666667E+009;1.548045277595520E-001;9.659527242183685E-002;4.056456091348082E-004;-4.241265356540680E-003;
2.400833333333334E+009;1.551698446273804E-001;9.383317828178406E-002;-2.130497450707480E-004;-4.879196174442768E-003;
2.401000000000000E+009;1.553019136190414E-001;9.113899618387222E-002;2.375555777689442E-004;-4.710942506790161E-003;
2.401166666666667E+009;1.553390622138977E-001;8.817152678966522E-002;2.945499145425856E-004;-4.674820695072413E-003;
2.401333333333334E+009;1.557486802339554E-001;8.545235544443131E-002;2.947289613075554E-004;-4.552176222205162E-003;
2.401500000000000E+009;1.565697044134140E-001;8.288691937923431E-002;4.148303123656660E-004;-5.484901834279299E-003;
2.401666666666667E+009;1.568006575107575E-001;7.967375218868256E-002;-2.305999441887252E-005;-4.846866708248854E-003;
2.401833333333334E+009;1.573422998189926E-001;7.737268507480621E-002;6.835270323790610E-004;-5.316324997693300E-003;
2.402000000000000E+009;1.582279950380325E-001;7.467548549175263E-002;4.750362131744623E-004;-4.891681484878063E-003;
2.402166666666667E+009;1.590445190668106E-001;7.190655916929245E-002;-2.474680077284575E-004;-5.267640575766563E-003;
2.402333333333334E+009;1.599222123622894E-001;6.937143206596375E-002;6.440178549382836E-005;-5.445864517241716E-003;
2.402500000000000E+009;1.612480878829956E-001;6.687289476394653E-002;-4.353795084170997E-004;-5.515944212675095E-003;
2.402666666666667E+009;1.622499227523804E-001;6.454905122518539E-002;-3.890670195687562E-004;-4.991856403648853E-003;
2.402833333333334E+009;1.635842919349670E-001;6.220243871212006E-002;-6.776382797397673E-004;-4.956280346959829E-003;
2.403000000000000E+009;1.649466156959534E-001;5.991721153259277E-002;-1.135047990828753E-003;-5.048088729381561E-003;
2.403166666666667E+009;1.667086482048035E-001;5.755522102117539E-002;-1.316437032073736E-003;-4.886744078248739E-003;
2.403333333333334E+009;1.681255251169205E-001;5.547040328383446E-002;-1.410894910804927E-003;-4.774170927703381E-003;
2.403500000000000E+009;1.699861139059067E-001;5.358048155903816E-002;-1.582630211487413E-003;-4.661704413592815E-003;
2.403666666666667E+009;1.717051714658737E-001;5.168850347399712E-002;-1.661021378822625E-003;-4.382051527500153E-003;
2.403833333333334E+009;1.734378635883331E-001;4.974087327718735E-002;-1.760272309184074E-003;-4.383225925266743E-003;
2.404000000000000E+009;1.748848408460617E-001;4.794569313526154E-002;-1.808917848393321E-003;-4.231450147926807E-003;
2.404166666666667E+009;1.767390519380570E-001;4.659697785973549E-002;-1.933463965542615E-003;-4.089583177119494E-003;
2.404333333333334E+009;1.781994104385376E-001;4.504870623350143E-002;-1.860255491919816E-003;-4.125223960727453E-003;
2.404500000000000E+009;1.796757578849793E-001;4.351172596216202E-002;-1.903341268189251E-003;-3.964974544942379E-003;
2.404666666666667E+009;1.814459562301636E-001;4.235468059778214E-002;-1.960256835445762E-003;-3.769651055335999E-003;
2.404833333333334E+009;1.832305341959000E-001;4.133197292685509E-002;-2.025068970397115E-003;-3.823119914159179E-003;
2.405000000000000E+009;1.844587475061417E-001;4.079508408904076E-002;-1.941392896696925E-003;-3.736364655196667E-003;
2.405166666666667E+009;1.858928054571152E-001;3.991932421922684E-002;-2.178313443437219E-003;-3.785009030252695E-003;
2.405333333333334E+009;1.873956620693207E-001;3.945608437061310E-002;-2.102073980495334E-003;-3.762562060728669E-003;
2.405500000000000E+009;1.889094859361649E-001;3.904306888580322E-002;-2.108739921823144E-003;-3.826605156064034E-003;
2.405666666666667E+009;1.898528784513474E-001;3.864943236112595E-002;-2.440914977341890E-003;-3.782969899475575E-003;
2.405833333333334E+009;1.912178993225098E-001;3.828062489628792E-002;-2.479691524058580E-003;-3.686863929033279E-003;
2.406000000000000E+009;1.921645849943161E-001;3.809041157364845E-002;-2.631267532706261E-003;-3.724618814885616E-003;
2.406166666666667E+009;1.931336075067520E-001;3.789774328470230E-002;-2.707362407818437E-003;-3.573039546608925E-003;
2.406333333333334E+009;1.940213143825531E-001;3.786146640777588E-002;-3.003781195729971E-003;-3.423436544835568E-003;
2.406500000000000E+009;1.946725547313690E-001;3.787678852677345E-002;-2.865796908736229E-003;-3.337868023663759E-003;
2.406666666666667E+009;1.951764225959778E-001;3.794526308774948E-002;-2.906254492700100E-003;-3.086183685809374E-003;
2.406833333333334E+009;1.957825869321823E-001;3.781365975737572E-002;-3.055469831451774E-003;-3.059730632230640E-003;
2.407000000000000E+009;1.961173117160797E-001;3.795695677399635E-002;-2.880039857700467E-003;-2.871481236070395E-003;
2.407166666666667E+009;1.963434964418411E-001;3.764151781797409E-002;-2.897355007007718E-003;-2.759187482297421E-003;
2.407333333333334E+009;1.962929069995880E-001;3.776296973228455E-002;-2.999834716320038E-003;-2.714960370212793E-003;
2.407500000000000E+009;1.962361931800842E-001;3.795310482382774E-002;-2.946390537545085E-003;-2.715165494009852E-003;
2.407666666666667E+009;1.961706131696701E-001;3.773974254727364E-002;-3.036884823814035E-003;-2.569947158917785E-003;
2.407833333333334E+009;1.957794129848480E-001;3.758190944790840E-002;-2.986551728099585E-003;-2.523421775549650E-003;
2.408000000000000E+009;1.955995708703995E-001;3.737591207027435E-002;-3.043913980945945E-003;-2.671356080099940E-003;
2.408166666666667E+009;1.950203180313110E-001;3.700834885239601E-002;-3.018637886270881E-003;-2.630245639011264E-003;
2.408333333333334E+009;1.946281045675278E-001;3.647261485457420E-002;-2.988482126966119E-003;-2.337657846510410E-003;
2.408500000000000E+009;1.938166916370392E-001;3.617825731635094E-002;-3.033071057870984E-003;-2.421546028926969E-003;
2.408666666666667E+009;1.932051777839661E-001;3.531119227409363E-002;-3.011812455952168E-003;-2.537022577598691E-003;
2.408833333333334E+009;1.924762576818466E-001;3.458326682448387E-002;-3.159595187753439E-003;-2.409799257293344E-003;
2.409000000000000E+009;1.914392709732056E-001;3.363275900483131E-002;-3.068028483539820E-003;-2.585423644632101E-003;
2.409166666666667E+009;1.904465705156326E-001;3.269334137439728E-002;-3.169679548591375E-003;-2.516832202672958E-003;
2.409333333333334E+009;1.895255893468857E-001;3.168857097625732E-002;-3.232700983062387E-003;-2.344478853046894E-003;
2.409500000000000E+009;1.884168237447739E-001;3.030468896031380E-002;-3.234550124034286E-003;-2.398576587438583E-003;
2.409666666666667E+009;1.875446885824204E-001;2.890049293637276E-002;-3.289676271378994E-003;-2.473882399499416E-003;
2.409833333333334E+009;1.864506900310516E-001;2.736350335180759E-002;-3.375843167304993E-003;-2.472591353580356E-003;
2.410000000000000E+009;1.855121999979019E-001;2.576048113405705E-002;-3.483553184196353E-003;-2.549396362155676E-003;
2.410166666666667E+009;1.844568103551865E-001;2.389785647392273E-002;-3.428496886044741E-003;-2.413794398307800E-003;
2.410333333333334E+009;1.834817826747894E-001;2.217245101928711E-002;-3.618108341470361E-003;-2.444602083414793E-003;
2.410500000000000E+009;1.827618181705475E-001;2.017726190388203E-002;-3.668357152491808E-003;-2.348497509956360E-003;
2.410666666666667E+009;1.815581172704697E-001;1.791140064597130E-002;-3.722662338986993E-003;-2.311687218025327E-003;
2.410833333333334E+009;1.810591220855713E-001;1.598250120878220E-002;-3.990298602730036E-003;-2.204252406954765E-003;
2.411000000000000E+009;1.802771836519241E-001;1.369856018573046E-002;-4.016791470348835E-003;-2.140073571354151E-003;
2.411166666666667E+009;1.795860081911087E-001;1.141135673969984E-002;-4.213517531752586E-003;-2.031508367508650E-003;
2.411333333333334E+009;1.793212592601776E-001;9.030416607856751E-003;-4.285079427063465E-003;-2.008016919717193E-003;
2.411500000000000E+009;1.787388473749161E-001;6.589974742382765E-003;-4.252559505403042E-003;-1.949807046912611E-003;
2.411666666666667E+009;1.785588115453720E-001;4.280237480998039E-003;-4.427730571478605E-003;-1.887100399471819E-003;
2.411833333333334E+009;1.782473772764206E-001;1.890059909783304E-003;-4.406338091939688E-003;-1.738265738822520E-003;
2.412000000000000E+009;1.785592883825302E-001;-7.189308525994420E-004;-4.622596316039562E-003;-1.762945787049830E-003;
2.412166666666667E+009;1.785107105970383E-001;-2.944202395156026E-003;-4.736321978271008E-003;-1.633946434594691E-003;
2.412333333333334E+009;1.787075996398926E-001;-5.341611336916685E-003;-4.900147672742605E-003;-1.650811638683081E-003;
2.412500000000000E+009;1.793564260005951E-001;-7.758892606943846E-003;-4.909775219857693E-003;-1.466513844206929E-003;
2.412666666666667E+009;1.797570735216141E-001;-1.010655704885721E-002;-5.058513488620520E-003;-1.213132985867560E-003;
2.412833333333334E+009;1.803066283464432E-001;-1.247143745422363E-002;-5.194721277803183E-003;-1.101006753742695E-003;
2.413000000000000E+009;1.810812801122665E-001;-1.468650531023741E-002;-5.258040037006140E-003;-7.821304025128484E-004;
2.413166666666667E+009;1.818001866340637E-001;-1.702668145298958E-002;-5.459128879010677E-003;-7.935547619126737E-004;
2.413333333333334E+009;1.827799230813980E-001;-1.922989077866077E-002;-5.646939389407635E-003;-4.993157344870269E-004;
2.413500000000000E+009;1.837537884712219E-001;-2.144009992480278E-002;-5.558343138545752E-003;-3.471317759249359E-004;
2.413666666666667E+009;1.848180443048477E-001;-2.374989353120327E-002;-5.637347698211670E-003;-3.324345743749291E-005;
2.413833333333334E+009;1.860086917877197E-001;-2.556345611810684E-002;-5.728290881961584E-003;4.738849820569158E-004;
2.414000000000000E+009;1.870630979537964E-001;-2.758148126304150E-002;-5.849874578416348E-003;6.018774001859129E-004;
2.414166666666667E+009;1.882328838109970E-001;-2.919127047061920E-002;-5.765913520008326E-003;8.523389697074890E-004;
2.414333333333334E+009;1.894368082284927E-001;-3.120662458240986E-002;-5.638797767460346E-003;1.129652024246752E-003;
2.414500000000000E+009;1.905882954597473E-001;-3.261389583349228E-002;-5.650560837239027E-003;1.469362759962678E-003;
2.414666666666667E+009;1.919101625680924E-001;-3.406420722603798E-002;-5.651886109262705E-003;1.726070768199861E-003;
2.414833333333334E+009;1.930415481328964E-001;-3.546462953090668E-002;-5.378854461014271E-003;1.858898554928601E-003;
2.415000000000000E+009;1.940057277679443E-001;-3.662490472197533E-002;-5.345724988728762E-003;2.120097633451223E-003;
2.415166666666667E+009;1.952045559883118E-001;-3.766407817602158E-002;-5.092857871204615E-003;2.325591165572405E-003;
2.415333333333334E+009;1.963544338941574E-001;-3.852836415171623E-002;-4.984154831618071E-003;2.418245421722531E-003;
2.415500000000000E+009;1.974080204963684E-001;-3.939035907387734E-002;-4.774641245603561E-003;2.762795891612768E-003;
2.415666666666667E+009;1.985397636890411E-001;-4.007421806454659E-002;-4.680224694311619E-003;2.876863814890385E-003;
2.415833333333334E+009;1.992379426956177E-001;-4.070944711565971E-002;-4.500719252973795E-003;3.074426902458072E-003;
2.416000000000000E+009;1.999012827873230E-001;-4.130756482481957E-002;-4.382283892482519E-003;3.308256156742573E-003;
2.416166666666667E+009;2.005413919687271E-001;-4.192179441452026E-002;-4.227744881063700E-003;3.271901048719883E-003;
2.416333333333334E+009;2.012971639633179E-001;-4.199352487921715E-002;-3.959382418543100E-003;3.430002601817250E-003;
2.416500000000000E+009;2.018047273159027E-001;-4.234628379344940E-002;-3.597483271732926E-003;3.565132152289152E-003;
2.416666666666667E+009;2.019367218017578E-001;-4.269885271787643E-002;-3.522709710523486E-003;3.675746032968164E-003;
2.416833333333334E+009;2.021260708570480E-001;-4.270391911268234E-002;-3.230438800528646E-003;3.700169967487454E-003;
2.417000000000000E+009;2.021716833114624E-001;-4.277692735195160E-002;-3.129472024738789E-003;3.738370956853032E-003;
2.417166666666667E+009;2.019143551588059E-001;-4.289027303457260E-002;-2.706631785258651E-003;3.615413559600711E-003;
2.417333333333334E+009;2.016481012105942E-001;-4.265893623232842E-002;-2.611561911180615E-003;3.634616499766707E-003;
2.417500000000000E+009;2.012808322906494E-001;-4.272289946675301E-002;-2.392293419688940E-003;3.615910187363625E-003;
2.417666666666667E+009;2.007256895303726E-001;-4.240824654698372E-002;-2.223737770691514E-003;3.513340139761567E-003;
2.417833333333334E+009;2.004155367612839E-001;-4.232535138726234E-002;-2.102823229506612E-003;3.394424216821790E-003;
2.418000000000000E+009;1.996577680110931E-001;-4.214940592646599E-002;-1.997082261368632E-003;3.332597669214010E-003;
2.418166666666667E+009;1.988329440355301E-001;-4.205461591482163E-002;-2.041880739852786E-003;3.288491861894727E-003;
2.418333333333334E+009;1.979057490825653E-001;-4.190097749233246E-002;-1.828720909543335E-003;3.297077026218176E-003;
2.418500000000000E+009;1.968592852354050E-001;-4.197391495108604E-002;-1.778945792466402E-003;3.050938481464982E-003;
2.418666666666667E+009;1.959348767995834E-001;-4.192888736724854E-002;-1.767894136719406E-003;3.003392135724425E-003;
2.418833333333334E+009;1.945961117744446E-001;-4.214439541101456E-002;-1.816591015085578E-003;3.063565585762262E-003;
2.419000000000000E+009;1.932506561279297E-001;-4.214905947446823E-002;-1.861638273112476E-003;2.995938993990421E-003;
2.419166666666667E+009;1.922109574079514E-001;-4.261396825313568E-002;-1.921037677675486E-003;2.988327061757445E-003;
2.419333333333334E+009;1.906648427248001E-001;-4.305147379636765E-002;-1.793932751752436E-003;2.852272707968950E-003;
2.419500000000000E+009;1.891926229000092E-001;-4.338056594133377E-002;-1.831831643357873E-003;2.821783535182476E-003;
2.419666666666667E+009;1.877325922250748E-001;-4.428735375404358E-002;-2.047177869826555E-003;2.829781034961343E-003;
2.419833333333334E+009;1.859382390975952E-001;-4.507595300674439E-002;-1.979923574253917E-003;2.907152054831386E-003;
2.420000000000000E+009;1.845731586217880E-001;-4.593106359243393E-002;-1.885303761810064E-003;2.783836796879768E-003;
2.420166666666667E+009;1.828255802392960E-001;-4.676827415823937E-002;-2.029495779424906E-003;2.715812763199210E-003;
2.420333333333334E+009;1.814108490943909E-001;-4.809926077723503E-002;-1.952804741449654E-003;2.874346915632486E-003;
2.420500000000000E+009;1.797274202108383E-001;-4.922836273908615E-002;-2.045161556452513E-003;2.919303951784968E-003;
2.420666666666667E+009;1.781298667192459E-001;-5.045587942004204E-002;-2.127726096659899E-003;2.934759482741356E-003;
2.420833333333334E+009;1.764914244413376E-001;-5.185360461473465E-002;-2.269524848088622E-003;2.984245540574193E-003;
2.421000000000000E+009;1.752365529537201E-001;-5.340101569890976E-002;-2.239013789221644E-003;3.256743308156729E-003;
2.421166666666667E+009;1.737564951181412E-001;-5.498221144080162E-002;-2.157725859433413E-003;3.277295501902700E-003;
2.421333333333334E+009;1.723079979419708E-001;-5.663368850946426E-002;-2.345140790566802E-003;3.239081474021077E-003;
2.421500000000000E+009;1.711060106754303E-001;-5.843475461006165E-002;-2.250825054943562E-003;3.502047853544354E-003;
2.421666666666667E+009;1.699125170707703E-001;-6.024191156029701E-002;-2.156379865482450E-003;3.590024076402187E-003;
2.421833333333334E+009;1.687740087509155E-001;-6.210919469594955E-002;-2.377700060606003E-003;3.789401147514582E-003;
2.422000000000000E+009;1.677349358797073E-001;-6.403230130672455E-002;-2.111664740368724E-003;3.890303429216147E-003;
2.422166666666667E+009;1.670029014348984E-001;-6.613768637180328E-002;-2.135659335181117E-003;4.034265875816345E-003;
2.422333333333334E+009;1.659841984510422E-001;-6.798810511827469E-002;-1.913453685119748E-003;4.265711642801762E-003;
2.422500000000000E+009;1.651088893413544E-001;-6.994179636240006E-002;-1.834341092035174E-003;4.336516838520765E-003;
2.422666666666667E+009;1.645399779081345E-001;-7.191955298185349E-002;-1.728353672660887E-003;4.534773528575897E-003;
2.422833333333334E+009;1.640987992286682E-001;-7.413786649703980E-002;-1.648493576794863E-003;4.712670110166073E-003;
2.423000000000000E+009;1.634672880172730E-001;-7.623907923698425E-002;-1.513791386969388E-003;4.728705156594515E-003;
2.423166666666667E+009;1.632966399192810E-001;-7.812006771564484E-002;-1.352139748632908E-003;4.809498321264982E-003;
2.423333333333334E+009;1.630337834358215E-001;-8.015562593936920E-002;-1.210345188155770E-003;4.803613293915987E-003;
2.423500000000000E+009;1.629768311977387E-001;-8.167411386966705E-002;-1.173689612187445E-003;4.960780031979084E-003;
2.423666666666667E+009;1.631167382001877E-001;-8.371415734291077E-002;-1.076047657988966E-003;4.959892481565476E-003;
2.423833333333334E+009;1.629321575164795E-001;-8.530786633491516E-002;-8.959053084254265E-004;5.211888812482357E-003;
2.424000000000000E+009;1.631729602813721E-001;-8.721719682216644E-002;-6.710430025123060E-004;5.166949704289436E-003;
2.424166666666667E+009;1.630929708480835E-001;-8.873258531093597E-002;-5.340947536751628E-004;5.392504390329123E-003;
2.424333333333334E+009;1.634368747472763E-001;-9.019241482019424E-002;-3.539887256920338E-004;5.423242226243019E-003;
2.424500000000000E+009;1.637768596410751E-001;-9.198829531669617E-002;-2.193243708461523E-004;5.609298124909401E-003;
2.424666666666667E+009;1.638559848070145E-001;-9.324038773775101E-002;5.449519449030049E-005;5.700708366930485E-003;
2.424833333333334E+009;1.644837260246277E-001;-9.440883994102478E-002;3.238344215787947E-004;5.681984126567841E-003;
2.425000000000000E+009;1.648161411285400E-001;-9.562931209802628E-002;6.083071348257363E-004;5.857982207089663E-003;
2.425166666666667E+009;1.650293320417404E-001;-9.672557562589645E-002;9.569346439093351E-004;5.735605023801327E-003;
2.425333333333334E+009;1.653803139925003E-001;-9.767037630081177E-002;1.132581848651171E-003;5.798906553536654E-003;
2.425500000000000E+009;1.659235209226608E-001;-9.858823567628861E-002;1.184121123515070E-003;5.738534498959780E-003;
2.425666666666667E+009;1.662982553243637E-001;-9.927558153867722E-002;1.625758246518672E-003;5.664721131324768E-003;
2.425833333333334E+009;1.664308160543442E-001;-1.000887155532837E-001;2.000062959268689E-003;5.581371951848269E-003;
2.426000000000000E+009;1.670018285512924E-001;-1.004355773329735E-001;2.255826955661178E-003;5.569980945438147E-003;
2.426166666666667E+009;1.672752052545548E-001;-1.010010316967964E-001;2.393544185906649E-003;5.310942418873310E-003;
2.426333333333334E+009;1.673716753721237E-001;-1.015539020299912E-001;2.715528942644596E-003;5.227008834481239E-003;
2.426500000000000E+009;1.677433550357819E-001;-1.018245965242386E-001;2.677905140444636E-003;4.950407892465591E-003;
2.426666666666667E+009;1.680281609296799E-001;-1.020106673240662E-001;2.939854748547077E-003;4.894434008747339E-003;
2.426833333333334E+009;1.681359857320786E-001;-1.023606657981873E-001;3.032599575817585E-003;4.774248227477074E-003;
2.427000000000000E+009;1.680803447961807E-001;-1.025622710585594E-001;3.180908039212227E-003;4.472076892852783E-003;
2.427166666666667E+009;1.680748164653778E-001;-1.026368960738182E-001;3.320902818813920E-003;4.409036133438349E-003;
2.427333333333334E+009;1.680573970079422E-001;-1.028973609209061E-001;3.422580892220140E-003;4.258404020220041E-003;
2.427500000000000E+009;1.677922457456589E-001;-1.031361743807793E-001;3.538239048793912E-003;4.013728350400925E-003;
2.427666666666667E+009;1.675102561712265E-001;-1.031575053930283E-001;3.495856421068311E-003;3.713642479851842E-003;
