# Hz S RI R 
2400000000.0000000000 0.168198749423027010818643134371 0.040809456259012222290039062500 0.003514274489134550094604492188 0.000963128812145441770553588867 0 0 0 0 
2400166666.6666665077 0.168688535690307589431924384371 0.040096089243888861919362653907 0.003453870536759496168849326025 0.000977572868578135967254638672 0 0 0 0 
2400333333.3333334923 0.169119387865066500564736884371 0.039141517132520682598073591407 0.003601812059059739112854003906 0.001024700468406080982805561597 0 0 0 0 
2400500000.0000000000 0.169725060462951687911825615629 0.038399886339902877807617187500 0.003651473904028534889221191406 0.000887654605321586132049560547 0 0 0 0 
2400666666.6666665077 0.170034795999527005294638115629 0.037535749375820159912109375000 0.003691962454468011856079101562 0.000604763801675289869308471680 0 0 0 0 
2400833333.3333334923 0.170472204685211209396200615629 0.036675218492746353149414062500 0.003766114125028253035304404150 0.000527201511431485414505004883 0 0 0 0 
2401000000.0000000000 0.170580476522445706466513115629 0.035660617053508758544921875000 0.003612805157899857001063681494 0.000448018778115510886341649188 0 0 0 0 
2401166666.6666665077 0.170754492282867403885049384371 0.034934185445308692241628278907 0.003775744000449777083155966650 0.000309200433548539876937866211 0 0 0 0 
2401333333.3333334923 0.170863047242164611816406250000 0.033958654850721359252929687500 0.003814370604231954054591513525 0.000198352732695639106348314828 0 0 0 0 
2401500000.0000000000 0.171306505799293490310830634371 0.033178765326738357543945312500 0.003771384945139288902282714844 -0.000086557905888184905052185059 0 0 0 0 
2401666666.6666665077 0.171317964792251586914062500000 0.032298367470502853393554687500 0.003990472760051488876342773438 -0.000216229367651976590782719745 0 0 0 0 
2401833333.3333334923 0.171507701277732904632244981258 0.031464904546737670898437500000 0.003789165755733848051783896338 -0.000407448998885229175716954364 0 0 0 0 
2402000000.0000000000 0.171592921018600491622763115629 0.030587755143642429006556326954 0.003904097946360706849339150537 -0.000603176828008145093917846680 0 0 0 0 
2402166666.6666665077 0.171392098069191006759481865629 0.029613189399242401123046875000 0.003892702050507069067714072119 -0.000760875118430703878402709961 0 0 0 0 
2402333333.3333334923 0.171427473425865201095419365629 0.028726521879434589040736014454 0.003772625233978033065795898438 -0.000896954559721052646636962891 0 0 0 0 
2402500000.0000000000 0.171592399477958706954794365629 0.027780173346400260925292968750 0.003792760428041220144984579932 -0.000931116752326488494873046875 0 0 0 0 
2402666666.6666665077 0.171667575836181612869424384371 0.026672862470149990427037423046 0.003903589211404324011561728369 -0.001238936092704534964320517432 0 0 0 0 
2402833333.3333334923 0.171408027410507202148437500000 0.025894820690155029296875000000 0.003846713341772555871250771631 -0.001171344774775207042694091797 0 0 0 0 
2403000000.0000000000 0.171451836824417086502236884371 0.024929821491241458547571951954 0.003656150307506322860717773438 -0.001462869346141814968706440503 0 0 0 0 
2403166666.6666665077 0.171257704496383694747763115629 0.023611515760421749460240548046 0.003665654454380273818969726562 -0.001710721291601658084272075122 0 0 0 0 
2403333333.3333334923 0.171230375766754205901776231258 0.022396704182028770446777343750 0.003502795239910482926609658350 -0.001785705098882317976710654150 0 0 0 0 
2403500000.0000000000 0.171061038970947293380575615629 0.021351506933569911611536795704 0.003433068050071597099304199219 -0.002032443881034851074218750000 0 0 0 0 
2403666666.6666665077 0.170952379703521700760049384371 0.020091017708182338369349295704 0.003330452600494027137756347656 -0.002389816567301750183105468750 0 0 0 0 
2403833333.3333334923 0.170873537659645108321981865629 0.018778804689645770681361014454 0.003195838304236530823948525537 -0.002336937701329588890075683594 0 0 0 0 
2404000000.0000000000 0.170789420604705810546875000000 0.017720853909850120544433593750 0.002945354208350182013270712744 -0.002547918353229761123657226562 0 0 0 0 
2404166666.6666665077 0.170568749308586092849893134371 0.016289299353957179677943045704 0.002776086563244462013244628906 -0.002626453060656785964965820312 0 0 0 0 
2404333333.3333334923 0.170427262783050509353799384371 0.014983292669057849538782889454 0.002449395135045052008387900244 -0.002910360926762222810032509912 0 0 0 0 
2404500000.0000000000 0.170306622982025201995526231258 0.013632251881062979262382306445 0.002286494243890047073364257812 -0.002929460722953081130981445312 0 0 0 0 
2404666666.6666665077 0.170343711972236605545205634371 0.012036249041557310276995274023 0.002084441948682070212123251807 -0.002947659930214285850524902344 0 0 0 0 
2404833333.3333334923 0.170218378305435208419638115629 0.010732330381870269775390625000 0.001901732990518212101579975659 -0.003016303759068251089808798682 0 0 0 0 
2405000000.0000000000 0.170219346880912808517294365629 0.009157226420938968658447265625 0.001721619279123842933057475513 -0.002813833765685557885410927881 0 0 0 0 
2405166666.6666665077 0.170287430286407498458700615629 0.007721828762441874417776777051 0.001589970779605210044263530200 -0.002940267790108919143676757812 0 0 0 0 
2405333333.3333334923 0.170202881097793606857138115629 0.006052721291780471801757812500 0.001331348670646548054338764722 -0.002917742123827337785008095850 0 0 0 0 
2405500000.0000000000 0.170150682330131503006143134371 0.004617058206349611282348632812 0.001106598065234720923780131763 -0.002743211807683109803440713037 0 0 0 0 
2405666666.6666665077 0.170101761817932101150674384371 0.003088729223236442045924521338 0.000942839309573173522949218750 -0.002646967303007841110229492188 0 0 0 0 
2405833333.3333334923 0.169975370168685913085937500000 0.001491467584855854944941855322 0.000999619252979755401611328125 -0.002407543594017624855041503906 0 0 0 0 
2406000000.0000000000 0.170038074254989596267861884371 -0.000328156340401619726985377179 0.000880561419762670993804931641 -0.002433741465210915045497275244 0 0 0 0 
2406166666.6666665077 0.169749543070793207366619981258 -0.001748223556205630085588764722 0.000767087331041693687438964844 -0.002297170227393507957458496094 0 0 0 0 
2406333333.3333334923 0.169989600777626009842080634371 -0.003432847326621412797215127100 0.000911775743588805198669433594 -0.002218525856733322143554687500 0 0 0 0 
2406500000.0000000000 0.169647991657257107833700615629 -0.005015866365283727645874023438 0.000778787711169570684432983398 -0.002064258325845003128051757812 0 0 0 0 
2406666666.6666665077 0.169381141662597711761151231258 -0.006603649351745843887329101562 0.000804461771622300148010253906 -0.002097543096169828934910439600 0 0 0 0 
2406833333.3333334923 0.169295698404312106033486884371 -0.008103360421955585479736328125 0.000950849789660423994064331055 -0.002012525219470262961146689307 0 0 0 0 
2407000000.0000000000 0.169199228286743191818075615629 -0.009606465697288513183593750000 0.001032085740007459900499653394 -0.001886983285658061938044882666 0 0 0 0 
2407166666.6666665077 0.169113934040069607833700615629 -0.010970083996653560293177420704 0.001227617845870554013493203271 -0.001893720356747508049011230469 0 0 0 0 
2407333333.3333334923 0.168932139873504610916299384371 -0.012327819131314749281913556445 0.001156934536993504004237509619 -0.001917113084346055984497070312 0 0 0 0 
2407500000.0000000000 0.168686434626579312423544365629 -0.013607635162770749873151210352 0.001131333643570541901829384912 -0.002054178388789296150207519531 0 0 0 0 
2407666666.6666665077 0.168747216463088989257812500000 -0.014801044948399070394495780079 0.001430860836990178065059042822 -0.002162089804187417030334472656 0 0 0 0 
2407833333.3333334923 0.168367415666580200195312500000 -0.015999017283320430410364920704 0.001223014085553586916682577979 -0.002341652289032936096191406250 0 0 0 0 
2408000000.0000000000 0.168478921055793789962606865629 -0.017217390239238739013671875000 0.001150797586888075091718364185 -0.002394775627180933952331542969 0 0 0 0 
2408166666.6666665077 0.168192297220230102539062500000 -0.018099693581461909902552420704 0.001052565407007933096644736182 -0.002506278920918703079223632812 0 0 0 0 
2408333333.3333334923 0.168282374739646911621093750000 -0.019052127376198768615722656250 0.001083020353689789988874125903 -0.002597413724288343949558877100 0 0 0 0 
2408500000.0000000000 0.168350607156753512283486884371 -0.020088300108909610403040701954 0.000964490172918885946273803711 -0.002701081568375229835510253906 0 0 0 0 
2408666666.6666665077 0.168325737118721008300781250000 -0.021022088825702670705775076954 0.000725375895854085683822631836 -0.002696204697713255882263183594 0 0 0 0 
2408833333.3333334923 0.168229445815086392501669365629 -0.021759683266282081604003906250 0.000614301534369587898254394531 -0.002939643105491995811462402344 0 0 0 0 
2409000000.0000000000 0.168409585952758789062500000000 -0.022766878828406330453892891796 0.000367236731108277981907445087 -0.002896504942327737808227539062 0 0 0 0 
2409166666.6666665077 0.168683469295501708984375000000 -0.023551160469651218759556954296 0.000221716152736917110994616098 -0.002960676327347754998448037256 0 0 0 0 
2409333333.3333334923 0.168751254677772494217080634371 -0.024550763890147209167480468750 0.000075527503213379532098770142 -0.002841913839802145957946777344 0 0 0 0 
2409500000.0000000000 0.168790772557258605957031250000 -0.025504764169454581523854841407 -0.000008085969056992325931787491 -0.002633814932778478102443076025 0 0 0 0 
2409666666.6666665077 0.168835252523422213455361884371 -0.026289636269211769104003906250 -0.000366861611837521195411682129 -0.002685240702703595161437988281 0 0 0 0 
2409833333.3333334923 0.168872892856597900390625000000 -0.027164114639163020742396170704 -0.000198022637050598886892041617 -0.002450294094160199165344238281 0 0 0 0 
2410000000.0000000000 0.169154793024063110351562500000 -0.028170475736260410654088204296 -0.000425346777774393612712305890 -0.002400675788521767096278525244 0 0 0 0 
2410166666.6666665077 0.169304132461547907073651231258 -0.028830504044890400278111641796 -0.000375926727429032325744628906 -0.002221347298473120169398642432 0 0 0 0 
2410333333.3333334923 0.169124156236648587325888115629 -0.029725700616836551321009451954 -0.000373748684069141799777430402 -0.002149669453501700921299599756 0 0 0 0 
2410500000.0000000000 0.169234141707420404632244981258 -0.030678289011120799673060233204 -0.000362726306775584816932678223 -0.001925194286741316101671528394 0 0 0 0 
2410666666.6666665077 0.168977156281471307952557481258 -0.031575705856084816669504533593 -0.000440135656390339081913548602 -0.001960466383025050163269042969 0 0 0 0 
2410833333.3333334923 0.169030964374542208572549384371 -0.032397441565990447998046875000 -0.000412343506468460018008631573 -0.001827387837693094990373920972 0 0 0 0 
2411000000.0000000000 0.168803408741950988769531250000 -0.033287227153778083110768903907 -0.000364256673492491299479884015 -0.001875577145256102085113525391 0 0 0 0 
2411166666.6666665077 0.168636530637741088867187500000 -0.034261401742696762084960937500 -0.000234052946325391503885546274 -0.001775108510628343062159872900 0 0 0 0 
2411333333.3333334923 0.168357297778129605392294365629 -0.035103432834148406982421875000 -0.000407167244702577590942382812 -0.001786161446943878910662006909 0 0 0 0 
2411500000.0000000000 0.168156266212463406661825615629 -0.036089222878217697143554687500 -0.000129578198539093109682360239 -0.001752393669448792934417724609 0 0 0 0 
2411666666.6666665077 0.168171539902687100509481865629 -0.036815181374549872661550153907 -0.000109405853436328497811994009 -0.001608983613550662994384765625 0 0 0 0 
2411833333.3333334923 0.167716607451438903808593750000 -0.037631589919328689575195312500 -0.000055861008149804547429084778 -0.001809152192436159090754843604 0 0 0 0 
2412000000.0000000000 0.167540684342384310623330634371 -0.038568820804357528686523437500 -0.000223485360038466805785578595 -0.001816691481508315043208456885 0 0 0 0 
2412166666.6666665077 0.167137965559959411621093750000 -0.039529304951429367065429687500 -0.000131334119942039305537623273 -0.001749650225974618954899453271 0 0 0 0 
2412333333.3333334923 0.167190849781036404708700615629 -0.040403876453638076782226562500 -0.000082573722465895116329193115 -0.001938183209858834960340190356 0 0 0 0 
2412500000.0000000000 0.166594266891479492187500000000 -0.041304513812065131450612653907 -0.000216972825000993907451629639 -0.001859610434621572928187704932 0 0 0 0 
2412666666.6666665077 0.166376858949661310393963731258 -0.042336333543062210083007812500 -0.000130303495097905397415161133 -0.001818962395191193060633993994 0 0 0 0 
2412833333.3333334923 0.165936142206191988845986884371 -0.043441310524940490722656250000 -0.000065460437326692044734954834 -0.001938144909217953898786235278 0 0 0 0 
2413000000.0000000000 0.165632963180541992187500000000 -0.044340267777442932128906250000 -0.000094418312073685228824615479 -0.001884346012957393906236958081 0 0 0 0 
2413166666.6666665077 0.165026977658271789550781250000 -0.045255523175001137470285783593 -0.000074828749347943812608718872 -0.001893695909529923959019326318 0 0 0 0 
2413333333.3333334923 0.164586082100868197342080634371 -0.046356681734323501586914062500 0.000075472089520189911127090454 -0.001893651555292307896855019678 0 0 0 0 
2413500000.0000000000 0.164257168769836398025674384371 -0.047434825450181961059570312500 0.000152721768245101002141675406 -0.001937816850841044945957802881 0 0 0 0 
2413666666.6666665077 0.163639456033706692794638115629 -0.048329666256904602050781250000 -0.000011252077456447299232686690 -0.002076843054965138001682900537 0 0 0 0 
2413833333.3333334923 0.163162216544151306152343750000 -0.049315486103296279907226562500 0.000163522941875271499156951904 -0.002156499074771999879124306787 0 0 0 0 
2414000000.0000000000 0.162471920251846313476562500000 -0.050404790788888931274414062500 0.000286038091871887499659937726 -0.002321649808436632156372070312 0 0 0 0 
2414166666.6666665077 0.162367627024650601486044365629 -0.051252018660306930541992187500 0.000109024433186277801364344464 -0.002622890984639524979832314600 0 0 0 0 
2414333333.3333334923 0.161867380142211886306924384371 -0.052448131144046783447265625000 -0.000147702492540702196672716684 -0.002704536542296410040614462744 0 0 0 0 
2414500000.0000000000 0.161682367324829101562500000000 -0.053250897675752639770507812500 -0.000218201763345859890610295428 -0.002965861931443213982823037256 0 0 0 0 
2414666666.6666665077 0.161360859870910589020098768742 -0.054283346980810172344167341407 -0.000372051406884566003650111066 -0.003066078992560505867004394531 0 0 0 0 
2414833333.3333334923 0.161046907305717496017294365629 -0.055153504014015197753906250000 -0.000492750084958970546722412109 -0.003141629043966532187220908057 0 0 0 0 
2415000000.0000000000 0.160846829414367703536825615629 -0.056191682815551757812500000000 -0.000797882326878607273101806641 -0.003337215166538954214808798682 0 0 0 0 
2415166666.6666665077 0.160585910081863403320312500000 -0.057495214045047760009765625000 -0.000880221370607614517211914062 -0.003262031590566039085388183594 0 0 0 0 
2415333333.3333334923 0.160478726029396112640057481258 -0.058585129678249359130859375000 -0.001251824316568673090693808447 -0.003335264511406422095057822119 0 0 0 0 
2415500000.0000000000 0.160325124859809903243856865629 -0.059649605304002761840820312500 -0.001521028345450758934020996094 -0.003226186381652950806858681787 0 0 0 0 
2415666666.6666665077 0.160102635622024508377236884371 -0.060724493116140372539479841407 -0.001805043779313564083696674878 -0.003214351134374738173243857275 0 0 0 0 
2415833333.3333334923 0.159917488694191006759481865629 -0.062006983906030661846120466407 -0.001917940448038280010223388672 -0.003138286527246236801147460938 0 0 0 0 
2416000000.0000000000 0.159611791372299194335937500000 -0.063206180930137634277343750000 -0.002108714776113628907444619287 -0.002976288786157966093776083838 0 0 0 0 
2416166666.6666665077 0.159666806459426907638388115629 -0.064432710409164428710937500000 -0.002261918736621737913844443213 -0.002871340839192270798924111475 0 0 0 0 
2416333333.3333334923 0.159392237663268987457598768742 -0.065809242427349090576171875000 -0.002539973706007003784179687500 -0.002628247952088714079615927588 0 0 0 0 
2416500000.0000000000 0.159140884876251192947549384371 -0.066943600773811340332031250000 -0.002498405985534191131591796875 -0.002530945464968680901768349756 0 0 0 0 
2416666666.6666665077 0.158716425299644497970419365629 -0.068062342703342437744140625000 -0.002657162025570869012119912256 -0.002283180831000208854675292969 0 0 0 0 
2416833333.3333334923 0.158635273575782803634481865629 -0.069341316819190979003906250000 -0.002775657456368207931518554688 -0.002213708357885479927062988281 0 0 0 0 
2417000000.0000000000 0.158177495002746609786825615629 -0.070413157343864440917968750000 -0.002786179305985569953918457031 -0.002013917313888669013977050781 0 0 0 0 
2417166666.6666665077 0.157842978835105895996093750000 -0.071447871625423431396484375000 -0.002851746976375579833984375000 -0.001757431542500853972194052588 0 0 0 0 
2417333333.3333334923 0.157612115144729586502236884371 -0.072481021285057067871093750000 -0.002944228705018759207484579932 -0.001607629354111850044847797925 0 0 0 0 
2417500000.0000000000 0.157185807824134798904580634371 -0.073507592082023620605468750000 -0.002811181824654341177699423682 -0.001394151942804455973981547778 0 0 0 0 
2417666666.6666665077 0.157042205333709689041299384371 -0.074406154453754425048828125000 -0.002888469025492668151855468750 -0.001247654436156153895734477466 0 0 0 0 
2417833333.3333334923 0.156677931547164889236611884371 -0.075250171124935150146484375000 -0.002650394337251781983616494287 -0.001131120137870311953900981372 0 0 0 0 
2418000000.0000000000 0.156413435935974093338174384371 -0.076284117996692657470703125000 -0.002770965220406651930568076025 -0.001144846086390316920039511572 0 0 0 0 
2418166666.6666665077 0.156084880232811001876669365629 -0.076936550438404083251953125000 -0.002671193564310669898986816406 -0.000752605730667710304260253906 0 0 0 0 
2418333333.3333334923 0.156062319874763488769531250000 -0.077815189957618713378906250000 -0.002646282315254210992100381006 -0.000846177805215120315551757812 0 0 0 0 
2418500000.0000000000 0.155681043863296508789062500000 -0.078653126955032348632812500000 -0.002429981483146547837498330225 -0.000952854927163571119308471680 0 0 0 0 
2418666666.6666665077 0.155571088194847106933593750000 -0.079570725560188293457031250000 -0.002398466458544135093688964844 -0.000839431653730571269989013672 0 0 0 0 
2418833333.3333334923 0.155023112893104608733807481258 -0.080263100564479827880859375000 -0.002308591734617948965785361182 -0.000971155008301138877868652344 0 0 0 0 
2419000000.0000000000 0.154765978455543490310830634371 -0.080904476344585418701171875000 -0.002248040633276104927062988281 -0.001015325542539357922197651440 0 0 0 0 
2419166666.6666665077 0.154441416263580294510049384371 -0.081689469516277313232421875000 -0.002279502106830478148219443213 -0.001087700482457875988603901440 0 0 0 0 
2419333333.3333334923 0.154045701026916503906250000000 -0.082102164626121520996093750000 -0.002307228744029999212977743994 -0.001117003150284290096880268628 0 0 0 0 
2419500000.0000000000 0.153802111744880704025106865629 -0.082837872207164764404296875000 -0.002410880289971828894374228369 -0.001128934673033654906629252856 0 0 0 0 
2419666666.6666665077 0.153463363647460909744424384371 -0.083568543195724487304687500000 -0.002424783073365687890293740381 -0.001384821254760026931762695312 0 0 0 0 
2419833333.3333334923 0.152999043464660589020098768742 -0.083997838199138641357421875000 -0.002632985590025783018824911963 -0.001368593773804605007171630859 0 0 0 0 
