# Hz S RI R 
2400000000.0000000000 0.169067427515983609298544365629 0.045811176300048828125000000000 -0.001378148910589515946031879956 -0.001704624039120971939684223706 0 0 0 0 
2400166666.6666665077 0.170072540640830993652343750000 0.044690374284982681274414062500 -0.001311547937802969975712441553 -0.001623451593331993059871054541 0 0 0 0 
2400333333.3333334923 0.170990720391273498535156250000 0.043601185083389282226562500000 -0.001435564365237951061846088940 -0.001715357764624058983446430737 0 0 0 0 
2400500000.0000000000 0.172345295548438998123330634371 0.042636215686798102642018903907 -0.001399203436449169895769428784 -0.001829444081522523923161172021 0 0 0 0 
2400666666.6666665077 0.172894313931465204436932481258 0.041612625122070312500000000000 -0.001589491381309926943538046729 -0.001890629529953002929687500000 0 0 0 0 
2400833333.3333334923 0.173902869224548312088174384371 0.040820125490427017211914062500 -0.001688962918706238052965473706 -0.001715705264359713034388876807 0 0 0 0 
2401000000.0000000000 0.174525216221809387207031250000 0.039954133331775672222097028907 -0.001732024364173412106157612378 -0.001888731145299971103668212891 0 0 0 0 
2401166666.6666665077 0.175474181771278409103231865629 0.039169348776340491558034528907 -0.001973191974684596061706542969 -0.001705943490378559069392538916 0 0 0 0 
2401333333.3333334923 0.175965249538421603103799384371 0.038575436919927597045898437500 -0.002060709986835718154907226562 -0.001862715580500661893131875146 0 0 0 0 
2401500000.0000000000 0.177014887332916287521200615629 0.037752553820610053325612653907 -0.002299965592101215882542275537 -0.001880926080048084042192768628 0 0 0 0 
2401666666.6666665077 0.177399650216102600097656250000 0.037217088043689727783203125000 -0.002379088895395398139953613281 -0.001719949766993523077723837744 0 0 0 0 
2401833333.3333334923 0.177750438451766995529013115629 0.036515250802040100097656250000 -0.002281410386785864830017089844 -0.001675541512668132998822856372 0 0 0 0 
2402000000.0000000000 0.178524807095527704436932481258 0.035968646407127380371093750000 -0.002372593851760029792785644531 -0.001708403811790049076080322266 0 0 0 0 
2402166666.6666665077 0.178814202547073392013388115629 0.035260647535324096679687500000 -0.002688285429030656814575195312 -0.001639852183870970986009907300 0 0 0 0 
2402333333.3333334923 0.178977742791175786774005018742 0.034761358052492141723632812500 -0.002641692990437150001525878906 -0.001302578253671526908874511719 0 0 0 0 
2402500000.0000000000 0.179509401321411105056924384371 0.034192442893981926654856096093 -0.002814715960994362831115722656 -0.001184644992463290908216166919 0 0 0 0 
2402666666.6666665077 0.179659038782119806487713731258 0.033592086285352706909179687500 -0.002998261013999580903294228662 -0.001275191083550452969194721753 0 0 0 0 
2402833333.3333334923 0.179636910557746887207031250000 0.032993197441101067279856096093 -0.003023645840585232214686728369 -0.001145273563452064990997314453 0 0 0 0 
2403000000.0000000000 0.179796844720840509612713731258 0.032196696847677230834960937500 -0.003245342988520861105677939307 -0.000823393522296100854873657227 0 0 0 0 
2403166666.6666665077 0.179939746856689508636151231258 0.031482659280300140380859375000 -0.003213420510292052788975381006 -0.000687124847900122404098510742 0 0 0 0 
2403333333.3333334923 0.179549843072891207595986884371 0.030618119984865188598632812500 -0.003385317977517842812779091943 -0.000550314434804022312164306641 0 0 0 0 
2403500000.0000000000 0.179363772273063687423544365629 0.029906181618571281433105468750 -0.003442157991230487823486328125 -0.000412568129831924980312901630 0 0 0 0 
2403666666.6666665077 0.179196476936340304275674384371 0.028982859104871749877929687500 -0.003551381174474955038783408057 -0.000209429083042778101846417838 0 0 0 0 
2403833333.3333334923 0.179099544882774408538494981258 0.027776224538683891296386718750 -0.003722680034115910963771201025 -0.000221334092202596393510541373 0 0 0 0 
2404000000.0000000000 0.178560659289360101897869981258 0.026806138455867770803431326954 -0.003498510457575321197509765625 -0.000044254189560888341885020597 0 0 0 0 
2404166666.6666665077 0.178069919347763089279013115629 0.025567270815372470510462576954 -0.003648204961791634993312216650 0.000214938700082711902543744498 0 0 0 0 
2404333333.3333334923 0.177549287676811190506143134371 0.024433637037873271596888358204 -0.003767223795875906944274902344 0.000448837468866258913844508038 0 0 0 0 
2404500000.0000000000 0.177191242575645502288494981258 0.023137535899877551687220389454 -0.003694183425977826118469238281 0.000689361535478383302688598633 0 0 0 0 
2404666666.6666665077 0.176857411861419705489950615629 0.021760145202279090881347656250 -0.003664751304313540892360068213 0.000915510114282369613647460938 0 0 0 0 
2404833333.3333334923 0.176250055432319613357705634371 0.020359616726636890066126639454 -0.003636109642684460119960165869 0.001051264815032481930376362378 0 0 0 0 
2405000000.0000000000 0.175847128033638000488281250000 0.018853107467293739318847656250 -0.003592690452933311896083212744 0.001245333696715533950208354419 0 0 0 0 
2405166666.6666665077 0.175323575735092190841513115629 0.017367621883749958383580391796 -0.003476311685517429871800088037 0.001444903784431516907335590894 0 0 0 0 
2405333333.3333334923 0.174932822585105895996093750000 0.015589323826134210068672381055 -0.003381595248356461958644247900 0.001707369345240294933319091797 0 0 0 0 
2405500000.0000000000 0.174528375267982510665731865629 0.014153058640658860642402849805 -0.003119686385616660118103027344 0.001694373553618788936017680591 0 0 0 0 
2405666666.6666665077 0.174082294106483487228231865629 0.012355091050267219543457031250 -0.003226866247132420973536826025 0.002087381202727555794956826318 0 0 0 0 
2405833333.3333334923 0.173699468374252291580361884371 0.010516257956624029332171055273 -0.003065066877752542929408408057 0.002047221641987562179565429688 0 0 0 0 
2406000000.0000000000 0.173394948244094904143963731258 0.008780761621892452239990234375 -0.002893728204071522192714072119 0.002328000729903579191920615088 0 0 0 0 
2406166666.6666665077 0.173002049326896695236044365629 0.007011163514107465744018554688 -0.002618913771584630012512207031 0.002346775727346539931056357275 0 0 0 0 
2406333333.3333334923 0.173168256878852788727130018742 0.005004437640309333801269531250 -0.002596826059743762016296386719 0.002520182635635137991664267432 0 0 0 0 
2406500000.0000000000 0.172635167837142888824786268742 0.002990960143506526947021484375 -0.002453500172123312950134277344 0.002447661245241761207580566406 0 0 0 0 
2406666666.6666665077 0.172538101673126192947549384371 0.000926055188756436109542846680 -0.002216755412518978118896484375 0.002848152769729495048522949219 0 0 0 0 
2406833333.3333334923 0.172642707824707003494424384371 -0.001167747308500111103057861328 -0.002124942606315017180201865088 0.002797494409605861143824911963 0 0 0 0 
2407000000.0000000000 0.172599911689758300781250000000 -0.003254666924476623968837118994 -0.002106653992086648941040039062 0.002855048282071948051452636719 0 0 0 0 
2407166666.6666665077 0.173027932643890408614950615629 -0.005276278126984834671020507812 -0.001944872085005044937133789062 0.002991853980347514152526855469 0 0 0 0 
2407333333.3333334923 0.172956243157386807540731865629 -0.007517644204199314117431640625 -0.001623103977181016965153359521 0.002999513177201151847839355469 0 0 0 0 
2407500000.0000000000 0.173238873481750488281250000000 -0.009470087476074695587158203125 -0.001619882299564779021619487231 0.003201070241630076928379677881 0 0 0 0 
2407666666.6666665077 0.173578947782516507247763115629 -0.011627864092588429886787615430 -0.001323410309851170019862509619 0.003062309697270392937901162256 0 0 0 0 
2407833333.3333334923 0.173591613769531305511151231258 -0.013810362666845319920549961523 -0.001263100421056150956394814600 0.003113822080194950103759765625 0 0 0 0 
2408000000.0000000000 0.174074709415435791015625000000 -0.016005950048565871501882185157 -0.001015900634229182980181049878 0.003036188660189508958103798975 0 0 0 0 
2408166666.6666665077 0.174321427941322298904580634371 -0.017820771783590320241907889454 -0.000791658298112452030181884766 0.003070122562348843054530478369 0 0 0 0 
2408333333.3333334923 0.174965292215347290039062500000 -0.019850349053740501403808593750 -0.000742064265068620443344116211 0.003147087525576353073120117188 0 0 0 0 
2408500000.0000000000 0.175206109881401089767294365629 -0.021882927045226100576380545704 -0.000455262867035344188839512958 0.003048209706321359114405966650 0 0 0 0 
2408666666.6666665077 0.175684705376625088790731865629 -0.023838888853788379323939139454 -0.000399811746319755911827087402 0.003037778427824378013610839844 0 0 0 0 
2408833333.3333334923 0.175736442208290100097656250000 -0.025560863316059109079381173046 -0.000115280199679546098835529466 0.002990907290950417952296591650 0 0 0 0 
2409000000.0000000000 0.176046669483184786697549384371 -0.027230123057961460458775704296 0.000021502462914213541557992629 0.002798574510961771011352539062 0 0 0 0 
2409166666.6666665077 0.176608890295028686523437500000 -0.028711559250950809824010079296 0.000144419595017097890377044678 0.002802905859425663948059082031 0 0 0 0 
2409333333.3333334923 0.177056819200515802581463731258 -0.030228562653064731252650076954 0.000266661605564877390861511230 0.002710381057113409042358398438 0 0 0 0 
2409500000.0000000000 0.177336618304252596756143134371 -0.031582724303007132793386091407 0.000322321633575484210818690167 0.002587971277534962134120322119 0 0 0 0 
2409666666.6666665077 0.177872911095619201660156250000 -0.032714702188968658447265625000 0.000315634883008897304534912109 0.002369283465668559074401855469 0 0 0 0 
2409833333.3333334923 0.178247168660163907150106865629 -0.033657077699899673461914062500 0.000430071930168196613162440167 0.002441892633214592933654785156 0 0 0 0 
2410000000.0000000000 0.178843006491661099532919365629 -0.034714553505182273174245466407 0.000687109131831675767898559570 0.002211568877100944952723837744 0 0 0 0 
2410166666.6666665077 0.179299667477607699295205634371 -0.035759199410676963115651716407 0.000648764078505337238311767578 0.002238456159830092950108193506 0 0 0 0 
2410333333.3333334923 0.179677024483680697342080634371 -0.036392416805028922344167341407 0.000669198809191584587097167969 0.002084549982100725173950195312 0 0 0 0 
2410500000.0000000000 0.180006548762321499923544365629 -0.037285272032022483135182966407 0.000769605161622166633605957031 0.001993063837289810180664062500 0 0 0 0 
2410666666.6666665077 0.180538907647132901290731865629 -0.037989351898431777954101562500 0.000807068427093327153860891077 0.001759369974024594046949077075 0 0 0 0 
2410833333.3333334923 0.180879816412925692459268134371 -0.038416028022766113281250000000 0.000781937909778207540512084961 0.001849562861025332970860146631 0 0 0 0 
2411000000.0000000000 0.181112602353096008300781250000 -0.039079494774341583251953125000 0.000758100883103907108306884766 0.001655845670029520988464355469 0 0 0 0 
2411166666.6666665077 0.181328877806663513183593750000 -0.039584167301654822612722028907 0.000742262462154030799865722656 0.001572533627040684006334614331 0 0 0 0 
2411333333.3333334923 0.181440785527229309082031250000 -0.040157474577426910400390625000 0.000700146309100091457366943359 0.001531802816316484971287392725 0 0 0 0 
2411500000.0000000000 0.181636422872543307205361884371 -0.040778923779726028442382812500 0.000636799668427556753158569336 0.001341488445177674076677631909 0 0 0 0 
2411666666.6666665077 0.181892752647399902343750000000 -0.041133854538202292705495466407 0.000644416257273405790328979492 0.001253551454283297061920166016 0 0 0 0 
2411833333.3333334923 0.181697353720665005782919365629 -0.041485019028186798095703125000 0.000677489675581455230712890625 0.001276993891224265098571777344 0 0 0 0 
2412000000.0000000000 0.181693866848945589920205634371 -0.041693203151226036762277971093 0.000633562507573515176773071289 0.001454965677112340927124023438 0 0 0 0 
2412166666.6666665077 0.181198135018348693847656250000 -0.042172789573669426654856096093 0.000568869116250425577163696289 0.001194717944599688053131103516 0 0 0 0 
2412333333.3333334923 0.181274130940437289138955634371 -0.042502939701080322265625000000 0.000528643024154007434844970703 0.000959541532211005687713623047 0 0 0 0 
2412500000.0000000000 0.180506780743598910232705634371 -0.042875848710536956787109375000 0.000356515607563778812259119855 0.001150033902376889965654682690 0 0 0 0 
2412666666.6666665077 0.180006176233291598220986884371 -0.043351173400878913188893903907 0.000450244580861181020736694336 0.001170411123894155025482177734 0 0 0 0 
2412833333.3333334923 0.179424494504928588867187500000 -0.043756239116191857074777971093 0.000357264332706108689308166504 0.001175441313534975051879882812 0 0 0 0 
2413000000.0000000000 0.178727865219116210937500000000 -0.043908942490816123271901716407 0.000293147459160536473423558368 0.001266390550881624004961323315 0 0 0 0 
2413166666.6666665077 0.177880242466926602462606865629 -0.044439274817705147480051408593 0.000180662158527411493376055307 0.001237191958352922959568642725 0 0 0 0 
2413333333.3333334923 0.177014634013175992111044365629 -0.044875267893075942993164062500 0.000137901850393973290920257568 0.001393648330122232003452920068 0 0 0 0 
2413500000.0000000000 0.176090657711029108245526231258 -0.045531883835792541503906250000 0.000222923161345533999517717905 0.001369931502267718098284077222 0 0 0 0 
2413666666.6666665077 0.175012424588203402420205634371 -0.046235345304012298583984375000 0.000182343617780134108945569449 0.001455430290661752007128071362 0 0 0 0 
2413833333.3333334923 0.173805043101310702224893134371 -0.046579740941524512554128278907 0.000111958754132501794539313045 0.001446460955776273987413715894 0 0 0 0 
2414000000.0000000000 0.172754570841789301116619981258 -0.047312203794717788696289062500 0.000137208771775476607397356577 0.001659308210946619944331503760 0 0 0 0 
2414166666.6666665077 0.171654790639877291580361884371 -0.047912139445543289184570312500 0.000243304966716095805168151855 0.001764316693879663944244384766 0 0 0 0 
2414333333.3333334923 0.170403152704238891601562500000 -0.048842810094356536865234375000 0.000027018053515348580071722337 0.001812146627344191074371337891 0 0 0 0 
2414500000.0000000000 0.169402539730071993728799384371 -0.049526054412126541137695312500 0.000082477345131337642669677734 0.001944549148902297019958496094 0 0 0 0 
2414666666.6666665077 0.168167755007743807693643134371 -0.050515834242105477069895158593 0.000304017856251448392868041992 0.001848823623731731934788369287 0 0 0 0 
2414833333.3333334923 0.166891157627105712890625000000 -0.051660235971212387084960937500 0.000290013878839090520709437238 0.002096764044836163954493857275 0 0 0 0 
2415000000.0000000000 0.165687203407287597656250000000 -0.052588816732168197631835937500 0.000384798826416954398155212402 0.002161566168069839911219931494 0 0 0 0 
2415166666.6666665077 0.164466753602027893066406250000 -0.053934708237648010253906250000 0.000555293459910899400711059570 0.002212739782407879829406738281 0 0 0 0 
2415333333.3333334923 0.163429901003837613204794365629 -0.055297601968050003051757812500 0.000792387232650071382522583008 0.002322527812793850898742675781 0 0 0 0 
2415500000.0000000000 0.162159547209739712814169365629 -0.056559048593044281005859375000 0.000863428344018757343292236328 0.002442107768729329109191894531 0 0 0 0 
2415666666.6666665077 0.160938560962677001953125000000 -0.058064050972461700439453125000 0.000911729992367327213287353516 0.002461501862853765921351767432 0 0 0 0 
2415833333.3333334923 0.160034701228141812423544365629 -0.059727035462856292724609375000 0.001178839709609746932983398438 0.002569672418758273124694824219 0 0 0 0 
2416000000.0000000000 0.158764585852623013595419365629 -0.061288900673389441753347028907 0.001330244936980307102203369141 0.002364105544984341101405478369 0 0 0 0 
2416166666.6666665077 0.157980009913444491287393134371 -0.063043765723705291748046875000 0.001364599796943366961238242041 0.002376921940594912008998251807 0 0 0 0 
2416333333.3333334923 0.156888440251350402832031250000 -0.064721621572971343994140625000 0.001495584147050976970075297778 0.002387170679867268042323447119 0 0 0 0 
2416500000.0000000000 0.155877768993377713302450615629 -0.066756628453731536865234375000 0.001597200869582593007328652490 0.002403628779575229124781943213 0 0 0 0 
2416666666.6666665077 0.154937684535980196853799384371 -0.068430915474891662597656250000 0.001914299209602176926256489331 0.002301159314811230139491415869 0 0 0 0 
2416833333.3333334923 0.154249310493469210525674384371 -0.070521324872970581054687500000 0.002062621293589473204371786963 0.002145929960533976988551474463 0 0 0 0 
2417000000.0000000000 0.153293788433075006683026231258 -0.072461575269699096679687500000 0.002103753853589295907261513818 0.002046091714873909950256347656 0 0 0 0 
2417166666.6666665077 0.152593269944191006759481865629 -0.074151404201984405517578125000 0.002394994487985969023463583838 0.002002803841605782942530966650 0 0 0 0 
2417333333.3333334923 0.151956111192703302581463731258 -0.075925052165985107421875000000 0.002483137883245944976806640625 0.002084657317027450041529990088 0 0 0 0 
2417500000.0000000000 0.151264548301696805099325615629 -0.078124940395355224609375000000 0.002606187248602509932277060400 0.001674696686677634932874370044 0 0 0 0 
2417666666.6666665077 0.150971844792366000076455634371 -0.079865261912345886230468750000 0.002650941722095013098475790869 0.001706208800897002003313374097 0 0 0 0 
2417833333.3333334923 0.150524273514747591873330634371 -0.081590838730335235595703125000 0.002805426251143217086791992188 0.001581411459483206055284809644 0 0 0 0 
2418000000.0000000000 0.150090709328651400467080634371 -0.083613425493240356445312500000 0.003045023418962955908534384619 0.001282952493056654930114746094 0 0 0 0 
2418166666.6666665077 0.149831205606460599044638115629 -0.085185341536998748779296875000 0.002990559441968799071071005713 0.001200665952637792067286826025 0 0 0 0 
2418333333.3333334923 0.149751648306846590896768134371 -0.086914218962192535400390625000 0.003071125363931059837341308594 0.000959604745730757713317871094 0 0 0 0 
2418500000.0000000000 0.149460926651954706390057481258 -0.088536754250526428222656250000 0.003178186481818556785583496094 0.000769084377679973840713500977 0 0 0 0 
2418666666.6666665077 0.149483010172843905349893134371 -0.089865498244762420654296875000 0.003225068328902124924900673975 0.000721219286788254976272583008 0 0 0 0 
2418833333.3333334923 0.149242073297500610351562500000 -0.091351456940174102783203125000 0.003139843698590993881225585938 0.000404843711294233798980712891 0 0 0 0 
2419000000.0000000000 0.149309501051902798751669365629 -0.092692025005817413330078125000 0.003209955757483839988708496094 0.000329150294419377988010960712 0 0 0 0 
2419166666.6666665077 0.149346351623535211761151231258 -0.093873806297779083251953125000 0.003152497345581651167628622900 -0.000013181902431824710220098495 0 0 0 0 
2419333333.3333334923 0.149312958121299688141192518742 -0.094864964485168457031250000000 0.003155211918056011199951171875 -0.000196426932234317091390332632 0 0 0 0 
2419500000.0000000000 0.149740979075431795974893134371 -0.096121951937675476074218750000 0.003045305609703063964843750000 -0.000500370690133422613143920898 0 0 0 0 
2419666666.6666665077 0.150035515427589388748330634371 -0.097054541110992431640625000000 0.002946136752143501801731728662 -0.000594929966609925031661987305 0 0 0 0 
2419833333.3333334923 0.150019332766532897949218750000 -0.097709171473979949951171875000 0.002791518345475196838378906250 -0.000782835937570780515670776367 0 0 0 0 
