# Version 1.00
#
freq[Hz];re:Trc1_S11;im:Trc1_S11;re:Trc2_S21;im:Trc2_S21;
2.400000000000000E+009;1.544376462697983E-001;6.143134832382202E-002;-6.422312580980361E-004;5.591505207121372E-003;
2.400166666666667E+009;1.544363945722580E-001;5.966973304748535E-002;-5.859463708475232E-004;5.694502033293247E-003;
2.400333333333334E+009;1.543271541595459E-001;5.741282925009728E-002;-3.564894723240286E-004;5.692804232239723E-003;
2.400500000000000E+009;1.545221507549286E-001;5.513544008135796E-002;-6.806441524531692E-005;5.732084624469280E-003;
2.400666666666667E+009;1.546464860439301E-001;5.295937135815620E-002;7.378779264399782E-005;5.781965795904398E-003;
2.400833333333334E+009;1.550234705209732E-001;5.083741992712021E-002;3.543361963238567E-004;5.724317394196987E-003;
2.401000000000000E+009;1.552613526582718E-001;4.856752604246140E-002;4.698178090620786E-004;5.616799928247929E-003;
2.401166666666667E+009;1.557447612285614E-001;4.623525217175484E-002;8.172282832674682E-004;5.680124275386334E-003;
2.401333333333334E+009;1.561413258314133E-001;4.408181831240654E-002;8.887421572580934E-004;5.599507596343756E-003;
2.401500000000000E+009;1.567341685295105E-001;4.201289266347885E-002;1.265409868210554E-003;5.634049884974957E-003;
2.401666666666667E+009;1.574243009090424E-001;3.987793996930122E-002;1.430853968486190E-003;5.592741537839174E-003;
2.401833333333334E+009;1.582278013229370E-001;3.774160146713257E-002;1.698874635621905E-003;5.506470799446106E-003;
2.402000000000000E+009;1.588562279939652E-001;3.564316034317017E-002;1.654601539485157E-003;5.520772654563189E-003;
2.402166666666667E+009;1.595338135957718E-001;3.353096917271614E-002;1.858852338045836E-003;5.297011230140925E-003;
2.402333333333334E+009;1.605261862277985E-001;3.176572173833847E-002;2.157799899578095E-003;5.206061061471701E-003;
2.402500000000000E+009;1.616960167884827E-001;3.008121810853481E-002;2.393250819295645E-003;5.217197351157665E-003;
2.402666666666667E+009;1.625393480062485E-001;2.835534326732159E-002;2.656301483511925E-003;5.238982383161783E-003;
2.402833333333334E+009;1.636397838592529E-001;2.667977847158909E-002;2.811169717460871E-003;4.980900790542364E-003;
2.403000000000000E+009;1.646542698144913E-001;2.514010109007359E-002;3.092944389209151E-003;5.007662344723940E-003;
2.403166666666667E+009;1.659639477729797E-001;2.380828559398651E-002;3.107302589341998E-003;4.935430828481913E-003;
2.403333333333334E+009;1.670592427253723E-001;2.235402539372444E-002;3.404463641345501E-003;4.582872614264488E-003;
2.403500000000000E+009;1.681643873453140E-001;2.126533910632134E-002;3.544407198205590E-003;4.577091429382563E-003;
2.403666666666667E+009;1.692433208227158E-001;1.979378983378410E-002;3.716146573424339E-003;4.347254056483507E-003;
2.403833333333334E+009;1.705004423856735E-001;1.892594806849957E-002;3.883549012243748E-003;4.157089628279209E-003;
2.404000000000000E+009;1.715720742940903E-001;1.793050020933151E-002;3.983444999903441E-003;3.936133347451687E-003;
2.404166666666667E+009;1.726498305797577E-001;1.702065579593182E-002;4.263753071427345E-003;3.830446163192391E-003;
2.404333333333334E+009;1.736901849508286E-001;1.640224270522595E-002;4.397826734930277E-003;3.473006188869476E-003;
2.404500000000000E+009;1.746881455183029E-001;1.564919203519821E-002;4.409245215356350E-003;3.415559651330113E-003;
2.404666666666667E+009;1.758357733488083E-001;1.525372825562954E-002;4.538991022855043E-003;3.202528459951282E-003;
2.404833333333334E+009;1.764938533306122E-001;1.467186957597733E-002;4.631516523659229E-003;2.857367973774672E-003;
2.405000000000000E+009;1.774687916040421E-001;1.416524313390255E-002;4.661888349801302E-003;2.790436381474137E-003;
2.405166666666667E+009;1.782990247011185E-001;1.383155211806297E-002;4.832404665648937E-003;2.475289395079017E-003;
2.405333333333334E+009;1.790660917758942E-001;1.348706241697073E-002;5.049268715083599E-003;2.349812770262361E-003;
2.405500000000000E+009;1.795716136693955E-001;1.342847943305969E-002;5.081785842776299E-003;2.085675718262792E-003;
2.405666666666667E+009;1.802304685115814E-001;1.320181787014008E-002;4.967245273292065E-003;1.831873436458409E-003;
2.405833333333334E+009;1.804401427507401E-001;1.301511190831661E-002;5.099651869386435E-003;1.621885341592133E-003;
2.406000000000000E+009;1.809525191783905E-001;1.290779747068882E-002;4.974606912583113E-003;1.505770720541477E-003;
2.406166666666667E+009;1.811233460903168E-001;1.281413342803717E-002;4.973092582076788E-003;1.211322378367186E-003;
2.406333333333334E+009;1.814959347248077E-001;1.280786935240030E-002;5.091472528874874E-003;1.093803322874010E-003;
2.406500000000000E+009;1.813719868659973E-001;1.251394767314196E-002;5.048339720815420E-003;7.649270701222122E-004;
2.406666666666667E+009;1.813472956418991E-001;1.255618128925562E-002;5.068217404186726E-003;7.105698459781706E-004;
2.406833333333334E+009;1.813263893127441E-001;1.234564743936062E-002;5.002623889595270E-003;3.305317950434983E-004;
2.407000000000000E+009;1.810266375541687E-001;1.211745291948319E-002;4.870176315307617E-003;1.364805648336187E-004;
2.407166666666667E+009;1.808916777372360E-001;1.199316978454590E-002;4.785030148923397E-003;1.946688098541927E-005;
2.407333333333334E+009;1.804464161396027E-001;1.147727668285370E-002;4.850852768868208E-003;-5.627020800602622E-005;
2.407500000000000E+009;1.797654777765274E-001;1.113339327275753E-002;4.732464905828238E-003;-2.862691471818835E-004;
2.407666666666667E+009;1.793533116579056E-001;1.076850481331348E-002;4.770590923726559E-003;-5.474765202961862E-004;
2.407833333333334E+009;1.787184923887253E-001;1.006716582924128E-002;4.471023567020893E-003;-5.919119575992227E-004;
2.408000000000000E+009;1.780300289392471E-001;9.341213852167130E-003;4.518530331552029E-003;-8.157576667144895E-004;
2.408166666666667E+009;1.772142499685288E-001;8.861058391630650E-003;4.264978691935539E-003;-1.083599519915879E-003;
2.408333333333334E+009;1.767617911100388E-001;7.878705859184265E-003;4.225358366966248E-003;-1.174153294414282E-003;
2.408500000000000E+009;1.757829934358597E-001;6.913404911756516E-003;4.108718596398830E-003;-1.396142062731087E-003;
2.408666666666667E+009;1.750549226999283E-001;5.791795440018177E-003;3.892105538398027E-003;-1.378395361825824E-003;
2.408833333333334E+009;1.741563677787781E-001;4.746729508042336E-003;3.914391156286001E-003;-1.670596655458212E-003;
2.409000000000000E+009;1.732372641563416E-001;3.474710043519735E-003;3.754487494006753E-003;-1.594934263266623E-003;
2.409166666666667E+009;1.723765581846237E-001;2.150543732568622E-003;3.713000100106001E-003;-1.757452031597495E-003;
2.409333333333334E+009;1.716259717941284E-001;7.090313010849059E-004;3.483916632831097E-003;-1.911362283863127E-003;
2.409500000000000E+009;1.707701086997986E-001;-9.930037194862962E-004;3.403438488021493E-003;-2.065371954813600E-003;
2.409666666666667E+009;1.700394302606583E-001;-2.535648411139846E-003;3.372472245246172E-003;-2.018554601818323E-003;
2.409833333333334E+009;1.692788898944855E-001;-4.370971117168665E-003;3.302641678601503E-003;-2.243853406980634E-003;
2.410000000000000E+009;1.685211956501007E-001;-5.956375040113926E-003;3.090319456532598E-003;-2.040953608229756E-003;
2.410166666666667E+009;1.679022163152695E-001;-7.883422076702118E-003;2.947223605588079E-003;-2.225710311904550E-003;
2.410333333333334E+009;1.674767285585403E-001;-9.788225404918194E-003;2.815267071127892E-003;-2.200494986027479E-003;
2.410500000000000E+009;1.669382750988007E-001;-1.170739810913801E-002;2.682294230908155E-003;-2.417993266135454E-003;
2.410666666666667E+009;1.663572490215302E-001;-1.412702538073063E-002;2.573949983343482E-003;-2.307371469214559E-003;
2.410833333333334E+009;1.661021113395691E-001;-1.601146720349789E-002;2.525252057239413E-003;-2.326772082597017E-003;
2.411000000000000E+009;1.661041229963303E-001;-1.792225614190102E-002;2.356259617954493E-003;-2.546962816268206E-003;
2.411166666666667E+009;1.657459437847138E-001;-2.012847177684307E-002;2.141443546861410E-003;-2.573462901636958E-003;
2.411333333333334E+009;1.656350493431091E-001;-2.219285443425179E-002;2.176315989345312E-003;-2.508901292458177E-003;
2.411500000000000E+009;1.657542586326599E-001;-2.444283850491047E-002;2.033641329035163E-003;-2.516570733860135E-003;
2.411666666666667E+009;1.659843623638153E-001;-2.651423029601574E-002;1.999096712097526E-003;-2.591252792626619E-003;
2.411833333333334E+009;1.660275608301163E-001;-2.850703522562981E-002;1.808922970667481E-003;-2.534562023356557E-003;
2.412000000000000E+009;1.663965433835983E-001;-3.061510995030403E-002;1.566013670526445E-003;-2.629462163895369E-003;
2.412166666666667E+009;1.666404753923416E-001;-3.285869210958481E-002;1.601551892235875E-003;-2.549081575125456E-003;
2.412333333333334E+009;1.674141734838486E-001;-3.482975810766220E-002;1.269700587727130E-003;-2.727287122979760E-003;
2.412500000000000E+009;1.677336841821671E-001;-3.669428080320358E-002;1.223040395416319E-003;-2.551022684201598E-003;
2.412666666666667E+009;1.683940589427948E-001;-3.874343633651733E-002;1.161335268989205E-003;-2.438026480376720E-003;
2.412833333333334E+009;1.690640747547150E-001;-4.049210250377655E-002;1.018331968225539E-003;-2.553922357037664E-003;
2.413000000000000E+009;1.696637719869614E-001;-4.231023043394089E-002;9.320365497842431E-004;-2.402779646217823E-003;
2.413166666666667E+009;1.702913045883179E-001;-4.382392764091492E-002;8.943978464230895E-004;-2.486232900992036E-003;
2.413333333333334E+009;1.710391044616699E-001;-4.566798359155655E-002;6.458249990828335E-004;-2.538852859288454E-003;
2.413500000000000E+009;1.719837486743927E-001;-4.713837057352066E-002;6.600608467124403E-004;-2.400724915787578E-003;
2.413666666666667E+009;1.727459579706192E-001;-4.861083254218102E-002;5.225260974839330E-004;-2.171067055314779E-003;
2.413833333333334E+009;1.736337691545487E-001;-4.994267970323563E-002;5.763817462138832E-004;-2.198704285547137E-003;
2.414000000000000E+009;1.742212325334549E-001;-5.124739930033684E-002;3.988064418081194E-004;-2.419812371954322E-003;
2.414166666666667E+009;1.751185357570648E-001;-5.238940939307213E-002;3.906902275048196E-004;-2.309762174263597E-003;
2.414333333333334E+009;1.757321804761887E-001;-5.337208136916161E-002;2.533454971853644E-004;-2.396661555394530E-003;
2.414500000000000E+009;1.764696091413498E-001;-5.430757254362106E-002;3.143180510960519E-004;-2.170496620237827E-003;
2.414666666666667E+009;1.771316826343536E-001;-5.497705936431885E-002;1.901500800158829E-004;-2.176214940845966E-003;
2.414833333333334E+009;1.777030825614929E-001;-5.586596578359604E-002;1.483781379647553E-004;-2.008555224165320E-003;
2.415000000000000E+009;1.780999004840851E-001;-5.649909377098084E-002;2.150111686205491E-004;-2.135306363925338E-003;
2.415166666666667E+009;1.785431653261185E-001;-5.694157257676125E-002;1.682680886005983E-004;-2.021458931267262E-003;
2.415333333333334E+009;1.790162324905396E-001;-5.760635063052177E-002;-2.968865373986773E-005;-1.932238927111030E-003;
2.415500000000000E+009;1.793843358755112E-001;-5.784631893038750E-002;7.384618220385164E-005;-1.855778973549604E-003;
2.415666666666667E+009;1.795560121536255E-001;-5.804330855607987E-002;-6.687930726911873E-005;-2.021304797381163E-003;
2.415833333333334E+009;1.797732561826706E-001;-5.826197192072868E-002;-4.907854599878192E-005;-1.881648669950664E-003;
2.416000000000000E+009;1.798165291547775E-001;-5.854236334562302E-002;-1.617730449652299E-004;-1.833883230574429E-003;
2.416166666666667E+009;1.797255128622055E-001;-5.864777415990830E-002;-2.129565837094560E-005;-1.699387212283909E-003;
2.416333333333334E+009;1.795990467071533E-001;-5.869733914732933E-002;-1.048640042426996E-004;-1.724200206808746E-003;
2.416500000000000E+009;1.793048828840256E-001;-5.884258821606636E-002;-2.724276855587959E-004;-1.766290399245918E-003;
2.416666666666667E+009;1.789449304342270E-001;-5.870746821165085E-002;-1.678686676314101E-004;-1.590408384799957E-003;
2.416833333333334E+009;1.785578131675720E-001;-5.909331887960434E-002;-2.143335441360250E-004;-1.650340971536934E-003;
2.417000000000000E+009;1.777997463941574E-001;-5.896303430199623E-002;-1.475868193665519E-004;-1.471769646741450E-003;
2.417166666666667E+009;1.770467609167099E-001;-5.890537053346634E-002;-2.025560970650986E-004;-1.617083558812738E-003;
2.417333333333334E+009;1.763822883367539E-001;-5.905668810009956E-002;-2.827248827088624E-004;-1.520850230008364E-003;
2.417500000000000E+009;1.753687262535095E-001;-5.927570164203644E-002;-2.744106750469655E-004;-1.562281860969961E-003;
2.417666666666667E+009;1.745737344026566E-001;-5.931000784039497E-002;-3.929127415176481E-004;-1.580620300956070E-003;
2.417833333333334E+009;1.734670698642731E-001;-5.948156118392944E-002;-4.325282352510840E-004;-1.382371992804110E-003;
2.418000000000000E+009;1.722006946802139E-001;-5.988050624728203E-002;-5.269979010336101E-004;-1.454172423109412E-003;
2.418166666666667E+009;1.710200756788254E-001;-5.996879935264587E-002;-3.747424052562565E-004;-1.289430540055037E-003;
2.418333333333334E+009;1.699806898832321E-001;-6.049666181206703E-002;-5.563239101320505E-004;-1.245381543412805E-003;
2.418500000000000E+009;1.684405207633972E-001;-6.095114350318909E-002;-5.361014627851546E-004;-1.319713541306555E-003;
2.418666666666667E+009;1.672243475914002E-001;-6.144589930772781E-002;-5.867618019692600E-004;-1.212302595376968E-003;
2.418833333333334E+009;1.657355725765228E-001;-6.204161420464516E-002;-5.596859264187515E-004;-1.306985737755895E-003;
2.419000000000000E+009;1.642735004425049E-001;-6.283476948738098E-002;-4.936484619975090E-004;-1.220541424117982E-003;
2.419166666666667E+009;1.630354374647141E-001;-6.352882087230682E-002;-6.925966590642929E-004;-1.104057999327779E-003;
2.419333333333334E+009;1.614941954612732E-001;-6.438705325126648E-002;-7.148366421461105E-004;-1.235272386111319E-003;
2.419500000000000E+009;1.600673943758011E-001;-6.548190116882324E-002;-6.624571396969259E-004;-1.017695292830467E-003;
2.419666666666667E+009;1.588534414768219E-001;-6.654014438390732E-002;-6.649279384873807E-004;-1.024316530674696E-003;
2.419833333333334E+009;1.574870645999908E-001;-6.755914539098740E-002;-6.858638953417540E-004;-9.126191143877804E-004;
2.420000000000000E+009;1.563801765441895E-001;-6.882728636264801E-002;-6.070242961868644E-004;-9.126358199864626E-004;
2.420166666666667E+009;1.551207154989243E-001;-7.027469575405121E-002;-7.230424671433866E-004;-8.220521849580109E-004;
2.420333333333334E+009;1.538417190313339E-001;-7.172210514545441E-002;-7.035739254206419E-004;-8.605663897469640E-004;
2.420500000000000E+009;1.529686152935028E-001;-7.302183657884598E-002;-6.434834212996066E-004;-6.793563952669501E-004;
2.420666666666667E+009;1.518131047487259E-001;-7.462238520383835E-002;-7.035961025394499E-004;-8.649506489746273E-004;
2.420833333333334E+009;1.509968042373657E-001;-7.633367925882340E-002;-6.596301100216806E-004;-6.950751412659884E-004;
2.421000000000000E+009;1.501562744379044E-001;-7.801192998886108E-002;-7.731856312602758E-004;-5.333797889761627E-004;
2.421166666666667E+009;1.496719270944595E-001;-7.978747785091400E-002;-6.311051547527313E-004;-5.795396282337606E-004;
2.421333333333334E+009;1.491288542747498E-001;-8.160479366779327E-002;-6.521500181406736E-004;-5.493869539350271E-004;
2.421500000000000E+009;1.486039757728577E-001;-8.333374559879303E-002;-6.226907717064023E-004;-4.694397503044456E-004;
2.421666666666667E+009;1.481526345014572E-001;-8.518154919147492E-002;-5.894528003409505E-004;-5.137182306498289E-004;
2.421833333333334E+009;1.478649973869324E-001;-8.701646327972412E-002;-3.801495768129826E-004;-3.912578686140478E-004;
2.422000000000000E+009;1.476352810859680E-001;-8.875481784343720E-002;-5.144147435203195E-004;-5.602787714451551E-004;
2.422166666666667E+009;1.475566327571869E-001;-9.083364158868790E-002;-4.433687427081168E-004;-4.626397276297212E-004;
2.422333333333334E+009;1.475628465414047E-001;-9.255339950323105E-002;-4.834366845898330E-004;-4.280126595403999E-004;
2.422500000000000E+009;1.477500051259995E-001;-9.438165277242661E-002;-4.798971640411764E-004;-4.754218680318445E-004;
2.422666666666667E+009;1.478012949228287E-001;-9.610591083765030E-002;-2.495973312761635E-004;-4.622147534973919E-004;
2.422833333333334E+009;1.482171267271042E-001;-9.792624413967133E-002;-3.392539219930768E-004;-4.011474375147373E-004;
2.423000000000000E+009;1.485191136598587E-001;-9.954530000686646E-002;-4.129685112275183E-004;-5.212398828007281E-004;
2.423166666666667E+009;1.489865928888321E-001;-1.012855544686317E-001;-3.231882001273334E-004;-3.675963671412319E-004;
2.423333333333334E+009;1.496692597866058E-001;-1.026300266385078E-001;-3.765364526771009E-004;-3.794469521380961E-004;
2.423500000000000E+009;1.501376330852509E-001;-1.042456924915314E-001;-2.907795715145767E-004;-5.632506799884141E-004;
2.423666666666667E+009;1.506317108869553E-001;-1.058058589696884E-001;-2.366660628467798E-004;-5.123228766024113E-004;
2.423833333333334E+009;1.513813734054565E-001;-1.071660593152046E-001;-2.680629841051996E-004;-4.634073411580175E-004;
2.424000000000000E+009;1.519226878881455E-001;-1.083099842071533E-001;-2.240669709863141E-004;-5.542687140405178E-004;
2.424166666666667E+009;1.526011526584625E-001;-1.094385385513306E-001;-3.386504249647260E-004;-5.276386509649456E-004;
2.424333333333334E+009;1.534630805253983E-001;-1.105987727642059E-001;-4.678436962421984E-004;-5.516196833923459E-004;
2.424500000000000E+009;1.539666503667831E-001;-1.117396578192711E-001;-1.972390891751275E-004;-4.143785918131471E-004;
2.424666666666667E+009;1.547463387250900E-001;-1.124416738748550E-001;-4.026588576380163E-004;-6.124560022726655E-004;
2.424833333333334E+009;1.552529782056809E-001;-1.133822947740555E-001;-3.853669331874698E-004;-4.755706759169698E-004;
2.425000000000000E+009;1.559530496597290E-001;-1.140599846839905E-001;-3.189787967130542E-004;-5.358993657864630E-004;
2.425166666666667E+009;1.561701595783234E-001;-1.146869212388992E-001;-3.379483241587877E-004;-5.579108837991953E-004;
2.425333333333334E+009;1.569559574127197E-001;-1.153013184666634E-001;-3.785289882216603E-004;-4.546663549263030E-004;
2.425500000000000E+009;1.572695374488831E-001;-1.156786158680916E-001;-3.372530336491764E-004;-4.949553404003382E-004;
2.425666666666667E+009;1.575516313314438E-001;-1.162586137652397E-001;-3.498389269225299E-004;-4.590063763316721E-004;
2.425833333333334E+009;1.579903960227966E-001;-1.164070591330528E-001;-2.758752962108702E-004;-3.395192907191813E-004;
2.426000000000000E+009;1.580340862274170E-001;-1.167378947138786E-001;-3.975959261879325E-004;-5.075088702142239E-004;
2.426166666666667E+009;1.582859307527542E-001;-1.169722005724907E-001;-4.107603454031050E-004;-5.023731500841677E-004;
2.426333333333334E+009;1.581979542970657E-001;-1.170393675565720E-001;-2.938000543508679E-004;-5.111680366098881E-004;
2.426500000000000E+009;1.581373065710068E-001;-1.171445474028587E-001;-3.509735688567162E-004;-4.991203895770013E-004;
2.426666666666667E+009;1.580214947462082E-001;-1.170380115509033E-001;-4.300672444514930E-004;-3.698665241245180E-004;
2.426833333333334E+009;1.576051414012909E-001;-1.170388907194138E-001;-4.385098873171955E-004;-4.760382871609181E-004;
2.427000000000000E+009;1.571902483701706E-001;-1.171510070562363E-001;-3.939752059523016E-004;-3.944037307519466E-004;
2.427166666666667E+009;1.566495299339294E-001;-1.169361472129822E-001;-3.792333009187132E-004;-5.250146496109664E-004;
2.427333333333334E+009;1.559329032897949E-001;-1.170612871646881E-001;-3.404505841899663E-004;-4.313174576964229E-004;
2.427500000000000E+009;1.552706062793732E-001;-1.170502752065659E-001;-2.993486996274442E-004;-4.768365470226854E-004;
2.427666666666667E+009;1.544203013181686E-001;-1.171071678400040E-001;-5.393799510784447E-004;-3.151976270601153E-004;
