# Version 1.00
#
freq[Hz];re:Trc1_S11;im:Trc1_S11;re:Trc2_S21;im:Trc2_S21;
2.400000000000000E+009;1.731562316417694E-001;4.951402172446251E-002;1.477217767387629E-003;3.366386983543634E-003;
2.400166666666667E+009;1.737121194601059E-001;4.883936047554016E-002;1.782083651050925E-003;3.233054652810097E-003;
2.400333333333334E+009;1.742666512727737E-001;4.813953116536140E-002;1.870172563940287E-003;3.293480956926942E-003;
2.400500000000000E+009;1.747988909482956E-001;4.742631688714027E-002;1.815074938349426E-003;3.312894608825445E-003;
2.400666666666667E+009;1.749510169029236E-001;4.663958400487900E-002;1.810534158721566E-003;3.262629965320230E-003;
2.400833333333334E+009;1.754577308893204E-001;4.625523462891579E-002;2.038567792624235E-003;3.124495735391974E-003;
2.401000000000000E+009;1.756747961044312E-001;4.569640755653381E-002;2.068160567432642E-003;3.235290059819818E-003;
2.401166666666667E+009;1.758574694395065E-001;4.487858340144157E-002;2.173928543925285E-003;3.039655275642872E-003;
2.401333333333334E+009;1.758205443620682E-001;4.427828639745712E-002;2.284120768308640E-003;3.024078672751784E-003;
2.401500000000000E+009;1.758994609117508E-001;4.373592510819435E-002;2.428114181384444E-003;2.950852038338780E-003;
2.401666666666667E+009;1.760130226612091E-001;4.317542165517807E-002;2.371482783928514E-003;2.918437123298645E-003;
2.401833333333334E+009;1.760151833295822E-001;4.230380803346634E-002;2.555528189986944E-003;2.911037299782038E-003;
2.402000000000000E+009;1.757055073976517E-001;4.149467870593071E-002;2.743575256317854E-003;2.896947087720037E-003;
2.402166666666667E+009;1.756537854671478E-001;4.049960523843765E-002;2.701098797842860E-003;2.684606239199638E-003;
2.402333333333334E+009;1.754932999610901E-001;3.968607261776924E-002;2.975910203531385E-003;2.652385039255023E-003;
2.402500000000000E+009;1.754911839962006E-001;3.884466364979744E-002;2.941780490800738E-003;2.545199356973171E-003;
2.402666666666667E+009;1.752444058656693E-001;3.760131075978279E-002;3.102764720097184E-003;2.502451883628964E-003;
2.402833333333334E+009;1.747430264949799E-001;3.663972020149231E-002;3.272528992965818E-003;2.316303784027696E-003;
2.403000000000000E+009;1.745104044675827E-001;3.538312017917633E-002;3.601021831855178E-003;2.086849883198738E-003;
2.403166666666667E+009;1.742967218160629E-001;3.417743369936943E-002;3.580885007977486E-003;2.157554961740971E-003;
2.403333333333334E+009;1.737861037254334E-001;3.269915282726288E-002;3.722884459421039E-003;1.891602762043476E-003;
2.403500000000000E+009;1.734628230333328E-001;3.123301826417446E-002;3.597488626837730E-003;1.620447030290961E-003;
2.403666666666667E+009;1.729067116975784E-001;2.967887185513973E-002;3.716054838150740E-003;1.670482801273465E-003;
2.403833333333334E+009;1.728533655405045E-001;2.814641408622265E-002;3.953534178435803E-003;1.557430136017501E-003;
2.404000000000000E+009;1.722352057695389E-001;2.637634612619877E-002;4.067042376846075E-003;1.203407067805529E-003;
2.404166666666667E+009;1.717429608106613E-001;2.444554865360260E-002;4.060628823935986E-003;1.039120252244175E-003;
2.404333333333334E+009;1.712761968374252E-001;2.261991426348686E-002;3.875943599268794E-003;7.809361559338868E-004;
2.404500000000000E+009;1.708122938871384E-001;2.058470249176025E-002;4.217469133436680E-003;5.654569831676781E-004;
2.404666666666667E+009;1.708256453275681E-001;1.896054856479168E-002;4.110377281904221E-003;4.828486707992852E-004;
2.404833333333334E+009;1.705641746520996E-001;1.700337044894695E-002;3.884740406647325E-003;1.155534118879587E-004;
2.405000000000000E+009;1.700638085603714E-001;1.502520311623812E-002;3.831675741821528E-003;7.043033747322625E-006;
2.405166666666667E+009;1.700548231601715E-001;1.284815836697817E-002;3.876944305375218E-003;-9.480190783506259E-005;
2.405333333333334E+009;1.701899021863937E-001;1.071480661630631E-002;3.823296632617712E-003;-1.284567551920191E-004;
2.405500000000000E+009;1.701733022928238E-001;8.992169983685017E-003;3.851342014968395E-003;-5.264744977466762E-004;
2.405666666666667E+009;1.703008264303207E-001;6.752443034201860E-003;3.542689606547356E-003;-5.284055368974805E-004;
2.405833333333334E+009;1.702190786600113E-001;4.907098133116961E-003;3.707917407155037E-003;-5.270124529488385E-004;
2.406000000000000E+009;1.706435531377792E-001;2.687925938516855E-003;3.425026312470436E-003;-7.478729239664972E-004;
2.406166666666667E+009;1.707919239997864E-001;7.852758863009512E-004;3.281974000856280E-003;-7.265369640663266E-004;
2.406333333333334E+009;1.713621467351914E-001;-1.145894173532724E-003;3.216509940102696E-003;-9.971166728064418E-004;
2.406500000000000E+009;1.718117743730545E-001;-3.437748411670327E-003;3.100087167695165E-003;-1.071577658876777E-003;
2.406666666666667E+009;1.720502376556397E-001;-5.254209507256746E-003;3.107270458713174E-003;-1.012463821098208E-003;
2.406833333333334E+009;1.727263927459717E-001;-7.416067179292440E-003;2.962674945592880E-003;-1.010754611343145E-003;
2.407000000000000E+009;1.734030395746231E-001;-9.187988936901093E-003;2.930783666670322E-003;-1.054354012012482E-003;
2.407166666666667E+009;1.741075515747070E-001;-1.112789474427700E-002;2.837733598425984E-003;-1.176063437014818E-003;
2.407333333333334E+009;1.746844649314880E-001;-1.292824652045965E-002;2.844495931640267E-003;-1.277075964026153E-003;
2.407500000000000E+009;1.754357516765595E-001;-1.482260320335627E-002;2.776225330308080E-003;-1.280116382986307E-003;
2.407666666666667E+009;1.763179004192352E-001;-1.649332232773304E-002;2.731775864958763E-003;-1.422079978510737E-003;
2.407833333333334E+009;1.770039200782776E-001;-1.854018680751324E-002;2.434447640553117E-003;-1.445894478820264E-003;
2.408000000000000E+009;1.778441369533539E-001;-2.013406157493591E-002;2.600207459181547E-003;-1.554048620164394E-003;
2.408166666666667E+009;1.784229129552841E-001;-2.147093228995800E-002;2.524690469726920E-003;-1.716853701509535E-003;
2.408333333333334E+009;1.793478131294251E-001;-2.300968579947949E-002;2.534993225708604E-003;-1.697248546406627E-003;
2.408500000000000E+009;1.798352599143982E-001;-2.446215972304344E-002;2.341174054890871E-003;-1.848249463364482E-003;
2.408666666666667E+009;1.805252432823181E-001;-2.591273561120033E-002;2.198483794927597E-003;-1.859726733528078E-003;
2.408833333333334E+009;1.811054795980454E-001;-2.708327583968639E-002;2.071508439257741E-003;-1.774772186763585E-003;
2.409000000000000E+009;1.815658211708069E-001;-2.816713415086269E-002;1.949645346030593E-003;-1.910540275275707E-003;
2.409166666666667E+009;1.821106374263763E-001;-2.930141054093838E-002;1.789198722690344E-003;-1.858043484389782E-003;
2.409333333333334E+009;1.826544553041458E-001;-3.019173815846443E-002;1.596517278812826E-003;-1.856932532973588E-003;
2.409500000000000E+009;1.830168068408966E-001;-3.096954524517059E-002;1.690468285232782E-003;-1.882607815787196E-003;
2.409666666666667E+009;1.831989437341690E-001;-3.164287284016609E-002;1.536009483970702E-003;-1.671025296673179E-003;
2.409833333333334E+009;1.836415231227875E-001;-3.204980120062828E-002;1.460438128560782E-003;-1.671723905019462E-003;
2.410000000000000E+009;1.839010715484619E-001;-3.267168998718262E-002;1.522388542070985E-003;-1.697986503131688E-003;
2.410166666666667E+009;1.840364038944244E-001;-3.318455442786217E-002;1.443787012249231E-003;-1.576561364345253E-003;
2.410333333333334E+009;1.841953396797180E-001;-3.344902396202087E-002;1.542216166853905E-003;-1.607896527275443E-003;
2.410500000000000E+009;1.843594163656235E-001;-3.370348364114761E-002;1.483973464928567E-003;-1.608051359653473E-003;
2.410666666666667E+009;1.841409802436829E-001;-3.420407325029373E-002;1.455313875339925E-003;-1.550206565298140E-003;
2.410833333333334E+009;1.840623021125794E-001;-3.437339887022972E-002;1.577155431732535E-003;-1.534409471787512E-003;
2.411000000000000E+009;1.839581578969955E-001;-3.478743135929108E-002;1.501847291365266E-003;-1.658911816775799E-003;
2.411166666666667E+009;1.836060434579849E-001;-3.509565070271492E-002;1.545850769616664E-003;-1.650211866945028E-003;
2.411333333333334E+009;1.832952648401260E-001;-3.531575202941895E-002;1.598444185219705E-003;-1.693809987045825E-003;
2.411500000000000E+009;1.827140748500824E-001;-3.584035113453865E-002;1.689906581304967E-003;-1.624220400117338E-003;
2.411666666666667E+009;1.822684854269028E-001;-3.608192130923271E-002;1.805967069230974E-003;-1.733708195388317E-003;
2.411833333333334E+009;1.817262321710587E-001;-3.630586713552475E-002;1.703927991911769E-003;-1.940902322530747E-003;
2.412000000000000E+009;1.809673309326172E-001;-3.674999251961708E-002;1.613424508832395E-003;-1.932498416863382E-003;
2.412166666666667E+009;1.800809055566788E-001;-3.722016513347626E-002;1.658547436818481E-003;-2.050927141681314E-003;
2.412333333333334E+009;1.792465746402741E-001;-3.770558163523674E-002;1.700508408248425E-003;-2.173778135329485E-003;
2.412500000000000E+009;1.782102882862091E-001;-3.817599639296532E-002;1.689909258857369E-003;-2.311941003426909E-003;
2.412666666666667E+009;1.772017329931259E-001;-3.896493092179298E-002;1.700779888778925E-003;-2.321553649380803E-003;
2.412833333333334E+009;1.760878413915634E-001;-3.964433819055557E-002;1.658941037021577E-003;-2.457947935909033E-003;
2.413000000000000E+009;1.748688071966171E-001;-4.023694247007370E-002;1.600025454536080E-003;-2.659194404259324E-003;
2.413166666666667E+009;1.735526919364929E-001;-4.103809595108032E-002;1.569437095895410E-003;-2.759958617389202E-003;
2.413333333333334E+009;1.720995157957077E-001;-4.199802130460739E-002;1.567514031194150E-003;-2.755947876721621E-003;
2.413500000000000E+009;1.709870100021362E-001;-4.273152351379395E-002;1.274141832254827E-003;-3.013053443282843E-003;
2.413666666666667E+009;1.697917878627777E-001;-4.391505941748619E-002;1.057799323461950E-003;-2.928982488811016E-003;
2.413833333333334E+009;1.683326810598373E-001;-4.487548395991325E-002;1.001272117719054E-003;-2.918455749750137E-003;
2.414000000000000E+009;1.669133752584457E-001;-4.628089070320129E-002;8.286440279334784E-004;-3.154415171593428E-003;
2.414166666666667E+009;1.657652556896210E-001;-4.740602895617485E-002;7.258018595166504E-004;-3.094419836997986E-003;
2.414333333333334E+009;1.645739227533341E-001;-4.875203222036362E-002;7.214848301373422E-004;-3.092550439760089E-003;
2.414500000000000E+009;1.634689718484879E-001;-5.023717135190964E-002;5.724934744648635E-004;-3.215073375031352E-003;
2.414666666666667E+009;1.621378064155579E-001;-5.164020135998726E-002;4.052637377753854E-004;-3.181631676852703E-003;
2.414833333333334E+009;1.609776020050049E-001;-5.349818244576454E-002;2.048021124210209E-004;-3.249893430620432E-003;
2.415000000000000E+009;1.600451469421387E-001;-5.498355627059937E-002;1.017513714032248E-004;-3.303648671135306E-003;
2.415166666666667E+009;1.588880419731140E-001;-5.672676861286163E-002;3.095663487329148E-005;-3.317201742902398E-003;
2.415333333333334E+009;1.581573039293289E-001;-5.861622095108032E-002;-2.355361648369581E-004;-3.170370589941740E-003;
2.415500000000000E+009;1.571414321660996E-001;-6.027708575129509E-002;-2.125714672729373E-004;-3.244924824684858E-003;
2.415666666666667E+009;1.562629044055939E-001;-6.213866546750069E-002;-4.858443571720272E-004;-3.258675104007125E-003;
2.415833333333334E+009;1.556750088930130E-001;-6.412814557552338E-002;-4.607726586982608E-004;-3.338350448757410E-003;
2.416000000000000E+009;1.549054384231567E-001;-6.602969020605087E-002;-6.769380997866392E-004;-3.335796529427171E-003;
2.416166666666667E+009;1.545767933130264E-001;-6.802811473608017E-002;-7.814841810613871E-004;-3.140249988064170E-003;
2.416333333333334E+009;1.539193391799927E-001;-7.006926089525223E-002;-9.825464803725481E-004;-3.104581031948328E-003;
2.416500000000000E+009;1.534953713417053E-001;-7.210329174995422E-002;-1.034604851156473E-003;-3.060331335291266E-003;
2.416666666666667E+009;1.530367285013199E-001;-7.405074685811997E-002;-1.279558753594756E-003;-3.113372018560767E-003;
2.416833333333334E+009;1.528757065534592E-001;-7.622829824686050E-002;-1.387214870192111E-003;-3.005716251209378E-003;
2.417000000000000E+009;1.524872332811356E-001;-7.796227186918259E-002;-1.567765721119940E-003;-2.916861558333039E-003;
2.417166666666667E+009;1.523223817348480E-001;-7.975472509860992E-002;-1.698372303508222E-003;-2.634712029248476E-003;
2.417333333333334E+009;1.522483825683594E-001;-8.165487647056580E-002;-1.829868997447193E-003;-2.615680685266852E-003;
2.417500000000000E+009;1.521629095077515E-001;-8.362030982971191E-002;-1.934300176799297E-003;-2.487308112904429E-003;
2.417666666666667E+009;1.521640121936798E-001;-8.513448387384415E-002;-1.854312256909907E-003;-2.451808890327811E-003;
2.417833333333334E+009;1.521429419517517E-001;-8.664480596780777E-002;-2.080538775771856E-003;-2.289583673700690E-003;
2.418000000000000E+009;1.521210521459580E-001;-8.830154687166214E-002;-2.020033542066813E-003;-2.288217656314373E-003;
2.418166666666667E+009;1.522814780473709E-001;-8.951749652624130E-002;-2.033109078183770E-003;-1.868291408754885E-003;
2.418333333333334E+009;1.526720523834229E-001;-9.099699556827545E-002;-2.075968310236931E-003;-1.960748108103871E-003;
2.418500000000000E+009;1.525642126798630E-001;-9.217167645692825E-002;-2.267249859869480E-003;-1.870755571871996E-003;
2.418666666666667E+009;1.530784070491791E-001;-9.319747984409332E-002;-2.091744216158986E-003;-1.622664043679833E-003;
2.418833333333334E+009;1.531101465225220E-001;-9.420498460531235E-002;-2.211828948929906E-003;-1.481782877817750E-003;
2.419000000000000E+009;1.532272100448608E-001;-9.483263641595841E-002;-2.221831819042563E-003;-1.347934943623841E-003;
2.419166666666667E+009;1.535756289958954E-001;-9.575936198234558E-002;-2.212532097473741E-003;-1.360658206976950E-003;
2.419333333333334E+009;1.536343842744827E-001;-9.612993150949478E-002;-2.254104940220714E-003;-1.056515378877521E-003;
2.419500000000000E+009;1.539386510848999E-001;-9.688758850097656E-002;-2.227971563115716E-003;-8.720324258320034E-004;
2.419666666666667E+009;1.542759686708450E-001;-9.726384282112122E-002;-2.127997577190399E-003;-1.037590438500047E-003;
2.419833333333334E+009;1.543712019920349E-001;-9.747611731290817E-002;-2.021939959377050E-003;-9.124012431129813E-004;
2.420000000000000E+009;1.546455025672913E-001;-9.774848818778992E-002;-1.880032243207097E-003;-9.324614075012505E-004;
2.420166666666667E+009;1.547391712665558E-001;-9.777098894119263E-002;-1.964892726391554E-003;-7.570408633910120E-004;
2.420333333333334E+009;1.549872756004334E-001;-9.787677228450775E-002;-1.826446619816124E-003;-6.802084972150624E-004;
2.420500000000000E+009;1.549541503190994E-001;-9.752319008111954E-002;-1.758987200446427E-003;-6.714436458423734E-004;
2.420666666666667E+009;1.549345999956131E-001;-9.724114090204239E-002;-1.847181585617364E-003;-7.339093717746437E-004;
2.420833333333334E+009;1.548732668161392E-001;-9.706762433052063E-002;-1.678042695857585E-003;-7.573888287879527E-004;
2.421000000000000E+009;1.547431647777557E-001;-9.700486809015274E-002;-1.747669070027769E-003;-6.494668778032064E-004;
2.421166666666667E+009;1.545414328575134E-001;-9.668353199958801E-002;-1.690865727141500E-003;-8.048629388213158E-004;
2.421333333333334E+009;1.544193476438522E-001;-9.634703397750855E-002;-1.648845151066780E-003;-7.002470665611327E-004;
2.421500000000000E+009;1.540890187025070E-001;-9.594722837209702E-002;-1.632393687032163E-003;-7.840945618227124E-004;
2.421666666666667E+009;1.535378843545914E-001;-9.572140127420425E-002;-1.727726776152849E-003;-8.580721332691610E-004;
2.421833333333334E+009;1.530795842409134E-001;-9.540532529354096E-002;-1.907541067339480E-003;-7.565350970253348E-004;
2.422000000000000E+009;1.523195505142212E-001;-9.510159492492676E-002;-1.769356429576874E-003;-7.345258491113782E-004;
2.422166666666667E+009;1.516207754611969E-001;-9.477662295103073E-002;-1.953296130523086E-003;-6.720408564433456E-004;
2.422333333333334E+009;1.507993042469025E-001;-9.456695616245270E-002;-1.953750615939498E-003;-5.726491799578071E-004;
2.422500000000000E+009;1.497118473052979E-001;-9.424128383398056E-002;-2.127191517502070E-003;-7.103298557922244E-004;
2.422666666666667E+009;1.485710740089417E-001;-9.402958303689957E-002;-2.072091214358807E-003;-4.693699884228408E-004;
2.422833333333334E+009;1.475789695978165E-001;-9.402145445346832E-002;-2.110425382852554E-003;-4.000790067948401E-004;
2.423000000000000E+009;1.462745070457459E-001;-9.387342631816864E-002;-2.023469191044569E-003;-2.586700429674238E-004;
2.423166666666667E+009;1.449494808912277E-001;-9.380984306335449E-002;-1.906128483824432E-003;-3.230033325962722E-004;
2.423333333333334E+009;1.435624212026596E-001;-9.357751905918121E-002;-1.947816810570657E-003;-1.776767603587359E-004;
2.423500000000000E+009;1.421550512313843E-001;-9.380172938108444E-002;-1.778578734956682E-003;-1.219582118210383E-004;
2.423666666666667E+009;1.404509693384171E-001;-9.405787289142609E-002;-1.743332832120359E-003;4.358518344815821E-005;
2.423833333333334E+009;1.390395313501358E-001;-9.409008920192719E-002;-1.633827225305140E-003;-2.195338165620342E-004;
2.424000000000000E+009;1.374749541282654E-001;-9.426610916852951E-002;-1.766367699019611E-003;-2.485253207851201E-004;
2.424166666666667E+009;1.358547508716583E-001;-9.451663494110107E-002;-1.660571666434407E-003;-2.588878851383925E-004;
2.424333333333334E+009;1.343958079814911E-001;-9.493058174848557E-002;-1.756341196596623E-003;-2.614799886941910E-004;
2.424500000000000E+009;1.330171674489975E-001;-9.545467793941498E-002;-1.659724628552795E-003;-1.699375716270879E-004;
2.424666666666667E+009;1.315822303295136E-001;-9.590675681829453E-002;-1.760103157721460E-003;-2.417149080429226E-004;
2.424833333333334E+009;1.299500614404678E-001;-9.664137661457062E-002;-1.758704660460353E-003;-3.683104587253183E-004;
2.425000000000000E+009;1.286021471023560E-001;-9.760622680187225E-002;-1.659283880144358E-003;-2.514185034669936E-004;
2.425166666666667E+009;1.271151602268219E-001;-9.849870949983597E-002;-1.960286172106862E-003;-3.286747378297150E-004;
2.425333333333334E+009;1.258343458175659E-001;-9.944205731153488E-002;-1.844676095061004E-003;-2.804847317747772E-004;
2.425500000000000E+009;1.245943903923035E-001;-1.005866676568985E-001;-2.220122143626213E-003;-2.223039919044823E-004;
2.425666666666667E+009;1.232947260141373E-001;-1.018699705600739E-001;-2.171504078432918E-003;-3.446488699410111E-004;
2.425833333333334E+009;1.222041919827461E-001;-1.030595600605011E-001;-2.301691100001335E-003;-3.457700659055263E-004;
2.426000000000000E+009;1.211582571268082E-001;-1.046124547719955E-001;-2.441033255308867E-003;-3.280090168118477E-004;
2.426166666666667E+009;1.203251928091049E-001;-1.060675010085106E-001;-2.408266765996814E-003;-3.297519288025796E-005;
2.426333333333334E+009;1.192816570401192E-001;-1.074926257133484E-001;-2.631927607581019E-003;1.152473269030452E-004;
2.426500000000000E+009;1.185493618249893E-001;-1.090623661875725E-001;-2.592755015939474E-003;2.720282936934382E-004;
2.426666666666667E+009;1.179746165871620E-001;-1.105849966406822E-001;-2.698591444641352E-003;3.436412080191076E-004;
2.426833333333334E+009;1.172089055180550E-001;-1.122335419058800E-001;-2.624466316774488E-003;4.254842060618103E-004;
2.427000000000000E+009;1.165547296404839E-001;-1.139877438545227E-001;-2.674905583262444E-003;5.586811457760632E-004;
2.427166666666667E+009;1.161331310868263E-001;-1.154338866472244E-001;-2.698604483157396E-003;6.919729639776051E-004;
2.427333333333334E+009;1.156367659568787E-001;-1.171718239784241E-001;-2.694814233109355E-003;8.156639523804188E-004;
2.427500000000000E+009;1.153884232044220E-001;-1.188759207725525E-001;-2.475235611200333E-003;8.731809211894870E-004;
2.427666666666667E+009;1.151460036635399E-001;-1.204191967844963E-001;-2.567924093455076E-003;1.066465745680034E-003;
