# Version 1.00
#
freq[Hz];re:Trc1_S11;im:Trc1_S11;re:Trc2_S21;im:Trc2_S21;
2.400000000000000E+009;1.558546870946884E-001;1.060804799199104E-001;-8.324559894390404E-004;5.842621903866530E-003;
2.400166666666667E+009;1.555115580558777E-001;1.036109477281570E-001;-5.330702406354249E-004;5.937300622463226E-003;
2.400333333333334E+009;1.556856185197830E-001;1.014016494154930E-001;-3.606712270993739E-004;5.723711568862200E-003;
2.400500000000000E+009;1.554519087076187E-001;9.860597550868988E-002;-2.821627713274211E-004;5.752818193286657E-003;
2.400666666666667E+009;1.555503010749817E-001;9.613447636365891E-002;-3.017026028828695E-005;5.661237053573132E-003;
2.400833333333334E+009;1.556319445371628E-001;9.308622777462006E-002;6.887211930006743E-005;5.721865221858025E-003;
2.401000000000000E+009;1.557163298130035E-001;9.008341282606125E-002;2.842367975972593E-004;5.686366464942694E-003;
2.401166666666667E+009;1.558645367622376E-001;8.754574507474899E-002;6.098898593336344E-004;5.612430628389120E-003;
2.401333333333334E+009;1.559485048055649E-001;8.463218808174133E-002;6.222347146831453E-004;5.591201130300760E-003;
2.401500000000000E+009;1.564582139253616E-001;8.169268071651459E-002;8.877225918695331E-004;5.546951666474342E-003;
2.401666666666667E+009;1.568241268396378E-001;7.862287014722824E-002;1.093750935979188E-003;5.609038751572371E-003;
2.401833333333334E+009;1.570950895547867E-001;7.599539309740067E-002;1.483159023337066E-003;5.429033655673266E-003;
2.402000000000000E+009;1.580725461244583E-001;7.304546982049942E-002;1.613940345123410E-003;5.388126242905855E-003;
2.402166666666667E+009;1.586648970842362E-001;7.049985229969025E-002;1.949904952198267E-003;5.180595908313990E-003;
2.402333333333334E+009;1.596599668264389E-001;6.759005039930344E-002;1.935496577061713E-003;5.048198625445366E-003;
2.402500000000000E+009;1.606289595365524E-001;6.525652110576630E-002;2.334423363208771E-003;4.995040129870176E-003;
2.402666666666667E+009;1.617702841758728E-001;6.288118660449982E-002;2.316525671631098E-003;4.749882500618696E-003;
2.402833333333334E+009;1.632079482078552E-001;6.048195809125900E-002;2.763593336567283E-003;4.454111680388451E-003;
2.403000000000000E+009;1.645699143409729E-001;5.796611681580544E-002;2.761651296168566E-003;4.276706837117672E-003;
2.403166666666667E+009;1.660409867763519E-001;5.576951056718826E-002;2.843502210453153E-003;4.093518946319819E-003;
2.403333333333334E+009;1.673669964075089E-001;5.368106812238693E-002;3.016774076968432E-003;3.819197416305542E-003;
2.403500000000000E+009;1.690236479043961E-001;5.154032632708550E-002;3.191503696143627E-003;3.558548633009195E-003;
2.403666666666667E+009;1.708836555480957E-001;4.961109533905983E-002;3.181639593094587E-003;3.427890827879310E-003;
2.403833333333334E+009;1.723854690790176E-001;4.787950962781906E-002;3.042721189558506E-003;3.385343356058002E-003;
2.404000000000000E+009;1.739070117473602E-001;4.613720253109932E-002;3.273797919973731E-003;3.073852276429534E-003;
2.404166666666667E+009;1.757760047912598E-001;4.460579529404640E-002;3.334484761580825E-003;3.097837325185537E-003;
2.404333333333334E+009;1.771595478057861E-001;4.303962364792824E-002;3.043753327801824E-003;2.796252956613898E-003;
2.404500000000000E+009;1.788323223590851E-001;4.172306135296822E-002;3.282609628513455E-003;2.549606142565608E-003;
2.404666666666667E+009;1.804630309343338E-001;4.075413569808006E-002;3.363892668858171E-003;2.418538322672248E-003;
2.404833333333334E+009;1.822824031114578E-001;3.955744951963425E-002;3.349822480231524E-003;2.268512733280659E-003;
2.405000000000000E+009;1.833884418010712E-001;3.896844759583473E-002;3.363806987181306E-003;2.181929768994451E-003;
2.405166666666667E+009;1.848704665899277E-001;3.840806335210800E-002;3.323825309053063E-003;2.046330831944943E-003;
2.405333333333334E+009;1.864000856876373E-001;3.782690688967705E-002;3.244746243581176E-003;1.967568881809712E-003;
2.405500000000000E+009;1.876946240663528E-001;3.746514767408371E-002;3.351255087181926E-003;1.521400758065283E-003;
2.405666666666667E+009;1.889456659555435E-001;3.701015934348106E-002;3.227058332413435E-003;1.568300183862448E-003;
2.405833333333334E+009;1.901846826076508E-001;3.679480403661728E-002;3.144622081890702E-003;1.289651729166508E-003;
2.406000000000000E+009;1.910664439201355E-001;3.655086085200310E-002;3.134731901809573E-003;1.185786677524447E-003;
2.406166666666667E+009;1.921707093715668E-001;3.649704530835152E-002;2.998354379087687E-003;1.136815757490695E-003;
2.406333333333334E+009;1.930077224969864E-001;3.650356829166412E-002;2.955869073048234E-003;9.218424092978239E-004;
2.406500000000000E+009;1.938435435295105E-001;3.662374243140221E-002;2.894421573728323E-003;6.937505095265806E-004;
2.406666666666667E+009;1.942495852708817E-001;3.661419451236725E-002;2.818687353283167E-003;8.986687171272934E-004;
2.406833333333334E+009;1.947667896747589E-001;3.680260479450226E-002;2.678384771570563E-003;7.983903051353991E-004;
2.407000000000000E+009;1.950537562370300E-001;3.696401044726372E-002;2.631281036883593E-003;6.317704683169723E-004;
2.407166666666667E+009;1.954629719257355E-001;3.684767335653305E-002;2.402313053607941E-003;6.352610653266311E-004;
2.407333333333334E+009;1.953548491001129E-001;3.700029104948044E-002;2.470094477757812E-003;5.196218844503164E-004;
2.407500000000000E+009;1.952876299619675E-001;3.718362748622894E-002;2.444145269691944E-003;3.437731938902289E-004;
2.407666666666667E+009;1.951644122600555E-001;3.710045292973518E-002;2.252433216199279E-003;6.353799835778773E-004;
2.407833333333334E+009;1.947082281112671E-001;3.711115196347237E-002;2.126431558281183E-003;6.384208681993187E-004;
2.408000000000000E+009;1.945612728595734E-001;3.702900558710098E-002;2.131123328581452E-003;4.542868118733168E-004;
2.408166666666667E+009;1.939081698656082E-001;3.674205020070076E-002;2.050017006695271E-003;6.441722507588565E-004;
2.408333333333334E+009;1.932680755853653E-001;3.644159063696861E-002;2.050255192443728E-003;5.974936648271978E-004;
2.408500000000000E+009;1.927067339420319E-001;3.620202839374542E-002;2.171575324609876E-003;5.036568036302924E-004;
2.408666666666667E+009;1.920888870954514E-001;3.567005321383476E-002;1.942540868185461E-003;5.057143280282617E-004;
2.408833333333334E+009;1.913153380155563E-001;3.497905656695366E-002;1.955228392034769E-003;4.666040185838938E-004;
2.409000000000000E+009;1.905576735734940E-001;3.420282155275345E-002;1.971834804862738E-003;6.052514654584229E-004;
2.409166666666667E+009;1.896186918020248E-001;3.325529769062996E-002;1.852542278356850E-003;6.407944019883871E-004;
2.409333333333334E+009;1.886555552482605E-001;3.229765221476555E-002;1.714815851300955E-003;6.503438926301897E-004;
2.409500000000000E+009;1.875790655612946E-001;3.118601627647877E-002;1.754731172695756E-003;6.803325377404690E-004;
2.409666666666667E+009;1.865628957748413E-001;2.976827323436737E-002;1.604643883183599E-003;7.119902875274420E-004;
2.409833333333334E+009;1.855123341083527E-001;2.825722098350525E-002;1.700572553090751E-003;7.874418515712023E-004;
2.410000000000000E+009;1.846286207437515E-001;2.658500522375107E-002;1.466763322241604E-003;9.167049429379404E-004;
2.410166666666667E+009;1.835834383964539E-001;2.473638765513897E-002;1.577661139890552E-003;8.882223046384752E-004;
2.410333333333334E+009;1.826400160789490E-001;2.293234691023827E-002;1.580466167069972E-003;1.130288699641824E-003;
2.410500000000000E+009;1.817558556795120E-001;2.121265418827534E-002;1.638212474063039E-003;1.136475242674351E-003;
2.410666666666667E+009;1.807755827903748E-001;1.880312711000443E-002;1.833043992519379E-003;1.290517742745578E-003;
2.410833333333334E+009;1.802426576614380E-001;1.681419834494591E-002;2.045543864369392E-003;1.231222180649638E-003;
2.411000000000000E+009;1.794565469026566E-001;1.457298174500465E-002;1.964895753189921E-003;1.234521390870214E-003;
2.411166666666667E+009;1.788258850574493E-001;1.234418898820877E-002;1.923205563798547E-003;1.290094456635416E-003;
2.411333333333334E+009;1.781701892614365E-001;9.698287583887577E-003;1.998125808313489E-003;1.424398738890886E-003;
2.411500000000000E+009;1.778132170438767E-001;7.483105640858412E-003;2.134777838364244E-003;1.401421613991261E-003;
2.411666666666667E+009;1.777293384075165E-001;4.998126067221165E-003;2.414724323898554E-003;1.370950136333704E-003;
2.411833333333334E+009;1.773067414760590E-001;2.635653130710125E-003;2.566143637523055E-003;1.558642834424973E-003;
2.412000000000000E+009;1.774936765432358E-001;1.393894781358540E-004;2.687964355573058E-003;1.427207258529961E-003;
2.412166666666667E+009;1.775133609771729E-001;-2.263649599626660E-003;2.817850327119231E-003;1.357479253783822E-003;
2.412333333333334E+009;1.776952296495438E-001;-4.775479901582003E-003;3.000795841217041E-003;1.254213042557240E-003;
2.412500000000000E+009;1.782527118921280E-001;-7.194300647825003E-003;3.183181630447507E-003;1.084347604773939E-003;
2.412666666666667E+009;1.787663400173187E-001;-9.735796600580216E-003;3.287220140919089E-003;1.005923142656684E-003;
2.412833333333334E+009;1.795721054077148E-001;-1.194791495800018E-002;3.484874498099089E-003;7.379497401416302E-004;
2.413000000000000E+009;1.803071796894074E-001;-1.451408304274082E-002;3.515413030982018E-003;4.885717062279582E-004;
2.413166666666667E+009;1.810833215713501E-001;-1.664802618324757E-002;3.580577904358506E-003;4.936720361001790E-004;
2.413333333333334E+009;1.821696460247040E-001;-1.889345608651638E-002;3.630619728937745E-003;1.520839723525569E-004;
2.413500000000000E+009;1.830698251724243E-001;-2.115652151405811E-002;3.585189813748002E-003;8.145768515532836E-005;
2.413666666666667E+009;1.842747032642365E-001;-2.337459102272987E-002;3.631778527051210E-003;-1.663782022660598E-004;
2.413833333333334E+009;1.853735595941544E-001;-2.531158737838268E-002;3.533784067258239E-003;-3.957835433539003E-004;
2.414000000000000E+009;1.865270435810089E-001;-2.740890160202980E-002;3.481414634734392E-003;-5.630811210721731E-004;
2.414166666666667E+009;1.878766119480133E-001;-2.906903252005577E-002;3.424032125622034E-003;-6.675137556158006E-004;
2.414333333333334E+009;1.889718025922775E-001;-3.124974109232426E-002;3.412815742194653E-003;-7.574640912935138E-004;
2.414500000000000E+009;1.901602149009705E-001;-3.247060999274254E-002;3.298410214483738E-003;-9.050747030414641E-004;
2.414666666666667E+009;1.914803683757782E-001;-3.409447148442268E-002;3.325775032863021E-003;-1.214496674947441E-003;
2.414833333333334E+009;1.925719380378723E-001;-3.543194383382797E-002;3.323064185678959E-003;-1.185597619041801E-003;
2.415000000000000E+009;1.937406212091446E-001;-3.666172921657562E-002;3.175993682816625E-003;-1.318938098847866E-003;
2.415166666666667E+009;1.949155479669571E-001;-3.782806172966957E-002;2.981392433866859E-003;-1.372160273604095E-003;
2.415333333333334E+009;1.960095614194870E-001;-3.871696069836617E-002;2.978470176458359E-003;-1.763300504535437E-003;
2.415500000000000E+009;1.971531212329865E-001;-3.941266238689423E-002;2.796689281240106E-003;-1.671623322181404E-003;
2.415666666666667E+009;1.981605440378189E-001;-4.031143337488174E-002;2.674208255484700E-003;-1.809579553082585E-003;
2.415833333333334E+009;1.991108953952789E-001;-4.081810638308525E-002;2.560170600190759E-003;-1.897937385365367E-003;
2.416000000000000E+009;1.998370736837387E-001;-4.137934744358063E-002;2.445508958771825E-003;-1.905301702208817E-003;
2.416166666666667E+009;2.005401551723480E-001;-4.183542355895042E-002;2.410208340734243E-003;-2.038402948528528E-003;
2.416333333333334E+009;2.012834697961807E-001;-4.216320067644119E-002;2.196883782744408E-003;-2.154105808585882E-003;
2.416500000000000E+009;2.017253637313843E-001;-4.238875210285187E-002;2.088866662234068E-003;-2.132460707798600E-003;
2.416666666666667E+009;2.020601034164429E-001;-4.257445409893990E-002;1.923320232890546E-003;-2.098413649946451E-003;
2.416833333333334E+009;2.022067755460739E-001;-4.258363321423531E-002;1.885305158793926E-003;-2.186639467254281E-003;
2.417000000000000E+009;2.023504525423050E-001;-4.270092025399208E-002;1.835237606428564E-003;-2.053834265097976E-003;
2.417166666666667E+009;2.021078020334244E-001;-4.251965135335922E-002;1.690679229795933E-003;-2.099640201777220E-003;
2.417333333333334E+009;2.019412070512772E-001;-4.233241826295853E-002;1.629387610591948E-003;-2.051076386123896E-003;
2.417500000000000E+009;2.015822529792786E-001;-4.228059947490692E-002;1.460773637518287E-003;-2.057506470009685E-003;
2.417666666666667E+009;2.010875791311264E-001;-4.210255667567253E-002;1.420604530721903E-003;-2.036825520917773E-003;
2.417833333333334E+009;2.006294578313828E-001;-4.189494252204895E-002;1.324152224697173E-003;-2.015838865190744E-003;
2.418000000000000E+009;2.000842392444611E-001;-4.150164499878883E-002;1.434280071407557E-003;-2.011465840041637E-003;
2.418166666666667E+009;1.991942077875137E-001;-4.153229668736458E-002;1.302827382460237E-003;-2.018362050876021E-003;
2.418333333333334E+009;1.982780694961548E-001;-4.133228212594986E-002;1.226837630383670E-003;-2.046723617240787E-003;
2.418500000000000E+009;1.973661333322525E-001;-4.138391837477684E-002;1.122791785746813E-003;-2.110962290316820E-003;
2.418666666666667E+009;1.963956952095032E-001;-4.126836359500885E-002;1.149882678873837E-003;-2.027875743806362E-003;
2.418833333333334E+009;1.950702965259552E-001;-4.145510867238045E-002;9.605074301362038E-004;-1.994925551116467E-003;
2.419000000000000E+009;1.938877105712891E-001;-4.159759357571602E-002;1.073170453310013E-003;-1.986501738429070E-003;
2.419166666666667E+009;1.924939304590225E-001;-4.174082353711128E-002;1.034504617564380E-003;-2.056300640106201E-003;
2.419333333333334E+009;1.911931037902832E-001;-4.235307127237320E-002;8.248378871940076E-004;-1.927773468196392E-003;
2.419500000000000E+009;1.897464543581009E-001;-4.265578091144562E-002;9.127960074692965E-004;-1.823497936129570E-003;
2.419666666666667E+009;1.880915015935898E-001;-4.365474730730057E-002;7.588014123030007E-004;-1.873355940915644E-003;
2.419833333333334E+009;1.865930855274200E-001;-4.424261301755905E-002;7.678223773837090E-004;-1.729218871332705E-003;
2.420000000000000E+009;1.849026381969452E-001;-4.519659653306007E-002;5.193776451051235E-004;-1.682062400504947E-003;
2.420166666666667E+009;1.832350045442581E-001;-4.605766385793686E-002;7.226400193758309E-004;-1.498657860793173E-003;
2.420333333333334E+009;1.816177964210510E-001;-4.720701649785042E-002;5.539241828955710E-004;-1.663368777371943E-003;
2.420500000000000E+009;1.799724698066711E-001;-4.850646480917931E-002;6.393814110197127E-004;-1.533981994725764E-003;
2.420666666666667E+009;1.785153597593308E-001;-4.987628012895584E-002;7.018668693490326E-004;-1.520237186923623E-003;
2.420833333333334E+009;1.767769306898117E-001;-5.128678679466248E-002;8.402768871746957E-004;-1.474917866289616E-003;
2.421000000000000E+009;1.753392517566681E-001;-5.278983712196350E-002;6.710517918691039E-004;-1.381650683470070E-003;
2.421166666666667E+009;1.738476455211639E-001;-5.437011271715164E-002;6.893801619298756E-004;-1.284871948882937E-003;
2.421333333333334E+009;1.722730249166489E-001;-5.599160864949226E-002;8.801590884104371E-004;-1.312150503508747E-003;
2.421500000000000E+009;1.709446609020233E-001;-5.804079771041870E-002;9.315059287473559E-004;-1.346845296211541E-003;
2.421666666666667E+009;1.697892546653748E-001;-5.981358140707016E-002;8.297821623273194E-004;-1.192116294987500E-003;
2.421833333333334E+009;1.686069965362549E-001;-6.146760284900665E-002;9.857146069407463E-004;-1.312971347942948E-003;
2.422000000000000E+009;1.675342321395874E-001;-6.348573416471481E-002;9.868446504697204E-004;-1.296744914725423E-003;
2.422166666666667E+009;1.667199581861496E-001;-6.565007567405701E-002;9.490932570770383E-004;-1.376069965772331E-003;
2.422333333333334E+009;1.657847315073013E-001;-6.778684258460999E-002;1.008370658382773E-003;-1.224648323841393E-003;
2.422500000000000E+009;1.648754030466080E-001;-6.965295970439911E-002;1.056744833476841E-003;-1.277265255339444E-003;
2.422666666666667E+009;1.644542813301086E-001;-7.158775627613068E-002;1.164247281849384E-003;-1.238576136529446E-003;
2.422833333333334E+009;1.640074104070664E-001;-7.372930645942688E-002;1.067280420102179E-003;-1.562889432534576E-003;
2.423000000000000E+009;1.635311245918274E-001;-7.581757754087448E-002;1.090965117327869E-003;-1.506546977907419E-003;
2.423166666666667E+009;1.632048487663269E-001;-7.776795327663422E-002;1.230488531291485E-003;-1.447786693461239E-003;
2.423333333333334E+009;1.631478369235992E-001;-7.986441254615784E-002;1.133966026827693E-003;-1.609557890333235E-003;
2.423500000000000E+009;1.629027724266052E-001;-8.182701468467712E-002;1.245960942469537E-003;-1.672354876063764E-003;
2.423666666666667E+009;1.631694585084915E-001;-8.369709551334381E-002;1.111294259317219E-003;-1.799602992832661E-003;
2.423833333333334E+009;1.629779785871506E-001;-8.540032058954239E-002;1.192584051750600E-003;-2.011055592447519E-003;
2.424000000000000E+009;1.631862819194794E-001;-8.735491335391998E-002;1.053694868460298E-003;-1.963471295312047E-003;
2.424166666666667E+009;1.634106189012528E-001;-8.897898346185684E-002;1.067194738425314E-003;-2.116334624588490E-003;
2.424333333333334E+009;1.636796742677689E-001;-9.047292917966843E-002;1.017974922433496E-003;-1.989913871511817E-003;
2.424500000000000E+009;1.639999300241470E-001;-9.235223382711411E-002;9.434188250452280E-004;-2.210360718891025E-003;
2.424666666666667E+009;1.642446070909500E-001;-9.367405623197556E-002;9.300683159381151E-004;-2.208486665040255E-003;
2.424833333333334E+009;1.649421453475952E-001;-9.496462345123291E-002;8.299579494632781E-004;-2.186651108786464E-003;
2.425000000000000E+009;1.653415262699127E-001;-9.609297662973404E-002;8.566323085688055E-004;-2.324295928701758E-003;
2.425166666666667E+009;1.656751781702042E-001;-9.731743484735489E-002;7.331357337534428E-004;-2.362770494073629E-003;
2.425333333333334E+009;1.660610139369965E-001;-9.830639511346817E-002;7.811142713762820E-004;-2.438630908727646E-003;
2.425500000000000E+009;1.667760163545609E-001;-9.933456033468247E-002;8.721347548998892E-004;-2.443036064505577E-003;
2.425666666666667E+009;1.671713590621948E-001;-1.000181660056114E-001;7.198586827144027E-004;-2.414480550214648E-003;
2.425833333333334E+009;1.674112826585770E-001;-1.009213477373123E-001;5.548156332224608E-004;-2.422484569251537E-003;
2.426000000000000E+009;1.677428930997849E-001;-1.012586578726769E-001;4.359156300779432E-004;-2.627354115247726E-003;
2.426166666666667E+009;1.682902425527573E-001;-1.017848774790764E-001;4.729107022285461E-004;-2.614388242363930E-003;
2.426333333333334E+009;1.683931648731232E-001;-1.023269146680832E-001;3.677453787531704E-004;-2.634358359500766E-003;
2.426500000000000E+009;1.688320785760880E-001;-1.026029437780380E-001;4.241277056280524E-004;-2.837639767676592E-003;
2.426666666666667E+009;1.689558178186417E-001;-1.029770746827126E-001;2.020798856392503E-004;-2.797384979203343E-003;
2.426833333333334E+009;1.692805290222168E-001;-1.033447012305260E-001;1.778422301867977E-004;-2.820455469191074E-003;
2.427000000000000E+009;1.692925095558167E-001;-1.035507693886757E-001;3.557273885235190E-005;-2.846977906301618E-003;
2.427166666666667E+009;1.693000346422195E-001;-1.035373061895371E-001;-1.155846111942083E-004;-2.889682771638036E-003;
2.427333333333334E+009;1.692875921726227E-001;-1.039079427719116E-001;-2.695878501981497E-004;-2.917747711762786E-003;
2.427500000000000E+009;1.689414829015732E-001;-1.040918454527855E-001;-3.110398538410664E-004;-3.025518031790853E-003;
2.427666666666667E+009;1.686266213655472E-001;-1.040724366903305E-001;-4.191226034890860E-004;-2.832289552316070E-003;
2.427833333333334E+009;1.681962460279465E-001;-1.041858941316605E-001;-6.096175056882203E-004;-2.975985873490572E-003;
