# Version 1.00
#
freq[Hz];re:Trc1_S11;im:Trc1_S11;re:Trc2_S21;im:Trc2_S21;
2.400000000000000E+009;1.563391089439392E-001;5.981432646512985E-002;6.651734584011138E-004;1.494147581979632E-003;
2.400166666666667E+009;1.563437730073929E-001;5.794984474778175E-002;8.114483789540827E-004;1.333993161097169E-003;
2.400333333333334E+009;1.566931456327438E-001;5.593046173453331E-002;7.941186195239425E-004;1.338470261543989E-003;
2.400500000000000E+009;1.568290591239929E-001;5.406806617975235E-002;9.228563285432756E-004;1.263685175217688E-003;
2.400666666666667E+009;1.569456160068512E-001;5.179158970713615E-002;8.740977500565350E-004;1.094973529689014E-003;
2.400833333333334E+009;1.575618982315064E-001;5.004068836569786E-002;9.563072817400098E-004;1.090507721528411E-003;
2.401000000000000E+009;1.577203422784805E-001;4.795225337147713E-002;9.046449558809400E-004;1.030526589602232E-003;
2.401166666666667E+009;1.581622660160065E-001;4.603781551122665E-002;1.017699367366731E-003;9.981852490454912E-004;
2.401333333333334E+009;1.585720926523209E-001;4.404252767562866E-002;8.481520926579833E-004;8.729206747375429E-004;
2.401500000000000E+009;1.592383980751038E-001;4.191474616527557E-002;1.028958242386580E-003;7.424728246405721E-004;
2.401666666666667E+009;1.598299443721771E-001;4.012056812644005E-002;9.352689958177507E-004;7.617890369147062E-004;
2.401833333333334E+009;1.603913456201553E-001;3.814723342657089E-002;1.091065001673996E-003;6.615319289267063E-004;
2.402000000000000E+009;1.609697341918945E-001;3.643878549337387E-002;7.764465408399701E-004;5.554183153435588E-004;
2.402166666666667E+009;1.618901193141937E-001;3.447863459587097E-002;7.925447425805032E-004;6.809398182667792E-004;
2.402333333333334E+009;1.627062410116196E-001;3.274348005652428E-002;6.990815745666623E-004;6.211686995811760E-004;
2.402500000000000E+009;1.635838896036148E-001;3.130415827035904E-002;7.939623319543898E-004;4.539768851827830E-004;
2.402666666666667E+009;1.642506569623947E-001;2.965337783098221E-002;8.097530808299780E-004;4.386710352264345E-004;
2.402833333333334E+009;1.653190702199936E-001;2.816621400415897E-002;7.392415427602828E-004;3.477777645457536E-004;
2.403000000000000E+009;1.660310178995132E-001;2.676547691226006E-002;5.238025914877653E-004;5.187193164601922E-004;
2.403166666666667E+009;1.671099364757538E-001;2.550352737307549E-002;6.005539908073843E-004;4.149804299231619E-004;
2.403333333333334E+009;1.680266708135605E-001;2.425422705709934E-002;5.731965065933764E-004;4.527335404418409E-004;
2.403500000000000E+009;1.689965277910233E-001;2.313622087240219E-002;5.859876982867718E-004;6.018924759700894E-004;
2.403666666666667E+009;1.699910461902618E-001;2.196820639073849E-002;4.797666624654084E-004;4.666910390369594E-004;
2.403833333333334E+009;1.710589975118637E-001;2.094098739326000E-002;3.940179012715817E-004;6.520692259073257E-004;
2.404000000000000E+009;1.718740910291672E-001;2.004861086606979E-002;5.694161518476903E-004;5.854889168404043E-004;
2.404166666666667E+009;1.725631058216095E-001;1.920712180435658E-002;4.470484273042530E-004;5.235122516751289E-004;
2.404333333333334E+009;1.735143065452576E-001;1.843196339905262E-002;3.864025929942727E-004;5.685052601620555E-004;
2.404500000000000E+009;1.742487400770187E-001;1.762162707746029E-002;3.117377345915884E-004;6.572198471985757E-004;
2.404666666666667E+009;1.752156019210815E-001;1.704994775354862E-002;4.187598242424429E-004;5.755957681685686E-004;
2.404833333333334E+009;1.758034676313400E-001;1.649640500545502E-002;4.362240142654628E-004;6.861602887511253E-004;
2.405000000000000E+009;1.765056103467941E-001;1.600977778434753E-002;2.636029676068574E-004;6.637964397668839E-004;
2.405166666666667E+009;1.771230399608612E-001;1.555240154266357E-002;4.266699252184480E-004;8.276820881292224E-004;
2.405333333333334E+009;1.776460409164429E-001;1.487215049564838E-002;3.211933362763375E-004;9.841948049142957E-004;
2.405500000000000E+009;1.782119423151016E-001;1.473323255777359E-002;5.062825512140989E-004;9.454650571569800E-004;
2.405666666666667E+009;1.787339448928833E-001;1.427652500569820E-002;5.128993070684373E-004;8.020651293918490E-004;
2.405833333333334E+009;1.787648946046829E-001;1.409073080867529E-002;5.534497322514653E-004;8.932964992709458E-004;
2.406000000000000E+009;1.792481839656830E-001;1.359941624104977E-002;5.102442228235304E-004;1.046393532305956E-003;
2.406166666666667E+009;1.792143881320953E-001;1.337548531591892E-002;6.985414656810463E-004;1.019700313918293E-003;
2.406333333333334E+009;1.795144081115723E-001;1.305994391441345E-002;7.815277203917503E-004;1.131557277403772E-003;
2.406500000000000E+009;1.795133352279663E-001;1.265024300664663E-002;6.832351209595799E-004;9.169229888357222E-004;
2.406666666666667E+009;1.792383641004562E-001;1.237368304282427E-002;8.633670513518155E-004;1.023344928398728E-003;
2.406833333333334E+009;1.792984455823898E-001;1.196949835866690E-002;1.033777254633606E-003;1.010827487334609E-003;
2.407000000000000E+009;1.792532801628113E-001;1.153439655900002E-002;9.882274316623807E-004;9.372631320729852E-004;
2.407166666666667E+009;1.790438443422318E-001;1.107773929834366E-002;1.064128940925002E-003;8.354010060429573E-004;
2.407333333333334E+009;1.785521209239960E-001;1.045359019190073E-002;1.181759522296488E-003;8.398068603128195E-004;
2.407500000000000E+009;1.781305968761444E-001;9.891700930893421E-003;1.213946146890521E-003;8.485816069878638E-004;
2.407666666666667E+009;1.779119670391083E-001;9.230658411979675E-003;1.305331476032734E-003;7.429707911796868E-004;
2.407833333333334E+009;1.771987229585648E-001;8.464296348392963E-003;1.411187113262713E-003;7.154242484830320E-004;
2.408000000000000E+009;1.767894923686981E-001;7.602239027619362E-003;1.335051725618541E-003;6.134483846835792E-004;
2.408166666666667E+009;1.761018633842468E-001;6.893692072480917E-003;1.343567972071469E-003;5.891650798730552E-004;
2.408333333333334E+009;1.757868677377701E-001;5.864306818693876E-003;1.352456281892955E-003;4.768299695570022E-004;
2.408500000000000E+009;1.751074045896530E-001;4.947281442582607E-003;1.536006457172334E-003;3.498458827380091E-004;
2.408666666666667E+009;1.743722259998322E-001;3.584604943171144E-003;1.532864640466869E-003;3.912094980478287E-004;
2.408833333333334E+009;1.736168116331101E-001;2.552221063524485E-003;1.404929906129837E-003;2.164783800253645E-004;
2.409000000000000E+009;1.729265749454498E-001;1.214927062392235E-003;1.503405743278563E-003;9.982941992348060E-005;
2.409166666666667E+009;1.723742336034775E-001;-2.380466030444950E-004;1.564288395456970E-003;4.054320379509591E-005;
2.409333333333334E+009;1.718809157609940E-001;-1.805573352612555E-003;1.675362000241876E-003;4.965483458363451E-005;
2.409500000000000E+009;1.711523234844208E-001;-3.276854520663619E-003;1.503605279140174E-003;-6.639600178459659E-005;
2.409666666666667E+009;1.705337762832642E-001;-4.998851101845503E-003;1.439870800822973E-003;-1.725252332107630E-005;
2.409833333333334E+009;1.699655801057816E-001;-6.396829150617123E-003;1.476186676882207E-003;-2.394904004177079E-004;
2.410000000000000E+009;1.693757027387619E-001;-7.930487394332886E-003;1.437638653442264E-003;-3.388137556612492E-004;
2.410166666666667E+009;1.690365672111511E-001;-9.997012093663216E-003;1.441463944502175E-003;-2.902284904848784E-004;
2.410333333333334E+009;1.686858385801315E-001;-1.171595510095358E-002;1.243130187503994E-003;-5.158705171197653E-004;
2.410500000000000E+009;1.682554930448532E-001;-1.355389505624771E-002;1.161917694844306E-003;-3.917750436812639E-004;
2.410666666666667E+009;1.679862886667252E-001;-1.549439039081335E-002;1.233555492945015E-003;-6.383886793628335E-004;
2.410833333333334E+009;1.677999049425125E-001;-1.721497625112534E-002;1.257873373106122E-003;-5.615260452032089E-004;
2.411000000000000E+009;1.676815152168274E-001;-1.909665577113628E-002;1.004243385978043E-003;-6.758358795195818E-004;
2.411166666666667E+009;1.675367057323456E-001;-2.118496969342232E-002;1.023812685161829E-003;-7.017070311121643E-004;
2.411333333333334E+009;1.675350964069367E-001;-2.313430421054363E-002;9.873489616438747E-004;-7.957224734127522E-004;
2.411500000000000E+009;1.675524413585663E-001;-2.515981532633305E-002;9.006143664009869E-004;-8.756532333791256E-004;
2.411666666666667E+009;1.679354757070541E-001;-2.690406143665314E-002;7.639054674655199E-004;-8.328465046361089E-004;
2.411833333333334E+009;1.679953038692474E-001;-2.879511378705502E-002;8.402412058785558E-004;-8.811727166175842E-004;
2.412000000000000E+009;1.683148294687271E-001;-3.079089894890785E-002;6.789401522837579E-004;-8.812755113467574E-004;
2.412166666666667E+009;1.685803979635239E-001;-3.262657299637795E-002;6.824561278335750E-004;-8.850519661791623E-004;
2.412333333333334E+009;1.691642403602600E-001;-3.431380912661552E-002;5.830609006807208E-004;-7.348975050263107E-004;
2.412500000000000E+009;1.694691032171249E-001;-3.616961836814880E-002;4.086097760591656E-004;-7.424524519592524E-004;
2.412666666666667E+009;1.701911240816116E-001;-3.792246058583260E-002;4.165997379459441E-004;-8.821656228974462E-004;
2.412833333333334E+009;1.706489622592926E-001;-3.958303853869438E-002;4.270579374860972E-004;-6.334748468361795E-004;
2.413000000000000E+009;1.711598485708237E-001;-4.104460775852203E-002;3.511467075441033E-004;-7.700434071011841E-004;
2.413166666666667E+009;1.716736257076263E-001;-4.264903441071510E-002;2.906656591221690E-004;-6.686428678222001E-004;
2.413333333333334E+009;1.722937226295471E-001;-4.405517503619194E-002;1.964035036507994E-004;-5.429136799648404E-004;
2.413500000000000E+009;1.730365902185440E-001;-4.559231549501419E-002;2.853689657058567E-004;-7.918824558146298E-004;
2.413666666666667E+009;1.735541671514511E-001;-4.700177535414696E-002;2.602360036689788E-004;-5.377857014536858E-004;
2.413833333333334E+009;1.741649210453033E-001;-4.815637320280075E-002;7.671288040000945E-005;-6.401229184120894E-004;
2.414000000000000E+009;1.746612340211868E-001;-4.929386451840401E-002;2.730267879087478E-004;-4.267072363290936E-004;
2.414166666666667E+009;1.753339022397995E-001;-5.035924911499023E-002;2.686745137907565E-004;-3.863488964270800E-004;
2.414333333333334E+009;1.757800728082657E-001;-5.130415409803391E-002;3.069423255510628E-004;-5.219556624069810E-004;
2.414500000000000E+009;1.764616519212723E-001;-5.214493721723557E-002;2.255538129247725E-004;-6.143081700429320E-004;
2.414666666666667E+009;1.768247187137604E-001;-5.284668877720833E-002;2.166395715903491E-004;-5.087906029075384E-004;
2.414833333333334E+009;1.773215532302856E-001;-5.383887141942978E-002;1.263967715203762E-004;-5.923052085563541E-004;
2.415000000000000E+009;1.775434166193008E-001;-5.438157916069031E-002;1.928015844896436E-004;-3.608324623201042E-004;
2.415166666666667E+009;1.779777854681015E-001;-5.493832379579544E-002;5.795657853013836E-005;-5.245186621323228E-004;
2.415333333333334E+009;1.782241612672806E-001;-5.560916289687157E-002;1.221482234541327E-004;-3.679549845401198E-004;
2.415500000000000E+009;1.783855855464935E-001;-5.588938295841217E-002;2.032691409112886E-004;-4.160424869041890E-004;
2.415666666666667E+009;1.784803271293640E-001;-5.633028596639633E-002;8.856333442963660E-005;-4.481754440348595E-004;
2.415833333333334E+009;1.784925758838654E-001;-5.669109523296356E-002;1.551673776702955E-004;-4.662720602937043E-004;
2.416000000000000E+009;1.783808171749115E-001;-5.700365453958511E-002;2.568827185314149E-004;-4.418063908815384E-004;
2.416166666666667E+009;1.784216910600662E-001;-5.734077468514442E-002;1.893549342639744E-004;-3.900439187418670E-004;
2.416333333333334E+009;1.780814826488495E-001;-5.754359439015389E-002;3.316608126624487E-005;-4.387811350170523E-004;
2.416500000000000E+009;1.777492016553879E-001;-5.789640918374062E-002;4.089011781616136E-005;-4.204919387120754E-004;
2.416666666666667E+009;1.773830503225327E-001;-5.811929702758789E-002;5.454744314192794E-005;-4.726296756416559E-004;
2.416833333333334E+009;1.770098358392716E-001;-5.845120921730995E-002;-9.117702575167641E-006;-4.320765729062259E-004;
2.417000000000000E+009;1.761438101530075E-001;-5.880364030599594E-002;-4.574613194563426E-005;-3.217691846657544E-004;
2.417166666666667E+009;1.755727678537369E-001;-5.889048799872398E-002;9.871651855064556E-006;-2.427486324450001E-004;
2.417333333333334E+009;1.748027354478836E-001;-5.921435356140137E-002;-1.675877865636721E-005;-2.247135416837409E-004;
2.417500000000000E+009;1.739658564329147E-001;-5.962254106998444E-002;-6.530721293529496E-005;-2.485548611730337E-004;
2.417666666666667E+009;1.731669604778290E-001;-5.983833223581314E-002;-1.202710773213767E-004;-2.508415200281888E-004;
2.417833333333334E+009;1.720823198556900E-001;-6.032198667526245E-002;2.126448453054763E-005;-1.483875385019928E-004;
2.418000000000000E+009;1.710158437490463E-001;-6.092329323291779E-002;-3.454425677773543E-005;-2.738938492257148E-004;
2.418166666666667E+009;1.699106842279434E-001;-6.119621172547340E-002;-1.108888027374633E-004;-2.312101132702082E-004;
2.418333333333334E+009;1.691361069679260E-001;-6.180584430694580E-002;2.290454904141370E-005;-1.789448870113120E-004;
2.418500000000000E+009;1.676403135061264E-001;-6.246284022927284E-002;1.308293303736718E-005;-1.255722017958760E-004;
2.418666666666667E+009;1.667015403509140E-001;-6.316301226615906E-002;-4.514211104833521E-005;-9.732595208333805E-005;
2.418833333333334E+009;1.652478277683258E-001;-6.397610902786255E-002;-2.613516699057072E-004;-1.201908817165531E-004;
2.419000000000000E+009;1.639491915702820E-001;-6.483457982540131E-002;3.291424218332395E-005;-5.491367846843787E-005;
2.419166666666667E+009;1.628435105085373E-001;-6.564182043075562E-002;-8.351889846380800E-005;4.328934210207081E-006;
2.419333333333334E+009;1.615734100341797E-001;-6.636697798967362E-002;-1.256978703167988E-005;-6.449953070841730E-005;
2.419500000000000E+009;1.603677272796631E-001;-6.785679608583450E-002;-1.609262690180913E-004;1.841925113694742E-004;
2.419666666666667E+009;1.593115478754044E-001;-6.894608587026596E-002;-9.254590258933604E-005;1.637061504879966E-004;
2.419833333333334E+009;1.580095440149307E-001;-6.977983564138413E-002;-9.646448597777635E-005;8.519016409991309E-005;
2.420000000000000E+009;1.571412086486816E-001;-7.114514708518982E-002;-4.407589585753158E-005;2.686319348867983E-004;
2.420166666666667E+009;1.560934484004974E-001;-7.254996895790100E-002;-2.945507503682165E-006;1.903062220662832E-004;
2.420333333333334E+009;1.551465243101120E-001;-7.383918017148972E-002;3.655268301372416E-005;3.058379224967212E-004;
2.420500000000000E+009;1.542330980300903E-001;-7.507740706205368E-002;7.400434697046876E-005;3.805945161730051E-004;
2.420666666666667E+009;1.532687395811081E-001;-7.630436122417450E-002;1.431545679224655E-004;3.398517728783190E-004;
2.420833333333334E+009;1.525703817605972E-001;-7.815399765968323E-002;2.452109183650464E-004;3.241550002712756E-004;
2.421000000000000E+009;1.519166380167007E-001;-7.980289310216904E-002;1.569668238516897E-004;3.833962837234139E-004;
2.421166666666667E+009;1.513845324516296E-001;-8.131314814090729E-002;2.410877641523257E-004;4.499103815760464E-004;
2.421333333333334E+009;1.508832275867462E-001;-8.306275308132172E-002;4.043834633193910E-004;4.957091296091676E-004;
2.421500000000000E+009;1.504241526126862E-001;-8.452156931161881E-002;3.561362391337752E-004;5.425608833320439E-004;
2.421666666666667E+009;1.501510590314865E-001;-8.632177114486694E-002;4.731205408461392E-004;4.233344807289541E-004;
2.421833333333334E+009;1.499623805284500E-001;-8.788296580314636E-002;4.682076396420598E-004;6.916168495081365E-004;
2.422000000000000E+009;1.497277468442917E-001;-8.955185860395432E-002;6.808814359828830E-004;4.259261186234653E-004;
2.422166666666667E+009;1.495635658502579E-001;-9.149790555238724E-002;7.952440064400435E-004;4.460651543922722E-004;
2.422333333333334E+009;1.498875170946121E-001;-9.289324283599854E-002;7.322828168980777E-004;4.794187843799591E-004;
2.422500000000000E+009;1.496264636516571E-001;-9.443016350269318E-002;7.120487280189991E-004;4.185826110187918E-004;
2.422666666666667E+009;1.498001068830490E-001;-9.613609313964844E-002;9.384005679748952E-004;5.046563455834985E-004;
2.422833333333334E+009;1.501608043909073E-001;-9.771054983139038E-002;9.386910242028534E-004;4.204830329399556E-004;
2.423000000000000E+009;1.503564864397049E-001;-9.929260611534119E-002;1.199322636239231E-003;4.250970378052443E-004;
2.423166666666667E+009;1.509586125612259E-001;-1.006361842155457E-001;1.013524481095374E-003;3.836628748103976E-004;
2.423333333333334E+009;1.510613858699799E-001;-1.019612997770309E-001;1.207688706927002E-003;2.582152956165373E-004;
2.423500000000000E+009;1.517616063356400E-001;-1.034159436821938E-001;1.178132719360292E-003;2.109882771037519E-004;
2.423666666666667E+009;1.519722491502762E-001;-1.048111915588379E-001;1.255417126230896E-003;1.329715742031112E-004;
2.423833333333334E+009;1.525865048170090E-001;-1.061203852295876E-001;1.464485889300704E-003;1.358655135845766E-004;
2.424000000000000E+009;1.529615968465805E-001;-1.070075780153275E-001;1.570419059135020E-003;5.250799404166173E-007;
2.424166666666667E+009;1.534260809421539E-001;-1.082653403282166E-001;1.410067547112703E-003;-9.071513341041282E-005;
2.424333333333334E+009;1.539067775011063E-001;-1.092614307999611E-001;1.516595366410911E-003;-3.233272873330861E-004;
2.424500000000000E+009;1.544294506311417E-001;-1.103237643837929E-001;1.639288268052042E-003;-1.301197335124016E-004;
2.424666666666667E+009;1.549926251173019E-001;-1.110116988420487E-001;1.657839166000485E-003;-3.971499681938440E-004;
2.424833333333334E+009;1.553207039833069E-001;-1.118171811103821E-001;1.472950447350740E-003;-3.763416607398540E-004;
2.425000000000000E+009;1.557940095663071E-001;-1.125049814581871E-001;1.544791040942073E-003;-6.310750031843782E-004;
2.425166666666667E+009;1.558918058872223E-001;-1.132522299885750E-001;1.532922731712461E-003;-7.717469707131386E-004;
2.425333333333334E+009;1.563053578138351E-001;-1.137849763035774E-001;1.597537077032030E-003;-8.409340516664088E-004;
2.425500000000000E+009;1.566556990146637E-001;-1.143390461802483E-001;1.503401086665690E-003;-7.847822853364050E-004;
2.425666666666667E+009;1.566641330718994E-001;-1.148552000522614E-001;1.433743629604578E-003;-9.044714388437569E-004;
2.425833333333334E+009;1.568401604890823E-001;-1.152943596243858E-001;1.523289014585316E-003;-1.027691410854459E-003;
2.426000000000000E+009;1.567404270172119E-001;-1.155565828084946E-001;1.467902562581003E-003;-1.112124067731202E-003;
2.426166666666667E+009;1.569325923919678E-001;-1.158609017729759E-001;1.518063480034471E-003;-1.226792228408158E-003;
2.426333333333334E+009;1.566653698682785E-001;-1.161189228296280E-001;1.342867966741324E-003;-1.235445612110198E-003;
2.426500000000000E+009;1.565029919147492E-001;-1.163375079631805E-001;1.255153678357601E-003;-1.358543289825320E-003;
2.426666666666667E+009;1.563858538866043E-001;-1.162314265966415E-001;1.277182018384337E-003;-1.596600748598576E-003;
2.426833333333334E+009;1.558344215154648E-001;-1.165576279163361E-001;1.286890939809382E-003;-1.570911263115704E-003;
2.427000000000000E+009;1.554813683032990E-001;-1.168160960078239E-001;1.198397134430707E-003;-1.616336288861930E-003;
2.427166666666667E+009;1.548924595117569E-001;-1.167773231863976E-001;1.062848255969584E-003;-1.709484728053212E-003;
2.427333333333334E+009;1.541034579277039E-001;-1.169872060418129E-001;8.802991942502558E-004;-1.790239824913442E-003;
2.427500000000000E+009;1.534787416458130E-001;-1.171001791954041E-001;9.367688908241689E-004;-1.829928369261324E-003;
2.427666666666667E+009;1.525248438119888E-001;-1.173171624541283E-001;8.994105737656355E-004;-1.939532347023487E-003;
2.427833333333334E+009;1.514633297920227E-001;-1.175536662340164E-001;9.369121980853379E-004;-2.024647779762745E-003;
