# Hz S RI R 
2400000000.0000000000 0.158397153019905090332031250000 0.062610849738121032714843750000 -0.001547837280668318054796528394 0.000161613119416870203897199088 0 0 0 0 
2400166666.6666665077 0.158086299896240206619424384371 0.061064295470714569091796875000 -0.001491397735662757916691445459 0.000144882738823071095064440317 0 0 0 0 
2400333333.3333334923 0.157997459173202486892861884371 0.059075322002172470092773437500 -0.001512142131105064912083291162 0.000205327625735662904664716177 0 0 0 0 
2400500000.0000000000 0.157979011535644503494424384371 0.057208340615034103393554687500 -0.001411789911799133040784526294 0.000178365284227766096591949463 0 0 0 0 
2400666666.6666665077 0.157937422394752502441406250000 0.055072549730539321899414062500 -0.001172430231235920949223183740 0.000233490194659680100992479868 0 0 0 0 
2400833333.3333334923 0.158060893416404696365518134371 0.053357247263193130493164062500 -0.001281942590139806053758930737 0.000357029784936457926600855695 0 0 0 0 
2401000000.0000000000 0.158061385154724093338174384371 0.051055066287517547607421875000 -0.001152393757365643978118896484 0.000157294634846039089277544565 0 0 0 0 
2401166666.6666665077 0.158228322863578796386718750000 0.049096256494522101665456403907 -0.001096885069273412010790180737 0.000338904588716104626655578613 0 0 0 0 
2401333333.3333334923 0.158286586403846712967080634371 0.046967666596174240112304687500 -0.001012830180115998008130717700 0.000252207973971962874561864032 0 0 0 0 
2401500000.0000000000 0.158830091357231112381143134371 0.044816397130489349365234375000 -0.001122652203775941891911172021 0.000335451099090278202861231671 0 0 0 0 
2401666666.6666665077 0.159033939242363003829794365629 0.042888429015874862670898437500 -0.000982340658083558082580566406 0.000240471927099861204624176025 0 0 0 0 
2401833333.3333334923 0.159406647086143493652343750000 0.040679056197404861450195312500 -0.000760486582294106483459472656 0.000353727955371141379505711688 0 0 0 0 
2402000000.0000000000 0.159657046198844909667968750000 0.038674633949995040893554687500 -0.000725488527677953243255615234 0.000275091617368161678314208984 0 0 0 0 
2402166666.6666665077 0.160088464617729187011718750000 0.036679551005363457416574846093 -0.000853797537274658679962158203 0.000106998930277768495395937509 0 0 0 0 
2402333333.3333334923 0.160767331719398498535156250000 0.034764118492603302001953125000 -0.000654989155009388923645019531 0.000138079645694233504220685416 0 0 0 0 
2402500000.0000000000 0.161660343408584594726562500000 0.032969757914543151855468750000 -0.000594766926951706409454345703 0.000256414088653400486141759052 0 0 0 0 
2402666666.6666665077 0.162138715386390713790731865629 0.031225943937897678720494454296 -0.000628117413725703954696655273 -0.000057334389566676691174507141 0 0 0 0 
2402833333.3333334923 0.163015857338905306717080634371 0.029498444870114329946497733204 -0.000506893440615385770797729492 -0.000055611992138437926769256592 0 0 0 0 
2403000000.0000000000 0.163566753268241910079794365629 0.027737323194742199289342110546 -0.000658393371850252151489257812 0.000044018175685778260231018066 0 0 0 0 
2403166666.6666665077 0.164552882313728304763955634371 0.026161853224039081228236014454 -0.000608887581620365381240844727 -0.000347776280250400304794311523 0 0 0 0 
2403333333.3333334923 0.165456831455230712890625000000 0.024737697094678878784179687500 -0.000557998137082904577255249023 -0.000088354565377812832593917847 0 0 0 0 
2403500000.0000000000 0.166222989559173611739950615629 0.023365311324596408498743826954 -0.000447685044491663575172424316 -0.000242113586864434209748944693 0 0 0 0 
2403666666.6666665077 0.167075902223587008377236884371 0.021750587970018390310267264454 -0.000488637888338416814804077148 -0.000271687429631128907203674316 0 0 0 0 
2403833333.3333334923 0.168292269110679598709268134371 0.020647304132580760610560233204 -0.000584445195272564888000488281 -0.000350436515873298103183192120 0 0 0 0 
2404000000.0000000000 0.169317826628684997558593750000 0.019588153809309009206751639454 -0.000559645879548043012619018555 -0.000403206853661686182022094727 0 0 0 0 
2404166666.6666665077 0.170060694217681912521200615629 0.018291296437382701528528983204 -0.000777840847149491310119628906 -0.000470499217044562101364135742 0 0 0 0 
2404333333.3333334923 0.171110138297080993652343750000 0.017388494685292240488072579296 -0.000669954228214919567108154297 -0.000394760107155889326899927960 0 0 0 0 
2404500000.0000000000 0.171935036778450012207031250000 0.016230583190917968750000000000 -0.000788735866080969572067260742 -0.000519051100127398967742919922 0 0 0 0 
2404666666.6666665077 0.172877863049507113357705634371 0.015568292699754239863385585352 -0.000731318432372063398361206055 -0.000436849193647503907054346906 0 0 0 0 
2404833333.3333334923 0.173677682876586886306924384371 0.014659084379673000680943673046 -0.000696593488100916147232055664 -0.000678353942930698394775390625 0 0 0 0 
2405000000.0000000000 0.174733340740203912933026231258 0.014069472439587119710902030079 -0.000893887830898165702819824219 -0.000673579459544271230697631836 0 0 0 0 
2405166666.6666665077 0.175587326288223294357138115629 0.013228055089712139474888985546 -0.000960850622504949569702148438 -0.000671052606776356697082519531 0 0 0 0 
2405333333.3333334923 0.176349550485610989669638115629 0.012709839269518850499163242773 -0.001047829282470047907588339697 -0.000581382075324654579162597656 0 0 0 0 
2405500000.0000000000 0.177126422524452209472656250000 0.012265883386135099583635899023 -0.001021135947667062065721821362 -0.000699410447850823402404785156 0 0 0 0 
2405666666.6666665077 0.177777171134948702713174384371 0.011835978366434570657750313671 -0.001158878905698657035827636719 -0.000636114447843283414840698242 0 0 0 0 
2405833333.3333334923 0.178381145000457791427450615629 0.011490209028124809265136718750 -0.001222402439452707984327006763 -0.000611734343692660331726074219 0 0 0 0 
2406000000.0000000000 0.178998202085494995117187500000 0.010993920266628270585029802930 -0.001397541956976056098937988281 -0.000612740230280905961990356445 0 0 0 0 
2406166666.6666665077 0.179336830973625210861044365629 0.010887167416512969625452811329 -0.001467316062189639048335410010 -0.000691352004650980234146118164 0 0 0 0 
2406333333.3333334923 0.179876267910003689864950615629 0.010379151441156860696812813671 -0.001470217597670852921129536206 -0.000487020559376105720370692120 0 0 0 0 
2406500000.0000000000 0.180161073803901700118856865629 0.010190331377089020120640938671 -0.001471953117288649082183837891 -0.000531445199158042669296264648 0 0 0 0 
2406666666.6666665077 0.180331707000732394119424384371 0.009925400838255882263183593750 -0.001534683397039771080017089844 -0.000408298947149887681007385254 0 0 0 0 
2406833333.3333334923 0.180654421448707608321981865629 0.009508388116955757141113281250 -0.001703513204120099978206015479 -0.000390469736885279417037963867 0 0 0 0 
2407000000.0000000000 0.180666133761405889313067518742 0.009240124374628067016601562500 -0.001708834664896130995509482275 -0.000319342245347797924846094952 0 0 0 0 
2407166666.6666665077 0.180864423513412503341513115629 0.008981916122138500213623046875 -0.001841188757680356936213827979 -0.000198612498934380710124969482 0 0 0 0 
2407333333.3333334923 0.180640846490860013107138115629 0.008555084466934204101562500000 -0.001886842306703329086303710938 -0.000226219301111996200963696890 0 0 0 0 
2407500000.0000000000 0.180448144674301202972088731258 0.008183893747627735137939453125 -0.001935164211317897059796977466 0.000049038120778277523141314848 0 0 0 0 
2407666666.6666665077 0.180244266986846896072549384371 0.007787281181663274765014648438 -0.001771220704540610096575092847 0.000001503482394582533954990725 0 0 0 0 
2407833333.3333334923 0.179965257644653292556924384371 0.007173915393650531768798828125 -0.001752600539475678963902138818 0.000131728695123456391409197397 0 0 0 0 
2408000000.0000000000 0.179561078548431396484375000000 0.006678447127342224121093750000 -0.001854969770647584958317422021 0.000156519236043095588684082031 0 0 0 0 
2408166666.6666665077 0.179077312350273104568643134371 0.006103149149566888809204101562 -0.001780923106707632975337363135 0.000185515556950122090891161508 0 0 0 0 
2408333333.3333334923 0.178856909275054903885049384371 0.005450099706649780273437500000 -0.001801755395717919089673686450 0.000425557198468595688969212665 0 0 0 0 
2408500000.0000000000 0.178217530250549288650674384371 0.004618675913661718368530273438 -0.001694037113338709094403911060 0.000479868729598820209503173828 0 0 0 0 
2408666666.6666665077 0.177639365196227999588174384371 0.003690629033371806144714355469 -0.001811418798752129077911376953 0.000547076284419745206832885742 0 0 0 0 
2408833333.3333334923 0.176785662770271301269531250000 0.002625032560899854140040732275 -0.001806014450266957066179585034 0.000448983220849186182022094727 0 0 0 0 
2409000000.0000000000 0.176219031214714105804119981258 0.001912791281938553073285746997 -0.001632714876905084089991904150 0.000499949557706713676452636719 0 0 0 0 
2409166666.6666665077 0.175460010766983004470986884371 0.000620478531345725059509277344 -0.001627746503800153949140239185 0.000490762991830706596374511719 0 0 0 0 
2409333333.3333334923 0.174970194697380093673544365629 -0.000684274593368172753989064905 -0.001655197353102267005323100513 0.000547193340025842189788818359 0 0 0 0 
2409500000.0000000000 0.174307122826576205154580634371 -0.001976447878405452208278036963 -0.001773138297721744017360068213 0.000667857762891799211502075195 0 0 0 0 
2409666666.6666665077 0.173315078020095797439736884371 -0.003321647178381681008579873193 -0.001689561060629785060882568359 0.000522800721228122711181640625 0 0 0 0 
2409833333.3333334923 0.172742187976837213714276231258 -0.004682799335569143295288085938 -0.001514766947366297028185200269 0.000637994555290788412094116211 0 0 0 0 
2410000000.0000000000 0.172138422727584811111611884371 -0.006203273311257362365722656250 -0.001496089273132384040235209888 0.000777986540924757719039916992 0 0 0 0 
2410166666.6666665077 0.171527266502380398849325615629 -0.007741421461105346679687500000 -0.001480010454542934894561767578 0.000683708582073450088500976562 0 0 0 0 
2410333333.3333334923 0.170742347836494501311932481258 -0.009280464611947536468505859375 -0.001534035196527838923810649341 0.000865353213157504796981811523 0 0 0 0 
2410500000.0000000000 0.170264467597007806975994981258 -0.010962352156639100855817225977 -0.001473752199672162966487265479 0.000833183235954493284225463867 0 0 0 0 
2410666666.6666665077 0.169724896550178500076455634371 -0.012807366438210010528564453125 -0.001455012359656393961665488135 0.000741948781069368124008178711 0 0 0 0 
2410833333.3333334923 0.169386222958564813811932481258 -0.014576269313693050039271170704 -0.001471598865464329936383891528 0.000734239059966057538986206055 0 0 0 0 
2411000000.0000000000 0.168928295373916598220986884371 -0.016287410631775859487513358204 -0.001499007339589297988294291919 0.000826985517051070928573608398 0 0 0 0 
2411166666.6666665077 0.168630585074424688141192518742 -0.018362989649176601064661795704 -0.001609436585567892031428671729 0.000838312203995883464813232422 0 0 0 0 
2411333333.3333334923 0.168407917022705105880575615629 -0.020150195807218551635742187500 -0.001548199565149843909619975513 0.000837537052575498819351196289 0 0 0 0 
2411500000.0000000000 0.168150693178176907638388115629 -0.022269884124398231506347656250 -0.001443787245079874992370605469 0.000866465969011187553405761719 0 0 0 0 
2411666666.6666665077 0.168082043528556795974893134371 -0.024102067574858668935755545704 -0.001525600091554224924800253760 0.000824868096970021724700927734 0 0 0 0 
2411833333.3333334923 0.168075859546661404708700615629 -0.026045156642794609069824218750 -0.001451029675081372044206928784 0.000914702075533568859100341797 0 0 0 0 
2412000000.0000000000 0.168232724070549011230468750000 -0.027951953932642940175989920704 -0.001609112718142569065093994141 0.000910612579900771379470825195 0 0 0 0 
2412166666.6666665077 0.168216586112976101974325615629 -0.029986307024955749511718750000 -0.001470957417041063091875385815 0.000870375311933457851409912109 0 0 0 0 
2412333333.3333334923 0.168546661734580993652343750000 -0.031843967735767371440847028907 -0.001663014758378267071367573315 0.001044055330567061901092529297 0 0 0 0 
2412500000.0000000000 0.168555155396461486816406250000 -0.033785939216613769531250000000 -0.001412314362823962948442768628 0.001214149640873074965236044775 0 0 0 0 
2412666666.6666665077 0.168873906135559109786825615629 -0.035808544605970382690429687500 -0.001620411872863769964930868994 0.001172599731944500966313027490 0 0 0 0 
2412833333.3333334923 0.169406160712242098709268134371 -0.037590146064758300781250000000 -0.001469533191993833021876669775 0.001316138776019216017482138525 0 0 0 0 
2413000000.0000000000 0.169764965772628811935263115629 -0.039401303976774222637136091407 -0.001589719322510064081904745947 0.001484829350374639034271240234 0 0 0 0 
2413166666.6666665077 0.170156568288803100585937500000 -0.041242562234401702880859375000 -0.001512893126346170902252197266 0.001335914828814565918566059644 0 0 0 0 
2413333333.3333334923 0.170570507645606994628906250000 -0.042866364121437072753906250000 -0.001547766150906682014465332031 0.001310021616518497900721884619 0 0 0 0 
2413500000.0000000000 0.171123445034027099609375000000 -0.044509954750537872314453125000 -0.001599002280272542996647500146 0.001563432160764933066127158057 0 0 0 0 
2413666666.6666665077 0.171769261360168512542401231258 -0.046200089156627661968190778907 -0.001593760447576642036437988281 0.001791957183741033077239990234 0 0 0 0 
2413833333.3333334923 0.172073587775230407714843750000 -0.047821305692195892333984375000 -0.001547131454572081999537802588 0.001770013943314552090288471753 0 0 0 0 
2414000000.0000000000 0.172507777810096712967080634371 -0.049270503222942352294921875000 -0.001480842125602066950557089697 0.001803841558285057978389120947 0 0 0 0 
2414166666.6666665077 0.173353478312492398361044365629 -0.050322111696004867553710937500 -0.001457657432183623097063374097 0.001947759301401674964307475513 0 0 0 0 
2414333333.3333334923 0.173720106482505798339843750000 -0.051791489124298102642018903907 -0.001343295676633716063258505713 0.002022765809670091109034872900 0 0 0 0 
2414500000.0000000000 0.174574449658393887618856865629 -0.052762515842914581298828125000 -0.001302594784647225899937295068 0.002130716340616344971897744287 0 0 0 0 
2414666666.6666665077 0.174929007887840298751669365629 -0.053880997002124793315847028907 -0.001137530081905425028560019385 0.001981177367269992828369140625 0 0 0 0 
2414833333.3333334923 0.175421833992004394531250000000 -0.054920133203268051147460937500 -0.001159794395789504051208496094 0.002217048546299337907078408350 0 0 0 0 
2415000000.0000000000 0.175966307520866394042968750000 -0.055831041187047958374023437500 -0.001137931016273796992060995947 0.002378673292696475982666015625 0 0 0 0 
2415166666.6666665077 0.176298975944518987457598768742 -0.056559033691883087158203125000 -0.001031652092933655001996684497 0.002317325444892048835754394531 0 0 0 0 
2415333333.3333334923 0.176763534545898409744424384371 -0.057361025363206863403320312500 -0.000945906678680330514907836914 0.002499256283044815063476562500 0 0 0 0 
2415500000.0000000000 0.177065238356590298751669365629 -0.057944279164075851440429687500 -0.000932718859985470771789550781 0.002481349278241395950317382812 0 0 0 0 
2415666666.6666665077 0.177343487739562988281250000000 -0.058450832962989807128906250000 -0.000716544338501989841461181641 0.002703232923522592024562216650 0 0 0 0 
2415833333.3333334923 0.177578553557395907303018134371 -0.059137284755706787109375000000 -0.000650699017569422721862792969 0.002511473838239907784702920068 0 0 0 0 
2416000000.0000000000 0.177651956677436800857705634371 -0.059419039636850357055664062500 -0.000659605779219418764114379883 0.002651753602549434141871786963 0 0 0 0 
2416166666.6666665077 0.177974253892898587325888115629 -0.059859227389097206806223283593 -0.000519839406479150056838989258 0.002716126618906856016871786963 0 0 0 0 
2416333333.3333334923 0.177777498960494995117187500000 -0.060188692063093192363698591407 -0.000485594151541590690612792969 0.002881284570321441130397177588 0 0 0 0 
2416500000.0000000000 0.177689462900161687652911268742 -0.060494687408208847045898437500 -0.000299821200314909219741821289 0.002799931680783628983738564600 0 0 0 0 
2416666666.6666665077 0.177444487810134887695312500000 -0.060675334185361862182617187500 -0.000266435003140941316455286847 0.002744397381320596174952841650 0 0 0 0 
2416833333.3333334923 0.177347719669342013260049384371 -0.061002772301435470581054687500 0.000077540920756291598081588745 0.002851566066965461210963583838 0 0 0 0 
2417000000.0000000000 0.176694110035896301269531250000 -0.061232045292854309082031250000 0.000019866198272211480548585585 0.003014300717040895982029580225 0 0 0 0 
2417166666.6666665077 0.176339194178581210037393134371 -0.061344128102064132690429687500 0.000216609652852639610141199933 0.002913688542321323914768838037 0 0 0 0 
2417333333.3333334923 0.175856724381446810623330634371 -0.061669472604990012432057966407 0.000208175086299888789653778076 0.003054599044844508171081542969 0 0 0 0 
2417500000.0000000000 0.175295352935790987869424384371 -0.061899937689304351806640625000 0.000391295470762997919886988507 0.003055656328797339959385537256 0 0 0 0 
2417666666.6666665077 0.174622908234596307952557481258 -0.061988685280084609985351562500 0.000551668810658156871795654297 0.002865907736122608184814453125 0 0 0 0 
2417833333.3333334923 0.173753470182418795486611884371 -0.062248989939689643169362653907 0.000615906144957989454269409180 0.003036964917555450959446572412 0 0 0 0 
2418000000.0000000000 0.172936588525772094726562500000 -0.062531918287277221679687500000 0.000785201205871999263763427734 0.002951638307422399954554892432 0 0 0 0 
2418166666.6666665077 0.171797931194305392166299384371 -0.062839493155479431152343750000 0.000991445267572999000549316406 0.002756789093837141990661621094 0 0 0 0 
2418333333.3333334923 0.171216621994972201248330634371 -0.063310772180557250976562500000 0.001075152889825403907178569263 0.002933643059805036024806357275 0 0 0 0 
2418500000.0000000000 0.170089796185493496993856865629 -0.063642933964729309082031250000 0.001374406740069388909580849756 0.002743781078606843948364257812 0 0 0 0 
2418666666.6666665077 0.168958544731140108963174384371 -0.064175076782703399658203125000 0.001361896400339901013615273584 0.002828267635777593092677451025 0 0 0 0 
2418833333.3333334923 0.167683884501457186599893134371 -0.064910963177680969238281250000 0.001403662259690463976619101416 0.002726172795519233183619833838 0 0 0 0 
2419000000.0000000000 0.166477203369140597244424384371 -0.065266713500022888183593750000 0.001618237001821398951886821216 0.002647037385031580924987792969 0 0 0 0 
2419166666.6666665077 0.165382400155067388336505018742 -0.065878324210643768310546875000 0.001737353857606648965122841943 0.002608802402392030195948935400 0 0 0 0 
2419333333.3333334923 0.163884267210960388183593750000 -0.066524878144264221191406250000 0.001917883404530585029004741138 0.002493278123438357873203896631 0 0 0 0 
2419500000.0000000000 0.162968263030052212814169365629 -0.067630641162395477294921875000 0.001993895741179585890529013525 0.002398680197075008912327431787 0 0 0 0 
2419666666.6666665077 0.161765500903129605392294365629 -0.068488910794258117675781250000 0.001978791318833827972412109375 0.002356233540922402901890420068 0 0 0 0 
2419833333.3333334923 0.160543724894523592849893134371 -0.069297343492507934570312500000 0.001968878088518977165222167969 0.002134185051545501188990927588 0 0 0 0 
