# Hz S RI R 
2400000000.0000000000 0.167893677949905395507812500000 0.041104592382907867431640625000 0.002540992107242345809936523438 0.001145735033787786960601806641 0 0 0 0 
2400166666.6666665077 0.168480768799781799316406250000 0.040368914604187011718750000000 0.002474783686921000914332724463 0.001095170038752258040784526294 0 0 0 0 
2400333333.3333334923 0.168880432844161987304687500000 0.039143986999988562847097028907 0.002659350167959928946254111182 0.000998122617602348327636718750 0 0 0 0 
2400500000.0000000000 0.169359818100929288009481865629 0.038460657000541687011718750000 0.002550608245655893845799111475 0.000929098692722618579864501953 0 0 0 0 
2400666666.6666665077 0.169759854674339294433593750000 0.037620402872562408447265625000 0.002563747810199857191798544775 0.001070184283889829895616840894 0 0 0 0 
2400833333.3333334923 0.170261278748512295821981865629 0.036801714450120932842214216407 0.002655779710039495988133095850 0.001133019104599952914594340747 0 0 0 0 
2401000000.0000000000 0.170380920171737698654013115629 0.035719446837902069091796875000 0.002771555213257669968845986475 0.001167631708085536956787109375 0 0 0 0 
2401166666.6666665077 0.170634120702743502517861884371 0.034695044159889221191406250000 0.002977182855829596953151083838 0.001049043610692024014116596753 0 0 0 0 
2401333333.3333334923 0.170733645558357211013955634371 0.034028202295303351665456403907 0.003043644363060594038722372900 0.001159933744929730892181396484 0 0 0 0 
2401500000.0000000000 0.171305298805236788650674384371 0.033085942268371582031250000000 0.003091048216447234153747558594 0.000982760568149387836456298828 0 0 0 0 
2401666666.6666665077 0.171423107385635403732138115629 0.032213963568210601806640625000 0.003377995220944284959080361475 0.000902030267752707004547119141 0 0 0 0 
2401833333.3333334923 0.171296074986457796951455634371 0.031236395239830020559290701954 0.003332229563966393904445029150 0.000819199834950268268585205078 0 0 0 0 
2402000000.0000000000 0.171243324875831604003906250000 0.030511250719428058969517891796 0.003360056784003973007202148438 0.000753103638999164104461669922 0 0 0 0 
2402166666.6666665077 0.171306565403938293457031250000 0.029330885037779811513880545704 0.003656166605651379065272665869 0.000602413434535264968872070312 0 0 0 0 
2402333333.3333334923 0.171243935823440607268963731258 0.028342707082629200326939766796 0.003725510789081453843357705225 0.000394589762436226010322570801 0 0 0 0 
2402500000.0000000000 0.171536833047866793533486884371 0.027502646669745448720911795704 0.003698575077578424973728798975 0.000264809379586949890286046161 0 0 0 0 
2402666666.6666665077 0.171352326869964599609375000000 0.026458222419023510324498360546 0.003739646635949612097499228369 0.000197541681700386106967926025 0 0 0 0 
2402833333.3333334923 0.171410530805587796310263115629 0.025328936055302619934082031250 0.003712215460836886925938271631 -0.000025077819373109381308759383 0 0 0 0 
2403000000.0000000000 0.171265602111816406250000000000 0.024419849738478660583496093750 0.003708375850692390961887978662 -0.000275115802651271224021911621 0 0 0 0 
2403166666.6666665077 0.171132281422615106780682481258 0.023176243528723720205286795704 0.003735503414645791053771972656 -0.000352306786226108724444788800 0 0 0 0 
2403333333.3333334923 0.171319812536239596267861884371 0.022130548954010009765625000000 0.003689083736389874978306435693 -0.000649719557259231805801391602 0 0 0 0 
2403500000.0000000000 0.171035528182983398437500000000 0.020966958254575729370117187500 0.003701473120599985122680664062 -0.000600301078520715236663818359 0 0 0 0 
2403666666.6666665077 0.170929938554763793945312500000 0.019746664911508560180664062500 0.003617158625274897055384970557 -0.000774522661231458187103271484 0 0 0 0 
2403833333.3333334923 0.170861154794692993164062500000 0.018398119136691089975377266796 0.003450620453804730935337685693 -0.000821497524157166481018066406 0 0 0 0 
2404000000.0000000000 0.170788049697876004318075615629 0.017254378646612170827845389454 0.003493268508464097976684570312 -0.000842846697196364402770996094 0 0 0 0 
2404166666.6666665077 0.170623123645782498458700615629 0.015698386356234550476074218750 0.003547846339643001990077353369 -0.000859053514432162046432495117 0 0 0 0 
2404333333.3333334923 0.170540452003479003906250000000 0.014619572088122369593610194727 0.003390421858057380156276083838 -0.001054296037182212092755961841 0 0 0 0 
2404500000.0000000000 0.170336991548538208007812500000 0.013220011256635190791119960352 0.003438290674239397048950195312 -0.000996124465018510818481445312 0 0 0 0 
2404666666.6666665077 0.170269325375557001311932481258 0.011943598277866840362548828125 0.003546191612258553938624716650 -0.001122760237194597937940288013 0 0 0 0 
2404833333.3333334923 0.170387759804725702483807481258 0.010398196056485179555872733204 0.003642189316451549963710165869 -0.001207638881169259981868124854 0 0 0 0 
2405000000.0000000000 0.170247465372085599044638115629 0.008934929966926574707031250000 0.003638309193775057792663574219 -0.001234322437085211060167622144 0 0 0 0 
2405166666.6666665077 0.170212820172309903243856865629 0.007474461104720830917358398438 0.003653724910691380934474326025 -0.001484494307078420899034809644 0 0 0 0 
2405333333.3333334923 0.170283719897270202636718750000 0.005890719126909971237182617188 0.003649999620392919020411826025 -0.001672826823778450922725058447 0 0 0 0 
2405500000.0000000000 0.170350134372711209396200615629 0.004465937614440917968750000000 0.003527960740029811859130859375 -0.001835479750297964052913046729 0 0 0 0 
2405666666.6666665077 0.170382991433143587967080634371 0.002881985157728195190429687500 0.003657293738797307014465332031 -0.001983484486117959022521972656 0 0 0 0 
2405833333.3333334923 0.170090839266777010818643134371 0.001237609889358282089233398438 0.003676238469779490990879677881 -0.002245698124170302911045693506 0 0 0 0 
2406000000.0000000000 0.170109018683433504959268134371 -0.000338180601829662919044494629 0.003402007510885595841648720850 -0.002420300617814064025878906250 0 0 0 0 
2406166666.6666665077 0.169873923063278198242187500000 -0.001923007541336118958116840894 0.003420226508751512007472372900 -0.002369641559198499159571982275 0 0 0 0 
2406333333.3333334923 0.169978618621826199630575615629 -0.003339270129799842834472656250 0.003217858960852026939392089844 -0.002701168879866600036621093750 0 0 0 0 
2406500000.0000000000 0.169859454035758999923544365629 -0.004960530437529087066650390625 0.003257362172007561163661337744 -0.002863734727725387053248740088 0 0 0 0 
2406666666.6666665077 0.169473171234130887130575615629 -0.006534608546644449234008789062 0.003164235502481461004969931494 -0.003020108910277485847473144531 0 0 0 0 
2406833333.3333334923 0.169432118535041809082031250000 -0.008102131076157093048095703125 0.003234267933294177055358886719 -0.003092199331149458885192871094 0 0 0 0 
2407000000.0000000000 0.169263899326324490646200615629 -0.009528507478535175323486328125 0.003014314454048871994018554688 -0.003303285688161849975585937500 0 0 0 0 
2407166666.6666665077 0.169144824147224398513955634371 -0.010769846849143510300605974805 0.002895828103646636009216308594 -0.003491181181743741035461425781 0 0 0 0 
2407333333.3333334923 0.168928429484367398361044365629 -0.012208659201860429591168788477 0.002736468566581606864929199219 -0.003550373017787932915928506006 0 0 0 0 
2407500000.0000000000 0.168674454092979403396768134371 -0.013498866930603979283342930273 0.002619500271975994110107421875 -0.003857757896184920830967568506 0 0 0 0 
2407666666.6666665077 0.168549060821533203125000000000 -0.014540688134729860478411289648 0.002389270113781094984767294775 -0.003935117740184068679809570312 0 0 0 0 
2407833333.3333334923 0.168263539671897888183593750000 -0.015856157988309860229492187500 0.002084203995764255957362509619 -0.004089065827429294586181640625 0 0 0 0 
2408000000.0000000000 0.168275684118270901779013115629 -0.016784688457846641540527343750 0.001977283740416169166564941406 -0.004051175434142351150512695312 0 0 0 0 
2408166666.6666665077 0.168051585555076599121093750000 -0.017649823799729350698450858204 0.001733780489303172068354941260 -0.004031452350318431854248046875 0 0 0 0 
2408333333.3333334923 0.168288901448249789138955634371 -0.018639476969838138925572579296 0.001439860556274652914759970557 -0.004175483249127864837646484375 0 0 0 0 
2408500000.0000000000 0.168070554733276394943075615629 -0.019696192815899848937988281250 0.001287387451156974055646586841 -0.004154411610215902328491210938 0 0 0 0 
2408666666.6666665077 0.168171614408492986481036268742 -0.020607702434062961233118826954 0.000998850911855697631835937500 -0.004227783996611833572387695312 0 0 0 0 
2408833333.3333334923 0.168301224708557101150674384371 -0.021428041160106658935546875000 0.000926740525756031274795532227 -0.004143263678997755050659179688 0 0 0 0 
2409000000.0000000000 0.168266713619232205489950615629 -0.022048775106668468820592110546 0.000653862080071121454238891602 -0.004055913537740707397460937500 0 0 0 0 
2409166666.6666665077 0.168603315949440002441406250000 -0.023085480555891990661621093750 0.000478437024867162108421325684 -0.004137742798775435361380292676 0 0 0 0 
2409333333.3333334923 0.168781623244285611251669365629 -0.024055244401097301137903983204 0.000233354017836973098203381949 -0.003939519636332988739013671875 0 0 0 0 
2409500000.0000000000 0.168726354837417602539062500000 -0.025052262470126148569127266796 0.000243397575104609104707995004 -0.003744885092601180076599121094 0 0 0 0 
2409666666.6666665077 0.168919593095779391189736884371 -0.025761069729924198495885079296 0.000127144405269064009189605713 -0.003717933548614383177516318213 0 0 0 0 
2409833333.3333334923 0.168994471430778503417968750000 -0.026670593768358230590820312500 0.000143942801514640504687708722 -0.003531599417328834967372275244 0 0 0 0 
2410000000.0000000000 0.169099420309066800216513115629 -0.027673419564962390554407889454 -0.000044030788558302447199821472 -0.003546046791598200798034667969 0 0 0 0 
2410166666.6666665077 0.169127613306045504470986884371 -0.028427284210920330392857735546 0.000027376512662158351054395369 -0.003511955728754401206970214844 0 0 0 0 
2410333333.3333334923 0.169208899140357998946981865629 -0.029323678463697430002232735546 -0.000180289673153310987070360727 -0.003340748371556400819065713037 0 0 0 0 
2410500000.0000000000 0.168992981314659090896768134371 -0.030287066474556919443150704296 -0.000335594872012734413146972656 -0.003309030784294009208679199219 0 0 0 0 
2410666666.6666665077 0.168968647718429593185263115629 -0.031443279236555099487304687500 -0.000291068805381655693054199219 -0.003298592520877718925476074219 0 0 0 0 
2410833333.3333334923 0.169011160731315612792968750000 -0.032336924225091927265207658593 -0.000450271560112014412879943848 -0.003247404703870416121241904150 0 0 0 0 
2411000000.0000000000 0.168741613626480102539062500000 -0.033108949661254882812500000000 -0.000392431305954232811927795410 -0.003276269650086760954615927588 0 0 0 0 
2411166666.6666665077 0.168529599905014010330361884371 -0.034209836274385452270507812500 -0.000366050400771200711100977765 -0.003258520038798450989964150537 0 0 0 0 
2411333333.3333334923 0.168396785855293301681356865629 -0.034897934645414352416992187500 -0.000509562261868268251419067383 -0.003374833147972822189331054688 0 0 0 0 
2411500000.0000000000 0.168050602078437805175781250000 -0.036120358854532241821289062500 -0.000622206600382924079895019531 -0.003272600239142775969264365088 0 0 0 0 
2411666666.6666665077 0.168022871017456110198651231258 -0.036776833236217498779296875000 -0.000613007636275142431259155273 -0.003314972156658769087550497900 0 0 0 0 
2411833333.3333334923 0.167664155364036587814169365629 -0.037720099091529853130300153907 -0.000675274641253054141998291016 -0.003297231392934917969944619287 0 0 0 0 
2412000000.0000000000 0.167588293552398709396200615629 -0.038651593029499047016184221093 -0.000822295667603611946105957031 -0.003183739027008413834812783350 0 0 0 0 
2412166666.6666665077 0.167089298367500305175781250000 -0.039595611393451690673828125000 -0.000887158501427620649337768555 -0.003232518909499049186706542969 0 0 0 0 
2412333333.3333334923 0.167026981711387606521768134371 -0.040622793138027191162109375000 -0.000901566818356513977050781250 -0.003268103348091245131251669775 0 0 0 0 
2412500000.0000000000 0.166537269949912997146768134371 -0.041481219232082366943359375000 -0.001124783302657305977464985425 -0.003178784390911459922790527344 0 0 0 0 
2412666666.6666665077 0.166227445006370488922442518742 -0.042583122849464423442800153907 -0.001341625116765498898149799878 -0.003050964325666428045985556494 0 0 0 0 
2412833333.3333334923 0.165902853012084988693075615629 -0.043546289205551147460937500000 -0.001344109652563929991481161963 -0.003119149710983037948608398438 0 0 0 0 
2413000000.0000000000 0.165331542491912786285723768742 -0.044474881142377853393554687500 -0.001542474259622395038604736328 -0.002886464120820165114161826025 0 0 0 0 
2413166666.6666665077 0.164982661604881286621093750000 -0.045542895793914801860768903907 -0.001528325956314801952959370190 -0.002786285709589720206019736182 0 0 0 0 
2413333333.3333334923 0.164333522319793701171875000000 -0.046643372625112526630442033593 -0.001622087205760180950164794922 -0.002697352785617113113403320312 0 0 0 0 
2413500000.0000000000 0.163995519280433710296307481258 -0.047643855214118957519531250000 -0.001617695903405546925188374097 -0.002616538666188716888427734375 0 0 0 0 
2413666666.6666665077 0.163669869303703308105468750000 -0.048756748437881469726562500000 -0.001557939802296459891675639575 -0.002687866566702723936793661963 0 0 0 0 
2413833333.3333334923 0.163033902645111111739950615629 -0.049696575850248336791992187500 -0.001726767281070352034327841650 -0.002676320495083928108215332031 0 0 0 0 
2414000000.0000000000 0.162485182285308810135049384371 -0.050681643187999732280690778907 -0.001665106858126818916918110425 -0.002493383362889289855957031250 0 0 0 0 
2414166666.6666665077 0.162324041128158597091513115629 -0.051520381122827529907226562500 -0.001522003090940416076062846606 -0.002452760003507136864903115381 0 0 0 0 
2414333333.3333334923 0.162074908614158602615518134371 -0.052750635892152793193776716407 -0.001686578732915223078486777197 -0.002635219832882285118103027344 0 0 0 0 
2414500000.0000000000 0.161641031503677395919638115629 -0.053561717271804809570312500000 -0.001736286561936140060424804688 -0.002474399749189614815952920068 0 0 0 0 
2414666666.6666665077 0.161342859268188504318075615629 -0.054430719465017318725585937500 -0.002036714926362038092372275244 -0.002457873895764350891113281250 0 0 0 0 
2414833333.3333334923 0.161096185445785494705361884371 -0.055581409484148032451589216407 -0.002023486653342843055725097656 -0.002436969662085175947902060400 0 0 0 0 
2415000000.0000000000 0.160875409841537503341513115629 -0.056548677384853363037109375000 -0.002017172053456306891200400244 -0.002407645108178257942199707031 0 0 0 0 
2415166666.6666665077 0.160597890615463312347088731258 -0.057736676186323172832448591407 -0.002134785987436770959141396631 -0.002275423845276236967799521338 0 0 0 0 
2415333333.3333334923 0.160656526684761102874432481258 -0.058722414076328277587890625000 -0.002214004052802919907810830225 -0.002160413889214396910426474463 0 0 0 0 
2415500000.0000000000 0.160413667559623690506143134371 -0.059723764657974243164062500000 -0.002443970646709204153773642432 -0.002149949548766016960144042969 0 0 0 0 
2415666666.6666665077 0.160244703292846707443075615629 -0.060818698257207870483398437500 -0.002306238282471894784214638818 -0.001945866621099412007572793115 0 0 0 0 
2415833333.3333334923 0.160207256674766512771768134371 -0.062079660594463348388671875000 -0.002304954221472144126892089844 -0.001938582980073988003971718896 0 0 0 0 
2416000000.0000000000 0.159804075956344604492187500000 -0.063350386917591094970703125000 -0.002591220661997795104980468750 -0.001894604880362749099731445312 0 0 0 0 
2416166666.6666665077 0.159829527139663696289062500000 -0.064511299133300781250000000000 -0.002577103907242416901829384912 -0.001700442633591592095018696362 0 0 0 0 
2416333333.3333334923 0.159526333212852505782919365629 -0.065675504505634307861328125000 -0.002571448916569352149963378906 -0.001647050376050174019457172925 0 0 0 0 
2416500000.0000000000 0.159358561038971002776776231258 -0.066919840872287750244140625000 -0.002598945749923586845397949219 -0.001495093689300120093702006763 0 0 0 0 
2416666666.6666665077 0.158846095204353304763955634371 -0.067986972630023956298828125000 -0.002473435131832956834080361475 -0.001387185184285045103785849463 0 0 0 0 
2416833333.3333334923 0.158829182386398287674111884371 -0.069224692881107330322265625000 -0.002426297636702657179591513525 -0.001214820309542119936702109229 0 0 0 0 
2417000000.0000000000 0.158240944147110013107138115629 -0.070367023348808288574218750000 -0.002462783362716435952427529443 -0.001252201385796070098876953125 0 0 0 0 
2417166666.6666665077 0.158042296767234802246093750000 -0.071217477321624755859375000000 -0.002437073737382888793945312500 -0.001022295793518424034118652344 0 0 0 0 
2417333333.3333334923 0.157708123326301602462606865629 -0.072287149727344512939453125000 -0.002373009221628307862522744287 -0.001085164374671875996830605615 0 0 0 0 
2417500000.0000000000 0.157325938344001797775106865629 -0.073422603309154510498046875000 -0.002329157898202538923976279150 -0.001021510339342057921765971606 0 0 0 0 
2417666666.6666665077 0.157156810164451599121093750000 -0.074208147823810577392578125000 -0.002218970796093345122096396338 -0.000969485612586140632629394531 0 0 0 0 
2417833333.3333334923 0.156837284564971896072549384371 -0.075035087764263153076171875000 -0.002363742329180241064784384619 -0.000845763192046433687210083008 0 0 0 0 
2418000000.0000000000 0.156416133046150207519531250000 -0.076019056141376495361328125000 -0.002217082772403955893275595557 -0.000894202559720724821090698242 0 0 0 0 
2418166666.6666665077 0.156111568212509210784588731258 -0.076752416789531707763671875000 -0.002235270338132977919337607275 -0.000837045838125050067901611328 0 0 0 0 
2418333333.3333334923 0.156130969524383489410723768742 -0.077568657696247100830078125000 -0.002211963292211294174194335938 -0.000858933140989392995834350586 0 0 0 0 
2418500000.0000000000 0.155732050538063104827557481258 -0.078428544104099273681640625000 -0.002229485195130109786987304688 -0.000798531866166740655899047852 0 0 0 0 
2418666666.6666665077 0.155489265918731689453125000000 -0.079211793839931488037109375000 -0.002196918008849025206324911963 -0.000741403433494269847869873047 0 0 0 0 
2418833333.3333334923 0.155002832412719698806924384371 -0.079927161335945129394531250000 -0.002095356583595275878906250000 -0.000780394591856747865676879883 0 0 0 0 
2419000000.0000000000 0.154579877853393610198651231258 -0.080661296844482421875000000000 -0.002081522950902581214904785156 -0.000832009944133460521697998047 0 0 0 0 
2419166666.6666665077 0.154315605759620694259481865629 -0.081305041909217834472656250000 -0.002047434914857149124145507812 -0.000917159661184996366500854492 0 0 0 0 
2419333333.3333334923 0.153825297951698303222656250000 -0.081782519817352294921875000000 -0.001966999378055334091186523438 -0.000886990979779511690139770508 0 0 0 0 
2419500000.0000000000 0.153412446379661587814169365629 -0.082604914903640747070312500000 -0.002073003910481930212733603369 -0.000813914579339325428009033203 0 0 0 0 
2419666666.6666665077 0.153333097696304293533486884371 -0.083358027040958404541015625000 -0.002190001774579287008998251807 -0.000910206406842917203903198242 0 0 0 0 
2419833333.3333334923 0.152891620993614196777343750000 -0.083773888647556304931640625000 -0.002244166797026991844177246094 -0.000986656988970935344696044922 0 0 0 0 
