# Hz S RI R 50
2400000000.0000000000 0.167847841978073092361611884371 0.041048500686883933330495466407 0.002478865673765540122985839844 -0.002019420731812715964076376807 0 0 0 0 
2400166666.6666665077 0.168672263622283907791299384371 0.040283158421516418457031250000 0.002447487553581594987156533350 -0.002277937019243835969212197412 0 0 0 0 
2400333333.3333334923 0.168989345431327792068643134371 0.039390161633491523052175153907 0.002230213722214103178737021338 -0.002592520322650671005249023438 0 0 0 0 
2400500000.0000000000 0.169504523277282687088174384371 0.038570575416088097309152971093 0.002179458970203996138331747900 -0.002573587698861957030055380713 0 0 0 0 
2400666666.6666665077 0.169863119721412686446981865629 0.037607718259096152568776716407 0.001878559705801307938219379956 -0.002724613994359970092773437500 0 0 0 0 
2400833333.3333334923 0.170364111661911010742187500000 0.036790143698453903198242187500 0.001795364427380264022229838794 -0.002848903881385921998264931787 0 0 0 0 
2401000000.0000000000 0.170631587505340603927450615629 0.035739723592996597290039062500 0.001823318190872669003130268628 -0.002886259229853748841526650537 0 0 0 0 
2401166666.6666665077 0.170783489942550686935263115629 0.035139206796884536743164062500 0.001555896480567753098131489331 -0.002947703236714005903956747900 0 0 0 0 
2401333333.3333334923 0.170764148235320989410723768742 0.034257385879755020141601562500 0.001193723990581929900525737231 -0.003043821081519126892089843750 0 0 0 0 
2401500000.0000000000 0.171236291527748107910156250000 0.033260498195886611938476562500 0.001002613105811178901075053638 -0.003160756081342697143554687500 0 0 0 0 
2401666666.6666665077 0.171318724751472500900106865629 0.032433565706014633178710937500 0.000855206628330051898956298828 -0.002930806716904044151306152344 0 0 0 0 
2401833333.3333334923 0.171423554420471191406250000000 0.031382746994495391845703125000 0.000680277124047279357910156250 -0.003142951289191842079162597656 0 0 0 0 
2402000000.0000000000 0.171233743429183987716513115629 0.030604256317019459116002266796 0.000575715617742389440536499023 -0.003037669695913792090175009619 0 0 0 0 
2402166666.6666665077 0.171334534883499201018963731258 0.029560297727584838867187500000 0.000444013654487207477718907489 -0.002876277780160307884216308594 0 0 0 0 
2402333333.3333334923 0.171374946832656888107138115629 0.028733700513839721679687500000 0.000308890768792480176121312274 -0.002841142471879721121547079932 0 0 0 0 
2402500000.0000000000 0.171630784869194003006143134371 0.027795240283012390136718750000 0.000175030494574457406997680664 -0.002776805777102708816528320312 0 0 0 0 
2402666666.6666665077 0.171480908989906311035156250000 0.026757366955280300485631173046 0.000099340613815002143383026123 -0.002521228278055787086486816406 0 0 0 0 
2402833333.3333334923 0.171320706605911310393963731258 0.025898579508066180837611014454 -0.000079879479017108678817749023 -0.002612188924103974862339638818 0 0 0 0 
2403000000.0000000000 0.171228066086769104003906250000 0.024768464267253879201868826954 -0.000004448118033906212076544762 -0.002503685886040329933166503906 0 0 0 0 
2403166666.6666665077 0.171448290348053006271200615629 0.023843277245759960519810860546 -0.000026643045202945359051227570 -0.002389919711276888847351074219 0 0 0 0 
2403333333.3333334923 0.171078369021415710449218750000 0.022727567702531821514089216407 -0.000210323385545052587985992432 -0.002322319196537137031555175781 0 0 0 0 
2403500000.0000000000 0.171125471591949490646200615629 0.021489597856998440134068673046 -0.000111925895907916101530352182 -0.002340604085475205941441201318 0 0 0 0 
2403666666.6666665077 0.170983493328094510177450615629 0.020250344648957249032994454296 -0.000230670804739929708555498666 -0.002241182373836636976954794775 0 0 0 0 
2403833333.3333334923 0.170857593417167691329794365629 0.018900506198406219482421875000 -0.000107207939436193596251072069 -0.002336720703169703917262411963 0 0 0 0 
2404000000.0000000000 0.170800402760505704025106865629 0.017773061990737918508509451954 -0.000104385799204465001821517944 -0.002204828197136520905735634912 0 0 0 0 
2404166666.6666665077 0.170753180980682400802450615629 0.016519887372851368295689766796 -0.000167603677255101501941680908 -0.002322274493053555922267294775 0 0 0 0 
2404333333.3333334923 0.170702248811721801757812500000 0.015284521505236629140833670704 -0.000158164039021357893943786621 -0.002100796671584248976466513525 0 0 0 0 
2404500000.0000000000 0.170345291495323208907919365629 0.013737979345023630314837070898 -0.000321591418469324707984924316 -0.002306961687281727790832519531 0 0 0 0 
2404666666.6666665077 0.170555859804153386871661268742 0.012400515377521520096748552930 -0.000303180800983682274818420410 -0.002175630768761039213893271338 0 0 0 0 
2404833333.3333334923 0.170515462756156893631143134371 0.010975269600749019277552420704 -0.000353035196894779801368713379 -0.002317178063094615936279296875 0 0 0 0 
2405000000.0000000000 0.170461520552635192871093750000 0.009471305646002292633056640625 -0.000324671127600595409243983136 -0.002267765346914529800415039062 0 0 0 0 
2405166666.6666665077 0.170355245471000699142294365629 0.007844450883567333221435546875 -0.000218717788811773088857373648 -0.002207330660894513130187988281 0 0 0 0 
2405333333.3333334923 0.170467630028724698165731865629 0.006116868928074836730957031250 -0.000274967373115941882133483887 -0.002222924958914517922642373193 0 0 0 0 
2405500000.0000000000 0.170438379049301202972088731258 0.004823971074074506759643554688 -0.000356831907993182485729771747 -0.002424119971692562103271484375 0 0 0 0 
2405666666.6666665077 0.170225828886032104492187500000 0.003245980245992540879490517725 -0.000389741384424269199371337891 -0.002392222639173268838169716943 0 0 0 0 
2405833333.3333334923 0.170018464326858492752236884371 0.001649770420044661001918173682 -0.000467906531412154381901341571 -0.002550785895437002182006835938 0 0 0 0 
2406000000.0000000000 0.170206263661384610275106865629 -0.000087999775132630020380020142 -0.000522357004228979349136352539 -0.002539527136832476095912314307 0 0 0 0 
2406166666.6666665077 0.170013949275016812423544365629 -0.001520360703580081896540976416 -0.000664427818264812231063842773 -0.002484187949448823928833007812 0 0 0 0 
2406333333.3333334923 0.170035839080810602386151231258 -0.003182063810527325110194540869 -0.000644905085209757089614868164 -0.002594209043309092955348349463 0 0 0 0 
2406500000.0000000000 0.169815525412559509277343750000 -0.004657395649701356887817382812 -0.001014847541227936961530375903 -0.002572450321167707009556435693 0 0 0 0 
2406666666.6666665077 0.169346824288368197342080634371 -0.006084395106881856918334960938 -0.000955833529587835073471069336 -0.002435643458738923072814941406 0 0 0 0 
2406833333.3333334923 0.169505402445793207366619981258 -0.007883272133767604827880859375 -0.000994657399132847785949707031 -0.002416864503175019784214638818 0 0 0 0 
2407000000.0000000000 0.169392630457878112792968750000 -0.009260299615561962127685546875 -0.001242763013578950925114297021 -0.002327253110706806182861328125 0 0 0 0 
2407166666.6666665077 0.169319778680801391601562500000 -0.010567478835582729684849923046 -0.001060225069522858099696493994 -0.002266824478283524946925497900 0 0 0 0 
2407333333.3333334923 0.168885871767997686188067518742 -0.012126825749874120194404802930 -0.001284775207750499031664204175 -0.002253435319289565086364746094 0 0 0 0 
2407500000.0000000000 0.168762698769569396972656250000 -0.013441152870655059814453125000 -0.001322563155554234981536865234 -0.002106903120875359015223837744 0 0 0 0 
2407666666.6666665077 0.168715566396713312347088731258 -0.014597207307815550023089024023 -0.001293185981921852068660117041 -0.002252297475934029059169150244 0 0 0 0 
2407833333.3333334923 0.168476372957229586502236884371 -0.015814462676644328725794608204 -0.001212752074934541962267231519 -0.002277901861816645102259970557 0 0 0 0 
2408000000.0000000000 0.168473631143570001800213731258 -0.016876062378287318838099295704 -0.001292306580580770969390869141 -0.002283772686496376991271972656 0 0 0 0 
2408166666.6666665077 0.168247923254966708084268134371 -0.017896141856908801687220389454 -0.001314049586653708977940224756 -0.002181609394028782844543457031 0 0 0 0 
2408333333.3333334923 0.168377593159675598144531250000 -0.018911855295300480234166329296 -0.001484020613133907101274799878 -0.002285913797095417976379394531 0 0 0 0 
2408500000.0000000000 0.168264374136924688141192518742 -0.019841780886054039001464843750 -0.001394643215462564988377236475 -0.002367275534197688102722167969 0 0 0 0 
2408666666.6666665077 0.168394371867179898361044365629 -0.020806714892387390136718750000 -0.001605311757884920077082968604 -0.002431872999295591874363564600 0 0 0 0 
2408833333.3333334923 0.168365582823753412444744981258 -0.021533215418457988393763358204 -0.001766566769219934940338134766 -0.002445706631988286972045898438 0 0 0 0 
2409000000.0000000000 0.168409988284110995193643134371 -0.022449331358075138437291329296 -0.001826854306273161931278847803 -0.002536570420488715171813964844 0 0 0 0 
2409166666.6666665077 0.168662831187248202224893134371 -0.023422461003065109252929687500 -0.002040422521531581878662109375 -0.002385914092883468107936240088 0 0 0 0 
2409333333.3333334923 0.168886259198188809493856865629 -0.024332407861948009836217110546 -0.002266820287331939177272177588 -0.002466527745127677917480468750 0 0 0 0 
2409500000.0000000000 0.168977513909339904785156250000 -0.025146065279841419565221016796 -0.002303053624927998022792197119 -0.002420129021629691123962402344 0 0 0 0 
2409666666.6666665077 0.169059962034225491622763115629 -0.026068978011608120309849923046 -0.002480019116774200959446572412 -0.002299749292433261871337890625 0 0 0 0 
2409833333.3333334923 0.169081255793571499923544365629 -0.026922225952148440969446951954 -0.002653410891070961952209472656 -0.002186898840591311888453818213 0 0 0 0 
2410000000.0000000000 0.169334426522254888336505018742 -0.027838625013828281057337576954 -0.002835278166458011107203818213 -0.002155391965061426162719726562 0 0 0 0 
2410166666.6666665077 0.169420287013053894042968750000 -0.028526274487376209604283516796 -0.002949981251731514930725097656 -0.002043217653408647017237997900 0 0 0 0 
2410333333.3333334923 0.169394031167030306717080634371 -0.029444344341754909860631173046 -0.003172515891492366790771484375 -0.001946240197867155075073242188 0 0 0 0 
2410500000.0000000000 0.169284746050834711272869981258 -0.030415290966629978525181954296 -0.003184557193890213966369628906 -0.001677738153375684998155903394 0 0 0 0 
2410666666.6666665077 0.169214829802513094803018134371 -0.031479638069868087768554687500 -0.003306716447696090178248740088 -0.001726908842101692936540913159 0 0 0 0 
2410833333.3333334923 0.169211477041244506835937500000 -0.032112758606672286987304687500 -0.003392433049157261848449707031 -0.001464857836253941059112548828 0 0 0 0 
2411000000.0000000000 0.169196605682373102386151231258 -0.033056933432817459106445312500 -0.003676702268421649932861328125 -0.001493115909397602081298828125 0 0 0 0 
2411166666.6666665077 0.168945103883743286132812500000 -0.033956266939640052104909528907 -0.003603857476264237923863076318 -0.001141203450970351912854838794 0 0 0 0 
2411333333.3333334923 0.168905928730964688400106865629 -0.034794211387634277343750000000 -0.003677495755255221886875771631 -0.000950755144003778696060180664 0 0 0 0 
2411500000.0000000000 0.168682202696800204178018134371 -0.035926576703786849975585937500 -0.003828607499599456787109375000 -0.000758925743866711854934692383 0 0 0 0 
2411666666.6666665077 0.168482124805450411697549384371 -0.036590985953807830810546875000 -0.003859840333461761908290243994 -0.000562831177376210689544677734 0 0 0 0 
2411833333.3333334923 0.168268367648124694824218750000 -0.037460379302501678466796875000 -0.003819826291874051094055175781 -0.000506463518831878900527954102 0 0 0 0 
2412000000.0000000000 0.168100595474243191818075615629 -0.038382843136787421489675153907 -0.003861570265144110159633017432 -0.000193625121028162511900225229 0 0 0 0 
2412166666.6666665077 0.167786687612533597091513115629 -0.039187334477901458740234375000 -0.003887662664055823846104287256 -0.000075870739237871021032333374 0 0 0 0 
2412333333.3333334923 0.167544066905975286285723768742 -0.040305949747562408447265625000 -0.003977035172283648577218340137 0.000058924986660713329911231995 0 0 0 0 
2412500000.0000000000 0.167121708393096896072549384371 -0.041313506662845611572265625000 -0.003882471239194273948669433594 0.000459117320133373087078648700 0 0 0 0 
2412666666.6666665077 0.166876569390296908279580634371 -0.042315173894166953350026716407 -0.003954203333705663681030273438 0.000520775502081960439682006836 0 0 0 0 
2412833333.3333334923 0.166466504335403386871661268742 -0.043373577296733863140065778907 -0.003795950906351209120509482275 0.000775047985371202230453491211 0 0 0 0 
2413000000.0000000000 0.166114851832389803787393134371 -0.044181238859891891479492187500 -0.003919604234397411346435546875 0.001032322295941412015202187646 0 0 0 0 
2413166666.6666665077 0.165524199604988098144531250000 -0.045243173837661743164062500000 -0.003839725861325860023498535156 0.001141180982813239097595214844 0 0 0 0 
2413333333.3333334923 0.164912372827529907226562500000 -0.046233855187892906879465471093 -0.003595267655327916145324707031 0.001312975306063891107674623804 0 0 0 0 
2413500000.0000000000 0.164439380168914794921875000000 -0.047233719378709793090820312500 -0.003548451932147144837620400537 0.001516972435638308958766318213 0 0 0 0 
2413666666.6666665077 0.164191499352455111404580634371 -0.048265930265188217163085937500 -0.003430910874158143997192382812 0.001705602044239640019060444409 0 0 0 0 
2413833333.3333334923 0.163597434759139986892861884371 -0.049341458827257163310964216407 -0.003482744330540298981907509912 0.001944943331182003021240234375 0 0 0 0 
2414000000.0000000000 0.163060218095779391189736884371 -0.050395093858242041851003278907 -0.003030944382771850065944052588 0.002122553763911128044128417969 0 0 0 0 
2414166666.6666665077 0.162715405225753811935263115629 -0.051101870834827423095703125000 -0.002791245467960834936854697119 0.002340027131140232086181640625 0 0 0 0 
2414333333.3333334923 0.162288621068000793457031250000 -0.052284721285104751586914062500 -0.002659561811015009880065917969 0.002233373234048486189601279150 0 0 0 0 
2414500000.0000000000 0.162088871002197293380575615629 -0.053059387952089309692382812500 -0.002575864782556891007664345850 0.002263591159135102792027138818 0 0 0 0 
2414666666.6666665077 0.161773011088371304611044365629 -0.054078545421361923217773437500 -0.002190264640375971794128417969 0.002396358875557779832127236475 0 0 0 0 
2414833333.3333334923 0.161352470517158508300781250000 -0.055311508476734161376953125000 -0.001971763558685780005214072119 0.002653475850820540948155068506 0 0 0 0 
2415000000.0000000000 0.161142840981483487228231865629 -0.056230392307043082500417341407 -0.001780065824277698993682861328 0.002286208095028996901271201025 0 0 0 0 
2415166666.6666665077 0.160838842391967801193075615629 -0.057277847081422812725026716407 -0.001601580181159079074859619141 0.002401948906481266021728515625 0 0 0 0 
2415333333.3333334923 0.160773247480392511565838731258 -0.058496765792369842529296875000 -0.001448108348995446941973042065 0.002227958524599670930149697412 0 0 0 0 
2415500000.0000000000 0.160548254847526605804119981258 -0.059525590389966971660573591407 -0.001545709790661931037902832031 0.002303938148543239073512411963 0 0 0 0 
2415666666.6666665077 0.160282433032989501953125000000 -0.060728155076503746723215471093 -0.001362370443530380942701030200 0.002223075600340961976292275537 0 0 0 0 
2415833333.3333334923 0.160327449440956087967080634371 -0.061925772577524192119557966407 -0.001503840438090265014051127856 0.001948628225363790988922119141 0 0 0 0 
2416000000.0000000000 0.159914404153823908050213731258 -0.063205525279045104980468750000 -0.001391764730215073065516806494 0.002014148049056529998779296875 0 0 0 0 
2416166666.6666665077 0.159917995333671597579794365629 -0.064374573528766632080078125000 -0.001322874566540122032165527344 0.002084852894768118858337402344 0 0 0 0 
2416333333.3333334923 0.159563913941383389571981865629 -0.065653786063194274902343750000 -0.001337013440206646919250488281 0.001927762641571461937547993237 0 0 0 0 
2416500000.0000000000 0.159257888793945312500000000000 -0.066894911229610443115234375000 -0.001326441182754934050916362231 0.002020772080868483023402548682 0 0 0 0 
2416666666.6666665077 0.158986002206802395919638115629 -0.068050265312194824218750000000 -0.001359650865197181918500590747 0.002098960569128394126892089844 0 0 0 0 
2416833333.3333334923 0.158836677670478793045205634371 -0.069348998367786407470703125000 -0.001291828113608062050463032300 0.002044171793386340141296386719 0 0 0 0 
2417000000.0000000000 0.158273160457611111739950615629 -0.070544183254241943359375000000 -0.001253203023225069046020507812 0.002171222120523453192469931494 0 0 0 0 
2417166666.6666665077 0.158089742064476013183593750000 -0.071324750781059265136718750000 -0.001158541301265358924865722656 0.001822624122723937034606933594 0 0 0 0 
2417333333.3333334923 0.157699063420295687576455634371 -0.072448834776878356933593750000 -0.001056244946084917025325156104 0.002017204882577062086818076025 0 0 0 0 
2417500000.0000000000 0.157454937696456909179687500000 -0.073524557054042816162109375000 -0.001038526883348823027369833838 0.002064889064058661894557333838 0 0 0 0 
2417666666.6666665077 0.157160684466361999511718750000 -0.074341461062431335449218750000 -0.001033588894642889933345175635 0.001873638131655753092524863135 0 0 0 0 
2417833333.3333334923 0.156841501593589810470419365629 -0.075369976460933685302734375000 -0.000975342176388949155807495117 0.001892549567855894999263144385 0 0 0 0 
2418000000.0000000000 0.156430482864379910568075615629 -0.076396182179450988769531250000 -0.001081771566532552025438618237 0.002237058244645595984217978369 0 0 0 0 
2418166666.6666665077 0.156200543045997591873330634371 -0.076916769146919250488281250000 -0.001018998562358319976209330981 0.002217237371951342062709189307 0 0 0 0 
2418333333.3333334923 0.156234830617904690841513115629 -0.077809907495975494384765625000 -0.001037308829836546941044472803 0.002231718739494680924656533350 0 0 0 0 
2418500000.0000000000 0.155701547861099187652911268742 -0.078690223395824432373046875000 -0.000996939139440655708312988281 0.002276073675602674917933798682 0 0 0 0 
2418666666.6666665077 0.155691847205162103850994981258 -0.079534776508808135986328125000 -0.000815543928183615207672119141 0.002265891525894403891322470557 0 0 0 0 
2418833333.3333334923 0.155289277434349087814169365629 -0.080187566578388214111328125000 -0.000790464866440743207931518555 0.002347638132050632996800088037 0 0 0 0 
2419000000.0000000000 0.154764086008071899414062500000 -0.080933593213558197021484375000 -0.000694673159159719944000244141 0.002203946467489004135131835938 0 0 0 0 
2419166666.6666665077 0.154686793684959411621093750000 -0.081621564924716949462890625000 -0.000585954112466424703598022461 0.002329258946701883836033486475 0 0 0 0 
2419333333.3333334923 0.154252484440803500076455634371 -0.082020595669746398925781250000 -0.000475060514872893691062927246 0.002195081673562527136561728369 0 0 0 0 
2419500000.0000000000 0.153923660516738891601562500000 -0.082996144890785217285156250000 -0.000594185781665146350860595703 0.002263778587803245024440146338 0 0 0 0 
2419666666.6666665077 0.153784677386283902267294365629 -0.083626322448253631591796875000 -0.000421806995291262919276636945 0.002298237057402729988098144531 0 0 0 0 
2419833333.3333334923 0.153232887387275695800781250000 -0.084014445543289184570312500000 -0.000339135440299287384182530536 0.002281112130731343789341591943 0 0 0 0 
