# Version 1.00
#
freq[Hz];re:Trc1_S11;im:Trc1_S11;re:Trc2_S21;im:Trc2_S21;
2.400000000000000E+009;1.728107929229736E-001;4.768550023436546E-002;5.084067117422819E-003;7.688018376938999E-004;
2.400166666666667E+009;1.736954748630524E-001;4.719087481498718E-002;5.221429280936718E-003;3.898752329405397E-004;
2.400333333333334E+009;1.741710901260376E-001;4.637011513113976E-002;5.069762933999300E-003;2.660972822923213E-004;
2.400500000000000E+009;1.749068051576614E-001;4.579104110598564E-002;5.054217297583818E-003;9.860479622147977E-005;
2.400666666666667E+009;1.753285378217697E-001;4.517510905861855E-002;4.770918749272823E-003;-2.088318724418059E-004;
2.400833333333334E+009;1.758472472429276E-001;4.465960338711739E-002;4.988448694348335E-003;-3.907347563654184E-004;
2.401000000000000E+009;1.762754172086716E-001;4.403733089566231E-002;4.702583886682987E-003;-5.732474965043366E-004;
2.401166666666667E+009;1.765262186527252E-001;4.353503510355949E-002;4.587801173329353E-003;-6.461676675826311E-004;
2.401333333333334E+009;1.766342967748642E-001;4.299885779619217E-002;4.440068267285824E-003;-8.676432771608234E-004;
2.401500000000000E+009;1.769463717937470E-001;4.239534586668015E-002;4.532366525381804E-003;-9.411738137714565E-004;
2.401666666666667E+009;1.771324425935745E-001;4.194484651088715E-002;4.363493993878365E-003;-1.307881204411387E-003;
2.401833333333334E+009;1.773170381784439E-001;4.113931953907013E-002;4.251390695571899E-003;-1.442593173123896E-003;
2.402000000000000E+009;1.771000176668167E-001;4.053830355405808E-002;4.132264293730259E-003;-1.562633668072522E-003;
2.402166666666667E+009;1.769180893898010E-001;3.976551815867424E-002;3.965842071920633E-003;-1.785354921594262E-003;
2.402333333333334E+009;1.768984347581863E-001;3.883411735296249E-002;3.620795207098126E-003;-1.850025146268308E-003;
2.402500000000000E+009;1.769904643297195E-001;3.828102350234985E-002;3.768082940950990E-003;-2.067614113911986E-003;
2.402666666666667E+009;1.766747087240219E-001;3.729695826768875E-002;3.469764022156596E-003;-2.014771336689591E-003;
2.402833333333334E+009;1.761954277753830E-001;3.631037846207619E-002;3.101794281974435E-003;-2.062063431367278E-003;
2.403000000000000E+009;1.761002987623215E-001;3.520298749208450E-002;2.959775039926171E-003;-2.136710332706571E-003;
2.403166666666667E+009;1.757982671260834E-001;3.400733694434166E-002;2.786705037578940E-003;-2.055282704532147E-003;
2.403333333333334E+009;1.753350496292114E-001;3.271356970071793E-002;2.615077421069145E-003;-2.235343446955085E-003;
2.403500000000000E+009;1.747104078531265E-001;3.133245930075645E-002;2.564340597018600E-003;-2.064187079668045E-003;
2.403666666666667E+009;1.744782626628876E-001;2.985681407153606E-002;2.522186143323779E-003;-2.045708708465099E-003;
2.403833333333334E+009;1.740539073944092E-001;2.825767733156681E-002;2.329328795894980E-003;-1.840283279307187E-003;
2.404000000000000E+009;1.735641062259674E-001;2.662858366966248E-002;2.217278582975268E-003;-1.875034184195101E-003;
2.404166666666667E+009;1.730298548936844E-001;2.489341050386429E-002;2.157630864530802E-003;-1.550295040942729E-003;
2.404333333333334E+009;1.725813299417496E-001;2.331707999110222E-002;2.170128514990211E-003;-1.512323622591794E-003;
2.404500000000000E+009;1.720903664827347E-001;2.119303680956364E-002;2.032211516052485E-003;-1.575588481500745E-003;
2.404666666666667E+009;1.716291159391403E-001;1.949449628591538E-002;2.172404201701284E-003;-1.328135142102838E-003;
2.404833333333334E+009;1.713308393955231E-001;1.754407212138176E-002;2.312126103788614E-003;-1.388676231727004E-003;
2.405000000000000E+009;1.709289103746414E-001;1.532623544335365E-002;2.221686765551567E-003;-1.175724784843624E-003;
2.405166666666667E+009;1.707326918840408E-001;1.336773857474327E-002;2.394259441643953E-003;-1.200068043544889E-003;
2.405333333333334E+009;1.705609858036041E-001;1.127243321388960E-002;2.262582071125507E-003;-1.228358363732696E-003;
2.405500000000000E+009;1.703760772943497E-001;9.409365244209766E-003;2.466957550495863E-003;-1.229299348779023E-003;
2.405666666666667E+009;1.702301055192947E-001;7.296802941709757E-003;2.601158572360873E-003;-1.166657893918455E-003;
2.405833333333334E+009;1.701197922229767E-001;5.173418205231428E-003;2.670959336683154E-003;-1.220817444846034E-003;
2.406000000000000E+009;1.703618913888931E-001;2.997128060087562E-003;2.813771367073059E-003;-1.176606398075819E-003;
2.406166666666667E+009;1.703179627656937E-001;1.070938189513981E-003;2.945901593193412E-003;-1.354266540147364E-003;
2.406333333333334E+009;1.707158088684082E-001;-1.213790848851204E-003;2.884224522858858E-003;-1.477967132814229E-003;
2.406500000000000E+009;1.709816008806229E-001;-3.253430128097534E-003;3.009940730407834E-003;-1.534644048660994E-003;
2.406666666666667E+009;1.711293458938599E-001;-5.297330208122730E-003;3.137203166261315E-003;-1.537706120871007E-003;
2.406833333333334E+009;1.717492192983627E-001;-7.400830741971731E-003;3.341397969052196E-003;-1.557556563057005E-003;
2.407000000000000E+009;1.722567677497864E-001;-9.341428987681866E-003;3.363439813256264E-003;-1.686703646555543E-003;
2.407166666666667E+009;1.729317456483841E-001;-1.150086335837841E-002;3.342797281220555E-003;-2.028012881055474E-003;
2.407333333333334E+009;1.733885854482651E-001;-1.348848082125187E-002;3.489888273179531E-003;-1.941248076036573E-003;
2.407500000000000E+009;1.739782541990280E-001;-1.531132403761149E-002;3.635641653090715E-003;-2.261136658489704E-003;
2.407666666666667E+009;1.747622042894363E-001;-1.713439449667931E-002;3.632541978731751E-003;-2.338582882657647E-003;
2.407833333333334E+009;1.754163503646851E-001;-1.914602704346180E-002;3.726231632754207E-003;-2.524505835026503E-003;
2.408000000000000E+009;1.761139333248138E-001;-2.079567685723305E-002;3.738797269761562E-003;-2.807351760566235E-003;
2.408166666666667E+009;1.768834441900253E-001;-2.238268963992596E-002;3.618863644078374E-003;-3.064200980588794E-003;
2.408333333333334E+009;1.776656359434128E-001;-2.399178221821785E-002;3.660453716292977E-003;-3.464293899014592E-003;
2.408500000000000E+009;1.784593760967255E-001;-2.554109878838062E-002;3.761130152270198E-003;-3.575900802388787E-003;
2.408666666666667E+009;1.789264380931854E-001;-2.691348269581795E-002;3.521082689985633E-003;-3.914927598088980E-003;
2.408833333333334E+009;1.795241236686707E-001;-2.831807918846607E-002;3.379006171599031E-003;-4.219152033329010E-003;
2.409000000000000E+009;1.801001280546188E-001;-2.936736121773720E-002;3.219470381736755E-003;-4.439125303179026E-003;
2.409166666666667E+009;1.807373613119125E-001;-3.059981204569340E-002;3.055973211303353E-003;-4.599104169756174E-003;
2.409333333333334E+009;1.813669949769974E-001;-3.160042315721512E-002;2.968895714730024E-003;-4.861773457378149E-003;
2.409500000000000E+009;1.817411184310913E-001;-3.250126168131828E-002;2.675849245861173E-003;-5.100548733025789E-003;
2.409666666666667E+009;1.819618195295334E-001;-3.324637934565544E-002;2.567698713392019E-003;-5.267459433525801E-003;
2.409833333333334E+009;1.824405193328857E-001;-3.376376256346703E-002;2.305011032149196E-003;-5.318318959325552E-003;
2.410000000000000E+009;1.829336881637573E-001;-3.417160362005234E-002;2.006584545597434E-003;-5.550403147935867E-003;
2.410166666666667E+009;1.833642870187759E-001;-3.482648730278015E-002;1.926013850606978E-003;-5.648666992783546E-003;
2.410333333333334E+009;1.835037320852280E-001;-3.519494086503983E-002;1.576937153004110E-003;-5.765995010733604E-003;
2.410500000000000E+009;1.836315393447876E-001;-3.564450517296791E-002;1.342005096375942E-003;-6.008288357406855E-003;
2.410666666666667E+009;1.837210804224014E-001;-3.603637218475342E-002;1.190954935736954E-003;-6.056136451661587E-003;
2.410833333333334E+009;1.837408691644669E-001;-3.606046363711357E-002;8.281009504571557E-004;-6.179657299071550E-003;
2.411000000000000E+009;1.835863143205643E-001;-3.648453578352928E-002;5.736784660257399E-004;-6.139225792139769E-003;
2.411166666666667E+009;1.833711415529251E-001;-3.677099943161011E-002;3.729235031642020E-004;-6.281612906605005E-003;
2.411333333333334E+009;1.833526641130447E-001;-3.704014047980309E-002;-3.422915688133799E-005;-6.260959897190332E-003;
2.411500000000000E+009;1.828278005123138E-001;-3.731227293610573E-002;-8.320155029650778E-005;-6.327209994196892E-003;
2.411666666666667E+009;1.825866550207138E-001;-3.747865557670593E-002;-4.632000636775047E-004;-6.548685021698475E-003;
2.411833333333334E+009;1.820342391729355E-001;-3.772004321217537E-002;-7.042512297630310E-004;-6.413092836737633E-003;
2.412000000000000E+009;1.814535707235336E-001;-3.826244920492172E-002;-1.050403690896928E-003;-6.430309265851975E-003;
2.412166666666667E+009;1.804697215557098E-001;-3.848622739315033E-002;-1.294982968829572E-003;-6.418045610189438E-003;
2.412333333333334E+009;1.797751933336258E-001;-3.875223919749260E-002;-1.565561164170504E-003;-6.396528333425522E-003;
2.412500000000000E+009;1.788332164287567E-001;-3.919157385826111E-002;-1.816625590436161E-003;-6.346757989376783E-003;
2.412666666666667E+009;1.777273565530777E-001;-3.970861434936523E-002;-2.126776613295078E-003;-6.246797274798155E-003;
2.412833333333334E+009;1.768474727869034E-001;-4.039075598120689E-002;-2.439819043502212E-003;-6.122730672359467E-003;
2.413000000000000E+009;1.754514575004578E-001;-4.095672443509102E-002;-2.638714853674173E-003;-6.134820636361837E-003;
2.413166666666667E+009;1.742169260978699E-001;-4.158860072493553E-002;-2.907151123508811E-003;-5.892869550734758E-003;
2.413333333333334E+009;1.728663742542267E-001;-4.231474548578262E-002;-3.173584816977382E-003;-5.941908806562424E-003;
2.413500000000000E+009;1.715936064720154E-001;-4.330913722515106E-002;-3.417009254917502E-003;-5.846304353326559E-003;
2.413666666666667E+009;1.703716218471527E-001;-4.413873702287674E-002;-3.653020597994328E-003;-5.713841877877712E-003;
2.413833333333334E+009;1.689593493938446E-001;-4.504832252860069E-002;-3.888635430485010E-003;-5.706737749278545E-003;
2.414000000000000E+009;1.675852537155151E-001;-4.614749923348427E-002;-4.055905621498823E-003;-5.476098507642746E-003;
2.414166666666667E+009;1.662795245647430E-001;-4.727436602115631E-002;-4.357015248388052E-003;-5.407699849456549E-003;
2.414333333333334E+009;1.648398339748383E-001;-4.854581505060196E-002;-4.535798914730549E-003;-5.081362091004849E-003;
2.414500000000000E+009;1.637430191040039E-001;-4.977041110396385E-002;-4.830111283808947E-003;-4.997915588319302E-003;
2.414666666666667E+009;1.623341292142868E-001;-5.119321495294571E-002;-5.130604375153780E-003;-4.832189995795488E-003;
2.414833333333334E+009;1.610435843467712E-001;-5.283084139227867E-002;-5.398789886385202E-003;-4.500293638557196E-003;
2.415000000000000E+009;1.599879562854767E-001;-5.436009913682938E-002;-5.728411953896284E-003;-4.343962296843529E-003;
2.415166666666667E+009;1.588193178176880E-001;-5.595419555902481E-002;-5.761284381151199E-003;-3.938134759664536E-003;
2.415333333333334E+009;1.578590124845505E-001;-5.783159285783768E-002;-5.890638101845980E-003;-3.736192826181650E-003;
2.415500000000000E+009;1.569279283285141E-001;-5.946522578597069E-002;-6.179497577250004E-003;-3.349669743329287E-003;
2.415666666666667E+009;1.559127569198608E-001;-6.131289154291153E-002;-6.394742988049984E-003;-3.239787183701992E-003;
2.415833333333334E+009;1.551668643951416E-001;-6.315883249044418E-002;-6.349598523229361E-003;-2.866595517843962E-003;
2.416000000000000E+009;1.542755961418152E-001;-6.514103710651398E-002;-6.388519890606403E-003;-2.381245605647564E-003;
2.416166666666667E+009;1.537839174270630E-001;-6.715911626815796E-002;-6.439115386456251E-003;-2.063082763925195E-003;
2.416333333333334E+009;1.529888808727264E-001;-6.925580650568008E-002;-6.614339537918568E-003;-1.746321795508266E-003;
2.416500000000000E+009;1.524629741907120E-001;-7.128429412841797E-002;-6.519004236906767E-003;-1.342658419162035E-003;
2.416666666666667E+009;1.519966572523117E-001;-7.333409041166306E-002;-6.492297165095806E-003;-1.164387911558151E-003;
2.416833333333334E+009;1.516661942005158E-001;-7.528468966484070E-002;-6.431205663830042E-003;-7.575256749987602E-004;
2.417000000000000E+009;1.512077599763870E-001;-7.739834487438202E-002;-6.385408807545900E-003;-3.588081453926861E-004;
2.417166666666667E+009;1.510428786277771E-001;-7.914862036705017E-002;-6.187135819345713E-003;-1.633688079891726E-004;
2.417333333333334E+009;1.508827060461044E-001;-8.120449632406235E-002;-6.313552614301443E-003;2.662235056050122E-005;
2.417500000000000E+009;1.506985574960709E-001;-8.314324170351028E-002;-6.012407597154379E-003;3.156200982630253E-004;
2.417666666666667E+009;1.507142782211304E-001;-8.473667502403259E-002;-5.850603338330984E-003;5.803267704322934E-004;
2.417833333333334E+009;1.506202518939972E-001;-8.639257401227951E-002;-5.626655183732510E-003;8.118023397400975E-004;
2.418000000000000E+009;1.506361961364746E-001;-8.813107758760452E-002;-5.492391530424357E-003;9.467538911849260E-004;
2.418166666666667E+009;1.507768034934998E-001;-8.952189981937408E-002;-5.277509801089764E-003;1.075649866834283E-003;
2.418333333333334E+009;1.510604918003082E-001;-9.098517149686813E-002;-5.407294258475304E-003;1.272797351703048E-003;
2.418500000000000E+009;1.511735767126083E-001;-9.226182103157044E-002;-5.049298517405987E-003;1.359448418952525E-003;
2.418666666666667E+009;1.513777077198029E-001;-9.352457523345947E-002;-4.940575920045376E-003;1.291483524255455E-003;
2.418833333333334E+009;1.516593098640442E-001;-9.473407268524170E-002;-4.847204312682152E-003;1.474077696911991E-003;
2.419000000000000E+009;1.517861634492874E-001;-9.564490616321564E-002;-4.666571039706469E-003;1.603245618753135E-003;
2.419166666666667E+009;1.521052718162537E-001;-9.649615734815598E-002;-4.712920170277357E-003;1.645474694669247E-003;
2.419333333333334E+009;1.523851305246353E-001;-9.699062258005142E-002;-4.689655266702175E-003;1.742282998748124E-003;
2.419500000000000E+009;1.525549143552780E-001;-9.784995019435883E-002;-4.635936114937067E-003;1.715069520287216E-003;
2.419666666666667E+009;1.529682278633118E-001;-9.837973117828369E-002;-4.490491934120655E-003;1.798699260689318E-003;
2.419833333333334E+009;1.529543399810791E-001;-9.841999411582947E-002;-4.336198326200247E-003;1.972218509763479E-003;
2.420000000000000E+009;1.533805280923843E-001;-9.878260642290115E-002;-4.439474083483219E-003;2.185321180149913E-003;
2.420166666666667E+009;1.535975188016892E-001;-9.875640273094177E-002;-4.341614432632923E-003;2.222273265942931E-003;
2.420333333333334E+009;1.537867933511734E-001;-9.900200366973877E-002;-4.392602946609259E-003;2.265522489324212E-003;
2.420500000000000E+009;1.538709402084351E-001;-9.877458214759827E-002;-4.304019268602133E-003;2.567509422078729E-003;
2.420666666666667E+009;1.539573073387146E-001;-9.863059222698212E-002;-4.203582648187876E-003;2.546963980421424E-003;
2.420833333333334E+009;1.542212218046188E-001;-9.850104153156281E-002;-4.225883632898331E-003;2.639404265210033E-003;
2.421000000000000E+009;1.540395617485046E-001;-9.832630306482315E-002;-4.130021668970585E-003;2.830505138263106E-003;
2.421166666666667E+009;1.539344638586044E-001;-9.792166203260422E-002;-3.964352421462536E-003;2.924117026850581E-003;
2.421333333333334E+009;1.538249701261520E-001;-9.760241955518723E-002;-3.850884037092328E-003;3.115019295364618E-003;
2.421500000000000E+009;1.536103039979935E-001;-9.726946055889130E-002;-3.872131230309606E-003;3.035615896806121E-003;
2.421666666666667E+009;1.534212827682495E-001;-9.683597087860107E-002;-3.840511431917548E-003;3.342701354995370E-003;
2.421833333333334E+009;1.530750840902329E-001;-9.635362774133682E-002;-3.594928653910756E-003;3.463493194431067E-003;
2.422000000000000E+009;1.521817743778229E-001;-9.607416391372681E-002;-3.540152451023459E-003;3.564941696822643E-003;
2.422166666666667E+009;1.515786349773407E-001;-9.555692970752716E-002;-3.402571426704526E-003;3.724420676007867E-003;
2.422333333333334E+009;1.509547382593155E-001;-9.554712474346161E-002;-3.309377236291766E-003;3.792714327573776E-003;
2.422500000000000E+009;1.500194072723389E-001;-9.487277269363403E-002;-3.172103781253099E-003;4.022226668894291E-003;
2.422666666666667E+009;1.489298939704895E-001;-9.489755332469940E-002;-3.079656977206469E-003;3.996678162366152E-003;
2.422833333333334E+009;1.479307115077972E-001;-9.475532174110413E-002;-2.933596260845661E-003;4.050772171467543E-003;
2.423000000000000E+009;1.468198001384735E-001;-9.445254504680634E-002;-2.666642190888524E-003;4.346445202827454E-003;
2.423166666666667E+009;1.455947756767273E-001;-9.403795003890991E-002;-2.644743537530303E-003;4.251949489116669E-003;
2.423333333333334E+009;1.443531811237335E-001;-9.398193657398224E-002;-2.423029160127044E-003;4.537799395620823E-003;
2.423500000000000E+009;1.427179276943207E-001;-9.402663260698319E-002;-2.270225901156664E-003;4.563677124679089E-003;
2.423666666666667E+009;1.411300301551819E-001;-9.409129619598389E-002;-2.024311572313309E-003;4.710960667580366E-003;
2.423833333333334E+009;1.399442404508591E-001;-9.408704936504364E-002;-1.689761993475258E-003;4.650230053812265E-003;
2.424000000000000E+009;1.380987763404846E-001;-9.416738897562027E-002;-1.673332415521145E-003;4.562195390462875E-003;
2.424166666666667E+009;1.366121470928192E-001;-9.448096901178360E-002;-1.341887284070253E-003;4.845366813242436E-003;
2.424333333333334E+009;1.351240426301956E-001;-9.472054988145828E-002;-1.277394243516028E-003;4.701506346464157E-003;
2.424500000000000E+009;1.334789693355560E-001;-9.516525268554688E-002;-1.112270518206060E-003;4.725729115307331E-003;
2.424666666666667E+009;1.320698559284210E-001;-9.556147456169128E-002;-1.000362099148333E-003;4.812555853277445E-003;
2.424833333333334E+009;1.302218437194824E-001;-9.631869196891785E-002;-7.302796584554017E-004;4.757270216941834E-003;
2.425000000000000E+009;1.288780570030212E-001;-9.700671583414078E-002;-6.746684666723013E-004;4.812462255358696E-003;
2.425166666666667E+009;1.272077560424805E-001;-9.776287525892258E-002;-3.196411416865885E-004;4.735412076115608E-003;
2.425333333333334E+009;1.258908063173294E-001;-9.869551658630371E-002;-1.820452598622069E-004;4.629732575267553E-003;
2.425500000000000E+009;1.247284337878227E-001;-9.987399727106094E-002;-7.694078522035852E-005;4.766192752867937E-003;
2.425666666666667E+009;1.231859773397446E-001;-1.010846570134163E-001;9.263568063033745E-005;4.667554516345263E-003;
2.425833333333334E+009;1.219858005642891E-001;-1.022539585828781E-001;5.124066956341267E-004;4.623936954885721E-003;
2.426000000000000E+009;1.207754760980606E-001;-1.035963520407677E-001;5.775468889623880E-004;4.489047452807427E-003;
2.426166666666667E+009;1.199182868003845E-001;-1.051244661211968E-001;6.476197158917785E-004;4.427103791385889E-003;
2.426333333333334E+009;1.188193112611771E-001;-1.065952852368355E-001;6.464432808570564E-004;4.315230529755354E-003;
2.426500000000000E+009;1.178927272558212E-001;-1.080985143780708E-001;9.975275024771690E-004;4.188912920653820E-003;
2.426666666666667E+009;1.172948405146599E-001;-1.096370443701744E-001;9.675351320765913E-004;4.107058048248291E-003;
2.426833333333334E+009;1.164330542087555E-001;-1.112992390990257E-001;1.181792467832565E-003;4.009643569588661E-003;
2.427000000000000E+009;1.157518550753593E-001;-1.130311191082001E-001;1.317471964284778E-003;3.838872769847512E-003;
2.427166666666667E+009;1.151837334036827E-001;-1.147045791149139E-001;1.499426318332553E-003;3.762651700526476E-003;
2.427333333333334E+009;1.146405041217804E-001;-1.164171397686005E-001;1.584479352459312E-003;3.660139394924045E-003;
2.427500000000000E+009;1.143499985337257E-001;-1.180935055017471E-001;1.439037267118692E-003;3.416234161704779E-003;
2.427666666666667E+009;1.139465495944023E-001;-1.198560521006584E-001;1.469392213039100E-003;3.378191264346242E-003;
