# Hz S RI R 
2400000000.0000000000 0.157406404614448602874432481258 0.063047938048839569091796875000 -0.004752374254167079925537109375 -0.001590265659615398103829408960 0 0 0 0 
2400166666.6666665077 0.157368093729019192794638115629 0.061360061168670647357981096093 -0.004508798476308584213256835938 -0.001421538996510208086726523291 0 0 0 0 
2400333333.3333334923 0.157290652394294711013955634371 0.059500012546777732158620466407 -0.004677054937928915023803710938 -0.001304968958720565059064555591 0 0 0 0 
2400500000.0000000000 0.157188504934310913085937500000 0.057554624974727630615234375000 -0.004556482192128896713256835938 -0.001064855372533201954485249097 0 0 0 0 
2400666666.6666665077 0.157165557146072387695312500000 0.055517531931400299072265625000 -0.004515649750828742980957031250 -0.000929683039430528879165649414 0 0 0 0 
2400833333.3333334923 0.157270476222038296798544365629 0.053415250033140182495117187500 -0.004660686943680047988891601562 -0.000835938553791493177413940430 0 0 0 0 
2401000000.0000000000 0.157272830605506896972656250000 0.051367789506912231445312500000 -0.004477098584175109863281250000 -0.000774348154664039611816406250 0 0 0 0 
2401166666.6666665077 0.157622188329696710784588731258 0.049132168292999267578125000000 -0.004705426283180713653564453125 -0.000609993643593043088912963867 0 0 0 0 
2401333333.3333334923 0.157854720950126703460369981258 0.047090224921703338623046875000 -0.004716759081929922103881835938 -0.000460979441413655877113342285 0 0 0 0 
2401500000.0000000000 0.158359065651893587967080634371 0.045127853751182563091237653907 -0.004660665057599545392508222363 -0.000339336605975404381752014160 0 0 0 0 
2401666666.6666665077 0.158367037773132296463174384371 0.042982611805200576782226562500 -0.004506209399551153182983398438 -0.000504609604831784963607788086 0 0 0 0 
2401833333.3333334923 0.158835321664810208419638115629 0.040941771119832992553710937500 -0.004516188520938158035278320312 -0.000093526374257635325193405151 0 0 0 0 
2402000000.0000000000 0.159378319978713989257812500000 0.038952909409999847412109375000 -0.004523307550698518753051757812 -0.000053242132707964628934860229 0 0 0 0 
2402166666.6666665077 0.160015776753425598144531250000 0.036769583821296691894531250000 -0.004605852067470551404471112988 0.000130714572151191505506792612 0 0 0 0 
2402333333.3333334923 0.160423815250396700760049384371 0.035000044852495186542551408593 -0.004605811089277268323416425488 0.000120825789053924395285467830 0 0 0 0 
2402500000.0000000000 0.161189138889312688629473768742 0.033155847340822219848632812500 -0.004573245532810688018798828125 0.000362490478437393903732299805 0 0 0 0 
2402666666.6666665077 0.161996915936470003982705634371 0.031371064484119422222097028907 -0.004467381164431571960449218750 0.000540388689842075109481811523 0 0 0 0 
2402833333.3333334923 0.162807554006576510330361884371 0.029734715819358829153040701954 -0.004403573926538228988647460938 0.000708310457412153482437133789 0 0 0 0 
2403000000.0000000000 0.163702696561813410003338731258 0.028130469843745231628417968750 -0.004526032134890556335449218750 0.000858496467117220163345336914 0 0 0 0 
2403166666.6666665077 0.164565607905387906173544365629 0.026352761313319209707239920704 -0.004647728521376848220825195312 0.001014770590700208923937153394 0 0 0 0 
2403333333.3333334923 0.165494039654731805999432481258 0.025147337466478351247767264454 -0.004554740153253079328055097363 0.001171935931779444000841450269 0 0 0 0 
2403500000.0000000000 0.166498005390167208572549384371 0.023605743423104289663294608204 -0.004458960611373186111450195312 0.001332804677076637961743998950 0 0 0 0 
2403666666.6666665077 0.167308986186981201171875000000 0.022305861115455630910853201954 -0.004423769190907478332519531250 0.001521179219707847075221396338 0 0 0 0 
2403833333.3333334923 0.168572187423706110198651231258 0.020849609747529029846191406250 -0.004530245903879404067993164062 0.001843237900175153992296528394 0 0 0 0 
2404000000.0000000000 0.169385761022567804534588731258 0.019826030358672138559361641796 -0.004327385220676661405081464551 0.001854245783761143901227641528 0 0 0 0 
2404166666.6666665077 0.170409575104713412185830634371 0.018670879304409030569056326954 -0.004122065845876932144165039062 0.002229499164968729019165039062 0 0 0 0 
2404333333.3333334923 0.171444982290267888824786268742 0.017787627875804901123046875000 -0.004165725316852331161499023438 0.002447169506922363801243447412 0 0 0 0 
2404500000.0000000000 0.172222822904586791992187500000 0.016779337078332901000976562500 -0.004002205561846494674682617188 0.002535451436415315108058310400 0 0 0 0 
2404666666.6666665077 0.173301294445991488357705634371 0.015990139916539188730260079296 -0.004039406310766935348510742188 0.002738386392593383789062500000 0 0 0 0 
2404833333.3333334923 0.174333423376083401779013115629 0.015018180012702940159807774023 -0.003737355815246700806858681787 0.002948103006929159164428710938 0 0 0 0 
2405000000.0000000000 0.175124257802963312347088731258 0.014490607194602489471435546875 -0.003451016265898942947387695312 0.003233895869925618171691894531 0 0 0 0 
2405166666.6666665077 0.176059707999229403396768134371 0.013859766535460950678815272852 -0.003447273746132851080653525244 0.003316775429993867874145507812 0 0 0 0 
2405333333.3333334923 0.176880612969398498535156250000 0.013252007775008680171002772852 -0.003106303745880722999572753906 0.003285889979451895193812704932 0 0 0 0 
2405500000.0000000000 0.177662953734397888183593750000 0.012850779108703139913538748829 -0.002898698439821600914001464844 0.003454108722507954077479697119 0 0 0 0 
2405666666.6666665077 0.178310841321945190429687500000 0.012501862831413749349573905079 -0.002769422018900514082667685400 0.003630255116149783134460449219 0 0 0 0 
2405833333.3333334923 0.178725510835647610763388115629 0.012206842191517349588414376171 -0.002637398196384311156031943213 0.003590405685827136039733886719 0 0 0 0 
2406000000.0000000000 0.179453045129776000976562500000 0.011506268754601480311383632227 -0.002397882053628563880920410156 0.003743768902495502991917275537 0 0 0 0 
2406166666.6666665077 0.179839223623275812347088731258 0.011524098925292490178118320898 -0.001933146617375314018846821362 0.003820884274318813843968056787 0 0 0 0 
2406333333.3333334923 0.180315554141998291015625000000 0.011140284128487110137939453125 -0.001818021642975508949877094800 0.003690561512485146956202841650 0 0 0 0 
2406500000.0000000000 0.180583044886589105804119981258 0.010931832715868949890136718750 -0.001580478041432797908782958984 0.003866792889311910109279013525 0 0 0 0 
2406666666.6666665077 0.180662736296653803069744981258 0.010692296549677850550641444727 -0.001439196872524916908861469800 0.003640937386080623106715536963 0 0 0 0 
2406833333.3333334923 0.180817559361457796951455634371 0.010269351303577419626256173046 -0.001125162933021784045575786060 0.003689909121021627946140908350 0 0 0 0 
2407000000.0000000000 0.180960342288017300704794365629 0.009929961524903774261474609375 -0.000865245121531188488006591797 0.003687033895403147177455283057 0 0 0 0 
2407166666.6666665077 0.180994138121604891678018134371 0.009721112437546253204345703125 -0.000997508526779711246490478516 0.003660644637420773939845419775 0 0 0 0 
2407333333.3333334923 0.180739492177963312347088731258 0.009277116507291793823242187500 -0.000712110660970211029052734375 0.003663756884634495215175009619 0 0 0 0 
2407500000.0000000000 0.180571943521499606033486884371 0.008774828165769577026367187500 -0.000557858031243085861206054688 0.003313074819743632836582802881 0 0 0 0 
2407666666.6666665077 0.180386096239089993575888115629 0.008333345875144004821777343750 -0.000399468262912705486446934833 0.003281943034380673928501748193 0 0 0 0 
2407833333.3333334923 0.179921299219131497482138115629 0.007722443435341119766235351562 -0.000303285691188648288876134052 0.003269129665568470954895019531 0 0 0 0 
2408000000.0000000000 0.179635658860206604003906250000 0.007145571988075971603393554688 -0.000083288112364243716001510620 0.003121511312201619148254394531 0 0 0 0 
2408166666.6666665077 0.179107367992401095291299384371 0.006674854550510644912719726562 -0.000018043727322947230527197190 0.003104751929640769958496093750 0 0 0 0 
2408333333.3333334923 0.178670898079872103592080634371 0.005815949756652116775512695312 0.000142016695463098612710675650 0.003028575330972671942469931494 0 0 0 0 
2408500000.0000000000 0.177935823798179598709268134371 0.004974651616066694259643554688 -0.000033083149901358410716056824 0.002862272318452597098109579932 0 0 0 0 
2408666666.6666665077 0.177378013730049105545205634371 0.004125212784856557846069335938 0.000140126576297916499063214713 0.002718546660616993904113769531 0 0 0 0 
2408833333.3333334923 0.176600068807601900955361884371 0.003136690473183989958522177588 0.000130377346067689413398188458 0.002658770186826587157008505713 0 0 0 0 
2409000000.0000000000 0.175946861505508395095986884371 0.002129112137481569810154580225 0.000173230859218165305539807730 0.002491483697667717933654785156 0 0 0 0 
2409166666.6666665077 0.175381138920783996582031250000 0.000989331980235874652862548828 0.000298931350698694586753845215 0.002526565222069621086120605469 0 0 0 0 
2409333333.3333334923 0.174722045660018893142861884371 -0.000267388182692229801982325421 0.000360815174644812887341099872 0.002316336613148450851440429688 0 0 0 0 
2409500000.0000000000 0.173911288380622891525106865629 -0.001689198776148260073420859229 0.000357494922354817390441894531 0.002371098846197127862217568506 0 0 0 0 
2409666666.6666665077 0.172992438077926607986611884371 -0.002995545743033289909362792969 0.000405735161621123606532496320 0.002370316302403808073756552588 0 0 0 0 
2409833333.3333334923 0.172378793358802795410156250000 -0.004415882285684347152709960938 0.000362403457984328324168604718 0.002106332685798407034633017432 0 0 0 0 
2410000000.0000000000 0.171825483441352788727130018742 -0.005850954912602902326101972363 0.000415627990150824189186096191 0.002178811468183993859532021631 0 0 0 0 
2410166666.6666665077 0.171110957860946710784588731258 -0.007539748679846525192260742188 0.000526300398632884025573730469 0.002120444318279623985290527344 0 0 0 0 
2410333333.3333334923 0.170447006821632413009481865629 -0.009201292879879474639892578125 0.000444343982962891513675135480 0.001997065031901001930236816406 0 0 0 0 
2410500000.0000000000 0.169759109616279602050781250000 -0.010935873724520209920862967579 0.000324399909004569107860010968 0.001953642116859554810764931787 0 0 0 0 
2410666666.6666665077 0.169353812932968111892861884371 -0.012820752337574960535993007227 0.000422407843871042078167515887 0.002037839498370885848999023438 0 0 0 0 
2410833333.3333334923 0.168874293565750094314736884371 -0.014697409234941009176234061329 0.000405116006731986999511718750 0.002003829227760434150695800781 0 0 0 0 
2411000000.0000000000 0.168540254235267611404580634371 -0.016348103061318400991419608204 0.000512200524099171161651611328 0.001930146478116512081743549878 0 0 0 0 
2411166666.6666665077 0.168342143297195406814736884371 -0.018475199118256568908691406250 0.000434732908615842515796107159 0.001895632944069802977918315356 0 0 0 0 
2411333333.3333334923 0.168020367622375488281250000000 -0.020301301032304760324498360546 0.000430481857620179707377833234 0.001969474367797375159022665869 0 0 0 0 
2411500000.0000000000 0.167783498764038113693075615629 -0.022496370598673820495605468750 0.000322969630360603278309422626 0.001963183749467134909388876807 0 0 0 0 
2411666666.6666665077 0.167988494038581903655682481258 -0.024276033043861389160156250000 0.000448785867774859124988001691 0.001899568247608840899226523291 0 0 0 0 
2411833333.3333334923 0.167697593569755609710369981258 -0.026291998103260990488072579296 0.000552738260012120008468627930 0.001874476089142262935638427734 0 0 0 0 
2412000000.0000000000 0.167770683765411404708700615629 -0.028310138732194900512695312500 0.000449431681772693991661071777 0.002028928138315678076503134619 0 0 0 0 
2412166666.6666665077 0.167902052402496310135049384371 -0.030328724533319469797154610546 0.000411991553846746683120727539 0.001926420140080153942108154297 0 0 0 0 
2412333333.3333334923 0.168200105428695706466513115629 -0.032176177948713302612304687500 0.000511677761096507310867309570 0.002012413926422595977783203125 0 0 0 0 
2412500000.0000000000 0.168264836072921808440838731258 -0.033956259489059448242187500000 0.000638891011476516723632812500 0.002008884446695446968078613281 0 0 0 0 
2412666666.6666665077 0.168639525771141107757244981258 -0.036069363355636596679687500000 0.000495699932798743247985839844 0.001912582200020551898358989185 0 0 0 0 
2412833333.3333334923 0.169040217995643587967080634371 -0.037745997309684753417968750000 0.000863233697600662708282470703 0.002028664108365774154663085938 0 0 0 0 
2413000000.0000000000 0.169630423188209505935830634371 -0.039610467851161956787109375000 0.000728580518625676631927490234 0.002001211512833834128138876807 0 0 0 0 
2413166666.6666665077 0.169888153672218294998330634371 -0.041380133479833602905273437500 0.000927655259147286415100097656 0.001981834881007670922520302881 0 0 0 0 
2413333333.3333334923 0.170324236154556302169638115629 -0.043169829994440078735351562500 0.001109421835280955054639506763 0.001787282759323715946794819409 0 0 0 0 
2413500000.0000000000 0.170939400792121887207031250000 -0.044660922139883041381835937500 0.001079310080967843966243124854 0.001792024471797049045562744141 0 0 0 0 
2413666666.6666665077 0.171597436070442199707031250000 -0.046169176697731018066406250000 0.001041802694089710929273295825 0.001904582371935247941258095850 0 0 0 0 
2413833333.3333334923 0.172062262892723111251669365629 -0.047813866287469856952707658593 0.001211606664583086967468261719 0.001852486864663660959956503760 0 0 0 0 
2414000000.0000000000 0.172492101788520812988281250000 -0.049218013882637016986887346093 0.001127211493439971966984414209 0.001840326818637550094007182544 0 0 0 0 
2414166666.6666665077 0.173344686627388000488281250000 -0.050476174801588058471679687500 0.001298888935707509951350546729 0.001837396528571844100952148438 0 0 0 0 
2414333333.3333334923 0.173954606056213406661825615629 -0.051700655370950698852539062500 0.001530807232484221892115927588 0.001798622193746268966077495044 0 0 0 0 
2414500000.0000000000 0.174638614058494595626669365629 -0.052637603133916861797292341407 0.001502736704424024061915732275 0.001612276886589824936510395581 0 0 0 0 
2414666666.6666665077 0.175075694918632507324218750000 -0.053737457841634750366210937500 0.001674267114140092892887734521 0.001783273299224674918531108325 0 0 0 0 
2414833333.3333334923 0.175578743219375610351562500000 -0.054703820496797561645507812500 0.001708375988528132004978798975 0.001552632311359048106549907153 0 0 0 0 
2415000000.0000000000 0.175977349281311007400674384371 -0.055647339671850197528879533593 0.001734515302814543030382465894 0.001475003082305192947387695312 0 0 0 0 
2415166666.6666665077 0.176527708768844604492187500000 -0.056308150291442871093750000000 0.001753417192958294911625527490 0.001360954716801642937901162256 0 0 0 0 
2415333333.3333334923 0.176886677742004394531250000000 -0.057091329246759421611745466407 0.001678120461292565085767436450 0.001250269822776318030116415869 0 0 0 0 
2415500000.0000000000 0.177299693226814297775106865629 -0.057642824947834021831472028907 0.001884336001239717006683349609 0.001073951134458184025408100659 0 0 0 0 
2415666666.6666665077 0.177465245127677889724893134371 -0.058013539761304862285573591407 0.001961269648745656013488769531 0.001000934629701077938079833984 0 0 0 0 
2415833333.3333334923 0.177926093339919988434161268742 -0.058572031557559967041015625000 0.001764304703101515986798930591 0.000859281804878264665603637695 0 0 0 0 
2416000000.0000000000 0.177769914269447298904580634371 -0.059021666646003723144531250000 0.001936439075507224039790488135 0.000753964297473430633544921875 0 0 0 0 
2416166666.6666665077 0.178003817796707208831463731258 -0.059317704290151603008229841407 0.001900816685520112948176718604 0.000619850819930434226989746094 0 0 0 0 
2416333333.3333334923 0.178017780184745788574218750000 -0.059565268456935882568359375000 0.001914449152536690018297504956 0.000427170860348269289166051044 0 0 0 0 
2416500000.0000000000 0.177946582436561612228231865629 -0.059924781322479248046875000000 0.001752927899360656955121684497 0.000316390010993927717208862305 0 0 0 0 
2416666666.6666665077 0.177654266357421902755575615629 -0.060128841549158103252370466407 0.001767883775755763053894042969 0.000307399721350520903438013898 0 0 0 0 
2416833333.3333334923 0.177593484520912198165731865629 -0.060410652309656143188476562500 0.001573182991705835082410502856 0.000285470712697133421897888184 0 0 0 0 
2417000000.0000000000 0.176988825201988192459268134371 -0.060628581792116172100026716407 0.001772595103830099105834960938 0.000199826856260187896803179330 0 0 0 0 
2417166666.6666665077 0.176653668284416198730468750000 -0.060707572847604751586914062500 0.001646410673856735012651753003 0.000022519598132930699398721389 0 0 0 0 
2417333333.3333334923 0.176059082150459289550781250000 -0.060893148183822631835937500000 0.001452978467568754933000874097 -0.000024375869543291628360748291 0 0 0 0 
2417500000.0000000000 0.175471484661102294921875000000 -0.061300877481698989868164062500 0.001314977533183991909027099609 0.000024460709028062410652637482 0 0 0 0 
2417666666.6666665077 0.174852415919303894042968750000 -0.061383698135614402080495466407 0.001197955920360981984379433740 -0.000126862680190242799833574838 0 0 0 0 
2417833333.3333334923 0.173992782831191988845986884371 -0.061610464006662368774414062500 0.001246266183443367914912558447 -0.000162329961312934810489100323 0 0 0 0 
2418000000.0000000000 0.173061206936836187164630018742 -0.062028292566537857055664062500 0.001160633517429233031031943213 -0.000225071387831121710225781851 0 0 0 0 
2418166666.6666665077 0.172132298350334195236044365629 -0.062024552375078201293945312500 0.001022158889099955992457724463 -0.000150005798786878612920484000 0 0 0 0 
2418333333.3333334923 0.171216741204261807540731865629 -0.062582813203334808349609375000 0.001006137114018202044843364185 -0.000166167243150994208738049918 0 0 0 0 
2418500000.0000000000 0.170072332024574307540731865629 -0.062900796532630920410156250000 0.000821957830339670181274414062 0.000009887878150038886815309525 0 0 0 0 
2418666666.6666665077 0.169074803590774508377236884371 -0.063440911471843719482421875000 0.000969000277109444141387939453 -0.000045080443669576197862625122 0 0 0 0 
2418833333.3333334923 0.167718827724456787109375000000 -0.063968762755393981933593750000 0.000713121029548346996307373047 -0.000038654732634313411336352689 0 0 0 0 
2419000000.0000000000 0.166537016630172701736611884371 -0.064539678394794464111328125000 0.000660775753203779458999633789 0.000066723041527438908815383911 0 0 0 0 
2419166666.6666665077 0.165531799197196988204794365629 -0.065168291330337524414062500000 0.000519112800247967243194580078 0.000045324148231884471397807462 0 0 0 0 
2419333333.3333334923 0.164085432887077303787393134371 -0.065730124711990356445312500000 0.000572059187106788158416748047 -0.000022622780306846841495444639 0 0 0 0 
2419500000.0000000000 0.162946820259094210525674384371 -0.066711038351058959960937500000 0.000564478687010705471038818359 0.000224919451284222304821014404 0 0 0 0 
2419666666.6666665077 0.161796748638153103927450615629 -0.067587517201900482177734375000 0.000506141979712992906570434570 0.000103361162473447593763628549 0 0 0 0 
2419833333.3333334923 0.160392194986343411544638115629 -0.068479046225547790527343750000 0.000475167675176635384559631348 0.000373833521734923124313354492 0 0 0 0 
2420000000.0000000000 0.159406468272209195236044365629 -0.069811239838600158691406250000 0.000439064227975904887348729266 0.000238519714912399703830164777 0 0 0 0 
