# Version 1.00
#
freq[Hz];re:Trc1_S11;im:Trc1_S11;re:Trc2_S21;im:Trc2_S21;
2.400000000000000E+009;1.588056832551956E-001;6.290252506732941E-002;-2.659209771081805E-003;-3.754692850634456E-003;
2.400166666666667E+009;1.586920022964478E-001;6.123313680291176E-002;-2.942976308986545E-003;-3.748444607481360E-003;
2.400333333333334E+009;1.585862636566162E-001;5.941663682460785E-002;-2.789654303342104E-003;-3.557864576578140E-003;
2.400500000000000E+009;1.584282517433167E-001;5.754567682743073E-002;-3.006504382938147E-003;-3.622573101893067E-003;
2.400666666666667E+009;1.583393365144730E-001;5.562338978052139E-002;-3.017491893842816E-003;-3.477078163996339E-003;
2.400833333333334E+009;1.583560556173325E-001;5.384229123592377E-002;-2.992401132360101E-003;-3.474205732345581E-003;
2.401000000000000E+009;1.583989560604096E-001;5.165146291255951E-002;-3.062833799049258E-003;-3.572793910279870E-003;
2.401166666666667E+009;1.585264652967453E-001;4.958761483430862E-002;-3.238025121390820E-003;-3.176982980221510E-003;
2.401333333333334E+009;1.585032492876053E-001;4.741993173956871E-002;-3.281983779743314E-003;-3.178201150149107E-003;
2.401500000000000E+009;1.588908135890961E-001;4.567826166749001E-002;-3.349537961184979E-003;-3.267880063503981E-003;
2.401666666666667E+009;1.591576784849167E-001;4.361929371953011E-002;-3.177807433530688E-003;-3.205054206773639E-003;
2.401833333333334E+009;1.593712866306305E-001;4.151483252644539E-002;-3.447227645665407E-003;-3.302903147414327E-003;
2.402000000000000E+009;1.596901863813400E-001;3.970570489764214E-002;-3.640840528532863E-003;-3.136039711534977E-003;
2.402166666666667E+009;1.601853668689728E-001;3.764038160443306E-002;-3.737571649253368E-003;-3.141282824799418E-003;
2.402333333333334E+009;1.607231944799423E-001;3.582317009568214E-002;-3.836402902379632E-003;-3.041578456759453E-003;
2.402500000000000E+009;1.615028828382492E-001;3.388553857803345E-002;-3.869317937642336E-003;-2.950985683128238E-003;
2.402666666666667E+009;1.622319072484970E-001;3.210784867405891E-002;-4.090841393917799E-003;-2.685824409127235E-003;
2.402833333333334E+009;1.626716107130051E-001;3.037448972463608E-002;-4.191233776509762E-003;-2.590965945273638E-003;
2.403000000000000E+009;1.634329408407211E-001;2.872550860047340E-002;-4.389939364045858E-003;-2.746808342635632E-003;
2.403166666666667E+009;1.644655317068100E-001;2.703975699841976E-002;-4.309100564569235E-003;-2.534156665205956E-003;
2.403333333333334E+009;1.652747839689255E-001;2.557295374572277E-002;-4.447624087333679E-003;-2.393489936366677E-003;
2.403500000000000E+009;1.660191416740418E-001;2.396464347839356E-002;-4.470860119909048E-003;-2.342839958146215E-003;
2.403666666666667E+009;1.669379174709320E-001;2.261561341583729E-002;-4.733256995677948E-003;-2.162093995139003E-003;
2.403833333333334E+009;1.681239157915115E-001;2.128016576170921E-002;-4.715712741017342E-003;-1.946547650732100E-003;
2.404000000000000E+009;1.690249294042587E-001;2.000306732952595E-002;-4.825406707823277E-003;-1.739337458275259E-003;
2.404166666666667E+009;1.699146628379822E-001;1.883287541568279E-002;-5.077306646853685E-003;-1.509869471192360E-003;
2.404333333333334E+009;1.708845496177673E-001;1.781159639358521E-002;-5.167678464204073E-003;-1.409319695085287E-003;
2.404500000000000E+009;1.716537922620773E-001;1.659376546740532E-002;-5.239253398030996E-003;-1.233437564224005E-003;
2.404666666666667E+009;1.727018505334854E-001;1.583319343626499E-002;-5.248880945146084E-003;-1.120574539527297E-003;
2.404833333333334E+009;1.736337244510651E-001;1.482606958597899E-002;-5.254899151623249E-003;-8.242219337262213E-004;
2.405000000000000E+009;1.746397763490677E-001;1.427715737372637E-002;-5.329875275492668E-003;-6.491703097708523E-004;
2.405166666666667E+009;1.753016263246536E-001;1.337933260947466E-002;-5.385030526667833E-003;-5.117511027492583E-004;
2.405333333333334E+009;1.763466745615006E-001;1.276152767241001E-002;-5.190782714635134E-003;-3.741633263416588E-004;
2.405500000000000E+009;1.771112978458405E-001;1.238942053169012E-002;-5.353801418095827E-003;-2.277945168316364E-004;
2.405666666666667E+009;1.777343004941940E-001;1.162680704146624E-002;-5.122203845530748E-003;-1.343815674772486E-004;
2.405833333333334E+009;1.783280968666077E-001;1.141735445708036E-002;-5.146263167262077E-003;1.417509920429438E-004;
2.406000000000000E+009;1.789991706609726E-001;1.075156964361668E-002;-5.198494996875525E-003;3.703125403262675E-004;
2.406166666666667E+009;1.792772561311722E-001;1.058618817478418E-002;-5.129422061145306E-003;4.372634866740555E-004;
2.406333333333334E+009;1.800532191991806E-001;1.021548453718424E-002;-5.154854618012905E-003;7.603900157846510E-004;
2.406500000000000E+009;1.802915185689926E-001;9.861916303634644E-003;-5.037888884544373E-003;9.530119132250547E-004;
2.406666666666667E+009;1.804247200489044E-001;9.541157633066177E-003;-5.054540000855923E-003;1.094202627427876E-003;
2.406833333333334E+009;1.807699799537659E-001;9.083801880478859E-003;-4.919902421534061E-003;1.239798730239272E-003;
2.407000000000000E+009;1.809760779142380E-001;8.806345984339714E-003;-4.955514334142208E-003;1.400638488121331E-003;
2.407166666666667E+009;1.811033040285111E-001;8.413539268076420E-003;-4.889017436653376E-003;1.422056579031050E-003;
2.407333333333334E+009;1.810078173875809E-001;7.943074218928814E-003;-4.806822165846825E-003;1.580102485604584E-003;
2.407500000000000E+009;1.808754652738571E-001;7.632446009665728E-003;-4.700548946857452E-003;1.711585326120257E-003;
2.407666666666667E+009;1.807698905467987E-001;7.263787090778351E-003;-4.797144792973995E-003;1.862188335508108E-003;
2.407833333333334E+009;1.803497970104218E-001;6.668321322649717E-003;-4.357894416898489E-003;2.178448252379894E-003;
2.408000000000000E+009;1.802331358194351E-001;5.981937982141972E-003;-4.336507525295019E-003;2.236819360405207E-003;
2.408166666666667E+009;1.797654330730438E-001;5.497578065842390E-003;-4.348556976765394E-003;2.175027970224619E-003;
2.408333333333334E+009;1.794295608997345E-001;4.845713730901480E-003;-4.288980737328529E-003;2.324142260476947E-003;
2.408500000000000E+009;1.788851022720337E-001;3.924669232219458E-003;-4.130665678530932E-003;2.488018246367574E-003;
2.408666666666667E+009;1.782893985509872E-001;3.092112252488732E-003;-4.109088331460953E-003;2.645261352881789E-003;
2.408833333333334E+009;1.775522381067276E-001;2.164398552849889E-003;-4.027846734970808E-003;2.650051610544324E-003;
2.409000000000000E+009;1.769387573003769E-001;1.167428330518305E-003;-3.841371741145849E-003;2.844504080712795E-003;
2.409166666666667E+009;1.764176636934280E-001;4.856578379985876E-005;-3.756901016458869E-003;2.717315917834640E-003;
2.409333333333334E+009;1.758267581462860E-001;-1.033206703141332E-003;-3.753056749701500E-003;2.902765758335590E-003;
2.409500000000000E+009;1.750332117080689E-001;-2.511503174901009E-003;-3.671586979180574E-003;3.030002349987626E-003;
2.409666666666667E+009;1.742333471775055E-001;-3.664053976535797E-003;-3.525008913129568E-003;3.018506336957216E-003;
2.409833333333334E+009;1.734113842248917E-001;-4.934298340231180E-003;-3.411168232560158E-003;3.084467258304358E-003;
2.410000000000000E+009;1.730702221393585E-001;-6.552834529429674E-003;-3.274255199357867E-003;3.250635694712400E-003;
2.410166666666667E+009;1.723662763834000E-001;-7.915646769106388E-003;-3.288130275905132E-003;3.245840780436993E-003;
2.410333333333334E+009;1.716072559356690E-001;-9.580880403518677E-003;-3.158490406349301E-003;3.309859661385417E-003;
2.410500000000000E+009;1.709492057561874E-001;-1.135419495403767E-002;-3.115925239399076E-003;3.381930291652679E-003;
2.410666666666667E+009;1.704406440258026E-001;-1.308024581521750E-002;-3.089091507717967E-003;3.366029122844338E-003;
2.410833333333334E+009;1.700073033571243E-001;-1.486239396035671E-002;-3.035449888557196E-003;3.568085376173258E-003;
2.411000000000000E+009;1.694787740707398E-001;-1.661353558301926E-002;-2.951164729893208E-003;3.513631410896778E-003;
2.411166666666667E+009;1.691017746925354E-001;-1.840350963175297E-002;-2.727179555222392E-003;3.567422972992063E-003;
2.411333333333334E+009;1.687073260545731E-001;-2.031269669532776E-002;-2.794083906337619E-003;3.838140284642577E-003;
2.411500000000000E+009;1.684963554143906E-001;-2.217796631157398E-002;-2.627923153340817E-003;3.921670373529196E-003;
2.411666666666667E+009;1.683307886123657E-001;-2.426485717296600E-002;-2.507825149223208E-003;3.839239478111267E-003;
2.411833333333334E+009;1.683031171560288E-001;-2.595168724656105E-002;-2.541802823543549E-003;4.068411421030760E-003;
2.412000000000000E+009;1.681250929832459E-001;-2.791381254792213E-002;-2.361851511523128E-003;4.184077028185129E-003;
2.412166666666667E+009;1.681086719036102E-001;-2.985233813524246E-002;-2.446732018142939E-003;4.185712430626154E-003;
2.412333333333334E+009;1.684880256652832E-001;-3.169380500912666E-002;-2.202931325882673E-003;4.223295487463474E-003;
2.412500000000000E+009;1.684679836034775E-001;-3.357310220599175E-002;-2.070029964670539E-003;4.237840883433819E-003;
2.412666666666667E+009;1.688009351491928E-001;-3.551912680268288E-002;-1.958442386239767E-003;4.450637847185135E-003;
2.412833333333334E+009;1.690350621938705E-001;-3.741456195712090E-002;-1.877830829471350E-003;4.574149847030640E-003;
2.413000000000000E+009;1.695142090320587E-001;-3.911259397864342E-002;-1.856429036706686E-003;4.650609102100134E-003;
2.413166666666667E+009;1.698224544525147E-001;-4.091421887278557E-002;-1.485842745751143E-003;4.650048911571503E-003;
2.413333333333334E+009;1.702140271663666E-001;-4.255375266075134E-002;-1.384871779009700E-003;4.744280595332384E-003;
2.413500000000000E+009;1.706395298242569E-001;-4.427699744701386E-002;-1.251851441338658E-003;4.892186727374792E-003;
2.413666666666667E+009;1.711198687553406E-001;-4.579319804906845E-002;-1.088924123905599E-003;5.118086002767086E-003;
2.413833333333334E+009;1.716658025979996E-001;-4.725243523716927E-002;-9.249849827028811E-004;4.971385933458805E-003;
2.414000000000000E+009;1.720719486474991E-001;-4.884423688054085E-002;-8.108126348815858E-004;5.110541824251413E-003;
2.414166666666667E+009;1.726732105016708E-001;-5.010372400283814E-002;-5.629032966680825E-004;5.144390277564526E-003;
2.414333333333334E+009;1.733393073081970E-001;-5.124333873391151E-002;-3.879240539390594E-004;5.279735662043095E-003;
2.414500000000000E+009;1.738966405391693E-001;-5.255532637238503E-002;-3.383596776984632E-004;5.066639743745327E-003;
2.414666666666667E+009;1.743838489055634E-001;-5.360904708504677E-002;6.752092303941026E-005;5.112292710691690E-003;
2.414833333333334E+009;1.748668849468231E-001;-5.455099046230316E-002;3.015663605765440E-005;5.299282725900412E-003;
2.415000000000000E+009;1.752663999795914E-001;-5.552698299288750E-002;4.251589998602867E-004;5.107868462800980E-003;
2.415166666666667E+009;1.758206337690353E-001;-5.636698752641678E-002;5.372464074753225E-004;5.247555207461119E-003;
2.415333333333334E+009;1.763475090265274E-001;-5.719361081719399E-002;9.377633687108755E-004;5.217634607106447E-003;
2.415500000000000E+009;1.766491830348969E-001;-5.774772912263870E-002;1.093246508389711E-003;4.991152789443731E-003;
2.415666666666667E+009;1.767817735671997E-001;-5.826389044523239E-002;1.073057646863163E-003;5.125171504914761E-003;
2.415833333333334E+009;1.772913634777069E-001;-5.902734398841858E-002;1.314147259108722E-003;4.977711476385593E-003;
2.416000000000000E+009;1.772857606410980E-001;-5.935314297676086E-002;1.508561545051634E-003;4.869088530540466E-003;
2.416166666666667E+009;1.775570511817932E-001;-5.989696830511093E-002;1.692238496616483E-003;4.774730186909437E-003;
2.416333333333334E+009;1.775440573692322E-001;-6.016836687922478E-002;1.787656452506781E-003;4.744426347315311E-003;
2.416500000000000E+009;1.774725764989853E-001;-6.057096272706986E-002;2.058909041807056E-003;4.655603785067797E-003;
2.416666666666667E+009;1.773055642843247E-001;-6.082809343934059E-002;2.208208199590445E-003;4.554111510515213E-003;
2.416833333333334E+009;1.771451681852341E-001;-6.126888096332550E-002;2.326933667063713E-003;4.383640363812447E-003;
2.417000000000000E+009;1.767162233591080E-001;-6.140454486012459E-002;2.519860863685608E-003;4.353056661784649E-003;
2.417166666666667E+009;1.763728857040405E-001;-6.153294444084168E-002;2.444188576191664E-003;4.211950115859509E-003;
2.417333333333334E+009;1.759638339281082E-001;-6.171753630042076E-002;2.666523214429617E-003;4.127943422645330E-003;
2.417500000000000E+009;1.753597110509872E-001;-6.219914928078651E-002;2.738034818321466E-003;4.004464019089937E-003;
2.417666666666667E+009;1.747916191816330E-001;-6.241001561284065E-002;2.835433697327972E-003;3.966757562011480E-003;
2.417833333333334E+009;1.739276051521301E-001;-6.265768408775330E-002;3.002327168360353E-003;3.788362955674529E-003;
2.418000000000000E+009;1.731541752815247E-001;-6.306599825620651E-002;3.035589819774032E-003;3.712023608386517E-003;
2.418166666666667E+009;1.721779704093933E-001;-6.321866810321808E-002;3.239630255848169E-003;3.554239869117737E-003;
2.418333333333334E+009;1.715054959058762E-001;-6.355912983417511E-002;3.265176201239228E-003;3.451977157965303E-003;
2.418500000000000E+009;1.702797412872315E-001;-6.407067179679871E-002;3.360135247930884E-003;3.384755691513419E-003;
2.418666666666667E+009;1.694747805595398E-001;-6.453862041234970E-002;3.522443585097790E-003;3.024627454578877E-003;
2.418833333333334E+009;1.682291328907013E-001;-6.507647037506104E-002;3.686279524117708E-003;2.957307966426015E-003;
2.419000000000000E+009;1.670165956020355E-001;-6.556863337755203E-002;3.580539021641016E-003;2.950966823846102E-003;
2.419166666666667E+009;1.659586429595947E-001;-6.627897173166275E-002;3.738321829587221E-003;2.698173513635993E-003;
2.419333333333334E+009;1.646052300930023E-001;-6.676495820283890E-002;3.644219599664211E-003;2.678867429494858E-003;
2.419500000000000E+009;1.634997278451920E-001;-6.779976934194565E-002;3.740918589755893E-003;2.528246724978089E-003;
2.419666666666667E+009;1.625018268823624E-001;-6.862588226795197E-002;3.808070905506611E-003;2.374148694798350E-003;
2.419833333333334E+009;1.611558049917221E-001;-6.933031976222992E-002;3.794132033362985E-003;2.321815118193626E-003;
2.420000000000000E+009;1.600994914770126E-001;-7.059027999639511E-002;3.916582092642784E-003;2.078508725389838E-003;
2.420166666666667E+009;1.590616852045059E-001;-7.155256718397141E-002;3.969063051044941E-003;2.050972543656826E-003;
2.420333333333334E+009;1.578163057565689E-001;-7.274124771356583E-002;4.105709493160248E-003;1.815130701288581E-003;
2.420500000000000E+009;1.569368988275528E-001;-7.388664036989212E-002;4.052560310810804E-003;1.721175387501717E-003;
2.420666666666667E+009;1.558000892400742E-001;-7.497230172157288E-002;4.208001308143139E-003;1.570052583701909E-003;
2.420833333333334E+009;1.549111902713776E-001;-7.660401612520218E-002;4.068686161190271E-003;1.589345862157643E-003;
2.421000000000000E+009;1.539349853992462E-001;-7.798396795988083E-002;4.006621427834034E-003;1.237309421412647E-003;
2.421166666666667E+009;1.531768143177033E-001;-7.945573329925537E-002;4.146675113588572E-003;1.217733253724873E-003;
2.421333333333334E+009;1.525756567716599E-001;-8.101285248994827E-002;3.951659891754389E-003;1.029337057843804E-003;
2.421500000000000E+009;1.517838239669800E-001;-8.255727589130402E-002;4.120778758078814E-003;9.099945309571922E-004;
2.421666666666667E+009;1.512092500925064E-001;-8.420475572347641E-002;4.014932084828615E-003;6.241215742193162E-004;
2.421833333333334E+009;1.508369743824005E-001;-8.580387383699417E-002;3.965706564486027E-003;6.206021062098444E-004;
2.422000000000000E+009;1.503377258777618E-001;-8.752187341451645E-002;4.082837607711554E-003;4.946221597492695E-004;
2.422166666666667E+009;1.500173360109329E-001;-8.938125520944595E-002;3.900667186826468E-003;2.664001949597150E-004;
2.422333333333334E+009;1.497029364109039E-001;-9.081836044788361E-002;3.850078210234642E-003;2.203062467742711E-004;
2.422500000000000E+009;1.495842337608337E-001;-9.263004362583160E-002;3.835042472928762E-003;3.044699224119540E-005;
2.422666666666667E+009;1.494615375995636E-001;-9.420961141586304E-002;3.793800715357065E-003;-8.031405741348863E-005;
2.422833333333334E+009;1.494946926832199E-001;-9.621372818946838E-002;3.583551617339253E-003;-8.443219849141315E-005;
2.423000000000000E+009;1.494801938533783E-001;-9.762123227119446E-002;3.606362733989954E-003;-2.848450967576355E-004;
2.423166666666667E+009;1.498164683580399E-001;-9.920436888933182E-002;3.699952038004994E-003;-4.183948913123459E-004;
2.423333333333334E+009;1.501684039831162E-001;-1.008194535970688E-001;3.692074678838253E-003;-4.769558727275580E-004;
2.423500000000000E+009;1.503378748893738E-001;-1.023797839879990E-001;3.525111824274063E-003;-5.792886367999017E-004;
2.423666666666667E+009;1.503762751817703E-001;-1.039885804057121E-001;3.378828987479210E-003;-5.629029474221170E-004;
2.423833333333334E+009;1.509492099285126E-001;-1.054610311985016E-001;3.470585448667407E-003;-6.141260382719338E-004;
2.424000000000000E+009;1.513194441795349E-001;-1.066547259688377E-001;3.399101551622152E-003;-6.846414180472493E-004;
2.424166666666667E+009;1.517202258110046E-001;-1.080657914280891E-001;3.310552332550287E-003;-8.408698486164212E-004;
2.424333333333334E+009;1.522432118654251E-001;-1.093213707208633E-001;3.102606860920787E-003;-9.171012206934393E-004;
2.424500000000000E+009;1.525991111993790E-001;-1.106080487370491E-001;3.163392422720790E-003;-1.012292806990445E-003;
2.424666666666667E+009;1.531828939914703E-001;-1.115882545709610E-001;3.301744582131505E-003;-9.469357319176197E-004;
2.424833333333334E+009;1.535270810127258E-001;-1.125346645712853E-001;3.246362553909421E-003;-1.136429491452873E-003;
2.425000000000000E+009;1.540418416261673E-001;-1.136105358600617E-001;3.101922571659088E-003;-1.065838616341353E-003;
2.425166666666667E+009;1.542995125055313E-001;-1.144236251711845E-001;3.134520491585136E-003;-1.074463245458901E-003;
2.425333333333334E+009;1.547538042068481E-001;-1.151502951979637E-001;3.096719738095999E-003;-1.149415853433311E-003;
2.425500000000000E+009;1.552083790302277E-001;-1.158783063292503E-001;3.113707527518272E-003;-1.182971405796707E-003;
2.425666666666667E+009;1.552911102771759E-001;-1.165432929992676E-001;2.915859920904040E-003;-1.252863788977265E-003;
2.425833333333334E+009;1.555676758289337E-001;-1.171141937375069E-001;2.944249892607331E-003;-1.180563587695360E-003;
2.426000000000000E+009;1.557510346174240E-001;-1.176747083663940E-001;2.941716462373734E-003;-1.428125659003854E-003;
2.426166666666667E+009;1.562024205923080E-001;-1.181424409151077E-001;2.861201763153076E-003;-1.488283625803888E-003;
2.426333333333334E+009;1.560427248477936E-001;-1.183841079473496E-001;2.899974351748824E-003;-1.628245809115470E-003;
2.426500000000000E+009;1.561715304851532E-001;-1.187032088637352E-001;2.805855125188828E-003;-1.447599381208420E-003;
2.426666666666667E+009;1.561960577964783E-001;-1.188702210783958E-001;2.857329789549112E-003;-1.505946042016149E-003;
2.426833333333334E+009;1.559039354324341E-001;-1.191351041197777E-001;2.825213829055429E-003;-1.594097120687366E-003;
2.427000000000000E+009;1.556231826543808E-001;-1.193330734968185E-001;2.697637071833015E-003;-1.706619630567730E-003;
2.427166666666667E+009;1.552842110395432E-001;-1.193084791302681E-001;2.661349950358272E-003;-1.626689801923931E-003;
2.427333333333334E+009;1.548165977001190E-001;-1.195663958787918E-001;2.574671525508165E-003;-1.669071963988245E-003;
2.427500000000000E+009;1.543793827295303E-001;-1.194643899798393E-001;2.494404558092356E-003;-1.810836838558316E-003;
2.427666666666667E+009;1.536616235971451E-001;-1.195799410343170E-001;2.653293777257204E-003;-1.906357356347144E-003;
