# Hz S RI R 50
2400000000.0000000000 0.158041745424270602127236884371 0.062033370137214660644531250000 0.001426252652890980026842426831 0.000986056867986917495727539062 0 0 0 0 
2400166666.6666665077 0.158009111881256103515625000000 0.060240797698497772216796875000 0.001424260903149842999101948315 0.000998016679659485816955566406 0 0 0 0 
2400333333.3333334923 0.157832548022270202636718750000 0.058315675705671310424804687500 0.001578660332597791931749653394 0.000868719886057078838348388672 0 0 0 0 
2400500000.0000000000 0.157919362187385586837606865629 0.056519594043493270874023437500 0.001553015434183179898502968896 0.000777504057623445987701416016 0 0 0 0 
2400666666.6666665077 0.157891884446144104003906250000 0.054655846208333969116210937500 0.001683053676970303058624267578 0.000660772726405411958694458008 0 0 0 0 
2400833333.3333334923 0.157947123050689697265625000000 0.052791103720664978027343750000 0.001449352363124490001081157153 0.000880456995218992233276367188 0 0 0 0 
2401000000.0000000000 0.158160418272018404861611884371 0.050473548471927642822265625000 0.001633605570532381968257285010 0.000487277720822021419375819073 0 0 0 0 
2401166666.6666665077 0.158135876059532193282919365629 0.048440918326377868652343750000 0.001540304278023540973663330078 0.000546265335287898778915405273 0 0 0 0 
2401333333.3333334923 0.158595010638236999511718750000 0.046442247927188873291015625000 0.001551916473545134067535400391 0.000351726834196597283512669696 0 0 0 0 
2401500000.0000000000 0.158909007906913812835369981258 0.044374655932188027118723283593 0.001536911120638251087786030347 0.000242737674852833206027430402 0 0 0 0 
2401666666.6666665077 0.159203916788101196289062500000 0.042450398206710822368581403907 0.001633936073631047985674213940 0.000249410397373139912455958234 0 0 0 0 
2401833333.3333334923 0.159559920430183410644531250000 0.040450051426887512207031250000 0.001427041599527000947239541162 0.000152276828885078403070726938 0 0 0 0 
2402000000.0000000000 0.159893378615379305740518134371 0.038545578718185431743581403907 0.001441618544049561023712158203 0.000116393741336651200622004376 0 0 0 0 
2402166666.6666665077 0.160406768321990994552450615629 0.036522570997476577758789062500 0.001326314290054142908809042822 0.000075010357249993830919265747 0 0 0 0 
2402333333.3333334923 0.160986781120300292968750000000 0.034772709012031562114675153907 0.001472172094509005980250693213 0.000187325756996869986683446063 0 0 0 0 
2402500000.0000000000 0.161858275532722500900106865629 0.032910935580730438232421875000 0.001261010649614036083221435547 -0.000050690188800217576999256747 0 0 0 0 
2402666666.6666665077 0.162426665425300598144531250000 0.031385421752929687500000000000 0.001196133089251816055895161206 0.000076547381468117237091064453 0 0 0 0 
2402833333.3333334923 0.163007587194442804534588731258 0.029527598991990089416503906250 0.001145357498899101994158100659 -0.000176675894181244102403363638 0 0 0 0 
2403000000.0000000000 0.164091825485229492187500000000 0.027884196490049358713170235546 0.001069640740752219936968159253 -0.000172032072441652390077868051 0 0 0 0 
2403166666.6666665077 0.165061250329017611404580634371 0.026256466284394260751744454296 0.001123460941016674041748046875 -0.000110687346023041795618595262 0 0 0 0 
2403333333.3333334923 0.165626063942909212967080634371 0.025005230680108070373535156250 0.000939166580792516469955444336 -0.000031890580430626869201660156 0 0 0 0 
2403500000.0000000000 0.166580826044082613845986884371 0.023477774113416668283482735546 0.000865528767462819814682006836 -0.000206207201699726310655316763 0 0 0 0 
2403666666.6666665077 0.167550683021545410156250000000 0.022240333259105678903599923046 0.000912997464183717966079711914 -0.000094171613454818725585937500 0 0 0 0 
2403833333.3333334923 0.168756723403930691818075615629 0.020809412002563480031946951954 0.000853376637678593397140502930 -0.000045046523155178881507327421 0 0 0 0 
2404000000.0000000000 0.169478923082351712325888115629 0.019566627219319340097447579296 0.000706537975929677486419677734 -0.000034405078622512519359588623 0 0 0 0 
2404166666.6666665077 0.170495823025703402420205634371 0.018612401559948921203613281250 0.000832643709145486354827880859 -0.000030358551157405599951744080 0 0 0 0 
2404333333.3333334923 0.171351253986358587066973768742 0.017741098999977108346959298046 0.000684277038089931011199951172 0.000052742405387107282876968384 0 0 0 0 
2404500000.0000000000 0.172275424003601101974325615629 0.016591856256127360952357108204 0.000727579172234982252120971680 -0.000041543546103639528155326843 0 0 0 0 
2404666666.6666665077 0.173181623220443697830361884371 0.015805741772055629384974295704 0.000655761163216084241867065430 0.000137197741423733505323687143 0 0 0 0 
2404833333.3333334923 0.174030214548110989669638115629 0.015129085630178449803362461523 0.000742874224670231342315673828 0.000097982170700561255216598511 0 0 0 0 
2405000000.0000000000 0.174960002303123501876669365629 0.014376675710082050668736641796 0.000641345162875950336456298828 0.000200047652469947907045641489 0 0 0 0 
2405166666.6666665077 0.175587102770805386642294365629 0.013696277514100079972236834180 0.000504805881064385175704956055 0.000134554429678246406003674918 0 0 0 0 
2405333333.3333334923 0.176493421196937588790731865629 0.012844705954194070643414882227 0.000500134658068418502807617188 0.000239570959820412099361419678 0 0 0 0 
2405500000.0000000000 0.177193284034729003906250000000 0.012417615391314029693603515625 0.000595529971178621053695678711 0.000234505336266010999679565430 0 0 0 0 
2405666666.6666665077 0.177868843078613309005575615629 0.012040326371788980311383632227 0.000729812716599553823471069336 0.000449017126811668276786804199 0 0 0 0 
2405833333.3333334923 0.178310424089431790450888115629 0.011679659597575669724434099805 0.000808735028840601444244384766 0.000404130696551874279975891113 0 0 0 0 
2406000000.0000000000 0.178759679198265103439169365629 0.011156237684190269815465157421 0.000656526943203061819076538086 0.000355696713086217587620335712 0 0 0 0 
2406166666.6666665077 0.179183036088943509200888115629 0.011023791506886480504046055273 0.000646092114038765430450439453 0.000559385865926742553710937500 0 0 0 0 
2406333333.3333334923 0.179808959364891107757244981258 0.010565700009465219325055507227 0.000763938296586275100708007812 0.000510753772687166929244995117 0 0 0 0 
2406500000.0000000000 0.179954126477241488357705634371 0.010211367160081859933873360546 0.000737384078092873096466064453 0.000510355050209909677505493164 0 0 0 0 
2406666666.6666665077 0.179898276925087002853231865629 0.009918076917529106140136718750 0.000845967326313257217407226562 0.000639933045022189617156982422 0 0 0 0 
2406833333.3333334923 0.180173546075820895095986884371 0.009568819776177406311035156250 0.000921163242310285568237304688 0.000582106120418757200241088867 0 0 0 0 
2407000000.0000000000 0.180406063795089693924111884371 0.009189031086862087249755859375 0.000863581546582281589508056641 0.000828288495540618896484375000 0 0 0 0 
2407166666.6666665077 0.180346533656120300292968750000 0.008933841250836849212646484375 0.000997380237095057964324951172 0.000685572915244847536087036133 0 0 0 0 
2407333333.3333334923 0.180178567767143305022869981258 0.008381233550608158111572265625 0.001170055358670651912689208984 0.000524889677762985229492187500 0 0 0 0 
2407500000.0000000000 0.180034726858139010330361884371 0.008027825504541397094726562500 0.001225103274919093088862753760 0.000782939139753580093383789062 0 0 0 0 
2407666666.6666665077 0.179806694388389587402343750000 0.007461200933903455734252929688 0.001155835692770778916002583081 0.000637636287137866020202636719 0 0 0 0 
2407833333.3333334923 0.179329022765159606933593750000 0.006862833630293607711791992188 0.001351423445157706954358745044 0.000769557955209165811538696289 0 0 0 0 
2408000000.0000000000 0.179024145007133511642294365629 0.006231092382222414016723632812 0.001455022837035357952117919922 0.000518103712238371372222900391 0 0 0 0 
2408166666.6666665077 0.178677365183830288986044365629 0.005633716937154532346243573926 0.001427430892363191084620810400 0.000680038006976246833801269531 0 0 0 0 
2408333333.3333334923 0.178409978747367886642294365629 0.004891504999250173568725585938 0.001504001091234385967254638672 0.000595351564697921276092529297 0 0 0 0 
2408500000.0000000000 0.177694573998451205154580634371 0.003968235105276107788085937500 0.001718559185974299907684326172 0.000691909168381243944168090820 0 0 0 0 
2408666666.6666665077 0.177073344588279696365518134371 0.002947050612419844107386923682 0.001831893459893763065338134766 0.000414288544561713879734593524 0 0 0 0 
2408833333.3333334923 0.176495179533958407303018134371 0.002083964180201292037963867188 0.001962814712896943092346191406 0.000458245514892041683197021484 0 0 0 0 
2409000000.0000000000 0.175858527421951293945312500000 0.001036465517245233058929443359 0.001833539223298430009129189600 0.000349099078448489308357238770 0 0 0 0 
2409166666.6666665077 0.175444781780242892166299384371 -0.000050370093958918012004306181 0.001968802185729146003723144531 0.000287833419861271977424621582 0 0 0 0 
2409333333.3333334923 0.174670189619064303299111884371 -0.001366085489280522086499858325 0.001967717427760363058802939307 0.000183860698598437011241912842 0 0 0 0 
2409500000.0000000000 0.173911258578300503829794365629 -0.002985472092404962019679404150 0.002097186865285038948059082031 0.000320827151881530880928039551 0 0 0 0 
2409666666.6666665077 0.173251956701278686523437500000 -0.004043534398078919324392987988 0.002157817827537655830383300781 0.000331373186782002503245753156 0 0 0 0 
2409833333.3333334923 0.172578319907188387771768134371 -0.005562661215662956237792968750 0.002266975119709969000575400244 0.000072523624112363904714584351 0 0 0 0 
2410000000.0000000000 0.171898320317268399337606865629 -0.006984967738389968872070312500 0.002330847783014177842381142725 -0.000158055059728212708800715314 0 0 0 0 
2410166666.6666665077 0.171468302607536288162393134371 -0.008565407246351242065429687500 0.002204514341428875923156738281 -0.000324632885167375206947326660 0 0 0 0 
2410333333.3333334923 0.170774027705192593673544365629 -0.010179080069065090524693673046 0.002344763837754725976231240381 -0.000368393259122967720031738281 0 0 0 0 
2410500000.0000000000 0.170375853776931790450888115629 -0.012002476491034029179583164648 0.002346476074308156967163085938 -0.000353580719092860817909240723 0 0 0 0 
2410666666.6666665077 0.169816553592681912521200615629 -0.013886575587093830108642578125 0.002356473123654723167419433594 -0.000654896895866841077804565430 0 0 0 0 
2410833333.3333334923 0.169305324554443387130575615629 -0.015441336669027810532539568555 0.002411019057035446166992187500 -0.000572449876926839351654052734 0 0 0 0 
2411000000.0000000000 0.168985337018966702560263115629 -0.017311044037342071533203125000 0.002275266218930482864379882812 -0.000828801130410283803939819336 0 0 0 0 
2411166666.6666665077 0.168768882751464788238848768742 -0.019093880429863929748535156250 0.002360965358093380928039550781 -0.000975786184426397085189819336 0 0 0 0 
2411333333.3333334923 0.168429315090179387848223768742 -0.020982865244150158273717110546 0.002416719449684023857116699219 -0.001115564373321831009508442456 0 0 0 0 
2411500000.0000000000 0.168344289064407404143963731258 -0.023230383172631260263463204296 0.002551924670115112824680947412 -0.001278490060940385081647563403 0 0 0 0 
2411666666.6666665077 0.168326169252395602127236884371 -0.025111204013228419912318045704 0.002391002140939236120936728369 -0.001333380350843071937561035156 0 0 0 0 
2411833333.3333334923 0.168160274624824496170205634371 -0.026824086904525760305384451954 0.002187274862080812887904501807 -0.001433363067917525985120463794 0 0 0 0 
2412000000.0000000000 0.168493151664733886718750000000 -0.028973894193768501281738281250 0.002105247694998980002162314307 -0.001496751559898257038713764722 0 0 0 0 
2412166666.6666665077 0.168151780962944003006143134371 -0.030765142291784289968470389454 0.002148965373635292053222656250 -0.001750086899846792004228901440 0 0 0 0 
2412333333.3333334923 0.168573662638664301116619981258 -0.032651700079441070556640625000 0.002114916220307350158691406250 -0.001926488010212779045104980469 0 0 0 0 
2412500000.0000000000 0.168638050556182889083700615629 -0.034451082348823547363281250000 0.002003707457333803176879882812 -0.002033242490142583847045898438 0 0 0 0 
2412666666.6666665077 0.169077441096305902679119981258 -0.036604154855012886737863908593 0.002015334786847234205958701025 -0.002114323899149895148036337744 0 0 0 0 
2412833333.3333334923 0.169490888714790288727130018742 -0.038273531943559646606445312500 0.001785774133168160915374755859 -0.002202325267717241807224892725 0 0 0 0 
2413000000.0000000000 0.169597625732421902755575615629 -0.039930775761604309082031250000 0.001789862639270723082898784106 -0.002282813191413878960850381006 0 0 0 0 
2413166666.6666665077 0.170178934931755093673544365629 -0.041550636291503913188893903907 0.001580131240189075903651572119 -0.002296436578035355047938681494 0 0 0 0 
2413333333.3333334923 0.170546844601631192306356865629 -0.043318249285221099853515625000 0.001478676684200763919233012622 -0.002402578713372350172755576025 0 0 0 0 
2413500000.0000000000 0.171117722988128689864950615629 -0.044803455471992492675781250000 0.001451761461794375939610146631 -0.002344359876587986946105957031 0 0 0 0 
2413666666.6666665077 0.171771973371505709549111884371 -0.046358834952116012573242187500 0.001302974531427026011823344653 -0.002528985263779758973362588037 0 0 0 0 
2413833333.3333334923 0.171954378485679598709268134371 -0.047810353338718407367746721093 0.001120851025916635990142822266 -0.002693554619327187971827841650 0 0 0 0 
2414000000.0000000000 0.172461897134780911544638115629 -0.049215096980333328247070312500 0.001139990519732237079023051685 -0.002566302893683313889744423975 0 0 0 0 
2414166666.6666665077 0.173173174262046786209268134371 -0.050125028938055038452148437500 0.000989331863820552825927734375 -0.002744298195466399192810058594 0 0 0 0 
2414333333.3333334923 0.173733815550804110428018134371 -0.051658146083354949951171875000 0.000831293000373989343643188477 -0.002682306570932269096374511719 0 0 0 0 
2414500000.0000000000 0.174332723021507290939169365629 -0.052722293883562088012695312500 0.000641679798718541860580444336 -0.002727075479924678802490234375 0 0 0 0 
2414666666.6666665077 0.174688085913658086578692518742 -0.053639587014913558959960937500 0.000480852351756766384274083270 -0.002870698459446430206298828125 0 0 0 0 
2414833333.3333334923 0.175204515457153292556924384371 -0.054663337767124182964284528907 0.000508172030095010995864868164 -0.002704386832192540168762207031 0 0 0 0 
2415000000.0000000000 0.175631240010261507888955634371 -0.055623378604650497436523437500 0.000341625476721674203872680664 -0.002769172890111804008483886719 0 0 0 0 
2415166666.6666665077 0.175946265459060696700888115629 -0.056239020079374313354492187500 0.000183480093255639103337964468 -0.002843708731234074072596884619 0 0 0 0 
2415333333.3333334923 0.176409944891929598709268134371 -0.057053379714488983154296875000 0.000201235641725361401408594952 -0.002637383993715047836303710938 0 0 0 0 
2415500000.0000000000 0.176705896854400607010049384371 -0.057636789977550506591796875000 0.000007212489435914903879165649 -0.002638643607497214837315224756 0 0 0 0 
2415666666.6666665077 0.177011907100677490234375000000 -0.058037921786308288574218750000 0.000013957668670627750793491670 -0.002559810178354382948634482275 0 0 0 0 
2415833333.3333334923 0.177195549011230496505575615629 -0.058676976710557937622070312500 -0.000096917756309267133474349976 -0.002577237552031875090358115088 0 0 0 0 
2416000000.0000000000 0.177177354693412808517294365629 -0.059143871068954467773437500000 -0.000284259323962032794952392578 -0.002580165630206466154811240088 0 0 0 0 
2416166666.6666665077 0.177526414394378689864950615629 -0.059406962245702736591379533593 -0.000263995549175888299942016602 -0.002445149701088666915893554688 0 0 0 0 
2416333333.3333334923 0.177284583449363708496093750000 -0.059741072356700897216796875000 -0.000325715198414400219917297363 -0.002551307668909430937526083838 0 0 0 0 
2416500000.0000000000 0.177234992384910611251669365629 -0.060018483549356460571289062500 -0.000428413914050906896591186523 -0.002546328818425536155700683594 0 0 0 0 
2416666666.6666665077 0.176859766244888305664062500000 -0.060278568416833877563476562500 -0.000584855908527970314025878906 -0.002405175473541020913365029443 0 0 0 0 
2416833333.3333334923 0.176700785756111200530682481258 -0.060737743973732001567800153907 -0.000661862373817712068557739258 -0.002455974929034709930419921875 0 0 0 0 
2417000000.0000000000 0.176164895296096801757812500000 -0.061001416295766830444335937500 -0.000850994023494422435760498047 -0.002187642734497786001918173682 0 0 0 0 
2417166666.6666665077 0.175900235772132901290731865629 -0.061046216636896133422851562500 -0.000775540829636156558990478516 -0.002231109421700239181518554688 0 0 0 0 
2417333333.3333334923 0.175348117947578402420205634371 -0.061341755092144012451171875000 -0.000884690962266176939010620117 -0.002184008946642280058619833838 0 0 0 0 
2417500000.0000000000 0.174693480134010287185830634371 -0.061866916716098792339284528907 -0.000894245284143835306167602539 -0.002326172078028320832493447412 0 0 0 0 
2417666666.6666665077 0.173970699310302706619424384371 -0.061844673007726669311523437500 -0.001004597172141074917436909253 -0.002174478257074952125549316406 0 0 0 0 
2417833333.3333334923 0.173170253634452792068643134371 -0.062200505286455147480051408593 -0.000949433597270399332046508789 -0.002088530221953988075256347656 0 0 0 0 
2418000000.0000000000 0.172303691506385803222656250000 -0.062679655849933624267578125000 -0.001137153129093348979949951172 -0.001900667441077529950382851709 0 0 0 0 
2418166666.6666665077 0.171306878328323392013388115629 -0.062876284122467041015625000000 -0.000982183963060379028320312500 -0.002023409353569149971008300781 0 0 0 0 
2418333333.3333334923 0.170643463730812100509481865629 -0.063382975757122039794921875000 -0.000989986583590507507324218750 -0.002013459103181958198547363281 0 0 0 0 
2418500000.0000000000 0.169419512152671786209268134371 -0.063866361975669860839843750000 -0.000980059965513646602630615234 -0.001874189241789280934574746240 0 0 0 0 
2418666666.6666665077 0.168449118733406094650106865629 -0.064304254949092864990234375000 -0.001098214881494641087175678784 -0.001848361804150044918060302734 0 0 0 0 
2418833333.3333334923 0.167135983705520602127236884371 -0.064860776066780090332031250000 -0.001083534560166298909428261865 -0.001854761037975549914716411060 0 0 0 0 
2419000000.0000000000 0.165850743651390103439169365629 -0.065465904772281646728515625000 -0.001089709461666644053218222510 -0.001862189499661325974705361475 0 0 0 0 
2419166666.6666665077 0.164996013045311001876669365629 -0.066258110105991363525390625000 -0.001243991544470191001892089844 -0.001911644474603235938428569263 0 0 0 0 
2419333333.3333334923 0.163596600294113186935263115629 -0.066754497587680816650390625000 -0.001200965372845530943629599463 -0.001818002667278050942661904443 0 0 0 0 
2419500000.0000000000 0.162493318319320706466513115629 -0.067822262644767761230468750000 -0.001134041813202202103258442456 -0.001807573251426219940185546875 0 0 0 0 
2419666666.6666665077 0.161428406834602411468182481258 -0.068787179887294769287109375000 -0.001176511053927242972730327075 -0.001960476860404015021083212744 0 0 0 0 
2419833333.3333334923 0.160208195447921808440838731258 -0.069610789418220520019531250000 -0.001320732990279793956159282153 -0.001898023765534162955043173682 0 0 0 0 
