# Version 1.00
#
freq[Hz];re:Trc1_S11;im:Trc1_S11;re:Trc2_S21;im:Trc2_S21;
2.400000000000000E+009;1.681163609027863E-001;4.048834368586540E-002;1.471319585107267E-003;-1.440291176550090E-003;
2.400166666666667E+009;1.685111671686173E-001;3.975495323538780E-002;1.537487609311938E-003;-1.355599029920995E-003;
2.400333333333334E+009;1.690202057361603E-001;3.882765024900436E-002;1.728702336549759E-003;-1.482406863942742E-003;
2.400500000000000E+009;1.696470677852631E-001;3.791228681802750E-002;1.737812999635935E-003;-1.745760906487703E-003;
2.400666666666667E+009;1.700548976659775E-001;3.704729676246643E-002;1.896649133414030E-003;-1.792023540474474E-003;
2.400833333333334E+009;1.705416887998581E-001;3.622620552778244E-002;1.737408223561943E-003;-1.883690361864865E-003;
2.401000000000000E+009;1.707893610000610E-001;3.528587520122528E-002;1.904134172946215E-003;-1.898358808830380E-003;
2.401166666666667E+009;1.710147857666016E-001;3.438152000308037E-002;1.725037931464613E-003;-2.180453622713685E-003;
2.401333333333334E+009;1.710510998964310E-001;3.374184668064117E-002;1.895482768304646E-003;-2.464907011017203E-003;
2.401500000000000E+009;1.712680160999298E-001;3.280181065201759E-002;1.743962406180799E-003;-2.371293492615223E-003;
2.401666666666667E+009;1.715335249900818E-001;3.216625377535820E-002;1.729861251078546E-003;-2.579850843176246E-003;
2.401833333333334E+009;1.717029511928558E-001;3.125305846333504E-002;1.803430379368365E-003;-2.786982804536820E-003;
2.402000000000000E+009;1.716691851615906E-001;3.036532178521156E-002;1.497613149695098E-003;-2.834072103723884E-003;
2.402166666666667E+009;1.716801077127457E-001;2.942659705877304E-002;1.289962092414498E-003;-2.968099433928728E-003;
2.402333333333334E+009;1.716566979885101E-001;2.862789854407311E-002;1.217874232679606E-003;-3.289037849754095E-003;
2.402500000000000E+009;1.718144267797470E-001;2.773560769855976E-002;1.210989081300795E-003;-3.297235118225217E-003;
2.402666666666667E+009;1.717035770416260E-001;2.685375884175301E-002;1.006067264825106E-003;-3.562258789315820E-003;
2.402833333333334E+009;1.716742813587189E-001;2.573433890938759E-002;8.442506659775972E-004;-3.685806877911091E-003;
2.403000000000000E+009;1.716708987951279E-001;2.475328184664249E-002;5.894459318369627E-004;-3.659402951598167E-003;
2.403166666666667E+009;1.716694533824921E-001;2.373339980840683E-002;2.484270080458373E-004;-3.853921080008149E-003;
2.403333333333334E+009;1.714659780263901E-001;2.264469303190708E-002;2.968545304611325E-004;-3.906456287950277E-003;
2.403500000000000E+009;1.711726784706116E-001;2.138001099228859E-002;-2.113354094035458E-005;-3.937956411391497E-003;
2.403666666666667E+009;1.711080670356751E-001;2.014610357582569E-002;-8.969258487923071E-005;-3.924046643078327E-003;
2.403833333333334E+009;1.709854453802109E-001;1.897849328815937E-002;-3.103184571955353E-004;-3.853257512673736E-003;
2.404000000000000E+009;1.708665490150452E-001;1.758375391364098E-002;-5.924649885855615E-004;-3.720187582075596E-003;
2.404166666666667E+009;1.708573400974274E-001;1.633028686046600E-002;-9.317134390585125E-004;-3.669757163152099E-003;
2.404333333333334E+009;1.706090718507767E-001;1.510449312627316E-002;-8.145704632624984E-004;-3.675308777019382E-003;
2.404500000000000E+009;1.704116016626358E-001;1.362937130033970E-002;-1.033313223160803E-003;-3.506158711388707E-003;
2.404666666666667E+009;1.703975051641464E-001;1.232174318283796E-002;-1.223731087520719E-003;-3.286102088168263E-003;
2.404833333333334E+009;1.702490001916885E-001;1.063810195773840E-002;-1.441336236894131E-003;-3.519311081618071E-003;
2.405000000000000E+009;1.703429371118546E-001;9.279702790081501E-003;-1.535925897769630E-003;-3.081215079873800E-003;
2.405166666666667E+009;1.702080518007278E-001;7.748764473944902E-003;-1.572874723933637E-003;-3.251086454838514E-003;
2.405333333333334E+009;1.702064275741577E-001;6.111699156463146E-003;-1.604942604899406E-003;-3.268475877121091E-003;
2.405500000000000E+009;1.701477020978928E-001;4.632297903299332E-003;-1.723377034068108E-003;-2.990048378705978E-003;
2.405666666666667E+009;1.701827198266983E-001;3.050952684134245E-003;-1.874195877462626E-003;-3.098931396380067E-003;
2.405833333333334E+009;1.698431521654129E-001;1.481148181483150E-003;-1.951523707248271E-003;-2.703896025195718E-003;
2.406000000000000E+009;1.698389500379562E-001;-3.813930670730770E-004;-2.219064859673381E-003;-2.716537099331617E-003;
2.406166666666667E+009;1.697234213352203E-001;-1.803348772227764E-003;-2.426597755402327E-003;-2.616541460156441E-003;
2.406333333333334E+009;1.697230637073517E-001;-3.422568785026670E-003;-2.488389611244202E-003;-2.337581012398005E-003;
2.406500000000000E+009;1.695266962051392E-001;-5.143739748746157E-003;-2.710975939407945E-003;-2.074233954772353E-003;
2.406666666666667E+009;1.691576689481735E-001;-6.583351641893387E-003;-2.694953931495547E-003;-1.862508361227810E-003;
2.406833333333334E+009;1.690388619899750E-001;-8.194532245397568E-003;-2.560603665187955E-003;-1.680640038102865E-003;
2.407000000000000E+009;1.689014583826065E-001;-9.646897204220295E-003;-2.580884844064713E-003;-1.612595980986953E-003;
2.407166666666667E+009;1.688515692949295E-001;-1.116358861327171E-002;-2.648950321599841E-003;-1.309565966948867E-003;
2.407333333333334E+009;1.685127168893814E-001;-1.260524895042181E-002;-2.474290318787098E-003;-1.073644496500492E-003;
2.407500000000000E+009;1.684134006500244E-001;-1.388728618621826E-002;-2.398445038124919E-003;-1.054565189406276E-003;
2.407666666666667E+009;1.682782620191574E-001;-1.504160277545452E-002;-2.309215487912297E-003;-8.483667043037713E-004;
2.407833333333334E+009;1.680657863616943E-001;-1.639542356133461E-002;-2.283387584611774E-003;-7.946601836010814E-004;
2.408000000000000E+009;1.680221557617188E-001;-1.737038791179657E-002;-2.130700740963221E-003;-7.568675791844726E-004;
2.408166666666667E+009;1.679320931434631E-001;-1.840894669294357E-002;-1.862827222794294E-003;-7.897380855865777E-004;
2.408333333333334E+009;1.681519746780396E-001;-1.939152553677559E-002;-1.864263205789030E-003;-6.453854148276150E-004;
2.408500000000000E+009;1.679901033639908E-001;-2.031888999044895E-002;-1.906785997562110E-003;-6.074297707527876E-004;
2.408666666666667E+009;1.681805253028870E-001;-2.131582796573639E-002;-1.726487069390714E-003;-6.696879281662405E-004;
2.408833333333334E+009;1.680444180965424E-001;-2.223677374422550E-002;-1.822407939471304E-003;-6.694439216516912E-004;
2.409000000000000E+009;1.681974530220032E-001;-2.311423420906067E-002;-1.472806441597641E-003;-6.982520571909845E-004;
2.409166666666667E+009;1.683893799781799E-001;-2.389822527766228E-002;-1.681749592535198E-003;-6.483512115664780E-004;
2.409333333333334E+009;1.686240285634995E-001;-2.503757365047932E-002;-1.587901148013771E-003;-6.872359663248062E-004;
2.409500000000000E+009;1.687819361686707E-001;-2.588903531432152E-002;-1.641578506678343E-003;-6.214745226316154E-004;
2.409666666666667E+009;1.686974465847015E-001;-2.677985467016697E-002;-1.518878270871937E-003;-8.457157528027892E-004;
2.409833333333334E+009;1.689201295375824E-001;-2.753477543592453E-002;-1.455921214073896E-003;-6.495651323348284E-004;
2.410000000000000E+009;1.690351217985153E-001;-2.844316326081753E-002;-1.434642239473760E-003;-6.369129405356944E-004;
2.410166666666667E+009;1.691723316907883E-001;-2.935151755809784E-002;-1.414724858477712E-003;-6.488002836704254E-004;
2.410333333333334E+009;1.691671311855316E-001;-3.019526600837708E-002;-1.393149374052882E-003;-7.024549995549023E-004;
2.410500000000000E+009;1.692245155572891E-001;-3.104267641901970E-002;-1.398756052367389E-003;-7.100297953002155E-004;
2.410666666666667E+009;1.691593527793884E-001;-3.228401392698288E-002;-1.422854023985565E-003;-6.497937720268965E-004;
2.410833333333334E+009;1.691119223833084E-001;-3.282463923096657E-002;-1.336812740191817E-003;-8.582478039897978E-004;
2.411000000000000E+009;1.691644638776779E-001;-3.376575186848640E-002;-1.351813552901149E-003;-8.395785698667169E-004;
2.411166666666667E+009;1.688184887170792E-001;-3.474986925721169E-002;-1.331453444436193E-003;-9.080389281734824E-004;
2.411333333333334E+009;1.686763167381287E-001;-3.542955219745636E-002;-1.437316997908056E-003;-9.149156394414604E-004;
2.411500000000000E+009;1.685370355844498E-001;-3.649926185607910E-002;-1.392269739881158E-003;-1.207718858495355E-003;
2.411666666666667E+009;1.683447062969208E-001;-3.725071251392365E-002;-1.397437881678343E-003;-1.374160638079047E-003;
2.411833333333334E+009;1.679688692092896E-001;-3.802598640322685E-002;-1.547796768136323E-003;-1.259034615941346E-003;
2.412000000000000E+009;1.679350286722183E-001;-3.904962167143822E-002;-1.638922258280218E-003;-1.315567060373724E-003;
2.412166666666667E+009;1.675664037466049E-001;-3.978846222162247E-002;-1.785504515282810E-003;-1.415292732417584E-003;
2.412333333333334E+009;1.672307401895523E-001;-4.070147871971130E-002;-1.878654002211988E-003;-1.454776967875660E-003;
2.412500000000000E+009;1.669775992631912E-001;-4.164333641529083E-002;-2.025756286457181E-003;-1.401424640789628E-003;
2.412666666666667E+009;1.666465103626251E-001;-4.269047826528549E-002;-2.353610703721643E-003;-1.521867699921131E-003;
2.412833333333334E+009;1.661313474178314E-001;-4.378620162606239E-002;-2.492197323590517E-003;-1.419217092916369E-003;
2.413000000000000E+009;1.657915860414505E-001;-4.461673647165299E-002;-2.473951317369938E-003;-1.474550226703286E-003;
2.413166666666667E+009;1.651232540607452E-001;-4.549030959606171E-002;-2.640143502503634E-003;-1.420759712345898E-003;
2.413333333333334E+009;1.648491621017456E-001;-4.662616923451424E-002;-2.818844048306346E-003;-1.359442132525146E-003;
2.413500000000000E+009;1.642591655254364E-001;-4.770980402827263E-002;-2.976686693727970E-003;-1.026553567498922E-003;
2.413666666666667E+009;1.639409810304642E-001;-4.854830354452133E-002;-3.245751606300473E-003;-1.012606662698090E-003;
2.413833333333334E+009;1.634465903043747E-001;-4.941989853978157E-002;-3.314479952678084E-003;-9.166146628558636E-004;
2.414000000000000E+009;1.627635955810547E-001;-5.054904520511627E-002;-3.433385631069541E-003;-6.365273729898036E-004;
2.414166666666667E+009;1.625686585903168E-001;-5.137136206030846E-002;-3.401313908398151E-003;-4.874102596659213E-004;
2.414333333333334E+009;1.619376540184021E-001;-5.240757390856743E-002;-3.505368484184146E-003;-4.497319459915161E-004;
2.414500000000000E+009;1.618740558624268E-001;-5.335783958435059E-002;-3.549664281308651E-003;-1.746873749652877E-004;
2.414666666666667E+009;1.615604609251022E-001;-5.424016341567040E-002;-3.784250235185027E-003;-9.116222645388916E-005;
2.414833333333334E+009;1.610755324363709E-001;-5.535420402884483E-002;-3.566278610378504E-003;7.422033377224580E-005;
2.415000000000000E+009;1.608554720878601E-001;-5.628103762865067E-002;-3.780664876103401E-003;2.354470052523539E-004;
2.415166666666667E+009;1.606075167655945E-001;-5.743696913123131E-002;-3.788742003962398E-003;3.891639644280076E-004;
2.415333333333334E+009;1.604766100645065E-001;-5.868456885218620E-002;-3.850327106192708E-003;4.780845192726702E-004;
2.415500000000000E+009;1.601623147726059E-001;-5.954659357666969E-002;-3.763540880754590E-003;6.773254135623574E-004;
2.415666666666667E+009;1.599623560905457E-001;-6.075046584010124E-002;-3.809087211266160E-003;9.351931512355804E-004;
2.415833333333334E+009;1.599672734737396E-001;-6.202341243624687E-002;-3.777832724153996E-003;1.176026533357799E-003;
2.416000000000000E+009;1.595623791217804E-001;-6.320823729038239E-002;-3.630522172898054E-003;1.218442805111408E-003;
2.416166666666667E+009;1.595228463411331E-001;-6.446176022291184E-002;-3.749935189262033E-003;1.492240000516176E-003;
2.416333333333334E+009;1.590938270092011E-001;-6.563934683799744E-002;-3.671624697744846E-003;1.639478257857263E-003;
2.416500000000000E+009;1.588924378156662E-001;-6.692501902580261E-002;-3.533798502758145E-003;1.786266802810133E-003;
2.416666666666667E+009;1.585078686475754E-001;-6.804084032773972E-002;-3.357895649969578E-003;2.069764770567417E-003;
2.416833333333334E+009;1.582493931055069E-001;-6.950665265321732E-002;-3.310816828161478E-003;2.114725066348910E-003;
2.417000000000000E+009;1.577546447515488E-001;-7.050381600856781E-002;-3.258247394114733E-003;2.393285976722837E-003;
2.417166666666667E+009;1.574954241514206E-001;-7.156568765640259E-002;-2.955777803435922E-003;2.459357725456357E-003;
2.417333333333334E+009;1.571777313947678E-001;-7.252807170152664E-002;-2.981705125421286E-003;2.621727064251900E-003;
2.417500000000000E+009;1.567667722702026E-001;-7.369512319564819E-002;-2.745955251157284E-003;2.654389478266239E-003;
2.417666666666667E+009;1.565212756395340E-001;-7.453677058219910E-002;-2.842678688466549E-003;2.696767449378967E-003;
2.417833333333334E+009;1.561590731143951E-001;-7.550695538520813E-002;-2.426176099106669E-003;2.976202871650457E-003;
2.418000000000000E+009;1.557671874761581E-001;-7.652423530817032E-002;-2.433169400319457E-003;3.138072090223432E-003;
2.418166666666667E+009;1.555259376764298E-001;-7.710275799036026E-002;-2.119695534929633E-003;2.957968506962061E-003;
2.418333333333334E+009;1.555212289094925E-001;-7.793773710727692E-002;-2.004775451496244E-003;3.069720463827252E-003;
2.418500000000000E+009;1.551777124404907E-001;-7.886973023414612E-002;-1.810409710742533E-003;2.972343703731895E-003;
2.418666666666667E+009;1.550455093383789E-001;-7.959448546171188E-002;-1.789241214282811E-003;3.086405340582132E-003;
2.418833333333334E+009;1.545972973108292E-001;-8.028665930032730E-002;-1.505115418694913E-003;3.088200232014060E-003;
2.419000000000000E+009;1.542371362447739E-001;-8.108473569154739E-002;-1.441561849787831E-003;3.062483388930559E-003;
2.419166666666667E+009;1.539713889360428E-001;-8.169161528348923E-002;-1.259060460142791E-003;3.177628153935075E-003;
2.419333333333334E+009;1.535296738147736E-001;-8.235563337802887E-002;-1.210441230796278E-003;3.233497729524970E-003;
2.419500000000000E+009;1.533033996820450E-001;-8.319181948900223E-002;-1.093734754249454E-003;3.084216499701142E-003;
2.419666666666667E+009;1.531271040439606E-001;-8.395121991634369E-002;-1.037667505443096E-003;3.068310907110572E-003;
2.419833333333334E+009;1.525261849164963E-001;-8.439592272043228E-002;-9.457215783186257E-004;3.055447945371270E-003;
2.420000000000000E+009;1.523634493350983E-001;-8.490834385156632E-002;-1.021888805553317E-003;3.225613618269563E-003;
2.420166666666667E+009;1.520369946956635E-001;-8.554042130708695E-002;-8.642373722977936E-004;3.020868869498372E-003;
2.420333333333334E+009;1.518506258726120E-001;-8.601544052362442E-002;-8.434226620011032E-004;3.126671537756920E-003;
2.420500000000000E+009;1.515009254217148E-001;-8.647621423006058E-002;-8.691850816830993E-004;3.128921613097191E-003;
2.420666666666667E+009;1.511772423982620E-001;-8.706215769052506E-002;-8.006963762454689E-004;3.184841247275472E-003;
2.420833333333334E+009;1.507424116134644E-001;-8.766082674264908E-002;-6.865838658995926E-004;3.245217027142644E-003;
2.421000000000000E+009;1.504106521606445E-001;-8.831787854433060E-002;-4.712365625891835E-004;3.217098768800497E-003;
2.421166666666667E+009;1.498850882053375E-001;-8.901142328977585E-002;-2.976942923851311E-004;3.538822056725621E-003;
2.421333333333334E+009;1.495911628007889E-001;-8.990000188350678E-002;-2.298330073244870E-004;3.487501293420792E-003;
2.421500000000000E+009;1.489626467227936E-001;-9.018228203058243E-002;-3.230925722164102E-005;3.270599991083145E-003;
2.421666666666667E+009;1.485588401556015E-001;-9.093692898750305E-002;-1.480793980590534E-005;3.283178899437189E-003;
2.421833333333334E+009;1.479886919260025E-001;-9.168297052383423E-002;1.380873291054741E-004;3.433433361351490E-003;
2.422000000000000E+009;1.475669443607330E-001;-9.230461716651917E-002;4.336124111432582E-004;3.294249298051000E-003;
2.422166666666667E+009;1.467731446027756E-001;-9.319207817316055E-002;4.757329006679356E-004;3.309165826067329E-003;
2.422333333333334E+009;1.462806016206741E-001;-9.390343725681305E-002;7.175026694312692E-004;3.311909269541502E-003;
2.422500000000000E+009;1.456946432590485E-001;-9.435760229825974E-002;9.652924491092563E-004;3.083272837102413E-003;
2.422666666666667E+009;1.450684219598770E-001;-9.535270184278488E-002;9.223180240951479E-004;3.099710680544376E-003;
2.422833333333334E+009;1.444028019905090E-001;-9.620930254459381E-002;1.142751192674041E-003;2.848583273589611E-003;
2.423000000000000E+009;1.438576728105545E-001;-9.706238657236099E-002;1.064519281499088E-003;2.677607117220759E-003;
2.423166666666667E+009;1.432156562805176E-001;-9.795675426721573E-002;1.097532804124057E-003;2.768611535429955E-003;
2.423333333333334E+009;1.425206065177918E-001;-9.859561175107956E-002;1.136462087742984E-003;2.548657823354006E-003;
2.423500000000000E+009;1.419003158807755E-001;-9.961431473493576E-002;1.270609325729311E-003;2.355155767872930E-003;
2.423666666666667E+009;1.411581933498383E-001;-1.007355004549027E-001;1.251221052370966E-003;2.341513056308031E-003;
2.423833333333334E+009;1.405816227197647E-001;-1.016279086470604E-001;1.240019802935422E-003;2.310230629518628E-003;
2.424000000000000E+009;1.398991197347641E-001;-1.022506207227707E-001;1.344252843409777E-003;2.183611970394850E-003;
2.424166666666667E+009;1.389859616756439E-001;-1.033714041113854E-001;1.298532704822719E-003;2.199645154178143E-003;
2.424333333333334E+009;1.384808272123337E-001;-1.043008789420128E-001;1.182397594675422E-003;2.137282397598028E-003;
2.424500000000000E+009;1.377777010202408E-001;-1.053501889109612E-001;1.176024903543294E-003;2.043945947661996E-003;
2.424666666666667E+009;1.372179836034775E-001;-1.060566008090973E-001;1.150377443991602E-003;1.922872383147478E-003;
2.424833333333334E+009;1.365044564008713E-001;-1.070456057786942E-001;1.230947091244161E-003;2.090063877403736E-003;
2.425000000000000E+009;1.359695047140122E-001;-1.082084104418755E-001;1.188774127513170E-003;2.074521966278553E-003;
2.425166666666667E+009;1.353700459003449E-001;-1.090376004576683E-001;1.338378875516355E-003;2.109189750626683E-003;
2.425333333333334E+009;1.347606182098389E-001;-1.100766733288765E-001;1.206812448799610E-003;2.027153968811035E-003;
2.425500000000000E+009;1.342180073261261E-001;-1.111228093504906E-001;1.402334775775671E-003;2.091225469484925E-003;
2.425666666666667E+009;1.335965692996979E-001;-1.121381968259811E-001;1.321233110502362E-003;1.914332038722932E-003;
2.425833333333334E+009;1.332266628742218E-001;-1.130725368857384E-001;1.446050009690225E-003;1.999999396502972E-003;
2.426000000000000E+009;1.326545923948288E-001;-1.140572652220726E-001;1.426451839506626E-003;2.022672677412629E-003;
2.426166666666667E+009;1.322632282972336E-001;-1.151673868298531E-001;1.515532610937953E-003;1.791247166693211E-003;
2.426333333333334E+009;1.317327618598938E-001;-1.160396188497543E-001;1.556035014800727E-003;1.921545714139938E-003;
2.426500000000000E+009;1.313352286815643E-001;-1.168209090828896E-001;1.506998902186751E-003;1.855174661614001E-003;
2.426666666666667E+009;1.309164762496948E-001;-1.175875663757324E-001;1.511800335720182E-003;1.774937729351223E-003;
2.426833333333334E+009;1.304972171783447E-001;-1.184925511479378E-001;1.692213932983577E-003;1.636290340684354E-003;
2.427000000000000E+009;1.300407052040100E-001;-1.195071190595627E-001;1.787019427865744E-003;1.622970099560916E-003;
2.427166666666667E+009;1.297319680452347E-001;-1.201030164957047E-001;1.658651046454907E-003;1.714136800728738E-003;
2.427333333333334E+009;1.294023692607880E-001;-1.209182664752007E-001;1.723733963444829E-003;1.723600085824728E-003;
2.427500000000000E+009;1.291298419237137E-001;-1.216268241405487E-001;1.841019489802420E-003;1.508696237578988E-003;
2.427666666666667E+009;1.287164539098740E-001;-1.223559603095055E-001;1.822022604756057E-003;1.617968780919910E-003;
