# Version 1.00
#
freq[Hz];re:Trc1_S11;im:Trc1_S11;re:Trc2_S21;im:Trc2_S21;
2.400000000000000E+009;1.551133543252945E-001;6.148378178477287E-002;-2.652681898325682E-003;1.967939548194408E-003;
2.400166666666667E+009;1.552348881959915E-001;5.973079428076744E-002;-2.373722381889820E-003;2.313035773113370E-003;
2.400333333333334E+009;1.550677120685577E-001;5.743515864014626E-002;-2.185882302001119E-003;2.098027616739273E-003;
2.400500000000000E+009;1.552326828241348E-001;5.537806451320648E-002;-2.292800927534699E-003;2.398772398009896E-003;
2.400666666666667E+009;1.554001867771149E-001;5.319694057106972E-002;-1.980222761631012E-003;2.471930347383022E-003;
2.400833333333334E+009;1.555489301681519E-001;5.113828927278519E-002;-1.829511136747897E-003;2.500092843547463E-003;
2.401000000000000E+009;1.558265239000320E-001;4.896581918001175E-002;-1.805313047952950E-003;2.482215408235788E-003;
2.401166666666667E+009;1.562961935997009E-001;4.656943678855896E-002;-1.598279806785286E-003;2.596050268039107E-003;
2.401333333333334E+009;1.565841585397720E-001;4.446118697524071E-002;-1.453490694984794E-003;2.534274244681001E-003;
2.401500000000000E+009;1.571067124605179E-001;4.236657917499542E-002;-1.261563156731427E-003;2.705136314034462E-003;
2.401666666666667E+009;1.578324437141419E-001;4.041950777173042E-002;-1.279993797652423E-003;2.618775004521012E-003;
2.401833333333334E+009;1.583890318870544E-001;3.815983980894089E-002;-9.456251282244921E-004;2.675522118806839E-003;
2.402000000000000E+009;1.590107828378677E-001;3.611558303236961E-002;-8.461280958727002E-004;2.676096977666020E-003;
2.402166666666667E+009;1.598064750432968E-001;3.408861532807350E-002;-6.740811513736844E-004;2.457653870806098E-003;
2.402333333333334E+009;1.605014353990555E-001;3.216230496764183E-002;-6.759357638657093E-004;2.619848586618900E-003;
2.402500000000000E+009;1.616767644882202E-001;3.048844262957573E-002;-6.404633750207722E-004;2.541669644415379E-003;
2.402666666666667E+009;1.625037491321564E-001;2.876281179487705E-002;-3.497199795674533E-004;2.532957121729851E-003;
2.402833333333334E+009;1.633978635072708E-001;2.708826586604118E-002;-1.849758264143020E-004;2.422787481918931E-003;
2.403000000000000E+009;1.644680500030518E-001;2.550906687974930E-002;-8.117401011986658E-005;2.195021137595177E-003;
2.403166666666667E+009;1.655628383159638E-001;2.411265671253204E-002;-8.516771777067334E-005;2.343619242310524E-003;
2.403333333333334E+009;1.668065935373306E-001;2.289626374840736E-002;3.703845140989870E-005;2.141826320439577E-003;
2.403500000000000E+009;1.677730977535248E-001;2.176191098988056E-002;1.030394196277484E-004;1.873243832960725E-003;
2.403666666666667E+009;1.689376384019852E-001;2.035670541226864E-002;1.952717138919979E-004;1.766053726896644E-003;
2.403833333333334E+009;1.701321601867676E-001;1.925141178071499E-002;3.246582054998726E-004;1.687501906417310E-003;
2.404000000000000E+009;1.711431741714478E-001;1.836249418556690E-002;2.814607578329742E-004;1.650432473979890E-003;
2.404166666666667E+009;1.720638275146484E-001;1.743938587605953E-002;2.658831654116511E-004;1.443497487343848E-003;
2.404333333333334E+009;1.732375323772430E-001;1.668410934507847E-002;2.520942070987076E-004;1.483481610193849E-003;
2.404500000000000E+009;1.739607751369476E-001;1.580604910850525E-002;3.103901690337807E-004;1.427750452421606E-003;
2.404666666666667E+009;1.753076612949371E-001;1.522688474506140E-002;3.089190868195146E-004;1.454194309189916E-003;
2.404833333333334E+009;1.761385649442673E-001;1.469822786748409E-002;3.043286560568959E-004;1.254483126103878E-003;
2.405000000000000E+009;1.768709719181061E-001;1.427919138222933E-002;4.157649527769536E-004;1.143614645116031E-003;
2.405166666666667E+009;1.777581125497818E-001;1.380674634128809E-002;2.950332127511501E-004;1.063966774381697E-003;
2.405333333333334E+009;1.785256415605545E-001;1.339404191821814E-002;1.924226380651817E-004;1.127618481405079E-003;
2.405500000000000E+009;1.790986061096191E-001;1.330527756363154E-002;2.599432773422450E-004;1.049213344231248E-003;
2.405666666666667E+009;1.797832399606705E-001;1.308758743107319E-002;3.550668188836426E-004;1.084163435734808E-003;
2.405833333333334E+009;1.800345331430435E-001;1.289354544132948E-002;2.271415178256575E-005;9.028031490743160E-004;
2.406000000000000E+009;1.806386560201645E-001;1.265426073223352E-002;1.559349038871005E-004;1.020226976834238E-003;
2.406166666666667E+009;1.806704401969910E-001;1.255587115883827E-002;2.190821978729218E-004;9.686386329121888E-004;
2.406333333333334E+009;1.810846775770187E-001;1.229586638510227E-002;2.224843483418226E-004;9.150715777650476E-004;
2.406500000000000E+009;1.811570078134537E-001;1.215894427150488E-002;1.450360432500020E-004;7.205841247923672E-004;
2.406666666666667E+009;1.810023933649063E-001;1.216848008334637E-002;1.809520617825910E-004;9.354812209494412E-004;
2.406833333333334E+009;1.810807436704636E-001;1.179228164255619E-002;2.191629755543545E-004;8.917993982322514E-004;
2.407000000000000E+009;1.808227896690369E-001;1.170731522142887E-002;1.372141268802807E-004;9.586569503881037E-004;
2.407166666666667E+009;1.807279139757156E-001;1.142001617699862E-002;9.960618626791984E-005;7.252515642903745E-004;
2.407333333333334E+009;1.804320812225342E-001;1.106949243694544E-002;2.232627739431337E-004;8.633510442450643E-004;
2.407500000000000E+009;1.799110174179077E-001;1.073359604924917E-002;1.488295092713088E-004;7.072224398143590E-004;
2.407666666666667E+009;1.795097738504410E-001;1.028299890458584E-002;1.794975541997701E-004;8.160367142409086E-004;
2.407833333333334E+009;1.787893772125244E-001;9.611014276742935E-003;1.447074610041454E-004;7.788508082740009E-004;
2.408000000000000E+009;1.782622486352921E-001;9.001283906400204E-003;1.510713336756453E-004;6.506710778921843E-004;
2.408166666666667E+009;1.775418668985367E-001;8.363858796656132E-003;1.028291808324866E-004;5.291093257255852E-004;
2.408333333333334E+009;1.770020872354507E-001;7.594072259962559E-003;1.466800895286724E-004;5.763488006778061E-004;
2.408500000000000E+009;1.762008517980576E-001;6.595057435333729E-003;2.257346932310611E-004;5.886469734832645E-004;
2.408666666666667E+009;1.754097938537598E-001;5.393045023083687E-003;1.338076690444723E-004;6.057071732357144E-004;
2.408833333333334E+009;1.746248304843903E-001;4.344589542597532E-003;3.669761281344108E-005;6.110572139732540E-004;
2.409000000000000E+009;1.738377511501312E-001;3.257145639508963E-003;1.963773393072188E-004;5.681682378053665E-004;
2.409166666666667E+009;1.729583442211151E-001;1.879903604276478E-003;3.792336065089330E-005;5.238265730440617E-004;
2.409333333333334E+009;1.721934229135513E-001;4.323637404013425E-004;2.353978052269667E-004;4.412237904034555E-004;
2.409500000000000E+009;1.713002026081085E-001;-1.154722296632826E-003;4.489866842050105E-005;4.625730798579752E-004;
2.409666666666667E+009;1.704659610986710E-001;-2.527315635234118E-003;4.905640525976196E-005;3.717829531524330E-004;
2.409833333333334E+009;1.698613613843918E-001;-4.218045622110367E-003;2.347355475649238E-004;3.090433019679040E-004;
2.410000000000000E+009;1.692405641078949E-001;-5.884937010705471E-003;-3.253150453019771E-006;3.073907282669097E-004;
2.410166666666667E+009;1.687479615211487E-001;-7.695021573454142E-003;1.646549208089709E-004;3.976078878622502E-004;
2.410333333333334E+009;1.680754572153091E-001;-9.705173783004284E-003;-3.659397043520585E-005;3.245166735723615E-004;
2.410500000000000E+009;1.675437390804291E-001;-1.161886379122734E-002;4.147378604102414E-006;3.823119332082570E-004;
2.410666666666667E+009;1.670922487974167E-001;-1.378008816391230E-002;-1.145106580224820E-004;3.766973677556962E-004;
2.410833333333334E+009;1.669714599847794E-001;-1.558559481054544E-002;-1.660994603298605E-004;3.214589669369161E-004;
2.411000000000000E+009;1.665248572826386E-001;-1.774046942591667E-002;-2.156153932446614E-004;1.975899358512834E-004;
2.411166666666667E+009;1.664233803749085E-001;-1.981708593666554E-002;-2.398216602159664E-004;7.094283500919119E-005;
2.411333333333334E+009;1.661131232976914E-001;-2.175747044384480E-002;-1.715068938210607E-004;2.759150229394436E-004;
2.411500000000000E+009;1.662147343158722E-001;-2.396414056420326E-002;-3.397805849090219E-004;3.286802675575018E-004;
2.411666666666667E+009;1.665163487195969E-001;-2.618448063731194E-002;-3.470710653346032E-004;2.647625224199146E-004;
2.411833333333334E+009;1.665821671485901E-001;-2.814003266394138E-002;-5.563957965932787E-004;2.245202631456778E-004;
2.412000000000000E+009;1.667532473802567E-001;-3.043482080101967E-002;-4.971082089468837E-004;1.931286096805707E-004;
2.412166666666667E+009;1.670431792736054E-001;-3.235431388020515E-002;-6.337072118185461E-004;2.276653976878151E-004;
2.412333333333334E+009;1.676305979490280E-001;-3.425321355462074E-002;-6.481405580416322E-004;4.457416071090847E-004;
2.412500000000000E+009;1.680402159690857E-001;-3.617846593260765E-002;-6.340300897136331E-004;3.972091944888234E-004;
2.412666666666667E+009;1.685798615217209E-001;-3.834849223494530E-002;-7.007022504694760E-004;3.513725532684475E-004;
2.412833333333334E+009;1.691433936357498E-001;-4.000309854745865E-002;-6.495036068372428E-004;5.209445953369141E-004;
2.413000000000000E+009;1.697857975959778E-001;-4.177373275160790E-002;-7.597959483973682E-004;5.695716245099902E-004;
2.413166666666667E+009;1.703838258981705E-001;-4.334246367216110E-002;-8.078055689111352E-004;6.371127674356103E-004;
2.413333333333334E+009;1.709924042224884E-001;-4.511344432830811E-002;-9.950061794370413E-004;6.405682070180774E-004;
2.413500000000000E+009;1.716668903827667E-001;-4.666604846715927E-002;-7.918651099316776E-004;6.766322767361999E-004;
2.413666666666667E+009;1.725458055734634E-001;-4.820779338479042E-002;-9.032493690028787E-004;6.706940475851297E-004;
2.413833333333334E+009;1.733043342828751E-001;-4.955546557903290E-002;-8.931939373724163E-004;8.973898366093636E-004;
2.414000000000000E+009;1.738320738077164E-001;-5.082139000296593E-002;-8.592006051912904E-004;8.796557667665184E-004;
2.414166666666667E+009;1.747847497463226E-001;-5.193350091576576E-002;-9.342948324047029E-004;9.951447136700153E-004;
2.414333333333334E+009;1.753209382295609E-001;-5.304095149040222E-002;-8.884426788426936E-004;8.860459201969206E-004;
2.414500000000000E+009;1.762231439352036E-001;-5.395953729748726E-002;-8.079889812506735E-004;1.192448893561959E-003;
2.414666666666667E+009;1.767230927944183E-001;-5.482615903019905E-002;-8.530558552592993E-004;1.310099847614765E-003;
2.414833333333334E+009;1.772220879793167E-001;-5.559687688946724E-002;-6.983312778174877E-004;1.389632001519203E-003;
2.415000000000000E+009;1.775986105203629E-001;-5.616879463195801E-002;-8.089953335002065E-004;1.317077432759106E-003;
2.415166666666667E+009;1.781339645385742E-001;-5.674879252910614E-002;-6.800355040468276E-004;1.442749868147075E-003;
2.415333333333334E+009;1.787730306386948E-001;-5.734767019748688E-002;-6.804516306146979E-004;1.369963400065899E-003;
2.415500000000000E+009;1.788712292909622E-001;-5.777680873870850E-002;-8.302986971102655E-004;1.614702399820089E-003;
2.415666666666667E+009;1.791229695081711E-001;-5.791248753666878E-002;-6.798031972721219E-004;1.726767979562283E-003;
2.415833333333334E+009;1.793872863054276E-001;-5.823411792516708E-002;-5.439946544356644E-004;1.653956016525626E-003;
2.416000000000000E+009;1.792269945144653E-001;-5.860093608498573E-002;-4.369905218482018E-004;1.715313643217087E-003;
2.416166666666667E+009;1.794434636831284E-001;-5.872707441449165E-002;-3.792915376834571E-004;1.745512941852212E-003;
2.416333333333334E+009;1.793080121278763E-001;-5.871409922838211E-002;-4.067057743668556E-004;1.853139372542501E-003;
2.416500000000000E+009;1.791343241930008E-001;-5.895643681287766E-002;-4.165868449490517E-004;1.908030011691153E-003;
2.416666666666667E+009;1.786754131317139E-001;-5.888020619750023E-002;-2.519966801628470E-004;1.884365337900817E-003;
2.416833333333334E+009;1.784094423055649E-001;-5.910657718777657E-002;-1.582270924700424E-004;1.939214416779578E-003;
2.417000000000000E+009;1.777271032333374E-001;-5.921448394656181E-002;-1.946966076502577E-004;2.019446110352874E-003;
2.417166666666667E+009;1.770511120557785E-001;-5.918589979410172E-002;-8.515687659382820E-005;2.210746053606272E-003;
2.417333333333334E+009;1.763270795345306E-001;-5.929671600461006E-002;6.377542013069615E-005;2.165151294320822E-003;
2.417500000000000E+009;1.755221039056778E-001;-5.959487333893776E-002;2.135778631782159E-004;2.005497924983501E-003;
2.417666666666667E+009;1.746455281972885E-001;-5.962187424302101E-002;2.351346047362313E-004;2.147725783288479E-003;
2.417833333333334E+009;1.736162900924683E-001;-5.988135933876038E-002;2.138270792784169E-004;2.280404791235924E-003;
2.418000000000000E+009;1.724042147397995E-001;-6.026847660541534E-002;5.233451956883073E-004;2.142680110409856E-003;
2.418166666666667E+009;1.713678836822510E-001;-6.038951501250267E-002;4.488532722461969E-004;2.195729641243815E-003;
2.418333333333334E+009;1.703478097915649E-001;-6.084537133574486E-002;6.037512794137001E-004;2.185250632464886E-003;
2.418500000000000E+009;1.690120548009872E-001;-6.137325987219811E-002;5.664132768288255E-004;2.219655783846974E-003;
2.418666666666667E+009;1.677358001470566E-001;-6.190438941121101E-002;7.010623230598867E-004;2.174040069803596E-003;
2.418833333333334E+009;1.662432402372360E-001;-6.258359551429749E-002;8.509043836966157E-004;2.079441910609603E-003;
2.419000000000000E+009;1.648791134357452E-001;-6.324706971645355E-002;8.281267946586013E-004;2.154030138626695E-003;
2.419166666666667E+009;1.636593192815781E-001;-6.405257433652878E-002;9.357568342238665E-004;2.095636446028948E-003;
2.419333333333334E+009;1.621290594339371E-001;-6.473748385906220E-002;1.150122727267444E-003;2.181568648666143E-003;
2.419500000000000E+009;1.607910096645355E-001;-6.586089730262756E-002;1.111777382902801E-003;2.202809788286686E-003;
2.419666666666667E+009;1.595069766044617E-001;-6.691567599773407E-002;1.270449953153729E-003;2.187208505347371E-003;
2.419833333333334E+009;1.581115722656250E-001;-6.810335069894791E-002;1.227423665113747E-003;2.044508932158351E-003;
2.420000000000000E+009;1.570492684841156E-001;-6.941495835781097E-002;1.359389512799680E-003;2.139695687219501E-003;
2.420166666666667E+009;1.557683348655701E-001;-7.062950730323792E-002;1.547073596157134E-003;1.929066842421889E-003;
2.420333333333334E+009;1.546591371297836E-001;-7.200762629508972E-002;1.559031778015196E-003;1.975047634914517E-003;
2.420500000000000E+009;1.536683738231659E-001;-7.333754748106003E-002;1.649738755077124E-003;1.941249705851078E-003;
2.420666666666667E+009;1.525996625423431E-001;-7.486992329359055E-002;1.733705634251237E-003;1.841807970777154E-003;
2.420833333333334E+009;1.519506126642227E-001;-7.639410346746445E-002;1.781480736099184E-003;1.675787614658475E-003;
2.421000000000000E+009;1.509836912155151E-001;-7.817627489566803E-002;1.964718801900744E-003;1.750005292706192E-003;
2.421166666666667E+009;1.502685099840164E-001;-7.987408339977264E-002;2.210184233263135E-003;1.560177886858583E-003;
2.421333333333334E+009;1.497367620468140E-001;-8.163362741470337E-002;2.030144445598126E-003;1.543817459605634E-003;
2.421500000000000E+009;1.490891873836517E-001;-8.337035775184631E-002;2.082457300275564E-003;1.569299260154367E-003;
2.421666666666667E+009;1.486010551452637E-001;-8.509784936904907E-002;2.387347398325801E-003;1.138190273195505E-003;
2.421833333333334E+009;1.485669463872910E-001;-8.704670518636704E-002;2.377117285504937E-003;1.191459945403040E-003;
2.422000000000000E+009;1.481991410255432E-001;-8.860671520233154E-002;2.219976391643286E-003;1.007118495181203E-003;
2.422166666666667E+009;1.477826833724976E-001;-9.065642952919006E-002;2.390395617112517E-003;1.001734635792673E-003;
2.422333333333334E+009;1.478888839483261E-001;-9.230217337608337E-002;2.492210594937205E-003;7.637047674506903E-004;
2.422500000000000E+009;1.480519175529480E-001;-9.424342960119247E-002;2.311578486114740E-003;6.948505761101842E-004;
2.422666666666667E+009;1.482588797807694E-001;-9.593643993139267E-002;2.460730029270053E-003;5.211409879848361E-004;
2.422833333333334E+009;1.483353823423386E-001;-9.784328937530518E-002;2.395889256149530E-003;3.413113881833851E-004;
2.423000000000000E+009;1.486488133668900E-001;-9.932796657085419E-002;2.350555732846260E-003;2.638336154632270E-004;
2.423166666666667E+009;1.491114348173142E-001;-1.009510233998299E-001;2.343463944271207E-003;3.305782156530768E-004;
2.423333333333334E+009;1.497230231761932E-001;-1.024202406406403E-001;2.355206524953246E-003;2.386643463978544E-004;
2.423500000000000E+009;1.500825732946396E-001;-1.039094775915146E-001;2.181818475946784E-003;1.343100448139012E-004;
2.423666666666667E+009;1.503506302833557E-001;-1.055474728345871E-001;2.293565776199102E-003;2.126156141457614E-005;
2.423833333333334E+009;1.512345224618912E-001;-1.069093942642212E-001;2.094801515340805E-003;-1.017772083287127E-004;
2.424000000000000E+009;1.517088115215302E-001;-1.080968528985977E-001;2.135620685294271E-003;1.962389796972275E-005;
2.424166666666667E+009;1.522943079471588E-001;-1.093167811632156E-001;1.989466371014714E-003;-2.715174923650920E-004;
2.424333333333334E+009;1.530208438634872E-001;-1.102664172649384E-001;1.972452271729708E-003;-1.332262181676924E-004;
2.424500000000000E+009;1.537333428859711E-001;-1.114285811781883E-001;1.786803011782467E-003;-3.866447368636727E-004;
2.424666666666667E+009;1.544156670570374E-001;-1.121681183576584E-001;1.864572637714446E-003;-2.836020430549979E-004;
2.424833333333334E+009;1.547539532184601E-001;-1.129247322678566E-001;1.841885154135525E-003;-4.832858685404062E-004;
2.425000000000000E+009;1.555062234401703E-001;-1.137745305895805E-001;1.779162907041609E-003;-3.455763799138367E-004;
2.425166666666667E+009;1.557369977235794E-001;-1.145026832818985E-001;1.729949493892491E-003;-4.733301466330886E-004;
2.425333333333334E+009;1.563186794519424E-001;-1.150628328323364E-001;1.481523038819432E-003;-5.431483150459826E-004;
2.425500000000000E+009;1.569045335054398E-001;-1.156385913491249E-001;1.503369305282831E-003;-4.235373926348984E-004;
2.425666666666667E+009;1.569955796003342E-001;-1.160214766860008E-001;1.477830694057047E-003;-5.041966796852648E-004;
2.425833333333334E+009;1.573203802108765E-001;-1.163147091865540E-001;1.406086492352188E-003;-5.304623628035188E-004;
2.426000000000000E+009;1.574980914592743E-001;-1.167050227522850E-001;1.356786699034274E-003;-4.351991810835898E-004;
2.426166666666667E+009;1.578314453363419E-001;-1.169737204909325E-001;1.513042021542788E-003;-6.000011344440281E-004;
2.426333333333334E+009;1.576924771070480E-001;-1.170440912246704E-001;1.416684943251312E-003;-4.050899296998978E-004;
2.426500000000000E+009;1.576838940382004E-001;-1.171590387821198E-001;1.402502763085067E-003;-3.321737458463758E-004;
2.426666666666667E+009;1.576867103576660E-001;-1.170504540205002E-001;1.420020358636975E-003;-4.463401855900884E-004;
2.426833333333334E+009;1.573021858930588E-001;-1.172585189342499E-001;1.418012659996748E-003;-3.901848103851080E-004;
2.427000000000000E+009;1.569446176290512E-001;-1.172582134604454E-001;1.235570525750518E-003;-3.601269272621721E-004;
2.427166666666667E+009;1.564050614833832E-001;-1.171706691384316E-001;1.239542267285287E-003;-2.890647156164050E-004;
2.427333333333334E+009;1.557810157537460E-001;-1.172043159604073E-001;1.499207806773484E-003;-3.725628776010126E-004;
2.427500000000000E+009;1.551368981599808E-001;-1.171984374523163E-001;1.221647253260016E-003;-2.639032900333405E-004;
2.427666666666667E+009;1.543390750885010E-001;-1.172747313976288E-001;1.435802783817053E-003;-3.070168895646930E-004;
2.427833333333334E+009;1.532832384109497E-001;-1.173900887370110E-001;1.378405955620110E-003;-3.635198227129877E-004;
