# Hz S RI R 
2400000000.0000000000 0.171146675944328308105468750000 0.040534470230340957641601562500 0.002987257670611143112182617188 -0.004977711476385593414306640625 0 0 0 0 
2400166666.6666665077 0.172021135687828091720419365629 0.039918366819620132446289062500 0.002692790236324071884155273438 -0.004954270552843809127807617188 0 0 0 0 
2400333333.3333334923 0.172412738204002408126669365629 0.039250858128070831298828125000 0.002339524915441871123072958838 -0.005096905864775180816650390625 0 0 0 0 
2400500000.0000000000 0.172815635800361605545205634371 0.038861084729433059692382812500 0.002224290044978260993957519531 -0.005209111142903566360473632812 0 0 0 0 
2400666666.6666665077 0.173096910119056701660156250000 0.038272943347692489624023437500 0.001847806037403642914415669019 -0.005149196367710828781127929688 0 0 0 0 
2400833333.3333334923 0.173509642481803894042968750000 0.037573970854282379150390625000 0.001719874329864979007123637622 -0.005234397947788239392752362988 0 0 0 0 
2401000000.0000000000 0.173653736710548400878906250000 0.037051569670438773418386091407 0.001468523405492305972455668872 -0.005137006286531686782836914062 0 0 0 0 
2401166666.6666665077 0.173806712031364413162393134371 0.036331135779619216918945312500 0.001112636062316596941706992041 -0.005073393695056437578683183887 0 0 0 0 
2401333333.3333334923 0.173863247036933898925781250000 0.035546176135540008544921875000 0.000877976650372147560119628906 -0.005160499829798936843872070312 0 0 0 0 
2401500000.0000000000 0.173817008733749389648437500000 0.035068172961473471904714216407 0.000569126859772950410842895508 -0.005069208797067403793334960938 0 0 0 0 
2401666666.6666665077 0.173755809664726312835369981258 0.034463010728359222412109375000 0.000414775509852916002273559570 -0.005206046625971794128417968750 0 0 0 0 
2401833333.3333334923 0.173752829432487487792968750000 0.033741481602191931987722028907 0.000121932731417473405599594116 -0.005045266821980476379394531250 0 0 0 0 
2402000000.0000000000 0.173385351896286010742187500000 0.032815430313348770141601562500 -0.000141993383294902687698918475 -0.004992956295609474182128906250 0 0 0 0 
2402166666.6666665077 0.173295199871063204666299384371 0.031947419047355651855468750000 -0.000409641885198652690083104266 -0.004921959713101387023925781250 0 0 0 0 
2402333333.3333334923 0.172857910394668606857138115629 0.031254988163709640502929687500 -0.000573308148887008428573608398 -0.004868831951171159744262695312 0 0 0 0 
2402500000.0000000000 0.172887817025184603592080634371 0.030385565012693408620814139454 -0.000870856281835585832595825195 -0.004555507097393274307250976562 0 0 0 0 
2402666666.6666665077 0.172526717185974093338174384371 0.029386395588517189025878906250 -0.001059257076121866919873881763 -0.004437637049704790115356445312 0 0 0 0 
2402833333.3333334923 0.172054305672645596603231865629 0.028414737433195110666295235546 -0.001181032508611679077148437500 -0.004247270058840513229370117188 0 0 0 0 
2403000000.0000000000 0.171781063079834012130575615629 0.027037819847464561462402343750 -0.001372501254081726074218750000 -0.004002721980214118957519531250 0 0 0 0 
2403166666.6666665077 0.171444147825241088867187500000 0.025926858186721798288365548046 -0.001521192723885178999659872900 -0.003803940955549478964564658057 0 0 0 0 
2403333333.3333334923 0.171128317713737487792968750000 0.024705611169338229787806326954 -0.001408581854775547981262207031 -0.003565722145140171051025390625 0 0 0 0 
2403500000.0000000000 0.170610681176185607910156250000 0.023469323292374610900878906250 -0.001494592288509011051775288159 -0.003176899394020438194274902344 0 0 0 0 
2403666666.6666665077 0.170299872756004305740518134371 0.022019660100340839731236641796 -0.001549159758724272034288715894 -0.002987949643284081979038857568 0 0 0 0 
2403833333.3333334923 0.170099854469299288650674384371 0.020633827894926071166992187500 -0.001589920371770858981488871997 -0.002753369044512509866001748193 0 0 0 0 
2404000000.0000000000 0.169533729553222711761151231258 0.019246349111199378967285156250 -0.001414840575307608084437704932 -0.002721342723816632790806435693 0 0 0 0 
2404166666.6666665077 0.169235363602638189117755018742 0.017709657549858089792271798046 -0.001341286930255592086194682544 -0.002572274301201105117797851562 0 0 0 0 
2404333333.3333334923 0.168908387422561701018963731258 0.016265653073787689208984375000 -0.001216279808431864001630473560 -0.002372621558606625036952353369 0 0 0 0 
2404500000.0000000000 0.168580919504165704925213731258 0.014414031989872460801094256055 -0.001163928420282899899723672021 -0.002272707177326083183288574219 0 0 0 0 
2404666666.6666665077 0.168360039591789301116619981258 0.012785908766090869903564453125 -0.001037832349538803100585937500 -0.002399733290076255798339843750 0 0 0 0 
2404833333.3333334923 0.168260529637336703201455634371 0.011156502179801460611363594921 -0.000958778895437717437744140625 -0.002247350057587027983424521338 0 0 0 0 
2405000000.0000000000 0.168145939707755986969317518742 0.009383357129991054534912109375 -0.000704388308804482221603393555 -0.002254185266792774200439453125 0 0 0 0 
2405166666.6666665077 0.168151289224624606033486884371 0.007480580359697341918945312500 -0.000770157261285930871963500977 -0.002437765011563897132873535156 0 0 0 0 
2405333333.3333334923 0.168131276965141296386718750000 0.005722908303141593933105468750 -0.000614662712905555963516235352 -0.002457941649481654167175292969 0 0 0 0 
2405500000.0000000000 0.167970746755600003341513115629 0.003914343658834695816040039062 -0.000697456940542906522750854492 -0.002365743275731801986694335938 0 0 0 0 
2405666666.6666665077 0.167849719524383489410723768742 0.001968262484297155900242470850 -0.000617633922956883907318115234 -0.002526069525629281997680664062 0 0 0 0 
2405833333.3333334923 0.167775005102157592773437500000 0.000186688077519647804185590201 -0.000783874769695103168487548828 -0.002639575395733118057250976562 0 0 0 0 
2406000000.0000000000 0.167858555912971496582031250000 -0.001926614320836961052538227612 -0.001048115314915776035906147534 -0.002689552493393421173095703125 0 0 0 0 
2406166666.6666665077 0.167805150151252802093182481258 -0.003491977462545036835911416162 -0.000871053896844387054443359375 -0.002754697110503911972045898438 0 0 0 0 
2406333333.3333334923 0.168016359210014287750567518742 -0.005449190735816955566406250000 -0.001054981490597129084943461841 -0.002770425053313374953029013525 0 0 0 0 
2406500000.0000000000 0.167874097824096707443075615629 -0.007410278078168630599975585938 -0.001018373412080108902574848706 -0.002671981463208795027491904150 0 0 0 0 
2406666666.6666665077 0.167760297656059292892294365629 -0.008966322988271713256835937500 -0.001245659892447293021558452075 -0.002537017455324531035182333838 0 0 0 0 
2406833333.3333334923 0.167980402708053588867187500000 -0.010679148137569429224957850977 -0.001223980099894105954411172021 -0.002620377577841281890869140625 0 0 0 0 
2407000000.0000000000 0.168023079633712796310263115629 -0.012339276261627670633336251171 -0.001335778157226741097093891675 -0.002507172757759689851048134912 0 0 0 0 
2407166666.6666665077 0.168157353997230502029580634371 -0.013691250234842300415039062500 -0.001448815455660223960876464844 -0.002454942325130105018615722656 0 0 0 0 
2407333333.3333334923 0.168108642101287786285723768742 -0.015447024255990980320940586523 -0.001518334960564970970153808594 -0.002416588598862289948704384912 0 0 0 0 
2407500000.0000000000 0.168206900358200100997763115629 -0.016773546114563938486119454296 -0.001424837857484817938563681494 -0.002193362452089786963221884619 0 0 0 0 
2407666666.6666665077 0.168361932039260892013388115629 -0.017913965508341789245605468750 -0.001565683749504386945011757959 -0.002204860793426632881164550781 0 0 0 0 
2407833333.3333334923 0.168205469846725491622763115629 -0.019276579841971400869349295704 -0.001533361733891070105909038013 -0.002309399424120783805847167969 0 0 0 0 
2408000000.0000000000 0.168443083763122586349325615629 -0.020357387140393260610560233204 -0.001437203609384595914127968896 -0.002081853104755281968357705225 0 0 0 0 
2408166666.6666665077 0.168660864233970586578692518742 -0.021274888888001438486119454296 -0.001425883267074822945835732568 -0.002097176620736718177795410156 0 0 0 0 
2408333333.3333334923 0.169074922800064086914062500000 -0.022292690351605418813685233204 -0.001457395032048224969151162256 -0.002066199667751789093017578125 0 0 0 0 
2408500000.0000000000 0.169195175170898409744424384371 -0.023148844018578529357910156250 -0.001230537774972618059871054541 -0.002027129055932164192199707031 0 0 0 0 
2408666666.6666665077 0.169504925608635004241619981258 -0.024004222825169559824010079296 -0.001386094256304204897639609229 -0.002083776053041220144984579932 0 0 0 0 
2408833333.3333334923 0.169705942273140009124432481258 -0.024645822122693058359166329296 -0.001219765981659292957903217847 -0.002045668195933103995082236182 0 0 0 0 
2409000000.0000000000 0.170036718249321011642294365629 -0.025434376671910289419153983204 -0.001196008524857462103005434351 -0.002135609975084662003758095850 0 0 0 0 
2409166666.6666665077 0.170537829399108886718750000000 -0.026163455098867419851282889454 -0.000989450258202850818634033203 -0.002209821483120321793797158350 0 0 0 0 
2409333333.3333334923 0.170809909701347406585369981258 -0.026950336992740631103515625000 -0.001173121854662894985796284253 -0.002364023821428418159484863281 0 0 0 0 
2409500000.0000000000 0.171000108122825594803018134371 -0.027668545022606849670410156250 -0.001200433587655425071716308594 -0.002519914414733647866490029443 0 0 0 0 
2409666666.6666665077 0.171329870820045498946981865629 -0.028310451656579971313476562500 -0.001200457452796400027034140479 -0.002581179840490221977233886719 0 0 0 0 
2409833333.3333334923 0.171553432941436795333700615629 -0.028824815526604648935338204296 -0.001217314274981617927551269531 -0.002867119852453469796421670068 0 0 0 0 
2410000000.0000000000 0.171787515282630892654580634371 -0.029568316414952281606653983204 -0.001262447796761990027186728369 -0.002857000567018986181971884619 0 0 0 0 
2410166666.6666665077 0.172035232186317388336505018742 -0.030055588111281398427943045704 -0.001459292019717395088793110425 -0.002941154176369308991673134912 0 0 0 0 
2410333333.3333334923 0.171877250075340298751669365629 -0.030758617445826530456542968750 -0.001616414519958198070526123047 -0.003114676335826516151428222656 0 0 0 0 
2410500000.0000000000 0.172071397304534912109375000000 -0.031414769589900970458984375000 -0.001772109186276793913600302588 -0.003241915721446276144740439307 0 0 0 0 
2410666666.6666665077 0.172051236033439608474893134371 -0.032147906720638282085378278907 -0.001812173170037568049189902197 -0.003202081425115466117858886719 0 0 0 0 
2410833333.3333334923 0.171949267387390108963174384371 -0.032746613025665283203125000000 -0.002085444284603000120875693213 -0.003414223203435540199279785156 0 0 0 0 
2411000000.0000000000 0.171552106738090487381143134371 -0.033394895493984222412109375000 -0.002288708928972483114955283057 -0.003454074962064623832702636719 0 0 0 0 
2411166666.6666665077 0.171411991119384793380575615629 -0.034120012074708938598632812500 -0.002506069140508770942687988281 -0.003513145959004759788513183594 0 0 0 0 
2411333333.3333334923 0.171127989888191195388955634371 -0.034508254379034042358398437500 -0.002890202915295958952662802588 -0.003445927752181888060328818213 0 0 0 0 
2411500000.0000000000 0.170729264616966303069744981258 -0.035503249615430831909179687500 -0.003112113568931818008422851562 -0.003343015443533658981323242188 0 0 0 0 
2411666666.6666665077 0.170530140399932889083700615629 -0.036003161221742630004882812500 -0.003354279790073633193969726562 -0.003269134089350699944737099756 0 0 0 0 
2411833333.3333334923 0.170231878757476806640625000000 -0.036571413278579711914062500000 -0.003670390928164124922511435400 -0.003186165355145930810215615381 0 0 0 0 
2412000000.0000000000 0.169757917523384094238281250000 -0.037513948976993560791015625000 -0.004001718014478684339041425488 -0.003080555703490972952601767432 0 0 0 0 
2412166666.6666665077 0.168965935707092312911825615629 -0.037987340241670608520507812500 -0.004205333068966866406912519238 -0.003011574270203710036036826025 0 0 0 0 
2412333333.3333334923 0.168801590800285311599893134371 -0.038937538862228386615793596093 -0.004326599184423685073852539062 -0.002670409623533486886265420068 0 0 0 0 
2412500000.0000000000 0.168168142437934903243856865629 -0.039745584130287170410156250000 -0.004500362090766429901123046875 -0.002581003122031689123866415869 0 0 0 0 
2412666666.6666665077 0.167552143335342407226562500000 -0.040701825171709060668945312500 -0.004612815566360951337332441113 -0.002462305827066301865818642725 0 0 0 0 
2412833333.3333334923 0.166899055242538507659588731258 -0.041543111205101013183593750000 -0.004896733909845352172851562500 -0.002083517843857408003566122900 0 0 0 0 
2413000000.0000000000 0.166162535548210088531817518742 -0.042401995509862899780273437500 -0.004924730397760868072509765625 -0.002040709601715207099914550781 0 0 0 0 
2413166666.6666665077 0.165427520871162386795205634371 -0.043544095009565353393554687500 -0.004991465713828802108764648438 -0.001729174866341054005863808740 0 0 0 0 
2413333333.3333334923 0.164680600166320800781250000000 -0.044352535158395767211914062500 -0.005251394584774971008300781250 -0.001534641603939234993578266675 0 0 0 0 
2413500000.0000000000 0.163913682103156987945880018742 -0.045616444200277328491210937500 -0.005298243369907140731811523438 -0.001319400034844874902012490381 0 0 0 0 
2413666666.6666665077 0.163312077522277804275674384371 -0.046533316373825073242187500000 -0.005414739716798067092895507812 -0.001064908807165920951245952075 0 0 0 0 
2413833333.3333334923 0.162525773048400906661825615629 -0.047803346067667007446289062500 -0.005611791275441646575927734375 -0.000653337803669273853302001953 0 0 0 0 
2414000000.0000000000 0.161692515015602111816406250000 -0.048859059810638427734375000000 -0.005538184661418200406546308301 -0.000281854096101597005694788800 0 0 0 0 
2414166666.6666665077 0.161072358489036587814169365629 -0.049913004040718078613281250000 -0.005419486667960882186889648438 0.000065351574448868632316589355 0 0 0 0 
2414333333.3333334923 0.160472840070724487304687500000 -0.051077935844659812236745466407 -0.005512743256986141204833984375 0.000307510024867951924174708234 0 0 0 0 
2414500000.0000000000 0.160283982753753689864950615629 -0.052148520946502692485768903907 -0.005437949206680059432983398438 0.000356224132701754624217432843 0 0 0 0 
2414666666.6666665077 0.159661591053009005447549384371 -0.053380969911813742900807966407 -0.005339840892702341079711914062 0.000685166392941027879714965820 0 0 0 0 
2414833333.3333334923 0.159032985568046597579794365629 -0.054641522467136383056640625000 -0.005227568559348583221435546875 0.000832949473988264799118041992 0 0 0 0 
2415000000.0000000000 0.158582553267478887359942518742 -0.055790051817893981933593750000 -0.005229269620031118392944335938 0.001228273380547761917114257812 0 0 0 0 
2415166666.6666665077 0.158354178071022005935830634371 -0.057201631367206566547434221093 -0.005039025563746690750122070312 0.001336312154307961897609091650 0 0 0 0 
2415333333.3333334923 0.158094063401222201248330634371 -0.058582998812198638916015625000 -0.004917887970805168151855468750 0.001571341301314532973645854419 0 0 0 0 
2415500000.0000000000 0.157977268099784906585369981258 -0.059820201247930526733398437500 -0.004898203071206808090209960938 0.001884072786197066090227436597 0 0 0 0 
2415666666.6666665077 0.157602027058601407150106865629 -0.061235003173351287841796875000 -0.004805687349289655685424804688 0.001958282897248864173889160156 0 0 0 0 
2415833333.3333334923 0.157616823911666897872763115629 -0.062818117439746856689453125000 -0.004789679311215878400320722363 0.002030726987868547005894326318 0 0 0 0 
2416000000.0000000000 0.157308772206306513030682481258 -0.064156353473663330078125000000 -0.004625750239938498410696698926 0.002068312838673592047450400244 0 0 0 0 
2416166666.6666665077 0.157226994633674593826455634371 -0.065562181174755096435546875000 -0.004506890196353197097778320312 0.002240859903395175933837890625 0 0 0 0 
2416333333.3333334923 0.156963214278221102615518134371 -0.067080877721309661865234375000 -0.004397522192448377609252929688 0.002361902967095375061035156250 0 0 0 0 
2416500000.0000000000 0.156773418188095092773437500000 -0.068373434245586395263671875000 -0.004382449667900800704956054688 0.002559032756835221810581826318 0 0 0 0 
2416666666.6666665077 0.156493067741393987457598768742 -0.069749288260936737060546875000 -0.004242743365466594696044921875 0.002730013569816946983337402344 0 0 0 0 
2416833333.3333334923 0.156490504741668701171875000000 -0.071181334555149078369140625000 -0.004273947328329086303710937500 0.003006258979439734978916787256 0 0 0 0 
2417000000.0000000000 0.156146571040153503417968750000 -0.072564870119094848632812500000 -0.003982701338827610015869140625 0.003292636014521121978759765625 0 0 0 0 
2417166666.6666665077 0.156062990427017211914062500000 -0.073727674782276153564453125000 -0.004036082886159420013427734375 0.003310560481622815132141113281 0 0 0 0 
2417333333.3333334923 0.155882537364959689041299384371 -0.074889473617076873779296875000 -0.003705284558236598968505859375 0.003468331880867480798008584131 0 0 0 0 
2417500000.0000000000 0.155736982822418212890625000000 -0.076124832034111022949218750000 -0.003564139362424612045288085938 0.003699036315083504156825400244 0 0 0 0 
2417666666.6666665077 0.155628219246864291092080634371 -0.077026590704917907714843750000 -0.003217703895643353895900107275 0.003742521861568092866184853662 0 0 0 0 
2417833333.3333334923 0.155642777681350708007812500000 -0.077889949083328247070312500000 -0.003054181113839149908778525244 0.003859630087390542030334472656 0 0 0 0 
2418000000.0000000000 0.155624613165855407714843750000 -0.078995503485202789306640625000 -0.002838938264176249937770224463 0.003960779402405023574829101562 0 0 0 0 
2418166666.6666665077 0.155498385429382296463174384371 -0.079670079052448272705078125000 -0.002583438763394951820373535156 0.004092304967343807220458984375 0 0 0 0 
2418333333.3333334923 0.155738577246666010100994981258 -0.080566056072711944580078125000 -0.002356290118768810792210244287 0.004209316801279783248901367188 0 0 0 0 
2418500000.0000000000 0.155618384480476407150106865629 -0.081414699554443359375000000000 -0.002214405452832580046412802588 0.004186375997960568341726972363 0 0 0 0 
2418666666.6666665077 0.155607163906097412109375000000 -0.082184046506881713867187500000 -0.001831384026445447964909218896 0.004042501561343669891357421875 0 0 0 0 
2418833333.3333334923 0.155363291501998901367187500000 -0.082901820540428161621093750000 -0.001785826985724269910099648584 0.003956307191401720046997070312 0 0 0 0 
2419000000.0000000000 0.155277311801910400390625000000 -0.083472609519958496093750000000 -0.001476430799812078909633017432 0.004089508205652236938476562500 0 0 0 0 
2419166666.6666665077 0.155308112502098111251669365629 -0.083976320922374725341796875000 -0.001293460489250719980952597510 0.004077996127307415008544921875 0 0 0 0 
2419333333.3333334923 0.154986679553985595703125000000 -0.084432892501354217529296875000 -0.001071893027983606078504252856 0.003919892013072968396658612988 0 0 0 0 
2419500000.0000000000 0.155068442225456210037393134371 -0.085167378187179565429687500000 -0.000992194516584277153015136719 0.003741024993360043005702353369 0 0 0 0 
2419666666.6666665077 0.154843211174011202713174384371 -0.085639543831348419189453125000 -0.000735825626179575920104980469 0.003792764153331518173217773438 0 0 0 0 
2419833333.3333334923 0.154608055949211092849893134371 -0.085861429572105407714843750000 -0.000800043402705341577529907227 0.003627618541941047148463583838 0 0 0 0 
