# Hz S RI R 
2400000000.0000000000 0.155139580368995694259481865629 0.106907747685909298995809990629 -0.001784575637429953055140829932 -0.006645913235843181610107421875 0 0 0 0 
2400166666.6666665077 0.154933214187622098068075615629 0.104372270405292497108540317186 -0.001896438654512166976928710938 -0.006257934961467981338500976562 0 0 0 0 
2400333333.3333334923 0.154910013079643305022869981258 0.102098613977432306487713731258 -0.002244184259325265884399414062 -0.006181992590427398681640625000 0 0 0 0 
2400500000.0000000000 0.154783919453620910644531250000 0.098475173115730285644531250000 -0.002579415915533899827244423975 -0.005799105390906333923339843750 0 0 0 0 
2400666666.6666665077 0.155396521091461209396200615629 0.097413897514343261718750000000 -0.002520237118005752997157431494 -0.006145767867565155029296875000 0 0 0 0 
2400833333.3333334923 0.155351683497428894042968750000 0.093729905784130096435546875000 -0.002920081373304129080531454932 -0.005767052061855792999267578125 0 0 0 0 
2401000000.0000000000 0.155420750379562405685263115629 0.091591306030750274658203125000 -0.002679337514564394950866699219 -0.005735974758863449096679687500 0 0 0 0 
2401166666.6666665077 0.154879271984100286285723768742 0.088352210819721221923828125000 -0.002980191726237535910365439307 -0.005170377902686595916748046875 0 0 0 0 
2401333333.3333334923 0.155295312404632596114950615629 0.085891745984554290771484375000 -0.002743093064054847197291708838 -0.005060554016381502151489257812 0 0 0 0 
2401500000.0000000000 0.156863629817962701995526231258 0.082334414124488830566406250000 -0.003262956626713275909423828125 -0.005199922714382410049438476562 0 0 0 0 
2401666666.6666665077 0.155887782573700006683026231258 0.079811237752437591552734375000 -0.003019464900717138810398720850 -0.004704879131168127059936523438 0 0 0 0 
2401833333.3333334923 0.156744167208671597579794365629 0.076959751546382904052734375000 -0.003128228476271032853367470850 -0.004739707335829734802246093750 0 0 0 0 
2402000000.0000000000 0.157774314284324701507244981258 0.074144445359706878662109375000 -0.002922076499089599089381552588 -0.004750795662403106689453125000 0 0 0 0 
2402166666.6666665077 0.158470019698143005371093750000 0.071602411568164825439453125000 -0.003257028060033916993382119287 -0.004569546319544315338134765625 0 0 0 0 
2402333333.3333334923 0.159564256668090792556924384371 0.068908125162124633789062500000 -0.003178176470100880102870322119 -0.004643986467272043228149414062 0 0 0 0 
2402500000.0000000000 0.160679131746292086502236884371 0.066315211355686187744140625000 -0.003209289629012345834019326318 -0.004477999638766050338745117188 0 0 0 0 
2402666666.6666665077 0.161797627806663513183593750000 0.063875846564769744873046875000 -0.003315207315608859062194824219 -0.004749650135636329650878906250 0 0 0 0 
2402833333.3333334923 0.163180306553840609451455634371 0.061422385275363922119140625000 -0.003567492123693228201625204932 -0.004655284341424703598022460938 0 0 0 0 
2403000000.0000000000 0.164705529808998107910156250000 0.059272896498441703105886091407 -0.003959830850362777709960937500 -0.005258693825453519821166992188 0 0 0 0 
2403166666.6666665077 0.166361302137374905685263115629 0.057006578892469413066823591407 -0.004882758948951959609985351562 -0.005604567471891641616821289062 0 0 0 0 
2403333333.3333334923 0.167653992772102411468182481258 0.054839428514242172241210937500 -0.004157407209277153015136718750 -0.005063453689217566576485918262 0 0 0 0 
2403500000.0000000000 0.169440165162086486816406250000 0.052391875535249710083007812500 -0.004133530426770448684692382812 -0.003938646987080574035644531250 0 0 0 0 
2403666666.6666665077 0.171068266034126309493856865629 0.050468865782022483135182966407 -0.004391593858599662780761718750 -0.003983411472290754318237304688 0 0 0 0 
2403833333.3333334923 0.172437742352485712249432481258 0.049002297222614288330078125000 -0.003809513291344047026393271338 -0.005166374146938323974609375000 0 0 0 0 
2404000000.0000000000 0.174574077129364013671875000000 0.046894591301679611206054687500 -0.005301543045789003372192382812 -0.003365029813721776008605957031 0 0 0 0 
2404166666.6666665077 0.176334425806999206542968750000 0.045313749462366097187082658593 -0.005750231444835662841796875000 -0.002811773680150508880615234375 0 0 0 0 
2404333333.3333334923 0.177615389227867098709268134371 0.043863058090209960937500000000 -0.004884629044681788358206464551 -0.003251776797696948051452636719 0 0 0 0 
2404500000.0000000000 0.179312065243721008300781250000 0.042600836604833602905273437500 -0.005564744584262371063232421875 -0.003157919738441706137416220557 0 0 0 0 
2404666666.6666665077 0.180936396121978787521200615629 0.041494797915220260620117187500 -0.005638221278786659240722656250 -0.002789352089166640801670693506 0 0 0 0 
2404833333.3333334923 0.182591319084167508224325615629 0.040419496595859527587890625000 -0.005591513123363257321829511426 -0.002613680670037866072413779150 0 0 0 0 
2405000000.0000000000 0.184072613716125488281250000000 0.039825253188610076904296875000 -0.005588869564235210418701171875 -0.002081812126561998887303017725 0 0 0 0 
2405166666.6666665077 0.185457304120063809493856865629 0.039026003330945968627929687500 -0.005671404302120208740234375000 -0.002005413873121141953709267725 0 0 0 0 
2405333333.3333334923 0.186752736568450899978799384371 0.038680993020534522319753278907 -0.005698284599930047988891601562 -0.001910481369122863032697368091 0 0 0 0 
2405500000.0000000000 0.188287332653999300857705634371 0.038096107542514801025390625000 -0.005546717904508113861083984375 -0.001655619940720498995539999854 0 0 0 0 
2405666666.6666665077 0.189514711499214200118856865629 0.037785846740007400512695312500 -0.005521156359463930130004882812 -0.001275053597055376009700156104 0 0 0 0 
2405833333.3333334923 0.190773636102676391601562500000 0.037455603480339050292968750000 -0.005431573372334241867065429688 -0.001149277435615658976911235278 0 0 0 0 
2406000000.0000000000 0.191891461610794095138388115629 0.037294767796993262554128278907 -0.005492144729942083358764648438 -0.001029248465783894062042236328 0 0 0 0 
2406166666.6666665077 0.192797631025314303299111884371 0.037167739123106002807617187500 -0.005253656301647424697875976562 -0.000778550282120704650878906250 0 0 0 0 
2406333333.3333334923 0.193608716130256708343182481258 0.037141915410757071758229841407 -0.005228865891695022583007812500 -0.000719239120371639728546142578 0 0 0 0 
2406500000.0000000000 0.194490015506744412521200615629 0.037186343222856521606445312500 -0.005178780294954776763916015625 -0.000731262785848230123519897461 0 0 0 0 
2406666666.6666665077 0.195051148533821105957031250000 0.037244491279125206684152971093 -0.005033994093537330627441406250 -0.000501389091368764638900756836 0 0 0 0 
2406833333.3333334923 0.195475012063980102539062500000 0.037250969558954238891601562500 -0.005006818566471338272094726562 -0.000567591050639748573303222656 0 0 0 0 
2407000000.0000000000 0.195803433656692504882812500000 0.037485435605049133300781250000 -0.004916745238006114959716796875 -0.000416762544773518984943944110 0 0 0 0 
2407166666.6666665077 0.196217566728591891189736884371 0.037419501692056662822682966407 -0.004955875221639871597290039062 -0.000163352699019014808252611703 0 0 0 0 
2407333333.3333334923 0.195973426103591891189736884371 0.037620622664690017700195312500 -0.004804708063602448377127362988 -0.000162183583597652587011614389 0 0 0 0 
2407500000.0000000000 0.195959210395812988281250000000 0.037617918103933327411692033593 -0.004766481462866067886352539062 -0.000197773741092532900258740836 0 0 0 0 
2407666666.6666665077 0.195916354656219510177450615629 0.037566639482975013042409528907 -0.004814974963665009412283612988 -0.000054947427997831261973788602 0 0 0 0 
2407833333.3333334923 0.195473015308380099197549384371 0.037499021738767616962473283593 -0.004673319868743419647216796875 -0.000097485513833817094564437866 0 0 0 0 
2408000000.0000000000 0.195399492979049710372763115629 0.037448409944772720336914062500 -0.004595611244440078735351562500 0.000103376580227632102653226309 0 0 0 0 
2408166666.6666665077 0.194691359996795709808026231258 0.037221673876047127460520158593 -0.004739603959023953351492597363 0.000045482771383831277489662170 0 0 0 0 
2408333333.3333334923 0.194241583347320612151776231258 0.036665722727775566791574846093 -0.004764614626765251159667968750 -0.000084582534327637404203414917 0 0 0 0 
2408500000.0000000000 0.193398311734199496170205634371 0.036393664777278900146484375000 -0.004872305318713188171386718750 0.000103356709587387699954448561 0 0 0 0 
2408666666.6666665077 0.192829906940460205078125000000 0.035983793437480933452565778907 -0.004748160019516944885253906250 0.000056063130614347762685229642 0 0 0 0 
2408833333.3333334923 0.192073389887809808929119981258 0.035214830189943306659738908593 -0.004864256363362073898315429688 0.000250280281761661226123255597 0 0 0 0 
2409000000.0000000000 0.191097766160964993575888115629 0.034444764256477362895925153907 -0.004942900966852903366088867188 0.000279291009064763784408569336 0 0 0 0 
2409166666.6666665077 0.190255507826805086990518134371 0.033487532287836081767995466407 -0.004998204298317432403564453125 0.000416824070271104574203491211 0 0 0 0 
2409333333.3333334923 0.189319744706153897384481865629 0.032613921910524368286132812500 -0.005043084733188152313232421875 0.000407014391385018825531005859 0 0 0 0 
2409500000.0000000000 0.188223734498023986816406250000 0.031294073909521102905273437500 -0.005065481178462505340576171875 0.000556920131202787160873413086 0 0 0 0 
2409666666.6666665077 0.187205523252487210372763115629 0.029728904366493228567103201954 -0.005121553782373666763305664062 0.000701965065672993659973144531 0 0 0 0 
2409833333.3333334923 0.186096131801605196853799384371 0.028420023620128631591796875000 -0.005104437936097384366507245801 0.000748459191527217626571655273 0 0 0 0 
2410000000.0000000000 0.185262382030487088302450615629 0.026844602078199390066126639454 -0.005258266814053058624267578125 0.001114960759878159003016806494 0 0 0 0 
2410166666.6666665077 0.184114709496498107910156250000 0.024877799674868580209752266796 -0.005170425400137901306152343750 0.001285716658458114104029990088 0 0 0 0 
2410333333.3333334923 0.183259338140487698654013115629 0.023229705169796940195103829296 -0.005183786153793334960937500000 0.001392093137837945981266640771 0 0 0 0 
2410500000.0000000000 0.182291612029075594803018134371 0.021400360390543941152552420704 -0.005379433277994394302368164062 0.001756055513396858952165913159 0 0 0 0 
2410666666.6666665077 0.181448265910148592849893134371 0.019060198217630389821986014454 -0.005178439430892468366141034863 0.001737066428177058913587260669 0 0 0 0 
2410833333.3333334923 0.180902376770973205566406250000 0.016860432922840118408203125000 -0.005104568786919116973876953125 0.001935051986947655894635844653 0 0 0 0 
2411000000.0000000000 0.180013179779052706619424384371 0.014555554836988450831403163477 -0.005140005145221948623657226562 0.002081561135128140015843056787 0 0 0 0 
2411166666.6666665077 0.179317802190780611892861884371 0.012404995039105420548408709180 -0.005013488698750734329223632812 0.002223609481006861166713095557 0 0 0 0 
2411333333.3333334923 0.178885400295257596114950615629 0.009990531951189041137695312500 -0.004756710492074489593505859375 0.002377607626840471787693642725 0 0 0 0 
2411500000.0000000000 0.178380057215690612792968750000 0.007486468646675348281860351562 -0.004929414484649896621704101562 0.002545434981584548950195312500 0 0 0 0 
2411666666.6666665077 0.178299769759178189376669365629 0.005108003504574298858642578125 -0.004740651696920394897460937500 0.002643451793119310899021767725 0 0 0 0 
2411833333.3333334923 0.177802160382270812988281250000 0.002731926739215850830078125000 -0.004509447608143091201782226562 0.002713783876970409913303994287 0 0 0 0 
2412000000.0000000000 0.178213000297546386718750000000 0.000069631540100090205669403076 -0.004543924238532781600952148438 0.002694184659048914909362792969 0 0 0 0 
2412166666.6666665077 0.178195968270301791092080634371 -0.002186157740652561187744140625 -0.004427144303917884826660156250 0.002826381009072064919712685693 0 0 0 0 
2412333333.3333334923 0.178419679403305109222088731258 -0.004761844873428344726562500000 -0.004299756605178117752075195312 0.003000709461048244996311806787 0 0 0 0 
2412500000.0000000000 0.178914204239845303634481865629 -0.007101426832377910614013671875 -0.004442418459802865982055664062 0.003082404611632227897644042969 0 0 0 0 
2412666666.6666665077 0.179446503520011901855468750000 -0.009837198071181774139404296875 -0.004291256424039602279663085938 0.003164127469062805175781250000 0 0 0 0 
2412833333.3333334923 0.180197134613990811446981865629 -0.012050706893205639230748360546 -0.004185123834758996963500976562 0.003222886240109800858738564600 0 0 0 0 
2413000000.0000000000 0.180910453200340298751669365629 -0.014464188367128370457659336523 -0.003956977743655443191528320312 0.003120986977592111067530966650 0 0 0 0 
2413166666.6666665077 0.181643500924110412597656250000 -0.016561333090066909790039062500 -0.004025904927402734756469726562 0.003274842398241161866428994287 0 0 0 0 
2413333333.3333334923 0.182836368680000305175781250000 -0.019270747900009158742884451954 -0.003996629267930985364432050488 0.003464355366304516792297363281 0 0 0 0 
2413500000.0000000000 0.183615192770958002288494981258 -0.021305710077285770071009451954 -0.003977670334279537200927734375 0.003377569606527686119079589844 0 0 0 0 
2413666666.6666665077 0.184925451874732998946981865629 -0.023483013734221458435058593750 -0.004127935506403446197509765625 0.003474753815680741830113076318 0 0 0 0 
2413833333.3333334923 0.185923412442207308670205634371 -0.025600057095289230346679687500 -0.003925674129277467727661132812 0.003731528297066688971278525244 0 0 0 0 
2414000000.0000000000 0.187180444598197909256143134371 -0.027472762390971180307408516796 -0.003888218663632870154139853369 0.003775075776502490043640136719 0 0 0 0 
2414166666.6666665077 0.188543826341629000564736884371 -0.029203154146671298635462576954 -0.003871869761496781869175576318 0.004049374256283044815063476562 0 0 0 0 
2414333333.3333334923 0.189558789134025601486044365629 -0.031113097444176670419713204296 -0.003840196412056684927699423682 0.004307607654482126235961914062 0 0 0 0 
2414500000.0000000000 0.190968543291091891189736884371 -0.032760258764028549194335937500 -0.003856508759781717820408486475 0.004370055161416530609130859375 0 0 0 0 
2414666666.6666665077 0.192117884755134610275106865629 -0.034339502453804023052175153907 -0.003702689195051788850071572412 0.004635100252926349639892578125 0 0 0 0 
2414833333.3333334923 0.193240702152252197265625000000 -0.035694610327482216571848283593 -0.003492072224617003960850381006 0.004833809565752744674682617188 0 0 0 0 
2415000000.0000000000 0.194431081414222689529580634371 -0.036996763199567801738698591407 -0.003421831643208860917332314600 0.005129610188305377960205078125 0 0 0 0 
2415166666.6666665077 0.195699274539947509765625000000 -0.038076344877481460571289062500 -0.003262548008933662934544228662 0.005138256121426820755004882812 0 0 0 0 
2415333333.3333334923 0.196742475032806396484375000000 -0.039025120437145233154296875000 -0.002950224094092845916748046875 0.005374977365136147412771894238 0 0 0 0 
2415500000.0000000000 0.197992697358131408691406250000 -0.039667658507823937152902971093 -0.002839140826836227936985634912 0.005438241641968488693237304688 0 0 0 0 
2415666666.6666665077 0.199055656790733309646768134371 -0.040573723614215850830078125000 -0.002574119251221417947056435693 0.005609971936792135238647460938 0 0 0 0 
2415833333.3333334923 0.199805513024330111404580634371 -0.041136454790830612182617187500 -0.002363249193876982168910361182 0.005701699294149875640869140625 0 0 0 0 
2416000000.0000000000 0.200629547238349886795205634371 -0.041796352714300162578542341407 -0.002217732369899750189540243994 0.005731229204684495925903320312 0 0 0 0 
2416166666.6666665077 0.201237320899963406661825615629 -0.042356517165899276733398437500 -0.001874378067441285090205527197 0.005889388732612133026123046875 0 0 0 0 
2416333333.3333334923 0.202026471495628412444744981258 -0.042691510170698172832448591407 -0.001621892093680799007415771484 0.005966030526906251907348632812 0 0 0 0 
2416500000.0000000000 0.202388733625411987304687500000 -0.042901907116174697875976562500 -0.001373170875012875036952353369 0.005962342023849487304687500000 0 0 0 0 
2416666666.6666665077 0.202715173363685607910156250000 -0.043260198086500167846679687500 -0.001081469235941767909406352466 0.006007729098200798034667968750 0 0 0 0 
2416833333.3333334923 0.202905759215354891678018134371 -0.043226633220911032939870466407 -0.000840844702906906604766845703 0.005971073172986507415771484375 0 0 0 0 
2417000000.0000000000 0.202959135174751309493856865629 -0.043332256376743316650390625000 -0.000744929478969424962997436523 0.006154715549200773239135742188 0 0 0 0 
2417166666.6666665077 0.202722996473312405685263115629 -0.043133504688739776611328125000 -0.000477519410196691805690211163 0.006022134795784950256347656250 0 0 0 0 
2417333333.3333334923 0.202351868152618408203125000000 -0.042976912111043930053710937500 -0.000404683814849704504013061523 0.006050294265151023864746093750 0 0 0 0 
2417500000.0000000000 0.202199041843414306640625000000 -0.042944476008415222167968750000 -0.000159129005623981410830897198 0.006009688600897789001464843750 0 0 0 0 
2417666666.6666665077 0.201614588499069213867187500000 -0.042723067104816436767578125000 0.000117421019240282503053388052 0.006051464937627316388601972363 0 0 0 0 
2417833333.3333334923 0.201258122920989990234375000000 -0.042448882013559341430664062500 0.000284102949080988818972987042 0.005874065682291985425467206738 0 0 0 0 
2418000000.0000000000 0.200457289814949007888955634371 -0.042201306670904159545898437500 0.000523989088833332061767578125 0.005863185971975327405447675488 0 0 0 0 
2418166666.6666665077 0.199689880013465909103231865629 -0.042249251157045357440988908593 0.000748641206882894039154052734 0.005812739022076129913330078125 0 0 0 0 
2418333333.3333334923 0.198794350028037997146768134371 -0.042068183422088623046875000000 0.000936585827730596065521240234 0.005649469327181577682495117188 0 0 0 0 
2418500000.0000000000 0.197753518819808987716513115629 -0.042014885693788528442382812500 0.001084277988411485931993794019 0.005640748422592878341674804688 0 0 0 0 
2418666666.6666665077 0.196746990084648104568643134371 -0.042074974626302719116210937500 0.001308037550188601016998291016 0.005555011797696352005004882812 0 0 0 0 
2418833333.3333334923 0.195505857467651394943075615629 -0.042098119854927062988281250000 0.001351163140498101928113627856 0.005328310653567314147949218750 0 0 0 0 
2419000000.0000000000 0.194267183542251586914062500000 -0.042362131178379058837890625000 0.001571080181747674942016601562 0.005259868688881397247314453125 0 0 0 0 
2419166666.6666665077 0.193081811070442199707031250000 -0.042771723121404647827148437500 0.001666330848820507960078574072 0.005098832305520772933959960938 0 0 0 0 
2419333333.3333334923 0.191491857171058710296307481258 -0.043244984000921249389648437500 0.001765463966876267953159951318 0.004989738110452890396118164062 0 0 0 0 
2419500000.0000000000 0.189930334687232998946981865629 -0.043484210968017578125000000000 0.001760686398483813025830913013 0.004875606391578912734985351562 0 0 0 0 
2419666666.6666665077 0.188484072685241699218750000000 -0.044437147676944732666015625000 0.001894040382467210075975727612 0.004976176656782627105712890625 0 0 0 0 
2419833333.3333334923 0.186850279569625910003338731258 -0.045069370418787002563476562500 0.002090516965836286978480673682 0.004788142163306474685668945312 0 0 0 0 
