# Version 1.00
#
freq[Hz];re:Trc1_S11;im:Trc1_S11;re:Trc2_S21;im:Trc2_S21;
2.400000000000000E+009;1.548648923635483E-001;1.063608303666115E-001;1.811485853977501E-003;-3.329138271510601E-003;
2.400166666666667E+009;1.547138541936874E-001;1.038968786597252E-001;1.882599084638059E-003;-3.037956543266773E-003;
2.400333333333334E+009;1.546883434057236E-001;1.016442105174065E-001;1.856895047239959E-003;-3.110222751274705E-003;
2.400500000000000E+009;1.545441597700119E-001;9.880565106868744E-002;1.812158268876374E-003;-2.929970156401396E-003;
2.400666666666667E+009;1.546581387519836E-001;9.626533836126328E-002;1.894864486530423E-003;-2.684920327737927E-003;
2.400833333333334E+009;1.545222252607346E-001;9.357285499572754E-002;2.049859846010804E-003;-2.568772761151195E-003;
2.401000000000000E+009;1.547370254993439E-001;9.062581509351730E-002;2.074926160275936E-003;-2.775137079879642E-003;
2.401166666666667E+009;1.547174453735352E-001;8.803125470876694E-002;2.193372929468751E-003;-2.631846815347672E-003;
2.401333333333334E+009;1.549348831176758E-001;8.513484150171280E-002;2.310355426743627E-003;-2.601696411147714E-003;
2.401500000000000E+009;1.553506702184677E-001;8.232838660478592E-002;2.566583920270205E-003;-2.796279033645988E-003;
2.401666666666667E+009;1.556117236614227E-001;7.942818105220795E-002;2.598840044811368E-003;-3.035341156646609E-003;
2.401833333333334E+009;1.563422530889511E-001;7.664223015308380E-002;2.789548831060529E-003;-3.298308001831174E-003;
2.402000000000000E+009;1.569902300834656E-001;7.386796176433563E-002;2.699464093893766E-003;-3.387137548997998E-003;
2.402166666666667E+009;1.580146104097366E-001;7.129396498203278E-002;2.715249778702855E-003;-3.633498679846525E-003;
2.402333333333334E+009;1.587481796741486E-001;6.882045418024063E-002;2.698233816772699E-003;-3.913988359272480E-003;
2.402500000000000E+009;1.599430739879608E-001;6.629111617803574E-002;2.495279768481851E-003;-4.019980784505606E-003;
2.402666666666667E+009;1.609637737274170E-001;6.382700800895691E-002;2.540994435548782E-003;-4.054835531860590E-003;
2.402833333333334E+009;1.624999493360519E-001;6.156688183546066E-002;2.263717120513320E-003;-4.455606453120709E-003;
2.403000000000000E+009;1.639690995216370E-001;5.931166931986809E-002;2.053417963907123E-003;-4.549060948193073E-003;
2.403166666666667E+009;1.655706167221069E-001;5.711634084582329E-002;1.828236388973892E-003;-4.749426152557135E-003;
2.403333333333334E+009;1.671019643545151E-001;5.476320907473564E-002;1.771394279785454E-003;-4.690936766564846E-003;
2.403500000000000E+009;1.688875705003738E-001;5.269545316696167E-002;1.565803424455226E-003;-4.997692070901394E-003;
2.403666666666667E+009;1.704931259155273E-001;5.081404745578766E-002;1.220771577209234E-003;-4.763264209032059E-003;
2.403833333333334E+009;1.721345186233521E-001;4.887712746858597E-002;1.171438605524600E-003;-5.125002469867468E-003;
2.404000000000000E+009;1.738249361515045E-001;4.729910567402840E-002;1.019941642880440E-003;-5.045124795287848E-003;
2.404166666666667E+009;1.754978299140930E-001;4.568650200963020E-002;7.476708269678056E-004;-4.954857751727104E-003;
2.404333333333334E+009;1.773374676704407E-001;4.419994354248047E-002;7.004156359471381E-004;-5.161239299923182E-003;
2.404500000000000E+009;1.789146065711975E-001;4.298093914985657E-002;4.929744754917920E-004;-5.048410966992378E-003;
2.404666666666667E+009;1.805583536624908E-001;4.181069880723953E-002;4.317579150665551E-004;-5.179338157176971E-003;
2.404833333333334E+009;1.822741478681564E-001;4.079301655292511E-002;1.731787051539868E-004;-5.303971935063601E-003;
2.405000000000000E+009;1.836770474910736E-001;4.011195898056030E-002;9.895191760733724E-005;-5.333314649760723E-003;
2.405166666666667E+009;1.850867420434952E-001;3.947046399116516E-002;-3.052939719054848E-004;-5.305123515427113E-003;
2.405333333333334E+009;1.866063177585602E-001;3.897828981280327E-002;-4.305437614675611E-004;-5.389275494962931E-003;
2.405500000000000E+009;1.880432963371277E-001;3.845807537436485E-002;-6.306834402494133E-004;-5.124570801854134E-003;
2.405666666666667E+009;1.892599016427994E-001;3.814134746789932E-002;-1.014742185361683E-003;-5.491429008543491E-003;
2.405833333333334E+009;1.905267685651779E-001;3.792569413781166E-002;-1.062015537172556E-003;-5.304339807480574E-003;
2.406000000000000E+009;1.914253234863281E-001;3.783220797777176E-002;-1.240886398591101E-003;-5.245083477348089E-003;
2.406166666666667E+009;1.926360130310059E-001;3.762000799179077E-002;-1.488107955083251E-003;-5.259209312498570E-003;
2.406333333333334E+009;1.933557093143463E-001;3.762142732739449E-002;-1.827551051974297E-003;-5.156947765499353E-003;
2.406500000000000E+009;1.942368447780609E-001;3.771554306149483E-002;-1.798764802515507E-003;-4.942136351019144E-003;
2.406666666666667E+009;1.948026418685913E-001;3.778192028403282E-002;-2.065255539491773E-003;-4.853134043514729E-003;
2.406833333333334E+009;1.953538954257965E-001;3.778293728828430E-002;-2.296334831044078E-003;-4.899342544376850E-003;
2.407000000000000E+009;1.957310289144516E-001;3.814852610230446E-002;-2.523541217669845E-003;-4.535235930234194E-003;
2.407166666666667E+009;1.960317194461823E-001;3.777683153748512E-002;-2.628403948619962E-003;-4.466429352760315E-003;
2.407333333333334E+009;1.960700750350952E-001;3.815868869423866E-002;-2.875409089028835E-003;-4.305640235543251E-003;
2.407500000000000E+009;1.958135515451431E-001;3.839829936623573E-002;-2.737616188824177E-003;-4.375289659947157E-003;
2.407666666666667E+009;1.962593793869019E-001;3.827133029699326E-002;-2.986540086567402E-003;-4.084518644958735E-003;
2.407833333333334E+009;1.955921798944473E-001;3.813311830163002E-002;-2.983126556500793E-003;-4.157190676778555E-003;
2.408000000000000E+009;1.955565810203552E-001;3.810211643576622E-002;-3.089357633143663E-003;-3.893677145242691E-003;
2.408166666666667E+009;1.950528770685196E-001;3.788730129599571E-002;-3.077888395637274E-003;-3.730933647602797E-003;
2.408333333333334E+009;1.946535855531693E-001;3.738286718726158E-002;-3.388732671737671E-003;-3.677668515592814E-003;
2.408500000000000E+009;1.937848627567291E-001;3.686662018299103E-002;-3.347678110003471E-003;-3.493705298751593E-003;
2.408666666666667E+009;1.933628171682358E-001;3.656451776623726E-002;-3.393035149201751E-003;-3.311420558020473E-003;
2.408833333333334E+009;1.926781833171845E-001;3.581964224576950E-002;-3.294291440397501E-003;-3.407395444810391E-003;
2.409000000000000E+009;1.915610581636429E-001;3.490365296602249E-002;-3.468477865681052E-003;-3.208334324881434E-003;
2.409166666666667E+009;1.907777041196823E-001;3.386517241597176E-002;-3.325852798298001E-003;-3.143861191347241E-003;
2.409333333333334E+009;1.897956132888794E-001;3.292881697416306E-002;-3.499589394778013E-003;-3.115797415375710E-003;
2.409500000000000E+009;1.886749863624573E-001;3.150574490427971E-002;-3.507703077048063E-003;-2.935894764959812E-003;
2.409666666666667E+009;1.876988261938095E-001;3.001312725245953E-002;-3.525667591020465E-003;-2.889229916036129E-003;
2.409833333333334E+009;1.866568773984909E-001;2.854033000767231E-002;-3.720088861882687E-003;-2.714135218411684E-003;
2.410000000000000E+009;1.857456415891647E-001;2.683552168309689E-002;-3.717317944392562E-003;-2.720091491937637E-003;
2.410166666666667E+009;1.846918165683746E-001;2.506470493972302E-002;-3.726951545104384E-003;-2.548350486904383E-003;
2.410333333333334E+009;1.837455183267593E-001;2.323439531028271E-002;-3.734389552846551E-003;-2.447148319333792E-003;
2.410500000000000E+009;1.827003210783005E-001;2.132782340049744E-002;-3.746537957340479E-003;-2.218890236690640E-003;
2.410666666666667E+009;1.817420721054077E-001;1.896154507994652E-002;-3.767832880839706E-003;-2.252453472465277E-003;
2.410833333333334E+009;1.811906546354294E-001;1.680471375584602E-002;-3.816447686403990E-003;-2.267597010359168E-003;
2.411000000000000E+009;1.804898679256439E-001;1.457425393164158E-002;-3.699493827298284E-003;-1.963820774108172E-003;
2.411166666666667E+009;1.796429753303528E-001;1.242670044302940E-002;-3.717801766470075E-003;-1.944497576914728E-003;
2.411333333333334E+009;1.791813671588898E-001;9.851768612861633E-003;-3.698309417814016E-003;-1.990045420825481E-003;
2.411500000000000E+009;1.787991970777512E-001;7.542070001363754E-003;-3.689358942210674E-003;-1.937114866450429E-003;
2.411666666666667E+009;1.786158084869385E-001;5.198315717279911E-003;-3.688870230689645E-003;-1.951936632394791E-003;
2.411833333333334E+009;1.782224178314209E-001;2.665552310645580E-003;-3.624625969678164E-003;-2.015681937336922E-003;
2.412000000000000E+009;1.785205602645874E-001;5.015499118599109E-005;-3.878494258970022E-003;-2.007867209613323E-003;
2.412166666666667E+009;1.784550696611404E-001;-2.367811743170023E-003;-3.863475285470486E-003;-1.889414968900383E-003;
2.412333333333334E+009;1.786901652812958E-001;-4.816612694412470E-003;-4.027571529150009E-003;-1.965960254892707E-003;
2.412500000000000E+009;1.790754497051239E-001;-7.164074573665857E-003;-4.037017934024334E-003;-2.050471957772970E-003;
2.412666666666667E+009;1.797577440738678E-001;-9.738293476402760E-003;-4.061339888721705E-003;-1.855868962593377E-003;
2.412833333333334E+009;1.804424524307251E-001;-1.215770654380322E-002;-4.268841817975044E-003;-1.834143535234034E-003;
2.413000000000000E+009;1.811134070158005E-001;-1.453592814505100E-002;-4.465101286768913E-003;-1.857057563029230E-003;
2.413166666666667E+009;1.817944645881653E-001;-1.678058505058289E-002;-4.595524631440640E-003;-1.728781615383923E-003;
2.413333333333334E+009;1.829683929681778E-001;-1.913729310035706E-002;-4.758424591273069E-003;-1.673403545282781E-003;
2.413500000000000E+009;1.838304102420807E-001;-2.151265181601048E-002;-4.798424430191517E-003;-1.509371795691550E-003;
2.413666666666667E+009;1.851079314947128E-001;-2.375515922904015E-002;-5.033351015299559E-003;-1.258614007383585E-003;
2.413833333333334E+009;1.862861365079880E-001;-2.559084445238113E-002;-5.262112710624933E-003;-1.099800923839212E-003;
2.414000000000000E+009;1.873764693737030E-001;-2.771349437534809E-002;-5.327835679054260E-003;-7.659479742869735E-004;
2.414166666666667E+009;1.886790394783020E-001;-2.954110316932201E-002;-5.228172056376934E-003;-6.120199104771018E-004;
2.414333333333334E+009;1.896021068096161E-001;-3.145179897546768E-002;-5.341341253370047E-003;-3.142342029605061E-004;
2.414500000000000E+009;1.909856796264648E-001;-3.285444155335426E-002;-5.330283194780350E-003;-4.981605525244959E-005;
2.414666666666667E+009;1.921745091676712E-001;-3.447170183062553E-002;-5.378306377679110E-003;2.737118620643742E-006;
2.414833333333334E+009;1.932377070188522E-001;-3.591773286461830E-002;-5.362743977457285E-003;2.807154960464686E-004;
2.415000000000000E+009;1.945767700672150E-001;-3.717521205544472E-002;-5.375320091843605E-003;5.657260189764202E-004;
2.415166666666667E+009;1.956997513771057E-001;-3.826112672686577E-002;-5.096413195133209E-003;6.135720177553594E-004;
2.415333333333334E+009;1.969097405672073E-001;-3.927958011627197E-002;-5.226657725870609E-003;7.715297979302704E-004;
2.415500000000000E+009;1.979195177555084E-001;-4.002885892987251E-002;-5.136502906680107E-003;8.753006695769727E-004;
2.415666666666667E+009;1.989416927099228E-001;-4.071791842579842E-002;-5.213064607232809E-003;1.106454408727586E-003;
2.415833333333334E+009;1.998662799596787E-001;-4.149361327290535E-002;-5.102673079818487E-003;1.501125982031226E-003;
2.416000000000000E+009;2.005224525928497E-001;-4.206975549459457E-002;-5.027513951063156E-003;1.530032488517463E-003;
2.416166666666667E+009;2.013669461011887E-001;-4.258033260703087E-002;-4.997376818209887E-003;1.573316985741258E-003;
2.416333333333334E+009;2.019789367914200E-001;-4.291373118758202E-002;-4.903530701994896E-003;1.848460058681667E-003;
2.416500000000000E+009;2.023977935314179E-001;-4.301217570900917E-002;-4.913539160043001E-003;2.025205176323652E-003;
2.416666666666667E+009;2.026853710412979E-001;-4.335001111030579E-002;-4.895572084933519E-003;2.255131024867296E-003;
2.416833333333334E+009;2.027206867933273E-001;-4.328312352299690E-002;-4.718375392258167E-003;2.350382972508669E-003;
2.417000000000000E+009;2.027624845504761E-001;-4.341023415327072E-002;-4.600272979587317E-003;2.587276510894299E-003;
2.417166666666667E+009;2.025966197252274E-001;-4.334820806980133E-002;-4.600927699357271E-003;2.520408015698195E-003;
2.417333333333334E+009;2.023149430751801E-001;-4.309022426605225E-002;-4.468241240829229E-003;2.835364779457450E-003;
2.417500000000000E+009;2.020924389362335E-001;-4.307884722948074E-002;-4.322135355323553E-003;2.991065615788102E-003;
2.417666666666667E+009;2.015151381492615E-001;-4.287795349955559E-002;-4.097956698387861E-003;2.997337607666850E-003;
2.417833333333334E+009;2.011354863643646E-001;-4.262290894985199E-002;-4.054470453411341E-003;3.289659274742007E-003;
2.418000000000000E+009;2.003949433565140E-001;-4.235588014125824E-002;-3.729241900146008E-003;3.359300084412098E-003;
2.418166666666667E+009;1.996683627367020E-001;-4.237685725092888E-002;-3.699347609654069E-003;3.506081411615014E-003;
2.418333333333334E+009;1.987002938985825E-001;-4.209686070680618E-002;-3.629111684858799E-003;3.569242078810930E-003;
2.418500000000000E+009;1.977094560861588E-001;-4.202759638428688E-002;-3.189383773133159E-003;3.480782499536872E-003;
2.418666666666667E+009;1.967237889766693E-001;-4.199812561273575E-002;-3.154684090986848E-003;3.655972424894571E-003;
2.418833333333334E+009;1.953647136688232E-001;-4.215177148580551E-002;-2.890895120799542E-003;3.559782402589917E-003;
2.419000000000000E+009;1.940704286098480E-001;-4.244279488921166E-002;-2.903443295508623E-003;3.646163269877434E-003;
2.419166666666667E+009;1.927542090415955E-001;-4.263566061854363E-002;-2.698327181860805E-003;3.632705425843597E-003;
2.419333333333334E+009;1.913173496723175E-001;-4.315159842371941E-002;-2.621077466756105E-003;3.356856759637594E-003;
2.419500000000000E+009;1.898597925901413E-001;-4.357793182134628E-002;-2.478908514603972E-003;3.349350299686194E-003;
2.419666666666667E+009;1.880735754966736E-001;-4.440608620643616E-002;-2.522917464375496E-003;3.234286094084382E-003;
2.419833333333334E+009;1.866490244865418E-001;-4.507745429873467E-002;-2.429202198982239E-003;3.397670341655612E-003;
2.420000000000000E+009;1.849369555711746E-001;-4.586079344153404E-002;-2.461607567965984E-003;3.199449973180890E-003;
2.420166666666667E+009;1.832657903432846E-001;-4.678377509117127E-002;-2.497832523658872E-003;3.127651754766703E-003;
2.420333333333334E+009;1.817892044782639E-001;-4.800866171717644E-002;-2.703346079215407E-003;3.209655173122883E-003;
2.420500000000000E+009;1.800445318222046E-001;-4.934535548090935E-002;-2.556366845965385E-003;3.209073096513748E-003;
2.420666666666667E+009;1.784217655658722E-001;-5.038646608591080E-002;-2.688498701900244E-003;3.469679038971663E-003;
2.420833333333334E+009;1.766537725925446E-001;-5.182228237390518E-002;-2.726769307628274E-003;3.467134665697813E-003;
2.421000000000000E+009;1.753298342227936E-001;-5.343869701027870E-002;-2.729300875216723E-003;3.450145712122321E-003;
2.421166666666667E+009;1.738938838243485E-001;-5.523829162120819E-002;-2.634771401062608E-003;3.611489199101925E-003;
2.421333333333334E+009;1.720508038997650E-001;-5.666324868798256E-002;-2.765384968370199E-003;3.627813654020429E-003;
2.421500000000000E+009;1.709713041782379E-001;-5.855925753712654E-002;-2.650917274877429E-003;3.937085159122944E-003;
2.421666666666667E+009;1.696959435939789E-001;-6.034142524003983E-002;-2.720410469919443E-003;4.032627213746309E-003;
2.421833333333334E+009;1.686347573995590E-001;-6.218979135155678E-002;-2.605662448331714E-003;4.383272491395474E-003;
2.422000000000000E+009;1.673667728900909E-001;-6.432313472032547E-002;-2.419230062514544E-003;4.388152156025171E-003;
2.422166666666667E+009;1.664905995130539E-001;-6.635577976703644E-002;-2.228602068498731E-003;4.423666745424271E-003;
2.422333333333334E+009;1.656160801649094E-001;-6.839552521705627E-002;-2.217115834355354E-003;4.752688109874725E-003;
2.422500000000000E+009;1.647669970989227E-001;-7.035314291715622E-002;-1.968766329810023E-003;4.753220826387405E-003;
2.422666666666667E+009;1.640537530183792E-001;-7.254113256931305E-002;-1.955693121999502E-003;4.913670942187309E-003;
2.422833333333334E+009;1.636491417884827E-001;-7.445137202739716E-002;-1.774986623786390E-003;5.058100912719965E-003;
2.423000000000000E+009;1.632618606090546E-001;-7.656775414943695E-002;-1.730160438455641E-003;4.889259580522776E-003;
2.423166666666667E+009;1.627393662929535E-001;-7.852749526500702E-002;-1.335454406216741E-003;5.241458304226399E-003;
2.423333333333334E+009;1.625872105360031E-001;-8.053945004940033E-002;-1.433746889233589E-003;5.194323603063822E-003;
2.423500000000000E+009;1.626533269882202E-001;-8.242059499025345E-002;-1.142116263508797E-003;5.294051486998797E-003;
2.423666666666667E+009;1.626369953155518E-001;-8.427807688713074E-002;-9.380112751387060E-004;5.301033146679401E-003;
2.423833333333334E+009;1.625621616840363E-001;-8.608818054199219E-002;-9.129440295509994E-004;5.479851271957159E-003;
2.424000000000000E+009;1.627283692359924E-001;-8.795005828142166E-002;-5.893878987990320E-004;5.583030637353659E-003;
2.424166666666667E+009;1.628227233886719E-001;-8.964637666940689E-002;-5.284501821734011E-004;5.817587021738291E-003;
2.424333333333334E+009;1.630948632955551E-001;-9.105113893747330E-002;-1.103142203646712E-004;5.768093280494213E-003;
2.424500000000000E+009;1.635947823524475E-001;-9.280174970626831E-002;-1.321914751315489E-004;5.750628188252449E-003;
2.424666666666667E+009;1.636141240596771E-001;-9.414802491664887E-002;2.230534591944888E-004;6.050094030797482E-003;
2.424833333333334E+009;1.643461734056473E-001;-9.552220255136490E-002;4.796714347321540E-004;5.876285023987293E-003;
2.425000000000000E+009;1.647047102451325E-001;-9.669157117605209E-002;8.501166012138128E-004;5.832537543028593E-003;
2.425166666666667E+009;1.650363653898239E-001;-9.780138731002808E-002;1.114867161959410E-003;5.945628974586725E-003;
2.425333333333334E+009;1.654269248247147E-001;-9.879668802022934E-002;1.331077306531370E-003;5.619633011519909E-003;
2.425500000000000E+009;1.658733934164047E-001;-9.973585605621338E-002;1.551276654936373E-003;5.673289764672518E-003;
2.425666666666667E+009;1.663242727518082E-001;-1.004175171256065E-001;1.687854412011802E-003;5.634964909404516E-003;
2.425833333333334E+009;1.665411442518234E-001;-1.012306660413742E-001;1.975822262465954E-003;5.492584314197302E-003;
2.426000000000000E+009;1.670967042446137E-001;-1.015986129641533E-001;2.175684086978436E-003;5.475331563502550E-003;
2.426166666666667E+009;1.674193739891052E-001;-1.022214964032173E-001;2.447842154651880E-003;5.358498077839613E-003;
2.426333333333334E+009;1.674600541591644E-001;-1.026076376438141E-001;2.654556650668383E-003;5.139274057000876E-003;
2.426500000000000E+009;1.679684370756149E-001;-1.028422340750694E-001;2.712125191465020E-003;4.867383278906345E-003;
2.426666666666667E+009;1.681096553802490E-001;-1.031728610396385E-001;3.010167274624109E-003;4.880888387560844E-003;
2.426833333333334E+009;1.683678328990936E-001;-1.034800037741661E-001;3.067413112148643E-003;4.705504048615694E-003;
2.427000000000000E+009;1.684142947196960E-001;-1.036040261387825E-001;3.293498419225216E-003;4.529520869255066E-003;
2.427166666666667E+009;1.683849096298218E-001;-1.036280393600464E-001;3.375160042196512E-003;4.410583060234785E-003;
2.427333333333334E+009;1.683374941349030E-001;-1.039302945137024E-001;3.541545011103153E-003;4.092432558536530E-003;
2.427500000000000E+009;1.680107116699219E-001;-1.039366200566292E-001;3.568539163097739E-003;4.113323520869017E-003;
2.427666666666667E+009;1.678631454706192E-001;-1.039629131555557E-001;3.720015287399292E-003;3.742577973753214E-003;
