# Version 1.00
#
freq[Hz];re:Trc1_S11;im:Trc1_S11;re:Trc2_S21;im:Trc2_S21;
2.400000000000000E+009;1.547630578279495E-001;1.063286215066910E-001;1.835279515944421E-003;-3.342383075505495E-003;
2.400166666666667E+009;1.545300334692001E-001;1.037180647253990E-001;1.817350159399211E-003;-3.135656006634235E-003;
2.400333333333334E+009;1.545834839344025E-001;1.014418303966522E-001;1.809580018743873E-003;-3.028423758223653E-003;
2.400500000000000E+009;1.544804871082306E-001;9.875807166099548E-002;1.924673561006784E-003;-2.838176675140858E-003;
2.400666666666667E+009;1.545223742723465E-001;9.632628411054611E-002;1.830984838306904E-003;-2.722527831792831E-003;
2.400833333333334E+009;1.544943749904633E-001;9.329218417406082E-002;1.991566969081760E-003;-2.597701968625188E-003;
2.401000000000000E+009;1.545227020978928E-001;9.065773338079453E-002;2.102946396917105E-003;-2.656787168234587E-003;
2.401166666666667E+009;1.546017378568649E-001;8.796731382608414E-002;2.289025811478496E-003;-2.691551810130477E-003;
2.401333333333334E+009;1.549995839595795E-001;8.518347144126892E-002;2.419785363599658E-003;-2.606991212815046E-003;
2.401500000000000E+009;1.552917808294296E-001;8.233749121427536E-002;2.580386353656650E-003;-2.744242548942566E-003;
2.401666666666667E+009;1.556012928485870E-001;7.953388988971710E-002;2.613362623378635E-003;-2.895687473937869E-003;
2.401833333333334E+009;1.560681760311127E-001;7.661205530166626E-002;2.927567809820175E-003;-3.107463009655476E-003;
2.402000000000000E+009;1.570696085691452E-001;7.401159405708313E-002;2.640678547322750E-003;-3.322021104395390E-003;
2.402166666666667E+009;1.577283293008804E-001;7.159560173749924E-002;2.783435396850109E-003;-3.414509352296591E-003;
2.402333333333334E+009;1.587157845497131E-001;6.874900311231613E-002;2.738935174420476E-003;-3.824840998277068E-003;
2.402500000000000E+009;1.598586887121201E-001;6.628195196390152E-002;2.703812671825290E-003;-4.050344228744507E-003;
2.402666666666667E+009;1.611560434103012E-001;6.391584128141403E-002;2.521956572309136E-003;-4.219806287437677E-003;
2.402833333333334E+009;1.623106449842453E-001;6.162538379430771E-002;2.311602933332324E-003;-4.351572133600712E-003;
2.403000000000000E+009;1.637267023324966E-001;5.918513610959053E-002;2.286840230226517E-003;-4.609698429703713E-003;
2.403166666666667E+009;1.656898260116577E-001;5.715256184339523E-002;2.059858758002520E-003;-4.692534450441599E-003;
2.403333333333334E+009;1.670147329568863E-001;5.480625852942467E-002;1.849172986112535E-003;-4.756670445203781E-003;
2.403500000000000E+009;1.687999665737152E-001;5.289465934038162E-002;1.698624459095299E-003;-5.006043240427971E-003;
2.403666666666667E+009;1.706220060586929E-001;5.087111517786980E-002;1.402895548380911E-003;-4.921275656670332E-003;
2.403833333333334E+009;1.723191291093826E-001;4.895039647817612E-002;1.166122965514660E-003;-4.999734926968813E-003;
2.404000000000000E+009;1.737840175628662E-001;4.734411090612412E-002;1.014892011880875E-003;-4.928079433739185E-003;
2.404166666666667E+009;1.755033135414124E-001;4.578170925378799E-002;9.395544766448438E-004;-4.995332099497318E-003;
2.404333333333334E+009;1.771717667579651E-001;4.444050043821335E-002;6.649137940257788E-004;-5.097198765724897E-003;
2.404500000000000E+009;1.789436787366867E-001;4.296724870800972E-002;6.405392196029425E-004;-5.120744463056326E-003;
2.404666666666667E+009;1.805646121501923E-001;4.194323718547821E-002;5.168695352040231E-004;-5.213443655520678E-003;
2.404833333333334E+009;1.822694540023804E-001;4.070466384291649E-002;2.283539797645062E-004;-5.094724241644144E-003;
2.405000000000000E+009;1.835517585277557E-001;4.018748551607132E-002;2.266155752295163E-005;-5.358428228646517E-003;
2.405166666666667E+009;1.851066946983337E-001;3.939525783061981E-002;-1.719808642519638E-004;-5.311072804033756E-003;
2.405333333333334E+009;1.866397559642792E-001;3.902336210012436E-002;-4.713804519269615E-004;-5.367451813071966E-003;
2.405500000000000E+009;1.879251301288605E-001;3.850230202078819E-002;-6.201856303960085E-004;-5.219066981226206E-003;
2.405666666666667E+009;1.891345232725143E-001;3.823848441243172E-002;-8.566115866415203E-004;-5.355370230972767E-003;
2.405833333333334E+009;1.905279159545898E-001;3.793039172887802E-002;-1.041269861161709E-003;-5.254060495644808E-003;
2.406000000000000E+009;1.915762871503830E-001;3.757591918110848E-002;-1.294414163567126E-003;-5.304769147187471E-003;
2.406166666666667E+009;1.926078796386719E-001;3.749622404575348E-002;-1.512571820057929E-003;-5.100652575492859E-003;
2.406333333333334E+009;1.935080736875534E-001;3.761549666523933E-002;-1.691634999588132E-003;-5.246744491159916E-003;
2.406500000000000E+009;1.942022442817688E-001;3.768244013190270E-002;-1.928059733472765E-003;-5.112309474498034E-003;
2.406666666666667E+009;1.948531419038773E-001;3.780070319771767E-002;-1.961460337042809E-003;-4.933911375701428E-003;
2.406833333333334E+009;1.953435093164444E-001;3.779234737157822E-002;-2.289008582010865E-003;-4.789987113326788E-003;
2.407000000000000E+009;1.957338601350784E-001;3.810480982065201E-002;-2.420384669676423E-003;-4.744607489556074E-003;
2.407166666666667E+009;1.961838155984879E-001;3.786698728799820E-002;-2.556778956204653E-003;-4.608428105711937E-003;
2.407333333333334E+009;1.960962116718292E-001;3.810441493988037E-002;-2.601274754852057E-003;-4.444620572030544E-003;
2.407500000000000E+009;1.960512399673462E-001;3.827945515513420E-002;-2.817526925355196E-003;-4.261703230440617E-003;
2.407666666666667E+009;1.960121244192123E-001;3.808795288205147E-002;-2.808408113196492E-003;-4.056548234075308E-003;
2.407833333333334E+009;1.957410126924515E-001;3.802343830466270E-002;-3.004116471856833E-003;-3.985275048762560E-003;
2.408000000000000E+009;1.955741345882416E-001;3.800601139664650E-002;-3.048274200409651E-003;-3.822613973170519E-003;
2.408166666666667E+009;1.949414759874344E-001;3.771305084228516E-002;-3.032083855941892E-003;-3.759585320949554E-003;
2.408333333333334E+009;1.944809257984161E-001;3.718779981136322E-002;-3.183736000210047E-003;-3.662202041596174E-003;
2.408500000000000E+009;1.937655359506607E-001;3.691560029983521E-002;-3.267367603257299E-003;-3.608047496527433E-003;
2.408666666666667E+009;1.932403743267059E-001;3.640495985746384E-002;-3.388276090845466E-003;-3.473551012575626E-003;
2.408833333333334E+009;1.924293786287308E-001;3.569250926375389E-002;-3.299550618976355E-003;-3.352175001055002E-003;
2.409000000000000E+009;1.916256248950958E-001;3.476119786500931E-002;-3.427839372307062E-003;-3.043198725208640E-003;
2.409166666666667E+009;1.907989084720612E-001;3.373456746339798E-002;-3.484477521851659E-003;-3.041704883798957E-003;
2.409333333333334E+009;1.898731589317322E-001;3.263569250702858E-002;-3.532878821715713E-003;-3.121127374470234E-003;
2.409500000000000E+009;1.887035667896271E-001;3.136014938354492E-002;-3.500360529869795E-003;-2.959816250950098E-003;
2.409666666666667E+009;1.877798289060593E-001;3.007717803120613E-002;-3.560041077435017E-003;-2.821843605488539E-003;
2.409833333333334E+009;1.866256892681122E-001;2.838575094938278E-002;-3.626635763794184E-003;-2.788812154904008E-003;
2.410000000000000E+009;1.856985390186310E-001;2.672766894102097E-002;-3.664688440039754E-003;-2.711364999413490E-003;
2.410166666666667E+009;1.846121549606323E-001;2.491650544106960E-002;-3.794119693338871E-003;-2.536789979785681E-003;
2.410333333333334E+009;1.836879998445511E-001;2.323926798999310E-002;-3.666067495942116E-003;-2.317185746505857E-003;
2.410500000000000E+009;1.825970411300659E-001;2.126262336969376E-002;-3.624259959906340E-003;-2.295334124937654E-003;
2.410666666666667E+009;1.817869842052460E-001;1.888742856681347E-002;-3.665145253762603E-003;-2.191838808357716E-003;
2.410833333333334E+009;1.810030341148377E-001;1.669147051870823E-002;-3.714686725288630E-003;-2.164192963391542E-003;
2.411000000000000E+009;1.802542209625244E-001;1.449036784470081E-002;-3.710682038217783E-003;-2.242858288809657E-003;
2.411166666666667E+009;1.795641183853149E-001;1.229800842702389E-002;-3.744209883734584E-003;-1.993015408515930E-003;
2.411333333333334E+009;1.793028414249420E-001;9.766817092895508E-003;-3.706758609041572E-003;-2.041955245658755E-003;
2.411500000000000E+009;1.785967499017716E-001;7.150920107960701E-003;-3.671199316158891E-003;-2.005654620006681E-003;
2.411666666666667E+009;1.784069985151291E-001;5.020636133849621E-003;-3.745215246453881E-003;-2.013931749388576E-003;
2.411833333333334E+009;1.781358420848846E-001;2.550807781517506E-003;-3.795420285314322E-003;-1.849817694164813E-003;
2.412000000000000E+009;1.783206015825272E-001;9.022835911309812E-006;-3.752757795155048E-003;-2.003167290240526E-003;
2.412166666666667E+009;1.782500743865967E-001;-2.279099542647600E-003;-3.880403703078628E-003;-2.101161750033498E-003;
2.412333333333334E+009;1.786112636327744E-001;-4.806055221706629E-003;-3.964483272284269E-003;-1.985687296837568E-003;
2.412500000000000E+009;1.790786981582642E-001;-7.343445904552937E-003;-4.013049416244030E-003;-1.954048406332731E-003;
2.412666666666667E+009;1.796473860740662E-001;-9.916597977280617E-003;-4.122212529182434E-003;-2.021953463554382E-003;
2.412833333333334E+009;1.802397370338440E-001;-1.234185229986906E-002;-4.343710839748383E-003;-1.938945497386158E-003;
2.413000000000000E+009;1.809530407190323E-001;-1.448656804859638E-002;-4.483051598072052E-003;-1.911248662509024E-003;
2.413166666666667E+009;1.818281263113022E-001;-1.700055785477161E-002;-4.611340351402760E-003;-1.769857248291373E-003;
2.413333333333334E+009;1.828959435224533E-001;-1.922684349119663E-002;-4.707534331828356E-003;-1.610438572242856E-003;
2.413500000000000E+009;1.836887001991272E-001;-2.156261540949345E-002;-5.145603325217962E-003;-1.465976238250732E-003;
2.413666666666667E+009;1.849343478679657E-001;-2.368883416056633E-002;-5.109807942062616E-003;-1.260115532204509E-003;
2.413833333333334E+009;1.858857125043869E-001;-2.561228536069393E-002;-5.098959431052208E-003;-1.124695874750614E-003;
2.414000000000000E+009;1.871043443679810E-001;-2.778214588761330E-002;-5.225043278187513E-003;-7.644598372280598E-004;
2.414166666666667E+009;1.884734630584717E-001;-2.951748110353947E-002;-5.364356096833944E-003;-5.951197817921639E-004;
2.414333333333334E+009;1.895890831947327E-001;-3.136913850903511E-002;-5.452663172036409E-003;-2.474465582054108E-004;
2.414500000000000E+009;1.908441931009293E-001;-3.300837427377701E-002;-5.412276834249497E-003;-2.125308819813654E-004;
2.414666666666667E+009;1.920611262321472E-001;-3.445994108915329E-002;-5.390853621065617E-003;2.369922294747084E-004;
2.414833333333334E+009;1.932120025157929E-001;-3.583994880318642E-002;-5.291556939482689E-003;2.350012655369937E-004;
2.415000000000000E+009;1.942565292119980E-001;-3.714886680245400E-002;-5.526659544557333E-003;5.380828515626490E-004;
2.415166666666667E+009;1.955512762069702E-001;-3.812605515122414E-002;-5.348812323063612E-003;6.659209029749036E-004;
2.415333333333334E+009;1.966221332550049E-001;-3.925408422946930E-002;-5.380665883421898E-003;8.478365489281714E-004;
2.415500000000000E+009;1.977041959762573E-001;-3.993567824363709E-002;-5.281520076096058E-003;1.109000411815941E-003;
2.415666666666667E+009;1.987365782260895E-001;-4.075720161199570E-002;-5.267786793410778E-003;1.219927449710667E-003;
2.415833333333334E+009;1.995639204978943E-001;-4.131478816270828E-002;-5.125398747622967E-003;1.486582215875387E-003;
2.416000000000000E+009;2.004249393939972E-001;-4.208933934569359E-002;-5.135239567607641E-003;1.630112179554999E-003;
2.416166666666667E+009;2.011610418558121E-001;-4.250445216894150E-002;-5.267154425382614E-003;1.712129567749798E-003;
2.416333333333334E+009;2.016729116439819E-001;-4.276701062917709E-002;-5.037420894950628E-003;1.982843503355980E-003;
2.416500000000000E+009;2.021115869283676E-001;-4.298230633139610E-002;-4.943738225847483E-003;1.984856789931655E-003;
2.416666666666667E+009;2.024119645357132E-001;-4.316185414791107E-002;-4.908408503979445E-003;2.291228156536818E-003;
2.416833333333334E+009;2.026204466819763E-001;-4.323731362819672E-002;-4.817401058971882E-003;2.613814780488610E-003;
2.417000000000000E+009;2.026326358318329E-001;-4.340987652540207E-002;-4.708192776888609E-003;2.598235150799155E-003;
2.417166666666667E+009;2.023422718048096E-001;-4.323944821953774E-002;-4.706882871687412E-003;2.746119862422347E-003;
2.417333333333334E+009;2.022009491920471E-001;-4.288119077682495E-002;-4.511101637035608E-003;2.922972198575735E-003;
2.417500000000000E+009;2.018474191427231E-001;-4.300537705421448E-002;-4.285352304577828E-003;3.008065279573202E-003;
2.417666666666667E+009;2.012977153062820E-001;-4.276053979992867E-002;-4.166541155427694E-003;3.155219368636608E-003;
2.417833333333334E+009;2.008976489305496E-001;-4.251836240291596E-002;-4.100232850760222E-003;3.207813482731581E-003;
2.418000000000000E+009;2.002655714750290E-001;-4.226641729474068E-002;-3.893759567290545E-003;3.461958840489388E-003;
2.418166666666667E+009;1.994539946317673E-001;-4.215623438358307E-002;-3.740084357559681E-003;3.519785357639194E-003;
2.418333333333334E+009;1.984759569168091E-001;-4.196272790431976E-002;-3.555143019184470E-003;3.580051474273205E-003;
2.418500000000000E+009;1.975736469030380E-001;-4.190645366907120E-002;-3.262418787926436E-003;3.716245060786605E-003;
2.418666666666667E+009;1.965543627738953E-001;-4.182679578661919E-002;-3.226024797186256E-003;3.799985395744443E-003;
2.418833333333334E+009;1.952230036258698E-001;-4.204035177826881E-002;-2.991864224895835E-003;3.579496871680021E-003;
2.419000000000000E+009;1.939873993396759E-001;-4.208077117800713E-002;-2.955203643068671E-003;3.593259258195758E-003;
2.419166666666667E+009;1.927585005760193E-001;-4.253030940890312E-002;-2.707662060856819E-003;3.764180466532707E-003;
2.419333333333334E+009;1.912544220685959E-001;-4.293332993984222E-002;-2.519338857382536E-003;3.709164680913091E-003;
2.419500000000000E+009;1.897588372230530E-001;-4.340656101703644E-002;-2.573580248281360E-003;3.353565931320190E-003;
2.419666666666667E+009;1.881000995635986E-001;-4.422171786427498E-002;-2.611652016639710E-003;3.420829772949219E-003;
2.419833333333334E+009;1.865711957216263E-001;-4.477547109127045E-002;-2.464183839038014E-003;3.296933835372329E-003;
2.420000000000000E+009;1.848213821649551E-001;-4.577805101871491E-002;-2.516305074095726E-003;3.176451660692692E-003;
2.420166666666667E+009;1.833166480064392E-001;-4.671720787882805E-002;-2.558255102485418E-003;3.367542522028089E-003;
2.420333333333334E+009;1.816141754388809E-001;-4.778178781270981E-002;-2.504253759980202E-003;3.239536657929421E-003;
2.420500000000000E+009;1.799344569444656E-001;-4.904218763113022E-002;-2.504648175090551E-003;3.320912830531597E-003;
2.420666666666667E+009;1.783266216516495E-001;-5.023868754506111E-002;-2.527488861232996E-003;3.398648230358958E-003;
2.420833333333334E+009;1.767403781414032E-001;-5.167670920491219E-002;-2.767051104456186E-003;3.468732349574566E-003;
2.421000000000000E+009;1.753732264041901E-001;-5.333819612860680E-002;-2.692542038857937E-003;3.742269240319729E-003;
2.421166666666667E+009;1.738672852516174E-001;-5.498301237821579E-002;-2.659624675288796E-003;3.717203391715884E-003;
2.421333333333334E+009;1.720506399869919E-001;-5.651930719614029E-002;-2.617844613268971E-003;3.901845309883356E-003;
2.421500000000000E+009;1.708853393793106E-001;-5.845030397176743E-002;-2.628284739330411E-003;4.035394173115492E-003;
2.421666666666667E+009;1.695339381694794E-001;-6.030736491084099E-002;-2.449030289426446E-003;4.263945855200291E-003;
2.421833333333334E+009;1.686071306467056E-001;-6.225425750017166E-002;-2.449868712574244E-003;4.391777794808149E-003;
2.422000000000000E+009;1.674687564373016E-001;-6.407468765974045E-002;-2.320962725207210E-003;4.566238727420569E-003;
2.422166666666667E+009;1.666241288185120E-001;-6.620004028081894E-002;-2.198300790041685E-003;4.553284030407667E-003;
2.422333333333334E+009;1.654787957668304E-001;-6.824679672718048E-002;-2.128120046108961E-003;4.706365056335926E-003;
2.422500000000000E+009;1.649150699377060E-001;-7.025054842233658E-002;-1.917494460940361E-003;4.838134627789259E-003;
2.422666666666667E+009;1.641457378864288E-001;-7.220797985792160E-002;-1.889893668703735E-003;4.893227014690638E-003;
2.422833333333334E+009;1.638952493667603E-001;-7.423020154237747E-002;-1.680974615737796E-003;5.051645450294018E-003;
2.423000000000000E+009;1.631860733032227E-001;-7.642497867345810E-002;-1.594757894054055E-003;5.170195829123259E-003;
2.423166666666667E+009;1.630310714244843E-001;-7.831843942403793E-002;-1.412314944900572E-003;5.080422386527062E-003;
2.423333333333334E+009;1.627409309148789E-001;-8.044857531785965E-002;-1.318978960625827E-003;5.320896860212088E-003;
2.423500000000000E+009;1.626372486352921E-001;-8.206954598426819E-002;-1.068808254785836E-003;5.273959133774042E-003;
2.423666666666667E+009;1.627371907234192E-001;-8.425512164831162E-002;-9.408827754668891E-004;5.524731241166592E-003;
2.423833333333334E+009;1.628405898809433E-001;-8.585323393344879E-002;-7.512970478273928E-004;5.579434800893068E-003;
2.424000000000000E+009;1.628975868225098E-001;-8.777131885290146E-002;-5.669142119586468E-004;5.602996796369553E-003;
2.424166666666667E+009;1.629496216773987E-001;-8.926362544298172E-002;-3.765210276469588E-004;5.680058151483536E-003;
2.424333333333334E+009;1.633218973875046E-001;-9.081375598907471E-002;-2.117463445756584E-004;5.721934139728546E-003;
2.424500000000000E+009;1.635691374540329E-001;-9.265836328268051E-002;8.123591396724805E-005;5.708891432732344E-003;
2.424666666666667E+009;1.639377474784851E-001;-9.401847422122955E-002;3.187649126630276E-004;5.883537698537111E-003;
2.424833333333334E+009;1.645292192697525E-001;-9.527864307165146E-002;7.588634034618735E-004;5.856384057551622E-003;
2.425000000000000E+009;1.647463291883469E-001;-9.657226502895355E-002;9.347270242869854E-004;5.905831232666969E-003;
2.425166666666667E+009;1.652760356664658E-001;-9.768082201480866E-002;1.224050996825099E-003;5.813826806843281E-003;
2.425333333333334E+009;1.656770855188370E-001;-9.867195039987564E-002;1.417903113178909E-003;5.788724869489670E-003;
2.425500000000000E+009;1.660712659358978E-001;-9.956613928079605E-002;1.659739995375276E-003;5.685518495738506E-003;
2.425666666666667E+009;1.664628088474274E-001;-1.003352478146553E-001;1.888421131297946E-003;5.559551995247603E-003;
2.425833333333334E+009;1.667652875185013E-001;-1.011551916599274E-001;2.104965737089515E-003;5.554723553359509E-003;
2.426000000000000E+009;1.671359241008759E-001;-1.016625612974167E-001;2.422154415398836E-003;5.414426792412996E-003;
2.426166666666667E+009;1.675730496644974E-001;-1.020124778151512E-001;2.517694840207696E-003;5.121865309774876E-003;
2.426333333333334E+009;1.677303761243820E-001;-1.025701686739922E-001;2.876438898965716E-003;5.089363083243370E-003;
2.426500000000000E+009;1.681135296821594E-001;-1.027769520878792E-001;2.959983423352242E-003;4.883973859250546E-003;
2.426666666666667E+009;1.683463901281357E-001;-1.030451878905296E-001;2.961919410154223E-003;4.803461953997612E-003;
2.426833333333334E+009;1.686515361070633E-001;-1.034221425652504E-001;3.190176328644157E-003;4.698629025369883E-003;
2.427000000000000E+009;1.684823483228684E-001;-1.036501601338387E-001;3.256777534261346E-003;4.352393094450235E-003;
2.427166666666667E+009;1.686551868915558E-001;-1.036229059100151E-001;3.397540189325810E-003;4.334440454840660E-003;
2.427333333333334E+009;1.684593409299851E-001;-1.038327515125275E-001;3.660406684502959E-003;4.149364773184061E-003;
2.427500000000000E+009;1.682505309581757E-001;-1.039515584707260E-001;3.570633940398693E-003;3.854319918900728E-003;
2.427666666666667E+009;1.678903549909592E-001;-1.040576621890068E-001;3.718386637046933E-003;3.738603089004755E-003;
