# Version 1.00
#
freq[Hz];re:Trc1_S11;im:Trc1_S11;re:Trc2_S21;im:Trc2_S21;
2.400000000000000E+009;1.687595546245575E-001;4.089196398854256E-002;-3.743180073797703E-003;3.288461884949356E-004;
2.400166666666667E+009;1.692018657922745E-001;4.022098705172539E-002;-3.541462821885943E-003;5.713904974982142E-004;
2.400333333333334E+009;1.696489155292511E-001;3.936085850000382E-002;-3.548994893208146E-003;5.824860418215394E-004;
2.400500000000000E+009;1.701899766921997E-001;3.843303397297859E-002;-3.599473740905523E-003;8.620175067335367E-004;
2.400666666666667E+009;1.704533845186234E-001;3.769401833415031E-002;-3.332925727590919E-003;8.939689141698182E-004;
2.400833333333334E+009;1.708029657602310E-001;3.687662631273270E-002;-3.322030184790492E-003;8.978272089734674E-004;
2.401000000000000E+009;1.711677312850952E-001;3.603155538439751E-002;-3.252454102039337E-003;8.669273229315877E-004;
2.401166666666667E+009;1.713936328887940E-001;3.513816371560097E-002;-3.262013895437121E-003;9.021224104799330E-004;
2.401333333333334E+009;1.715480387210846E-001;3.430206328630447E-002;-3.290039487183094E-003;9.840850252658129E-004;
2.401500000000000E+009;1.717644482851028E-001;3.361250832676888E-002;-3.264351980760694E-003;1.022094627842307E-003;
2.401666666666667E+009;1.716565191745758E-001;3.280363231897354E-002;-3.318371484056115E-003;8.849440491758287E-004;
2.401833333333334E+009;1.719035655260086E-001;3.187264129519463E-002;-3.396590938791633E-003;1.001743017695844E-003;
2.402000000000000E+009;1.716284006834030E-001;3.108968399465084E-002;-3.475536825135350E-003;1.087230513803661E-003;
2.402166666666667E+009;1.717610806226730E-001;2.992235496640205E-002;-3.511527553200722E-003;1.105251023545861E-003;
2.402333333333334E+009;1.716867089271545E-001;2.917415462434292E-002;-3.726980416104198E-003;1.420835964381695E-003;
2.402500000000000E+009;1.719576269388199E-001;2.834351547062397E-002;-3.773629665374756E-003;1.405578921549022E-003;
2.402666666666667E+009;1.715486645698547E-001;2.722375467419624E-002;-3.798133926466107E-003;1.741425832733512E-003;
2.402833333333334E+009;1.714977771043778E-001;2.635581046342850E-002;-3.786639543250203E-003;1.831868314184248E-003;
2.403000000000000E+009;1.712895184755325E-001;2.522476203739643E-002;-3.777069272473455E-003;2.155234338715673E-003;
2.403166666666667E+009;1.714522987604141E-001;2.412894740700722E-002;-3.758225357159972E-003;2.479389542713761E-003;
2.403333333333334E+009;1.711622327566147E-001;2.304463461041451E-002;-3.666334552690387E-003;2.524177078157663E-003;
2.403500000000000E+009;1.708610951900482E-001;2.189658582210541E-002;-3.485370660200715E-003;2.833429956808686E-003;
2.403666666666667E+009;1.707800924777985E-001;2.049375325441361E-002;-3.472356591373682E-003;2.988174092024565E-003;
2.403833333333334E+009;1.706432998180389E-001;1.909588649868965E-002;-3.123146947473288E-003;3.137335879728198E-003;
2.404000000000000E+009;1.704756766557694E-001;1.797622814774513E-002;-3.090903861448169E-003;3.267249325290322E-003;
2.404166666666667E+009;1.701720505952835E-001;1.639677025377750E-002;-2.989370608702302E-003;3.360489849001169E-003;
2.404333333333334E+009;1.701560616493225E-001;1.514917053282261E-002;-2.846903400495648E-003;3.760555991902947E-003;
2.404500000000000E+009;1.698927581310272E-001;1.349636260420084E-002;-2.699519507586956E-003;3.671755082905293E-003;
2.404666666666667E+009;1.699104160070419E-001;1.227282825857401E-002;-2.371967304497957E-003;3.782411571592093E-003;
2.404833333333334E+009;1.696596443653107E-001;1.079444680362940E-002;-2.211545594036579E-003;3.932462539523840E-003;
2.405000000000000E+009;1.696977317333221E-001;9.250713512301445E-003;-2.081878948956728E-003;3.919474780559540E-003;
2.405166666666667E+009;1.697056144475937E-001;7.647400256246328E-003;-1.846055500209332E-003;4.053145181387663E-003;
2.405333333333334E+009;1.696934551000595E-001;6.128238514065743E-003;-1.539641525596380E-003;4.011915531009436E-003;
2.405500000000000E+009;1.696745306253433E-001;4.680084530264139E-003;-1.419452601112425E-003;3.821066115051508E-003;
2.405666666666667E+009;1.696013063192368E-001;3.040649695321918E-003;-1.339015550911427E-003;3.934316802769899E-003;
2.405833333333334E+009;1.693301647901535E-001;1.384577946737409E-003;-1.383530790917575E-003;3.868655068799853E-003;
2.406000000000000E+009;1.695353388786316E-001;-4.176617658231407E-004;-1.122235204093158E-003;3.905558027327061E-003;
2.406166666666667E+009;1.693314760923386E-001;-1.863469020463526E-003;-9.807019960135222E-004;3.831526264548302E-003;
2.406333333333334E+009;1.694066673517227E-001;-3.503217594698072E-003;-8.508649189025164E-004;3.803234314545989E-003;
2.406500000000000E+009;1.692200899124146E-001;-5.215212702751160E-003;-8.854839252308011E-004;3.828507149592042E-003;
2.406666666666667E+009;1.690516322851181E-001;-6.704419851303101E-003;-8.346871472895145E-004;3.918858245015144E-003;
2.406833333333334E+009;1.690710335969925E-001;-8.263998664915562E-003;-8.358749910257757E-004;3.750929376110435E-003;
2.407000000000000E+009;1.690888851881027E-001;-9.860724210739136E-003;-5.438873777166009E-004;3.984861541539431E-003;
2.407166666666667E+009;1.689618676900864E-001;-1.117273699492216E-002;-4.702967707999051E-004;3.980689216405153E-003;
2.407333333333334E+009;1.687675565481186E-001;-1.278758607804775E-002;-3.492598189041019E-004;4.077604040503502E-003;
2.407500000000000E+009;1.686062812805176E-001;-1.397078763693571E-002;-2.961321151815355E-004;4.020348191261292E-003;
2.407666666666667E+009;1.684929430484772E-001;-1.519297901540995E-002;-2.986259096360300E-005;4.109721165150404E-003;
2.407833333333334E+009;1.683277338743210E-001;-1.649424247443676E-002;5.386183329392225E-005;4.196377005428076E-003;
2.408000000000000E+009;1.682742983102799E-001;-1.751635596156120E-002;3.394701052457094E-004;4.188934341073036E-003;
2.408166666666667E+009;1.682506948709488E-001;-1.835888065397739E-002;5.570112843997777E-004;4.106517881155014E-003;
2.408333333333334E+009;1.685360968112946E-001;-1.938635669648647E-002;6.896557169966400E-004;4.102837760001421E-003;
2.408500000000000E+009;1.684682071208954E-001;-2.032284811139107E-002;8.676882716827095E-004;4.006755538284779E-003;
2.408666666666667E+009;1.687080562114716E-001;-2.128787711262703E-002;1.082609407603741E-003;4.016878083348274E-003;
2.408833333333334E+009;1.686578691005707E-001;-2.206965163350105E-002;1.276850700378418E-003;3.815434407442808E-003;
2.409000000000000E+009;1.687961667776108E-001;-2.291530184447765E-002;1.180747523903847E-003;3.662702627480030E-003;
2.409166666666667E+009;1.690550595521927E-001;-2.388915419578552E-002;1.446310314349830E-003;3.588229883462191E-003;
2.409333333333334E+009;1.691689789295197E-001;-2.466610819101334E-002;1.475834404118359E-003;3.412163350731134E-003;
2.409500000000000E+009;1.693622916936874E-001;-2.570856735110283E-002;1.424660556949675E-003;3.367205616086721E-003;
2.409666666666667E+009;1.694255769252777E-001;-2.653795108199120E-002;1.572293462231755E-003;3.124445443972945E-003;
2.409833333333334E+009;1.695305854082108E-001;-2.734588272869587E-002;1.622184761799872E-003;3.030876629054546E-003;
2.410000000000000E+009;1.698060631752014E-001;-2.815276570618153E-002;1.605649129487574E-003;2.948488108813763E-003;
2.410166666666667E+009;1.696552038192749E-001;-2.912820316851139E-002;1.662774942815304E-003;2.768167294561863E-003;
2.410333333333334E+009;1.696934401988983E-001;-2.988495118916035E-002;1.518555101938546E-003;2.750027459114790E-003;
2.410500000000000E+009;1.696133464574814E-001;-3.084750100970268E-002;1.599313691258431E-003;2.584111876785755E-003;
2.410666666666667E+009;1.695744395256043E-001;-3.187078237533569E-002;1.584863523021340E-003;2.689318032935262E-003;
2.410833333333334E+009;1.694466024637222E-001;-3.238003328442574E-002;1.483369851484895E-003;2.599546685814858E-003;
2.411000000000000E+009;1.692201793193817E-001;-3.333463147282600E-002;1.420967630110681E-003;2.694263588637114E-003;
2.411166666666667E+009;1.689782589673996E-001;-3.417398035526276E-002;1.437798026017845E-003;2.593392739072442E-003;
2.411333333333334E+009;1.688870489597321E-001;-3.501152992248535E-002;1.527763553895056E-003;2.514030085876584E-003;
2.411500000000000E+009;1.684931367635727E-001;-3.579118847846985E-002;1.566543127410114E-003;2.505221171304584E-003;
2.411666666666667E+009;1.685216575860977E-001;-3.668728470802307E-002;1.663168193772435E-003;2.668610773980618E-003;
2.411833333333334E+009;1.682715564966202E-001;-3.728330880403519E-002;1.467136782594025E-003;2.611449919641018E-003;
2.412000000000000E+009;1.678767502307892E-001;-3.834513947367668E-002;1.722258981317282E-003;2.713589463382959E-003;
2.412166666666667E+009;1.675926595926285E-001;-3.925693407654762E-002;1.669378718361259E-003;2.649533329531550E-003;
2.412333333333334E+009;1.674641072750092E-001;-4.014382883906364E-002;1.848056796006858E-003;2.676450647413731E-003;
2.412500000000000E+009;1.669021248817444E-001;-4.109351709485054E-002;1.877122325822711E-003;2.870149910449982E-003;
2.412666666666667E+009;1.664056330919266E-001;-4.209155216813088E-002;2.060636412352324E-003;2.717315917834640E-003;
2.412833333333334E+009;1.661524027585983E-001;-4.299096763134003E-002;2.276844810694456E-003;2.654779935255647E-003;
2.413000000000000E+009;1.655483245849609E-001;-4.395423457026482E-002;2.279545413330197E-003;2.765002893283963E-003;
2.413166666666667E+009;1.650953441858292E-001;-4.489788785576820E-002;2.339941216632724E-003;2.645929343998432E-003;
2.413333333333334E+009;1.646004915237427E-001;-4.613278061151505E-002;2.682746388018131E-003;2.511027269065380E-003;
2.413500000000000E+009;1.641366034746170E-001;-4.705101251602173E-002;2.619857201352716E-003;2.526585478335619E-003;
2.413666666666667E+009;1.636832505464554E-001;-4.807152599096298E-002;2.863627392798662E-003;2.178660361096263E-003;
2.413833333333334E+009;1.630363315343857E-001;-4.899202287197113E-002;3.029414685443044E-003;2.234649844467640E-003;
2.414000000000000E+009;1.624050736427307E-001;-5.002006515860558E-002;2.954454626888037E-003;2.002696506679058E-003;
2.414166666666667E+009;1.621143221855164E-001;-5.096308887004852E-002;2.973716473206878E-003;1.896340516395867E-003;
2.414333333333334E+009;1.616148799657822E-001;-5.199617147445679E-002;3.065650118514895E-003;1.767555950209498E-003;
2.414500000000000E+009;1.613792032003403E-001;-5.290692299604416E-002;3.015201538801193E-003;1.582009135745466E-003;
2.414666666666667E+009;1.609814465045929E-001;-5.387729406356812E-002;3.077467670664191E-003;1.607776037417352E-003;
2.414833333333334E+009;1.606568396091461E-001;-5.507643520832062E-002;2.997623989358544E-003;1.369141973555088E-003;
2.415000000000000E+009;1.603439152240753E-001;-5.606405436992645E-002;3.104747040197253E-003;1.131901866756380E-003;
2.415166666666667E+009;1.602127701044083E-001;-5.722409486770630E-002;3.148139454424381E-003;1.285704900510609E-003;
2.415333333333334E+009;1.602184176445007E-001;-5.833223834633827E-002;2.994921989738941E-003;9.970359969884157E-004;
2.415500000000000E+009;1.599085777997971E-001;-5.937620624899864E-002;3.025902900844812E-003;8.334005251526833E-004;
2.415666666666667E+009;1.597172915935516E-001;-6.065607815980911E-002;2.944699954241514E-003;7.794717093929648E-004;
2.415833333333334E+009;1.596798151731491E-001;-6.200939789414406E-002;2.752558095380664E-003;8.107882458716631E-004;
2.416000000000000E+009;1.593720316886902E-001;-6.317602097988129E-002;2.757325768470764E-003;6.586207309737802E-004;
2.416166666666667E+009;1.594428122043610E-001;-6.444787234067917E-002;2.613684628158808E-003;6.764411809854209E-004;
2.416333333333334E+009;1.590623408555985E-001;-6.567798554897308E-002;2.537941094487906E-003;7.661346462555230E-004;
2.416500000000000E+009;1.588083058595657E-001;-6.700930744409561E-002;2.435734495520592E-003;7.492738077417016E-004;
2.416666666666667E+009;1.585478633642197E-001;-6.814266741275787E-002;2.521836897358298E-003;7.707551121711731E-004;
2.416833333333334E+009;1.584955006837845E-001;-6.959513574838638E-002;2.550278557464480E-003;8.145057945512235E-004;
2.417000000000000E+009;1.578778922557831E-001;-7.069029659032822E-002;2.585406415164471E-003;8.813370368443430E-004;
2.417166666666667E+009;1.577450931072235E-001;-7.173952460289002E-002;2.611518837511540E-003;8.306604577228427E-004;
2.417333333333334E+009;1.574373692274094E-001;-7.280212640762329E-002;2.661354606971145E-003;8.159211720339954E-004;
2.417500000000000E+009;1.571738570928574E-001;-7.405877113342285E-002;2.736018272116780E-003;8.796691545285285E-004;
2.417666666666667E+009;1.568587720394135E-001;-7.477251440286636E-002;2.849772106856108E-003;8.624394540674985E-004;
2.417833333333334E+009;1.565857231616974E-001;-7.569733262062073E-002;2.864901907742024E-003;9.367470047436655E-004;
2.418000000000000E+009;1.562942117452622E-001;-7.667404413223267E-002;2.816282212734222E-003;6.675508921034634E-004;
2.418166666666667E+009;1.560281366109848E-001;-7.748848199844360E-002;2.984389197081327E-003;6.776109803467989E-004;
2.418333333333334E+009;1.559123694896698E-001;-7.832482457160950E-002;2.862106543034315E-003;6.452733068726957E-004;
2.418500000000000E+009;1.556707918643951E-001;-7.911548763513565E-002;3.058800008147955E-003;7.152161560952663E-004;
2.418666666666667E+009;1.555525660514832E-001;-7.987826317548752E-002;2.990820910781622E-003;5.767422262579203E-004;
2.418833333333334E+009;1.550717502832413E-001;-8.061224222183228E-002;3.213572083041072E-003;5.180721054784954E-004;
2.419000000000000E+009;1.546591073274612E-001;-8.128292858600617E-002;3.279050812125206E-003;6.164120859466493E-004;
2.419166666666667E+009;1.544481664896011E-001;-8.199624717235565E-002;3.252747934311628E-003;4.409736138768494E-004;
2.419333333333334E+009;1.540582478046417E-001;-8.238434791564941E-002;3.382984548807144E-003;4.548456927295774E-004;
2.419500000000000E+009;1.537538468837738E-001;-8.330715447664261E-002;3.407226642593741E-003;3.514886484481394E-004;
2.419666666666667E+009;1.536826044321060E-001;-8.390406519174576E-002;3.449634183198214E-003;3.225854889024049E-004;
2.419833333333334E+009;1.530576199293137E-001;-8.420674502849579E-002;3.424211870878935E-003;2.455699723213911E-004;
2.420000000000000E+009;1.528211832046509E-001;-8.475962281227112E-002;3.679750487208366E-003;6.712458707625046E-005;
2.420166666666667E+009;1.525055319070816E-001;-8.518176525831223E-002;3.651042236015201E-003;4.666533277486451E-005;
2.420333333333334E+009;1.521407365798950E-001;-8.581365644931793E-002;3.819499863311648E-003;4.924578024656512E-005;
2.420500000000000E+009;1.519701182842255E-001;-8.625868707895279E-002;3.903343109413981E-003;-2.881658474507276E-005;
2.420666666666667E+009;1.514963954687119E-001;-8.657430112361908E-002;3.986598923802376E-003;-2.370308357058093E-004;
2.420833333333334E+009;1.510843485593796E-001;-8.727687597274780E-002;4.083263687789440E-003;-4.798412846866995E-004;
2.421000000000000E+009;1.507091522216797E-001;-8.771936595439911E-002;4.217957612127066E-003;-5.995773244649172E-004;
2.421166666666667E+009;1.504755020141602E-001;-8.833192288875580E-002;4.294836893677712E-003;-8.166673942469060E-004;
2.421333333333334E+009;1.499486863613129E-001;-8.897386491298676E-002;4.311719443649054E-003;-9.362975251860917E-004;
2.421500000000000E+009;1.493746042251587E-001;-8.967594802379608E-002;4.428673069924116E-003;-1.177117228507996E-003;
2.421666666666667E+009;1.488457471132278E-001;-9.026650339365006E-002;4.282976500689983E-003;-1.396456384100020E-003;
2.421833333333334E+009;1.483678519725800E-001;-9.102059155702591E-002;4.422872792929411E-003;-1.461471081711352E-003;
2.422000000000000E+009;1.477498859167099E-001;-9.171098470687866E-002;4.339672159403563E-003;-1.657534274272621E-003;
2.422166666666667E+009;1.471734344959259E-001;-9.256304800510407E-002;4.318202845752239E-003;-1.982659799978137E-003;
2.422333333333334E+009;1.464690119028091E-001;-9.322635829448700E-002;4.260201472789049E-003;-2.169075887650251E-003;
2.422500000000000E+009;1.458922624588013E-001;-9.410534799098969E-002;4.160887096077204E-003;-2.397533506155014E-003;
2.422666666666667E+009;1.450861990451813E-001;-9.482993930578232E-002;4.057780373841524E-003;-2.435214584693313E-003;
2.422833333333334E+009;1.445458382368088E-001;-9.569650888442993E-002;3.963130991905928E-003;-2.766507444903255E-003;
2.423000000000000E+009;1.438347250223160E-001;-9.649512916803360E-002;3.914250526577234E-003;-2.923017600551248E-003;
2.423166666666667E+009;1.431802809238434E-001;-9.748861193656921E-002;3.652232000604272E-003;-3.070184029638767E-003;
2.423333333333334E+009;1.424867510795593E-001;-9.808348119258881E-002;3.670230973511934E-003;-3.183128777891398E-003;
2.423500000000000E+009;1.417724937200546E-001;-9.915535151958466E-002;3.482268890365958E-003;-3.368679434061050E-003;
2.423666666666667E+009;1.407331675291061E-001;-1.002645641565323E-001;3.427205374464393E-003;-3.475007135421038E-003;
2.423833333333334E+009;1.403728425502777E-001;-1.012201160192490E-001;3.263572230935097E-003;-3.629535902291536E-003;
2.424000000000000E+009;1.392907351255417E-001;-1.019264236092567E-001;3.019642550498247E-003;-3.813968738541007E-003;
2.424166666666667E+009;1.386745274066925E-001;-1.028959751129150E-001;2.940246835350990E-003;-4.122513812035322E-003;
2.424333333333334E+009;1.381053179502487E-001;-1.038321703672409E-001;2.609155140817165E-003;-4.147478379309177E-003;
2.424500000000000E+009;1.373741626739502E-001;-1.049052178859711E-001;2.432629698887467E-003;-4.265657626092434E-003;
2.424666666666667E+009;1.368358582258225E-001;-1.057072132825851E-001;2.312007127329707E-003;-4.330740775913000E-003;
2.424833333333334E+009;1.362278908491135E-001;-1.067293137311935E-001;2.056062221527100E-003;-4.317342769354582E-003;
2.425000000000000E+009;1.356737762689591E-001;-1.077879294753075E-001;1.914526103064418E-003;-4.495583940297365E-003;
2.425166666666667E+009;1.348092406988144E-001;-1.087982803583145E-001;1.563680591061711E-003;-4.382114391773939E-003;
2.425333333333334E+009;1.343918889760971E-001;-1.097881123423576E-001;1.317699090577662E-003;-4.464771132916212E-003;
2.425500000000000E+009;1.339236199855804E-001;-1.108838468790054E-001;1.121655572205782E-003;-4.430493339896202E-003;
2.425666666666667E+009;1.333848834037781E-001;-1.119635254144669E-001;1.053295563906431E-003;-4.476807545870543E-003;
2.425833333333334E+009;1.329119205474854E-001;-1.130004227161408E-001;1.045136596076191E-003;-4.419052507728338E-003;
2.426000000000000E+009;1.324157416820526E-001;-1.139617040753365E-001;7.770599331706762E-004;-4.357091151177883E-003;
2.426166666666667E+009;1.321113705635071E-001;-1.150102689862251E-001;5.434704362414777E-004;-4.362912848591805E-003;
2.426333333333334E+009;1.316018998622894E-001;-1.160175800323486E-001;4.793811822310090E-004;-4.231577273458242E-003;
2.426500000000000E+009;1.312518715858460E-001;-1.169231310486794E-001;3.240810765419155E-004;-4.222421441227198E-003;
2.426666666666667E+009;1.310029923915863E-001;-1.177857071161270E-001;2.188163343816996E-004;-4.282372072339058E-003;
2.426833333333334E+009;1.305310577154160E-001;-1.186848580837250E-001;-7.602671303175157E-006;-4.083814099431038E-003;
2.427000000000000E+009;1.300675570964813E-001;-1.195767521858215E-001;-2.120808931067586E-004;-4.141794983297586E-003;
2.427166666666667E+009;1.298545598983765E-001;-1.203067526221275E-001;-2.722739882301539E-004;-4.033850040286779E-003;
2.427333333333334E+009;1.293812245130539E-001;-1.211039945483208E-001;-4.675551026593894E-004;-4.052392207086086E-003;
2.427500000000000E+009;1.292399764060974E-001;-1.218193769454956E-001;-5.651816027238965E-004;-4.049764946103096E-003;
2.427666666666667E+009;1.288661211729050E-001;-1.225978434085846E-001;-7.687335601076484E-004;-3.973804879933596E-003;
2.427833333333334E+009;1.286956220865250E-001;-1.232695430517197E-001;-8.586826152168214E-004;-3.938982728868723E-003;
