# Hz S RI R 50
2400000000.0000000000 0.172668129205703707595986884371 0.048894215375185012817382812500 0.003368934616446495056152343750 0.002485404489561914963963173975 0 0 0 0 
2400166666.6666665077 0.173389807343482998946981865629 0.048220045864582061767578125000 0.003468433395028113885166787256 0.002196017885580658912658691406 0 0 0 0 
2400333333.3333334923 0.173912614583969088455361884371 0.047263547778129577636718750000 0.003779347520321608023402548682 0.002075768541544675827026367188 0 0 0 0 
2400500000.0000000000 0.174240678548812893966513115629 0.046655718237161643291432966407 0.003849277505651115937473916162 0.001867505954578519084333110278 0 0 0 0 
2400666666.6666665077 0.174621537327766390701455634371 0.045823913067579269409179687500 0.003991524688899517059326171875 0.001718754996545613028882670825 0 0 0 0 
2400833333.3333334923 0.174997925758361788650674384371 0.045321200042963027954101562500 0.004100074525922536849975585938 0.001670926925726234912872314453 0 0 0 0 
2401000000.0000000000 0.175205767154693603515625000000 0.044694088399410247802734375000 0.004183139652013778686523437500 0.001470896764658391909358359229 0 0 0 0 
2401166666.6666665077 0.175411030650138910491619981258 0.043909773230552673339843750000 0.004221313167363405227661132812 0.001384644769132137081743549878 0 0 0 0 
2401333333.3333334923 0.175415575504303006271200615629 0.043419189751148216938059221093 0.004400209523737430572509765625 0.001239714678376913070678710938 0 0 0 0 
2401500000.0000000000 0.175524607300758389571981865629 0.042585365474224090576171875000 0.004376829601824283599853515625 0.000871301686856895685195922852 0 0 0 0 
2401666666.6666665077 0.175425916910171508789062500000 0.042132388800382607196848283593 0.004506954923272132873535156250 0.000708752078935503959655761719 0 0 0 0 
2401833333.3333334923 0.175513297319412203689736884371 0.041291579604148871684987653907 0.004570825956761837005615234375 0.000697153853252530097961425781 0 0 0 0 
2402000000.0000000000 0.175347715616226196289062500000 0.040372308343648910522460937500 0.004564079921692609786987304688 0.000414746347814798409312647687 0 0 0 0 
2402166666.6666665077 0.175134763121604891678018134371 0.039431545883417129516601562500 0.004707418382167816162109375000 0.000242041132878512089878636493 0 0 0 0 
2402333333.3333334923 0.174986049532890292068643134371 0.038629025220870971679687500000 0.004722536075860261917114257812 -0.000136399117764085504129686899 0 0 0 0 
2402500000.0000000000 0.174770981073379488845986884371 0.037643734365701682353932966407 0.004604393616318702697753906250 -0.000268104631686583215564173566 0 0 0 0 
2402666666.6666665077 0.174617663025855990310830634371 0.036566767841577529907226562500 0.004688220564275979995727539062 -0.000389513210393488407135009766 0 0 0 0 
2402833333.3333334923 0.174314901232719393631143134371 0.035480488091707229614257812500 0.004673102870583534240722656250 -0.000570699921809136867523193359 0 0 0 0 
2403000000.0000000000 0.174076855182647705078125000000 0.034281194210052490234375000000 0.004728636704385280609130859375 -0.000815865758340805768966674805 0 0 0 0 
2403166666.6666665077 0.173757508397102411468182481258 0.033012464642524719238281250000 0.004744734615087509155273437500 -0.001061328453943132920506142725 0 0 0 0 
2403333333.3333334923 0.173479020595550509353799384371 0.031771752983331680297851562500 0.004737229086458683013916015625 -0.001251942245289682908299111475 0 0 0 0 
2403500000.0000000000 0.172860264778137207031250000000 0.030231393873691558837890625000 0.004590619821101427078247070312 -0.001315474510192871093750000000 0 0 0 0 
2403666666.6666665077 0.172638878226280212402343750000 0.028694026172161098825474923046 0.004672707524150609970092773438 -0.001494073774665594100952148438 0 0 0 0 
2403833333.3333334923 0.172309473156928988357705634371 0.026976369321346279489537423046 0.004731585737317801389212323926 -0.001824670820496975941898964990 0 0 0 0 
2404000000.0000000000 0.172022774815559387207031250000 0.025578156113624569284459298046 0.004591885022819042205810546875 -0.002030092058703302903416298975 0 0 0 0 
2404166666.6666665077 0.171516388654708890060263115629 0.023461075499653819692591483204 0.004479344934225082397460937500 -0.002274758648127316994907998193 0 0 0 0 
2404333333.3333334923 0.171227887272834805587606865629 0.021827794611454010009765625000 0.004385825712233781814575195312 -0.002423575613647698922398232568 0 0 0 0 
2404500000.0000000000 0.170766815543174688141192518742 0.019927652552723891521413435157 0.004302052780985832214355468750 -0.002574207261204719977137900244 0 0 0 0 
2404666666.6666665077 0.170599609613418606857138115629 0.018201965838670730590820312500 0.004278948064893484115600585938 -0.002966253086924552917480468750 0 0 0 0 
2404833333.3333334923 0.170356720685958890060263115629 0.016281781718134880065917968750 0.003997955471277236938476562500 -0.003221907885745168165919638525 0 0 0 0 
2405000000.0000000000 0.170248508453369112869424384371 0.014204625971615309279472150195 0.003983545117080211639404296875 -0.003272643079981207847595214844 0 0 0 0 
2405166666.6666665077 0.170133277773857088943643134371 0.012175857089459899557093436329 0.003775478340685368017909384619 -0.003505500266328454017639160156 0 0 0 0 
2405333333.3333334923 0.170025557279586791992187500000 0.010033565573394300288190272852 0.003776527475565671920776367188 -0.003575131529942154884338378906 0 0 0 0 
2405500000.0000000000 0.170176699757575988769531250000 0.008239579387009143829345703125 0.003453382989391684965846396338 -0.003905042773112655119654990088 0 0 0 0 
2405666666.6666665077 0.170216366648674011230468750000 0.006309888325631619367117597363 0.003130719996988772912266396631 -0.003864537924528121948242187500 0 0 0 0 
2405833333.3333334923 0.170228883624076787750567518742 0.004321065731346607208251953125 0.003100942587479948997497558594 -0.004158237483352422714233398438 0 0 0 0 
2406000000.0000000000 0.170600757002830505371093750000 0.002112374175339937210083007812 0.002888537943363190130946493994 -0.004187980201095342636108398438 0 0 0 0 
2406166666.6666665077 0.170708402991294888595419365629 0.000321602128678932785987854004 0.002591899130493402914759970557 -0.004348176997154951095581054688 0 0 0 0 
2406333333.3333334923 0.171275973320007296463174384371 -0.001790827489458024935481406104 0.002457079477608203887939453125 -0.004452018998563289642333984375 0 0 0 0 
2406500000.0000000000 0.171671539545059204101562500000 -0.003821108955889939828159951318 0.002145572332665324211120605469 -0.004480434581637383374685956738 0 0 0 0 
2406666666.6666665077 0.172067552804946899414062500000 -0.005704991985112428665161132812 0.001942532137036323981044150244 -0.004560069646686316403860761426 0 0 0 0 
2406833333.3333334923 0.172650888562202509124432481258 -0.007786642760038375854492187500 0.001757210004143417098401713794 -0.004481914453208447370047284863 0 0 0 0 
2407000000.0000000000 0.173389300704002408126669365629 -0.009715414606034755706787109375 0.001685261726379394964930868994 -0.004538847133517265319824218750 0 0 0 0 
2407166666.6666665077 0.174138322472572298904580634371 -0.011464039795100690669049647852 0.001166307134553790092468261719 -0.004579042084515094757080078125 0 0 0 0 
2407333333.3333334923 0.174639940261840792556924384371 -0.013411063700914379465123360546 0.000902101048268377780914306641 -0.004588606767356395721435546875 0 0 0 0 
2407500000.0000000000 0.175254806876182611663494981258 -0.015244775451719759160051914648 0.000680323806591331958770751953 -0.004653258249163627624511718750 0 0 0 0 
2407666666.6666665077 0.176156163215637207031250000000 -0.016937140375375751150111014454 0.000636821729131042957305908203 -0.004610935691744089126586914062 0 0 0 0 
2407833333.3333334923 0.176801055669784601409588731258 -0.018607581034302711486816406250 0.000568074872717261314392089844 -0.004409484565258026123046875000 0 0 0 0 
2408000000.0000000000 0.177623033523559598068075615629 -0.020418753847479820251464843750 0.000118858661153353804915827618 -0.004445534199476242065429687500 0 0 0 0 
2408166666.6666665077 0.178235039114952087402343750000 -0.021889833733439448965052420704 -0.000167739053722470998764038086 -0.004421006422489882382864667676 0 0 0 0 
2408333333.3333334923 0.179126456379890386383380018742 -0.023452116176486018789271170704 -0.000213813284062780412748613901 -0.004143305588513612747192382812 0 0 0 0 
2408500000.0000000000 0.179518610239028902908486884371 -0.024947989732027050363560860546 -0.000209382109460420906543731689 -0.004079348873347043991088867188 0 0 0 0 
2408666666.6666665077 0.180282533168792696853799384371 -0.026243725791573521005650704296 -0.000473306805361062288284301758 -0.003957916982471942901611328125 0 0 0 0 
2408833333.3333334923 0.180538520216941805740518134371 -0.027374494820833209646204764454 -0.000732216867618262767791748047 -0.003960099536925554275512695312 0 0 0 0 
2409000000.0000000000 0.180970966815948486328125000000 -0.028470799326896670949915701954 -0.000676997005939483642578125000 -0.003870613174512981934788369287 0 0 0 0 
2409166666.6666665077 0.181510224938392611404580634371 -0.029541736468672748910924141796 -0.000858874351251870393753051758 -0.003755333600565791130065917969 0 0 0 0 
2409333333.3333334923 0.181991234421730013748330634371 -0.030458493158221248281458670704 -0.000661180703900754451751708984 -0.003661072580143808884861611475 0 0 0 0 
2409500000.0000000000 0.182302623987197903732138115629 -0.031279638409614562988281250000 -0.000859993044286966323852539062 -0.003513267030939459800720214844 0 0 0 0 
2409666666.6666665077 0.182617306709289606292401231258 -0.031853642314672470092773437500 -0.000862534157931804656982421875 -0.003574178786948322816136025537 0 0 0 0 
2409833333.3333334923 0.182781100273132296463174384371 -0.032314043492078781127929687500 -0.000976546783931553363800048828 -0.003356057917699217796325683594 0 0 0 0 
2410000000.0000000000 0.183078661561012295821981865629 -0.032929662615060813213307966407 -0.000998565810732543468475341797 -0.003289177082479000091552734375 0 0 0 0 
2410166666.6666665077 0.183228209614753695388955634371 -0.033370267599821090698242187500 -0.001112598925828933932660746997 -0.003128606360405683951136923682 0 0 0 0 
2410333333.3333334923 0.183219566941261291503906250000 -0.033843707293272018432617187500 -0.001104065217077732086181640625 -0.003141160821542143821716308594 0 0 0 0 
2410500000.0000000000 0.183374136686325100997763115629 -0.034114897251129150390625000000 -0.001042962772771715901018452222 -0.003215445205569266839268349756 0 0 0 0 
2410666666.6666665077 0.183200106024742098709268134371 -0.034569479525089256977121721093 -0.001110258628614247062085795825 -0.003086913144215940995457314600 0 0 0 0 
2410833333.3333334923 0.183274775743484497070312500000 -0.034839246422052383422851562500 -0.001202078303322196006774902344 -0.003027924336493014855625771631 0 0 0 0 
2411000000.0000000000 0.183048009872436495681924384371 -0.035106681287288672710378278907 -0.001241150661371648094774555737 -0.002984772901982069015502929688 0 0 0 0 
2411166666.6666665077 0.182808056473731994628906250000 -0.035615604370832443237304687500 -0.001288361498154700019239116138 -0.002984964055940508842468261719 0 0 0 0 
2411333333.3333334923 0.182370349764823913574218750000 -0.035788010805845260620117187500 -0.001033427659422158978105854565 -0.002963236067444086074829101562 0 0 0 0 
2411500000.0000000000 0.181904003024101312835369981258 -0.036182869225740432739257812500 -0.001352525549009441895725869287 -0.002955419011414051055908203125 0 0 0 0 
2411666666.6666665077 0.181472823023796109298544365629 -0.036510277539491653442382812500 -0.001198643120005727031110454028 -0.002902613719925283952000283350 0 0 0 0 
2411833333.3333334923 0.180867627263069208343182481258 -0.036879155784845352172851562500 -0.001391258207149804072139120947 -0.002902580890804529190063476562 0 0 0 0 
2412000000.0000000000 0.179966077208519009689169365629 -0.037415426224470138549804687500 -0.001265498111024498939514160156 -0.002837486332282423973083496094 0 0 0 0 
2412166666.6666665077 0.179069146513938903808593750000 -0.037852678447961807250976562500 -0.001280323951505125002620077979 -0.003038824535906314849853515625 0 0 0 0 
2412333333.3333334923 0.178628087043762207031250000000 -0.038145959377288818359375000000 -0.001465131645090878009796142578 -0.002931111957877873940708779443 0 0 0 0 
2412500000.0000000000 0.177450954914092989822549384371 -0.038700416684150702739675153907 -0.001462420448660850958583212744 -0.002850813092663884162902832031 0 0 0 0 
2412666666.6666665077 0.176438793540000887771768134371 -0.039633896201848976825754533593 -0.001495482749305665926692343604 -0.002806351520121097998378134619 0 0 0 0 
2412833333.3333334923 0.175420865416526794433593750000 -0.040126580744981772685964216407 -0.001650258083827794031855917822 -0.002855225699022411866428994287 0 0 0 0 
2413000000.0000000000 0.174049228429794311523437500000 -0.040871527045965201641042341407 -0.001510049798525870063184428638 -0.002861204091459513144252158057 0 0 0 0 
2413166666.6666665077 0.172696128487587002853231865629 -0.041592743247747421264648437500 -0.001765687484294176101684570312 -0.003001247532665729956385947119 0 0 0 0 
2413333333.3333334923 0.171443700790405301193075615629 -0.042491469532251358032226562500 -0.001665248651988803906681679834 -0.003011123510077596144435263525 0 0 0 0 
2413500000.0000000000 0.170269653201103210449218750000 -0.043411392718553543090820312500 -0.001856672461144625923754047925 -0.003033817047253251075744628906 0 0 0 0 
2413666666.6666665077 0.169042736291885403732138115629 -0.044509842991828918457031250000 -0.001961207250133157210109091650 -0.002899836283177136941197060693 0 0 0 0 
2413833333.3333334923 0.167656749486923190017861884371 -0.045650973916053771972656250000 -0.002059335587546228928806923975 -0.002951554954051971001866006006 0 0 0 0 
2414000000.0000000000 0.166227966547012301345986884371 -0.046778135001659393310546875000 -0.001990966498851776123046875000 -0.002851711120456457138061523438 0 0 0 0 
2414166666.6666665077 0.165249556303024291992187500000 -0.048008110374212271953542341407 -0.002008410869166254997253417969 -0.002980615245178341865539550781 0 0 0 0 
2414333333.3333334923 0.164076447486877413650674384371 -0.049429517239332199096679687500 -0.002219188027083874182460165869 -0.002917458303272724151611328125 0 0 0 0 
2414500000.0000000000 0.162913620471954401214276231258 -0.050661019980907440185546875000 -0.002320562722161411805393838037 -0.002882976783439517021179199219 0 0 0 0 
2414666666.6666665077 0.161711081862449701507244981258 -0.052150167524814612651784528907 -0.002379188779741526083705283057 -0.002875341800972818894627236475 0 0 0 0 
2414833333.3333334923 0.160650804638862609863281250000 -0.053902167826890952373464216407 -0.002489640144631267027613974463 -0.002902092412114142937901162256 0 0 0 0 
2415000000.0000000000 0.159352898597717312911825615629 -0.055353045463562011718750000000 -0.002562996931374073028564453125 -0.002889791503548622131347656250 0 0 0 0 
2415166666.6666665077 0.158562406897544888595419365629 -0.057073581963777542114257812500 -0.002696065464988350868225097656 -0.002835462335497140884399414062 0 0 0 0 
2415333333.3333334923 0.157726034522056607345419365629 -0.058787137269973761821706403907 -0.003000563476234674887416220557 -0.002921669045463203950169228662 0 0 0 0 
2415500000.0000000000 0.156869903206825311858807481258 -0.060714695602655410766601562500 -0.002977065742015839056727743994 -0.002841857261955738067626953125 0 0 0 0 
2415666666.6666665077 0.156132325530052212814169365629 -0.062356747686862952495534528907 -0.003248411696404219107386923682 -0.002754669403657317161560058594 0 0 0 0 
2415833333.3333334923 0.155427247285842895507812500000 -0.064435832202434539794921875000 -0.003344072261825203895568847656 -0.002692406997084618048426962744 0 0 0 0 
2416000000.0000000000 0.154634445905685397049111884371 -0.066349260509014129638671875000 -0.003404722083359957175013876807 -0.002640328835695981979370117188 0 0 0 0 
2416166666.6666665077 0.154295906424522399902343750000 -0.068392828106880187988281250000 -0.003651467384770513014552451025 -0.002664506668224931196925497900 0 0 0 0 
2416333333.3333334923 0.153759062290191705901776231258 -0.070305228233337402343750000000 -0.003783076303079723878147744287 -0.002318839542567729949951171875 0 0 0 0 
2416500000.0000000000 0.153137758374214200118856865629 -0.072327598929405212402343750000 -0.003872982924804091887233115088 -0.002265244256705046133754111182 0 0 0 0 
2416666666.6666665077 0.152741611003875704666299384371 -0.074230477213859558105468750000 -0.004033573903143405914306640625 -0.001978842308744788169860839844 0 0 0 0 
2416833333.3333334923 0.152606248855590792556924384371 -0.076314970850944519042968750000 -0.004109249915927649411673261426 -0.001913623767904937050463032300 0 0 0 0 
2417000000.0000000000 0.152090132236480712890625000000 -0.078161492943763732910156250000 -0.004308410454541444778442382812 -0.001784284831956028938293457031 0 0 0 0 
2417166666.6666665077 0.152070552110671997070312500000 -0.079907730221748352050781250000 -0.004169624764472246170043945312 -0.001510925823822617964503622900 0 0 0 0 
2417333333.3333334923 0.151914224028587313553018134371 -0.081646956503391265869140625000 -0.004395807161927223205566406250 -0.001327762380242347934125590747 0 0 0 0 
2417500000.0000000000 0.151774078607559204101562500000 -0.083559796214103698730468750000 -0.004492966458201408386230468750 -0.001251140027306973934173583984 0 0 0 0 
2417666666.6666665077 0.151773750782012911697549384371 -0.085025094449520111083984375000 -0.004496606998145580291748046875 -0.001128008821979165077209472656 0 0 0 0 
2417833333.3333334923 0.151696935296058710296307481258 -0.086610905826091766357421875000 -0.004557234700769186019897460938 -0.000769194506574422121047973633 0 0 0 0 
2418000000.0000000000 0.151834875345230102539062500000 -0.088179916143417358398437500000 -0.004486440680921077728271484375 -0.000609240436460822820663452148 0 0 0 0 
2418166666.6666665077 0.151842176914215087890625000000 -0.089323952794075012207031250000 -0.004488236270844936370849609375 -0.000363103754352778196334838867 0 0 0 0 
2418333333.3333334923 0.152239903807640103439169365629 -0.090758383274078369140625000000 -0.004597642458975315093994140625 -0.000291737640509381890296936035 0 0 0 0 
2418500000.0000000000 0.152307495474815396407919365629 -0.091972619295120239257812500000 -0.004492285661399365338797284863 -0.000165707606356591013356885367 0 0 0 0 
2418666666.6666665077 0.152539297938346890548544365629 -0.093142911791801452636718750000 -0.004431295674294233322143554688 0.000078849770943634212017059326 0 0 0 0 
2418833333.3333334923 0.152541413903236389160156250000 -0.094108939170837402343750000000 -0.004435994196683168411254882812 0.000138523129862733212396344595 0 0 0 0 
2419000000.0000000000 0.152692511677742004394531250000 -0.094769440591335296630859375000 -0.004547867458313704404349042676 0.000259035208728164380222874774 0 0 0 0 
2419166666.6666665077 0.152980655431747408767861884371 -0.095576569437980651855468750000 -0.004350504372268915176391601562 0.000568346004001796353995168420 0 0 0 0 
2419333333.3333334923 0.153022408485412597656250000000 -0.095867015421390533447265625000 -0.004365976434201002120971679688 0.000534647027961909770965576172 0 0 0 0 
2419500000.0000000000 0.153163984417915288727130018742 -0.096537105739116668701171875000 -0.004288804717361927032470703125 0.000655908661428838968276977539 0 0 0 0 
2419666666.6666665077 0.153593242168426513671875000000 -0.097051016986370086669921875000 -0.004120026249438524246215820312 0.000836449384223669767379760742 0 0 0 0 
2419833333.3333334923 0.153660997748374911209268134371 -0.097215645015239715576171875000 -0.004194971174001693725585937500 0.000936056021600961685180664062 0 0 0 0 
