# Version 1.00
#
freq[Hz];re:Trc1_S11;im:Trc1_S11;re:Trc2_S21;im:Trc2_S21;
2.400000000000000E+009;1.733221411705017E-001;4.913122579455376E-002;4.391235765069723E-003;5.419441964477301E-003;
2.400166666666667E+009;1.739469319581986E-001;4.878832399845123E-002;4.719493910670281E-003;5.128147546201944E-003;
2.400333333333334E+009;1.741644740104675E-001;4.774962738156319E-002;4.898917395621538E-003;5.029884632676840E-003;
2.400500000000000E+009;1.747377663850784E-001;4.729757085442543E-002;5.097589921206236E-003;4.919792059808970E-003;
2.400666666666667E+009;1.748289912939072E-001;4.650755226612091E-002;5.364347714930773E-003;4.732586443424225E-003;
2.400833333333334E+009;1.751760840415955E-001;4.607861861586571E-002;5.397413857281208E-003;4.677195101976395E-003;
2.401000000000000E+009;1.752914935350418E-001;4.530095309019089E-002;5.780597217381001E-003;4.542656708508730E-003;
2.401166666666667E+009;1.756337434053421E-001;4.446996748447418E-002;5.878042429685593E-003;4.400025121867657E-003;
2.401333333333334E+009;1.756271570920944E-001;4.386643692851067E-002;6.233313586562872E-003;4.295012447983027E-003;
2.401500000000000E+009;1.753726154565811E-001;4.362257942557335E-002;5.978331435471773E-003;3.428129944950342E-003;
2.401666666666667E+009;1.753834933042526E-001;4.248597100377083E-002;6.812464445829392E-003;3.524251515045762E-003;
2.401833333333334E+009;1.751135438680649E-001;4.128808155655861E-002;7.185735274106264E-003;3.204983426257968E-003;
2.402000000000000E+009;1.753561198711395E-001;4.073861613869667E-002;7.066609337925911E-003;3.321882570162416E-003;
2.402166666666667E+009;1.750579476356506E-001;4.074487090110779E-002;6.396953016519547E-003;2.643387997522950E-003;
2.402333333333334E+009;1.751232892274857E-001;3.920585662126541E-002;7.060773205012083E-003;2.786196768283844E-003;
2.402500000000000E+009;1.741508394479752E-001;3.757812082767487E-002;8.041902445256710E-003;1.849424792453647E-003;
2.402666666666667E+009;1.739400327205658E-001;3.738598152995110E-002;7.296427618712187E-003;1.443423680029810E-003;
2.402833333333334E+009;1.741469204425812E-001;3.567646071314812E-002;7.574667688459158E-003;1.487597241066396E-003;
2.403000000000000E+009;1.732598990201950E-001;3.382262587547302E-002;8.433483541011810E-003;1.146188122220337E-003;
2.403166666666667E+009;1.731402128934860E-001;3.312508761882782E-002;7.981791161000729E-003;7.063861121423543E-004;
2.403333333333334E+009;1.743262559175491E-001;3.197313472628593E-002;7.324473001062870E-003;1.007632468827069E-003;
2.403500000000000E+009;1.735998243093491E-001;3.056431375443935E-002;7.456025574356318E-003;9.307739092037082E-004;
2.403666666666667E+009;1.724910438060761E-001;2.823234163224697E-002;8.126829750835896E-003;1.136201390181668E-004;
2.403833333333334E+009;1.725070625543594E-001;2.672120369970799E-002;7.888696156442165E-003;-1.831608678912744E-004;
2.404000000000000E+009;1.714068949222565E-001;2.433502487838268E-002;8.338436484336853E-003;-6.807866157032549E-004;
2.404166666666667E+009;1.720076054334641E-001;2.378943935036659E-002;7.439346052706242E-003;-7.306396146304905E-004;
2.404333333333334E+009;1.709986329078674E-001;2.181396447122097E-002;7.543981540948153E-003;-1.480430946685374E-003;
2.404500000000000E+009;1.715198010206223E-001;1.847104355692864E-002;8.070696145296097E-003;-1.237050979398191E-003;
2.404666666666667E+009;1.703783124685288E-001;1.742978207767010E-002;7.648352533578873E-003;-2.043284475803375E-003;
2.404833333333334E+009;1.702116131782532E-001;1.554006803780794E-002;7.342919707298279E-003;-2.435741946101189E-003;
2.405000000000000E+009;1.700729727745056E-001;1.344474963843823E-002;7.222143001854420E-003;-2.668830798938870E-003;
2.405166666666667E+009;1.699507385492325E-001;1.162868551909924E-002;7.098785135895014E-003;-2.909129485487938E-003;
2.405333333333334E+009;1.700775772333145E-001;9.402552619576454E-003;6.853128317743540E-003;-3.107867436483502E-003;
2.405500000000000E+009;1.700040549039841E-001;7.564633153378964E-003;6.779344286769629E-003;-3.422318957746029E-003;
2.405666666666667E+009;1.702132225036621E-001;5.386246368288994E-003;6.519606336951256E-003;-3.521742532029748E-003;
2.405833333333334E+009;1.702141761779785E-001;3.569309832528234E-003;6.410396192222834E-003;-3.746923757717013E-003;
2.406000000000000E+009;1.706370860338211E-001;1.448416500352323E-003;6.152055691927671E-003;-3.982620313763619E-003;
2.406166666666667E+009;1.708967834711075E-001;-4.999541561119258E-004;6.027415394783020E-003;-4.112727940082550E-003;
2.406333333333334E+009;1.714573800563812E-001;-2.367613837122917E-003;5.845360923558474E-003;-4.360283259302378E-003;
2.406500000000000E+009;1.718796193599701E-001;-4.454508423805237E-003;5.775799043476582E-003;-4.602815024554730E-003;
2.406666666666667E+009;1.720858961343765E-001;-6.348933093249798E-003;5.511397030204535E-003;-4.704622551798821E-003;
2.406833333333334E+009;1.729980260133743E-001;-8.395731449127197E-003;5.334873683750629E-003;-4.848639946430922E-003;
2.407000000000000E+009;1.736595630645752E-001;-1.032077055424452E-002;5.389751400798559E-003;-5.212679505348206E-003;
2.407166666666667E+009;1.744257956743240E-001;-1.189698092639446E-002;5.019506439566612E-003;-5.243028979748488E-003;
2.407333333333334E+009;1.749538630247116E-001;-1.393282879143953E-002;5.052987951785326E-003;-5.322193726897240E-003;
2.407500000000000E+009;1.757123619318008E-001;-1.557189319282770E-002;4.678179509937763E-003;-5.469368770718575E-003;
2.407666666666667E+009;1.765395402908325E-001;-1.719423383474350E-002;4.611464682966471E-003;-5.750909913331270E-003;
2.407833333333334E+009;1.772947907447815E-001;-1.905027590692043E-002;4.398840945214033E-003;-5.847011692821980E-003;
2.408000000000000E+009;1.780469417572022E-001;-2.047969214618206E-002;4.153265617787838E-003;-6.202560849487782E-003;
2.408166666666667E+009;1.787485331296921E-001;-2.203162387013435E-002;3.924162592738867E-003;-6.370763294398785E-003;
2.408333333333334E+009;1.796818226575851E-001;-2.346449904143810E-002;3.607237478718162E-003;-6.549546029418707E-003;
2.408500000000000E+009;1.801687926054001E-001;-2.497561648488045E-002;3.358765970915556E-003;-6.706213112920523E-003;
2.408666666666667E+009;1.808683872222900E-001;-2.624377049505711E-002;3.034966066479683E-003;-6.973051466047764E-003;
2.408833333333334E+009;1.813673824071884E-001;-2.741947956383228E-002;2.637266879901290E-003;-7.127052638679743E-003;
2.409000000000000E+009;1.817095577716827E-001;-2.838072180747986E-002;2.315948484465480E-003;-7.172810845077038E-003;
2.409166666666667E+009;1.821527034044266E-001;-2.950017526745796E-002;1.934653613716364E-003;-7.251352071762085E-003;
2.409333333333334E+009;1.827145218849182E-001;-3.033113107085228E-002;1.581723568961024E-003;-7.309235166758299E-003;
2.409500000000000E+009;1.829561591148377E-001;-3.108112141489983E-002;1.296455506235361E-003;-7.261887658387423E-003;
2.409666666666667E+009;1.831562370061874E-001;-3.181073814630508E-002;9.558980236761272E-004;-7.298725191503763E-003;
2.409833333333334E+009;1.833864152431488E-001;-3.224018961191177E-002;6.364635773934424E-004;-7.261818740516901E-003;
2.410000000000000E+009;1.835994571447372E-001;-3.263985365629196E-002;4.240274138282985E-004;-7.287909276783466E-003;
2.410166666666667E+009;1.836037486791611E-001;-3.310238569974899E-002;5.834209514432587E-005;-7.082409225404263E-003;
2.410333333333334E+009;1.837250441312790E-001;-3.362349420785904E-002;-3.666236007120460E-004;-7.174323312938213E-003;
2.410500000000000E+009;1.839093714952469E-001;-3.387159481644630E-002;-6.642466760240495E-004;-6.985540036112070E-003;
2.410666666666667E+009;1.835603564977646E-001;-3.433024510741234E-002;-8.986401953734458E-004;-7.055383175611496E-003;
2.410833333333334E+009;1.834743618965149E-001;-3.444545716047287E-002;-1.187596470117569E-003;-7.038612850010395E-003;
2.411000000000000E+009;1.831710785627365E-001;-3.473413735628128E-002;-1.403574948199093E-003;-6.604602094739676E-003;
2.411166666666667E+009;1.828489303588867E-001;-3.510321676731110E-002;-1.749112620018423E-003;-6.702728103846312E-003;
2.411333333333334E+009;1.824146211147308E-001;-3.538185358047485E-002;-1.931458245962858E-003;-6.435870658606291E-003;
2.411500000000000E+009;1.819279789924622E-001;-3.591926395893097E-002;-2.236062660813332E-003;-6.538243032991886E-003;
2.411666666666667E+009;1.814028620719910E-001;-3.618947416543961E-002;-2.457210561260581E-003;-6.313169375061989E-003;
2.411833333333334E+009;1.806913763284683E-001;-3.636277839541435E-002;-2.883858513087034E-003;-6.043852306902409E-003;
2.412000000000000E+009;1.799123138189316E-001;-3.696552291512489E-002;-3.128722310066223E-003;-5.979991983622313E-003;
2.412166666666667E+009;1.790033131837845E-001;-3.751849010586739E-002;-3.345492761582136E-003;-5.730547942221165E-003;
2.412333333333334E+009;1.781013906002045E-001;-3.801757097244263E-002;-3.692449070513248E-003;-5.572321824729443E-003;
2.412500000000000E+009;1.770927459001541E-001;-3.845900297164917E-002;-4.026047885417938E-003;-5.424284376204014E-003;
2.412666666666667E+009;1.760321110486984E-001;-3.937288001179695E-002;-4.024306312203407E-003;-4.901506938040257E-003;
2.412833333333334E+009;1.748862564563751E-001;-4.003863409161568E-002;-4.048593342304230E-003;-4.742610268294811E-003;
2.413000000000000E+009;1.736392676830292E-001;-4.071468487381935E-002;-4.239487461745739E-003;-4.476012196391821E-003;
2.413166666666667E+009;1.723566800355911E-001;-4.154241457581520E-002;-4.505278542637825E-003;-4.437428433448076E-003;
2.413333333333334E+009;1.708716750144959E-001;-4.246523976325989E-002;-4.722288344055414E-003;-3.788877511397004E-003;
2.413500000000000E+009;1.698353737592697E-001;-4.356924816966057E-002;-4.782681819051504E-003;-3.466605674475431E-003;
2.413666666666667E+009;1.687820255756378E-001;-4.457789659500122E-002;-4.793858155608177E-003;-3.127911128103733E-003;
2.413833333333334E+009;1.673254966735840E-001;-4.568252712488174E-002;-4.843524191528559E-003;-2.806828590109944E-003;
2.414000000000000E+009;1.658285409212112E-001;-4.690292105078697E-002;-4.693353548645973E-003;-2.516102977097035E-003;
2.414166666666667E+009;1.648448556661606E-001;-4.811897128820419E-002;-4.838363733142614E-003;-2.214813837781549E-003;
2.414333333333334E+009;1.634966284036636E-001;-4.964305460453033E-002;-4.823161289095879E-003;-1.901721465401352E-003;
2.414500000000000E+009;1.625544279813767E-001;-5.101031437516213E-002;-4.514699336141348E-003;-1.721085282042623E-003;
2.414666666666667E+009;1.614332348108292E-001;-5.250839516520500E-002;-4.707654938101769E-003;-1.434967154636979E-003;
2.414833333333334E+009;1.602236926555634E-001;-5.409926548600197E-002;-4.495820496231318E-003;-1.265611732378602E-003;
2.415000000000000E+009;1.592064499855042E-001;-5.577628687024117E-002;-4.386133514344692E-003;-1.049106125719845E-003;
2.415166666666667E+009;1.582204550504684E-001;-5.750405415892601E-002;-4.299125168472529E-003;-8.002867107279599E-004;
2.415333333333334E+009;1.574622839689255E-001;-5.935502424836159E-002;-4.174831323325634E-003;-6.645288085564971E-004;
2.415500000000000E+009;1.567318588495255E-001;-6.101050600409508E-002;-3.966505639255047E-003;-3.826009924523532E-004;
2.415666666666667E+009;1.559084504842758E-001;-6.299690902233124E-002;-3.787763649597764E-003;-2.589146024547517E-004;
2.415833333333334E+009;1.553448736667633E-001;-6.492388248443604E-002;-3.657154040411115E-003;-2.732612774707377E-004;
2.416000000000000E+009;1.547241806983948E-001;-6.697921454906464E-002;-3.649064572528005E-003;5.487667294801213E-006;
2.416166666666667E+009;1.542720645666122E-001;-6.888671219348908E-002;-3.317755414173007E-003;-9.005234460346401E-005;
2.416333333333334E+009;1.537316143512726E-001;-7.084795087575913E-002;-3.295277012512088E-003;1.147462535300292E-004;
2.416500000000000E+009;1.533245444297791E-001;-7.286975532770157E-002;-3.120311303064227E-003;1.059075948433019E-004;
2.416666666666667E+009;1.529663205146790E-001;-7.479033619165421E-002;-2.976315328851342E-003;4.619502942659892E-005;
2.416833333333334E+009;1.527679264545441E-001;-7.693464308977127E-002;-2.961722202599049E-003;-2.697709169297013E-005;
2.417000000000000E+009;1.523200869560242E-001;-7.868738472461700E-002;-2.850291086360812E-003;4.267613985575736E-005;
2.417166666666667E+009;1.522418409585953E-001;-8.043419569730759E-002;-2.846111310645938E-003;1.400180335622281E-004;
2.417333333333334E+009;1.521041542291641E-001;-8.213876187801361E-002;-2.667811233550310E-003;1.133962068706751E-004;
2.417500000000000E+009;1.519826650619507E-001;-8.404181897640228E-002;-2.729755826294422E-003;-8.204615733120590E-005;
2.417666666666667E+009;1.521492302417755E-001;-8.548986911773682E-002;-2.756206551566720E-003;-3.566074610716896E-006;
2.417833333333334E+009;1.521457284688950E-001;-8.710892498493195E-002;-2.693265210837126E-003;6.346550071612001E-005;
2.418000000000000E+009;1.520661413669586E-001;-8.855201303958893E-002;-2.693938324227929E-003;7.733918755548075E-005;
2.418166666666667E+009;1.522289514541626E-001;-8.975251019001007E-002;-2.662790007889271E-003;1.049972343025729E-004;
2.418333333333334E+009;1.525293588638306E-001;-9.111168235540390E-002;-2.842811169102788E-003;2.360796934226528E-004;
2.418500000000000E+009;1.525934934616089E-001;-9.210945665836334E-002;-2.828691387549043E-003;4.081646038684994E-004;
2.418666666666667E+009;1.528480052947998E-001;-9.321933984756470E-002;-2.883228706195951E-003;5.053054774180055E-004;
2.418833333333334E+009;1.529128998517990E-001;-9.417735785245895E-002;-2.867559669539332E-003;4.917624173685908E-004;
2.419000000000000E+009;1.530364453792572E-001;-9.482295811176300E-002;-2.859075088053942E-003;6.750171887688339E-004;
2.419166666666667E+009;1.533153802156448E-001;-9.555637836456299E-002;-2.842857036739588E-003;6.967486697249115E-004;
2.419333333333334E+009;1.532742083072662E-001;-9.592259675264359E-002;-2.753965789452195E-003;8.693438139744103E-004;
2.419500000000000E+009;1.536548137664795E-001;-9.662136435508728E-002;-2.801553346216679E-003;8.824430988170207E-004;
2.419666666666667E+009;1.538623571395874E-001;-9.688990563154221E-002;-2.772778971120715E-003;1.052495092153549E-003;
2.419833333333334E+009;1.539953351020813E-001;-9.698229283094406E-002;-2.618539147078991E-003;1.242365804500878E-003;
2.420000000000000E+009;1.542647927999497E-001;-9.723104536533356E-002;-2.481146017089486E-003;1.377543318085372E-003;
2.420166666666667E+009;1.542249172925949E-001;-9.715614467859268E-002;-2.354365307837725E-003;1.599009847268462E-003;
2.420333333333334E+009;1.542760133743286E-001;-9.723272174596787E-002;-2.257825108245015E-003;1.773524330928922E-003;
2.420500000000000E+009;1.544225513935089E-001;-9.696397185325623E-002;-2.259339438751340E-003;1.834580558352172E-003;
2.420666666666667E+009;1.542142480611801E-001;-9.673796594142914E-002;-2.025626599788666E-003;2.035888144746423E-003;
2.420833333333334E+009;1.541601419448853E-001;-9.648122638463974E-002;-1.911167986690998E-003;2.060084836557508E-003;
2.421000000000000E+009;1.540935933589935E-001;-9.620675444602966E-002;-1.659436034969986E-003;2.071144059300423E-003;
2.421166666666667E+009;1.538060307502747E-001;-9.590779244899750E-002;-1.540152472443879E-003;2.075836528092623E-003;
2.421333333333334E+009;1.536019146442413E-001;-9.579737484455109E-002;-1.333383610472083E-003;2.080933190882206E-003;
2.421500000000000E+009;1.530341207981110E-001;-9.539923816919327E-002;-1.199156977236271E-003;2.144003054127097E-003;
2.421666666666667E+009;1.526319980621338E-001;-9.494636207818985E-002;-1.131537719629705E-003;2.006610389798880E-003;
2.421833333333334E+009;1.522395461797714E-001;-9.483378380537033E-002;-8.689081878401339E-004;2.054069191217423E-003;
2.422000000000000E+009;1.513351500034332E-001;-9.465752542018890E-002;-6.895643891766667E-004;2.197991125285626E-003;
2.422166666666667E+009;1.506339013576508E-001;-9.444860368967056E-002;-6.493282853625715E-004;2.081461949273944E-003;
2.422333333333334E+009;1.500488668680191E-001;-9.414199739694595E-002;-4.694129747804254E-004;2.021170686930418E-003;
2.422500000000000E+009;1.486914157867432E-001;-9.389149397611618E-002;-2.353397139813751E-004;2.131876070052385E-003;
2.422666666666667E+009;1.473177820444107E-001;-9.394297003746033E-002;-2.202506002504379E-004;2.092542825266719E-003;
2.422833333333334E+009;1.465013176202774E-001;-9.379786998033524E-002;1.670718920649961E-004;2.031813375651836E-003;
2.423000000000000E+009;1.452043354511261E-001;-9.376715123653412E-002;2.961027203127742E-004;1.887599239125848E-003;
2.423166666666667E+009;1.440634280443192E-001;-9.378249198198319E-002;4.133423499297351E-004;1.748361974023283E-003;
2.423333333333334E+009;1.426377147436142E-001;-9.361637383699417E-002;8.012558682821691E-004;1.742155058309436E-003;
2.423500000000000E+009;1.410902142524719E-001;-9.372290968894959E-002;1.047381083481014E-003;1.533677917905152E-003;
2.423666666666667E+009;1.394944936037064E-001;-9.395381063222885E-002;1.053879852406681E-003;1.392230857163668E-003;
2.423833333333334E+009;1.381032764911652E-001;-9.415344893932343E-002;1.327612902969122E-003;9.435031097382307E-004;
2.424000000000000E+009;1.364833563566208E-001;-9.430801868438721E-002;1.206048182211816E-003;8.108799811452627E-004;
2.424166666666667E+009;1.350422501564026E-001;-9.464406222105026E-002;1.510462490841746E-003;5.586410406976938E-004;
2.424333333333334E+009;1.334642469882965E-001;-9.516982734203339E-002;1.425474183633924E-003;1.874362205853686E-004;
2.424500000000000E+009;1.320519596338272E-001;-9.573412686586380E-002;1.506847213022411E-003;-4.846411320613697E-005;
2.424666666666667E+009;1.308466792106628E-001;-9.620914608240128E-002;1.196642173454166E-003;-3.946178185287863E-004;
2.424833333333334E+009;1.292465478181839E-001;-9.696428477764130E-002;1.280079362913966E-003;-7.875945884734392E-004;
2.425000000000000E+009;1.279396861791611E-001;-9.788512438535690E-002;1.074049505405128E-003;-1.004789606668055E-003;
2.425166666666667E+009;1.263160109519959E-001;-9.889472275972366E-002;9.196810424327850E-004;-1.116618979722261E-003;
2.425333333333334E+009;1.253041476011276E-001;-9.984379261732101E-002;8.686947985552251E-004;-1.314849941991270E-003;
2.425500000000000E+009;1.242094784975052E-001;-1.011122092604637E-001;5.445290007628501E-004;-1.530796405859292E-003;
2.425666666666667E+009;1.229214742779732E-001;-1.022600159049034E-001;2.457968657836318E-004;-1.654339721426368E-003;
2.425833333333334E+009;1.218600794672966E-001;-1.036433726549149E-001;-1.160285319201648E-005;-1.716501428745687E-003;
2.426000000000000E+009;1.208136156201363E-001;-1.050661727786064E-001;-1.807869703043252E-004;-1.712425379082561E-003;
2.426166666666667E+009;1.200965344905853E-001;-1.064738780260086E-001;-5.710550467483699E-004;-1.803543185815215E-003;
2.426333333333334E+009;1.190654784440994E-001;-1.077854037284851E-001;-6.782805430702865E-004;-1.698227017186582E-003;
2.426500000000000E+009;1.183232590556145E-001;-1.094942912459374E-001;-9.120611357502639E-004;-1.703560352325440E-003;
2.426666666666667E+009;1.177692934870720E-001;-1.109109669923782E-001;-1.086551113985479E-003;-1.811009016819298E-003;
2.426833333333334E+009;1.169746741652489E-001;-1.125433444976807E-001;-1.406434108503163E-003;-1.798865268938243E-003;
2.427000000000000E+009;1.165370717644692E-001;-1.142678633332253E-001;-1.474185613915324E-003;-1.593514578416944E-003;
2.427166666666667E+009;1.160808131098747E-001;-1.157500445842743E-001;-1.702749868854880E-003;-1.622202456928790E-003;
2.427333333333334E+009;1.156168207526207E-001;-1.174106746912003E-001;-1.872954540885985E-003;-1.414122525602579E-003;
2.427500000000000E+009;1.153469085693359E-001;-1.189335137605667E-001;-1.906014163978398E-003;-1.319745904766023E-003;
2.427666666666667E+009;1.151841953396797E-001;-1.205025911331177E-001;-1.980795990675688E-003;-1.236390438862145E-003;
