# Hz S RI R 
2400000000.0000000000 0.155945464968681307693643134371 0.110873647034168201774839701557 0.002351607661694287820103310693 0.001003311714157461903215717847 0 0 0 0 
2400166666.6666665077 0.155313387513160705566406250000 0.108758464455604594856019673443 0.002341665793210268020629882812 0.000833776313811540603637695312 0 0 0 0 
2400333333.3333334923 0.155248299241066006759481865629 0.106419749557971995979066548443 0.002255223225802183151245117188 0.000629768939688801765441894531 0 0 0 0 
2400500000.0000000000 0.154804617166519192794638115629 0.103737011551856994628906250000 0.002436793409287929968592978369 0.000555926235392689704895019531 0 0 0 0 
2400666666.6666665077 0.154600545763969393631143134371 0.101408191025257096717915317186 0.002370240632444620132446289062 0.000257362844422459602355957031 0 0 0 0 
2400833333.3333334923 0.154340505599975613693075615629 0.098518341779708862304687500000 0.002372851595282555060145712744 0.000282179971691220998764038086 0 0 0 0 
2401000000.0000000000 0.154401347041130093673544365629 0.095425412058830261230468750000 0.002393709495663642883300781250 0.000151739441207610097810468130 0 0 0 0 
2401166666.6666665077 0.154037222266197204589843750000 0.092702567577362060546875000000 0.002168895211070775985717773438 -0.000182635194505564895555219107 0 0 0 0 
2401333333.3333334923 0.154347673058509798904580634371 0.089850515127182006835937500000 0.002191778505221008820774697412 -0.000191316445125266909599304199 0 0 0 0 
2401500000.0000000000 0.154396146535873413085937500000 0.086783058941364288330078125000 0.002317552221938968138453818213 -0.000276805891189724206924438477 0 0 0 0 
2401666666.6666665077 0.154608160257339505294638115629 0.083721749484539031982421875000 0.001988926902413367791416787256 -0.000298664963338524103164672852 0 0 0 0 
2401833333.3333334923 0.154830917716026306152343750000 0.080836415290832519531250000000 0.002065677428618073897120810400 -0.000434132758527994210093897687 0 0 0 0 
2402000000.0000000000 0.155625954270362909515057481258 0.077815115451812744140625000000 0.001939041307196021080017089844 -0.000418409123085439205169677734 0 0 0 0 
2402166666.6666665077 0.156246617436408996582031250000 0.075134240090847015380859375000 0.001879087998531759002088237231 -0.000328253780025988817214965820 0 0 0 0 
2402333333.3333334923 0.157015874981880187988281250000 0.071971789002418518066406250000 0.001771862735040486075757670825 -0.000550232420209795236587524414 0 0 0 0 
2402500000.0000000000 0.157892704010009793380575615629 0.069313965737819671630859375000 0.001857904135249554894090961987 -0.000480946880998089909553527832 0 0 0 0 
2402666666.6666665077 0.158903062343597412109375000000 0.066661953926086425781250000000 0.001827338011935353062273335034 -0.000399771641241386478573399677 0 0 0 0 
2402833333.3333334923 0.160107642412185696700888115629 0.063968308269977569580078125000 0.001866507576778531074523925781 -0.000676645897328853607177734375 0 0 0 0 
2403000000.0000000000 0.161602199077606201171875000000 0.061289023607969277118723283593 0.001810782239772378964665078271 -0.000384904793463647419780176984 0 0 0 0 
2403166666.6666665077 0.163416251540183993240518134371 0.058673031628131873393972028907 0.001945127034559845924377441406 -0.000586304115131497383117675781 0 0 0 0 
2403333333.3333334923 0.164543002843856811523437500000 0.056199278682470321655273437500 0.001802866230718791918513632666 -0.000425634236307814717292785645 0 0 0 0 
2403500000.0000000000 0.166431888937950106521768134371 0.054109755903482437133789062500 0.002058144658803939819335937500 -0.000632556097116321325302124023 0 0 0 0 
2403666666.6666665077 0.168383896350860595703125000000 0.051846425980329506610910783593 0.002054078504443169073817587744 -0.000614573014900088310241699219 0 0 0 0 
2403833333.3333334923 0.169925943017005892654580634371 0.049780167639255516742746721093 0.002164404839277267889735556494 -0.000852891942486166954040527344 0 0 0 0 
2404000000.0000000000 0.171599492430687006194744981258 0.047769952565431601787526716407 0.001893367734737694046617817456 -0.000877108366694301366806030273 0 0 0 0 
2404166666.6666665077 0.173537284135818509200888115629 0.046055715531110756610910783593 0.001960741588845849037170410156 -0.001062469673343003013013530200 0 0 0 0 
2404333333.3333334923 0.175472423434257507324218750000 0.044269837439060211181640625000 0.001844672486186027960536337744 -0.001345295924693346023559570312 0 0 0 0 
2404500000.0000000000 0.176973491907119806487713731258 0.042632654309272773052175153907 0.001784537569619714996935200269 -0.001481531420722604014753032153 0 0 0 0 
2404666666.6666665077 0.179094165563583401779013115629 0.041518170386552810668945312500 0.001818654476664959950688027490 -0.001544922124594449996948242188 0 0 0 0 
2404833333.3333334923 0.180818185210227994064169365629 0.040141664445400238037109375000 0.001548312953673302910448383862 -0.001829947810620069937465048682 0 0 0 0 
2405000000.0000000000 0.182249799370765713790731865629 0.039535921066999442363698591407 0.001568199018947779915453266675 -0.001681617926806211905238486182 0 0 0 0 
2405166666.6666665077 0.184130072593688992599325615629 0.038618110120296478271484375000 0.001449152128770948106881166773 -0.001692030346021055958391499097 0 0 0 0 
2405333333.3333334923 0.185653880238532992263955634371 0.038110099732875817035715471093 0.001185302855446934916852641528 -0.001977080712094902992248535156 0 0 0 0 
2405500000.0000000000 0.187463104724884005447549384371 0.037491887807846069335937500000 0.001144633977673948027967143481 -0.001971335615962744192836142432 0 0 0 0 
2405666666.6666665077 0.188958957791328402420205634371 0.037038490176200866699218750000 0.000829019641969352960586547852 -0.001803333405405282974243164062 0 0 0 0 
2405833333.3333334923 0.190471783280372591873330634371 0.036904532462358481670339216407 0.000780236849095672369003295898 -0.001915563712827861092211079175 0 0 0 0 
2406000000.0000000000 0.191809967160224886795205634371 0.036827675998210906982421875000 0.000612026371527463197708129883 -0.001906190416775644042371440356 0 0 0 0 
2406166666.6666665077 0.193028062582015991210937500000 0.036649066954851150512695312500 0.000633817398920655250549316406 -0.002024796325713396072387695312 0 0 0 0 
2406333333.3333334923 0.194193512201309204101562500000 0.036697939038276672363281250000 0.000418408511904999613761901855 -0.001819324563257396004320454175 0 0 0 0 
2406500000.0000000000 0.195225238800048800369424384371 0.036886211484670639038085937500 0.000386192608857527375221252441 -0.001700331224128603935241699219 0 0 0 0 
2406666666.6666665077 0.196004733443260192871093750000 0.037114635109901428222656250000 0.000179339142050594091415405273 -0.001591471140272914929630898584 0 0 0 0 
2406833333.3333334923 0.196807965636253412444744981258 0.037253785878419883037526716407 0.000179926879354752600193023682 -0.001556360744871198914171528394 0 0 0 0 
2407000000.0000000000 0.197253480553626986404580634371 0.037561450153589248657226562500 0.000304254615912213921546936035 -0.001411726349033415100694965894 0 0 0 0 
2407166666.6666665077 0.197778105735778808593750000000 0.037615250796079642559011091407 0.000242749651079066097736358643 -0.001465705339796840927721333081 0 0 0 0 
2407333333.3333334923 0.198070839047432001311932481258 0.037989534437656402587890625000 0.000098598713520914316177368164 -0.001298135844990611076354980469 0 0 0 0 
2407500000.0000000000 0.198127895593643188476562500000 0.038411814719438552856445312500 0.000117035015136934803284783635 -0.001334364293143152973772358472 0 0 0 0 
2407666666.6666665077 0.198287010192871093750000000000 0.038525398820638656616210937500 0.000135546390083618489190778189 -0.001335866982117295048357319409 0 0 0 0 
2407833333.3333334923 0.197864919900894192794638115629 0.038684830069541931152343750000 0.000107995998405385803110660692 -0.001211571157909929969190288013 0 0 0 0 
2408000000.0000000000 0.197845354676246587555255018742 0.038915567100048072124440778907 0.000133370573166757794931688852 -0.001159387524239718914031982422 0 0 0 0 
2408166666.6666665077 0.197319507598877008636151231258 0.038786355406045906757395158593 0.000225202675210312008857727051 -0.001148617942817508957506489331 0 0 0 0 
2408333333.3333334923 0.197046145796775790115518134371 0.038702454417943947528879533593 0.000054803880630061030387878418 -0.001115117804147303104400634766 0 0 0 0 
2408500000.0000000000 0.196266219019889803787393134371 0.038674537092447280883789062500 0.000112414934847038198583064894 -0.001219320925883949019788432544 0 0 0 0 
2408666666.6666665077 0.195594310760498102386151231258 0.038511976599693298339843750000 0.000178186848643235889360150748 -0.001013762317597866058349609375 0 0 0 0 
2408833333.3333334923 0.194887042045593289474325615629 0.038244802504777908325195312500 0.000294544704956933910220545636 -0.001110535115003586032270121997 0 0 0 0 
2409000000.0000000000 0.193806096911430386642294365629 0.037683252245187759399414062500 0.000314264470944181084632873535 -0.001003313693217932961107563550 0 0 0 0 
2409166666.6666665077 0.192685320973396301269531250000 0.036966376006603240966796875000 0.000279830652289092486530858173 -0.001127160736359656073926616138 0 0 0 0 
2409333333.3333334923 0.191583365201950100997763115629 0.036210797727108001708984375000 0.000433380220783874392509460449 -0.001257044728845357894897460938 0 0 0 0 
2409500000.0000000000 0.190396606922149713714276231258 0.035217523574829101562500000000 0.000459076662082225084304809570 -0.001212372328154742934583354419 0 0 0 0 
2409666666.6666665077 0.189184501767158508300781250000 0.034275032579898827289621721093 0.000483301933854818289906102313 -0.001350598875433206991908408057 0 0 0 0 
2409833333.3333334923 0.187997817993164090255575615629 0.032906502485275268554687500000 0.000352262781234458088874816895 -0.001393358688801527023315429688 0 0 0 0 
2410000000.0000000000 0.186797425150871304611044365629 0.031633459031581878662109375000 0.000472888437798246687084752216 -0.001504400279372930960414267432 0 0 0 0 
2410166666.6666665077 0.185480862855911310393963731258 0.030080247670412060129185860546 0.000284110225038603002398890363 -0.001453868928365408940556191553 0 0 0 0 
2410333333.3333334923 0.184247642755508395095986884371 0.028345117345452308654785156250 0.000129452673718333190113621844 -0.001731988624669612104531313257 0 0 0 0 
2410500000.0000000000 0.183059558272361810882244981258 0.026675667613744739187220389454 0.000097548210760578513145446777 -0.001660688314586878039716411060 0 0 0 0 
2410666666.6666665077 0.182073429226875305175781250000 0.024523787200450900686243826954 0.000042239676986355341296603544 -0.001834859955124557018280029297 0 0 0 0 
2410833333.3333334923 0.181319728493690490722656250000 0.022638959810137748718261718750 -0.000065899032051675021648406982 -0.001947255688719450993778847803 0 0 0 0 
2411000000.0000000000 0.180104747414588900467080634371 0.020353145897388461721400076954 -0.000123770092613995102330884390 -0.001952959806658328013179160010 0 0 0 0 
2411166666.6666665077 0.179094180464744595626669365629 0.018059635534882548940638358204 -0.000318049947964027523994445801 -0.001780469203367829105974506909 0 0 0 0 
2411333333.3333334923 0.178281843662261990646200615629 0.015800820663571361196497733204 -0.000388784421375021284252720966 -0.001883383840322494940516806494 0 0 0 0 
2411500000.0000000000 0.177809670567512512207031250000 0.013318371959030629939069179102 -0.000530578719917684793472290039 -0.001825242303311825015424418872 0 0 0 0 
2411666666.6666665077 0.177324920892715509612713731258 0.010902655310928819828997227148 -0.000775065389461815357208251953 -0.001874614157713949897168803638 0 0 0 0 
2411833333.3333334923 0.176884979009628295898437500000 0.008426380343735218048095703125 -0.000753840256948024034500122070 -0.001893253880552947954890585791 0 0 0 0 
2412000000.0000000000 0.176608473062515286544638115629 0.005948404315859079360961914062 -0.000820750254206359386444091797 -0.001671513076871633963343954932 0 0 0 0 
2412166666.6666665077 0.176632344722747802734375000000 0.003374224063009024100062704932 -0.001031771535053849003435444409 -0.001686252537183464007136679541 0 0 0 0 
2412333333.3333334923 0.176710307598114013671875000000 0.000652788497973233461380004883 -0.001054284628480673053144145435 -0.001666085096076131083844829028 0 0 0 0 
2412500000.0000000000 0.176963508129119900802450615629 -0.001830475288443266911747597803 -0.001030475017614663080928183447 -0.001397253130562603907344199072 0 0 0 0 
2412666666.6666665077 0.177345111966133089920205634371 -0.004587874747812747955322265625 -0.001224297448061407046077109229 -0.001337940222583710930467915112 0 0 0 0 
2412833333.3333334923 0.177889615297317504882812500000 -0.007031871005892753601074218750 -0.001333115273155272006988525391 -0.001233907882124185995814658057 0 0 0 0 
2413000000.0000000000 0.178555801510810907561932481258 -0.009786559268832206726074218750 -0.001221022335812450105782533960 -0.001183232991024852015851664966 0 0 0 0 
2413166666.6666665077 0.179209977388382013518963731258 -0.012212097644805909937848475977 -0.001248985063284635977504111182 -0.001115198479965328953386616284 0 0 0 0 
2413333333.3333334923 0.180284172296524103362713731258 -0.014657338149845600128173828125 -0.001247975742444396018981933594 -0.001005122088827193000196147388 0 0 0 0 
2413500000.0000000000 0.181291446089744595626669365629 -0.017093304544687271118164062500 -0.001170208794064820029615092700 -0.000744414923246949911117553711 0 0 0 0 
2413666666.6666665077 0.182342275977134704589843750000 -0.019444508478045460092564766796 -0.000990310916677117347717285156 -0.000814643222838640213012695312 0 0 0 0 
2413833333.3333334923 0.183677628636360196212606865629 -0.021758936345577239990234375000 -0.001082792645320296070696186597 -0.000797276326920837163925170898 0 0 0 0 
2414000000.0000000000 0.184738159179687500000000000000 -0.024069083854556080209752266796 -0.001082180882804095961927104419 -0.000726627011317759752273559570 0 0 0 0 
2414166666.6666665077 0.186072960495948791503906250000 -0.026191685348749160766601562500 -0.000958068470936268568038940430 -0.000656061165500432252883911133 0 0 0 0 
2414333333.3333334923 0.187263876199722290039062500000 -0.028317367658019069326380545704 -0.001076021580956876061083149487 -0.000634181429632008075714111328 0 0 0 0 
2414500000.0000000000 0.188748776912689208984375000000 -0.029985493049025539052943045704 -0.000912520277779549360275268555 -0.000821093679405748844146728516 0 0 0 0 
2414666666.6666665077 0.190065354108810397049111884371 -0.031691703945398330688476562500 -0.000943052291404455900192260742 -0.000720808340702205896377563477 0 0 0 0 
2414833333.3333334923 0.191428229212760897537393134371 -0.033235117793083190917968750000 -0.001012303284369409084320068359 -0.000778392015490680932998657227 0 0 0 0 
2415000000.0000000000 0.192705392837524386306924384371 -0.034737043082714080810546875000 -0.001006349571980535984039306641 -0.000843335699755698442459106445 0 0 0 0 
2415166666.6666665077 0.194306612014770507812500000000 -0.035884507000446319580078125000 -0.001052156323567033030866313403 -0.000736695132218301296234130859 0 0 0 0 
2415333333.3333334923 0.195661827921867398361044365629 -0.037061616778373718261718750000 -0.001088312244974076964734721606 -0.000851722143124788999557495117 0 0 0 0 
2415500000.0000000000 0.197071522474288912674111884371 -0.037792235612869262695312500000 -0.001087634824216366031049418872 -0.000822359172161668539047241211 0 0 0 0 
2415666666.6666665077 0.198303386569023104568643134371 -0.038812700659036643291432966407 -0.001181058469228446917292929541 -0.000844341760966926813125610352 0 0 0 0 
2415833333.3333334923 0.199442714452743502517861884371 -0.039580348879098892211914062500 -0.001238735509105026938794780200 -0.000728153216186910867691040039 0 0 0 0 
2416000000.0000000000 0.200558170676231412032919365629 -0.040073674172163009643554687500 -0.001329115126281976916669536060 -0.000635195756331086158752441406 0 0 0 0 
2416166666.6666665077 0.201599225401878412444744981258 -0.040735363960266113281250000000 -0.001366890617646276950836181641 -0.000743339362088590860366821289 0 0 0 0 
2416333333.3333334923 0.202545970678329495529013115629 -0.041144967079162597656250000000 -0.001310439314693212942836142432 -0.000724096607882529497146606445 0 0 0 0 
2416500000.0000000000 0.203378722071647588531817518742 -0.041339535266160971904714216407 -0.001497051678597927093505859375 -0.000582534528803080320358276367 0 0 0 0 
2416666666.6666665077 0.203886255621910095214843750000 -0.041688989847898483276367187500 -0.001566214486956595940830849756 -0.000571235897950828075408935547 0 0 0 0 
2416833333.3333334923 0.204405844211578396896200615629 -0.041644331067800521850585937500 -0.001429007272236048958422016675 -0.000363547616871073787838536395 0 0 0 0 
2417000000.0000000000 0.204798176884651211837606865629 -0.041664708405733108520507812500 -0.001526895677670836014988564600 -0.000261067791143432313769739972 0 0 0 0 
2417166666.6666665077 0.204884022474288912674111884371 -0.041462507098913192749023437500 -0.001457277103327214934705424731 -0.000252360361628234386444091797 0 0 0 0 
2417333333.3333334923 0.204865589737892206390057481258 -0.041182283312082290649414062500 -0.001525848871096969084498740088 -0.000096222822321578860282897949 0 0 0 0 
2417500000.0000000000 0.204835355281829806228799384371 -0.041124429553747177124023437500 -0.001548917032778263092041015625 -0.000116061572043690803364077158 0 0 0 0 
2417666666.6666665077 0.204505980014800997635049384371 -0.040731828659772872924804687500 -0.001480469247326255061505961841 -0.000121332188427913893334804396 0 0 0 0 
2417833333.3333334923 0.204306602478027288238848768742 -0.040346682071685791015625000000 -0.001495436416007577939274453271 0.000086900705355219542980194092 0 0 0 0 
2418000000.0000000000 0.203828662633895901779013115629 -0.039913102984428412700612653907 -0.001417803112417459921595908057 -0.000033353360777255147695541382 0 0 0 0 
2418166666.6666665077 0.203109920024871798416299384371 -0.039509963244199752807617187500 -0.001413074089214205958722758716 -0.000074077834142372012138366699 0 0 0 0 
2418333333.3333334923 0.202480286359786987304687500000 -0.039324562996625900268554687500 -0.001414902391843497969983745044 -0.000086103078501764684915542603 0 0 0 0 
2418500000.0000000000 0.201707571744918795486611884371 -0.038964562118053443218190778907 -0.001546989544294774965998984229 0.000055997050367295742034912109 0 0 0 0 
2418666666.6666665077 0.200827389955520602127236884371 -0.038685809820890426635742187500 -0.001499666017480195002314902197 0.000120369986689183901674808641 0 0 0 0 
2418833333.3333334923 0.199717447161674499511718750000 -0.038725886493921279907226562500 -0.001486517488956450982334756006 0.000234200764680281308576306754 0 0 0 0 
2419000000.0000000000 0.198401942849159212967080634371 -0.038559261709451682353932966407 -0.001376470201648771979688334888 0.000261532259173691326945704327 0 0 0 0 
2419166666.6666665077 0.197213158011436490157919365629 -0.038790591061115271831472028907 -0.001434707199223339991328574072 0.000338541023666039109230041504 0 0 0 0 
2419333333.3333334923 0.195853814482688903808593750000 -0.038930192589759826660156250000 -0.001436612335965036912205361475 0.000342854065820574814647120343 0 0 0 0 
2419500000.0000000000 0.194377556443214388748330634371 -0.039095889776945107196848283593 -0.001477704849094153101082826929 0.000361005513695999979972839355 0 0 0 0 
2419666666.6666665077 0.192716106772422790527343750000 -0.039780065417289726947824846093 -0.001628370606340467929840087891 0.000472611456643790006637573242 0 0 0 0 
2419833333.3333334923 0.191070124506950406173544365629 -0.040258742868900299072265625000 -0.001532322377897799015045166016 0.000481907394714653491973876953 0 0 0 0 
