# Hz S RI R 50
2400000000.0000000000 0.168015852570533807952557481258 0.040464941412210457538645158593 0.003201164072379469871520996094 -0.000034908691304735839366912842 0 0 0 0 
2400166666.6666665077 0.168552547693252591232138115629 0.039874941110610961914062500000 0.003068647580221294923069619287 -0.000234853534493595388814649039 0 0 0 0 
2400333333.3333334923 0.169100284576415987869424384371 0.038682863116264343261718750000 0.002925273263826965852024697412 -0.000353579962393268888622838153 0 0 0 0 
2400500000.0000000000 0.169608578085899408538494981258 0.037926964461803443218190778907 0.002852932550013064904453896631 -0.000463713251519948189884740009 0 0 0 0 
2400666666.6666665077 0.169915065169334411621093750000 0.037126053124666207050363908593 0.002741353819146751923802041162 -0.000410710868891328573226928711 0 0 0 0 
2400833333.3333334923 0.170397698879241887848223768742 0.036362726241350167011301408593 0.002679879078641533851623535156 -0.000560367654543370008468627930 0 0 0 0 
2401000000.0000000000 0.170649453997611999511718750000 0.035508204251527793193776716407 0.002475477289408444924595498193 -0.000557625666260719299316406250 0 0 0 0 
2401166666.6666665077 0.170835509896278409103231865629 0.034752879291772842407226562500 0.002506494289264082908630371094 -0.000564303190913051366806030273 0 0 0 0 
2401333333.3333334923 0.171008497476577786544638115629 0.033838689327239990234375000000 0.002241406356915831999537802588 -0.000708708423189818859100341797 0 0 0 0 
2401500000.0000000000 0.171113088726997403243856865629 0.032998573035001761699636091407 0.002251955214887857003452920068 -0.000707844388671219348907470703 0 0 0 0 
2401666666.6666665077 0.171392858028411892989950615629 0.032324243336915969848632812500 0.001984119880944489999058388818 -0.000719354837201535701751708984 0 0 0 0 
2401833333.3333334923 0.171557560563087491134481865629 0.031210262328386310232142264454 0.001975921448320149941685341943 -0.000874003570061177015304565430 0 0 0 0 
2402000000.0000000000 0.171503648161888094803018134371 0.030507137998938560485839843750 0.001823158119805156967760395581 -0.000698177667800337076187133789 0 0 0 0 
2402166666.6666665077 0.171545177698135403732138115629 0.029395956546068191528320312500 0.001727518974803387901903461987 -0.000533336133230477571487426758 0 0 0 0 
2402333333.3333334923 0.171669125556945800781250000000 0.028707752004265788686732108204 0.001760168932378292083740234375 -0.000668964348733425140380859375 0 0 0 0 
2402500000.0000000000 0.171711519360542297363281250000 0.027767457067966461181640625000 0.001680923625826836066005087744 -0.000533356273081153631210327148 0 0 0 0 
2402666666.6666665077 0.171648487448692294021768134371 0.026831520721316341054896170704 0.001513658557087182998657226562 -0.000577949162106961011886596680 0 0 0 0 
2402833333.3333334923 0.171525269746780395507812500000 0.026069909334182739257812500000 0.001589728984981775066973042065 -0.000427017512265592813491821289 0 0 0 0 
2403000000.0000000000 0.171522006392478887359942518742 0.024767674505710598337193673046 0.001385842333547770977020263672 -0.000320322578772902488708496094 0 0 0 0 
2403166666.6666665077 0.171449154615402193924111884371 0.023715954273939129220982735546 0.001525623258203268051147460938 -0.000259207095950841903686523438 0 0 0 0 
2403333333.3333334923 0.171354651451110812088174384371 0.022662604227662089956263358204 0.001461843843571841933606791919 -0.000081940306699834764003753662 0 0 0 0 
2403500000.0000000000 0.171205446124076787750567518742 0.021661801263689998281458670704 0.001462111948058008930803608472 -0.000175649329321458908632555551 0 0 0 0 
2403666666.6666665077 0.171229511499404907226562500000 0.020307812839746478689173514454 0.001556795206852257034899067456 0.000119314347102772403829036574 0 0 0 0 
2403833333.3333334923 0.171129822731018094161825615629 0.018950399011373519897460937500 0.001718609943054617101784731226 0.000127091101603582501411437988 0 0 0 0 
2404000000.0000000000 0.171001926064491299728231865629 0.017824213951826099050501639454 0.001655274187214672999141074072 0.000116230214189272401019772940 0 0 0 0 
2404166666.6666665077 0.170800894498825100997763115629 0.016446178779006000864049141796 0.001808017026633023998857807690 0.000273070618277415578991490497 0 0 0 0 
2404333333.3333334923 0.170576706528663607498330634371 0.015121280215680599212646484375 0.002093016868457198143005371094 0.000203363917535170912742614746 0 0 0 0 
2404500000.0000000000 0.170545354485511807540731865629 0.013731212355196479452112967579 0.002181361895054579214808798682 0.000240248016780242296770372934 0 0 0 0 
2404666666.6666665077 0.170457258820533807952557481258 0.012487297877669329207450665820 0.002213371219113469123840332031 0.000135307869641110301017761230 0 0 0 0 
2404833333.3333334923 0.170386672019958496093750000000 0.010847797617316249502161795704 0.002256505191326140923741006006 0.000219292429392226013258257455 0 0 0 0 
2405000000.0000000000 0.170334219932556207854901231258 0.009389309212565422058105468750 0.002522443188354372978210449219 0.000146158621646463898107251578 0 0 0 0 
2405166666.6666665077 0.170263648033142089843750000000 0.007908523082733154296875000000 0.002565649105235933823826455225 0.000110398555989377200603485107 0 0 0 0 
2405333333.3333334923 0.170162096619605990310830634371 0.006115194875746965408325195312 0.002610343508422375159022665869 0.000019191285900888029823099443 0 0 0 0 
2405500000.0000000000 0.170207470655441311935263115629 0.004693874157965183258056640625 0.002745879348367453055140829932 -0.000086202519014477729797363281 0 0 0 0 
2405666666.6666665077 0.170118197798728887359942518742 0.003209328977391124205348349463 0.002979907207190990014317177881 -0.000214863786823116188675480975 0 0 0 0 
2405833333.3333334923 0.169947475194931002517861884371 0.001630158047191798903821635669 0.003108937293291091918945312500 -0.000343505205819383317798060284 0 0 0 0 
2406000000.0000000000 0.169997110962867709060830634371 -0.000213965162402018904685974121 0.003203478874638677077052451025 -0.000585003755986690521240234375 0 0 0 0 
2406166666.6666665077 0.169617742300033597091513115629 -0.001665660412982105991960835034 0.003241428174078464941737509619 -0.000663373561110347509384155273 0 0 0 0 
2406333333.3333334923 0.169844865798950195312500000000 -0.003320032963529229164123535156 0.002930276095867156982421875000 -0.000875436584465205669403076172 0 0 0 0 
2406500000.0000000000 0.169617414474487304687500000000 -0.005013290327042341232299804688 0.003238449338823556900024414062 -0.001119282213039695999742817456 0 0 0 0 
2406666666.6666665077 0.169262677431106595138388115629 -0.006549226585775613784790039062 0.003310438245534896850585937500 -0.001103813294321299032924033057 0 0 0 0 
2406833333.3333334923 0.169219136238098089020098768742 -0.008205871097743511199951171875 0.003473617602139710946324013818 -0.001410555327311157963396381909 0 0 0 0 
2407000000.0000000000 0.169161871075630187988281250000 -0.009721321053802967071533203125 0.003252892056480050086975097656 -0.001681735971942543983459472656 0 0 0 0 
2407166666.6666665077 0.168980255722999600509481865629 -0.011024006642401220149030116602 0.003264999249950050873997353662 -0.001794818090274930000305175781 0 0 0 0 
2407333333.3333334923 0.168745338916778592208700615629 -0.012573899701237680262555507227 0.003288744948804378943202353369 -0.002077521756291389899012900244 0 0 0 0 
2407500000.0000000000 0.168483167886734008789062500000 -0.013738056644797330338447771680 0.003150509204715489907505654443 -0.002398887183517218069789267432 0 0 0 0 
2407666666.6666665077 0.168437823653221102615518134371 -0.015041728504002090799351876171 0.003087613964453340010402060400 -0.002548613818362354798557900537 0 0 0 0 
2407833333.3333334923 0.168085843324661310393963731258 -0.016313524916768070566197579296 0.003082328243181108994724892725 -0.002891442039981483979466103662 0 0 0 0 
2408000000.0000000000 0.168084397912025507171307481258 -0.017372433096170428884486014454 0.002659335732460021972656250000 -0.003067777724936604933497763525 0 0 0 0 
2408166666.6666665077 0.168009206652641296386718750000 -0.018331740051507949829101562500 0.002603614004328846931457519531 -0.003076680703088641166687011719 0 0 0 0 
2408333333.3333334923 0.168152958154678289215411268742 -0.019353907555341720581054687500 0.002456105081364512009861611475 -0.003451474709436296983006142725 0 0 0 0 
2408500000.0000000000 0.167937517166137695312500000000 -0.020258292555809020996093750000 0.002105535939335823059082031250 -0.003637662157416344122645712744 0 0 0 0 
2408666666.6666665077 0.168133452534675598144531250000 -0.021398955956101421010950858204 0.001766008441336452960968017578 -0.003754721954464911980869912256 0 0 0 0 
2408833333.3333334923 0.168099761009216308593750000000 -0.022036084905266758310338204296 0.001617985661141573949101113428 -0.003678701352328062057495117188 0 0 0 0 
2409000000.0000000000 0.168210327625274713714276231258 -0.022922754287719730031946951954 0.001176836900413035912754677881 -0.003681262722238897843601845850 0 0 0 0 
2409166666.6666665077 0.168444737792015103439169365629 -0.023941406980156898498535156250 0.000959170109126716852188110352 -0.003472459968179463906529091943 0 0 0 0 
2409333333.3333334923 0.168606609106063787262286268742 -0.024763613939285278320312500000 0.000633558025583624839782714844 -0.003348309546709061102626181494 0 0 0 0 
2409500000.0000000000 0.168766811490058898925781250000 -0.025778198614716529846191406250 0.000522608985193073749542236328 -0.003312164917588233947753906250 0 0 0 0 
2409666666.6666665077 0.168844074010848999023437500000 -0.026570482179522510873814766796 0.000234409904805943396970471793 -0.003142675850540399985072470557 0 0 0 0 
2409833333.3333334923 0.168977290391921997070312500000 -0.027461158111691478383997733204 0.000327469926560297608375549316 -0.002926392480731010003330849756 0 0 0 0 
2410000000.0000000000 0.169294759631156893631143134371 -0.028285933658480640756627266796 0.000147885657497681704446515494 -0.002871907548978925184962607275 0 0 0 0 
2410166666.6666665077 0.169269353151321411132812500000 -0.029289433732628818857213204296 0.000285278743831440806388854980 -0.002657897537574172019958496094 0 0 0 0 
2410333333.3333334923 0.169302761554717989822549384371 -0.030091498047113418579101562500 0.000005251385118754114955663681 -0.002521267626434565024134970557 0 0 0 0 
2410500000.0000000000 0.169401645660400390625000000000 -0.030920630320906639099121093750 0.000174381610122509300708770752 -0.002335524419322609901428222656 0 0 0 0 
2410666666.6666665077 0.169122651219368008712606865629 -0.031972806900739669799804687500 0.000229602796025574207305908203 -0.002296491060405970053431845557 0 0 0 0 
2410833333.3333334923 0.169215515255928011795205634371 -0.032663758844137191772460937500 0.000241194691625423702314653940 -0.002169417683035134835484170068 0 0 0 0 
2411000000.0000000000 0.169103264808654812911825615629 -0.033681146800518042827565778907 0.000251804856816306710243225098 -0.002078881254419683976414345850 0 0 0 0 
2411166666.6666665077 0.169053494930267306228799384371 -0.034519586712121956562082658593 0.000544533133506774902343750000 -0.001994371647015213966369628906 0 0 0 0 
2411333333.3333334923 0.168757960200309808929119981258 -0.035461295396089546894113908593 0.000546702241990715265274047852 -0.002018844243139028982875204932 0 0 0 0 
2411500000.0000000000 0.168498635292053194900674384371 -0.036362104117870330810546875000 0.000611675728578120470046997070 -0.002199855865910648865940713037 0 0 0 0 
2411666666.6666665077 0.168283686041831997970419365629 -0.037327300757169716571848283593 0.000744057178962975740432739258 -0.002159195952117443084716796875 0 0 0 0 
2411833333.3333334923 0.168052732944488497635049384371 -0.038066849112510681152343750000 0.000633377523627132177352905273 -0.002391621703281999068019247900 0 0 0 0 
2412000000.0000000000 0.167779162526130704025106865629 -0.039039395749568939208984375000 0.000848683470394462347030639648 -0.002648599212989211082458496094 0 0 0 0 
2412166666.6666665077 0.167739421129226712325888115629 -0.039831601083278662944753278907 0.000800031179096549749374389648 -0.002753182547166943983790732275 0 0 0 0 
2412333333.3333334923 0.167423605918884305099325615629 -0.040733724832534790039062500000 0.000911795592401176691055297852 -0.002762622432783246040344238281 0 0 0 0 
2412500000.0000000000 0.167116373777389498611611884371 -0.041593898087739937519113908593 0.000753183325286954641342163086 -0.003066011937335133986232138525 0 0 0 0 
2412666666.6666665077 0.166657269001007107833700615629 -0.042829781770706176757812500000 0.000604733068030327558517456055 -0.003187377704307436943054199219 0 0 0 0 
2412833333.3333334923 0.166312441229820306975994981258 -0.043654412031173712993581403907 0.000470128987217321991920471191 -0.003328082617372273965122841943 0 0 0 0 
2413000000.0000000000 0.165612220764160211761151231258 -0.044550843536853790283203125000 0.000330616865539923310279846191 -0.003456099424511193795445107568 0 0 0 0 
2413166666.6666665077 0.165217265486717196365518134371 -0.045617736876010901714284528907 0.000313483702484518289566040039 -0.003658008063212037086486816406 0 0 0 0 
2413333333.3333334923 0.164713874459266690353231865629 -0.046492166817188262939453125000 0.000141490803798660608843126840 -0.003615640802308917045593261719 0 0 0 0 
2413500000.0000000000 0.164345100522041293045205634371 -0.047570604830980300903320312500 -0.000164950717589817886978703632 -0.003909069113433361053466796875 0 0 0 0 
2413666666.6666665077 0.163979589939117403885049384371 -0.048695366829633712768554687500 -0.000195329092093743410989484244 -0.003821161808446050123927451025 0 0 0 0 
2413833333.3333334923 0.163349866867065401931924384371 -0.049539528787136077880859375000 -0.000400455697672441601753234863 -0.004045237787067890167236328125 0 0 0 0 
2414000000.0000000000 0.162668868899345397949218750000 -0.050518780946731567382812500000 -0.000841313332784920930862426758 -0.003874612273648380799534463037 0 0 0 0 
2414166666.6666665077 0.162467986345291109939736884371 -0.051453649997711181640625000000 -0.001028696540743112997767783057 -0.003895050380378961996791220557 0 0 0 0 
2414333333.3333334923 0.162000864744186401367187500000 -0.052397988736629493022878278907 -0.001274135545827447934391640771 -0.003997492603957653045654296875 0 0 0 0 
2414500000.0000000000 0.161824733018875094314736884371 -0.053475260734558112407643903907 -0.001503574545495212078094482422 -0.003813168732449411912205361475 0 0 0 0 
2414666666.6666665077 0.161293625831604003906250000000 -0.054427906870841979980468750000 -0.001669079530984163067461323315 -0.003763514105230569839477539062 0 0 0 0 
2414833333.3333334923 0.160974934697151211837606865629 -0.055360034108161933208425153907 -0.001923595787957310893415141528 -0.003713083220645784898045205225 0 0 0 0 
2415000000.0000000000 0.160731002688407897949218750000 -0.056382108479738242412526716407 -0.002036168240010737939121865381 -0.003537459997460246086120605469 0 0 0 0 
2415166666.6666665077 0.160487443208694513518963731258 -0.057565171271562583232839216407 -0.002165847690775990919825888525 -0.003321364754810928864720009912 0 0 0 0 
2415333333.3333334923 0.160337924957275390625000000000 -0.058755766600370407104492187500 -0.002288428833708167076110839844 -0.003354415530338882966282509912 0 0 0 0 
2415500000.0000000000 0.160167559981346102615518134371 -0.059726897627115249633789062500 -0.002517797751352190971374511719 -0.003192279487848281860351562500 0 0 0 0 
2415666666.6666665077 0.159996449947357205489950615629 -0.060843009501695632934570312500 -0.002550117671489716009852743994 -0.002860258333384991125819540869 0 0 0 0 
2415833333.3333334923 0.159855157136917086502236884371 -0.062145717442035681987722028907 -0.002678090939298272132873535156 -0.002835575724020599885227822412 0 0 0 0 
2416000000.0000000000 0.159361258149147005935830634371 -0.063379794359207153320312500000 -0.002649626927450298829319619287 -0.002656362950801848931553506006 0 0 0 0 
2416166666.6666665077 0.159445106983184786697549384371 -0.064498670399188995361328125000 -0.002774066990241407914402627100 -0.002473622327670454978942871094 0 0 0 0 
2416333333.3333334923 0.159078210592269897460937500000 -0.065706081688404083251953125000 -0.002719636075198649926426552881 -0.002521399874240159988403320312 0 0 0 0 
2416500000.0000000000 0.158751294016838101486044365629 -0.066924743354320526123046875000 -0.002831846941262484030482626807 -0.002322537126019597053527832031 0 0 0 0 
2416666666.6666665077 0.158602058887481689453125000000 -0.068168088793754577636718750000 -0.002700575860217214064357138525 -0.002366880886256694793701171875 0 0 0 0 
2416833333.3333334923 0.158372640609741210937500000000 -0.069440975785255432128906250000 -0.002789577236399054960963583838 -0.002189036924391984939575195312 0 0 0 0 
2417000000.0000000000 0.157792717218399103362713731258 -0.070610277354717254638671875000 -0.002826025243848561806919716943 -0.002188914455473423004150390625 0 0 0 0 
2417166666.6666665077 0.157574832439422607421875000000 -0.071536801755428314208984375000 -0.002997530391439795927760458838 -0.002060616854578257040736533057 0 0 0 0 
2417333333.3333334923 0.157363370060920687576455634371 -0.072593010962009429931640625000 -0.003069540020078421072718954932 -0.002093305112794042067286826025 0 0 0 0 
2417500000.0000000000 0.156919300556182889083700615629 -0.073826767504215240478515625000 -0.003136719809845089912414550781 -0.001913816784508526108385395581 0 0 0 0 
2417666666.6666665077 0.156843721866607693771200615629 -0.074550189077854156494140625000 -0.003272358095273375944850302588 -0.001749358838424087004420615088 0 0 0 0 
2417833333.3333334923 0.156390219926834106445312500000 -0.075394235551357269287109375000 -0.003306060563772916793823242188 -0.001682964386418462016462016528 0 0 0 0 
2418000000.0000000000 0.155970409512519808670205634371 -0.076379455626010894775390625000 -0.003440563799813390211818076025 -0.001587128848768770911573100513 0 0 0 0 
2418166666.6666665077 0.155745163559913607498330634371 -0.077070139348506927490234375000 -0.003589734900742768807652138818 -0.001442819717340170903446816553 0 0 0 0 
2418333333.3333334923 0.155653655529022189041299384371 -0.078109927475452423095703125000 -0.003712656674906611008885048975 -0.001321592368185519955278706128 0 0 0 0 
2418500000.0000000000 0.155258372426032992263955634371 -0.078740604221820831298828125000 -0.003562754718586802916285849463 -0.001123878755606710910797119141 0 0 0 0 
2418666666.6666665077 0.155065447092056302169638115629 -0.079673238098621368408203125000 -0.003683051327243446870091103662 -0.000946133164688944816589355469 0 0 0 0 
2418833333.3333334923 0.154629036784172113616619981258 -0.080520197749137878417968750000 -0.003827887587249279022216796875 -0.000715485308319330215454101562 0 0 0 0 
2419000000.0000000000 0.154320865869522094726562500000 -0.081208035349845886230468750000 -0.003658560337498784065246582031 -0.000424366124207153916358947754 0 0 0 0 
2419166666.6666665077 0.154038339853286687652911268742 -0.081819012761116027832031250000 -0.003639347385615109963657998193 -0.000404559017624705975681859149 0 0 0 0 
2419333333.3333334923 0.153626099228859003265057481258 -0.082425743341445922851562500000 -0.003635178320109844207763671875 -0.000104285194538533701144079890 0 0 0 0 
2419500000.0000000000 0.153311818838119506835937500000 -0.083218447864055633544921875000 -0.003549118526279925866367959131 0.000055350112234009429812431335 0 0 0 0 
2419666666.6666665077 0.153016522526741000076455634371 -0.083784900605678558349609375000 -0.003398339729756116867065429688 0.000170732833794318112448015756 0 0 0 0 
2419833333.3333334923 0.152727216482162503341513115629 -0.084302417933940887451171875000 -0.003550858469679952101466513525 0.000276800739811733419269007550 0 0 0 0 
