# Hz S RI R 
2400000000.0000000000 0.158023566007614107986611884371 0.062113508582115173339843750000 -0.004200676921755076322073652051 0.003094003535807133154628134619 0 0 0 0 
2400166666.6666665077 0.158028990030288696289062500000 0.060399580746889107440988908593 -0.004146026447415351867675781250 0.003077991306781768798828125000 0 0 0 0 
2400333333.3333334923 0.157875508069992093185263115629 0.058368314057588577270507812500 -0.003962437156587839126586914062 0.003257736098021268844604492188 0 0 0 0 
2400500000.0000000000 0.157860398292541503906250000000 0.056580778211355209350585937500 -0.003852457040920854048487997900 0.003480403684079647064208984375 0 0 0 0 
2400666666.6666665077 0.157897889614105196853799384371 0.054670944809913642192800153907 -0.003675402840599418120143271338 0.003460126696154475212097167969 0 0 0 0 
2400833333.3333334923 0.158137634396553011795205634371 0.052781533449888229370117187500 -0.003597103292122482819798134912 0.003538258373737335205078125000 0 0 0 0 
2401000000.0000000000 0.158188894391059903243856865629 0.050680454820394522930104841407 -0.003647560952231287956237792969 0.003732451470568776130676269531 0 0 0 0 
2401166666.6666665077 0.158478304743766812423544365629 0.048624269664287567138671875000 -0.003472377778962254957911826025 0.003713720943778752846958779443 0 0 0 0 
2401333333.3333334923 0.158593848347663907150106865629 0.046629048883914947509765625000 -0.003472192911431192918064736475 0.004047618713229894638061523438 0 0 0 0 
2401500000.0000000000 0.159024313092231805999432481258 0.044721711426973342895507812500 -0.003205655608326197104213095557 0.003921411931514739990234375000 0 0 0 0 
2401666666.6666665077 0.159193068742752102950888115629 0.042643904685974121093750000000 -0.003217810066416860060450888525 0.004254980012774468335623456738 0 0 0 0 
2401833333.3333334923 0.159661576151847811599893134371 0.040594503283500671386718750000 -0.002855152590200304985046386719 0.004315825644880533218383789062 0 0 0 0 
2402000000.0000000000 0.159966841340065002441406250000 0.038655094802379608154296875000 -0.002715270267799497084376669775 0.004539049696177244186401367188 0 0 0 0 
2402166666.6666665077 0.160522729158401489257812500000 0.036686480045318596576731096093 -0.002729871077463030815124511719 0.004719789605587720870971679688 0 0 0 0 
2402333333.3333334923 0.161035493016243008712606865629 0.034831371158361441875417341407 -0.002595777623355389075038290869 0.004850859288126230239868164062 0 0 0 0 
2402500000.0000000000 0.161815539002418490310830634371 0.032982099801301963115651716407 -0.002341600134968758063075400244 0.004815649241209030151367187500 0 0 0 0 
2402666666.6666665077 0.162638112902641296386718750000 0.031295496970415122295339216407 -0.002115864073857665061950683594 0.005022035911679267883300781250 0 0 0 0 
2402833333.3333334923 0.163284108042717007736044365629 0.029836721718311309814453125000 -0.002015384845435618920567177881 0.005065844394266605377197265625 0 0 0 0 
2403000000.0000000000 0.163881450891494806487713731258 0.027967449277639389038085937500 -0.001851126202382147095323872144 0.005080417729914188385009765625 0 0 0 0 
2403166666.6666665077 0.164911195635795593261718750000 0.026539210230112079275111014454 -0.001674573635682464079615927588 0.005310611799359321594238281250 0 0 0 0 
2403333333.3333334923 0.165894493460655212402343750000 0.025011114776134490966796875000 -0.001373999286442995071411132812 0.005304338410496711730957031250 0 0 0 0 
2403500000.0000000000 0.166658282279968289474325615629 0.023729033768177029001256173046 -0.001182748354040086052538227612 0.005587944760918617248535156250 0 0 0 0 
2403666666.6666665077 0.167645752429962213714276231258 0.022290617227554321289062500000 -0.000819583132397383451461791992 0.005513047799468041333670331738 0 0 0 0 
2403833333.3333334923 0.168711498379707308670205634371 0.021012730896472930908203125000 -0.000627371598966419696807861328 0.005441147368401288986206054688 0 0 0 0 
2404000000.0000000000 0.169548034667968805511151231258 0.019854141399264339101771170704 -0.000503194925840944051742553711 0.005533983930945396423339843750 0 0 0 0 
2404166666.6666665077 0.170521110296249389648437500000 0.018665948882699009286900704296 -0.000152144260937348008155822754 0.005527802743017674359793378613 0 0 0 0 
2404333333.3333334923 0.171383067965507507324218750000 0.017764814198017120361328125000 0.000037288566090865060687065125 0.005639097653329372406005859375 0 0 0 0 
2404500000.0000000000 0.172310709953308105468750000000 0.016788899898529049264928048046 0.000317089841701090281635838641 0.005772866308689117431640625000 0 0 0 0 
2404666666.6666665077 0.173273280262947110275106865629 0.015881754457950588571568673046 0.000560461194254457950592041016 0.005735702812671661376953125000 0 0 0 0 
2404833333.3333334923 0.174180597066879300216513115629 0.015180882997810840606689453125 0.000609764421824365854263305664 0.005491684190928936004638671875 0 0 0 0 
2405000000.0000000000 0.174976006150245694259481865629 0.014457790181040760385533516796 0.001141908927820622920989990234 0.005486804060637950897216796875 0 0 0 0 
2405166666.6666665077 0.175847947597503689864950615629 0.013739698566496370488176914648 0.001425430178642272949218750000 0.005525467917323113355154706738 0 0 0 0 
2405333333.3333334923 0.176675304770469693282919365629 0.013027636334300039464006992773 0.001530193723738193945643759619 0.005381157156080008420462323926 0 0 0 0 
2405500000.0000000000 0.177256956696510287185830634371 0.012557270005345349747627459180 0.001721896813251077911974262769 0.005317206960171461105346679688 0 0 0 0 
2405666666.6666665077 0.177861779928207397460937500000 0.012085280381143089639683907421 0.001923495670780539946315146338 0.005374998319894075393676757812 0 0 0 0 
2405833333.3333334923 0.178347259759903009612713731258 0.011911612004041670018206211523 0.002192873740568757057189941406 0.005263449624180793762207031250 0 0 0 0 
2406000000.0000000000 0.178920313715934808929119981258 0.011317626573145389556884765625 0.002330688294023274941685341943 0.005109236110001801577096269824 0 0 0 0 
2406166666.6666665077 0.179214879870414706131143134371 0.010907165706157680856724923046 0.002544118789955974058863974463 0.005007879808545112609863281250 0 0 0 0 
2406333333.3333334923 0.179742440581321688553018134371 0.010619256645441060502021990430 0.003225163556635379791259765625 0.004944354761391878128051757812 0 0 0 0 
2406500000.0000000000 0.180044934153556795974893134371 0.010210359469056129455566406250 0.003323635319247841835021972656 0.004784689284861087799072265625 0 0 0 0 
2406666666.6666665077 0.180031046271324213225994981258 0.009906738065183162689208984375 0.003467666683718562126159667969 0.004419529344886541366577148438 0 0 0 0 
2406833333.3333334923 0.180296838283538790603799384371 0.009504797868430614471435546875 0.003647233825176953835728310693 0.004428898449987173080444335938 0 0 0 0 
2407000000.0000000000 0.180424809455871609786825615629 0.009195750579237937927246093750 0.003890182822942734198329306494 0.004129710141569375991821289062 0 0 0 0 
2407166666.6666665077 0.180487766861915588378906250000 0.008900839835405349731445312500 0.004124544560909271240234375000 0.003900069976225494904759072412 0 0 0 0 
2407333333.3333334923 0.180327862501144409179687500000 0.008368906565010547637939453125 0.004119253251701593399047851562 0.003621016396209598021266318213 0 0 0 0 
2407500000.0000000000 0.180096045136451693435830634371 0.007963359355926513671875000000 0.004376308061182498931884765625 0.003576597664505242867710732568 0 0 0 0 
2407666666.6666665077 0.180004581809043912032919365629 0.007423312868922948837280273438 0.004398948047310113906860351562 0.003379711415618658065795898438 0 0 0 0 
2407833333.3333334923 0.179499730467796297928018134371 0.006673203781247138977050781250 0.004643958061933518323416425488 0.003083633957430719895603798975 0 0 0 0 
2408000000.0000000000 0.179167926311492892166299384371 0.006062549538910388946533203125 0.004714240320026875409598066113 0.002882416592910885810852050781 0 0 0 0 
2408166666.6666665077 0.178687095642089788238848768742 0.005495415534824132919311523438 0.004813295789062976837158203125 0.002559167798608541922328329932 0 0 0 0 
2408333333.3333334923 0.178472638130187988281250000000 0.004837307613343000411987304688 0.004821700975298882398123456738 0.002320534549653530120849609375 0 0 0 0 
2408500000.0000000000 0.177840888500213595291299384371 0.003859708784148097038269042969 0.004971599206328392028808593750 0.002088469918817282156703329932 0 0 0 0 
2408666666.6666665077 0.177243918180465698242187500000 0.003020628588274120850803994287 0.004953883122652769088745117188 0.001835240167565644004224467700 0 0 0 0 
2408833333.3333334923 0.176474601030349703689736884371 0.001936715911142528057098388672 0.004858150146901608380789472363 0.001667674980126321098924946362 0 0 0 0 
2409000000.0000000000 0.175771489739418002029580634371 0.000958659918978810310363769531 0.005081816110759974393362714551 0.001257461146451533057569194263 0 0 0 0 
2409166666.6666665077 0.175247043371200589279013115629 -0.000236836800468154305785578595 0.004946026485413312911987304688 0.001198644749820231957676552881 0 0 0 0 
2409333333.3333334923 0.174763962626457186599893134371 -0.001529688131995498917223286206 0.004941184539347887039184570312 0.000943874649237841367721557617 0 0 0 0 
2409500000.0000000000 0.173983618617057800292968750000 -0.002854975406080483956577920068 0.004994309972971677780151367188 0.000804649316705763339996337891 0 0 0 0 
2409666666.6666665077 0.173233449459075899978799384371 -0.004246170632541179656982421875 0.004935521166771650314331054688 0.000501620874274522066116333008 0 0 0 0 
2409833333.3333334923 0.172706365585327203948651231258 -0.005574028939008712768554687500 0.004856328945606946945190429688 0.000173663560417480793878278189 0 0 0 0 
2410000000.0000000000 0.171974480152130099197549384371 -0.007056763861328363418579101562 0.004898400511592626571655273438 0.000109246109786909100696286612 0 0 0 0 
2410166666.6666665077 0.171474769711494501311932481258 -0.008633871562778949737548828125 0.005059733055531978607177734375 -0.000060574151575565338134765625 0 0 0 0 
2410333333.3333334923 0.170721888542175292968750000000 -0.010256940498948100698450858204 0.004685754422098398208618164062 -0.000368604290997609496116638184 0 0 0 0 
2410500000.0000000000 0.170391440391540499588174384371 -0.011923445388674739492396170704 0.004640146624296903610229492188 -0.000527546624653041362762451172 0 0 0 0 
2410666666.6666665077 0.169823780655860900878906250000 -0.013891876675188539677630039648 0.004670165013521909713745117188 -0.000938731187488883733749389648 0 0 0 0 
2410833333.3333334923 0.169374153017997686188067518742 -0.015441571362316610163678554102 0.004555456340312957763671875000 -0.000925626663956791162490844727 0 0 0 0 
2411000000.0000000000 0.169058859348297091385049384371 -0.017337508499622348440150076954 0.004438255447894334793090820312 -0.001115813502110541083692241138 0 0 0 0 
2411166666.6666665077 0.168795987963676508147869981258 -0.019253592938184741628626639454 0.004332954529672861099243164062 -0.001308712409809231974958110278 0 0 0 0 
2411333333.3333334923 0.168435871601104708572549384371 -0.021101452410221099853515625000 0.004161748103797435760498046875 -0.001453092088922858021379780347 0 0 0 0 
2411500000.0000000000 0.168401807546615600585937500000 -0.023154074326157569885253906250 0.004188925959169864654541015625 -0.001648410689085721969604492188 0 0 0 0 
2411666666.6666665077 0.168234139680862399002236884371 -0.025075139477849010122278983204 0.003879163181409240202662802588 -0.001795025425963103988050151294 0 0 0 0 
2411833333.3333334923 0.168293759226799011230468750000 -0.026816327124834060668945312500 0.003777351696044207052943564307 -0.001919963629916310093523335034 0 0 0 0 
2412000000.0000000000 0.168391048908233587066973768742 -0.028929987922310829162597656250 0.003665371332317591147181845557 -0.002169155282899736924412392725 0 0 0 0 
2412166666.6666665077 0.168196916580200195312500000000 -0.030740037560462951660156250000 0.003525345120579003854038857568 -0.002187071368098258972167968750 0 0 0 0 
2412333333.3333334923 0.168784782290458706954794365629 -0.032606538385152816772460937500 0.003446462098509072823765420068 -0.002381002530455588860752724756 0 0 0 0 
2412500000.0000000000 0.168818831443786593338174384371 -0.034426033496856689453125000000 0.003182157408446073965785361182 -0.002483826130628585815429687500 0 0 0 0 
2412666666.6666665077 0.169385164976119995117187500000 -0.036325875669717788696289062500 0.003026608144864439964294433594 -0.002634036354720592932460165869 0 0 0 0 
2412833333.3333334923 0.169513046741485595703125000000 -0.038407154381275177001953125000 0.002957463497295976118800497900 -0.002783258911222219900843954932 0 0 0 0 
2413000000.0000000000 0.169801309704780606368856865629 -0.039824876934289932250976562500 0.002924121450632811026332236182 -0.002810248406603931946995400537 0 0 0 0 
2413166666.6666665077 0.170334577560424804687500000000 -0.041546590626239776611328125000 0.002775579923763871192932128906 -0.002849658252671360969543457031 0 0 0 0 
2413333333.3333334923 0.170697882771492004394531250000 -0.043284129351377487182617187500 0.002465647412464023070094443213 -0.002998998388648033142089843750 0 0 0 0 
2413500000.0000000000 0.171194523572921808440838731258 -0.044839095324277877807617187500 0.002282430650666356086730957031 -0.003037549555301665826084756006 0 0 0 0 
2413666666.6666665077 0.171728953719139099121093750000 -0.046362988650798797607421875000 0.002027590991929173903224326025 -0.003097716253250836892368935693 0 0 0 0 
2413833333.3333334923 0.172093182802200289627236884371 -0.047960892319679260253906250000 0.001824326463975012085558247144 -0.003104198724031447930576943506 0 0 0 0 
2414000000.0000000000 0.172652214765548706054687500000 -0.049243785440921783447265625000 0.001791585702449082894566201318 -0.003125161398202180862426757812 0 0 0 0 
2414166666.6666665077 0.173353031277656610686932481258 -0.050412397831678390502929687500 0.001523523009382188103319477612 -0.003208655398339033126831054688 0 0 0 0 
2414333333.3333334923 0.173696994781494112869424384371 -0.051837697625160217285156250000 0.001449284376576543071149516528 -0.003360688686370850043055868994 0 0 0 0 
2414500000.0000000000 0.174307733774185208419638115629 -0.052817247807979576801340471093 0.001138190855272114060045551831 -0.003197187790647149085998535156 0 0 0 0 
2414666666.6666665077 0.174779608845710809905682481258 -0.053790897130966193462331403907 0.001006054924800992012023925781 -0.003070119069889187812805175781 0 0 0 0 
2414833333.3333334923 0.175181284546852111816406250000 -0.054738394916057586669921875000 0.000823698181193321943283081055 -0.003105903277173637910130166162 0 0 0 0 
2415000000.0000000000 0.175615623593330411056356865629 -0.055668670684099197387695312500 0.000766542681958526372909545898 -0.003184611676260828971862792969 0 0 0 0 
2415166666.6666665077 0.175984308123588589767294365629 -0.056430019438266747211496721093 0.000529129814822226762771606445 -0.003051192266866565184352255713 0 0 0 0 
2415333333.3333334923 0.176385164260864313323651231258 -0.057271346449851989746093750000 0.000273763027507811784744262695 -0.003077110741287469863891601562 0 0 0 0 
2415500000.0000000000 0.176681235432624789138955634371 -0.057756014168262481689453125000 0.000223767419811338213369092398 -0.003064743010327219963073730469 0 0 0 0 
2415666666.6666665077 0.176961362361907986739950615629 -0.058298617601394653320312500000 0.000006750261945853708311915398 -0.002930276794359087944030761719 0 0 0 0 
2415833333.3333334923 0.177076146006584195236044365629 -0.058788474649190902709960937500 -0.000122828874737024307250976562 -0.002705936087295413017272949219 0 0 0 0 
2416000000.0000000000 0.176998034119605990310830634371 -0.059250798076391220092773437500 -0.000165711331646889502376002179 -0.002681600162759422822239541162 0 0 0 0 
2416166666.6666665077 0.177228897809982299804687500000 -0.059644326567649841308593750000 -0.000255953375017270500033778058 -0.002737680217251182036158896338 0 0 0 0 
2416333333.3333334923 0.177201032638549804687500000000 -0.059931445866823203350026716407 -0.000473040709039196426242274152 -0.002581560052931309180018759619 0 0 0 0 
2416500000.0000000000 0.177054733037948608398437500000 -0.060320015996694571758229841407 -0.000487899465952068621486109601 -0.002451225882396101951599121094 0 0 0 0 
2416666666.6666665077 0.176844298839569091796875000000 -0.060624752193689353252370466407 -0.000605367880780249834060668945 -0.002390040084719657897949218750 0 0 0 0 
2416833333.3333334923 0.176607429981231689453125000000 -0.060906920582056052471120466407 -0.000520198023878037929534912109 -0.002212767954915761947631835938 0 0 0 0 
2417000000.0000000000 0.176067635416984613616619981258 -0.061164576560258872295339216407 -0.000807132921181619167327880859 -0.002228728495538235144374228369 0 0 0 0 
2417166666.6666665077 0.175661921501159695724325615629 -0.061367947608232498168945312500 -0.000587799353525042533874511719 -0.002199817681685090065002441406 0 0 0 0 
2417333333.3333334923 0.175195649266243008712606865629 -0.061557807028293609619140625000 -0.000882525055203586816787719727 -0.001962900627404450936558388818 0 0 0 0 
2417500000.0000000000 0.174504518508911105056924384371 -0.062028147280216217041015625000 -0.000884667679201811552047729492 -0.001921963412314652962925576318 0 0 0 0 
2417666666.6666665077 0.173869922757148687164630018742 -0.061982508748769760131835937500 -0.000882432272192090749740600586 -0.001845572609454392953159951318 0 0 0 0 
2417833333.3333334923 0.173048257827758789062500000000 -0.062286194413900382305104841407 -0.000934903160668909549713134766 -0.001871350104920566082000732422 0 0 0 0 
2418000000.0000000000 0.172231391072273309905682481258 -0.062759563326835632324218750000 -0.000882556545548141002655029297 -0.001599207869730890014051127856 0 0 0 0 
2418166666.6666665077 0.171178787946701105315838731258 -0.062992155551910400390625000000 -0.000916127115488052368164062500 -0.001602528616786002895952534253 0 0 0 0 
2418333333.3333334923 0.170464947819709805587606865629 -0.063504256308078765869140625000 -0.001102533191442490057704306494 -0.001619922462850809097290039062 0 0 0 0 
2418500000.0000000000 0.169277191162109402755575615629 -0.063866712152957916259765625000 -0.001093517872504889965057373047 -0.001407004077918827967402792822 0 0 0 0 
2418666666.6666665077 0.168316289782524108886718750000 -0.064451143145561218261718750000 -0.000988572021014988422393798828 -0.001407375908456742980359721606 0 0 0 0 
2418833333.3333334923 0.166992574930191012283486884371 -0.065076537430286407470703125000 -0.001071872306056321100947714697 -0.001263772719539701938629150391 0 0 0 0 
2419000000.0000000000 0.165826275944709805587606865629 -0.065648570656776428222656250000 -0.001062085852026938958408974756 -0.001270318287424742958666157300 0 0 0 0 
2419166666.6666665077 0.164807125926017788986044365629 -0.066394433379173278808593750000 -0.001000060583464801094652485425 -0.001172233955003320953966450269 0 0 0 0 
2419333333.3333334923 0.163445711135864313323651231258 -0.066924430429935455322265625000 -0.001218020566739141941070556641 -0.001056080101989210085627890479 0 0 0 0 
2419500000.0000000000 0.162273362278938293457031250000 -0.067953437566757202148437500000 -0.001112724188715219931361533057 -0.001061450806446373896357870947 0 0 0 0 
2419666666.6666665077 0.161235168576240511795205634371 -0.068861886858940124511718750000 -0.001156564452685415961621928638 -0.000858048093505203723907470703 0 0 0 0 
2419833333.3333334923 0.159949526190757806975994981258 -0.069632083177566528320312500000 -0.000975730014033615589141845703 -0.000971533532720059156417846680 0 0 0 0 
