# Version 1.00
#
freq[Hz];re:Trc1_S11;im:Trc1_S11;re:Trc2_S21;im:Trc2_S21;
2.400000000000000E+009;1.629024595022202E-001;5.264599248766899E-002;-6.062749773263931E-003;2.728502498939633E-003;
2.400166666666667E+009;1.628228724002838E-001;5.101048201322556E-002;-6.164314225316048E-003;3.092141356319189E-003;
2.400333333333334E+009;1.626109778881073E-001;4.918237030506134E-002;-6.024356465786696E-003;3.349275328218937E-003;
2.400500000000000E+009;1.626475006341934E-001;4.730661958456039E-002;-6.099763326346874E-003;3.600611118599773E-003;
2.400666666666667E+009;1.625297516584396E-001;4.543730616569519E-002;-5.909274797886610E-003;3.916000947356224E-003;
2.400833333333334E+009;1.627006381750107E-001;4.358972609043121E-002;-5.898677278310061E-003;4.249136429280043E-003;
2.401000000000000E+009;1.626868695020676E-001;4.149380326271057E-002;-5.663427524268627E-003;4.575937520712614E-003;
2.401166666666667E+009;1.628767400979996E-001;3.946755826473236E-002;-5.626895464956760E-003;4.858207888901234E-003;
2.401333333333334E+009;1.628374159336090E-001;3.748407587409020E-002;-5.374003201723099E-003;5.064663011580706E-003;
2.401500000000000E+009;1.632078438997269E-001;3.548144549131393E-002;-5.149409174919128E-003;5.321853794157505E-003;
2.401666666666667E+009;1.633802950382233E-001;3.340875729918480E-002;-4.918674938380718E-003;5.712244659662247E-003;
2.401833333333334E+009;1.635451316833496E-001;3.136188909411430E-002;-4.651846829801798E-003;6.140141747891903E-003;
2.402000000000000E+009;1.638501882553101E-001;2.953438088297844E-002;-4.293489269912243E-003;6.240190472453833E-003;
2.402166666666667E+009;1.641205400228500E-001;2.736698091030121E-002;-4.028853029012680E-003;6.453503388911486E-003;
2.402333333333334E+009;1.644591540098190E-001;2.563629671931267E-002;-3.877307288348675E-003;6.654774304479361E-003;
2.402500000000000E+009;1.651230156421661E-001;2.359856478869915E-002;-3.335372777655721E-003;7.056710310280323E-003;
2.402666666666667E+009;1.657248139381409E-001;2.199288643896580E-002;-2.988013206049800E-003;7.157580927014351E-003;
2.402833333333334E+009;1.661619096994400E-001;2.050451003015041E-002;-2.712274901568890E-003;7.144767325371504E-003;
2.403000000000000E+009;1.670709401369095E-001;1.852003857493401E-002;-2.182607538998127E-003;7.459479384124279E-003;
2.403166666666667E+009;1.677523851394653E-001;1.695844903588295E-002;-1.730744377709925E-003;7.632695604115725E-003;
2.403333333333334E+009;1.684543341398239E-001;1.558435615152121E-002;-1.348566147498786E-003;7.477767299860716E-003;
2.403500000000000E+009;1.689595878124237E-001;1.405163574963808E-002;-8.244551718235016E-004;7.664382923394442E-003;
2.403666666666667E+009;1.697011739015579E-001;1.258664764463902E-002;-5.062770214863122E-004;7.700875401496887E-003;
2.403833333333334E+009;1.707472801208496E-001;1.105309370905161E-002;-1.437786559108645E-004;7.703289389610291E-003;
2.404000000000000E+009;1.714061349630356E-001;9.906717576086521E-003;3.506719949655235E-004;7.695186883211136E-003;
2.404166666666667E+009;1.720694899559021E-001;8.665334433317184E-003;6.803615833632648E-004;7.479957770556212E-003;
2.404333333333334E+009;1.730513423681259E-001;7.611097302287817E-003;1.067512203007937E-003;7.399243302643299E-003;
2.404500000000000E+009;1.735994666814804E-001;6.586548406630755E-003;1.589979161508381E-003;7.326666265726090E-003;
2.404666666666667E+009;1.745397746562958E-001;5.682791117578745E-003;2.050293143838644E-003;7.168747950345278E-003;
2.404833333333334E+009;1.751899868249893E-001;4.750041291117668E-003;2.370541682466865E-003;6.902444176375866E-003;
2.405000000000000E+009;1.760421097278595E-001;4.025164991617203E-003;2.756028901785612E-003;6.679930258542299E-003;
2.405166666666667E+009;1.766569763422012E-001;3.252219641581178E-003;3.170262556523085E-003;6.510077975690365E-003;
2.405333333333334E+009;1.774472892284393E-001;2.619556384161115E-003;3.399873152375221E-003;6.125735584646463E-003;
2.405500000000000E+009;1.779424101114273E-001;2.181089250370860E-003;3.800737671554089E-003;5.781219806522131E-003;
2.405666666666667E+009;1.785114109516144E-001;1.706159440800548E-003;3.973195329308510E-003;5.425225943326950E-003;
2.405833333333334E+009;1.787507832050324E-001;1.353182829916477E-003;4.144380800426006E-003;5.212822463363409E-003;
2.406000000000000E+009;1.794237345457077E-001;7.359433220699430E-004;4.255642648786306E-003;4.958201665431261E-003;
2.406166666666667E+009;1.795985549688339E-001;5.224311607889831E-004;4.517248831689358E-003;4.662390332669020E-003;
2.406333333333334E+009;1.801536530256271E-001;2.027324517257512E-004;4.694035742431879E-003;4.207702353596687E-003;
2.406500000000000E+009;1.802222579717636E-001;-1.013073851936497E-004;4.746860824525356E-003;4.016782157123089E-003;
2.406666666666667E+009;1.804123222827911E-001;-3.921496681869030E-004;4.822398535907269E-003;3.663702169433236E-003;
2.406833333333334E+009;1.805456578731537E-001;-6.873547681607306E-004;4.843889735639095E-003;3.161091823130846E-003;
2.407000000000000E+009;1.805175393819809E-001;-1.044806442223489E-003;5.159692373126745E-003;3.049939405173063E-003;
2.407166666666667E+009;1.806354522705078E-001;-1.159462262876332E-003;5.103548988699913E-003;2.627603011205792E-003;
2.407333333333334E+009;1.803194433450699E-001;-1.710891490802169E-003;5.153816193342209E-003;2.215758431702852E-003;
2.407500000000000E+009;1.802443712949753E-001;-1.817086478695273E-003;5.112896207720041E-003;1.985594863072038E-003;
2.407666666666667E+009;1.799785047769547E-001;-2.175203291699290E-003;5.138636101037264E-003;1.756666693836451E-003;
2.407833333333334E+009;1.795176863670349E-001;-2.893640426918864E-003;4.978533368557692E-003;1.358744455501437E-003;
2.408000000000000E+009;1.791903972625732E-001;-3.249105066061020E-003;4.902700893580914E-003;1.122032059356570E-003;
2.408166666666667E+009;1.786147356033325E-001;-3.865103004500270E-003;4.786477889865637E-003;9.902331512421370E-004;
2.408333333333334E+009;1.783126890659332E-001;-4.391754046082497E-003;4.866979550570250E-003;6.237603956833482E-004;
2.408500000000000E+009;1.775902807712555E-001;-5.135570652782917E-003;4.693252965807915E-003;3.737094521056861E-004;
2.408666666666667E+009;1.769723892211914E-001;-5.900404416024685E-003;4.370175302028656E-003;2.465276920702308E-004;
2.408833333333334E+009;1.762891858816147E-001;-6.803373806178570E-003;4.331777803599834E-003;-1.083229362848215E-004;
2.409000000000000E+009;1.755533367395401E-001;-7.582415360957384E-003;4.346199799329042E-003;-1.967028365470469E-004;
2.409166666666667E+009;1.749698817729950E-001;-8.756385184824467E-003;4.120878875255585E-003;-4.493774031288922E-004;
2.409333333333334E+009;1.742560714483261E-001;-9.728651493787766E-003;4.039954394102097E-003;-6.075255223549902E-004;
2.409500000000000E+009;1.734918206930161E-001;-1.115860603749752E-002;3.877556184306741E-003;-6.974377320148051E-004;
2.409666666666667E+009;1.725503057241440E-001;-1.219330728054047E-002;3.625152166932821E-003;-8.079248364083469E-004;
2.409833333333334E+009;1.718753725290299E-001;-1.332803908735514E-002;3.511677496135235E-003;-8.820858201943338E-004;
2.410000000000000E+009;1.713727712631226E-001;-1.483081839978695E-002;3.268453758209944E-003;-1.118002226576209E-003;
2.410166666666667E+009;1.706492453813553E-001;-1.632399298250675E-002;3.242949955165386E-003;-1.128841773606837E-003;
2.410333333333334E+009;1.698011308908463E-001;-1.780378632247448E-002;2.975721145048738E-003;-1.175487996079028E-003;
2.410500000000000E+009;1.692401617765427E-001;-1.954179257154465E-002;2.750068902969360E-003;-1.259447890333831E-003;
2.410666666666667E+009;1.685343086719513E-001;-2.139288932085037E-002;2.832325175404549E-003;-1.185505767352879E-003;
2.410833333333334E+009;1.682064384222031E-001;-2.291573025286198E-002;2.621263498440385E-003;-1.271891989745200E-003;
2.411000000000000E+009;1.675618439912796E-001;-2.479002997279167E-002;2.516665728762746E-003;-1.283439225517213E-003;
2.411166666666667E+009;1.670846194028854E-001;-2.675503306090832E-002;2.402965445071459E-003;-1.316906767897308E-003;
2.411333333333334E+009;1.667342185974121E-001;-2.853900752961636E-002;2.164398320019245E-003;-1.488254172727466E-003;
2.411500000000000E+009;1.664794236421585E-001;-3.045838698744774E-002;2.116069663316011E-003;-1.385089824907482E-003;
2.411666666666667E+009;1.663531810045242E-001;-3.238035738468170E-002;2.135724294930697E-003;-1.466973451897502E-003;
2.411833333333334E+009;1.660198420286179E-001;-3.427457064390183E-002;2.043199259787798E-003;-1.489775837399066E-003;
2.412000000000000E+009;1.658687591552734E-001;-3.652168437838554E-002;1.894424087367952E-003;-1.415456179529429E-003;
2.412166666666667E+009;1.657690852880478E-001;-3.833955526351929E-002;1.691319397650659E-003;-1.418356783688068E-003;
2.412333333333334E+009;1.661004871129990E-001;-4.019547626376152E-002;1.744951820001006E-003;-1.594131696037948E-003;
2.412500000000000E+009;1.660102456808090E-001;-4.219084233045578E-002;1.715998747386038E-003;-1.616255380213261E-003;
2.412666666666667E+009;1.662785261869431E-001;-4.420870542526245E-002;1.650523627176881E-003;-1.621739822439849E-003;
2.412833333333334E+009;1.665069162845612E-001;-4.608920961618424E-002;1.575691858306527E-003;-1.626994926482439E-003;
2.413000000000000E+009;1.666604876518250E-001;-4.774727672338486E-002;1.534186187200248E-003;-1.650323974899948E-003;
2.413166666666667E+009;1.668886840343475E-001;-4.957300052046776E-002;1.298564719036222E-003;-1.610652310773730E-003;
2.413333333333334E+009;1.673464030027390E-001;-5.141175538301468E-002;1.184882363304496E-003;-1.802139566279948E-003;
2.413500000000000E+009;1.675967872142792E-001;-5.302583798766136E-002;1.199347083456814E-003;-1.797496108338237E-003;
2.413666666666667E+009;1.680279076099396E-001;-5.474938079714775E-002;1.028918428346515E-003;-1.944597344845533E-003;
2.413833333333334E+009;1.686194390058518E-001;-5.617754533886910E-002;8.791766013018787E-004;-1.874573179520667E-003;
2.414000000000000E+009;1.689077764749527E-001;-5.764766037464142E-002;6.718439981341362E-004;-2.041897969320417E-003;
2.414166666666667E+009;1.694317311048508E-001;-5.907511711120606E-002;7.019375916570425E-004;-1.809932407923043E-003;
2.414333333333334E+009;1.698832213878632E-001;-6.036223471164703E-002;4.339087463449687E-004;-1.957777654752135E-003;
2.414500000000000E+009;1.707065552473068E-001;-6.150053068995476E-002;2.692458219826222E-004;-1.820747507736087E-003;
2.414666666666667E+009;1.709223836660385E-001;-6.250751018524170E-002;2.126983163179830E-004;-1.707096351310611E-003;
2.414833333333334E+009;1.713071763515472E-001;-6.379036605358124E-002;1.210602422361262E-004;-1.905785058625042E-003;
2.415000000000000E+009;1.718082129955292E-001;-6.458817422389984E-002;-1.636992383282632E-004;-1.688806107267737E-003;
2.415166666666667E+009;1.722098588943481E-001;-6.542915105819702E-002;-2.506206510588527E-004;-1.503304927609861E-003;
2.415333333333334E+009;1.727100908756256E-001;-6.627667695283890E-002;-4.299045249354094E-004;-1.474434975534678E-003;
2.415500000000000E+009;1.728785634040833E-001;-6.687135249376297E-002;-3.783629217650741E-004;-1.344174146652222E-003;
2.415666666666667E+009;1.731500625610352E-001;-6.750763952732086E-002;-6.733437767252326E-004;-1.419725362211466E-003;
2.415833333333334E+009;1.735231280326843E-001;-6.793704628944397E-002;-7.219554972834885E-004;-1.286449376493692E-003;
2.416000000000000E+009;1.733753681182861E-001;-6.843540072441101E-002;-8.184227044694126E-004;-1.034820685163140E-003;
2.416166666666667E+009;1.737513542175293E-001;-6.885863840579987E-002;-9.562146733514965E-004;-8.406323613598943E-004;
2.416333333333334E+009;1.737663298845291E-001;-6.913629174232483E-002;-8.288808166980743E-004;-9.381437557749450E-004;
2.416500000000000E+009;1.737269610166550E-001;-6.945781409740448E-002;-8.420877275057137E-004;-6.971576367504895E-004;
2.416666666666667E+009;1.735379844903946E-001;-6.964190304279327E-002;-8.306675590574741E-004;-6.011502700857818E-004;
2.416833333333334E+009;1.734485030174255E-001;-7.003383338451386E-002;-1.112817204557359E-003;-4.085125110577792E-004;
2.417000000000000E+009;1.729428172111511E-001;-7.021692395210266E-002;-1.058956608176231E-003;-1.771295210346580E-004;
2.417166666666667E+009;1.726052761077881E-001;-7.029823958873749E-002;-8.883974514901638E-004;-2.047048910753802E-004;
2.417333333333334E+009;1.720891296863556E-001;-7.047216594219208E-002;-1.104419352486730E-003;-6.371181370923296E-005;
2.417500000000000E+009;1.714528352022171E-001;-7.076510041952133E-002;-1.036427100189030E-003;1.547329302411526E-004;
2.417666666666667E+009;1.709847152233124E-001;-7.082387804985046E-002;-1.158000319264829E-003;3.633101296145469E-004;
2.417833333333334E+009;1.702025979757309E-001;-7.093986123800278E-002;-1.021331059746444E-003;3.912725660484284E-004;
2.418000000000000E+009;1.692463904619217E-001;-7.117918133735657E-002;-1.048615318723023E-003;5.886962171643972E-004;
2.418166666666667E+009;1.683380156755447E-001;-7.133141160011292E-002;-9.838864207267761E-004;7.637472008354962E-004;
2.418333333333334E+009;1.676106750965118E-001;-7.174806296825409E-002;-9.309381712228060E-004;7.980855298228562E-004;
2.418500000000000E+009;1.664552092552185E-001;-7.191338390111923E-002;-6.552624981850386E-004;8.658234728500247E-004;
2.418666666666667E+009;1.654635965824127E-001;-7.243277132511139E-002;-6.679567741230130E-004;1.059157191775739E-003;
2.418833333333334E+009;1.640913188457489E-001;-7.286632061004639E-002;-4.607840965036303E-004;1.236584968864918E-003;
2.419000000000000E+009;1.630005836486816E-001;-7.336665689945221E-002;-5.907979793846607E-004;1.334805740043521E-003;
2.419166666666667E+009;1.618046015501022E-001;-7.384480535984039E-002;-3.475117846392095E-004;1.450389623641968E-003;
2.419333333333334E+009;1.604480296373367E-001;-7.434523850679398E-002;-2.784513344522566E-004;1.467383350245655E-003;
2.419500000000000E+009;1.592576503753662E-001;-7.513027638196945E-002;-2.010180614888668E-004;1.633609528653324E-003;
2.419666666666667E+009;1.580199748277664E-001;-7.593254745006561E-002;8.559272828279063E-005;1.662172027863562E-003;
2.419833333333334E+009;1.566410213708878E-001;-7.679592072963715E-002;1.474405289627612E-004;1.795583171769977E-003;
2.420000000000000E+009;1.555527001619339E-001;-7.774794846773148E-002;3.031852829735726E-004;1.844726037234068E-003;
2.420166666666667E+009;1.543436497449875E-001;-7.865215837955475E-002;5.736982566304505E-004;1.851023873314261E-003;
2.420333333333334E+009;1.531273871660233E-001;-7.993134856224060E-002;6.368213216774166E-004;1.883563003502786E-003;
2.420500000000000E+009;1.521047055721283E-001;-8.099282532930374E-002;8.701834594830871E-004;1.888726954348385E-003;
2.420666666666667E+009;1.509133577346802E-001;-8.205959200859070E-002;9.814401855692267E-004;1.887310296297073E-003;
2.420833333333334E+009;1.497883647680283E-001;-8.357832580804825E-002;1.249430119059980E-003;1.848465530201793E-003;
2.421000000000000E+009;1.488156914710999E-001;-8.488455414772034E-002;1.608399208635092E-003;1.866645412519574E-003;
2.421166666666667E+009;1.479484289884567E-001;-8.630176633596420E-002;1.523348037153482E-003;1.954352017492056E-003;
2.421333333333334E+009;1.470235288143158E-001;-8.797793090343475E-002;1.779128331691027E-003;1.798175042495132E-003;
2.421500000000000E+009;1.460446715354919E-001;-8.943228423595429E-002;2.032306278124452E-003;1.654634717851877E-003;
2.421666666666667E+009;1.454344689846039E-001;-9.098765254020691E-002;2.024449408054352E-003;1.686800154857338E-003;
2.421833333333334E+009;1.448570340871811E-001;-9.265264868736267E-002;2.277647843584418E-003;1.666536321863532E-003;
2.422000000000000E+009;1.442651748657227E-001;-9.440962970256805E-002;2.538403728976846E-003;1.448514638468623E-003;
2.422166666666667E+009;1.438687741756439E-001;-9.652664512395859E-002;2.603793051093817E-003;1.288978499360383E-003;
2.422333333333334E+009;1.434757709503174E-001;-9.797265380620956E-002;2.692749490961433E-003;1.317230402491987E-003;
2.422500000000000E+009;1.431720852851868E-001;-9.956803172826767E-002;2.880789805203676E-003;1.161378808319569E-003;
2.422666666666667E+009;1.427930891513825E-001;-1.013143062591553E-001;3.169511677697301E-003;9.335557697340846E-004;
2.422833333333334E+009;1.429862380027771E-001;-1.032454445958138E-001;3.126872004941106E-003;7.987983408384025E-004;
2.423000000000000E+009;1.427301317453384E-001;-1.047913357615471E-001;3.321521682664752E-003;5.324098165147007E-004;
2.423166666666667E+009;1.429405063390732E-001;-1.066898182034493E-001;3.202616469934583E-003;3.932613180950284E-004;
2.423333333333334E+009;1.430385857820511E-001;-1.081782206892967E-001;3.340015886351466E-003;2.259811153635383E-004;
2.423500000000000E+009;1.431069076061249E-001;-1.100271716713905E-001;3.512019058689475E-003;1.670601818659634E-006;
2.423666666666667E+009;1.432665884494782E-001;-1.115857735276222E-001;3.521883627399802E-003;-2.291432174388319E-004;
2.423833333333334E+009;1.437054276466370E-001;-1.130519285798073E-001;3.483586013317108E-003;-4.677463730331510E-004;
2.424000000000000E+009;1.438636183738709E-001;-1.142915412783623E-001;3.660398302599788E-003;-6.601302884519100E-004;
2.424166666666667E+009;1.441307216882706E-001;-1.158441007137299E-001;3.631101921200752E-003;-8.821782539598644E-004;
2.424333333333334E+009;1.446863412857056E-001;-1.170444041490555E-001;3.645982593297958E-003;-1.166392816230655E-003;
2.424500000000000E+009;1.449028998613358E-001;-1.183181703090668E-001;3.580166958272457E-003;-1.336266286671162E-003;
2.424666666666667E+009;1.454781293869019E-001;-1.193568706512451E-001;3.462061285972595E-003;-1.652284292504191E-003;
2.424833333333334E+009;1.457518041133881E-001;-1.204980984330177E-001;3.477775724604726E-003;-1.793089555576444E-003;
2.425000000000000E+009;1.463343054056168E-001;-1.215583980083466E-001;3.348896745592356E-003;-2.045743167400360E-003;
2.425166666666667E+009;1.464129239320755E-001;-1.224672719836235E-001;3.340593539178371E-003;-2.139437710866332E-003;
2.425333333333334E+009;1.468911767005920E-001;-1.231329888105393E-001;3.150347387418151E-003;-2.187048783525825E-003;
2.425500000000000E+009;1.472838371992111E-001;-1.239380612969399E-001;3.057188354432583E-003;-2.325125504285097E-003;
2.425666666666667E+009;1.474715769290924E-001;-1.246344968676567E-001;2.957040909677744E-003;-2.538725733757019E-003;
2.425833333333334E+009;1.478812098503113E-001;-1.251206099987030E-001;2.826158190146089E-003;-2.717916853725910E-003;
2.426000000000000E+009;1.479853987693787E-001;-1.255668401718140E-001;2.626895671710372E-003;-2.930231392383575E-003;
2.426166666666667E+009;1.482922881841660E-001;-1.260906755924225E-001;2.565067727118731E-003;-3.008055035024881E-003;
2.426333333333334E+009;1.482535898685455E-001;-1.262428015470505E-001;2.260498236864805E-003;-3.202894004061818E-003;
2.426500000000000E+009;1.484094262123108E-001;-1.265096664428711E-001;2.311569638550282E-003;-3.168193623423576E-003;
2.426666666666667E+009;1.484468579292297E-001;-1.264629960060120E-001;2.172752050682902E-003;-3.361814888194203E-003;
2.426833333333334E+009;1.481925100088120E-001;-1.266867518424988E-001;1.989583717659116E-003;-3.300901269540191E-003;
2.427000000000000E+009;1.480312198400497E-001;-1.268337070941925E-001;1.971447840332985E-003;-3.287899307906628E-003;
2.427166666666667E+009;1.476602852344513E-001;-1.267584115266800E-001;1.803801278583705E-003;-3.621474141255021E-003;
2.427333333333334E+009;1.472201347351074E-001;-1.267606019973755E-001;1.763279666192830E-003;-3.542205318808556E-003;
2.427500000000000E+009;1.470147669315338E-001;-1.267588138580322E-001;1.482103485614061E-003;-3.616241738200188E-003;
2.427666666666667E+009;1.462106555700302E-001;-1.267385482788086E-001;1.492446055635810E-003;-3.800793085247278E-003;
2.427833333333334E+009;1.454626619815826E-001;-1.266156136989594E-001;1.237356569617987E-003;-3.779002465307713E-003;
