# Hz S RI R 
2400000000.0000000000 0.158352017402648898025674384371 0.062806449830532073974609375000 -0.002175227273255587057826376807 -0.001779153011739253997802734375 0 0 0 0 
2400166666.6666665077 0.158104091882705688476562500000 0.061261452734470367431640625000 -0.002318428363651037216186523438 -0.001583934063091873905779194409 0 0 0 0 
2400333333.3333334923 0.158039346337318392654580634371 0.059117753058671951293945312500 -0.002219992456957697868347167969 -0.001579232164658606052398681641 0 0 0 0 
2400500000.0000000000 0.157937809824943486969317518742 0.057360395789146423339843750000 -0.002181039890274405913112021338 -0.001522179343737662055371928638 0 0 0 0 
2400666666.6666665077 0.157747194170951787750567518742 0.055222265422344207763671875000 -0.002279674867168068885803222656 -0.001197886886075139045715332031 0 0 0 0 
2400833333.3333334923 0.157868623733520507812500000000 0.053348097950220108032226562500 -0.002362632891163229942321777344 -0.001210106653161346912384033203 0 0 0 0 
2401000000.0000000000 0.157827049493789700607138115629 0.051249790936708450317382812500 -0.002278695115819572968723916162 -0.001172601361759006977081298828 0 0 0 0 
2401166666.6666665077 0.158063277602195711990518134371 0.049042467027902603149414062500 -0.002390944398939609961268759619 -0.001139147672802210070966411060 0 0 0 0 
2401333333.3333334923 0.158213928341865511795205634371 0.046839963644742972637136091407 -0.002323993714526296095607138525 -0.001011855551041662909864116138 0 0 0 0 
2401500000.0000000000 0.158514812588691711425781250000 0.045134365558624267578125000000 -0.002125476021319628195521689307 -0.000822110683657228946685791016 0 0 0 0 
2401666666.6666665077 0.158697441220283508300781250000 0.043066944926977157592773437500 -0.002297632861882448196411132812 -0.000762168318033218383789062500 0 0 0 0 
2401833333.3333334923 0.159160971641540499588174384371 0.040695946663618087768554687500 -0.002254167338833212852478027344 -0.000717026996426284313201904297 0 0 0 0 
2402000000.0000000000 0.159540876746177701095419365629 0.038931544870138168334960937500 -0.002205916913226246833801269531 -0.000464561773696914315223693848 0 0 0 0 
2402166666.6666665077 0.160043120384216308593750000000 0.036752641201019287109375000000 -0.002100761514157056808471679688 -0.000415397254982963204383850098 0 0 0 0 
2402333333.3333334923 0.160387799143791198730468750000 0.034771881997585296630859375000 -0.002212930237874389128444052588 -0.000409310829127207398414611816 0 0 0 0 
2402500000.0000000000 0.161491245031356811523437500000 0.033180475234985351562500000000 -0.002014183904975653128383017432 -0.000424118305090814774662572040 0 0 0 0 
2402666666.6666665077 0.161956429481506403167401231258 0.031292304396629326557199846093 -0.002071485156193376021144247900 -0.000163713091751560595914563589 0 0 0 0 
2402833333.3333334923 0.162749364972114590743856865629 0.029463481158018108713170235546 -0.001983976690098642869236611475 -0.000228539196541532901212415152 0 0 0 0 
2403000000.0000000000 0.163406640291213989257812500000 0.027847206220030791545827497657 -0.001825989107601345019099570166 -0.000290578347630798816680908203 0 0 0 0 
2403166666.6666665077 0.164380654692649813553018134371 0.026227349415421489370325858204 -0.001753080636262893893598246997 -0.000207219563890248509958544321 0 0 0 0 
2403333333.3333334923 0.165340811014175387283486884371 0.024773966521024700510045235546 -0.001739218714646995067596435547 -0.000071107169787865132093429565 0 0 0 0 
2403500000.0000000000 0.166149049997329711914062500000 0.023248737677931789052943045704 -0.001726707210764288902282714844 -0.000175868379301391487747746600 0 0 0 0 
2403666666.6666665077 0.167158275842666598220986884371 0.021802945062518119812011718750 -0.001635590684600173993351601709 -0.000135644499096088111400604248 0 0 0 0 
2403833333.3333334923 0.168193787336349487304687500000 0.020577466115355491638183593750 -0.001676418469287455081939697266 -0.000204656476853415397092542105 0 0 0 0 
2404000000.0000000000 0.169184342026710510253906250000 0.019483685493469238281250000000 -0.001677710330113769011256552588 -0.000213858686038292890221196307 0 0 0 0 
2404166666.6666665077 0.170061737298965509612713731258 0.018222615122795108449915701954 -0.001549044391140341975568461841 -0.000013687071259482760319505998 0 0 0 0 
2404333333.3333334923 0.171118617057800292968750000000 0.017368301749229431152343750000 -0.001504566404037177996394492041 -0.000167715348652563989162445068 0 0 0 0 
2404500000.0000000000 0.172054454684257507324218750000 0.016237135976552959787388985546 -0.001474358956329524950740195166 -0.000050675946113187819719314575 0 0 0 0 
2404666666.6666665077 0.172946915030479403396768134371 0.015351956710219379770299141796 -0.001433880534023046927211142432 -0.000195676766452379497602739877 0 0 0 0 
2404833333.3333334923 0.173817262053489712814169365629 0.014602431096136569976806640625 -0.001506141736172140078303671729 -0.000156884867465123507097521371 0 0 0 0 
2405000000.0000000000 0.174788281321525601486044365629 0.013759287074208259582519531250 -0.001529451925307512066484760815 -0.000170620900462381487518864764 0 0 0 0 
2405166666.6666665077 0.175695046782493591308593750000 0.013268824666738510131835937500 -0.001506506465375422997715615381 -0.000046244906116044148802757263 0 0 0 0 
2405333333.3333334923 0.176575690507888793945312500000 0.012629053555428980046282383398 -0.001359549700282514095306396484 -0.000117894072900526198461809702 0 0 0 0 
2405500000.0000000000 0.177387073636054992675781250000 0.012153854593634610611885271680 -0.001555350958369672081590961987 -0.000188019097549840807914733887 0 0 0 0 
2405666666.6666665077 0.178067013621330288986044365629 0.011697638779878619802454764454 -0.001536583527922630093218159253 -0.000169658844242803806632441388 0 0 0 0 
2405833333.3333334923 0.178517982363700894454794365629 0.011510687880218030756940272852 -0.001568962470628320953966450269 -0.000213645020266994806841173715 0 0 0 0 
2406000000.0000000000 0.179242104291915893554687500000 0.010913453996181489771832850977 -0.001611679443158209107042622144 -0.000262528483290225321620386945 0 0 0 0 
2406166666.6666665077 0.179494023323059109786825615629 0.010672234930098060262659842579 -0.001709139789454638957977294922 -0.000116153503768145997397838454 0 0 0 0 
2406333333.3333334923 0.180154860019683810135049384371 0.010356431826949119567871093750 -0.001498825615271925926208496094 -0.000170355488080531412928980695 0 0 0 0 
2406500000.0000000000 0.180309683084487887283486884371 0.010027075186371799814244454296 -0.001470551476813853003858256763 -0.000172694300999864908769884653 0 0 0 0 
2406666666.6666665077 0.180488407611846896072549384371 0.009768872521817684173583984375 -0.001686913543380796909332275391 -0.000133733352413401007652282715 0 0 0 0 
2406833333.3333334923 0.180731534957885686676348768742 0.009527620859444141387939453125 -0.001699386048130691051483154297 -0.000065657877712510526180267334 0 0 0 0 
2407000000.0000000000 0.180875033140182495117187500000 0.009094992652535438537597656250 -0.001716624712571501948712993091 -0.000081313686678186058998107910 0 0 0 0 
2407166666.6666665077 0.180987507104873712737713731258 0.009001916274428367614746093750 -0.001646829652599989934208535303 -0.000179970578756183412954053336 0 0 0 0 
2407333333.3333334923 0.180780947208404513260049384371 0.008441875688731670379638671875 -0.001665926538407803015467978369 0.000053768719226354733109474182 0 0 0 0 
2407500000.0000000000 0.180518701672553988357705634371 0.008239975199103355407714843750 -0.001720162690617144107818603516 0.000075336254667490720748901367 0 0 0 0 
2407666666.6666665077 0.180453404784202603439169365629 0.007814021781086921691894531250 -0.001784752705134450955631875146 0.000101560501207131905995230403 0 0 0 0 
2407833333.3333334923 0.179993882775306701660156250000 0.007180131971836090087890625000 -0.001699468935839832045911479419 0.000104979772004298906452716966 0 0 0 0 
2408000000.0000000000 0.179757356643676813323651231258 0.006575474515557289123535156250 -0.001806053332984447912928915869 0.000215168998693116009235382080 0 0 0 0 
2408166666.6666665077 0.179209709167480496505575615629 0.006217389833182097348684980176 -0.001828380511142313914058066260 0.000223164854105561998769483023 0 0 0 0 
2408333333.3333334923 0.179015502333641107757244981258 0.005410757381469011306762695312 -0.001820006058551371097564697266 0.000175347828189842402935028076 0 0 0 0 
2408500000.0000000000 0.178254663944244412521200615629 0.004558246117085218429565429688 -0.001802500919438898997065878760 0.000240520952502265599652966910 0 0 0 0 
2408666666.6666665077 0.177719727158546503265057481258 0.003744737943634390830993652344 -0.001870759646408260085462260669 0.000346046901540830677181798114 0 0 0 0 
2408833333.3333334923 0.176991835236549405196981865629 0.002856231061741710142848349463 -0.001788501162081957080243754810 0.000317059922963380813598632812 0 0 0 0 
2409000000.0000000000 0.176318570971489008147869981258 0.001792307128198445060132670825 -0.001845984719693660952924418872 0.000313846801873296499252319336 0 0 0 0 
2409166666.6666665077 0.175700590014457702636718750000 0.000844777969177812337875366211 -0.001849766355007887103437114185 0.000443945173174142783314305438 0 0 0 0 
2409333333.3333334923 0.175021260976791409591513115629 -0.000557193299755454063415527344 -0.001762143219821155071258544922 0.000598591112066060304641723633 0 0 0 0 
2409500000.0000000000 0.174284502863883999923544365629 -0.001915188156999648051020956885 -0.001731059281155467033386230469 0.000580940046347677707672119141 0 0 0 0 
2409666666.6666665077 0.173554018139839200118856865629 -0.003260124474763869805576943506 -0.001760981162078679041621542822 0.000551988021470606327056884766 0 0 0 0 
2409833333.3333334923 0.172851279377937289138955634371 -0.004548355937004089355468750000 -0.001644511474296451048610068213 0.000768864003475755453109741211 0 0 0 0 
2410000000.0000000000 0.172212347388267489334268134371 -0.005930997431278228759765625000 -0.001752862823195755915400839697 0.000866278365720063447952270508 0 0 0 0 
2410166666.6666665077 0.171469792723655700683593750000 -0.007562997285276651382446289062 -0.001688997377641499042510986328 0.000600047060288488864898681641 0 0 0 0 
2410333333.3333334923 0.170951798558235196212606865629 -0.009173016063868999481201171875 -0.001565175247378646893742226709 0.000675453047733753919601440430 0 0 0 0 
2410500000.0000000000 0.170348539948463412185830634371 -0.010860689915716649836530116602 -0.001798468525521456978441547925 0.000713596527930349111557006836 0 0 0 0 
2410666666.6666665077 0.169937610626220703125000000000 -0.012738369405269619333287423046 -0.001656613661907613060594868237 0.000662854174152016639709472656 0 0 0 0 
2410833333.3333334923 0.169473871588706997970419365629 -0.014403186738491060084332850977 -0.001503748120740056037902832031 0.000727772363461554050445556641 0 0 0 0 
2411000000.0000000000 0.169180139899253900725994981258 -0.016354786232113841665247733204 -0.001574536319822072982788085938 0.000770992657635360956192016602 0 0 0 0 
2411166666.6666665077 0.168777063488960293868856865629 -0.018285581842064860952357108204 -0.001565220067277550914167094653 0.000682611716911196708679199219 0 0 0 0 
2411333333.3333334923 0.168384671211242703536825615629 -0.019976036623120311391810233204 -0.001562553807161747975590371240 0.000688935455400496721267700195 0 0 0 0 
2411500000.0000000000 0.168074399232864407638388115629 -0.022175248712301250803013985546 -0.001579788280650973103166889722 0.000763703079428523778915405273 0 0 0 0 
2411666666.6666665077 0.168035089969635009765625000000 -0.023938616737723350524902343750 -0.001578644616529345946071005713 0.000887613801751285791397094727 0 0 0 0 
2411833333.3333334923 0.168084248900413513183593750000 -0.026026349514722820627232735546 -0.001727763097733258984209370190 0.000791148690041154623031616211 0 0 0 0 
2412000000.0000000000 0.168114840984344510177450615629 -0.028241872787475589406946951954 -0.001629080390557646968244243091 0.000745197758078575134277343750 0 0 0 0 
2412166666.6666665077 0.168084651231765802581463731258 -0.030119994655251499521275704296 -0.001671741367317735931993794019 0.000671650981530547142028808594 0 0 0 0 
2412333333.3333334923 0.168559432029724093338174384371 -0.032003421336412429809570312500 -0.001678379485383630015729594653 0.000775918131694197654724121094 0 0 0 0 
2412500000.0000000000 0.168358713388442993164062500000 -0.033866181969642639160156250000 -0.001783453626558185057399130713 0.000770118902437388896942138672 0 0 0 0 
2412666666.6666665077 0.168821841478347806075888115629 -0.036111801862716681743581403907 -0.001788216060958802916883159106 0.000824854476377367973327636719 0 0 0 0 
2412833333.3333334923 0.169296994805335998535156250000 -0.037792112678289413452148437500 -0.001862850738689302964451455225 0.000944344268646091222763061523 0 0 0 0 
2413000000.0000000000 0.169549435377120999435263115629 -0.039512697607278816913645158593 -0.001813336624763906002044677734 0.001007357263006269931793212891 0 0 0 0 
2413166666.6666665077 0.169925644993781987945880018742 -0.041300766170024871826171875000 -0.001771958544850348992588662256 0.000929633562918752431869506836 0 0 0 0 
2413333333.3333334923 0.170430049300193786621093750000 -0.042893115431070327758789062500 -0.002061933511868118806126259912 0.001040650997310877063153911060 0 0 0 0 
2413500000.0000000000 0.170921370387077303787393134371 -0.044792152941226959228515625000 -0.001871833228506148078321147388 0.001137025072239338917973183740 0 0 0 0 
2413666666.6666665077 0.171465471386909512618856865629 -0.046500440686941146850585937500 -0.001949570490978657982469868237 0.001168665476143359921099018628 0 0 0 0 
2413833333.3333334923 0.172064825892448397537393134371 -0.047755695879459381103515625000 -0.001929331570863723971723246997 0.001399189000949264006373740088 0 0 0 0 
2414000000.0000000000 0.172543123364448602874432481258 -0.049325473606586463237722028907 -0.001972100464627147154567099463 0.001293744542635977051378559644 0 0 0 0 
2414166666.6666665077 0.173117324709892300704794365629 -0.050700675696134567260742187500 -0.001936489483341575102565146338 0.001433077966794372038600302588 0 0 0 0 
2414333333.3333334923 0.173717826604843111892861884371 -0.051851753145456307148020158593 -0.001754093915224075100542378003 0.001611441606655716896057128906 0 0 0 0 
2414500000.0000000000 0.174475163221359308440838731258 -0.053009398281574249267578125000 -0.001927778474055231051204062354 0.001657751970924437046051025391 0 0 0 0 
2414666666.6666665077 0.174905464053153991699218750000 -0.054127186536788940429687500000 -0.002089835237711668014526367188 0.001555589493364095904706645435 0 0 0 0 
2414833333.3333334923 0.175234347581863403320312500000 -0.055021207779645919799804687500 -0.001913003390654921965358115088 0.001915393979288638071772910010 0 0 0 0 
2415000000.0000000000 0.175690799951553289215411268742 -0.055955491960048682476003278907 -0.001952528604306281046626425635 0.002063861349597572846653603662 0 0 0 0 
2415166666.6666665077 0.176206588745117187500000000000 -0.056803803890943527221679687500 -0.001834141439758240959764790112 0.002019508741796017126796103369 0 0 0 0 
2415333333.3333334923 0.176594078540802001953125000000 -0.057541389018297202373464216407 -0.001895563211292027993443154443 0.002094486961141229109523154150 0 0 0 0 
2415500000.0000000000 0.177015706896781893631143134371 -0.058141000568866729736328125000 -0.001830081338994204998016357422 0.002344764070585370063781738281 0 0 0 0 
2415666666.6666665077 0.177161768078803988357705634371 -0.058675069361925132060964216407 -0.001829091925173998095868754810 0.002482880838215351104736328125 0 0 0 0 
2415833333.3333334923 0.177474096417427090743856865629 -0.059249933809041976928710937500 -0.001575540518388151905657124097 0.002547140233218669891357421875 0 0 0 0 
2416000000.0000000000 0.177506893873214693924111884371 -0.059610590338706970214843750000 -0.001782141625881195068359375000 0.002661064267158507867100381006 0 0 0 0 
2416166666.6666665077 0.177779763936996487716513115629 -0.059952329844236366962473283593 -0.001609558355994523005244589697 0.002609669230878353118896484375 0 0 0 0 
2416333333.3333334923 0.177722051739692687988281250000 -0.060215480625629431987722028907 -0.001424474525265396075007773291 0.002816661726683377785923623193 0 0 0 0 
2416500000.0000000000 0.177458956837654113769531250000 -0.060541417449712753295898437500 -0.001384476199746131896972656250 0.002981262281537055969238281250 0 0 0 0 
2416666666.6666665077 0.177444398403167696853799384371 -0.060781732201576232910156250000 -0.001303117140196264006971049731 0.003133023623377085165736533057 0 0 0 0 
2416833333.3333334923 0.177174687385559109786825615629 -0.061062477529048919677734375000 -0.001225392334163188934326171875 0.003160091815516353087184286963 0 0 0 0 
2417000000.0000000000 0.176634728908538790603799384371 -0.061365477740764617919921875000 -0.000988222542218863964080810547 0.003316586837172507806065224756 0 0 0 0 
2417166666.6666665077 0.176318466663360595703125000000 -0.061397735029458999633789062500 -0.001026850077323615984675742041 0.003364124801009892983677529443 0 0 0 0 
2417333333.3333334923 0.175859436392784090896768134371 -0.061574090272188186645507812500 -0.000763858086429536342620849609 0.003436160972341895103454589844 0 0 0 0 
2417500000.0000000000 0.175281047821044894119424384371 -0.061920356005430221557617187500 -0.000693480542395263910293579102 0.003386389464139937920811318506 0 0 0 0 
2417666666.6666665077 0.174528479576110812088174384371 -0.061952218413352973247487653907 -0.000501860980875790119171142578 0.003513485891744494004490517725 0 0 0 0 
2417833333.3333334923 0.173783183097839410979901231258 -0.062187727540731430053710937500 -0.000402950798161327784687596454 0.003442933084443211989161826025 0 0 0 0 
2418000000.0000000000 0.172797575592994689941406250000 -0.062635488808155059814453125000 -0.000377009215299040079116821289 0.003595976857468485832214355469 0 0 0 0 
2418166666.6666665077 0.171830207109451293945312500000 -0.062646068632602691650390625000 -0.000158743219799362095907488412 0.003521896665915846824645996094 0 0 0 0 
2418333333.3333334923 0.171135753393173190017861884371 -0.063108362257480621337890625000 -0.000006620154181291582062840462 0.003599487012252212004420615088 0 0 0 0 
2418500000.0000000000 0.169969066977500887771768134371 -0.063493773341178894042968750000 0.000182338073500432101175031119 0.003677347674965858893153525244 0 0 0 0 
2418666666.6666665077 0.168960615992546109298544365629 -0.063987679779529571533203125000 0.000271923810942098498344421387 0.003533433191478251977207802881 0 0 0 0 
2418833333.3333334923 0.167696684598922701736611884371 -0.064646907150745391845703125000 0.000508722092490643262863159180 0.003622757969424128966090536963 0 0 0 0 
2419000000.0000000000 0.166420087218284606933593750000 -0.064993731677532196044921875000 0.000496247957926243543624877930 0.003719000844284892082214355469 0 0 0 0 
2419166666.6666665077 0.165376901626586886306924384371 -0.065689258277416229248046875000 0.000648168323095887899398803711 0.003772351657971740202662802588 0 0 0 0 
2419333333.3333334923 0.164063185453414889236611884371 -0.066232942044734954833984375000 0.000757111818529665470123291016 0.003760602790862321853637695312 0 0 0 0 
2419500000.0000000000 0.162934601306915310958700615629 -0.067343428730964660644531250000 0.000976119714323431253433227539 0.003602919867262243790867470850 0 0 0 0 
2419666666.6666665077 0.161852926015853909591513115629 -0.068261407315731048583984375000 0.001060752430930733897565532153 0.003712678328156470818760537256 0 0 0 0 
2419833333.3333334923 0.160499423742294311523437500000 -0.069053791463375091552734375000 0.001222318387590348937390971606 0.003660877002403140068054199219 0 0 0 0 
