# Version 1.00
#
freq[Hz];re:Trc1_S11;im:Trc1_S11;re:Trc2_S21;im:Trc2_S21;
2.400000000000000E+009;1.580544412136078E-001;6.227567791938782E-002;-3.951382357627153E-003;1.883424120023847E-003;
2.400166666666667E+009;1.579639315605164E-001;6.057746708393097E-002;-3.741031046956778E-003;2.147459657862783E-003;
2.400333333333334E+009;1.580613851547241E-001;5.890822038054466E-002;-3.725307993590832E-003;2.270232886075974E-003;
2.400500000000000E+009;1.578625589609146E-001;5.689934641122818E-002;-3.780232975259423E-003;2.276465296745300E-003;
2.400666666666667E+009;1.575963497161865E-001;5.489781871438026E-002;-3.724987385794520E-003;2.543904120102525E-003;
2.400833333333334E+009;1.578341424465179E-001;5.304943025112152E-002;-3.456439822912216E-003;2.639388199895620E-003;
2.401000000000000E+009;1.578529626131058E-001;5.089016631245613E-002;-3.468866227194667E-003;2.636466873809695E-003;
2.401166666666667E+009;1.578871756792069E-001;4.880145564675331E-002;-3.316950052976608E-003;2.641047816723585E-003;
2.401333333333334E+009;1.581012010574341E-001;4.673682898283005E-002;-3.267654450610280E-003;2.932758536189795E-003;
2.401500000000000E+009;1.584886908531189E-001;4.471447691321373E-002;-3.103949828073382E-003;3.003127640113235E-003;
2.401666666666667E+009;1.585936248302460E-001;4.268807545304298E-002;-3.118142718449235E-003;3.215552773326635E-003;
2.401833333333334E+009;1.592093408107758E-001;4.062867164611816E-002;-2.966377185657620E-003;3.138540778309107E-003;
2.402000000000000E+009;1.594742685556412E-001;3.871590271592140E-002;-2.890478586778045E-003;3.326463745906949E-003;
2.402166666666667E+009;1.599657088518143E-001;3.689467534422875E-002;-2.756964648142457E-003;3.347820602357388E-003;
2.402333333333334E+009;1.605497598648071E-001;3.494616970419884E-002;-2.507510827854276E-003;3.442804096266627E-003;
2.402500000000000E+009;1.612539440393448E-001;3.309803828597069E-002;-2.671736525371671E-003;3.695661900565028E-003;
2.402666666666667E+009;1.619252413511276E-001;3.131175786256790E-002;-2.304290654137731E-003;3.580143908038735E-003;
2.402833333333334E+009;1.627148985862732E-001;2.961231395602226E-002;-2.325258683413267E-003;3.823780454695225E-003;
2.403000000000000E+009;1.634571105241776E-001;2.813754975795746E-002;-2.162434626370668E-003;3.821592777967453E-003;
2.403166666666667E+009;1.644881814718247E-001;2.633737772703171E-002;-1.973800361156464E-003;3.833334194496274E-003;
2.403333333333334E+009;1.652995049953461E-001;2.503672800958157E-002;-1.919407281093299E-003;3.997132647782564E-003;
2.403500000000000E+009;1.662270873785019E-001;2.361198142170906E-002;-1.834225142374635E-003;4.248167853802443E-003;
2.403666666666667E+009;1.670310944318771E-001;2.213541604578495E-002;-1.478232094086707E-003;4.251278005540371E-003;
2.403833333333334E+009;1.681400537490845E-001;2.082895487546921E-002;-1.259142532944679E-003;4.246688447892666E-003;
2.404000000000000E+009;1.692006587982178E-001;1.983749866485596E-002;-1.139259198680520E-003;4.310562275350094E-003;
2.404166666666667E+009;1.701493114233017E-001;1.874281838536263E-002;-1.142058870755136E-003;4.386507440358400E-003;
2.404333333333334E+009;1.709295213222504E-001;1.765802130103111E-002;-1.062223687767983E-003;4.709463566541672E-003;
2.404500000000000E+009;1.717903763055801E-001;1.664334163069725E-002;-7.330005755648017E-004;4.571621771901846E-003;
2.404666666666667E+009;1.729701012372971E-001;1.575509458780289E-002;-6.510411622002721E-004;4.644097294658423E-003;
2.404833333333334E+009;1.738124638795853E-001;1.499440055340529E-002;-4.168124869465828E-004;4.549715667963028E-003;
2.405000000000000E+009;1.747556626796722E-001;1.435007248073816E-002;-1.419676264049485E-004;4.778324160724878E-003;
2.405166666666667E+009;1.756018698215485E-001;1.365736685693264E-002;9.266310371458530E-005;4.595696926116943E-003;
2.405333333333334E+009;1.763963252305985E-001;1.298304367810488E-002;1.219713885802776E-004;4.783554468303919E-003;
2.405500000000000E+009;1.771942228078842E-001;1.259461324661970E-002;3.275708586443216E-004;4.728591069579125E-003;
2.405666666666667E+009;1.779467910528183E-001;1.210835948586464E-002;6.433604285120964E-004;4.946568049490452E-003;
2.405833333333334E+009;1.785484105348587E-001;1.178221497684717E-002;7.506433757953346E-004;4.772954620420933E-003;
2.406000000000000E+009;1.790005564689636E-001;1.129480823874474E-002;9.885082254186273E-004;4.827442578971386E-003;
2.406166666666667E+009;1.795327812433243E-001;1.112539228051901E-002;1.182374078780413E-003;4.832307342439890E-003;
2.406333333333334E+009;1.801171153783798E-001;1.072247046977282E-002;1.404142472893000E-003;4.665837157517672E-003;
2.406500000000000E+009;1.803192496299744E-001;1.038143038749695E-002;1.570109161548317E-003;4.649644717574120E-003;
2.406666666666667E+009;1.804782599210739E-001;1.023518573492765E-002;1.968219177797437E-003;4.549830686300993E-003;
2.406833333333334E+009;1.808954775333405E-001;9.717809036374092E-003;1.922629075124860E-003;4.498914349824190E-003;
2.407000000000000E+009;1.809431910514832E-001;9.448240511119366E-003;2.377015771344304E-003;4.252343438565731E-003;
2.407166666666667E+009;1.810448318719864E-001;9.117514826357365E-003;2.541264286264777E-003;4.327743314206600E-003;
2.407333333333334E+009;1.809678971767426E-001;8.650785312056541E-003;2.640066435560584E-003;4.110965877771378E-003;
2.407500000000000E+009;1.806621253490448E-001;8.342897519469261E-003;2.802188042551279E-003;3.952352330088615E-003;
2.407666666666667E+009;1.805367022752762E-001;7.826519198715687E-003;3.038571914657950E-003;3.859119722619653E-003;
2.407833333333334E+009;1.801532953977585E-001;7.181723602116108E-003;3.155855927616358E-003;3.728245152160525E-003;
2.408000000000000E+009;1.797717511653900E-001;6.590640172362328E-003;3.312919987365603E-003;3.513908013701439E-003;
2.408166666666667E+009;1.793660521507263E-001;6.067045032978058E-003;3.601103555411100E-003;3.265013685449958E-003;
2.408333333333334E+009;1.790564507246018E-001;5.209533497691155E-003;3.576072165742517E-003;3.115516854450107E-003;
2.408500000000000E+009;1.783459782600403E-001;4.408047068864107E-003;3.638833994045854E-003;3.025294747203589E-003;
2.408666666666667E+009;1.779572814702988E-001;3.578747157007456E-003;3.905511926859617E-003;2.775355242192745E-003;
2.408833333333334E+009;1.771083027124405E-001;2.714743604883552E-003;3.986820578575134E-003;2.391226124018431E-003;
2.409000000000000E+009;1.764439046382904E-001;1.622528186999261E-003;3.965905867516995E-003;2.378631616011262E-003;
2.409166666666667E+009;1.758860349655151E-001;5.416676867753267E-004;4.202896263450384E-003;2.153236418962479E-003;
2.409333333333334E+009;1.752742677927017E-001;-6.306262221187353E-004;4.147829487919807E-003;1.929750666022301E-003;
2.409500000000000E+009;1.744228154420853E-001;-2.195986919105053E-003;4.083477426320314E-003;1.894959015771747E-003;
2.409666666666667E+009;1.735939234495163E-001;-3.552903886884451E-003;4.256153944879770E-003;1.568381092511118E-003;
2.409833333333334E+009;1.729701161384583E-001;-4.870414268225431E-003;4.248010460287333E-003;1.400656532496214E-003;
2.410000000000000E+009;1.723722070455551E-001;-6.372572854161263E-003;4.345212597399950E-003;1.169278519228101E-003;
2.410166666666667E+009;1.718912869691849E-001;-7.935468107461929E-003;4.287450108677149E-003;1.131803379394114E-003;
2.410333333333334E+009;1.710596978664398E-001;-9.582469239830971E-003;4.351303912699223E-003;9.118927409872413E-004;
2.410500000000000E+009;1.704210638999939E-001;-1.142146531492472E-002;4.304569214582443E-003;7.891874411143363E-004;
2.410666666666667E+009;1.699536293745041E-001;-1.335489377379417E-002;4.383282270282507E-003;4.215813532937318E-004;
2.410833333333334E+009;1.696762144565582E-001;-1.498378440737724E-002;4.277646541595459E-003;3.374501538928598E-004;
2.411000000000000E+009;1.692285835742950E-001;-1.685958169400692E-002;4.257652908563614E-003;1.869742991402745E-004;
2.411166666666667E+009;1.688955873250961E-001;-1.884410344064236E-002;4.370498470962048E-003;7.396609817078570E-006;
2.411333333333334E+009;1.685368716716766E-001;-2.075260318815708E-002;4.126895219087601E-003;-2.990780049003661E-004;
2.411500000000000E+009;1.683332324028015E-001;-2.290322445333004E-002;4.076469223946333E-003;-4.358803853392601E-004;
2.411666666666667E+009;1.683325171470642E-001;-2.484188415110111E-002;4.172797780483961E-003;-6.053053657524288E-004;
2.411833333333334E+009;1.682168543338776E-001;-2.653902396559715E-002;4.001308232545853E-003;-8.303966606035829E-004;
2.412000000000000E+009;1.683672219514847E-001;-2.860403433442116E-002;3.861526260152459E-003;-8.098641992546618E-004;
2.412166666666667E+009;1.681846976280212E-001;-3.068798594176769E-002;3.944178111851215E-003;-1.026614801958203E-003;
2.412333333333334E+009;1.683801710605621E-001;-3.260841965675354E-002;3.709445241838694E-003;-1.296793343499303E-003;
2.412500000000000E+009;1.686187237501144E-001;-3.458734229207039E-002;3.688811324536800E-003;-1.375451218336821E-003;
2.412666666666667E+009;1.688813418149948E-001;-3.655417636036873E-002;3.530530026182532E-003;-1.503591891378164E-003;
2.412833333333334E+009;1.692705750465393E-001;-3.832042962312698E-002;3.399236127734184E-003;-1.660203794017434E-003;
2.413000000000000E+009;1.697745621204376E-001;-4.014422371983528E-002;3.322996897622943E-003;-1.794356969185174E-003;
2.413166666666667E+009;1.701472550630570E-001;-4.185398668050766E-002;3.284799400717020E-003;-1.917610643431544E-003;
2.413333333333334E+009;1.703759878873825E-001;-4.357144981622696E-002;3.054513595998287E-003;-2.043481450527906E-003;
2.413500000000000E+009;1.708822548389435E-001;-4.527656361460686E-002;2.660334575921297E-003;-2.125519560649991E-003;
2.413666666666667E+009;1.716320067644119E-001;-4.679371044039726E-002;2.672264585271478E-003;-2.096238546073437E-003;
2.413833333333334E+009;1.720679551362991E-001;-4.839380085468292E-002;2.497615991160274E-003;-2.353696618229151E-003;
2.414000000000000E+009;1.725414693355560E-001;-4.981459304690361E-002;2.408777829259634E-003;-2.332984935492277E-003;
2.414166666666667E+009;1.732068061828613E-001;-5.093649774789810E-002;2.182999392971396E-003;-2.476255176588893E-003;
2.414333333333334E+009;1.736106276512146E-001;-5.236177146434784E-002;2.048403723165393E-003;-2.334480173885822E-003;
2.414500000000000E+009;1.744039356708527E-001;-5.342241004109383E-002;1.815760857425630E-003;-2.481138799339533E-003;
2.414666666666667E+009;1.746313422918320E-001;-5.437694862484932E-002;1.802837359718978E-003;-2.357699675485492E-003;
2.414833333333334E+009;1.751788705587387E-001;-5.554946139454842E-002;1.760023646056652E-003;-2.565342467278242E-003;
2.415000000000000E+009;1.756013631820679E-001;-5.612120032310486E-002;1.673739519901574E-003;-2.605930436402559E-003;
2.415166666666667E+009;1.760117113590241E-001;-5.704598501324654E-002;1.440777559764683E-003;-2.413952490314841E-003;
2.415333333333334E+009;1.765682101249695E-001;-5.782541632652283E-002;1.438164268620312E-003;-2.465021563693881E-003;
2.415500000000000E+009;1.769137382507324E-001;-5.828439071774483E-002;1.352746854536235E-003;-2.511661732569337E-003;
2.415666666666667E+009;1.771099418401718E-001;-5.888530239462853E-002;1.268965424969792E-003;-2.374357543885708E-003;
2.415833333333334E+009;1.774540841579437E-001;-5.946417152881622E-002;1.017337781377137E-003;-2.299695275723934E-003;
2.416000000000000E+009;1.773900091648102E-001;-5.971229076385498E-002;1.035359920933843E-003;-2.350112656131387E-003;
2.416166666666667E+009;1.776592284440994E-001;-6.010962277650833E-002;9.900161530822516E-004;-2.433751942589879E-003;
2.416333333333334E+009;1.774905323982239E-001;-6.033151224255562E-002;8.323877700604498E-004;-2.350389026105404E-003;
2.416500000000000E+009;1.774017661809921E-001;-6.066329777240753E-002;8.749139378778637E-004;-2.283681649714708E-003;
2.416666666666667E+009;1.772683858871460E-001;-6.084220856428146E-002;6.015069084241986E-004;-2.337637124583125E-003;
2.416833333333334E+009;1.771352440118790E-001;-6.120245531201363E-002;6.528433877974749E-004;-2.347466303035617E-003;
2.417000000000000E+009;1.764778941869736E-001;-6.142890825867653E-002;5.487325252033770E-004;-2.313981764018536E-003;
2.417166666666667E+009;1.760883927345276E-001;-6.145745143294334E-002;3.566486702766269E-004;-2.475276123732328E-003;
2.417333333333334E+009;1.757010072469711E-001;-6.156421452760696E-002;5.177601706236601E-004;-2.243624068796635E-003;
2.417500000000000E+009;1.750912964344025E-001;-6.190636008977890E-002;3.664753749035299E-004;-2.226006006821990E-003;
2.417666666666667E+009;1.744554340839386E-001;-6.198455765843391E-002;3.768898604903370E-004;-2.270980970934033E-003;
2.417833333333334E+009;1.736269593238831E-001;-6.218754872679710E-002;1.970289595192298E-004;-2.306066453456879E-003;
2.418000000000000E+009;1.727311760187149E-001;-6.270264089107513E-002;2.441512770019472E-004;-2.327689900994301E-003;
2.418166666666667E+009;1.717834770679474E-001;-6.283814460039139E-002;1.907976111397147E-004;-2.295505488291383E-003;
2.418333333333334E+009;1.708987355232239E-001;-6.315526366233826E-002;1.550154993310571E-004;-2.194213448092341E-003;
2.418500000000000E+009;1.696530282497406E-001;-6.364366412162781E-002;1.457760226912797E-004;-2.299720421433449E-003;
2.418666666666667E+009;1.688583791255951E-001;-6.396716088056564E-002;-2.202909490733873E-005;-2.238248009234667E-003;
2.418833333333334E+009;1.676747798919678E-001;-6.443574279546738E-002;-1.567918516229838E-004;-2.176140667870641E-003;
2.419000000000000E+009;1.663101613521576E-001;-6.498367339372635E-002;-1.760692102834582E-004;-2.262702677398920E-003;
2.419166666666667E+009;1.652095317840576E-001;-6.577920913696289E-002;-1.944871910382062E-004;-2.282113768160343E-003;
2.419333333333334E+009;1.639133840799332E-001;-6.617468595504761E-002;-3.626227262429893E-004;-2.207831013947725E-003;
2.419500000000000E+009;1.626858264207840E-001;-6.718934327363968E-002;-2.374020841671154E-004;-2.106104511767626E-003;
2.419666666666667E+009;1.616664081811905E-001;-6.823008507490158E-002;-3.833885421045125E-004;-2.243186114355922E-003;
2.419833333333334E+009;1.604382544755936E-001;-6.883917003870010E-002;-3.952902625314891E-004;-2.183517441153526E-003;
2.420000000000000E+009;1.590879112482071E-001;-6.999192386865616E-002;-5.982417496852577E-004;-2.078391145914793E-003;
2.420166666666667E+009;1.580873876810074E-001;-7.119066268205643E-002;-6.447994383051992E-004;-2.040845341980457E-003;
2.420333333333334E+009;1.569781154394150E-001;-7.239958643913269E-002;-6.317845545709133E-004;-2.133145695552230E-003;
2.420500000000000E+009;1.560408473014832E-001;-7.339514046907425E-002;-6.899422151036561E-004;-1.948404475115240E-003;
2.420666666666667E+009;1.550946682691574E-001;-7.463201880455017E-002;-9.115325519815087E-004;-2.102175960317254E-003;
2.420833333333334E+009;1.542928367853165E-001;-7.613584399223328E-002;-9.243118693120778E-004;-2.006193157285452E-003;
2.421000000000000E+009;1.534351855516434E-001;-7.770311087369919E-002;-1.023153075948358E-003;-2.038298407569528E-003;
2.421166666666667E+009;1.526489704847336E-001;-7.908145338296890E-002;-1.076034735888243E-003;-2.038864186033607E-003;
2.421333333333334E+009;1.518885344266892E-001;-8.064811676740646E-002;-1.205279375426471E-003;-1.825925079174340E-003;
2.421500000000000E+009;1.512483060359955E-001;-8.220168203115463E-002;-1.196388737298548E-003;-1.938464702107012E-003;
2.421666666666667E+009;1.506934463977814E-001;-8.392447978258133E-002;-1.166740665212274E-003;-1.818337826989591E-003;
2.421833333333334E+009;1.502487510442734E-001;-8.564069867134094E-002;-1.211541588418186E-003;-1.686476636677980E-003;
2.422000000000000E+009;1.498748660087585E-001;-8.734807372093201E-002;-1.431109500117600E-003;-1.581709948368371E-003;
2.422166666666667E+009;1.495842486619949E-001;-8.918129652738571E-002;-1.492832205258310E-003;-1.512829563580453E-003;
2.422333333333334E+009;1.495180875062943E-001;-9.068605303764343E-002;-1.582285040058196E-003;-1.559456577524543E-003;
2.422500000000000E+009;1.492437273263931E-001;-9.253583848476410E-002;-1.702796318568289E-003;-1.354086911305785E-003;
2.422666666666667E+009;1.492085009813309E-001;-9.421294182538986E-002;-1.690516481176019E-003;-1.148065668530762E-003;
2.422833333333334E+009;1.493448615074158E-001;-9.599306434392929E-002;-1.790360664017499E-003;-1.131725613959134E-003;
2.423000000000000E+009;1.494346112012863E-001;-9.779282659292221E-002;-1.908072154037654E-003;-9.686450939625502E-004;
2.423166666666667E+009;1.496901214122772E-001;-9.947910904884338E-002;-1.940755872055888E-003;-9.690367151051760E-004;
2.423333333333334E+009;1.499446034431458E-001;-1.009184792637825E-001;-1.894906628876925E-003;-7.900210330262780E-004;
2.423500000000000E+009;1.502459049224854E-001;-1.024792566895485E-001;-1.919384230859578E-003;-6.576236337423325E-004;
2.423666666666667E+009;1.505263745784760E-001;-1.040782257914543E-001;-1.879855641163886E-003;-4.913575830869377E-004;
2.423833333333334E+009;1.508964747190476E-001;-1.056486070156097E-001;-1.887537422589958E-003;-5.064014112576842E-004;
2.424000000000000E+009;1.513150930404663E-001;-1.069181859493256E-001;-1.895907218568027E-003;-2.799671201501042E-004;
2.424166666666667E+009;1.517107933759689E-001;-1.082848384976387E-001;-1.809506095014513E-003;-1.564849226269871E-004;
2.424333333333334E+009;1.523888111114502E-001;-1.095115691423416E-001;-1.860562129877508E-003;-1.168594608316198E-004;
2.424500000000000E+009;1.528543978929520E-001;-1.107715591788292E-001;-1.636245171539486E-003;6.114593998063356E-005;
2.424666666666667E+009;1.534653156995773E-001;-1.116408035159111E-001;-1.806492451578379E-003;1.052357474691235E-004;
2.424833333333334E+009;1.536849737167358E-001;-1.127144768834114E-001;-1.730851712636650E-003;2.795107429847121E-004;
2.425000000000000E+009;1.542079299688339E-001;-1.138459444046021E-001;-1.499126199632883E-003;2.461582189425826E-004;
2.425166666666667E+009;1.545276045799255E-001;-1.146846190094948E-001;-1.548320869915187E-003;3.936548309866339E-004;
2.425333333333334E+009;1.549993604421616E-001;-1.153424531221390E-001;-1.406732830218971E-003;6.157355965115130E-004;
2.425500000000000E+009;1.555129140615463E-001;-1.160882189869881E-001;-1.254811650142074E-003;7.049725390970707E-004;
2.425666666666667E+009;1.556863635778427E-001;-1.166827976703644E-001;-1.106385490857065E-003;5.477843806147575E-004;
2.425833333333334E+009;1.560730338096619E-001;-1.171908155083656E-001;-1.118930289521813E-003;6.657915655523539E-004;
2.426000000000000E+009;1.562009453773499E-001;-1.176913976669312E-001;-8.237119764089584E-004;7.964087417349219E-004;
2.426166666666667E+009;1.565193533897400E-001;-1.181686669588089E-001;-1.011610031127930E-003;8.021981921046972E-004;
2.426333333333334E+009;1.565162241458893E-001;-1.184771731495857E-001;-8.452167385257781E-004;7.683464209549129E-004;
2.426500000000000E+009;1.565464735031128E-001;-1.186728626489639E-001;-7.331541273742914E-004;7.836495060473681E-004;
2.426666666666667E+009;1.565549075603485E-001;-1.187777668237686E-001;-6.294199847616255E-004;7.048438419587910E-004;
2.426833333333334E+009;1.564452946186066E-001;-1.189932078123093E-001;-4.530244041234255E-004;6.343337008729577E-004;
2.427000000000000E+009;1.561648547649384E-001;-1.192751228809357E-001;-5.018158699385822E-004;7.458837935701013E-004;
2.427166666666667E+009;1.557462066411972E-001;-1.192965805530548E-001;-1.854270813055337E-004;8.647886570543051E-004;
2.427333333333334E+009;1.551868021488190E-001;-1.194679662585259E-001;-1.147920338553377E-004;6.606613751500845E-004;
2.427500000000000E+009;1.548443436622620E-001;-1.194716393947601E-001;-1.410632103215903E-004;5.945077864453197E-004;
2.427666666666667E+009;1.541446596384049E-001;-1.195597723126411E-001;-1.380611065542325E-004;5.531962378881872E-004;
