# Version 1.00
#
freq[Hz];re:Trc1_S11;im:Trc1_S11;re:Trc2_S21;im:Trc2_S21;
2.400000000000000E+009;1.714131683111191E-001;4.004849493503571E-002;3.115157829597592E-003;-3.335498913656920E-004;
2.400166666666667E+009;1.720266491174698E-001;3.961256146430969E-002;3.293405286967754E-003;-5.439742817543447E-004;
2.400333333333334E+009;1.724768429994583E-001;3.888428583741188E-002;3.182603977620602E-003;-5.396457854658365E-004;
2.400500000000000E+009;1.729346364736557E-001;3.828782960772514E-002;3.330803709104657E-003;-7.130947196856141E-004;
2.400666666666667E+009;1.732148230075836E-001;3.770968690514565E-002;3.206013003364205E-003;-1.094264327548444E-003;
2.400833333333334E+009;1.734849661588669E-001;3.701095655560494E-002;3.099327674135566E-003;-1.084222225472331E-003;
2.401000000000000E+009;1.734490990638733E-001;3.642994910478592E-002;2.891067182645202E-003;-1.349946483969688E-003;
2.401166666666667E+009;1.737734526395798E-001;3.580374643206596E-002;2.928653731942177E-003;-1.186197507195175E-003;
2.401333333333334E+009;1.734341681003571E-001;3.522694110870361E-002;2.890958450734615E-003;-1.545142382383347E-003;
2.401500000000000E+009;1.737303882837296E-001;3.449828922748566E-002;2.758009359240532E-003;-1.552384113892913E-003;
2.401666666666667E+009;1.734028309583664E-001;3.407674282789230E-002;2.482097828760743E-003;-1.640700618736446E-003;
2.401833333333334E+009;1.734063327312470E-001;3.326887637376785E-002;2.528663957491517E-003;-1.640909817069769E-003;
2.402000000000000E+009;1.731058955192566E-001;3.260435909032822E-002;2.593313809484243E-003;-1.764930901117623E-003;
2.402166666666667E+009;1.730440258979797E-001;3.155006840825081E-002;2.429897431284189E-003;-1.690197619609535E-003;
2.402333333333334E+009;1.727190762758255E-001;3.083107061684132E-002;2.473492175340653E-003;-1.679549342952669E-003;
2.402500000000000E+009;1.725221574306488E-001;3.001636266708374E-002;2.532195765525103E-003;-1.616220222786069E-003;
2.402666666666667E+009;1.722263842821121E-001;2.900170348584652E-002;2.611130941659212E-003;-1.944818650372326E-003;
2.402833333333334E+009;1.718262732028961E-001;2.818442322313786E-002;2.395866671577096E-003;-2.103862352669239E-003;
2.403000000000000E+009;1.714822798967362E-001;2.686063945293427E-002;2.426637569442391E-003;-2.151513472199440E-003;
2.403166666666667E+009;1.712788790464401E-001;2.578267827630043E-002;2.560734748840332E-003;-2.083580940961838E-003;
2.403333333333334E+009;1.707513928413391E-001;2.470372058451176E-002;2.575531834736466E-003;-2.235228894278407E-003;
2.403500000000000E+009;1.703039258718491E-001;2.332495152950287E-002;2.470937790349126E-003;-2.386624226346612E-003;
2.403666666666667E+009;1.699430495500565E-001;2.189050428569317E-002;2.486698096618056E-003;-2.422279212623835E-003;
2.403833333333334E+009;1.697833091020584E-001;2.055986598134041E-002;2.315196674317122E-003;-2.694496419280767E-003;
2.404000000000000E+009;1.694111526012421E-001;1.931548491120338E-002;2.333842217922211E-003;-2.805725671350956E-003;
2.404166666666667E+009;1.690824627876282E-001;1.753463037312031E-002;2.248401055112481E-003;-2.946831053122878E-003;
2.404333333333334E+009;1.688162684440613E-001;1.615649648010731E-002;2.104796236380935E-003;-2.924305154010654E-003;
2.404500000000000E+009;1.685274392366409E-001;1.434341911226511E-002;1.829399028792977E-003;-3.235923359170556E-003;
2.404666666666667E+009;1.683220714330673E-001;1.268493477255106E-002;1.626961049623787E-003;-3.254490438848734E-003;
2.404833333333334E+009;1.681742221117020E-001;1.111182384192944E-002;1.480645732954145E-003;-3.330185776576400E-003;
2.405000000000000E+009;1.681264638900757E-001;9.343279525637627E-003;1.480507198721170E-003;-3.329248633235693E-003;
2.405166666666667E+009;1.679944396018982E-001;7.577203214168549E-003;1.312725362367928E-003;-3.452267497777939E-003;
2.405333333333334E+009;1.680323481559753E-001;5.734183359891176E-003;1.117977662943304E-003;-3.539688419550657E-003;
2.405500000000000E+009;1.678262650966644E-001;3.934420645236969E-003;1.026335055939853E-003;-3.533122129738331E-003;
2.405666666666667E+009;1.679089665412903E-001;1.959507586434484E-003;7.822788902558386E-004;-3.449743613600731E-003;
2.405833333333334E+009;1.677078157663345E-001;2.382687380304560E-004;5.541132413782179E-004;-3.592415247112513E-003;
2.406000000000000E+009;1.680064201354981E-001;-1.780462218448520E-003;3.357138193678111E-004;-3.469083923846483E-003;
2.406166666666667E+009;1.677160114049912E-001;-3.477271646261215E-003;2.111051580868661E-004;-3.552827751263976E-003;
2.406333333333334E+009;1.679186522960663E-001;-5.303859245032072E-003;-1.588318264111877E-005;-3.399773268029094E-003;
2.406500000000000E+009;1.678245514631271E-001;-7.045826409012079E-003;-3.440078444327810E-006;-3.223730251193047E-003;
2.406666666666667E+009;1.678083837032318E-001;-8.808647282421589E-003;-1.858035684563220E-004;-3.277594922110438E-003;
2.406833333333334E+009;1.679079234600067E-001;-1.060157641768456E-002;-2.425019774818793E-004;-3.211695700883865E-003;
2.407000000000000E+009;1.680012196302414E-001;-1.228712406009436E-002;-4.763099423144013E-004;-3.072510939091444E-003;
2.407166666666667E+009;1.680751144886017E-001;-1.366972364485264E-002;-4.468310507945716E-004;-2.995076356455684E-003;
2.407333333333334E+009;1.680403947830200E-001;-1.523096021264792E-002;-5.430104793049395E-004;-2.820310648530722E-003;
2.407500000000000E+009;1.681300550699234E-001;-1.668397523462772E-002;-6.051629316061735E-004;-2.677463926374912E-003;
2.407666666666667E+009;1.681933850049973E-001;-1.783180050551891E-002;-4.429328837431967E-004;-2.825286006554961E-003;
2.407833333333334E+009;1.682266891002655E-001;-1.919476501643658E-002;-6.039670552127063E-004;-2.762946300208569E-003;
2.408000000000000E+009;1.685020178556442E-001;-2.024052664637566E-002;-5.048811435699463E-004;-2.754871966317296E-003;
2.408166666666667E+009;1.686200797557831E-001;-2.121907472610474E-002;-7.513860473409295E-004;-2.625366905704141E-003;
2.408333333333334E+009;1.689596325159073E-001;-2.203907445073128E-002;-7.071139989420772E-004;-2.637220779433847E-003;
2.408500000000000E+009;1.691829562187195E-001;-2.312505058944225E-002;-5.947863101027906E-004;-2.673880662769079E-003;
2.408666666666667E+009;1.694544553756714E-001;-2.389881946146488E-002;-8.545906166546047E-004;-2.595044672489166E-003;
2.408833333333334E+009;1.697133779525757E-001;-2.446469850838184E-002;-7.726732874289155E-004;-2.693955553695560E-003;
2.409000000000000E+009;1.700457185506821E-001;-2.522826567292213E-002;-7.715789251960814E-004;-2.702208235859871E-003;
2.409166666666667E+009;1.703910082578659E-001;-2.587947621941567E-002;-8.818097994662821E-004;-2.775601809844375E-003;
2.409333333333334E+009;1.708877235651016E-001;-2.682213857769966E-002;-9.733780752867460E-004;-2.739365911111236E-003;
2.409500000000000E+009;1.711161434650421E-001;-2.763481065630913E-002;-1.133161247707903E-003;-2.630069851875305E-003;
2.409666666666667E+009;1.713247001171112E-001;-2.824528701603413E-002;-1.110197161324322E-003;-2.709600608795881E-003;
2.409833333333334E+009;1.715300232172012E-001;-2.897973731160164E-002;-1.173799857497215E-003;-2.619281644001603E-003;
2.410000000000000E+009;1.718018203973770E-001;-2.951484359800816E-002;-1.275409944355488E-003;-2.654224401339889E-003;
2.410166666666667E+009;1.720092743635178E-001;-3.013103827834129E-002;-1.417889026924968E-003;-2.744494704529643E-003;
2.410333333333334E+009;1.719546616077423E-001;-3.095758706331253E-002;-1.444981200620532E-003;-2.539278240874410E-003;
2.410500000000000E+009;1.719992905855179E-001;-3.150109201669693E-002;-1.403821283020079E-003;-2.603639848530293E-003;
2.410666666666667E+009;1.718253046274185E-001;-3.221942856907845E-002;-1.377097796648741E-003;-2.647102577611804E-003;
2.410833333333334E+009;1.718395948410034E-001;-3.271203488111496E-002;-1.373141654767096E-003;-2.665963256731629E-003;
2.411000000000000E+009;1.715090572834015E-001;-3.354779258370400E-002;-1.416971208527684E-003;-2.618400380015373E-003;
2.411166666666667E+009;1.713601946830750E-001;-3.426489979028702E-002;-1.700001535937190E-003;-2.805929863825440E-003;
2.411333333333334E+009;1.710108518600464E-001;-3.462343662977219E-002;-1.614589593373239E-003;-2.957082353532314E-003;
2.411500000000000E+009;1.707409620285034E-001;-3.549180924892426E-002;-1.734543708153069E-003;-2.736106282100081E-003;
2.411666666666667E+009;1.704289466142654E-001;-3.609168529510498E-002;-1.873683533631265E-003;-2.967616543173790E-003;
2.411833333333334E+009;1.699053645133972E-001;-3.662414103746414E-002;-2.014308935031295E-003;-2.870659343898296E-003;
2.412000000000000E+009;1.696549952030182E-001;-3.754886239767075E-002;-2.390149049460888E-003;-2.934673335403204E-003;
2.412166666666667E+009;1.688557267189026E-001;-3.825920820236206E-002;-2.521125366911292E-003;-2.838097279891372E-003;
2.412333333333334E+009;1.685842573642731E-001;-3.902963176369667E-002;-2.698116004467011E-003;-2.878227736800909E-003;
2.412500000000000E+009;1.678472161293030E-001;-3.972798213362694E-002;-2.989231143146753E-003;-2.764772390946746E-003;
2.412666666666667E+009;1.674656122922897E-001;-4.082119837403297E-002;-3.312093671411276E-003;-2.503326162695885E-003;
2.412833333333334E+009;1.668772846460342E-001;-4.165077582001686E-002;-3.542819526046515E-003;-2.447106409817934E-003;
2.413000000000000E+009;1.661216467618942E-001;-4.234901815652847E-002;-3.653598949313164E-003;-2.077094512060285E-003;
2.413166666666667E+009;1.652401387691498E-001;-4.354904964566231E-002;-3.722011344507337E-003;-2.008273964747787E-003;
2.413333333333334E+009;1.644850969314575E-001;-4.469162225723267E-002;-3.797772107645869E-003;-1.731182914227247E-003;
2.413500000000000E+009;1.638516783714294E-001;-4.561605677008629E-002;-3.833721624687314E-003;-1.220113481394947E-003;
2.413666666666667E+009;1.632712036371231E-001;-4.658321663737297E-002;-4.068281501531601E-003;-1.196030760183930E-003;
2.413833333333334E+009;1.624082773923874E-001;-4.767933115363121E-002;-3.860363969579339E-003;-7.909928681328893E-004;
2.414000000000000E+009;1.616163849830627E-001;-4.890091344714165E-002;-3.724281676113606E-003;-5.166630144231021E-004;
2.414166666666667E+009;1.611376106739044E-001;-4.983317479491234E-002;-3.744558664038777E-003;-3.524859203025699E-004;
2.414333333333334E+009;1.605970561504364E-001;-5.101387202739716E-002;-3.942016512155533E-003;-2.584522881079465E-004;
2.414500000000000E+009;1.602237671613693E-001;-5.209460109472275E-002;-3.618455026298761E-003;5.534091542358510E-006;
2.414666666666667E+009;1.595979630947113E-001;-5.324116721749306E-002;-3.548751585185528E-003;2.748951374087483E-004;
2.414833333333334E+009;1.591666936874390E-001;-5.451814457774162E-002;-3.395181149244309E-003;2.006580762099475E-004;
2.415000000000000E+009;1.587819159030914E-001;-5.573673173785210E-002;-3.334337146952748E-003;3.908744838554412E-004;
2.415166666666667E+009;1.585123389959335E-001;-5.710793286561966E-002;-3.194841090589762E-003;4.840270848944783E-004;
2.415333333333334E+009;1.582761704921722E-001;-5.842389166355133E-002;-3.080452326685190E-003;6.454056128859520E-004;
2.415500000000000E+009;1.580410599708557E-001;-5.971544981002808E-002;-2.866985742002726E-003;7.501917425543070E-004;
2.415666666666667E+009;1.577682197093964E-001;-6.109160184860230E-002;-2.978537697345018E-003;7.770258816890419E-004;
2.415833333333334E+009;1.576972305774689E-001;-6.263250857591629E-002;-2.859988948330283E-003;8.244907949119806E-004;
2.416000000000000E+009;1.574015766382217E-001;-6.402321159839630E-002;-2.557184081524611E-003;8.736510062590241E-004;
2.416166666666667E+009;1.574588865041733E-001;-6.553333997726440E-002;-2.482097130268812E-003;9.041198063641787E-004;
2.416333333333334E+009;1.571482717990875E-001;-6.693988293409348E-002;-2.647836925461888E-003;8.968087495304644E-004;
2.416500000000000E+009;1.569337099790573E-001;-6.853324919939041E-002;-2.401117002591491E-003;9.154818835668266E-004;
2.416666666666667E+009;1.567142754793167E-001;-6.976719200611115E-002;-2.253778511658311E-003;9.848595364019275E-004;
2.416833333333334E+009;1.566556841135025E-001;-7.133090496063232E-002;-2.205304801464081E-003;8.931438205763698E-004;
2.417000000000000E+009;1.563059985637665E-001;-7.254946976900101E-002;-2.052933676168323E-003;9.765150025486946E-004;
2.417166666666667E+009;1.562354713678360E-001;-7.367978990077972E-002;-2.116024959832430E-003;1.115621998906136E-003;
2.417333333333334E+009;1.561198681592941E-001;-7.495212554931641E-002;-2.012790646404028E-003;9.467408526688814E-004;
2.417500000000000E+009;1.559846401214600E-001;-7.614284753799439E-002;-1.909625483676791E-003;1.069084275513887E-003;
2.417666666666667E+009;1.559540480375290E-001;-7.707527279853821E-002;-1.990465214475989E-003;7.355142734013498E-004;
2.417833333333334E+009;1.558275520801544E-001;-7.808594405651093E-002;-1.918803667649627E-003;1.066118595190346E-003;
2.418000000000000E+009;1.557956337928772E-001;-7.901875674724579E-002;-1.897782902233303E-003;1.129755750298500E-003;
2.418166666666667E+009;1.556498557329178E-001;-7.993317395448685E-002;-1.830351306125522E-003;1.026881160214543E-003;
2.418333333333334E+009;1.559304147958756E-001;-8.084072172641754E-002;-1.837895717471838E-003;9.690785082057118E-004;
2.418500000000000E+009;1.556287854909897E-001;-8.154180645942688E-002;-1.772400224581361E-003;1.008876366540790E-003;
2.418666666666667E+009;1.558264642953873E-001;-8.241689950227737E-002;-1.748544280417264E-003;9.094151319004595E-004;
2.418833333333334E+009;1.555596143007278E-001;-8.309563249349594E-002;-1.615868881344795E-003;1.105777686461806E-003;
2.419000000000000E+009;1.553985774517059E-001;-8.377815783023834E-002;-1.735038124024868E-003;1.052812673151493E-003;
2.419166666666667E+009;1.553736627101898E-001;-8.429447561502457E-002;-1.628168509341776E-003;9.833154035732150E-004;
2.419333333333334E+009;1.550752967596054E-001;-8.474083244800568E-002;-1.600997289642692E-003;1.098876935429871E-003;
2.419500000000000E+009;1.550150960683823E-001;-8.549088984727860E-002;-1.614585286006331E-003;9.333195630460978E-004;
2.419666666666667E+009;1.548937261104584E-001;-8.586982637643814E-002;-1.574852271005511E-003;8.346072863787413E-004;
2.419833333333334E+009;1.544252336025238E-001;-8.617433905601502E-002;-1.562799792736769E-003;9.256884222850204E-004;
2.420000000000000E+009;1.546059399843216E-001;-8.661834150552750E-002;-1.618857146240771E-003;7.889534463174641E-004;
2.420166666666667E+009;1.541912108659744E-001;-8.683519065380096E-002;-1.606571138836443E-003;7.832169649191201E-004;
2.420333333333334E+009;1.540015786886215E-001;-8.730297535657883E-002;-1.628882368095219E-003;8.543261792510748E-004;
2.420500000000000E+009;1.536243408918381E-001;-8.749718219041824E-002;-1.681725261732936E-003;6.164005026221275E-004;
2.420666666666667E+009;1.532686948776245E-001;-8.785653114318848E-002;-1.807847293093801E-003;5.373413441702724E-004;
2.420833333333334E+009;1.529600173234940E-001;-8.825490623712540E-002;-1.718530780635774E-003;5.871941102668643E-004;
2.421000000000000E+009;1.525799334049225E-001;-8.864890038967133E-002;-2.088166307657957E-003;6.218047928996384E-004;
2.421166666666667E+009;1.520405262708664E-001;-8.892665803432465E-002;-2.071419032290578E-003;6.548006203956902E-004;
2.421333333333334E+009;1.516911089420319E-001;-8.954265713691711E-002;-2.266655210405588E-003;7.248428883031011E-004;
2.421500000000000E+009;1.510406136512756E-001;-8.997730910778046E-002;-2.324384171515703E-003;6.869476055726409E-004;
2.421666666666667E+009;1.505108624696732E-001;-9.029865264892578E-002;-2.328008180484176E-003;8.753883885219693E-004;
2.421833333333334E+009;1.497886925935745E-001;-9.076092392206192E-002;-2.586530987173319E-003;1.006147242151201E-003;
2.422000000000000E+009;1.490644514560700E-001;-9.138789772987366E-002;-2.768918871879578E-003;1.080879825167358E-003;
2.422166666666667E+009;1.482740938663483E-001;-9.199030697345734E-002;-2.816871041432023E-003;1.235598698258400E-003;
2.422333333333334E+009;1.476432830095291E-001;-9.263150393962860E-002;-2.898521488532424E-003;1.380005851387978E-003;
2.422500000000000E+009;1.467854976654053E-001;-9.308367222547531E-002;-3.092729486525059E-003;1.584158861078322E-003;
2.422666666666667E+009;1.459599435329437E-001;-9.390234202146530E-002;-3.055166685953736E-003;1.728913746774197E-003;
2.422833333333334E+009;1.452146172523499E-001;-9.468328952789307E-002;-3.242641920223832E-003;1.868278253823519E-003;
2.423000000000000E+009;1.442633867263794E-001;-9.537144750356674E-002;-3.268278203904629E-003;2.215913496911526E-003;
2.423166666666667E+009;1.434483677148819E-001;-9.621448814868927E-002;-3.160426625981927E-003;2.581765642389655E-003;
2.423333333333334E+009;1.424999386072159E-001;-9.696765244007111E-002;-3.164267633110285E-003;2.836486091837287E-003;
2.423500000000000E+009;1.415594965219498E-001;-9.807118028402329E-002;-3.241620259359479E-003;3.156376304104924E-003;
2.423666666666667E+009;1.404705792665482E-001;-9.902406483888626E-002;-3.120759502053261E-003;3.579417010769248E-003;
2.423833333333334E+009;1.397350132465363E-001;-9.992481023073196E-002;-2.784862881526351E-003;3.967416472733021E-003;
2.424000000000000E+009;1.388581544160843E-001;-1.007791385054588E-001;-2.640355844050646E-003;4.159440752118826E-003;
2.424166666666667E+009;1.378567218780518E-001;-1.018436178565025E-001;-2.292326651513577E-003;4.521880764514208E-003;
2.424333333333334E+009;1.372856795787811E-001;-1.027560308575630E-001;-2.154606394469738E-003;4.656302276998758E-003;
2.424500000000000E+009;1.362962722778320E-001;-1.040183231234551E-001;-1.864009536802769E-003;5.031687207520008E-003;
2.424666666666667E+009;1.356726586818695E-001;-1.048565134406090E-001;-1.608598977327347E-003;5.149894859641790E-003;
2.424833333333334E+009;1.347843855619431E-001;-1.061074137687683E-001;-1.037291367538273E-003;5.313062574714422E-003;
2.425000000000000E+009;1.342125535011292E-001;-1.073572933673859E-001;-7.114660693332553E-004;5.296716000884771E-003;
2.425166666666667E+009;1.332967579364777E-001;-1.083268225193024E-001;-2.206122444476932E-004;5.256337113678455E-003;
2.425333333333334E+009;1.328132897615433E-001;-1.095925420522690E-001;1.259964919881895E-004;5.190317053347826E-003;
2.425500000000000E+009;1.323266625404358E-001;-1.107599735260010E-001;5.909826140850782E-004;5.266522523015738E-003;
2.425666666666667E+009;1.315570175647736E-001;-1.120042726397514E-001;1.030618790537119E-003;5.073256790637970E-003;
2.425833333333334E+009;1.312281340360642E-001;-1.132283210754395E-001;1.075100852176547E-003;5.013986025005579E-003;
2.426000000000000E+009;1.306857764720917E-001;-1.145243197679520E-001;1.552229630760849E-003;4.828541073948145E-003;
2.426166666666667E+009;1.303726583719254E-001;-1.157771572470665E-001;1.775966142304242E-003;4.608023446053267E-003;
2.426333333333334E+009;1.298060417175293E-001;-1.169266179203987E-001;1.972466707229614E-003;4.334096796810627E-003;
2.426500000000000E+009;1.294505745172501E-001;-1.179612204432488E-001;2.312697004526854E-003;4.246509633958340E-003;
2.426666666666667E+009;1.292721182107925E-001;-1.189762279391289E-001;2.457666443660855E-003;3.944898489862680E-003;
2.426833333333334E+009;1.288289576768875E-001;-1.200386062264442E-001;2.521885558962822E-003;3.577687777578831E-003;
2.427000000000000E+009;1.286537945270538E-001;-1.211905255913734E-001;2.621693536639214E-003;3.471774980425835E-003;
2.427166666666667E+009;1.283189952373505E-001;-1.220951974391937E-001;2.745276549831033E-003;3.173796227201819E-003;
2.427333333333334E+009;1.280530989170075E-001;-1.229558363556862E-001;2.870191587135196E-003;3.117536194622517E-003;
2.427500000000000E+009;1.280457526445389E-001;-1.239256337285042E-001;2.859130036085844E-003;2.755960216745734E-003;
2.427666666666667E+009;1.277745813131332E-001;-1.247027218341827E-001;2.901249798014760E-003;2.515619620680809E-003;
