# Version 1.00
#
freq[Hz];re:Trc1_S11;im:Trc1_S11;re:Trc2_S21;im:Trc2_S21;
2.400000000000000E+009;1.673350632190704E-001;4.136844351887703E-002;2.396465977653861E-003;-1.380660687573254E-004;
2.400166666666667E+009;1.679827868938446E-001;4.045525193214417E-002;2.323132241144776E-003;-2.869917661882937E-004;
2.400333333333334E+009;1.685236990451813E-001;3.942437842488289E-002;2.488070633262396E-003;-4.016169405076653E-004;
2.400500000000000E+009;1.692448556423187E-001;3.855838999152184E-002;2.441135933622718E-003;-3.523173218127340E-004;
2.400666666666667E+009;1.693695932626724E-001;3.759767487645149E-002;2.770423423498869E-003;-6.582751520909369E-004;
2.400833333333334E+009;1.698435097932816E-001;3.676254674792290E-002;2.764042699709535E-003;-5.899433745071292E-004;
2.401000000000000E+009;1.701446771621704E-001;3.568608686327934E-002;2.728529041633010E-003;-7.543931133113802E-004;
2.401166666666667E+009;1.704763472080231E-001;3.471769019961357E-002;2.825066912919283E-003;-8.099367842078209E-004;
2.401333333333334E+009;1.704661995172501E-001;3.376643732190132E-002;2.955136820673943E-003;-1.022078911773861E-003;
2.401500000000000E+009;1.706939190626144E-001;3.310133144259453E-002;2.952172420918942E-003;-1.172148040495813E-003;
2.401666666666667E+009;1.709465831518173E-001;3.214136511087418E-002;2.907649846747518E-003;-1.248304033651948E-003;
2.401833333333334E+009;1.709339618682861E-001;3.118097595870495E-002;3.001330187544227E-003;-1.621518633328378E-003;
2.402000000000000E+009;1.710340529680252E-001;3.014675527811050E-002;2.829316304996610E-003;-1.716028898954392E-003;
2.402166666666667E+009;1.711177229881287E-001;2.913515456020832E-002;2.779300557449460E-003;-1.880781375803053E-003;
2.402333333333334E+009;1.710188239812851E-001;2.832075953483582E-002;2.673659706488252E-003;-2.222559647634625E-003;
2.402500000000000E+009;1.713123917579651E-001;2.731953375041485E-002;2.567435381934047E-003;-2.301026135683060E-003;
2.402666666666667E+009;1.711102277040482E-001;2.632844261825085E-002;2.490679500624538E-003;-2.530727069824934E-003;
2.402833333333334E+009;1.712087839841843E-001;2.534925937652588E-002;2.377986442297697E-003;-2.581967972218990E-003;
2.403000000000000E+009;1.711505651473999E-001;2.439637109637260E-002;1.977432519197464E-003;-2.533161547034979E-003;
2.403166666666667E+009;1.711900234222412E-001;2.328296191990376E-002;1.937992870807648E-003;-2.535609994083643E-003;
2.403333333333334E+009;1.710502356290817E-001;2.221526391804218E-002;1.704704714938998E-003;-2.575995866209269E-003;
2.403500000000000E+009;1.709996759891510E-001;2.096909843385220E-002;1.611395739018917E-003;-2.893920755013824E-003;
2.403666666666667E+009;1.707282066345215E-001;1.976443454623222E-002;1.488243695348501E-003;-2.802627859637141E-003;
2.403833333333334E+009;1.709476709365845E-001;1.860651746392250E-002;1.420221524313092E-003;-2.807551762089133E-003;
2.404000000000000E+009;1.706018894910812E-001;1.743439398705959E-002;1.247682259418070E-003;-2.789137419313192E-003;
2.404166666666667E+009;1.706383377313614E-001;1.616713218390942E-002;1.203101011924446E-003;-2.797508146613836E-003;
2.404333333333334E+009;1.705377101898193E-001;1.490933820605278E-002;9.893939131870866E-004;-2.787248929962516E-003;
2.404500000000000E+009;1.703655421733856E-001;1.351405866444111E-002;7.927916594780982E-004;-2.775092376396060E-003;
2.404666666666667E+009;1.705904006958008E-001;1.211223192512989E-002;8.978638797998428E-004;-2.798393601551652E-003;
2.404833333333334E+009;1.703283786773682E-001;1.078461017459631E-002;6.506016943603754E-004;-2.791597973555327E-003;
2.405000000000000E+009;1.703135222196579E-001;9.348522871732712E-003;6.594640435650945E-004;-2.901592291891575E-003;
2.405166666666667E+009;1.704414039850235E-001;7.788118440657854E-003;4.513649910222739E-004;-2.797988010570407E-003;
2.405333333333334E+009;1.704463511705399E-001;6.258949637413025E-003;5.429428420029581E-004;-2.747918711975217E-003;
2.405500000000000E+009;1.704848706722260E-001;4.875317681580782E-003;9.892402886180207E-005;-2.817951841279864E-003;
2.405666666666667E+009;1.703944951295853E-001;3.259964054450393E-003;1.641959825064987E-004;-2.848861971870065E-003;
2.405833333333334E+009;1.701812744140625E-001;1.755430246703327E-003;-1.296676327910973E-005;-2.744240453466773E-003;
2.406000000000000E+009;1.702450364828110E-001;7.927753904368728E-005;-1.899382332339883E-004;-2.959436038509011E-003;
2.406166666666667E+009;1.700775772333145E-001;-1.394593971781433E-003;-1.068935889634304E-004;-2.781360642984510E-003;
2.406333333333334E+009;1.701525151729584E-001;-2.938075223937631E-003;-3.144439251627773E-004;-2.842754591256380E-003;
2.406500000000000E+009;1.700666099786758E-001;-4.497020971029997E-003;-2.897283702623099E-004;-2.621369436383247E-003;
2.406666666666667E+009;1.696549952030182E-001;-6.004797294735909E-003;-4.997277865186334E-004;-2.724788384512067E-003;
2.406833333333334E+009;1.696408092975617E-001;-7.519355509430170E-003;-6.829298217780888E-004;-2.536758081987500E-003;
2.407000000000000E+009;1.695302873849869E-001;-8.961467072367668E-003;-7.141807582229376E-004;-2.420815406367183E-003;
2.407166666666667E+009;1.693967282772064E-001;-1.032067928463221E-002;-7.689193007536233E-004;-2.327427268028259E-003;
2.407333333333334E+009;1.691197007894516E-001;-1.164279785007238E-002;-8.412575116381049E-004;-2.088660839945078E-003;
2.407500000000000E+009;1.689509451389313E-001;-1.299140509217978E-002;-7.008793181739748E-004;-2.169139217585325E-003;
2.407666666666667E+009;1.687304973602295E-001;-1.399949006736279E-002;-6.833751685917378E-004;-2.130690263584256E-003;
2.407833333333334E+009;1.685617566108704E-001;-1.545651350170374E-002;-7.555197807960212E-004;-2.172370441257954E-003;
2.408000000000000E+009;1.685489863157272E-001;-1.652217097580433E-002;-7.893586298450828E-004;-2.071060938760638E-003;
2.408166666666667E+009;1.682523339986801E-001;-1.735133118927479E-002;-5.775736062787473E-004;-2.006834605708718E-003;
2.408333333333334E+009;1.683454811573029E-001;-1.844756864011288E-002;-7.217063684947789E-004;-1.906040939502418E-003;
2.408500000000000E+009;1.684657037258148E-001;-1.938417367637157E-002;-5.465960712172091E-004;-1.932797138579190E-003;
2.408666666666667E+009;1.683586835861206E-001;-2.028391882777214E-002;-5.539904814213514E-004;-1.912903506308794E-003;
2.408833333333334E+009;1.683699637651444E-001;-2.133883535861969E-002;-5.334555753506720E-004;-1.929008634760976E-003;
2.409000000000000E+009;1.685058176517487E-001;-2.214249409735203E-002;-5.779574275948107E-004;-2.028310671448708E-003;
2.409166666666667E+009;1.684158742427826E-001;-2.304573543369770E-002;-6.398651166819036E-004;-2.022379077970982E-003;
2.409333333333334E+009;1.687019616365433E-001;-2.385693602263928E-002;-6.331264739856124E-004;-2.175285480916500E-003;
2.409500000000000E+009;1.688310354948044E-001;-2.501279860734940E-002;-5.636466667056084E-004;-2.167796250432730E-003;
2.409666666666667E+009;1.688095629215241E-001;-2.582555823028088E-002;-6.021080771461129E-004;-1.997853862121701E-003;
2.409833333333334E+009;1.688082069158554E-001;-2.668889611959457E-002;-6.312556797638536E-004;-2.153353067114949E-003;
2.410000000000000E+009;1.690946370363236E-001;-2.751874551177025E-002;-7.058528135530651E-004;-2.278566826134920E-003;
2.410166666666667E+009;1.690816283226013E-001;-2.858215570449829E-002;-7.456198218278587E-004;-2.395800082013011E-003;
2.410333333333334E+009;1.691208630800247E-001;-2.956448309123516E-002;-8.222112664952874E-004;-2.487146295607090E-003;
2.410500000000000E+009;1.689593344926834E-001;-3.051753900945187E-002;-9.812153875827789E-004;-2.666885266080499E-003;
2.410666666666667E+009;1.689419448375702E-001;-3.140199929475784E-002;-1.063384464941919E-003;-2.714564325287938E-003;
2.410833333333334E+009;1.689147949218750E-001;-3.227951377630234E-002;-1.210168120451272E-003;-2.695689210668206E-003;
2.411000000000000E+009;1.687483489513397E-001;-3.326378762722015E-002;-1.468390692025423E-003;-2.800881164148450E-003;
2.411166666666667E+009;1.686646491289139E-001;-3.417228162288666E-002;-1.566989114508033E-003;-2.688661217689514E-003;
2.411333333333334E+009;1.681880503892899E-001;-3.506761789321899E-002;-1.812840811908245E-003;-2.770710038021207E-003;
2.411500000000000E+009;1.681243032217026E-001;-3.601849824190140E-002;-2.089170506224036E-003;-2.683750120922923E-003;
2.411666666666667E+009;1.679944097995758E-001;-3.681910783052445E-002;-2.162209013476968E-003;-2.594668418169022E-003;
2.411833333333334E+009;1.678407341241837E-001;-3.782200813293457E-002;-2.325021428987384E-003;-2.611018484458327E-003;
2.412000000000000E+009;1.675675809383392E-001;-3.865686804056168E-002;-2.590519143268466E-003;-2.432607579976320E-003;
2.412166666666667E+009;1.671650856733322E-001;-3.974398225545883E-002;-2.590958960354328E-003;-2.300955587998033E-003;
2.412333333333334E+009;1.671635806560516E-001;-4.065747931599617E-002;-2.727957442402840E-003;-1.982211600989103E-003;
2.412500000000000E+009;1.665682643651962E-001;-4.150528088212013E-002;-2.903107320889831E-003;-1.905306708067656E-003;
2.412666666666667E+009;1.662512719631195E-001;-4.256223514676094E-002;-2.951210364699364E-003;-1.865347265265882E-003;
2.412833333333334E+009;1.658631414175034E-001;-4.368432238698006E-002;-2.987470477819443E-003;-1.778564997948706E-003;
2.413000000000000E+009;1.655698567628861E-001;-4.463292658329010E-002;-3.102366812527180E-003;-1.547908643260598E-003;
2.413166666666667E+009;1.650346368551254E-001;-4.561832547187805E-002;-3.258264856413007E-003;-1.516109099611640E-003;
2.413333333333334E+009;1.647369861602783E-001;-4.652442410588265E-002;-3.311878070235252E-003;-1.257121562957764E-003;
2.413500000000000E+009;1.642601042985916E-001;-4.767260327935219E-002;-3.330778330564499E-003;-1.201996579766274E-003;
2.413666666666667E+009;1.639129668474197E-001;-4.860503971576691E-002;-3.436845960095525E-003;-1.065388321876526E-003;
2.413833333333334E+009;1.633618474006653E-001;-4.961248114705086E-002;-3.433177946135402E-003;-8.763513178564608E-004;
2.414000000000000E+009;1.627393364906311E-001;-5.066398158669472E-002;-3.552969777956605E-003;-5.275186267681420E-004;
2.414166666666667E+009;1.625660657882690E-001;-5.152130499482155E-002;-3.496594959869981E-003;-3.330222971271724E-004;
2.414333333333334E+009;1.622601300477982E-001;-5.241995677351952E-002;-3.517127363011241E-003;-1.422829227522016E-004;
2.414500000000000E+009;1.619625389575958E-001;-5.348267406225205E-002;-3.456632141023874E-003;-1.046242505253758E-005;
2.414666666666667E+009;1.615941822528839E-001;-5.444879457354546E-002;-3.418717533349991E-003;2.033010532613844E-004;
2.414833333333334E+009;1.612932384014130E-001;-5.556206777691841E-002;-3.383099101483822E-003;2.473895729053766E-004;
2.415000000000000E+009;1.609712392091751E-001;-5.635426566004753E-002;-3.282966557890177E-003;3.702633257489651E-004;
2.415166666666667E+009;1.608771979808807E-001;-5.749195441603661E-002;-3.217522054910660E-003;6.293746992014349E-004;
2.415333333333334E+009;1.608710289001465E-001;-5.866311863064766E-002;-2.946421271190047E-003;5.923326825723052E-004;
2.415500000000000E+009;1.606252044439316E-001;-5.963872745633125E-002;-2.977383788675070E-003;6.725987186655402E-004;
2.415666666666667E+009;1.604489088058472E-001;-6.072466075420380E-002;-2.794741652905941E-003;8.332498837262392E-004;
2.415833333333334E+009;1.603555828332901E-001;-6.193375214934349E-002;-2.653458854183555E-003;8.846024866215885E-004;
2.416000000000000E+009;1.601351350545883E-001;-6.320168823003769E-002;-2.811305224895477E-003;1.022270880639553E-003;
2.416166666666667E+009;1.599868834018707E-001;-6.426376849412918E-002;-2.509995596483350E-003;1.025985227897763E-003;
2.416333333333334E+009;1.597658991813660E-001;-6.546963006258011E-002;-2.338712802156806E-003;9.703294490464032E-004;
2.416500000000000E+009;1.595978289842606E-001;-6.670901179313660E-002;-2.317561069503427E-003;1.034236513078213E-003;
2.416666666666667E+009;1.591704487800598E-001;-6.783898919820786E-002;-2.271690638735890E-003;1.054098480381072E-003;
2.416833333333334E+009;1.589453518390656E-001;-6.908107548952103E-002;-2.214335603639484E-003;1.077438239008188E-003;
2.417000000000000E+009;1.585953384637833E-001;-7.024210691452026E-002;-2.114734146744013E-003;1.050096703693271E-003;
2.417166666666667E+009;1.582715064287186E-001;-7.113733142614365E-002;-1.998187508434057E-003;1.043045544065535E-003;
2.417333333333334E+009;1.578670889139175E-001;-7.217833399772644E-002;-1.982770860195160E-003;1.120225642807782E-003;
2.417500000000000E+009;1.575051695108414E-001;-7.333359122276306E-002;-2.083242172375321E-003;1.054109889082611E-003;
2.417666666666667E+009;1.572919785976410E-001;-7.407290488481522E-002;-2.080939710140228E-003;9.822268038988113E-004;
2.417833333333334E+009;1.569680720567703E-001;-7.501205056905747E-002;-2.016491256654263E-003;8.877525688149035E-004;
2.418000000000000E+009;1.566388010978699E-001;-7.610969245433807E-002;-2.107459586113691E-003;8.358602644875646E-004;
2.418166666666667E+009;1.562977582216263E-001;-7.673361897468567E-002;-2.029798692092300E-003;9.668180136941373E-004;
2.418333333333334E+009;1.561942845582962E-001;-7.768994569778442E-002;-2.101741265505552E-003;1.055366825312376E-003;
2.418500000000000E+009;1.557856500148773E-001;-7.839754223823547E-002;-2.110167872160673E-003;1.073958002962172E-003;
2.418666666666667E+009;1.555488258600235E-001;-7.920493930578232E-002;-2.162248129025102E-003;1.194925513118506E-003;
2.418833333333334E+009;1.550586819648743E-001;-7.996980845928192E-002;-2.213273197412491E-003;1.156883663497865E-003;
2.419000000000000E+009;1.546255201101303E-001;-8.063821494579315E-002;-2.208702033385634E-003;1.387444091960788E-003;
2.419166666666667E+009;1.544006168842316E-001;-8.145409822463989E-002;-2.278738655149937E-003;1.386808697134256E-003;
2.419333333333334E+009;1.538838744163513E-001;-8.187219500541687E-002;-2.263194415718317E-003;1.389905693940818E-003;
2.419500000000000E+009;1.536888927221298E-001;-8.260667324066162E-002;-2.118199365213513E-003;1.522279344499111E-003;
2.419666666666667E+009;1.534195840358734E-001;-8.333369344472885E-002;-2.135156886652112E-003;1.702706096693873E-003;
2.419833333333334E+009;1.527122706174851E-001;-8.369911462068558E-002;-2.120046876370907E-003;1.611276064068079E-003;
2.420000000000000E+009;1.526293307542801E-001;-8.429222553968430E-002;-2.157315611839294E-003;1.686754985712469E-003;
2.420166666666667E+009;1.521971970796585E-001;-8.499489724636078E-002;-2.242900431156158E-003;1.724706846289337E-003;
2.420333333333334E+009;1.519698202610016E-001;-8.570584654808044E-002;-2.197429537773132E-003;1.841375487856567E-003;
2.420500000000000E+009;1.516355574131012E-001;-8.625906705856323E-002;-2.177631948143244E-003;2.126119332388043E-003;
2.420666666666667E+009;1.511118561029434E-001;-8.671624958515167E-002;-2.203514566645026E-003;2.078946446999908E-003;
2.420833333333334E+009;1.508029699325562E-001;-8.731865882873535E-002;-2.014616038650274E-003;2.258107764646411E-003;
2.421000000000000E+009;1.504264026880264E-001;-8.820384740829468E-002;-2.061977516859770E-003;2.332265721634030E-003;
2.421166666666667E+009;1.500726193189621E-001;-8.871870487928391E-002;-2.064174506813288E-003;2.527283271774650E-003;
2.421333333333334E+009;1.495140939950943E-001;-8.951254934072495E-002;-2.060746308416128E-003;2.571381162852049E-003;
2.421500000000000E+009;1.489281803369522E-001;-9.012073278427124E-002;-1.916490378789604E-003;2.887010807171464E-003;
2.421666666666667E+009;1.484010517597199E-001;-9.095276892185211E-002;-1.901043928228319E-003;2.896696096286178E-003;
2.421833333333334E+009;1.479718834161758E-001;-9.158762544393539E-002;-1.579915639013052E-003;3.026755992323160E-003;
2.422000000000000E+009;1.473322361707687E-001;-9.234574437141419E-002;-1.590770552866161E-003;3.055248642340303E-003;
2.422166666666667E+009;1.466138362884522E-001;-9.326357394456863E-002;-1.366783864796162E-003;3.242288716137409E-003;
2.422333333333334E+009;1.461837589740753E-001;-9.388627111911774E-002;-1.237432472407818E-003;3.426699666306377E-003;
2.422500000000000E+009;1.454239040613174E-001;-9.448137134313583E-002;-1.087764045223594E-003;3.508060006424785E-003;
2.422666666666667E+009;1.447821557521820E-001;-9.548962861299515E-002;-7.261686259880662E-004;3.583775367587805E-003;
2.422833333333334E+009;1.442615836858749E-001;-9.626860916614533E-002;-4.715290560852736E-004;3.593862522393465E-003;
2.423000000000000E+009;1.436388194561005E-001;-9.708406031131744E-002;-3.942345792893320E-004;3.752443240955472E-003;
2.423166666666667E+009;1.431968659162521E-001;-9.813218563795090E-002;-3.391374775674194E-004;3.700812114402652E-003;
2.423333333333334E+009;1.425595283508301E-001;-9.858391433954239E-002;-7.741093213553540E-006;3.684460883960128E-003;
2.423500000000000E+009;1.418182700872421E-001;-9.974557906389237E-002;8.487230661557987E-005;3.666091943159699E-003;
2.423666666666667E+009;1.410203874111176E-001;-1.006687209010124E-001;2.925677981693298E-004;3.498503239825368E-003;
2.423833333333334E+009;1.406137347221375E-001;-1.016620770096779E-001;6.278541986830533E-004;3.451834898442030E-003;
2.424000000000000E+009;1.397885531187058E-001;-1.023779958486557E-001;7.897905888967216E-004;3.498220350593329E-003;
2.424166666666667E+009;1.390963196754456E-001;-1.033461540937424E-001;8.016384672373533E-004;3.287270432338119E-003;
2.424333333333334E+009;1.386383622884750E-001;-1.043254733085632E-001;8.975025848485529E-004;3.093751147389412E-003;
2.424500000000000E+009;1.379900127649307E-001;-1.053619012236595E-001;1.009038300253451E-003;2.944074105471373E-003;
2.424666666666667E+009;1.373711973428726E-001;-1.060203611850739E-001;1.247855019755662E-003;2.931224182248116E-003;
2.424833333333334E+009;1.367299854755402E-001;-1.071688830852509E-001;1.263240235857666E-003;2.802748698741198E-003;
2.425000000000000E+009;1.364158987998962E-001;-1.082539409399033E-001;1.386235700920224E-003;2.597304759547114E-003;
2.425166666666667E+009;1.355279237031937E-001;-1.091386601328850E-001;1.483535394072533E-003;2.495045075193048E-003;
2.425333333333334E+009;1.351412087678909E-001;-1.100059673190117E-001;1.487305737100542E-003;2.146278973668814E-003;
2.425500000000000E+009;1.347888112068176E-001;-1.110850647091866E-001;1.467779860831797E-003;2.215625252574682E-003;
2.425666666666667E+009;1.340539902448654E-001;-1.119736060500145E-001;1.564618898555636E-003;2.129908418282867E-003;
2.425833333333334E+009;1.336927115917206E-001;-1.130003109574318E-001;1.428533229045570E-003;2.064734231680632E-003;
2.426000000000000E+009;1.332817226648331E-001;-1.140691637992859E-001;1.562991528771818E-003;1.929848338477314E-003;
2.426166666666667E+009;1.329612582921982E-001;-1.148763149976730E-001;1.483124913647771E-003;1.796321943402290E-003;
2.426333333333334E+009;1.322916448116303E-001;-1.158768534660339E-001;1.525203464552760E-003;1.780631253495812E-003;
2.426500000000000E+009;1.319438070058823E-001;-1.166049316525459E-001;1.533405156806111E-003;1.650900114327669E-003;
2.426666666666667E+009;1.317559629678726E-001;-1.174045726656914E-001;1.390616875141859E-003;1.534166280180216E-003;
2.426833333333334E+009;1.312078088521957E-001;-1.183418184518814E-001;1.378508750349283E-003;1.476162578910589E-003;
2.427000000000000E+009;1.307017952203751E-001;-1.192253232002258E-001;1.414877013303340E-003;1.444906578399241E-003;
2.427166666666667E+009;1.303435564041138E-001;-1.198172941803932E-001;1.354875159449875E-003;1.347606885246933E-003;
2.427333333333334E+009;1.299696713685989E-001;-1.206778436899185E-001;1.248734304681420E-003;1.377014443278313E-003;
2.427500000000000E+009;1.297912746667862E-001;-1.212976649403572E-001;1.076534623280168E-003;1.261549536138773E-003;
2.427666666666667E+009;1.292948275804520E-001;-1.220881864428520E-001;1.106718438677490E-003;1.385155832394958E-003;
