# Version 1.00
#
freq[Hz];re:Trc1_S11;im:Trc1_S11;re:Trc2_S21;im:Trc2_S21;
2.400000000000000E+009;1.675313413143158E-001;4.114555194973946E-002;2.261771354824305E-003;-2.890501345973462E-004;
2.400166666666667E+009;1.679931133985519E-001;4.033813998103142E-002;2.503835130482912E-003;-2.861918183043599E-004;
2.400333333333334E+009;1.685246974229813E-001;3.942161798477173E-002;2.533246297389269E-003;-4.170741885900497E-004;
2.400500000000000E+009;1.691033989191055E-001;3.850883990526199E-002;2.634859643876553E-003;-4.316346603445709E-004;
2.400666666666667E+009;1.693929284811020E-001;3.742860257625580E-002;2.660160651430488E-003;-5.386408302001655E-004;
2.400833333333334E+009;1.698763817548752E-001;3.657922148704529E-002;2.686574123799801E-003;-5.623113247565925E-004;
2.401000000000000E+009;1.702139228582382E-001;3.562600538134575E-002;2.666139043867588E-003;-7.517920457758009E-004;
2.401166666666667E+009;1.703368574380875E-001;3.478479012846947E-002;2.800201997160912E-003;-1.004128484055400E-003;
2.401333333333334E+009;1.704311370849609E-001;3.385921940207481E-002;2.900474006310105E-003;-1.025852048769593E-003;
2.401500000000000E+009;1.707565039396286E-001;3.307897225022316E-002;2.789812395349145E-003;-1.256455900147557E-003;
2.401666666666667E+009;1.709974855184555E-001;3.215254470705986E-002;3.030527383089066E-003;-1.347465673461556E-003;
2.401833333333334E+009;1.710758656263351E-001;3.105149976909161E-002;2.848846139386296E-003;-1.634064828976989E-003;
2.402000000000000E+009;1.709353625774384E-001;3.040562011301518E-002;2.842222806066275E-003;-1.720084808766842E-003;
2.402166666666667E+009;1.710079908370972E-001;2.927625179290772E-002;2.815993968397379E-003;-1.937911496497691E-003;
2.402333333333334E+009;1.710329055786133E-001;2.835352160036564E-002;2.587552648037672E-003;-2.015217440202832E-003;
2.402500000000000E+009;1.713597774505615E-001;2.746476233005524E-002;2.407453721389175E-003;-2.337009645998478E-003;
2.402666666666667E+009;1.712587326765060E-001;2.639603428542614E-002;2.407790161669254E-003;-2.499819733202457E-003;
2.402833333333334E+009;1.710468828678131E-001;2.540710195899010E-002;2.221905626356602E-003;-2.570723416283727E-003;
2.403000000000000E+009;1.710938662290573E-001;2.422981150448322E-002;1.962608657777309E-003;-2.793633379042149E-003;
2.403166666666667E+009;1.711954623460770E-001;2.324524521827698E-002;2.061524661257863E-003;-2.799968468025327E-003;
2.403333333333334E+009;1.711865067481995E-001;2.229428105056286E-002;1.781815080903471E-003;-2.719196025282145E-003;
2.403500000000000E+009;1.711006760597229E-001;2.107638679444790E-002;1.527621527202427E-003;-2.712844638153911E-003;
2.403666666666667E+009;1.710183918476105E-001;1.975472085177898E-002;1.554205431602895E-003;-2.814924344420433E-003;
2.403833333333334E+009;1.709469258785248E-001;1.865066215395927E-002;1.369828707538545E-003;-2.885152120143175E-003;
2.404000000000000E+009;1.708480119705200E-001;1.736187934875488E-002;1.146195922046900E-003;-2.876354148611426E-003;
2.404166666666667E+009;1.707539558410645E-001;1.605789922177792E-002;1.204222207888961E-003;-2.769414335489273E-003;
2.404333333333334E+009;1.707647442817688E-001;1.502176467329264E-002;1.100043416954577E-003;-2.817714586853981E-003;
2.404500000000000E+009;1.705638170242310E-001;1.332578528672457E-002;9.257580968551338E-004;-2.820505760610104E-003;
2.404666666666667E+009;1.705412566661835E-001;1.215344294905663E-002;7.749403011985123E-004;-2.975644310936332E-003;
2.404833333333334E+009;1.704620122909546E-001;1.078384649008513E-002;5.221151513978839E-004;-2.885596361011267E-003;
2.405000000000000E+009;1.704844981431961E-001;9.236025623977184E-003;5.011394387111068E-004;-2.920160768553615E-003;
2.405166666666667E+009;1.705445945262909E-001;7.759576197713614E-003;5.102136638015509E-004;-2.842428395524621E-003;
2.405333333333334E+009;1.704829335212708E-001;6.307638715952635E-003;3.399897250346839E-004;-2.885394264012575E-003;
2.405500000000000E+009;1.705583184957504E-001;4.835159517824650E-003;2.333996817469597E-004;-2.885727910324931E-003;
2.405666666666667E+009;1.703851073980331E-001;3.227347740903497E-003;2.288827381562442E-004;-2.792208455502987E-003;
2.405833333333334E+009;1.702357977628708E-001;1.869149273261428E-003;-6.071921234251931E-006;-2.798388944938779E-003;
2.406000000000000E+009;1.702876985073090E-001;1.623834978090599E-004;1.183097538159927E-005;-2.895123325288296E-003;
2.406166666666667E+009;1.700139045715332E-001;-1.417853171005845E-003;-1.517237687949091E-004;-2.833886304870248E-003;
2.406333333333334E+009;1.701979041099548E-001;-2.967436332255602E-003;-3.266467247158289E-004;-2.771610859781504E-003;
2.406500000000000E+009;1.699547767639160E-001;-4.412343725562096E-003;-3.480235463939607E-004;-2.663450548425317E-003;
2.406666666666667E+009;1.696048527956009E-001;-5.961546674370766E-003;-3.134377766400576E-004;-2.640831982716918E-003;
2.406833333333334E+009;1.695734858512878E-001;-7.523085456341505E-003;-6.256373599171639E-004;-2.533006714656949E-003;
2.407000000000000E+009;1.694640368223190E-001;-8.839170448482037E-003;-6.350182229653001E-004;-2.370706759393215E-003;
2.407166666666667E+009;1.694398671388626E-001;-1.019919663667679E-002;-7.727141492068768E-004;-2.471596235409379E-003;
2.407333333333334E+009;1.691288053989410E-001;-1.178445015102625E-002;-7.939036004245281E-004;-2.119964687153697E-003;
2.407500000000000E+009;1.689302176237106E-001;-1.295622624456883E-002;-7.387679652310908E-004;-2.166715916246176E-003;
2.407666666666667E+009;1.689484417438507E-001;-1.413202192634344E-002;-8.514303481206298E-004;-2.084525767713785E-003;
2.407833333333334E+009;1.684859693050385E-001;-1.539562642574310E-002;-7.108026184141636E-004;-1.911219907924533E-003;
2.408000000000000E+009;1.684632897377014E-001;-1.651308499276638E-002;-6.229510181583464E-004;-2.023916225880384E-003;
2.408166666666667E+009;1.682896167039871E-001;-1.745211146771908E-002;-6.671124720014632E-004;-1.876919413916767E-003;
2.408333333333334E+009;1.684091240167618E-001;-1.836410909891129E-002;-6.628482951782644E-004;-1.839547068811953E-003;
2.408500000000000E+009;1.684271097183228E-001;-1.944578066468239E-002;-6.338488892652094E-004;-1.938756322488189E-003;
2.408666666666667E+009;1.682780086994171E-001;-2.024629525840282E-002;-5.560785066336393E-004;-2.074980409815908E-003;
2.408833333333334E+009;1.682861745357513E-001;-2.132091671228409E-002;-5.182013264857233E-004;-2.118710894137621E-003;
2.409000000000000E+009;1.683304309844971E-001;-2.224067039787769E-002;-5.016189534217119E-004;-2.000781474635005E-003;
2.409166666666667E+009;1.685816943645477E-001;-2.299899607896805E-002;-5.432147299870849E-004;-2.029353054240346E-003;
2.409333333333334E+009;1.687153577804565E-001;-2.398403361439705E-002;-4.447689279913902E-004;-1.953009050339460E-003;
2.409500000000000E+009;1.687549203634262E-001;-2.507696487009525E-002;-5.596052506007254E-004;-2.174194902181625E-003;
2.409666666666667E+009;1.688225418329239E-001;-2.587320469319820E-002;-6.801346316933632E-004;-2.123678801581264E-003;
2.409833333333334E+009;1.687475740909576E-001;-2.665491960942745E-002;-6.519630551338196E-004;-2.202371833845973E-003;
2.410000000000000E+009;1.690785884857178E-001;-2.775939367711544E-002;-6.164157530292869E-004;-2.347939647734165E-003;
2.410166666666667E+009;1.690706461668015E-001;-2.856456302106381E-002;-6.863212329335511E-004;-2.367845037952066E-003;
2.410333333333334E+009;1.691167354583740E-001;-2.941852062940598E-002;-9.655128233134747E-004;-2.461700933054090E-003;
2.410500000000000E+009;1.689250320196152E-001;-3.033473901450634E-002;-9.444063180126250E-004;-2.780206734314561E-003;
2.410666666666667E+009;1.688031256198883E-001;-3.156909719109535E-002;-1.193119678646326E-003;-2.762220567092300E-003;
2.410833333333334E+009;1.688207387924194E-001;-3.217636793851852E-002;-1.180682447738946E-003;-2.771579194813967E-003;
2.411000000000000E+009;1.687492132186890E-001;-3.318522870540619E-002;-1.347619690932334E-003;-2.794265979900956E-003;
2.411166666666667E+009;1.685308516025543E-001;-3.425461426377296E-002;-1.624943222850561E-003;-2.735949354246259E-003;
2.411333333333334E+009;1.682295352220535E-001;-3.497328609228134E-002;-1.875558751635253E-003;-2.739405725151300E-003;
2.411500000000000E+009;1.681918501853943E-001;-3.609883040189743E-002;-2.132996451109648E-003;-2.836255822330713E-003;
2.411666666666667E+009;1.679524034261704E-001;-3.687386959791184E-002;-2.312198048457503E-003;-2.562070731073618E-003;
2.411833333333334E+009;1.677609533071518E-001;-3.760760650038719E-002;-2.361572813242674E-003;-2.605506917461753E-003;
2.412000000000000E+009;1.676206439733505E-001;-3.853983804583550E-002;-2.523602917790413E-003;-2.423369558528066E-003;
2.412166666666667E+009;1.673013418912888E-001;-3.971560671925545E-002;-2.660569502040744E-003;-2.254940569400787E-003;
2.412333333333334E+009;1.671414226293564E-001;-4.052563756704330E-002;-2.839070046320558E-003;-2.208718564361334E-003;
2.412500000000000E+009;1.665985733270645E-001;-4.150070250034332E-002;-2.960387850180268E-003;-1.913401647470892E-003;
2.412666666666667E+009;1.665081083774567E-001;-4.266783595085144E-002;-2.924910746514797E-003;-1.945468247868121E-003;
2.412833333333334E+009;1.659257560968399E-001;-4.360111802816391E-002;-3.012154716998339E-003;-1.759745180606842E-003;
2.413000000000000E+009;1.655498147010803E-001;-4.453114047646523E-002;-3.263895399868488E-003;-1.576040172949433E-003;
2.413166666666667E+009;1.651145070791245E-001;-4.544457048177719E-002;-3.215656848624349E-003;-1.529761007986963E-003;
2.413333333333334E+009;1.646965295076370E-001;-4.638281092047691E-002;-3.383356612175703E-003;-1.292543602176011E-003;
2.413500000000000E+009;1.643695831298828E-001;-4.768256470561028E-002;-3.348767990246415E-003;-1.098241074942052E-003;
2.413666666666667E+009;1.640480309724808E-001;-4.871217161417007E-002;-3.393790451809764E-003;-9.885419858619571E-004;
2.413833333333334E+009;1.634205877780914E-001;-4.967878758907318E-002;-3.389016026630998E-003;-7.535085896961391E-004;
2.414000000000000E+009;1.628252416849136E-001;-5.068032816052437E-002;-3.387917997315526E-003;-4.627582093235105E-004;
2.414166666666667E+009;1.626792699098587E-001;-5.162212252616882E-002;-3.424362279474735E-003;-4.675781237892807E-004;
2.414333333333334E+009;1.622148454189301E-001;-5.266229063272476E-002;-3.426570910960436E-003;-1.547049614600837E-004;
2.414500000000000E+009;1.620512604713440E-001;-5.361088737845421E-002;-3.530018497258425E-003;-6.303191184997559E-005;
2.414666666666667E+009;1.617055088281632E-001;-5.448671802878380E-002;-3.384509589523077E-003;2.226445649284869E-004;
2.414833333333334E+009;1.613565236330032E-001;-5.552892386913300E-002;-3.382488153874874E-003;2.996049879584462E-004;
2.415000000000000E+009;1.610308289527893E-001;-5.647389963269234E-002;-3.341421484947205E-003;4.100529768038541E-004;
2.415166666666667E+009;1.608555763959885E-001;-5.763320997357369E-002;-3.252920228987932E-003;5.059750983491540E-004;
2.415333333333334E+009;1.608346104621887E-001;-5.869521945714951E-002;-3.006283426657319E-003;7.603983394801617E-004;
2.415500000000000E+009;1.607887744903565E-001;-5.972059071063995E-002;-2.910361858084798E-003;7.944925455376506E-004;
2.415666666666667E+009;1.605169475078583E-001;-6.079516932368279E-002;-2.915794728323817E-003;8.849258301779628E-004;
2.415833333333334E+009;1.604618281126022E-001;-6.195862963795662E-002;-2.806899137794972E-003;9.165158844552934E-004;
2.416000000000000E+009;1.601203083992004E-001;-6.314802169799805E-002;-2.645679283887148E-003;9.224070236086845E-004;
2.416166666666667E+009;1.600304543972015E-001;-6.442316621541977E-002;-2.353575080633164E-003;9.413602529093623E-004;
2.416333333333334E+009;1.597687155008316E-001;-6.557299196720123E-002;-2.380150370299816E-003;1.019385061226785E-003;
2.416500000000000E+009;1.595198363065720E-001;-6.684376299381256E-002;-2.239166060462594E-003;1.053983345627785E-003;
2.416666666666667E+009;1.591981351375580E-001;-6.793045252561569E-002;-2.232456114143133E-003;1.059266156516969E-003;
2.416833333333334E+009;1.591019332408905E-001;-6.926792860031128E-002;-2.210906706750393E-003;1.071708858944476E-003;
2.417000000000000E+009;1.584416776895523E-001;-7.028496265411377E-002;-2.108620712533593E-003;9.541349718347192E-004;
2.417166666666667E+009;1.581808924674988E-001;-7.121434807777405E-002;-2.151328837499023E-003;9.106361540034413E-004;
2.417333333333334E+009;1.579037308692932E-001;-7.228694856166840E-002;-1.908756676129997E-003;1.061286777257919E-003;
2.417500000000000E+009;1.575698405504227E-001;-7.335146516561508E-002;-2.021637512370944E-003;1.010692329145968E-003;
2.417666666666667E+009;1.572569757699966E-001;-7.413359731435776E-002;-2.054512733593583E-003;9.904971811920404E-004;
2.417833333333334E+009;1.571141928434372E-001;-7.499563694000244E-002;-2.075267024338245E-003;9.750295430421829E-004;
2.418000000000000E+009;1.565921902656555E-001;-7.595708221197128E-002;-2.035878831520677E-003;1.029090606607497E-003;
2.418166666666667E+009;1.562876105308533E-001;-7.661477476358414E-002;-1.973582664504647E-003;9.769970783963800E-004;
2.418333333333334E+009;1.563058048486710E-001;-7.758769392967224E-002;-2.101699123159051E-003;1.036367961205542E-003;
2.418500000000000E+009;1.558768302202225E-001;-7.841481268405914E-002;-2.110967645421624E-003;9.620661148801446E-004;
2.418666666666667E+009;1.556100249290466E-001;-7.921032607555389E-002;-2.124877646565437E-003;1.102414680644870E-003;
2.418833333333334E+009;1.550934612751007E-001;-7.994306832551956E-002;-2.235326915979385E-003;1.157157006673515E-003;
2.419000000000000E+009;1.546426713466644E-001;-8.059132099151611E-002;-2.088355366140604E-003;1.276523806154728E-003;
2.419166666666667E+009;1.545284539461136E-001;-8.125133067369461E-002;-2.213123487308621E-003;1.330052735283971E-003;
2.419333333333334E+009;1.541479527950287E-001;-8.184412866830826E-002;-2.175267320126295E-003;1.341630122624338E-003;
2.419500000000000E+009;1.537212580442429E-001;-8.291195333003998E-002;-2.076894976198673E-003;1.525763189420104E-003;
2.419666666666667E+009;1.534645557403565E-001;-8.326829224824905E-002;-2.226341748610139E-003;1.639980939216912E-003;
2.419833333333334E+009;1.530201882123947E-001;-8.389007300138474E-002;-2.137954579666257E-003;1.655028783716261E-003;
2.420000000000000E+009;1.527354419231415E-001;-8.449276536703110E-002;-2.131630433723331E-003;1.725773792713881E-003;
2.420166666666667E+009;1.522293537855148E-001;-8.508292585611343E-002;-2.133690519258380E-003;1.819325727410615E-003;
2.420333333333334E+009;1.520354598760605E-001;-8.573070168495178E-002;-2.205343451350927E-003;1.831973902881146E-003;
2.420500000000000E+009;1.517794728279114E-001;-8.620277047157288E-002;-2.085778862237930E-003;2.020160667598248E-003;
2.420666666666667E+009;1.512133926153183E-001;-8.674658834934235E-002;-2.288523828610778E-003;1.977501669898629E-003;
2.420833333333334E+009;1.509579271078110E-001;-8.745740354061127E-002;-2.121550496667624E-003;2.308419439941645E-003;
2.421000000000000E+009;1.503405570983887E-001;-8.830150961875916E-002;-2.049756934866309E-003;2.366076922044158E-003;
2.421166666666667E+009;1.500940024852753E-001;-8.885481208562851E-002;-2.127256942912936E-003;2.425967482849956E-003;
2.421333333333334E+009;1.496830731630325E-001;-8.956790715456009E-002;-1.897858106531203E-003;2.525184769183397E-003;
2.421500000000000E+009;1.490619629621506E-001;-9.013073146343231E-002;-1.919679460115731E-003;2.861696528270841E-003;
2.421666666666667E+009;1.485150754451752E-001;-9.107330441474915E-002;-1.802934217266738E-003;2.990534761920571E-003;
2.421833333333334E+009;1.480561494827271E-001;-9.160931408405304E-002;-1.778008067049086E-003;3.115460043773055E-003;
2.422000000000000E+009;1.473406106233597E-001;-9.225045889616013E-002;-1.526646432466805E-003;3.120902227237821E-003;
2.422166666666667E+009;1.467348635196686E-001;-9.323859214782715E-002;-1.274710404686630E-003;3.182102227583528E-003;
2.422333333333334E+009;1.461383253335953E-001;-9.397502243518829E-002;-1.220934907905757E-003;3.328046994283795E-003;
2.422500000000000E+009;1.454231888055801E-001;-9.459324181079865E-002;-1.081275055184960E-003;3.554645925760269E-003;
2.422666666666667E+009;1.448466032743454E-001;-9.538967907428742E-002;-9.140783804468811E-004;3.525382373481989E-003;
2.422833333333334E+009;1.444251090288162E-001;-9.627896547317505E-002;-6.461458979174495E-004;3.575621871277690E-003;
2.423000000000000E+009;1.437523961067200E-001;-9.707918763160706E-002;-3.273374168202281E-004;3.757900325581431E-003;
2.423166666666667E+009;1.431776583194733E-001;-9.791472554206848E-002;-3.968778473790735E-004;3.605719888582826E-003;
2.423333333333334E+009;1.424784958362579E-001;-9.868204593658447E-002;-7.420452311635017E-005;3.677423112094402E-003;
2.423500000000000E+009;1.418043076992035E-001;-9.973978251218796E-002;1.258396659977734E-004;3.602598560974002E-003;
2.423666666666667E+009;1.410297304391861E-001;-1.007394045591354E-001;4.613944329321384E-004;3.548250067979097E-003;
2.423833333333334E+009;1.406455039978027E-001;-1.016444638371468E-001;4.308378556743264E-004;3.486179513856769E-003;
2.424000000000000E+009;1.398519724607468E-001;-1.024276018142700E-001;6.419136188924313E-004;3.433272941038013E-003;
2.424166666666667E+009;1.391818970441818E-001;-1.034007072448731E-001;9.683818789198995E-004;3.206543391570449E-003;
2.424333333333334E+009;1.384799778461456E-001;-1.043586134910584E-001;8.675646386109293E-004;3.008215688169003E-003;
2.424500000000000E+009;1.379147619009018E-001;-1.052742451429367E-001;1.213327632285655E-003;3.030161838978529E-003;
2.424666666666667E+009;1.374831050634384E-001;-1.060486584901810E-001;1.188736292533577E-003;2.832438098266721E-003;
2.424833333333334E+009;1.368761062622070E-001;-1.070727929472923E-001;1.317656249739230E-003;2.773665590211749E-003;
2.425000000000000E+009;1.363611072301865E-001;-1.080439612269402E-001;1.549503882415593E-003;2.707130275666714E-003;
2.425166666666667E+009;1.355917900800705E-001;-1.090476363897324E-001;1.409276039339602E-003;2.407264895737171E-003;
2.425333333333334E+009;1.351811438798904E-001;-1.099781990051270E-001;1.367168268188834E-003;2.423143247142434E-003;
2.425500000000000E+009;1.348634213209152E-001;-1.110459864139557E-001;1.440487452782691E-003;2.258378081023693E-003;
2.425666666666667E+009;1.340526640415192E-001;-1.120892688632011E-001;1.536813681013882E-003;2.004289301112294E-003;
2.425833333333334E+009;1.337189674377441E-001;-1.128560602664948E-001;1.518494449555874E-003;2.055268036201596E-003;
2.426000000000000E+009;1.333049982786179E-001;-1.138884350657463E-001;1.637864392250776E-003;1.855629263445735E-003;
2.426166666666667E+009;1.329734921455383E-001;-1.149709150195122E-001;1.689208671450615E-003;1.801969134248793E-003;
2.426333333333334E+009;1.324167251586914E-001;-1.156490594148636E-001;1.470010844059289E-003;1.638073241338134E-003;
2.426500000000000E+009;1.319299340248108E-001;-1.167257502675057E-001;1.558392774313688E-003;1.670792466029525E-003;
2.426666666666667E+009;1.317088752985001E-001;-1.173051893711090E-001;1.421157037839294E-003;1.668407581746578E-003;
2.426833333333334E+009;1.311423480510712E-001;-1.182933300733566E-001;1.361710135824978E-003;1.603448414243758E-003;
2.427000000000000E+009;1.307932734489441E-001;-1.192376166582108E-001;1.372263301163912E-003;1.443406217731535E-003;
2.427166666666667E+009;1.304138749837875E-001;-1.197710335254669E-001;1.238344935700297E-003;1.238525379449129E-003;
2.427333333333334E+009;1.300477385520935E-001;-1.205245852470398E-001;1.210831222124398E-003;1.371105900034308E-003;
2.427500000000000E+009;1.297905743122101E-001;-1.213359758257866E-001;1.259432989172638E-003;1.359882066026330E-003;
2.427666666666667E+009;1.294932514429092E-001;-1.220500245690346E-001;1.121584675274789E-003;1.479049329645932E-003;
