# Hz S RI R 
2400000000.0000000000 0.156499564647674588302450615629 0.111486054956912994384765625000 0.001713194069452584006665873950 -0.000287872768240049481391906738 0 0 0 0 
2400166666.6666665077 0.155766099691390991210937500000 0.109210014343261704872212192186 0.001757591147907078049303364331 -0.000291106000076979398727416992 0 0 0 0 
2400333333.3333334923 0.155838608741760309417401231258 0.106842242181301103065571567186 0.002106237690895795822143554688 -0.000296246988000348210334777832 0 0 0 0 
2400500000.0000000000 0.155375376343727111816406250000 0.104244776070118005950604356258 0.002079572295770049095153808594 -0.000356692791683599407046717511 0 0 0 0 
2400666666.6666665077 0.155167639255523709396200615629 0.101835615932941395134214701557 0.002199921524152160124537802588 -0.000324598979204893112182617188 0 0 0 0 
2400833333.3333334923 0.154793813824653597732705634371 0.098932027816772460937500000000 0.002299647778272628784179687500 -0.000360193051164969801902770996 0 0 0 0 
2401000000.0000000000 0.154872477054596002776776231258 0.096096314489841461181640625000 0.002594728721305727958679199219 -0.000623356609139591455459594727 0 0 0 0 
2401166666.6666665077 0.154645293951034601409588731258 0.093163467943668365478515625000 0.002435459988191723823547363281 -0.000702981487847864627838134766 0 0 0 0 
2401333333.3333334923 0.154738277196884210784588731258 0.090208716690540313720703125000 0.002609902527183293862583779443 -0.000846575072500854730606079102 0 0 0 0 
2401500000.0000000000 0.154916629195213290115518134371 0.087158538401126861572265625000 0.002599196275696157975437783350 -0.000939175020903348922729492188 0 0 0 0 
2401666666.6666665077 0.155077099800109891036825615629 0.084140911698341369628906250000 0.002618264872580767111537314307 -0.001085306052118540027021098560 0 0 0 0 
2401833333.3333334923 0.155342862010002108474893134371 0.081352040171623229980468750000 0.002616249024868011908290243994 -0.001163097564131021933314658057 0 0 0 0 
2402000000.0000000000 0.156052500009536687652911268742 0.078129097819328308105468750000 0.002572068711742759184596396338 -0.001387378666549921035766601562 0 0 0 0 
2402166666.6666665077 0.156621024012565612792968750000 0.075369685888290405273437500000 0.002635454060509800910949707031 -0.001341794617474078915239643628 0 0 0 0 
2402333333.3333334923 0.157576754689216613769531250000 0.072509415447711944580078125000 0.002645728643983602957484579932 -0.001550971996039151928545307690 0 0 0 0 
2402500000.0000000000 0.158591970801353510100994981258 0.069700665771961212158203125000 0.002635717159137129783630371094 -0.001705461530946194908739399487 0 0 0 0 
2402666666.6666665077 0.159603059291839599609375000000 0.067043013870716094970703125000 0.002602995140478014945983886719 -0.001761136460117995955823588794 0 0 0 0 
2402833333.3333334923 0.160861760377883911132812500000 0.064270004630088806152343750000 0.002670105546712874932530068506 -0.002069514943286776976344443213 0 0 0 0 
2403000000.0000000000 0.162207916378974886795205634371 0.061719406396150588989257812500 0.002562347566708921952488564600 -0.002216233406215906143188476562 0 0 0 0 
2403166666.6666665077 0.163772910833358792404013115629 0.059159830212593078613281250000 0.002637683181092143058776855469 -0.002423326252028346061706542969 0 0 0 0 
2403333333.3333334923 0.165324598550796508789062500000 0.056679286062717437744140625000 0.002514700638130307197570800781 -0.002576519502326846122741699219 0 0 0 0 
2403500000.0000000000 0.166908457875251797775106865629 0.054311860352754592895507812500 0.002479986054822802977321005713 -0.002893834840506314797642373193 0 0 0 0 
2403666666.6666665077 0.168849363923072787185830634371 0.052209049463272101665456403907 0.002219737274572252793553017725 -0.002961531048640608787536621094 0 0 0 0 
2403833333.3333334923 0.170518115162849398513955634371 0.050044827163219451904296875000 0.002178930677473545074462890625 -0.003101621521636844115016318213 0 0 0 0 
2404000000.0000000000 0.172077059745788601974325615629 0.048075824975967407226562500000 0.001878499868325888893724751050 -0.003228356596082448959350585938 0 0 0 0 
2404166666.6666665077 0.174040377140045193771200615629 0.046218402683734886859934221093 0.001657160930335521914838481372 -0.003474474418908358053920126807 0 0 0 0 
2404333333.3333334923 0.175774648785591097732705634371 0.044503506273031241680104841407 0.001604745863005518913269042969 -0.003547562286257743835449218750 0 0 0 0 
2404500000.0000000000 0.177542865276336697677450615629 0.043013479560613632202148437500 0.001264706254005431912065815503 -0.003521958598867059187648154150 0 0 0 0 
2404666666.6666665077 0.179354399442672701736611884371 0.041603226214647293090820312500 0.000979436212219297885894775391 -0.003637046786025166945216513525 0 0 0 0 
2404833333.3333334923 0.181258782744407709319744981258 0.040363270789384841918945312500 0.001030410407111048915265727466 -0.003798418911173940138575888525 0 0 0 0 
2405000000.0000000000 0.182693064212799100021200615629 0.039578247815370559692382812500 0.000546653347555547952651977539 -0.003739891806617379188537597656 0 0 0 0 
2405166666.6666665077 0.184485256671905489822549384371 0.038674078881740570068359375000 0.000304333836538717204898280011 -0.003691929858177899880650185693 0 0 0 0 
2405333333.3333334923 0.185959517955780001541299384371 0.038156647235155112529714216407 0.000093562754045706242322921753 -0.003651035018265246911289834131 0 0 0 0 
2405500000.0000000000 0.187706276774406405349893134371 0.037479266524314880371093750000 0.000009936986316461116075515747 -0.003680832684040070013758993994 0 0 0 0 
2405666666.6666665077 0.189159691333770807464276231258 0.037197273224592208862304687500 -0.000138024188345298198148450308 -0.003602415090426803068873740088 0 0 0 0 
2405833333.3333334923 0.190495133399963406661825615629 0.036957841366529471660573591407 -0.000347804860211908817291259766 -0.003585313213989139036891318213 0 0 0 0 
2406000000.0000000000 0.191922768950462313553018134371 0.036715686321258551860768903907 -0.000427804741775617003440856934 -0.003451414406299591064453125000 0 0 0 0 
2406166666.6666665077 0.192998304963111905196981865629 0.036630511283874511718750000000 -0.000643786275759339332580566406 -0.003394772531464695930480957031 0 0 0 0 
2406333333.3333334923 0.194106787443161010742187500000 0.036787252873182296752929687500 -0.000976418028585612773895263672 -0.003432980971410870985743857275 0 0 0 0 
2406500000.0000000000 0.195002019405364990234375000000 0.036986593157052986835520158593 -0.000722143799066543579101562500 -0.003224491607397795157191611182 0 0 0 0 
2406666666.6666665077 0.196025222539901705642861884371 0.037102293223142616962473283593 -0.000953794224187731742858886719 -0.003065116470679641203639365088 0 0 0 0 
2406833333.3333334923 0.196757882833480807205361884371 0.037337541580200202251393903907 -0.001295987167395650906803750146 -0.003090156707912683920619345557 0 0 0 0 
2407000000.0000000000 0.197215124964714105804119981258 0.037742722779512412334401716407 -0.001359412446618079922319721753 -0.002865061396732925935032509912 0 0 0 0 
2407166666.6666665077 0.197761535644531305511151231258 0.037857275456190109252929687500 -0.001397410524077713923213339697 -0.002822611248120665983912802588 0 0 0 0 
2407333333.3333334923 0.197865307331085205078125000000 0.038248237222433090209960937500 -0.001458527520298958041547465747 -0.002732704393565655188319540869 0 0 0 0 
2407500000.0000000000 0.197868943214416503906250000000 0.038638643920421600341796875000 -0.001535508083179593086242675781 -0.002483140211552381949183798682 0 0 0 0 
2407666666.6666665077 0.198171421885490389724893134371 0.038847532123327262187917341407 -0.001712510362267493984819721753 -0.002338551450520753860473632812 0 0 0 0 
2407833333.3333334923 0.197757065296173095703125000000 0.039014961570501327514648437500 -0.001823750440962613062617636572 -0.002260821638628840012791298975 0 0 0 0 
2408000000.0000000000 0.197728917002677889724893134371 0.039171684533357620239257812500 -0.002034508623182774023768759619 -0.002110027708113193945643759619 0 0 0 0 
2408166666.6666665077 0.197226479649543789962606865629 0.039218664169311523437500000000 -0.001797194825485348918317485278 -0.001965690869837998910191201318 0 0 0 0 
2408333333.3333334923 0.196914270520210293868856865629 0.039110932499170303344726562500 -0.001772088813595473983167338794 -0.001678628148511051914812397534 0 0 0 0 
2408500000.0000000000 0.196119576692581204513388115629 0.039221882820129401470143903907 -0.001935100182890892028808593750 -0.001733901444822550036786723560 0 0 0 0 
2408666666.6666665077 0.195538744330406188964843750000 0.038971751928329467773437500000 -0.001843147911131381988525390625 -0.001467207795940339998957968604 0 0 0 0 
2408833333.3333334923 0.194798871874809292892294365629 0.038644485175609588623046875000 -0.001847609994001687006709433447 -0.001233533839695156054255820166 0 0 0 0 
2409000000.0000000000 0.193922385573387201507244981258 0.038052875548601150512695312500 -0.001804952160455286936519003760 -0.001147134462371468977687216650 0 0 0 0 
2409166666.6666665077 0.192708626389503506759481865629 0.037437111139297492290456403907 -0.001670577912591397979139018481 -0.000904120388440787792205810547 0 0 0 0 
2409333333.3333334923 0.191737771034240694900674384371 0.036906916648149490356445312500 -0.001675626845099031925201416016 -0.000946669664699584354101979944 0 0 0 0 
2409500000.0000000000 0.190551772713661193847656250000 0.035770379006862640380859375000 -0.001569586340337991931317973560 -0.000779684225562959909439086914 0 0 0 0 
2409666666.6666665077 0.189327985048294095138388115629 0.034733220934867858886718750000 -0.001541981706395745060564350659 -0.000672697846312075853347778320 0 0 0 0 
2409833333.3333334923 0.188041716814041109939736884371 0.033392183482646942138671875000 -0.001223854371346533081651997144 -0.000616765813902020454406738281 0 0 0 0 
2410000000.0000000000 0.186795294284820612151776231258 0.032179001718759536743164062500 -0.001485624117776751951930380713 -0.000741294992621988058090209961 0 0 0 0 
2410166666.6666665077 0.185699090361595209319744981258 0.030497234314680099487304687500 -0.001271459506824613051173544775 -0.000600427913013845682144165039 0 0 0 0 
2410333333.3333334923 0.184528201818466186523437500000 0.028951352462172511709193045704 -0.001272514928132296042201376807 -0.000603657041210681200027465820 0 0 0 0 
2410500000.0000000000 0.183138743042945889571981865629 0.027286341413855549203892891796 -0.001117839012295007922528911060 -0.000566651637200266122817993164 0 0 0 0 
2410666666.6666665077 0.182279512286186190506143134371 0.025212107226252559316614920704 -0.001044897595420479991315532153 -0.000445677927928045392036437988 0 0 0 0 
2410833333.3333334923 0.181410565972328213790731865629 0.023056749254465099679967110546 -0.001118506304919719912885356372 -0.000598770333454012870788574219 0 0 0 0 
2411000000.0000000000 0.180384531617164611816406250000 0.020901584997773170471191406250 -0.000986931147053837776184082031 -0.000535941624548286199569702148 0 0 0 0 
2411166666.6666665077 0.179509654641151400467080634371 0.018872933462262150156041329296 -0.001029776525683701038360595703 -0.000503180432133376598358154297 0 0 0 0 
2411333333.3333334923 0.178741872310638399978799384371 0.016416246071457859384556954296 -0.000776595086790621280670166016 -0.000412844383390620405047816144 0 0 0 0 
2411500000.0000000000 0.178104951977729797363281250000 0.014105050824582580221155936329 -0.000746302772313356399536132812 -0.000564134563319385051727294922 0 0 0 0 
2411666666.6666665077 0.177798077464103698730468750000 0.011549979448318479710589024023 -0.000681001460179686546325683594 -0.000449579005362465977668762207 0 0 0 0 
2411833333.3333334923 0.177257895469665499588174384371 0.009176576510071754455566406250 -0.000609769078437238931655883789 -0.000467066216515377218097132550 0 0 0 0 
2412000000.0000000000 0.177211701869964599609375000000 0.006627025082707405090332031250 -0.000573453318793326616287231445 -0.000509605335537344217300415039 0 0 0 0 
2412166666.6666665077 0.177131474018096896072549384371 0.003984972368925809860229492188 -0.000468083657324314117431640625 -0.000600333034526556730270385742 0 0 0 0 
2412333333.3333334923 0.177062034606933593750000000000 0.001387474709190428040148090894 -0.000519210472702980041503906250 -0.000503331306390464305877685547 0 0 0 0 
2412500000.0000000000 0.177453875541687011718750000000 -0.001294589485041796944261860425 -0.000351523805875331217616480695 -0.000603672233410179615020751953 0 0 0 0 
2412666666.6666665077 0.177921131253242492675781250000 -0.003948340658098459243774414062 -0.000326623034197837114334106445 -0.000563603127375245094299316406 0 0 0 0 
2412833333.3333334923 0.178597927093505887130575615629 -0.006530598737299442291259765625 -0.000259645079495385289192199707 -0.000607610971201211214065551758 0 0 0 0 
2413000000.0000000000 0.179309323430061312576455634371 -0.009096495807170867919921875000 -0.000265500013483688181072789325 -0.000885763089172542095184326172 0 0 0 0 
2413166666.6666665077 0.179973497986793490310830634371 -0.011531810276210309809674647852 -0.000218050947296433204978388654 -0.000889207876753062009811401367 0 0 0 0 
2413333333.3333334923 0.181155800819397000411825615629 -0.014129524119198320561419102148 -0.000092909045633859932422637939 -0.001040134462527930953382182544 0 0 0 0 
2413500000.0000000000 0.181832790374755887130575615629 -0.016723027452826499938964843750 -0.000193098589079454486996251239 -0.001087551936507225036621093750 0 0 0 0 
2413666666.6666665077 0.183242648839950589279013115629 -0.019109861925244331359863281250 -0.000213915511267259689882555551 -0.001181569066829978986027382959 0 0 0 0 
2413833333.3333334923 0.184181094169616699218750000000 -0.021278077736496928823450858204 -0.000303950364468619173199254169 -0.001335281878709793090820312500 0 0 0 0 
2414000000.0000000000 0.185450851917266901214276231258 -0.023522745817899700510045235546 -0.000294893892714753801196497784 -0.001432928373105823993682861328 0 0 0 0 
2414166666.6666665077 0.186994075775146512130575615629 -0.025647986680269241333007812500 -0.000618366699200123548507690430 -0.001498382072895765087724995190 0 0 0 0 
2414333333.3333334923 0.188296735286712701995526231258 -0.027829641476273540151575858204 -0.000543078058399260044097900391 -0.001787133514881134033203125000 0 0 0 0 
2414500000.0000000000 0.189525648951530512054119981258 -0.029547529295086860656738281250 -0.000589680683333426713943481445 -0.001644234172999859073041606372 0 0 0 0 
2414666666.6666665077 0.190891981124877901931924384371 -0.031345028430223471904714216407 -0.000744233024306595325469970703 -0.001741435145959258079528808594 0 0 0 0 
2414833333.3333334923 0.192254960536956787109375000000 -0.033082347363233573223073591407 -0.000972515612374991178512573242 -0.001829984248615800900700234521 0 0 0 0 
2415000000.0000000000 0.193706795573234613616619981258 -0.034466844052076339721679687500 -0.000980299431830644607543945312 -0.001785483211278914971592568506 0 0 0 0 
2415166666.6666665077 0.195180088281631497482138115629 -0.035796694457530982280690778907 -0.001208721078000962951062846606 -0.001767117995768785910365439307 0 0 0 0 
2415333333.3333334923 0.196524083614349392989950615629 -0.036977402865886688232421875000 -0.001122705289162694974186562646 -0.001957041211426258087158203125 0 0 0 0 
2415500000.0000000000 0.197747245430946405608807481258 -0.037847857922315597534179687500 -0.001436984864994883970973349463 -0.001915838336572051048278808594 0 0 0 0 
2415666666.6666665077 0.199182674288749694824218750000 -0.038818161934614181518554687500 -0.001479095779359341101405478369 -0.001846439670771359963657998193 0 0 0 0 
2415833333.3333334923 0.200386673212051391601562500000 -0.039599880576133728027343750000 -0.001491997623816132979152060400 -0.001801329082809389071223593604 0 0 0 0 
2416000000.0000000000 0.201345577836036709884481865629 -0.040274094790220260620117187500 -0.001694435952231287956237792969 -0.001945990254171193079707480322 0 0 0 0 
2416166666.6666665077 0.202413439750671386718750000000 -0.040936939418315887451171875000 -0.001630876446142792918561625903 -0.002002394758164883093592978369 0 0 0 0 
2416333333.3333334923 0.203332513570785494705361884371 -0.041187483817338936542551408593 -0.001964830327779055075404501807 -0.001887853839434683106066059644 0 0 0 0 
2416500000.0000000000 0.204037278890609713455361884371 -0.041542641818523406982421875000 -0.002169629791751503944396972656 -0.001676396233960985920549702222 0 0 0 0 
2416666666.6666665077 0.204665169119834899902343750000 -0.041842713952064507221262346093 -0.002294070087373257117030478369 -0.001727063790895045020459819263 0 0 0 0 
2416833333.3333334923 0.205074444413185091873330634371 -0.041879061609506607055664062500 -0.002381550148129463195800781250 -0.001816889271140099005458212744 0 0 0 0 
2417000000.0000000000 0.205519989132881192306356865629 -0.041817825287580490112304687500 -0.002576193073764442963841103662 -0.001561493147164582989336323315 0 0 0 0 
2417166666.6666665077 0.205432370305061312576455634371 -0.041797667741775512695312500000 -0.002865234157070517973658896338 -0.001440517255105078003526997144 0 0 0 0 
2417333333.3333334923 0.205467894673347500900106865629 -0.041521545499563217163085937500 -0.002901818603277205987217568506 -0.001294151996262371973750449072 0 0 0 0 
2417500000.0000000000 0.205592781305313110351562500000 -0.041239578276872641826589216407 -0.003032552311196922822239541162 -0.001112360041588545062421489185 0 0 0 0 
2417666666.6666665077 0.205210268497467013260049384371 -0.041053056716918952251393903907 -0.003048402490094304084777832031 -0.000999763491563498973846435547 0 0 0 0 
2417833333.3333334923 0.205052584409713800628338731258 -0.040636163204908370971679687500 -0.003129192395135759873631142725 -0.000810790399555116891860961914 0 0 0 0 
2418000000.0000000000 0.204588621854782104492187500000 -0.040197435766458511352539062500 -0.003254242939874529838562011719 -0.000688412692397832870483398438 0 0 0 0 
2418166666.6666665077 0.203893899917602511306924384371 -0.039891511201858520507812500000 -0.003304135287180542945861816406 -0.000505879637785255908966064453 0 0 0 0 
2418333333.3333334923 0.203241705894470187088174384371 -0.039572309702634811401367187500 -0.003233212046325207190272665869 -0.000389562919735908508300781250 0 0 0 0 
2418500000.0000000000 0.202333837747573908050213731258 -0.039447568356990807270090471093 -0.003146021859720348878147744287 -0.000034681928809732198715209961 0 0 0 0 
2418666666.6666665077 0.201520353555679293533486884371 -0.039014156907796859741210937500 -0.003292937297374010086059570312 0.000011251644536969250236647759 0 0 0 0 
2418833333.3333334923 0.200383260846138000488281250000 -0.039181672036647796630859375000 -0.003386469325050712065455771338 0.000067297914938535541296005249 0 0 0 0 
2419000000.0000000000 0.199129626154899597167968750000 -0.039074093103408806537668596093 -0.003084797179326415061950683594 0.000339796650223434025615137921 0 0 0 0 
2419166666.6666665077 0.197828114032745389083700615629 -0.039241395890712738037109375000 -0.003083687275648117065429687500 0.000404713820898905396461486816 0 0 0 0 
2419333333.3333334923 0.196384996175765991210937500000 -0.039472993463277816772460937500 -0.003322687000036240057704306494 0.000578077160753309726715087891 0 0 0 0 
2419500000.0000000000 0.194963946938514709472656250000 -0.039725258946418762207031250000 -0.003126855008304119110107421875 0.000696017406880855560302734375 0 0 0 0 
2419666666.6666665077 0.193322122097015408614950615629 -0.040339287370443337177317033593 -0.003114255610853434042689658057 0.000829796714242547750473022461 0 0 0 0 
2419833333.3333334923 0.191576346755027798751669365629 -0.040891841053962707519531250000 -0.003021041862666606903076171875 0.000949131441302597522735595703 0 0 0 0 
