# Hz S RI R 
2400000000.0000000000 0.173092380166053799728231865629 0.048635371029376976703684221093 0.000967841187957674264907836914 0.003302230034023522897007607568 0 0 0 0 
2400166666.6666665077 0.173649176955223111251669365629 0.048162888735532760620117187500 0.000858340819831937551498413086 0.003246597247198224067687988281 0 0 0 0 
2400333333.3333334923 0.174149304628372192382812500000 0.047218997031450271606445312500 0.000961577869020402431488037109 0.003086614422500133948085165869 0 0 0 0 
2400500000.0000000000 0.174728259444236810882244981258 0.046588875353336327289621721093 0.000894224038347601890563964844 0.003355967113748192787170410156 0 0 0 0 
2400666666.6666665077 0.174912378191947909256143134371 0.045961815863847732543945312500 0.000765011704061180353164672852 0.003068596590310335159301757812 0 0 0 0 
2400833333.3333334923 0.175320103764533996582031250000 0.045616809278726577758789062500 0.000548163079656660556793212891 0.003143247449770569801330566406 0 0 0 0 
2401000000.0000000000 0.175757154822349603850994981258 0.044981833547353751445729841407 0.000567557523027062416076660156 0.003290266497060656981227255713 0 0 0 0 
2401166666.6666665077 0.175923213362693786621093750000 0.044400550425052642822265625000 0.000695330381859093904495239258 0.003330818144604564146754599463 0 0 0 0 
2401333333.3333334923 0.176005661487579401214276231258 0.043716333806514739990234375000 0.000626024964731186628341674805 0.003131823381409049034118652344 0 0 0 0 
2401500000.0000000000 0.176295354962348910232705634371 0.043140012770891189575195312500 0.000712677778210490942001342773 0.003376131644472479820251464844 0 0 0 0 
2401666666.6666665077 0.176264479756355313400106865629 0.042600076645612716674804687500 0.000649594818241894353567922327 0.003482703352347015900852822412 0 0 0 0 
2401833333.3333334923 0.176188796758651705642861884371 0.041783776134252548217773437500 0.000612790056038647890090942383 0.003641383955255150794982910156 0 0 0 0 
2402000000.0000000000 0.176149383187294006347656250000 0.040937244892120361328125000000 0.000916447141207754611968994141 0.003556936513632535934448242188 0 0 0 0 
2402166666.6666665077 0.175936743617057800292968750000 0.039980575442314147949218750000 0.000997202820144593715667724609 0.003694327780976891951320029150 0 0 0 0 
2402333333.3333334923 0.175846800208091708084268134371 0.039385892450809478759765625000 0.001138220191933215098140097510 0.003748733084648848013636923682 0 0 0 0 
2402500000.0000000000 0.175754785537719698806924384371 0.038551781326532356952707658593 0.001180742401629685921909951318 0.003980109468102455139160156250 0 0 0 0 
2402666666.6666665077 0.175518527626991299728231865629 0.037688989192247390747070312500 0.001107492018491029956220317310 0.004091101698577404022216796875 0 0 0 0 
2402833333.3333334923 0.175229728221893310546875000000 0.036414399743080139160156250000 0.001443786779418587901471782153 0.004072431009262800216674804688 0 0 0 0 
2403000000.0000000000 0.175008863210678100585937500000 0.035331569612026221538503278907 0.001520359423011540932896279443 0.003983876202255486574654863574 0 0 0 0 
2403166666.6666665077 0.174511462450027493575888115629 0.034077972173690802837331403907 0.001875612651929259083391499097 0.003976159729063510894775390625 0 0 0 0 
2403333333.3333334923 0.174170449376106289962606865629 0.032779790461063391948659528907 0.001907467842102050998090434497 0.004169251769781112670898437500 0 0 0 0 
2403500000.0000000000 0.173743024468421908279580634371 0.031191559508442878723144531250 0.002141331089660524888279580225 0.004231801722198724746704101562 0 0 0 0 
2403666666.6666665077 0.173384398221969604492187500000 0.029623068869113918649693673046 0.002230527577921748161315917969 0.003934392705559731397146894238 0 0 0 0 
2403833333.3333334923 0.173099890351295498946981865629 0.027947911992669108999232108204 0.002549333032220602035522460938 0.004118802957236766815185546875 0 0 0 0 
2404000000.0000000000 0.172686979174614008147869981258 0.026371560990810390817662423046 0.002637422643601893944981240381 0.004110034089535474777221679688 0 0 0 0 
2404166666.6666665077 0.172289133071899386306924384371 0.024563156068325039255162423046 0.002706054598093032836914062500 0.004054344259202480316162109375 0 0 0 0 
2404333333.3333334923 0.171840623021125793457031250000 0.022928951308131221425989920704 0.003144933609291911125183105469 0.003966201096773147583007812500 0 0 0 0 
2404500000.0000000000 0.171271443367004394531250000000 0.020747670903801921499232108204 0.003284620353952050209045410156 0.004001329652965068817138671875 0 0 0 0 
2404666666.6666665077 0.171132579445838900467080634371 0.019098339602351188659667968750 0.003351817373186349868774414062 0.003795807017013431029078818213 0 0 0 0 
2404833333.3333334923 0.170740127563476590255575615629 0.017109801992774009704589843750 0.003573180641978979110717773438 0.003661088179796934127807617188 0 0 0 0 
2405000000.0000000000 0.170482531189918490310830634371 0.015061309561133389908760271680 0.003771983785554767088649130713 0.003621061332523822784423828125 0 0 0 0 
2405166666.6666665077 0.170351386070251492599325615629 0.012983987107872959482213204296 0.003870028769597411155700683594 0.003504809224978088898899697412 0 0 0 0 
2405333333.3333334923 0.170256853103637695312500000000 0.010829525999724870163887224805 0.004023931454867125424856855176 0.003451184602454305128810263525 0 0 0 0 
2405500000.0000000000 0.170186161994934109786825615629 0.008904841728508472442626953125 0.004262572154402732849121093750 0.003309184219688177108764648438 0 0 0 0 
2405666666.6666665077 0.170403376221656799316406250000 0.006938063539564610394949628613 0.004501197021454572677612304688 0.003082714742049574851989746094 0 0 0 0 
2405833333.3333334923 0.170286551117897005935830634371 0.004750950727611780166625976562 0.004567263647913932800292968750 0.003255260409787296815159463037 0 0 0 0 
2406000000.0000000000 0.170551493763923700530682481258 0.002624598331749438805821084131 0.004839788191020488739013671875 0.002901448402553797201869345557 0 0 0 0 
2406166666.6666665077 0.170638933777809087555255018742 0.000669389090035110712051391602 0.004967398010194301605224609375 0.002721366938203572793247841943 0 0 0 0 
2406333333.3333334923 0.171236261725425692459268134371 -0.001541297533549367947819375146 0.005134963430464267730712890625 0.002476302208378911018371582031 0 0 0 0 
2406500000.0000000000 0.171465888619422912597656250000 -0.003441328415647149085998535156 0.005367170087993144989013671875 0.002359419595450162887573242188 0 0 0 0 
2406666666.6666665077 0.171780169010162409026776231258 -0.005583880469202995300292968750 0.005363846663385629653930664062 0.002112825633957982063293457031 0 0 0 0 
2406833333.3333334923 0.172432497143745394607705634371 -0.007612371817231178283691406250 0.005544141866266726580148027637 0.001965222880244255065917968750 0 0 0 0 
2407000000.0000000000 0.173055455088615389724893134371 -0.009625833481550216674804687500 0.005572875961661338806152343750 0.001607199083082377910614013672 0 0 0 0 
2407166666.6666665077 0.173780873417854309082031250000 -0.011475470848381519317626953125 0.005817802157253026962280273438 0.001410459983162581920623779297 0 0 0 0 
2407333333.3333334923 0.174381464719772311111611884371 -0.013451596722006799525250819727 0.006029908545315265655517578125 0.001086608623154460950138711084 0 0 0 0 
2407500000.0000000000 0.175006926059722900390625000000 -0.015375419519841669255266758398 0.006091801449656487378592206738 0.000814680650364607572555541992 0 0 0 0 
2407666666.6666665077 0.175913259387016296386718750000 -0.016986526548862460744837576954 0.006143833510577678680419921875 0.000489930680487304925918579102 0 0 0 0 
2407833333.3333334923 0.176579564809799194335937500000 -0.018847720697522159921666329296 0.006110186222940683364868164062 0.000090555717179086059331893921 0 0 0 0 
2408000000.0000000000 0.177243769168853787521200615629 -0.020526738837361339223841483204 0.006174497306346893310546875000 -0.000004456856459000846371054649 0 0 0 0 
2408166666.6666665077 0.178021714091300992111044365629 -0.022030100226402279245396798046 0.006235750392079353332519531250 -0.000547616742551326751708984375 0 0 0 0 
2408333333.3333334923 0.178854808211326599121093750000 -0.023589031770825389516810233204 0.006166755221784114837646484375 -0.000880489591509103775024414062 0 0 0 0 
2408500000.0000000000 0.179546460509300204178018134371 -0.025289393961429599416712576954 0.006026903633028268814086914062 -0.001108880736865103027941059644 0 0 0 0 
2408666666.6666665077 0.180091276764869689941406250000 -0.026626681908965110778808593750 0.005857159383594989776611328125 -0.001519456971436738967895507812 0 0 0 0 
2408833333.3333334923 0.180735558271408108810263115629 -0.027736948803067210805872733204 0.005825086496770381927490234375 -0.001745852758176624991773295825 0 0 0 0 
2409000000.0000000000 0.181240901350975008865518134371 -0.028866553679108619689941406250 0.005634315777570009231567382812 -0.002097329823300241990330361475 0 0 0 0 
2409166666.6666665077 0.181714564561843899825888115629 -0.029961619526147838937779610546 0.005494708195328713330740644238 -0.002239209134131669998168945312 0 0 0 0 
2409333333.3333334923 0.182343363761901910979901231258 -0.031080398708581920969029610546 0.005146318580955266952514648438 -0.002496086293831468062159872900 0 0 0 0 
2409500000.0000000000 0.182607993483543395996093750000 -0.031949669122695922851562500000 0.004921031184494495391845703125 -0.002646778710186481909510947119 0 0 0 0 
2409666666.6666665077 0.182848796248436001876669365629 -0.032475240528583526611328125000 0.004733449779450893402099609375 -0.002894448582082986831665039062 0 0 0 0 
2409833333.3333334923 0.183099269866943387130575615629 -0.032969351857900619506835937500 0.004592854529619216918945312500 -0.002991067711263895034790039062 0 0 0 0 
2410000000.0000000000 0.183427348732948303222656250000 -0.033558327704668051982839216407 0.004289804026484488573556230762 -0.003071480430662631988525390625 0 0 0 0 
2410166666.6666665077 0.183868944644928006271200615629 -0.033822499215602881694753278907 0.004234911873936653137207031250 -0.003176309866830707030055380713 0 0 0 0 
2410333333.3333334923 0.183784246444702203948651231258 -0.034280303865671157836914062500 0.004051450174301862716674804688 -0.003186451736837625937220908057 0 0 0 0 
2410500000.0000000000 0.183957114815712002853231865629 -0.034737370908260352397878278907 0.003968976438045501708984375000 -0.003311428474262357191798544775 0 0 0 0 
2410666666.6666665077 0.183844104409217806717080634371 -0.035240095108747482299804687500 0.003557285759598017172572470557 -0.003398697823286056952235556494 0 0 0 0 
2410833333.3333334923 0.184091061353683499435263115629 -0.035351876169443130493164062500 0.003526787040755153136012411963 -0.003467343980446457862854003906 0 0 0 0 
2411000000.0000000000 0.183711394667625399490518134371 -0.035636223852634429931640625000 0.003312577959150075912475585938 -0.003531155176460742950439453125 0 0 0 0 
2411166666.6666665077 0.183448165655136108398437500000 -0.035818789154291152954101562500 0.003219033358618617057800292969 -0.003653754945844411849975585938 0 0 0 0 
2411333333.3333334923 0.183213323354721097091513115629 -0.036160316318273537372629533593 0.003077417612075806097743368994 -0.003574486123397945924046181787 0 0 0 0 
2411500000.0000000000 0.182789310812950106521768134371 -0.036483012139797210693359375000 0.002916247816756368117091513525 -0.003601414151489735083339072119 0 0 0 0 
2411666666.6666665077 0.182352453470230102539062500000 -0.036711700260639190673828125000 0.002823976799845695929286337744 -0.003677661763504147963282919775 0 0 0 0 
2411833333.3333334923 0.181626796722412109375000000000 -0.037011064589023590087890625000 0.002558391774073243141174316406 -0.003669969504699110984802246094 0 0 0 0 
2412000000.0000000000 0.180885180830955505371093750000 -0.037487022578716278076171875000 0.002519185189157723946812295068 -0.003795203752815722985508584131 0 0 0 0 
2412166666.6666665077 0.179928258061408996582031250000 -0.037945967167615890502929687500 0.002259423723444343046901083838 -0.003767250804230570793151855469 0 0 0 0 
2412333333.3333334923 0.179434001445770291427450615629 -0.038285609334707260131835937500 0.002012268640100955963134765625 -0.003679184475913643836975097656 0 0 0 0 
2412500000.0000000000 0.178206995129585293868856865629 -0.038819354027509689331054687500 0.001914778375066817023633647388 -0.003709487384185194969177246094 0 0 0 0 
2412666666.6666665077 0.177346512675285311599893134371 -0.039462871849536902690847028907 0.001871823100373148918151855469 -0.003550187451764941215515136719 0 0 0 0 
2412833333.3333334923 0.176185682415962191482705634371 -0.040003158152103417133371721093 0.001801781007088721015332866138 -0.003627259749919176101684570312 0 0 0 0 
2413000000.0000000000 0.175050720572471590896768134371 -0.040633350610733032226562500000 0.001730710384435951926587748950 -0.003693786216899753050563193213 0 0 0 0 
2413166666.6666665077 0.173526078462600708007812500000 -0.041447188705205917358398437500 0.001578867202624679045436240088 -0.003565743332728743986842490088 0 0 0 0 
2413333333.3333334923 0.172177150845527704436932481258 -0.042314730584621429443359375000 0.001618093345314264080644917065 -0.003482001367956399917602539062 0 0 0 0 
2413500000.0000000000 0.170858114957809503753338731258 -0.043192226439714431762695312500 0.001593520049937068982365273584 -0.003335158340632915930507040869 0 0 0 0 
2413666666.6666665077 0.169668599963188199142294365629 -0.044250335544347763061523437500 0.001435221405699848911882710034 -0.003473564749583601951599121094 0 0 0 0 
2413833333.3333334923 0.168291151523590087890625000000 -0.045321423560380942607839216407 0.001386720105074346065521240234 -0.003298650495707989172694540869 0 0 0 0 
2414000000.0000000000 0.166859626770019503494424384371 -0.046510335057973861694335937500 0.001255287672393023967742919922 -0.003355955937877296967747353662 0 0 0 0 
2414166666.6666665077 0.165709167718887301345986884371 -0.047624867409467697143554687500 0.001416380750015377998352050781 -0.003362103365361690954921103369 0 0 0 0 
2414333333.3333334923 0.164265483617782592773437500000 -0.048921503126621253276784528907 0.001297464943490923101540590601 -0.003269324079155921936035156250 0 0 0 0 
2414500000.0000000000 0.163355007767677307128906250000 -0.050302904099225997924804687500 0.001190605689771472974064492334 -0.003432198893278837203979492188 0 0 0 0 
2414666666.6666665077 0.162005379796028109451455634371 -0.051851190626621253276784528907 0.001221496379002928950666118091 -0.003322687000036240057704306494 0 0 0 0 
2414833333.3333334923 0.160706475377082796951455634371 -0.053410686552524566650390625000 0.001237798831425606987596821362 -0.003469318384304643110987997900 0 0 0 0 
2415000000.0000000000 0.159533157944679288009481865629 -0.054812468588352203369140625000 0.001230119261890650012372661060 -0.003415488870814443068263388525 0 0 0 0 
2415166666.6666665077 0.158480525016784695724325615629 -0.056505322456359863281250000000 0.001315009663812815926195454175 -0.003329355968162416978123330225 0 0 0 0 
2415333333.3333334923 0.157710120081901605804119981258 -0.058404844254255301738698591407 0.001190700335428118922589946216 -0.003524290863424539999720908057 0 0 0 0 
2415500000.0000000000 0.156695485115051297286825615629 -0.060261033475399017333984375000 0.001238503959029912948608398438 -0.003517238423228263854980468750 0 0 0 0 
2415666666.6666665077 0.155809223651885986328125000000 -0.061985056847333908081054687500 0.001269942964427172920824360425 -0.003709115553647280173060751807 0 0 0 0 
2415833333.3333334923 0.155172958970069913009481865629 -0.064109385013580322265625000000 0.001158438622951508002040243994 -0.003656136104837059974670410156 0 0 0 0 
2416000000.0000000000 0.154342442750930786132812500000 -0.066008314490318298339843750000 0.001147583359852432987810444409 -0.003720394335687160925624228369 0 0 0 0 
2416166666.6666665077 0.154008656740188598632812500000 -0.067870527505874633789062500000 0.001204192056320608095881796729 -0.003866176586598157882690429688 0 0 0 0 
2416333333.3333334923 0.153350412845611600021200615629 -0.070011228322982788085937500000 0.001106710289604962088941264575 -0.003941430710256099700927734375 0 0 0 0 
2416500000.0000000000 0.152871161699294988434161268742 -0.072003029286861419677734375000 0.001001781318336725018144917065 -0.004081259015947580337524414062 0 0 0 0 
2416666666.6666665077 0.152432426810264587402343750000 -0.073920264840126037597656250000 0.000920412538107484579086303711 -0.004232531413435935974121093750 0 0 0 0 
2416833333.3333334923 0.152194261550903292556924384371 -0.075996555387973785400390625000 0.000776641943957656621932983398 -0.004263317212462425231933593750 0 0 0 0 
2417000000.0000000000 0.151721358299255398849325615629 -0.078030936419963836669921875000 0.000735142908524721860885620117 -0.004502668511122465133666992188 0 0 0 0 
2417166666.6666665077 0.151567921042442294021768134371 -0.079796098172664642333984375000 0.000853437930345535278320312500 -0.004644773900508880615234375000 0 0 0 0 
2417333333.3333334923 0.151388972997665405273437500000 -0.081522099673748016357421875000 0.000533775077201426029205322266 -0.004670735448598861694335937500 0 0 0 0 
2417500000.0000000000 0.151307836174964904785156250000 -0.083611525595188140869140625000 0.000465696881292387788921910419 -0.004883875604718923568725585938 0 0 0 0 
2417666666.6666665077 0.151352658867835998535156250000 -0.085061401128768920898437500000 0.000301257387036457712024134503 -0.005049263127148151397705078125 0 0 0 0 
2417833333.3333334923 0.151434406638145502288494981258 -0.086712822318077087402343750000 0.000260226777754724025726318359 -0.005102374125272035598754882812 0 0 0 0 
2418000000.0000000000 0.151323780417442294021768134371 -0.088399246335029602050781250000 0.000147822618600912392139434814 -0.005455696024000644683837890625 0 0 0 0 
2418166666.6666665077 0.151632711291313199142294365629 -0.089582666754722595214843750000 -0.000165146149811334908008575439 -0.005302004981786012649536132812 0 0 0 0 
2418333333.3333334923 0.151971071958541897872763115629 -0.091137163341045379638671875000 -0.000525419251061975955963134766 -0.005479657556861639022827148438 0 0 0 0 
2418500000.0000000000 0.152112141251563998123330634371 -0.092148445546627044677734375000 -0.000715811795089393854141235352 -0.005680951755493879318237304688 0 0 0 0 
2418666666.6666665077 0.152246609330177307128906250000 -0.093437753617763519287109375000 -0.001092167804017663002014160156 -0.005761277861893177032470703125 0 0 0 0 
2418833333.3333334923 0.152417272329330388824786268742 -0.094426766037940979003906250000 -0.001326517318375409083125449072 -0.005693285726010799407958984375 0 0 0 0 
2419000000.0000000000 0.152480542659759493728799384371 -0.095206558704376220703125000000 -0.001740381936542690017102885669 -0.005736441817134618759155273438 0 0 0 0 
2419166666.6666665077 0.152862682938575689117755018742 -0.096153028309345245361328125000 -0.002049449365586041970493935693 -0.005839036777615547180175781250 0 0 0 0 
2419333333.3333334923 0.152976766228675786774005018742 -0.096583776175975799560546875000 -0.002404988044872879981994628906 -0.005811031907796859741210937500 0 0 0 0 
2419500000.0000000000 0.153209015727043207366619981258 -0.097260206937789916992187500000 -0.002688815118744968934300088037 -0.005786103196442127227783203125 0 0 0 0 
2419666666.6666665077 0.153629839420318603515625000000 -0.097701840102672576904296875000 -0.003099623136222362951991415869 -0.005498723126947879791259765625 0 0 0 0 
2419833333.3333334923 0.153718784451484707931356865629 -0.097836241126060485839843750000 -0.003206857712939382033107138525 -0.005412008613348007202148437500 0 0 0 0 
