# Version 1.00
#
freq[Hz];re:Trc1_S11;im:Trc1_S11;re:Trc2_S21;im:Trc2_S21;
2.400000000000000E+009;1.564323306083679E-001;1.057498976588249E-001;5.274487193673849E-003;-6.586058065295219E-003;
2.400166666666667E+009;1.564937233924866E-001;1.033736765384674E-001;4.994780290871859E-003;-6.829092279076576E-003;
2.400333333333334E+009;1.567197740077972E-001;1.012211069464684E-001;4.938764031976461E-003;-6.995440460741520E-003;
2.400500000000000E+009;1.569906473159790E-001;9.874217957258225E-002;4.839765839278698E-003;-7.070965133607388E-003;
2.400666666666667E+009;1.573223918676376E-001;9.631147235631943E-002;4.556210245937109E-003;-6.921309046447277E-003;
2.400833333333334E+009;1.575041860342026E-001;9.370563924312592E-002;4.492222331464291E-003;-7.280069403350353E-003;
2.401000000000000E+009;1.579576879739761E-001;9.108064323663712E-002;4.243032075464726E-003;-7.410807535052300E-003;
2.401166666666667E+009;1.582951992750168E-001;8.851559460163117E-002;4.218125715851784E-003;-7.539690937846899E-003;
2.401333333333334E+009;1.586749851703644E-001;8.581040799617767E-002;3.924085292965174E-003;-7.757718209177256E-003;
2.401500000000000E+009;1.592948734760284E-001;8.322656899690628E-002;3.680436406284571E-003;-7.959892973303795E-003;
2.401666666666667E+009;1.595220267772675E-001;8.061379194259644E-002;3.508122172206640E-003;-7.956976071000099E-003;
2.401833333333334E+009;1.603952646255493E-001;7.805163413286209E-002;3.179924795404077E-003;-8.336538448929787E-003;
2.402000000000000E+009;1.610512435436249E-001;7.556658238172531E-002;2.856025937944651E-003;-8.320736698806286E-003;
2.402166666666667E+009;1.619298309087753E-001;7.332064956426621E-002;2.492996631190181E-003;-8.464038372039795E-003;
2.402333333333334E+009;1.629129797220230E-001;7.070431113243103E-002;2.301400527358055E-003;-8.527901954948902E-003;
2.402500000000000E+009;1.639345288276672E-001;6.837038695812225E-002;1.913017360493541E-003;-8.470616303384304E-003;
2.402666666666667E+009;1.650316566228867E-001;6.621585786342621E-002;1.670262892730534E-003;-8.636279962956905E-003;
2.402833333333334E+009;1.664338558912277E-001;6.405176967382431E-002;1.312740729190409E-003;-8.718281053006649E-003;
2.403000000000000E+009;1.674452424049377E-001;6.173883751034737E-002;1.088645076379180E-003;-8.780350908637047E-003;
2.403166666666667E+009;1.692827343940735E-001;5.984978750348091E-002;7.386963116005063E-004;-8.595841005444527E-003;
2.403333333333334E+009;1.702897846698761E-001;5.756154283881187E-002;4.375207645352930E-004;-8.665558882057667E-003;
2.403500000000000E+009;1.719390451908112E-001;5.574649199843407E-002;2.016737416852266E-004;-8.659164421260357E-003;
2.403666666666667E+009;1.733596920967102E-001;5.391667783260346E-002;-1.420741609763354E-004;-8.590035140514374E-003;
2.403833333333334E+009;1.748483330011368E-001;5.216508358716965E-002;-2.738368057180196E-004;-8.486432023346424E-003;
2.404000000000000E+009;1.760565638542175E-001;5.047394707798958E-002;-6.826046737842262E-004;-8.617989718914032E-003;
2.404166666666667E+009;1.776586472988129E-001;4.895998910069466E-002;-9.264925029128790E-004;-8.590175770223141E-003;
2.404333333333334E+009;1.790053695440292E-001;4.748225957155228E-002;-1.371895428746939E-003;-8.477879688143730E-003;
2.404500000000000E+009;1.803446114063263E-001;4.622106254100800E-002;-1.505325431935489E-003;-8.319339714944363E-003;
2.404666666666667E+009;1.816894561052322E-001;4.511737823486328E-002;-1.769951311871409E-003;-8.446039631962776E-003;
2.404833333333334E+009;1.832749843597412E-001;4.395169392228127E-002;-2.099626464769244E-003;-8.397947996854782E-003;
2.405000000000000E+009;1.842739731073380E-001;4.345065727829933E-002;-2.343896543607116E-003;-8.281715214252472E-003;
2.405166666666667E+009;1.854260861873627E-001;4.250637069344521E-002;-2.692499198019505E-003;-8.093425072729588E-003;
2.405333333333334E+009;1.866310685873032E-001;4.193771257996559E-002;-2.836401807144284E-003;-8.024743758141995E-003;
2.405500000000000E+009;1.879523992538452E-001;4.129343107342720E-002;-3.212185110896826E-003;-7.926608435809612E-003;
2.405666666666667E+009;1.889076679944992E-001;4.071412608027458E-002;-3.408704884350300E-003;-7.704331539571285E-003;
2.405833333333334E+009;1.899085640907288E-001;4.041591286659241E-002;-3.564049722626805E-003;-7.721944712102413E-003;
2.406000000000000E+009;1.907492578029633E-001;4.007073119282723E-002;-3.849289845675230E-003;-7.470834068953991E-003;
2.406166666666667E+009;1.916242539882660E-001;3.966134414076805E-002;-4.098296631127596E-003;-7.216340396553278E-003;
2.406333333333334E+009;1.923886239528656E-001;3.965076059103012E-002;-4.273090045899153E-003;-7.231011521071196E-003;
2.406500000000000E+009;1.929422318935394E-001;3.942387551069260E-002;-4.521689843386412E-003;-7.048708386719227E-003;
2.406666666666667E+009;1.935761570930481E-001;3.920855000615120E-002;-4.817591980099678E-003;-6.763771641999483E-003;
2.406833333333334E+009;1.939453929662705E-001;3.898965567350388E-002;-4.877679515630007E-003;-6.643240805715323E-003;
2.407000000000000E+009;1.940710097551346E-001;3.907255828380585E-002;-5.014772061258555E-003;-6.380855571478605E-003;
2.407166666666667E+009;1.944905221462250E-001;3.860294073820114E-002;-5.197253543883562E-003;-6.250641774386168E-003;
2.407333333333334E+009;1.943831741809845E-001;3.843296691775322E-002;-5.338524002581835E-003;-6.031403318047524E-003;
2.407500000000000E+009;1.943440586328507E-001;3.838659822940826E-002;-5.475244019180536E-003;-6.096552591770887E-003;
2.407666666666667E+009;1.944520473480225E-001;3.806027770042419E-002;-5.783825647085905E-003;-5.784758366644383E-003;
2.407833333333334E+009;1.940108686685562E-001;3.775900229811668E-002;-5.789160262793303E-003;-5.492309574037790E-003;
2.408000000000000E+009;1.940197795629501E-001;3.734158352017403E-002;-6.096455734223127E-003;-5.297304596751928E-003;
2.408166666666667E+009;1.934675574302673E-001;3.697652369737625E-002;-6.128637585788965E-003;-5.144274327903986E-003;
2.408333333333334E+009;1.932477802038193E-001;3.619275987148285E-002;-6.162859499454498E-003;-4.926233086735010E-003;
2.408500000000000E+009;1.926853507757187E-001;3.573488444089890E-002;-6.250592414289713E-003;-4.714121110737324E-003;
2.408666666666667E+009;1.920829415321350E-001;3.513555601239204E-002;-6.311507895588875E-003;-4.571515601128340E-003;
2.408833333333334E+009;1.916730254888535E-001;3.419293463230133E-002;-6.428533699363470E-003;-4.340439103543758E-003;
2.409000000000000E+009;1.908800154924393E-001;3.312613070011139E-002;-6.505224388092756E-003;-4.109502770006657E-003;
2.409166666666667E+009;1.902768760919571E-001;3.204513341188431E-002;-6.548983510583639E-003;-3.867691848427057E-003;
2.409333333333334E+009;1.894660592079163E-001;3.108275681734085E-002;-6.589642725884914E-003;-3.678282257169485E-003;
2.409500000000000E+009;1.885735243558884E-001;2.972904779016972E-002;-6.565999239683151E-003;-3.488102229312062E-003;
2.409666666666667E+009;1.877285987138748E-001;2.836084552109242E-002;-6.641709245741367E-003;-3.415747312828898E-003;
2.409833333333334E+009;1.869335025548935E-001;2.701910026371479E-002;-6.745502352714539E-003;-3.196908859536052E-003;
2.410000000000000E+009;1.862899363040924E-001;2.532522380352020E-002;-6.712476722896099E-003;-3.116824664175510E-003;
2.410166666666667E+009;1.854949742555618E-001;2.348439395427704E-002;-6.740602664649487E-003;-2.911717630922794E-003;
2.410333333333334E+009;1.847046613693237E-001;2.194845862686634E-002;-6.636338774114847E-003;-2.752327825874090E-003;
2.410500000000000E+009;1.839412748813629E-001;1.998643577098846E-002;-6.855849176645279E-003;-2.667591208592057E-003;
2.410666666666667E+009;1.832640469074249E-001;1.797029934823513E-002;-6.777669768780470E-003;-2.738483948633075E-003;
2.410833333333334E+009;1.828901022672653E-001;1.608036272227764E-002;-6.857000757008791E-003;-2.581814303994179E-003;
2.411000000000000E+009;1.823184639215469E-001;1.399425975978375E-002;-6.869639270007610E-003;-2.476005582138896E-003;
2.411166666666667E+009;1.818377375602722E-001;1.200941298156977E-002;-7.146878167986870E-003;-2.509729005396366E-003;
2.411333333333334E+009;1.814272701740265E-001;9.441343136131764E-003;-7.248960435390472E-003;-2.442939206957817E-003;
2.411500000000000E+009;1.811762750148773E-001;7.491778116673231E-003;-7.503713946789503E-003;-2.249998738989234E-003;
2.411666666666667E+009;1.810375601053238E-001;5.385381169617176E-003;-7.678545545786619E-003;-2.079535275697708E-003;
2.411833333333334E+009;1.807637214660645E-001;3.329483559355140E-003;-7.919768802821636E-003;-2.064779866486788E-003;
2.412000000000000E+009;1.810312122106552E-001;9.010159992612898E-004;-7.916980423033238E-003;-1.704493304714561E-003;
2.412166666666667E+009;1.811775267124176E-001;-1.119608525186777E-003;-8.107599802315235E-003;-1.557647017762065E-003;
2.412333333333334E+009;1.812138557434082E-001;-3.461331594735384E-003;-8.328249678015709E-003;-1.199735794216394E-003;
2.412500000000000E+009;1.816990077495575E-001;-5.437834654003382E-003;-8.471972309052944E-003;-9.317139047197998E-004;
2.412666666666667E+009;1.821442693471909E-001;-7.637295871973038E-003;-8.713712915778160E-003;-7.224261062219739E-004;
2.412833333333334E+009;1.828034371137619E-001;-9.875958785414696E-003;-8.636590093374252E-003;-2.034547796938568E-004;
2.413000000000000E+009;1.835624575614929E-001;-1.196041703224182E-002;-8.931756019592285E-003;4.977625212632120E-005;
2.413166666666667E+009;1.842156350612640E-001;-1.391788106411696E-002;-9.008584544062614E-003;3.172384167555720E-004;
2.413333333333334E+009;1.850800514221191E-001;-1.607582345604897E-002;-9.034690447151661E-003;9.605292580090463E-004;
2.413500000000000E+009;1.859135925769806E-001;-1.817295886576176E-002;-9.070229716598988E-003;1.309714745730162E-003;
2.413666666666667E+009;1.869511008262634E-001;-2.027155272662640E-002;-9.027798660099506E-003;1.667473698034883E-003;
2.413833333333334E+009;1.878965646028519E-001;-2.181170694530010E-002;-9.007319808006287E-003;2.022689906880260E-003;
2.414000000000000E+009;1.888139545917511E-001;-2.367507293820381E-002;-8.862562477588654E-003;2.509342506527901E-003;
2.414166666666667E+009;1.900184005498886E-001;-2.544607967138290E-002;-8.768727071583271E-003;2.848317148163915E-003;
2.414333333333334E+009;1.910162270069122E-001;-2.732599712908268E-002;-8.589086122810841E-003;3.152609802782536E-003;
2.414500000000000E+009;1.920066922903061E-001;-2.860789187252522E-002;-8.485003374516964E-003;3.658205969259143E-003;
2.414666666666667E+009;1.929042786359787E-001;-3.006885759532452E-002;-8.324246853590012E-003;3.935774322599173E-003;
2.414833333333334E+009;1.939833760261536E-001;-3.126543760299683E-002;-8.109631948173046E-003;4.283454734832048E-003;
2.415000000000000E+009;1.947954744100571E-001;-3.265258669853210E-002;-7.844009436666966E-003;4.617779515683651E-003;
2.415166666666667E+009;1.959710866212845E-001;-3.376996144652367E-002;-7.717307657003403E-003;4.991291556507349E-003;
2.415333333333334E+009;1.969993263483048E-001;-3.473059833049774E-002;-7.421236019581556E-003;5.257946904748678E-003;
2.415500000000000E+009;1.977114677429199E-001;-3.554091602563858E-002;-7.279726676642895E-003;5.521826911717653E-003;
2.415666666666667E+009;1.986595094203949E-001;-3.647397458553314E-002;-7.053393404930830E-003;5.747136659920216E-003;
2.415833333333334E+009;1.992456167936325E-001;-3.704239800572395E-002;-6.798242218792439E-003;5.887485574930906E-003;
2.416000000000000E+009;1.998133659362793E-001;-3.776773437857628E-002;-6.431709509342909E-003;6.056181155145168E-003;
2.416166666666667E+009;2.004914879798889E-001;-3.848450258374214E-002;-6.188250612467527E-003;6.390462629497051E-003;
2.416333333333334E+009;2.008394896984100E-001;-3.892763704061508E-002;-5.917528644204140E-003;6.455736700445414E-003;
2.416500000000000E+009;2.012072205543518E-001;-3.928500041365624E-002;-5.618327297270298E-003;6.683988496661186E-003;
2.416666666666667E+009;2.014409601688385E-001;-3.981120884418488E-002;-5.551982671022415E-003;6.959254853427410E-003;
2.416833333333334E+009;2.013955116271973E-001;-4.001434892416000E-002;-4.997207783162594E-003;6.946897599846125E-003;
2.417000000000000E+009;2.014842778444290E-001;-4.041099920868874E-002;-4.782811272889376E-003;7.176882121711969E-003;
2.417166666666667E+009;2.010882496833801E-001;-4.045623168349266E-002;-4.430783446878195E-003;7.303726393729448E-003;
2.417333333333334E+009;2.008286267518997E-001;-4.051814228296280E-002;-4.170820116996765E-003;7.469827774912119E-003;
2.417500000000000E+009;2.004344761371613E-001;-4.067916050553322E-002;-3.922629170119762E-003;7.537987548857927E-003;
2.417666666666667E+009;1.999332755804062E-001;-4.074664413928986E-002;-3.508694004267454E-003;7.577361073344946E-003;
2.417833333333334E+009;1.994392424821854E-001;-4.077719524502754E-002;-3.213454037904739E-003;7.654331158846617E-003;
2.418000000000000E+009;1.989778429269791E-001;-4.074806720018387E-002;-2.901810919865966E-003;7.649978622794151E-003;
2.418166666666667E+009;1.980859637260437E-001;-4.088123142719269E-002;-2.640092046931386E-003;7.750915829092264E-003;
2.418333333333334E+009;1.972398310899735E-001;-4.094733670353890E-002;-2.404862549155951E-003;7.638651411980391E-003;
2.418500000000000E+009;1.963652968406677E-001;-4.119177535176277E-002;-1.993666170164943E-003;7.706827949732542E-003;
2.418666666666667E+009;1.955806612968445E-001;-4.139226675033569E-002;-1.625094562768936E-003;7.725384086370468E-003;
2.418833333333334E+009;1.944218724966049E-001;-4.158835113048554E-002;-1.382310059852898E-003;7.699395995587111E-003;
2.419000000000000E+009;1.932441890239716E-001;-4.197886586189270E-002;-1.181973959319294E-003;7.523443549871445E-003;
2.419166666666667E+009;1.922564357519150E-001;-4.236614704132080E-002;-8.757006144151092E-004;7.514616940170527E-003;
2.419333333333334E+009;1.910270303487778E-001;-4.295271635055542E-002;-8.169610518962145E-004;7.258485071361065E-003;
2.419500000000000E+009;1.896484792232513E-001;-4.348575323820114E-002;-5.559707642532885E-004;7.203402463346720E-003;
2.419666666666667E+009;1.882885098457336E-001;-4.447764530777931E-002;-4.186199512332678E-004;7.171711884438992E-003;
2.419833333333334E+009;1.868117302656174E-001;-4.514720663428307E-002;-2.417250798316672E-004;6.955946329981089E-003;
2.420000000000000E+009;1.855165511369705E-001;-4.592838883399963E-002;3.642407318693586E-005;6.877733860164881E-003;
2.420166666666667E+009;1.842094659805298E-001;-4.699678719043732E-002;1.043268639477901E-004;6.852430291473866E-003;
2.420333333333334E+009;1.828149557113648E-001;-4.824928939342499E-002;2.142984303645790E-004;6.719986442476511E-003;
2.420500000000000E+009;1.812532395124435E-001;-4.937135055661202E-002;2.371301525272429E-004;6.602100096642971E-003;
2.420666666666667E+009;1.798616647720337E-001;-5.042456835508347E-002;2.822490932885557E-004;6.705891806632280E-003;
2.420833333333334E+009;1.785742640495300E-001;-5.211094766855240E-002;4.693243827205151E-004;6.543474271893501E-003;
2.421000000000000E+009;1.773677617311478E-001;-5.356958508491516E-002;5.871786852367222E-004;6.686874665319920E-003;
2.421166666666667E+009;1.761125475168228E-001;-5.485183000564575E-002;6.333607598207891E-004;6.637221202254295E-003;
2.421333333333334E+009;1.746725440025330E-001;-5.647671595215797E-002;7.524879765696824E-004;6.480161100625992E-003;
2.421500000000000E+009;1.734602153301239E-001;-5.821845307946205E-002;8.511162013746798E-004;6.500548683106899E-003;
2.421666666666667E+009;1.724794209003449E-001;-5.993552505970001E-002;1.059784321114421E-003;6.567740812897682E-003;
2.421833333333334E+009;1.713299304246903E-001;-6.162932887673378E-002;1.097760046832264E-003;6.497215945273638E-003;
2.422000000000000E+009;1.703958064317703E-001;-6.337039172649384E-002;1.224206411279738E-003;6.551461759954691E-003;
2.422166666666667E+009;1.696172505617142E-001;-6.523900479078293E-002;1.407693838700652E-003;6.472954526543617E-003;
2.422333333333334E+009;1.688009798526764E-001;-6.696171313524246E-002;1.704706461168826E-003;6.361221428960562E-003;
2.422500000000000E+009;1.681568920612335E-001;-6.881272792816162E-002;1.827330328524113E-003;6.374977529048920E-003;
2.422666666666667E+009;1.673175245523453E-001;-7.063204050064087E-002;1.975841354578733E-003;6.366792600601912E-003;
2.422833333333334E+009;1.670233458280563E-001;-7.242430746555328E-002;2.108873566612601E-003;6.339858286082745E-003;
2.423000000000000E+009;1.664287894964218E-001;-7.435183972120285E-002;2.249908400699496E-003;6.372362375259399E-003;
2.423166666666667E+009;1.661693155765533E-001;-7.609738409519196E-002;2.517560264095664E-003;6.485136691480875E-003;
2.423333333333334E+009;1.658536195755005E-001;-7.788444310426712E-002;2.418990246951580E-003;6.427514366805553E-003;
2.423500000000000E+009;1.656468063592911E-001;-7.944139093160629E-002;2.873707795515657E-003;6.224171258509159E-003;
2.423666666666667E+009;1.657007932662964E-001;-8.136047422885895E-002;3.035562811419368E-003;6.324554793536663E-003;
2.423833333333334E+009;1.657104492187500E-001;-8.284819126129150E-002;3.241536673158407E-003;6.227614823728800E-003;
2.424000000000000E+009;1.657166630029678E-001;-8.457040041685104E-002;3.500293241813779E-003;6.290721241384745E-003;
2.424166666666667E+009;1.656017452478409E-001;-8.595310151576996E-002;3.651992185041308E-003;5.981379188597202E-003;
2.424333333333334E+009;1.656305193901062E-001;-8.739095181226730E-002;3.749786410480738E-003;5.926023237407208E-003;
2.424500000000000E+009;1.658561825752258E-001;-8.915767073631287E-002;4.062994848936796E-003;5.759336054325104E-003;
2.424666666666667E+009;1.659755408763886E-001;-9.037744998931885E-002;4.224295262247324E-003;5.561434663832188E-003;
2.424833333333334E+009;1.664015203714371E-001;-9.157002717256546E-002;4.674284253269434E-003;5.522796884179115E-003;
2.425000000000000E+009;1.666335016489029E-001;-9.272259473800659E-002;4.760866053402424E-003;5.340217612683773E-003;
2.425166666666667E+009;1.668626070022583E-001;-9.378174692392349E-002;4.835790488868952E-003;5.262645892798901E-003;
2.425333333333334E+009;1.670321226119995E-001;-9.478224068880081E-002;5.021205637603998E-003;5.047735758125782E-003;
2.425500000000000E+009;1.672562360763550E-001;-9.568814188241959E-002;5.186172202229500E-003;4.873171448707581E-003;
2.425666666666667E+009;1.676578521728516E-001;-9.651502966880798E-002;5.443586502224207E-003;4.518896341323853E-003;
2.425833333333334E+009;1.678957343101502E-001;-9.733773767948151E-002;5.553128197789192E-003;4.481933545321226E-003;
2.426000000000000E+009;1.681269109249115E-001;-9.782434999942780E-002;5.550502333790064E-003;4.294240847229958E-003;
2.426166666666667E+009;1.684112250804901E-001;-9.854726493358612E-002;5.809400696307421E-003;4.125698469579220E-003;
2.426333333333334E+009;1.683714687824249E-001;-9.914568066596985E-002;5.735771264880896E-003;3.939002752304077E-003;
2.426500000000000E+009;1.688006967306137E-001;-9.948372095823288E-002;5.962565541267395E-003;3.655326552689076E-003;
2.426666666666667E+009;1.688902676105499E-001;-9.998939186334610E-002;6.080274935811758E-003;3.449429757893086E-003;
2.426833333333334E+009;1.691030263900757E-001;-1.004405841231346E-001;6.183324381709099E-003;3.358792746439576E-003;
2.427000000000000E+009;1.689863502979279E-001;-1.007886528968811E-001;6.291402969509363E-003;3.127971896901727E-003;
2.427166666666667E+009;1.690583080053330E-001;-1.010763496160507E-001;6.402015220373869E-003;2.890988020226359E-003;
2.427333333333334E+009;1.689108908176422E-001;-1.015903502702713E-001;6.594036240130663E-003;2.674143994227052E-003;
2.427500000000000E+009;1.686994880437851E-001;-1.019495874643326E-001;6.622348446398974E-003;2.397303236648440E-003;
2.427666666666667E+009;1.683647781610489E-001;-1.021592095494270E-001;6.744014564901590E-003;2.241070847958326E-003;
