# Hz S RI R 50
2400000000.0000000000 0.151597023010253906250000000000 0.116991780698299394081196567186 0.005972877610474824905395507812 0.001645072014071047089220356519 0 0 0 0 
2400166666.6666665077 0.151055648922920199295205634371 0.114925399422645596603231865629 0.006076656747609376907348632812 0.001609405735507607893702841650 0 0 0 0 
2400333333.3333334923 0.151126325130462701995526231258 0.112746737897396101524272182814 0.006147266365587711334228515625 0.001491660601459444002864218604 0 0 0 0 
2400500000.0000000000 0.150756210088729886154013115629 0.110010273754596696327290317186 0.006352977827191352844238281250 0.001285886508412658951402973706 0 0 0 0 
2400666666.6666665077 0.150585517287254305740518134371 0.107656002044677706619424384371 0.006506444420665503415579511426 0.001291694003157318072078085791 0 0 0 0 
2400833333.3333334923 0.150356903672218294998330634371 0.104708045721054104904013115629 0.006667061708867549896240234375 0.001073420164175332026240683447 0 0 0 0 
2401000000.0000000000 0.150242760777473505218182481258 0.101941429078579004485760606258 0.006728572770953178405761718750 0.000878930033650249242782592773 0 0 0 0 
2401166666.6666665077 0.150165781378746004959268134371 0.099293574690818786621093750000 0.007004608400166034698486328125 0.000541329383850097656250000000 0 0 0 0 
2401333333.3333334923 0.150378555059433011154013115629 0.096496619284152984619140625000 0.007116186898201704025268554688 0.000431446067523211186558323993 0 0 0 0 
2401500000.0000000000 0.150674864649772588531817518742 0.093497052788734436035156250000 0.007119126152247191342825605176 0.000059857145970454439520835876 0 0 0 0 
2401666666.6666665077 0.150873884558677701095419365629 0.090646617114543914794921875000 0.007447866257280111312866210938 -0.000088028529717121273279190063 0 0 0 0 
2401833333.3333334923 0.151234924793243408203125000000 0.087749660015106201171875000000 0.007507505360990762710571289062 -0.000358147663064301013946533203 0 0 0 0 
2402000000.0000000000 0.152139201760292108733807481258 0.084921315312385559082031250000 0.007630495354533196362967206738 -0.000818913453258574008941650391 0 0 0 0 
2402166666.6666665077 0.152818053960800198654013115629 0.081927254796028137207031250000 0.007613776251673698425292968750 -0.001100269029848278002498007666 0 0 0 0 
2402333333.3333334923 0.153867870569229098220986884371 0.079212926328182220458984375000 0.007599595934152603149414062500 -0.001429271418601274924037314307 0 0 0 0 
2402500000.0000000000 0.154909387230873107910156250000 0.076604939997196197509765625000 0.007594421040266752243041992188 -0.001768148969858885028241801685 0 0 0 0 
2402666666.6666665077 0.156102687120437594314736884371 0.073941610753536224365234375000 0.007705847732722759246826171875 -0.002233041683211923079249716650 0 0 0 0 
2402833333.3333334923 0.157749086618423489669638115629 0.071410700678825378417968750000 0.007544391788542270660400390625 -0.002691705711185932159423828125 0 0 0 0 
2403000000.0000000000 0.159164175391197204589843750000 0.068595573306083679199218750000 0.007525816094130277633666992188 -0.003081485163420439200160361182 0 0 0 0 
2403166666.6666665077 0.161317408084869412521200615629 0.066310696303844451904296875000 0.007333509158343076705932617188 -0.003390098456293344931361533057 0 0 0 0 
2403333333.3333334923 0.162874057888984707931356865629 0.063675515353679656982421875000 0.007266367785632610321044921875 -0.003739806124940514998195029150 0 0 0 0 
2403500000.0000000000 0.164901286363601712325888115629 0.061398383229970932006835937500 0.007035302463918924331665039062 -0.004119579680263996124267578125 0 0 0 0 
2403666666.6666665077 0.166845113039016695877236884371 0.059257913380861282348632812500 0.006779941730201244354248046875 -0.004547541029751300811767578125 0 0 0 0 
2403833333.3333334923 0.168854027986526489257812500000 0.057036027312278747558593750000 0.006594785023480653762817382812 -0.004862671718001365661621093750 0 0 0 0 
2404000000.0000000000 0.170615598559379605392294365629 0.055132258683443069458007812500 0.006333086173981428146362304688 -0.005070465616881847381591796875 0 0 0 0 
2404166666.6666665077 0.172874435782432611663494981258 0.053234998136758797382395158593 0.006044098641723394393920898438 -0.005397758446633815765380859375 0 0 0 0 
2404333333.3333334923 0.174725040793418912032919365629 0.051421597599983222270925153907 0.005644714459776878356933593750 -0.005529305897653102874755859375 0 0 0 0 
2404500000.0000000000 0.176722094416618402679119981258 0.049829039722681052471120466407 0.005393595900386571884155273438 -0.005819458514451980590820312500 0 0 0 0 
2404666666.6666665077 0.178794324398040799239950615629 0.048286527395248413085937500000 0.005106976255774497985839843750 -0.005991762969642877578735351562 0 0 0 0 
2404833333.3333334923 0.180909901857376098632812500000 0.047124758362770080566406250000 0.004902134649455547332763671875 -0.006104987580329179763793945312 0 0 0 0 
2405000000.0000000000 0.182654172182083102127236884371 0.046137511730194091796875000000 0.004565591923892498016357421875 -0.006308206822723150253295898438 0 0 0 0 
2405166666.6666665077 0.184709578752517700195312500000 0.045164629817008972167968750000 0.004282847046852111816406250000 -0.006335476879030466079711914062 0 0 0 0 
2405333333.3333334923 0.186406895518302889724893134371 0.044530022889375686645507812500 0.004174218513071537017822265625 -0.006494984030723571777343750000 0 0 0 0 
2405500000.0000000000 0.188143208622932406326455634371 0.044001985341310501098632812500 0.003622862277552485899684286963 -0.006537958513945341110229492188 0 0 0 0 
2405666666.6666665077 0.189818784594535799881143134371 0.043398622423410422588307966407 0.003474578261375426812412881006 -0.006593476049602031707763671875 0 0 0 0 
2405833333.3333334923 0.191564723849296597579794365629 0.043021321296691901470143903907 0.003200968727469443841221474756 -0.006722990889102221402640058301 0 0 0 0 
2406000000.0000000000 0.193121716380119295974893134371 0.042686033993959426879882812500 0.002687928499653934998753213037 -0.006987982429563999176025390625 0 0 0 0 
2406166666.6666665077 0.194501101970672607421875000000 0.042612571269273757934570312500 0.002745767356827855110168457031 -0.007046912331134080886840820312 0 0 0 0 
2406333333.3333334923 0.195837229490280206878338731258 0.042431320995092391967773437500 0.002182453405112028121948242188 -0.006943477783352136611938476562 0 0 0 0 
2406500000.0000000000 0.197028890252113286774005018742 0.042502518743276603008229841407 0.002054339507594705061671591650 -0.007020805962383747100830078125 0 0 0 0 
2406666666.6666665077 0.198128804564476013183593750000 0.042514618486166000366210937500 0.001740095089189708016039204175 -0.006956493947654963407034589551 0 0 0 0 
2406833333.3333334923 0.198878496885299710372763115629 0.042590126395225531841237653907 0.001445329980924725966212607275 -0.007151678204536437988281250000 0 0 0 0 
2407000000.0000000000 0.199582859873771695236044365629 0.042911503463983542705495466407 0.001219469588249922015546489185 -0.006909961346536874771118164062 0 0 0 0 
2407166666.6666665077 0.200298115611076410491619981258 0.042778886854648590087890625000 0.000809933582786470651626586914 -0.006919178646057844161987304688 0 0 0 0 
2407333333.3333334923 0.200568705797195406814736884371 0.043027494102716452861745466407 0.000708034727722406387329101562 -0.006803895346820355329031659863 0 0 0 0 
2407500000.0000000000 0.200715914368629511077557481258 0.043149426579475402832031250000 0.000252049154369160478741246356 -0.006838532630354166030883789062 0 0 0 0 
2407666666.6666665077 0.200933009386062594314736884371 0.043293897062540047382395158593 0.000244223017944023013114929199 -0.006627431139349936571603105762 0 0 0 0 
2407833333.3333334923 0.200741410255432101150674384371 0.043146077543497092510182966407 -0.000134166271891444894388475961 -0.006536806002259255322928144238 0 0 0 0 
2408000000.0000000000 0.200942099094390896896200615629 0.043169815093278891826589216407 -0.000243880000198260003894251691 -0.006705979350954294204711914062 0 0 0 0 
2408166666.6666665077 0.200237020850181607345419365629 0.043220438063144676898996721093 -0.000323853106237947886616307391 -0.006391125265508890151977539062 0 0 0 0 
2408333333.3333334923 0.199968993663787786285723768742 0.042799059301614761352539062500 -0.000570645497646182775497436523 -0.006381616462022066116333007812 0 0 0 0 
2408500000.0000000000 0.199240371584892300704794365629 0.042615920305252082134206403907 -0.000704410078469663858413696289 -0.006125274579972028732299804688 0 0 0 0 
2408666666.6666665077 0.198570281267166109939736884371 0.042340826243162162090261091407 -0.000677963835187256336212158203 -0.005965266842395067214965820312 0 0 0 0 
2408833333.3333334923 0.197768211364746093750000000000 0.041849147528409957885742187500 -0.001085783122107387022731161963 -0.006026305258274078369140625000 0 0 0 0 
2409000000.0000000000 0.196731626987457303146200615629 0.041054517030715942382812500000 -0.001117586158216000036952353369 -0.006021818611770868301391601562 0 0 0 0 
2409166666.6666665077 0.195685416460037203689736884371 0.040339890867471701885182966407 -0.001187604852020740942714072119 -0.005952365696430206298828125000 0 0 0 0 
2409333333.3333334923 0.194677293300628689864950615629 0.039480764418840408325195312500 -0.001266856561414897008183144678 -0.005895169451832771301269531250 0 0 0 0 
2409500000.0000000000 0.193174511194229098220986884371 0.038473993539810180664062500000 -0.001322025898844003894208598560 -0.005654291249811649322509765625 0 0 0 0 
2409666666.6666665077 0.192066386342048700530682481258 0.037087742239236831665039062500 -0.001534258364699780941009521484 -0.005739227868616580963134765625 0 0 0 0 
2409833333.3333334923 0.190714076161384610275106865629 0.035928517580032348632812500000 -0.001575372531078756072400737231 -0.005656634457409381866455078125 0 0 0 0 
2410000000.0000000000 0.189474150538444491287393134371 0.034587964415550231933593750000 -0.001784933498129249052760458838 -0.005644161254167556762695312500 0 0 0 0 
2410166666.6666665077 0.188046559691429110428018134371 0.032899130135774612426757812500 -0.001828468171879648945452045972 -0.005667967721819877624511718750 0 0 0 0 
2410333333.3333334923 0.186925277113914489746093750000 0.031185386702418330800989920704 -0.002104003215208650068995810400 -0.005536206997931003570556640625 0 0 0 0 
2410500000.0000000000 0.185642778873443603515625000000 0.029380476102232929574986641796 -0.002085014246404170989990234375 -0.005522447172552347183227539062 0 0 0 0 
2410666666.6666665077 0.184409514069557189941406250000 0.027173081412911418569544608204 -0.002315150108188391165492392432 -0.005466867238283157348632812500 0 0 0 0 
2410833333.3333334923 0.183281600475311307052450615629 0.025024486705660820007324218750 -0.002586570568382740020751953125 -0.005373355001211166381835937500 0 0 0 0 
2411000000.0000000000 0.182263493537902804275674384371 0.023002088069915771484375000000 -0.002618142636492847962620400537 -0.005252768285572528839111328125 0 0 0 0 
2411166666.6666665077 0.181257069110870389083700615629 0.020820081233978271484375000000 -0.002842515008524059815647744287 -0.005201667547225952148437500000 0 0 0 0 
2411333333.3333334923 0.180408239364623995681924384371 0.018210373818874359130859375000 -0.003044407814741135077235556494 -0.005078529939055442810058593750 0 0 0 0 
2411500000.0000000000 0.179674267768859891036825615629 0.015884146094322211528737653907 -0.003098852001130580902099609375 -0.005162538494914770126342773438 0 0 0 0 
2411666666.6666665077 0.179134234786033602615518134371 0.013369697146117690694788748829 -0.003097093198448420004603720557 -0.004942842759191989898681640625 0 0 0 0 
2411833333.3333334923 0.178500011563301086425781250000 0.010966019704937940079658709180 -0.003255204530432819886448525537 -0.004824635107070207595825195312 0 0 0 0 
2412000000.0000000000 0.178534433245658902267294365629 0.008082463406026363372802734375 -0.003289818065240979194641113281 -0.004739911761134862899780273438 0 0 0 0 
2412166666.6666665077 0.178096562623977688888388115629 0.005537588614970445632934570312 -0.003535469062626361846923828125 -0.004663990344852209091186523438 0 0 0 0 
2412333333.3333334923 0.178163781762123107910156250000 0.002703491831198335127589560400 -0.003558570519089698791503906250 -0.004630788695067167282104492188 0 0 0 0 
2412500000.0000000000 0.178351551294326809982138115629 0.000200184964342042803764343262 -0.003578851697966455979588173975 -0.004445730242878198623657226562 0 0 0 0 
2412666666.6666665077 0.178602695465087890625000000000 -0.002402253914624453024623251807 -0.003678122302517294883728027344 -0.004332222044467926025390625000 0 0 0 0 
2412833333.3333334923 0.178991496562957791427450615629 -0.005072623491287230577950762012 -0.003940524533390998840332031250 -0.004507503472268581390380859375 0 0 0 0 
2413000000.0000000000 0.179555565118789700607138115629 -0.007700111716985703382010175488 -0.003961535170674324035644531250 -0.004342945292592048645019531250 0 0 0 0 
2413166666.6666665077 0.180112972855567904373330634371 -0.010246378369629379617711251171 -0.004125834908336400985717773438 -0.004184412304311990737915039062 0 0 0 0 
2413333333.3333334923 0.181164726614952087402343750000 -0.012938271276652809488316719921 -0.004354410804808139801025390625 -0.004347785376012325286865234375 0 0 0 0 
2413500000.0000000000 0.181859672069549588302450615629 -0.015506068244576450693150704296 -0.004446330945938825607299804688 -0.004197104368358851346487714551 0 0 0 0 
2413666666.6666665077 0.182850852608680697342080634371 -0.017705302685499191284179687500 -0.004708158783614636334891034863 -0.004138811025768517580514238574 0 0 0 0 
2413833333.3333334923 0.183959588408470209319744981258 -0.020132403820753101003626639454 -0.004893030971288681030273437500 -0.004043871071189641952514648438 0 0 0 0 
2414000000.0000000000 0.185049906373023986816406250000 -0.022344712167978290212611014454 -0.005045794416218996047973632812 -0.003838520264253019852879189600 0 0 0 0 
2414166666.6666665077 0.186322852969169588943643134371 -0.024457905441522598266601562500 -0.005414613056927919387817382812 -0.003672734834253787994384765625 0 0 0 0 
2414333333.3333334923 0.187429368495941189864950615629 -0.026459172368049621582031250000 -0.005448732059448956575875566699 -0.003373653162270783944370888818 0 0 0 0 
2414500000.0000000000 0.188775360584259005447549384371 -0.028302829712629321706751639454 -0.005688819102942943572998046875 -0.003266827436164021925685263525 0 0 0 0 
2414666666.6666665077 0.189909830689430209060830634371 -0.029919704422354701650599295704 -0.005753483623266220092773437500 -0.002925538457930088043212890625 0 0 0 0 
2414833333.3333334923 0.191182658076286288162393134371 -0.031517025083303451538085937500 -0.005886852741241455078125000000 -0.002745422767475246949436806787 0 0 0 0 
2415000000.0000000000 0.192360401153564508636151231258 -0.032912064343690872192382812500 -0.005962972529232501983642578125 -0.002400399418547749953029013525 0 0 0 0 
2415166666.6666665077 0.193888902664184598068075615629 -0.034150987863540649414062500000 -0.006021131295710802078247070312 -0.002443535020574926896336220850 0 0 0 0 
2415333333.3333334923 0.195212692022323608398437500000 -0.035294890403747558593750000000 -0.006007667630910873413085937500 -0.001951494603417813994764018481 0 0 0 0 
2415500000.0000000000 0.196627289056778009612713731258 -0.036135409027338027954101562500 -0.006134635303169488906860351562 -0.001759382896125317053553915869 0 0 0 0 
2415666666.6666665077 0.197929576039314297775106865629 -0.037120252847671508789062500000 -0.006010266952216625213623046875 -0.001707538729533552906633686597 0 0 0 0 
2415833333.3333334923 0.198855608701705904861611884371 -0.037801057100296020507812500000 -0.006325102411210536956787109375 -0.001465684617869555950164794922 0 0 0 0 
2416000000.0000000000 0.199853777885437011718750000000 -0.038343425840139389038085937500 -0.006158964708447456359863281250 -0.001296827918849885897395468604 0 0 0 0 
2416166666.6666665077 0.201035663485527010818643134371 -0.039008636027574539184570312500 -0.006362946704030036926269531250 -0.001124969567172229073168110425 0 0 0 0 
2416333333.3333334923 0.201889753341674804687500000000 -0.039191789925098419189453125000 -0.006412783171981573104858398438 -0.000946450862102210521697998047 0 0 0 0 
2416500000.0000000000 0.202623397111892700195312500000 -0.039422065019607537006418596093 -0.006406214553862810134887695312 -0.000577577098738402128219604492 0 0 0 0 
2416666666.6666665077 0.203215405344963101486044365629 -0.039661720395088202739675153907 -0.006557181477546691894531250000 -0.000522023939993232488632202148 0 0 0 0 
2416833333.3333334923 0.203626632690429687500000000000 -0.039558194577693939208984375000 -0.006648997776210308074951171875 -0.000158559851115569499417981558 0 0 0 0 
2417000000.0000000000 0.204137325286865206619424384371 -0.039539642632007598876953125000 -0.006603062152862548828125000000 0.000081810831034090369939804077 0 0 0 0 
2417166666.6666665077 0.204104915261268587967080634371 -0.039446279406547553325612653907 -0.006519477814435958862304687500 0.000237424246734008193016052246 0 0 0 0 
2417333333.3333334923 0.204208850860595703125000000000 -0.039084557443857192993164062500 -0.006689393892884255322928144238 0.000412744178902357816696166992 0 0 0 0 
2417500000.0000000000 0.204317748546600286285723768742 -0.038870543241500847553293596093 -0.006648546550422906875610351562 0.000764502503443509340286254883 0 0 0 0 
2417666666.6666665077 0.203915536403656005859375000000 -0.038487900048494338989257812500 -0.006568116601556540402884198926 0.000930811220314353704452514648 0 0 0 0 
2417833333.3333334923 0.203724279999732998946981865629 -0.037978038191795349121093750000 -0.006544944830238819122314453125 0.001456262660212815024732280200 0 0 0 0 
2418000000.0000000000 0.203400418162345886230468750000 -0.037408463656902313232421875000 -0.006468045059591531753540039062 0.001428113086149096922633505713 0 0 0 0 
2418166666.6666665077 0.202840507030487088302450615629 -0.037074256688356399536132812500 -0.006491456646472215652465820312 0.001851979061029851002934121240 0 0 0 0 
2418333333.3333334923 0.202058762311935397049111884371 -0.036590564996004111553151716407 -0.006400544662028551101684570312 0.002040529390797019004821777344 0 0 0 0 
2418500000.0000000000 0.201228380203247098068075615629 -0.036335039883852011943776716407 -0.006334295030683279037475585938 0.002274122554808855056762695312 0 0 0 0 
2418666666.6666665077 0.200558915734291104415731865629 -0.035928975790739059448242187500 -0.006026931572705507278442382812 0.002621529391035438017604208838 0 0 0 0 
2418833333.3333334923 0.199405670166015597244424384371 -0.035871963948011398315429687500 -0.005945276934653520584106445312 0.002633785596117376847508095850 0 0 0 0 
2419000000.0000000000 0.198210775852203396896200615629 -0.035707797855138778686523437500 -0.005867652129381895065307617188 0.002869552234187722206115722656 0 0 0 0 
2419166666.6666665077 0.197048813104629488845986884371 -0.035715948790311813354492187500 -0.005649725906550884246826171875 0.003035486675798892974853515625 0 0 0 0 
2419333333.3333334923 0.195721223950386102874432481258 -0.035983614623546600341796875000 -0.005442216992378234863281250000 0.003250679699704051017761230469 0 0 0 0 
2419500000.0000000000 0.194186806678772000411825615629 -0.036092549562454216693918596093 -0.005199713166803121566772460938 0.003361732000485063032862997900 0 0 0 0 
2419666666.6666665077 0.192760854959487887283486884371 -0.036586888134479522705078125000 -0.005177068058401346206665039062 0.003669201163575053215026855469 0 0 0 0 
2419833333.3333334923 0.190945193171501187423544365629 -0.036972500383853912353515625000 -0.004952677059918642044067382812 0.003741130232810974121093750000 0 0 0 0 
