# Hz S RI R 
2400000000.0000000000 0.171089231967925997635049384371 0.039883151650428771972656250000 0.000324932887451723217964172363 -0.002135830232873558998107910156 0 0 0 0 
2400166666.6666665077 0.171629607677459689041299384371 0.039394099265336990356445312500 0.000134222384076565504074096680 -0.001957923872396349906921386719 0 0 0 0 
2400333333.3333334923 0.172126233577728299239950615629 0.038737758994102478027343750000 0.000364753243047743981510716571 -0.001904848846606910011888813550 0 0 0 0 
2400500000.0000000000 0.172619342803955105880575615629 0.038029849529266357421875000000 0.000252641009865328723758143292 -0.001909144921228290037867880713 0 0 0 0 
2400666666.6666665077 0.172865673899650601486044365629 0.037258457392454147338867187500 0.000229621204198338091373443604 -0.001854435540735722021815634619 0 0 0 0 
2400833333.3333334923 0.173371702432632501800213731258 0.036970872431993477558176408593 0.000234778432059101787492474966 -0.001856447430327534892438579028 0 0 0 0 
2401000000.0000000000 0.173440948128700311858807481258 0.036207083612680442119557966407 0.000255063729127869009971618652 -0.001830182038247585079790424878 0 0 0 0 
2401166666.6666665077 0.173518151044845608810263115629 0.035721387714147567749023437500 0.000418693147366866523593348370 -0.001748349750414490916608500903 0 0 0 0 
2401333333.3333334923 0.173315227031707791427450615629 0.035001389682292938232421875000 0.000367795146303251385688781738 -0.001710268203169107003452920068 0 0 0 0 
2401500000.0000000000 0.173650875687599209884481865629 0.034313652664422988891601562500 0.000251290533924475312232971191 -0.001761520747095347101326967554 0 0 0 0 
2401666666.6666665077 0.173476710915565490722656250000 0.033670451492071151733398437500 0.000284276698948815519183558331 -0.001730474061332643032073974609 0 0 0 0 
2401833333.3333334923 0.173404425382614107986611884371 0.032991219311952590942382812500 0.000422933342633768916130065918 -0.001743253436870872974395751953 0 0 0 0 
2402000000.0000000000 0.173020198941230801681356865629 0.032387558370828628540039062500 0.000452571170171722823947352277 -0.001822587684728204987169575269 0 0 0 0 
2402166666.6666665077 0.172850161790847806075888115629 0.031298756599426269531250000000 0.000455502915428951382637023926 -0.001663548988290131092071533203 0 0 0 0 
2402333333.3333334923 0.172566518187522888183593750000 0.030495241284370418893834298046 0.000571293872781097888946533203 -0.001882675220258533954620361328 0 0 0 0 
2402500000.0000000000 0.172618225216865511795205634371 0.029730526730418208730677420704 0.000434151093941181898117065430 -0.002004219917580484910252236475 0 0 0 0 
2402666666.6666665077 0.172288030385971097091513115629 0.028812890872359279287318045704 0.000432813394581899101107996808 -0.002003462053835391998291015625 0 0 0 0 
2402833333.3333334923 0.171947494149208096603231865629 0.027986472472548488271693045704 0.000747350335586816072463989258 -0.002139445859938859939575195312 0 0 0 0 
2403000000.0000000000 0.171639785170555086990518134371 0.026922605931758880615234375000 0.000444243283709511215060633527 -0.002236245898529887199401855469 0 0 0 0 
2403166666.6666665077 0.171337381005287198165731865629 0.025649150833487510681152343750 0.000424020749051123911708277570 -0.002244930015876888795139931787 0 0 0 0 
2403333333.3333334923 0.171048372983932495117187500000 0.024581039324402809143066406250 0.000533234968315809965133666992 -0.002495846012607216835021972656 0 0 0 0 
2403500000.0000000000 0.170564353466033907791299384371 0.023252619430422779428502266796 0.000453728833235800320475977765 -0.002455839421600102944615029443 0 0 0 0 
2403666666.6666665077 0.170236334204673794845419365629 0.021890250965952869760533516796 0.000251414836384356021881103516 -0.002621446270495653152465820312 0 0 0 0 
2403833333.3333334923 0.170059993863105801681356865629 0.020539671182632449758509451954 0.000209880498005077188641148700 -0.002667233580723404884338378906 0 0 0 0 
2404000000.0000000000 0.169641286134719904143963731258 0.019246419891715049743652343750 0.000110490662336815202802103864 -0.002829020377248526053187704932 0 0 0 0 
2404166666.6666665077 0.169288471341133089920205634371 0.017630409449338909494420235546 -0.000016670788681949488818645477 -0.002857486018911004066467285156 0 0 0 0 
2404333333.3333334923 0.168944001197814913650674384371 0.016040371730923649179478829296 -0.000240659792325459393575945444 -0.002814302220940589904785156250 0 0 0 0 
2404500000.0000000000 0.168719977140426607986611884371 0.014359724707901479548444179102 -0.000436768226791173219680786133 -0.002917996142059565024134970557 0 0 0 0 
2404666666.6666665077 0.168518155813217190841513115629 0.012790111824870109558105468750 -0.000406562205171212608188074933 -0.002930178539827466011047363281 0 0 0 0 
2404833333.3333334923 0.168399974703788812835369981258 0.011142765171825889242152030079 -0.000652580289170145988464355469 -0.002980332355946301980259560693 0 0 0 0 
2405000000.0000000000 0.168268576264381408691406250000 0.009391327388584613800048828125 -0.000802699534688144922256469727 -0.002962171332910656929016113281 0 0 0 0 
2405166666.6666665077 0.168266221880912808517294365629 0.007682911586016417417044355176 -0.000876197183970361948013305664 -0.003011792898178101019618368994 0 0 0 0 
2405333333.3333334923 0.168217107653617886642294365629 0.005707885604351758956909179688 -0.001156212994828820011736225659 -0.003004992613568902015686035156 0 0 0 0 
2405500000.0000000000 0.168123155832290704925213731258 0.003959466237574815750122070312 -0.001288768253289162895799946362 -0.002959979465231298966648720850 0 0 0 0 
2405666666.6666665077 0.168059468269348089020098768742 0.002005016198381782011744833838 -0.001374763669446110942243266528 -0.002753767650574446158168173682 0 0 0 0 
2405833333.3333334923 0.167916253209114102462606865629 0.000394213042454794103473109113 -0.001355114625766872925999306787 -0.002729730913415551185607910156 0 0 0 0 
2406000000.0000000000 0.168033912777900695800781250000 -0.001695618266239762089372944409 -0.001539857476018368981005024487 -0.002496375003829597993137978662 0 0 0 0 
2406166666.6666665077 0.167794853448867797851562500000 -0.003336439607664943175074911963 -0.001801236649043858051300048828 -0.002597828861325978799107216943 0 0 0 0 
2406333333.3333334923 0.167929679155349703689736884371 -0.005112894345074892044067382812 -0.001808012719266117052790976416 -0.002575253602117300033569335938 0 0 0 0 
2406500000.0000000000 0.167916312813758905608807481258 -0.007039085030555725097656250000 -0.001782868173904716968536376953 -0.002461467636749147935154580225 0 0 0 0 
2406666666.6666665077 0.167775779962539700607138115629 -0.008690623566508293151855468750 -0.001914226333610713915583945166 -0.002254820894449948830845498193 0 0 0 0 
2406833333.3333334923 0.167918995022773687164630018742 -0.010439407080411909276018711523 -0.001962834037840365929844521631 -0.002325170906260610060450888525 0 0 0 0 
2407000000.0000000000 0.168013781309127807617187500000 -0.012154697440564630681048008398 -0.002033534459769725799560546875 -0.002308934228494762940647744287 0 0 0 0 
2407166666.6666665077 0.168031081557273892501669365629 -0.013641856610774990427037423046 -0.002003731671720743179321289062 -0.002352934097871183915379189600 0 0 0 0 
2407333333.3333334923 0.167950659990310696700888115629 -0.015164786018431190145472342579 -0.002205632161349058151245117188 -0.002323503606021403832676552881 0 0 0 0 
2407500000.0000000000 0.168021634221076993087606865629 -0.016537265852093700063685233204 -0.002090664813295007185695029150 -0.002359033562242985205409384619 0 0 0 0 
2407666666.6666665077 0.168134734034538296798544365629 -0.017759080976247790945032889454 -0.002293971600010991096496582031 -0.002300577703863381905796670068 0 0 0 0 
2407833333.3333334923 0.168034240603446988204794365629 -0.019022367894649509084681326954 -0.002354911761358379884007119287 -0.002252735896036028861999511719 0 0 0 0 
2408000000.0000000000 0.168149262666702298263388115629 -0.020164953544735908508300781250 -0.002515867352485657171962118994 -0.002216308144852519035339355469 0 0 0 0 
2408166666.6666665077 0.168295487761497497558593750000 -0.021023787558078769338587576954 -0.002765645505860447883605957031 -0.002133606234565376801731728662 0 0 0 0 
2408333333.3333334923 0.168776452541351290603799384371 -0.022035626694560050964355468750 -0.002889695344492793083190917969 -0.002090967958793044090270996094 0 0 0 0 
2408500000.0000000000 0.168923988938331604003906250000 -0.022943075746297839773157889454 -0.002984047634527087211608886719 -0.002089643385261296792271279443 0 0 0 0 
2408666666.6666665077 0.169165283441543606857138115629 -0.023802172392606738698939139454 -0.003142314264550805091857910156 -0.001876068650744854970219277490 0 0 0 0 
2408833333.3333334923 0.169419676065445001800213731258 -0.024641033262014389038085937500 -0.003410018282011150880100869287 -0.001827743602916598103166889722 0 0 0 0 
2409000000.0000000000 0.169628709554672213455361884371 -0.025176014751195911062220389454 -0.003464977256953715844395302881 -0.001642620656639337973353720557 0 0 0 0 
2409166666.6666665077 0.170108944177627591232138115629 -0.025949640199542049062708670704 -0.003499096259474753899815224756 -0.001494592754170299010035849463 0 0 0 0 
2409333333.3333334923 0.170473292469978304763955634371 -0.026645379140973091125488281250 -0.003709942800924181938171386719 -0.001222056220285594897029257666 0 0 0 0 
2409500000.0000000000 0.170720517635345486739950615629 -0.027651164680719379079798514454 -0.003865326521918178038356161963 -0.001228897715918719985364604419 0 0 0 0 
2409666666.6666665077 0.171076133847236605545205634371 -0.028326772153377529489537423046 -0.003790484042838215827941894531 -0.000918977544642984867095947266 0 0 0 0 
2409833333.3333334923 0.171100020408630398849325615629 -0.028803758323192599904993826954 -0.004039085935801267623901367188 -0.000711989705450832843780517578 0 0 0 0 
2410000000.0000000000 0.171534091234207208831463731258 -0.029734013602137569082239920704 -0.003991265781223773956298828125 -0.000603058317210525274276733398 0 0 0 0 
2410166666.6666665077 0.171752065420150812347088731258 -0.030114268884062770498255545704 -0.004232504870742559432983398438 -0.000429119681939482688903808594 0 0 0 0 
2410333333.3333334923 0.171706706285476712325888115629 -0.030829135328531268728236014454 -0.004170120693743228912353515625 -0.000133061519591137793943128043 0 0 0 0 
2410500000.0000000000 0.171769976615905789474325615629 -0.031670268625020980834960937500 -0.004060308914631605148315429688 0.000032844644010765478014945984 0 0 0 0 
2410666666.6666665077 0.171649724245071411132812500000 -0.032284345477819442749023437500 -0.004072275012731552124023437500 0.000423517660237848812907618390 0 0 0 0 
2410833333.3333334923 0.171702116727829007247763115629 -0.032871589064598076557199846093 -0.004153805784881114959716796875 0.000467746489448472911685389386 0 0 0 0 
2411000000.0000000000 0.171499952673912103850994981258 -0.033636525273323059082031250000 -0.004071617498993873596191406250 0.000805983145255595554053151819 0 0 0 0 
2411166666.6666665077 0.171068713068962097167968750000 -0.034161504358053207397460937500 -0.003947562072426080703735351562 0.000732770946342498064041137695 0 0 0 0 
2411333333.3333334923 0.170955374836921691894531250000 -0.034966614097356803203542341407 -0.003890650812536478042602539062 0.001095053274184464974644326318 0 0 0 0 
2411500000.0000000000 0.170640110969543512542401231258 -0.035648349672555923461914062500 -0.003950888756662607192993164062 0.001332870568148792006848979419 0 0 0 0 
2411666666.6666665077 0.170415654778480502029580634371 -0.036258716136217117309570312500 -0.003913059365004301071166992188 0.001517611090093851089477539062 0 0 0 0 
2411833333.3333334923 0.169734388589859008789062500000 -0.036858651787042617797851562500 -0.003678597742691636085510253906 0.001636103726923465945600200122 0 0 0 0 
2412000000.0000000000 0.169604703783989008147869981258 -0.037763882428407669067382812500 -0.003680421970784664154052734375 0.001819308497942984104156494141 0 0 0 0 
2412166666.6666665077 0.168989598751068087478799384371 -0.038485068827867507934570312500 -0.003666865173727273941040039062 0.002004202455282210870030068506 0 0 0 0 
2412333333.3333334923 0.168530896306037902832031250000 -0.039027135819196701049804687500 -0.003647694829851388931274414062 0.002146295504644513130187988281 0 0 0 0 
2412500000.0000000000 0.167888313531875610351562500000 -0.039951384067535400390625000000 -0.003425725037232040925266884912 0.002295210957527161078212118994 0 0 0 0 
2412666666.6666665077 0.167479410767555209060830634371 -0.041105441749095916748046875000 -0.003452510805800557136535644531 0.002506452612578868865966796875 0 0 0 0 
2412833333.3333334923 0.166969269514083890060263115629 -0.041875734925270080566406250000 -0.003190130228176712989807128906 0.002846043556928635077235556494 0 0 0 0 
2413000000.0000000000 0.166081443428993197342080634371 -0.042745791375637047504465471093 -0.003103787545114756064174033057 0.002952364739030600027797079932 0 0 0 0 
2413166666.6666665077 0.165449261665344210525674384371 -0.043856035917997360229492187500 -0.002730530453845859007594443213 0.003174148267135024070739746094 0 0 0 0 
2413333333.3333334923 0.164566472172737093826455634371 -0.044772472232580191875417341407 -0.002688295673578978018519736182 0.003443081630393863157985068213 0 0 0 0 
2413500000.0000000000 0.164168506860733004470986884371 -0.045849733054637908935546875000 -0.002344291657209395928623818506 0.003526890417560935020446777344 0 0 0 0 
2413666666.6666665077 0.163398146629333496093750000000 -0.046922329813241958618164062500 -0.002016749000176786942722939600 0.003610322251915932135341025244 0 0 0 0 
2413833333.3333334923 0.162605524063110407073651231258 -0.047770131379365921020507812500 -0.001940234797075391032575297778 0.003647132311016321182250976562 0 0 0 0 
2414000000.0000000000 0.161866649985313387771768134371 -0.049052435904741287231445312500 -0.001527018495835364081739116138 0.003769504372030497030970908057 0 0 0 0 
2414166666.6666665077 0.161382973194122286697549384371 -0.050057262182235717773437500000 -0.001202450599521398977992392432 0.003727469360455871062037802588 0 0 0 0 
2414333333.3333334923 0.160794585943222101409588731258 -0.051312334835529327392578125000 -0.001006683218292891979217529297 0.003605294739827514128444052588 0 0 0 0 
2414500000.0000000000 0.160463497042655889313067518742 -0.052286710590124130249023437500 -0.000725516001693904399871826172 0.003746770322322845892665243994 0 0 0 0 
2414666666.6666665077 0.159629479050636291503906250000 -0.053388547152280807495117187500 -0.000465708086267113685607910156 0.003503722371533513069152832031 0 0 0 0 
2414833333.3333334923 0.159337401390075711349325615629 -0.054737389087677001953125000000 -0.000270705058937892317771911621 0.003182168118655682043788290869 0 0 0 0 
2415000000.0000000000 0.158988237380981500823651231258 -0.055785570293664932250976562500 0.000143121651490218910291948862 0.003214509692043066024780273438 0 0 0 0 
2415166666.6666665077 0.158598929643631009200888115629 -0.057080458849668502807617187500 0.000038143723941175267100334167 0.003342801937833427949192666162 0 0 0 0 
2415333333.3333334923 0.158478319644928006271200615629 -0.058477293699979782104492187500 0.000238931475905701490953722543 0.003012746572494506835937500000 0 0 0 0 
2415500000.0000000000 0.158264070749282809158486884371 -0.059786003082990653301198591407 0.000612311647273600101470947266 0.002768378471955657005310058594 0 0 0 0 
2415666666.6666665077 0.157926991581916809082031250000 -0.061140023171901702880859375000 0.000653578666970133781433105469 0.002581877633929253058192587744 0 0 0 0 
2415833333.3333334923 0.157805725932121304611044365629 -0.062563851475715637207031250000 0.000735646462999284267425537109 0.002488073892891407012939453125 0 0 0 0 
2416000000.0000000000 0.157544866204261807540731865629 -0.064073823392391204833984375000 0.000714319234248250722885131836 0.002203323645517230033874511719 0 0 0 0 
2416166666.6666665077 0.157467067241668701171875000000 -0.065422974526882171630859375000 0.000581629341468214988708496094 0.002124465769156814055201865088 0 0 0 0 
2416333333.3333334923 0.157218173146247891525106865629 -0.066838830709457397460937500000 0.000504712690599262714385986328 0.001878466340713202953338623047 0 0 0 0 
2416500000.0000000000 0.157157301902770996093750000000 -0.068293064832687377929687500000 0.000714138906914740800857543945 0.001675121369771658940556191553 0 0 0 0 
2416666666.6666665077 0.156867131590843200683593750000 -0.069683983922004699707031250000 0.000623463885858654975891113281 0.001500407233834267096278525244 0 0 0 0 
2416833333.3333334923 0.156745627522468594650106865629 -0.071212537586688995361328125000 0.000448374077677726799815577374 0.001438334351405500931980752100 0 0 0 0 
2417000000.0000000000 0.156429022550582913497763115629 -0.072376452386379241943359375000 0.000439589523011818473965245380 0.001369830104522407054901123047 0 0 0 0 
2417166666.6666665077 0.156224638223648099044638115629 -0.073587283492088317871093750000 0.000426763202995061874389648438 0.001285526202991605021833110278 0 0 0 0 
2417333333.3333334923 0.156008929014205904861611884371 -0.074702851474285125732421875000 0.000371878879377618377834874286 0.001305989339016377925872802734 0 0 0 0 
2417500000.0000000000 0.155902564525604303558026231258 -0.075932733714580535888671875000 0.000405762955779209678799229755 0.001203465741127728982212685693 0 0 0 0 
2417666666.6666665077 0.155960053205490112304687500000 -0.076815903186798095703125000000 0.000262785266386344974667149677 0.001180768595077096982243203271 0 0 0 0 
2417833333.3333334923 0.155643031001091003417968750000 -0.077898204326629638671875000000 0.000025225721401511691510677338 0.001197990146465599970576620947 0 0 0 0 
2418000000.0000000000 0.155569598078727694412393134371 -0.079005330801010131835937500000 0.000064795669459272176027297974 0.001324580749496818022487021338 0 0 0 0 
2418166666.6666665077 0.155557394027709988693075615629 -0.079610034823417663574218750000 0.000035714987461687996983528137 0.001364280818961560943006205981 0 0 0 0 
2418333333.3333334923 0.155583068728446988204794365629 -0.080497018992900848388671875000 -0.000041831874113995581865310669 0.001245981897227466106414794922 0 0 0 0 
2418500000.0000000000 0.155515938997268704513388115629 -0.081218890845775604248046875000 0.000075646421464625746011734009 0.001226894673891365961787558447 0 0 0 0 
2418666666.6666665077 0.155560702085494995117187500000 -0.082040429115295410156250000000 0.000032024927349993959069252014 0.001308666658587753989576030200 0 0 0 0 
2418833333.3333334923 0.155304238200187710861044365629 -0.082866795361042022705078125000 -0.000093889160780236124992370605 0.001170843141153454997419047778 0 0 0 0 
2419000000.0000000000 0.155036836862564086914062500000 -0.083415880799293518066406250000 -0.000068066947278566658496856689 0.001265246421098709106445312500 0 0 0 0 
2419166666.6666665077 0.155018910765647888183593750000 -0.084084428846836090087890625000 -0.000019666882508317939937114716 0.001348660560324788093566894531 0 0 0 0 
2419333333.3333334923 0.154939129948616000076455634371 -0.084298916161060333251953125000 -0.000137951923534274101257324219 0.001366110169328748962999653394 0 0 0 0 
2419500000.0000000000 0.154754772782325689117755018742 -0.085134260356426239013671875000 -0.000333162141032517010539454327 0.001331110135652125098584819263 0 0 0 0 
2419666666.6666665077 0.154637947678566006759481865629 -0.085606254637241363525390625000 -0.000269989977823570424884241925 0.001327361096628010056139301831 0 0 0 0 
2419833333.3333334923 0.154471769928932189941406250000 -0.085963897407054901123046875000 -0.000341583945555612390667515887 0.001366755459457636096357036060 0 0 0 0 
