# Version 1.00
#
freq[Hz];re:Trc1_S11;im:Trc1_S11;re:Trc2_S21;im:Trc2_S21;
2.400000000000000E+009;1.572825014591217E-001;6.273182481527329E-002;5.782133666798472E-004;4.824981559067965E-003;
2.400166666666667E+009;1.572312265634537E-001;6.104800850152969E-002;8.787996484898031E-004;4.676707088947296E-003;
2.400333333333334E+009;1.571826338768005E-001;5.923457071185112E-002;8.374880417250097E-004;4.656438250094652E-003;
2.400500000000000E+009;1.571044474840164E-001;5.722342804074287E-002;1.057116896845400E-003;4.779580514878035E-003;
2.400666666666667E+009;1.571217477321625E-001;5.525454133749008E-002;1.223672530613840E-003;4.679415840655565E-003;
2.400833333333334E+009;1.573886424303055E-001;5.325980484485626E-002;1.385011360980570E-003;4.696619696915150E-003;
2.401000000000000E+009;1.573653072118759E-001;5.129099264740944E-002;1.556725939735770E-003;4.555437713861466E-003;
2.401166666666667E+009;1.576525717973709E-001;4.922887310385704E-002;1.810598885640502E-003;4.522458650171757E-003;
2.401333333333334E+009;1.577455848455429E-001;4.706972092390060E-002;1.950255013071001E-003;4.466069396585226E-003;
2.401500000000000E+009;1.583059579133987E-001;4.497291520237923E-002;2.111679874360561E-003;4.287069197744131E-003;
2.401666666666667E+009;1.585487127304077E-001;4.296971857547760E-002;2.223446499556303E-003;4.327713977545500E-003;
2.401833333333334E+009;1.591512262821198E-001;4.081623256206513E-002;2.450788160786033E-003;4.319267813116312E-003;
2.402000000000000E+009;1.593888700008392E-001;3.910300508141518E-002;2.749775070697069E-003;4.212125204503536E-003;
2.402166666666667E+009;1.599702388048172E-001;3.677867725491524E-002;2.711974317207933E-003;4.137149080634117E-003;
2.402333333333334E+009;1.606200188398361E-001;3.512126952409744E-002;3.112252568826079E-003;4.001279361546040E-003;
2.402500000000000E+009;1.616020947694778E-001;3.314705565571785E-002;3.215742995962501E-003;3.797833807766438E-003;
2.402666666666667E+009;1.623523980379105E-001;3.176517412066460E-002;3.297006245702505E-003;3.605520818382502E-003;
2.402833333333334E+009;1.630304157733917E-001;2.988626435399056E-002;3.412925871089101E-003;3.491163486614823E-003;
2.403000000000000E+009;1.638623476028442E-001;2.828455343842506E-002;3.607905935496092E-003;3.401880618184805E-003;
2.403166666666667E+009;1.648408025503159E-001;2.678658813238144E-002;3.816258627921343E-003;3.329560393467546E-003;
2.403333333333334E+009;1.655777692794800E-001;2.529548108577728E-002;3.980160690844059E-003;3.034531604498625E-003;
2.403500000000000E+009;1.665917485952377E-001;2.384557761251926E-002;4.134923219680786E-003;2.763470169156790E-003;
2.403666666666667E+009;1.675276756286621E-001;2.254284545779228E-002;4.252634011209011E-003;2.646731678396463E-003;
2.403833333333334E+009;1.687344312667847E-001;2.139390446245670E-002;4.412095528095961E-003;2.514390507712960E-003;
2.404000000000000E+009;1.695491224527359E-001;2.027511410415173E-002;4.276148043572903E-003;2.290457487106323E-003;
2.404166666666667E+009;1.705840378999710E-001;1.938592456281185E-002;4.395880270749331E-003;1.964387483894825E-003;
2.404333333333334E+009;1.715317219495773E-001;1.823756843805313E-002;4.561898298561573E-003;1.853236928582192E-003;
2.404500000000000E+009;1.725042313337326E-001;1.711389049887657E-002;4.624517168849707E-003;1.595337991602719E-003;
2.404666666666667E+009;1.733781248331070E-001;1.658799313008785E-002;4.714966285973787E-003;1.235310453921557E-003;
2.404833333333334E+009;1.742454469203949E-001;1.577165536582470E-002;4.763133358210325E-003;1.168439630419016E-003;
2.405000000000000E+009;1.751486957073212E-001;1.513676904141903E-002;4.689148627221584E-003;7.888099062256515E-004;
2.405166666666667E+009;1.760415583848953E-001;1.447829045355320E-002;4.758125171065331E-003;5.636666901409626E-004;
2.405333333333334E+009;1.768577545881271E-001;1.389990746974945E-002;4.516620188951492E-003;2.866861759684980E-004;
2.405500000000000E+009;1.774375289678574E-001;1.357632316648960E-002;4.643349442631006E-003;2.344486565561965E-004;
2.405666666666667E+009;1.781380623579025E-001;1.321222912520170E-002;4.603439942002296E-003;4.253079168847762E-005;
2.405833333333334E+009;1.786759048700333E-001;1.289616338908672E-002;4.496943671256304E-003;-1.084656687453389E-004;
2.406000000000000E+009;1.791965067386627E-001;1.237831357866526E-002;4.291964694857597E-003;-3.613705630414188E-004;
2.406166666666667E+009;1.795139908790588E-001;1.214307546615601E-002;4.375820048153400E-003;-5.317869945429266E-004;
2.406333333333334E+009;1.800115555524826E-001;1.191736198961735E-002;4.123215563595295E-003;-7.564371917396784E-004;
2.406500000000000E+009;1.802421957254410E-001;1.161486469209194E-002;4.045832902193070E-003;-7.836355362087488E-004;
2.406666666666667E+009;1.802305728197098E-001;1.138154324144125E-002;3.908460494130850E-003;-9.778564563021064E-004;
2.406833333333334E+009;1.803367286920548E-001;1.089381054043770E-002;3.928689286112785E-003;-1.063270960003138E-003;
2.407000000000000E+009;1.806526482105255E-001;1.057645399123430E-002;3.842245321720839E-003;-1.172545249573886E-003;
2.407166666666667E+009;1.806345432996750E-001;1.037635467946529E-002;3.661168972030282E-003;-1.142189023084939E-003;
2.407333333333334E+009;1.804266422986984E-001;9.933053515851498E-003;3.523686900734901E-003;-1.466108835302293E-003;
2.407500000000000E+009;1.802646666765213E-001;9.468137286603451E-003;3.548488253727555E-003;-1.576348091475666E-003;
2.407666666666667E+009;1.798681318759918E-001;9.065671823918819E-003;3.392455633729696E-003;-1.589881605468690E-003;
2.407833333333334E+009;1.794359236955643E-001;8.318580687046051E-003;3.466134658083320E-003;-1.650399994105101E-003;
2.408000000000000E+009;1.790518015623093E-001;7.725180126726627E-003;3.247457789257169E-003;-1.876938273198903E-003;
2.408166666666667E+009;1.785728037357330E-001;7.130676880478859E-003;3.185889218002558E-003;-1.769681926816702E-003;
2.408333333333334E+009;1.782984435558319E-001;6.339117884635925E-003;3.062362549826503E-003;-1.869741012342274E-003;
2.408500000000000E+009;1.777218729257584E-001;5.595926661044359E-003;2.955518895760179E-003;-1.947548356838524E-003;
2.408666666666667E+009;1.770493537187576E-001;4.595468286424875E-003;2.800688380375505E-003;-1.925461110658944E-003;
2.408833333333334E+009;1.763339936733246E-001;3.533512586727738E-003;2.826000330969691E-003;-1.979334279894829E-003;
2.409000000000000E+009;1.757297366857529E-001;2.563380636274815E-003;2.718545729294419E-003;-2.049343660473824E-003;
2.409166666666667E+009;1.749801486730576E-001;1.227882574312389E-003;2.631369279697537E-003;-2.160094678401947E-003;
2.409333333333334E+009;1.744667738676071E-001;-6.239436333999038E-005;2.610354451462627E-003;-2.263586502522230E-003;
2.409500000000000E+009;1.735280603170395E-001;-1.551582710817456E-003;2.450115745887160E-003;-2.202345756813884E-003;
2.409666666666667E+009;1.726959198713303E-001;-2.878936473280191E-003;2.378216013312340E-003;-2.277727471664548E-003;
2.409833333333334E+009;1.720674186944962E-001;-4.198401235044003E-003;2.414074493572116E-003;-2.457250840961933E-003;
2.410000000000000E+009;1.716035306453705E-001;-5.714473780244589E-003;2.228706143796444E-003;-2.597910584881902E-003;
2.410166666666667E+009;1.709235757589340E-001;-7.547318004071713E-003;2.278597559779882E-003;-2.443224424496293E-003;
2.410333333333334E+009;1.703599393367767E-001;-9.070814587175846E-003;2.065579406917095E-003;-2.722078235819936E-003;
2.410500000000000E+009;1.698268055915833E-001;-1.091182604432106E-002;1.914710854180157E-003;-2.733835717663169E-003;
2.410666666666667E+009;1.692340970039368E-001;-1.272757165133953E-002;1.819180906750262E-003;-2.674052957445383E-003;
2.410833333333334E+009;1.689548939466476E-001;-1.441423408687115E-002;1.799720223061740E-003;-2.934979507699609E-003;
2.411000000000000E+009;1.686237305402756E-001;-1.633086241781712E-002;1.743834000080824E-003;-2.843050984665752E-003;
2.411166666666667E+009;1.683775037527084E-001;-1.838040910661221E-002;1.480036764405668E-003;-2.807560609653592E-003;
2.411333333333334E+009;1.681146919727325E-001;-2.022383362054825E-002;1.493580057285726E-003;-2.916784491389990E-003;
2.411500000000000E+009;1.678904592990875E-001;-2.217340283095837E-002;1.457363017834723E-003;-2.863933797925711E-003;
2.411666666666667E+009;1.680601537227631E-001;-2.399785071611404E-002;1.162824337370694E-003;-3.028457984328270E-003;
2.411833333333334E+009;1.678515523672104E-001;-2.600914798676968E-002;1.125214039348066E-003;-2.974843839183450E-003;
2.412000000000000E+009;1.681415885686874E-001;-2.803405746817589E-002;1.121541950851679E-003;-3.019481897354126E-003;
2.412166666666667E+009;1.681761890649796E-001;-3.013397194445133E-002;8.764106896705926E-004;-3.000915748998523E-003;
2.412333333333334E+009;1.685967296361923E-001;-3.175446018576622E-002;8.319083135575056E-004;-3.176667029038072E-003;
2.412500000000000E+009;1.688062548637390E-001;-3.375570848584175E-002;5.784255918115377E-004;-3.060252405703068E-003;
2.412666666666667E+009;1.691369414329529E-001;-3.577741980552673E-002;4.522205563262105E-004;-2.939808648079634E-003;
2.412833333333334E+009;1.695344448089600E-001;-3.739215061068535E-002;3.450568474363536E-004;-3.113846993073821E-003;
2.413000000000000E+009;1.698877960443497E-001;-3.918546065688133E-002;-9.757632142282091E-006;-2.939246594905853E-003;
2.413166666666667E+009;1.703358739614487E-001;-4.091353714466095E-002;9.564412175677717E-005;-3.065636148676276E-003;
2.413333333333334E+009;1.709810048341751E-001;-4.263461381196976E-002;-1.782430445018690E-005;-2.965926658362150E-003;
2.413500000000000E+009;1.715167313814163E-001;-4.432336986064911E-002;-2.495012886356562E-004;-2.866002498194575E-003;
2.413666666666667E+009;1.720036566257477E-001;-4.576371237635613E-002;-2.369041612837464E-004;-3.140732878819108E-003;
2.413833333333334E+009;1.725234240293503E-001;-4.713477939367294E-002;-4.114827897865325E-004;-2.905831672251225E-003;
2.414000000000000E+009;1.730282008647919E-001;-4.858509823679924E-002;-6.010041688568890E-004;-2.756471978500485E-003;
2.414166666666667E+009;1.738078445196152E-001;-4.971688613295555E-002;-7.114406325854361E-004;-2.712192246690393E-003;
2.414333333333334E+009;1.742569059133530E-001;-5.099998414516449E-002;-7.327191415242851E-004;-2.718657022342086E-003;
2.414500000000000E+009;1.749262511730194E-001;-5.209698528051376E-002;-9.176148450933397E-004;-2.565734554082155E-003;
2.414666666666667E+009;1.754421293735504E-001;-5.320018902420998E-002;-9.014105889946222E-004;-2.416436560451984E-003;
2.414833333333334E+009;1.758750975131989E-001;-5.402906611561775E-002;-1.036194968037307E-003;-2.359263598918915E-003;
2.415000000000000E+009;1.762851476669312E-001;-5.481207743287087E-002;-1.007872284390032E-003;-2.285401802510023E-003;
2.415166666666667E+009;1.767497211694717E-001;-5.561270564794540E-002;-1.181185827590525E-003;-2.067096997052431E-003;
2.415333333333334E+009;1.772452592849731E-001;-5.628042668104172E-002;-1.403696369379759E-003;-2.047374378889799E-003;
2.415500000000000E+009;1.775900572538376E-001;-5.689285323023796E-002;-1.316547044552863E-003;-1.973106060177088E-003;
2.415666666666667E+009;1.777219325304031E-001;-5.730347335338593E-002;-1.347373938187957E-003;-1.894310233183205E-003;
2.415833333333334E+009;1.779877096414566E-001;-5.780849978327751E-002;-1.398375141434372E-003;-1.595074194483459E-003;
2.416000000000000E+009;1.780068874359131E-001;-5.816693231463432E-002;-1.441560336388648E-003;-1.669334596954286E-003;
2.416166666666667E+009;1.781947910785675E-001;-5.870953202247620E-002;-1.505375374108553E-003;-1.452529220841825E-003;
2.416333333333334E+009;1.780125647783279E-001;-5.871826037764549E-002;-1.397291896864772E-003;-1.430258271284401E-003;
2.416500000000000E+009;1.779164224863052E-001;-5.918950960040093E-002;-1.564005156978965E-003;-1.389402314089239E-003;
2.416666666666667E+009;1.776849627494812E-001;-5.936948210000992E-002;-1.509615918621421E-003;-1.157473307102919E-003;
2.416833333333334E+009;1.774625629186630E-001;-5.966700240969658E-002;-1.242592930793762E-003;-1.206998829729855E-003;
2.417000000000000E+009;1.769457906484604E-001;-5.989525839686394E-002;-1.481373677961528E-003;-1.003523706458509E-003;
2.417166666666667E+009;1.765263825654984E-001;-6.010549515485764E-002;-1.362937851808965E-003;-9.018792770802975E-004;
2.417333333333334E+009;1.758940368890762E-001;-6.014012917876244E-002;-1.299948780797422E-003;-8.833574829623103E-004;
2.417500000000000E+009;1.753591150045395E-001;-6.076573207974434E-002;-1.274078502319753E-003;-7.342610042542219E-004;
2.417666666666667E+009;1.745947599411011E-001;-6.089651584625244E-002;-1.313079963438213E-003;-5.964494775980711E-004;
2.417833333333334E+009;1.737109571695328E-001;-6.093114614486694E-002;-1.223011175170541E-003;-6.751251057721674E-004;
2.418000000000000E+009;1.727742850780487E-001;-6.148940324783325E-002;-1.153904944658279E-003;-6.703834515064955E-004;
2.418166666666667E+009;1.719533354043961E-001;-6.164731085300446E-002;-1.188519410789013E-003;-5.940513219684362E-004;
2.418333333333334E+009;1.711016595363617E-001;-6.214906647801399E-002;-1.115599297918379E-003;-6.244881078600884E-004;
2.418500000000000E+009;1.698552966117859E-001;-6.253031641244888E-002;-1.080709160305560E-003;-4.620059917215258E-004;
2.418666666666667E+009;1.688539683818817E-001;-6.321061402559280E-002;-9.662004304118455E-004;-4.586938011925668E-004;
2.418833333333334E+009;1.676135361194611E-001;-6.376952677965164E-002;-9.173149592243135E-004;-3.884829056914896E-004;
2.419000000000000E+009;1.663392484188080E-001;-6.431674957275391E-002;-6.968664820306003E-004;-2.554124221205711E-004;
2.419166666666667E+009;1.653098016977310E-001;-6.502661854028702E-002;-8.184799226000905E-004;-3.900158044416457E-004;
2.419333333333334E+009;1.639345735311508E-001;-6.569785624742508E-002;-6.746131693944335E-004;-4.021442146040499E-004;
2.419500000000000E+009;1.628459692001343E-001;-6.678467988967896E-002;-6.264413241297007E-004;-4.165734571870416E-004;
2.419666666666667E+009;1.617513597011566E-001;-6.767226010560989E-002;-4.735517431981862E-004;-4.548186552710831E-004;
2.419833333333334E+009;1.603084802627564E-001;-6.859046965837479E-002;-4.990479210391641E-004;-4.070800496265292E-004;
2.420000000000000E+009;1.593546718358994E-001;-6.969098001718521E-002;-4.498320340644568E-004;-2.200544549850747E-004;
2.420166666666667E+009;1.581873297691345E-001;-7.086701691150665E-002;-4.074742028024048E-004;-4.557996580842882E-004;
2.420333333333334E+009;1.571768969297409E-001;-7.208073884248734E-002;-3.943811461795121E-004;-4.785654309671372E-004;
2.420500000000000E+009;1.561473011970520E-001;-7.322412729263306E-002;-2.156340196961537E-004;-4.740649601444602E-004;
2.420666666666667E+009;1.551063805818558E-001;-7.456021755933762E-002;-3.284076810814440E-004;-7.077563786879182E-004;
2.420833333333334E+009;1.544310003519058E-001;-7.600411027669907E-002;-2.331291907466948E-004;-5.579829448834062E-004;
2.421000000000000E+009;1.536114513874054E-001;-7.753212749958038E-002;-2.268094831379131E-004;-7.012210553511977E-004;
2.421166666666667E+009;1.528757959604263E-001;-7.909256964921951E-002;-3.725067945197225E-004;-8.825337281450629E-004;
2.421333333333334E+009;1.522152721881867E-001;-8.070320636034012E-002;-1.924160460475832E-004;-8.077084203250706E-004;
2.421500000000000E+009;1.516279876232147E-001;-8.220886439085007E-002;-1.897314505185932E-004;-1.050288090482354E-003;
2.421666666666667E+009;1.512435078620911E-001;-8.398952335119247E-002;-2.061481354758143E-004;-9.308683220297098E-004;
2.421833333333334E+009;1.507999449968338E-001;-8.549556136131287E-002;-2.677759039215744E-004;-1.078770495951176E-003;
2.422000000000000E+009;1.503105312585831E-001;-8.718873560428619E-002;-3.274470509495586E-004;-1.116469618864358E-003;
2.422166666666667E+009;1.501280218362808E-001;-8.892021328210831E-002;-3.163727524224669E-004;-1.277693198062480E-003;
2.422333333333334E+009;1.500465422868729E-001;-9.065186232328415E-002;-4.265450115781277E-004;-1.237713382579386E-003;
2.422500000000000E+009;1.498942226171494E-001;-9.216243028640747E-002;-6.430083303712308E-004;-1.355256186798215E-003;
2.422666666666667E+009;1.499640196561813E-001;-9.394064545631409E-002;-4.456776077859104E-004;-1.415424514561892E-003;
2.422833333333334E+009;1.500746905803680E-001;-9.573680162429810E-002;-5.300824996083975E-004;-1.494229421950877E-003;
2.423000000000000E+009;1.501654237508774E-001;-9.736178815364838E-002;-8.708799723535776E-004;-1.686870818957686E-003;
2.423166666666667E+009;1.505715548992157E-001;-9.887501597404480E-002;-8.070157491602004E-004;-1.569314859807491E-003;
2.423333333333334E+009;1.508092284202576E-001;-1.002877131104469E-001;-8.604615577496588E-004;-1.564704813063145E-003;
2.423500000000000E+009;1.511301398277283E-001;-1.018985733389854E-001;-1.089095836505294E-003;-1.649645739234984E-003;
2.423666666666667E+009;1.513135284185410E-001;-1.034650206565857E-001;-1.148207811638713E-003;-1.576538663357496E-003;
2.423833333333334E+009;1.520444154739380E-001;-1.049432232975960E-001;-1.147951348684728E-003;-1.473506330512464E-003;
2.424000000000000E+009;1.522268503904343E-001;-1.061009988188744E-001;-1.487467787228525E-003;-1.517567085102201E-003;
2.424166666666667E+009;1.527250111103058E-001;-1.072954386472702E-001;-1.570255961269140E-003;-1.533152651973069E-003;
2.424333333333334E+009;1.532664299011231E-001;-1.086094379425049E-001;-1.476166769862175E-003;-1.499732374213636E-003;
2.424500000000000E+009;1.537142992019653E-001;-1.097494438290596E-001;-1.832986134104431E-003;-1.473620533943176E-003;
2.424666666666667E+009;1.543138623237610E-001;-1.105387955904007E-001;-1.864517573267222E-003;-1.405787304975092E-003;
2.424833333333334E+009;1.545592695474625E-001;-1.116495579481125E-001;-1.963756047189236E-003;-1.430345815606415E-003;
2.425000000000000E+009;1.550188362598419E-001;-1.125959157943726E-001;-2.144211670383811E-003;-1.160041079856455E-003;
2.425166666666667E+009;1.552244722843170E-001;-1.133972927927971E-001;-2.017730614170432E-003;-1.033368171192706E-003;
2.425333333333334E+009;1.557927727699280E-001;-1.139989942312241E-001;-2.023549517616630E-003;-1.146749476902187E-003;
2.425500000000000E+009;1.561950445175171E-001;-1.147543415427208E-001;-2.361288527026773E-003;-1.023963326588273E-003;
2.425666666666667E+009;1.563681066036224E-001;-1.153679937124252E-001;-2.153173321858048E-003;-9.263221872970462E-004;
2.425833333333334E+009;1.565535515546799E-001;-1.158008053898811E-001;-2.302646869793534E-003;-7.134597981348634E-004;
2.426000000000000E+009;1.565856784582138E-001;-1.163756400346756E-001;-2.299808198586106E-003;-6.995802395977080E-004;
2.426166666666667E+009;1.570004373788834E-001;-1.167250871658325E-001;-2.191378967836499E-003;-5.755731835961342E-004;
2.426333333333334E+009;1.568462997674942E-001;-1.169673204421997E-001;-2.363396808505058E-003;-4.614988865796477E-004;
2.426500000000000E+009;1.568524390459061E-001;-1.172026246786118E-001;-2.399688819423318E-003;-3.922966134268791E-004;
2.426666666666667E+009;1.568462550640106E-001;-1.172944158315659E-001;-2.373463707044721E-003;-1.560033415444195E-004;
2.426833333333334E+009;1.565271466970444E-001;-1.175894141197205E-001;-2.456377958878875E-003;-1.468078698962927E-004;
2.427000000000000E+009;1.561200767755508E-001;-1.177805960178375E-001;-2.387050306424499E-003;-1.650463673286140E-005;
2.427166666666667E+009;1.556863039731979E-001;-1.178004965186119E-001;-2.408724976703525E-003;1.059489586623386E-004;
2.427333333333334E+009;1.551644653081894E-001;-1.179539710283279E-001;-2.355800941586494E-003;2.251526020700112E-004;
2.427500000000000E+009;1.546358168125153E-001;-1.180230826139450E-001;-2.382807200774550E-003;2.944507577922195E-004;
2.427666666666667E+009;1.539321839809418E-001;-1.183515489101410E-001;-2.312002936378121E-003;2.844065311364830E-004;
