# Version 1.00
#
freq[Hz];re:Trc1_S11;im:Trc1_S11;re:Trc2_S21;im:Trc2_S21;
2.400000000000000E+009;1.684413552284241E-001;4.085882008075714E-002;1.651775790378451E-003;1.530418172478676E-003;
2.400166666666667E+009;1.691618859767914E-001;4.034785926342011E-002;1.671736943535507E-003;1.581679098308086E-003;
2.400333333333334E+009;1.694236397743225E-001;3.931111097335815E-002;1.793415751308203E-003;1.631057821214199E-003;
2.400500000000000E+009;1.699974983930588E-001;3.855142742395401E-002;1.690139644779265E-003;1.538909506052733E-003;
2.400666666666667E+009;1.702174991369247E-001;3.756705671548843E-002;1.640195609070361E-003;1.551994821056724E-003;
2.400833333333334E+009;1.707528084516525E-001;3.692821040749550E-002;1.777293044142425E-003;1.553461654111743E-003;
2.401000000000000E+009;1.709535121917725E-001;3.599125146865845E-002;1.817743876017630E-003;1.610882929526269E-003;
2.401166666666667E+009;1.713496446609497E-001;3.508437797427177E-002;1.840144977904856E-003;1.721950131468475E-003;
2.401333333333334E+009;1.713677793741226E-001;3.426760062575340E-002;1.896568690426648E-003;1.629742211662233E-003;
2.401500000000000E+009;1.718241572380066E-001;3.336868807673454E-002;1.941184978932142E-003;1.732578151859343E-003;
2.401666666666667E+009;1.718291193246841E-001;3.265656903386116E-002;1.975635997951031E-003;1.536937546916306E-003;
2.401833333333334E+009;1.718375682830811E-001;3.182111680507660E-002;2.235892694443464E-003;1.591644831933081E-003;
2.402000000000000E+009;1.717479526996613E-001;3.110154718160629E-002;2.361733233556151E-003;1.487098284997046E-003;
2.402166666666667E+009;1.719309389591217E-001;3.008282184600830E-002;2.400200581178069E-003;1.449418836273253E-003;
2.402333333333334E+009;1.715800464153290E-001;2.914932183921337E-002;2.633968368172646E-003;1.307313679717481E-003;
2.402500000000000E+009;1.720206588506699E-001;2.833493985235691E-002;2.517183311283588E-003;1.384926727041602E-003;
2.402666666666667E+009;1.716740429401398E-001;2.735533937811852E-002;2.569513162598014E-003;1.107430667616427E-003;
2.402833333333334E+009;1.716808825731278E-001;2.628764882683754E-002;2.646352164447308E-003;9.250313742086291E-004;
2.403000000000000E+009;1.715494543313980E-001;2.535396441817284E-002;2.752961590886116E-003;7.926439866423607E-004;
2.403166666666667E+009;1.715698987245560E-001;2.418256178498268E-002;2.831349615007639E-003;7.367773214355111E-004;
2.403333333333334E+009;1.712564229965210E-001;2.321028523147106E-002;2.608606591820717E-003;6.921556778252125E-004;
2.403500000000000E+009;1.710109561681747E-001;2.194815874099731E-002;2.675553550943732E-003;3.067687212023884E-004;
2.403666666666667E+009;1.708308905363083E-001;2.065605297684670E-002;2.649601083248854E-003;2.614053955767304E-004;
2.403833333333334E+009;1.709797829389572E-001;1.940900646150112E-002;2.431919332593679E-003;2.599956642370671E-004;
2.404000000000000E+009;1.706488728523254E-001;1.810698956251144E-002;2.541579538956285E-003;2.516669919714332E-004;
2.404166666666667E+009;1.704815328121185E-001;1.678173616528511E-002;2.419514348730445E-003;4.446160528459586E-005;
2.404333333333334E+009;1.703201532363892E-001;1.534693874418736E-002;2.547773299738765E-003;2.538724402256776E-006;
2.404500000000000E+009;1.701048165559769E-001;1.390307676047087E-002;2.207100391387940E-003;-6.357286474667490E-005;
2.404666666666667E+009;1.701133400201798E-001;1.254102587699890E-002;2.317113336175680E-003;1.177344092866406E-004;
2.404833333333334E+009;1.699650287628174E-001;1.112289447337389E-002;2.238515764474869E-003;-9.065077756531537E-005;
2.405000000000000E+009;1.698163896799088E-001;9.670898318290710E-003;2.179286209866405E-003;-7.396752334898338E-005;
2.405166666666667E+009;1.698471456766129E-001;8.073872886598110E-003;2.294666133821011E-003;7.550243026344106E-005;
2.405333333333334E+009;1.699839383363724E-001;6.385891232639551E-003;2.077548531815410E-003;-1.466209232603433E-005;
2.405500000000000E+009;1.696679741144180E-001;4.828672856092453E-003;2.194338710978627E-003;3.302146433270536E-005;
2.405666666666667E+009;1.697233319282532E-001;3.350436687469482E-003;2.359450329095125E-003;8.992863149615005E-005;
2.405833333333334E+009;1.694834381341934E-001;1.747250906191766E-003;2.340255538001657E-003;-1.603778218850493E-004;
2.406000000000000E+009;1.695988625288010E-001;-2.536631654947996E-005;2.462227363139391E-003;-1.049976053764112E-004;
2.406166666666667E+009;1.693714112043381E-001;-1.458097831346095E-003;2.391125541180372E-003;-4.356223598733777E-006;
2.406333333333334E+009;1.694307625293732E-001;-3.267244435846806E-003;2.470226725563407E-003;-3.904835102730431E-005;
2.406500000000000E+009;1.692555099725723E-001;-4.918438382446766E-003;2.544912975281477E-003;-1.220378835569136E-004;
2.406666666666667E+009;1.690439432859421E-001;-6.478559691458941E-003;2.662350889295340E-003;-3.239943762309849E-004;
2.406833333333334E+009;1.689986586570740E-001;-8.136201649904251E-003;2.556661842390895E-003;-3.888523788191378E-004;
2.407000000000000E+009;1.688462346792221E-001;-9.602312929928303E-003;2.699727192521095E-003;-4.018735489808023E-004;
2.407166666666667E+009;1.688068211078644E-001;-1.096597779542208E-002;2.751556457951665E-003;-4.376951546873897E-004;
2.407333333333334E+009;1.686305105686188E-001;-1.248880941420794E-002;2.862865338101983E-003;-4.064464010298252E-004;
2.407500000000000E+009;1.685212552547455E-001;-1.371615566313267E-002;2.983659505844116E-003;-5.846684798598290E-004;
2.407666666666667E+009;1.684383302927017E-001;-1.500387676060200E-002;3.078310750424862E-003;-8.157427655532956E-004;
2.407833333333334E+009;1.682244241237640E-001;-1.618075370788574E-002;2.932734787464142E-003;-8.443965925835073E-004;
2.408000000000000E+009;1.682065427303314E-001;-1.740722171962261E-002;3.035565372556448E-003;-1.006787642836571E-003;
2.408166666666667E+009;1.680710613727570E-001;-1.820071041584015E-002;2.979572163894773E-003;-1.209662179462612E-003;
2.408333333333334E+009;1.683104336261749E-001;-1.929367147386074E-002;3.068107180297375E-003;-1.303301192820072E-003;
2.408500000000000E+009;1.683530956506729E-001;-2.035233750939369E-002;3.045507473871112E-003;-1.533212489448488E-003;
2.408666666666667E+009;1.684597283601761E-001;-2.129349857568741E-002;2.990180626511574E-003;-1.726871822029352E-003;
2.408833333333334E+009;1.683948636054993E-001;-2.209994755685329E-002;2.902582986280322E-003;-1.850537257269025E-003;
2.409000000000000E+009;1.686069369316101E-001;-2.284564822912216E-002;2.784292446449399E-003;-2.053966745734215E-003;
2.409166666666667E+009;1.687492728233337E-001;-2.375186793506146E-002;2.761816140264273E-003;-2.057214733213186E-003;
2.409333333333334E+009;1.691554933786392E-001;-2.462454326450825E-002;2.758996561169624E-003;-2.350324997678399E-003;
2.409500000000000E+009;1.693397313356400E-001;-2.555934153497219E-002;2.592379460111260E-003;-2.523476257920265E-003;
2.409666666666667E+009;1.693048030138016E-001;-2.630685642361641E-002;2.511946950107813E-003;-2.411071909591556E-003;
2.409833333333334E+009;1.694447100162506E-001;-2.709268592298031E-002;2.358122263103724E-003;-2.576390514150262E-003;
2.410000000000000E+009;1.696380376815796E-001;-2.798958308994770E-002;2.306367270648480E-003;-2.544172573834658E-003;
2.410166666666667E+009;1.698147505521774E-001;-2.885669469833374E-002;2.201563911512494E-003;-2.739474410191178E-003;
2.410333333333334E+009;1.697497367858887E-001;-2.977781370282173E-002;2.170698717236519E-003;-2.818665234372020E-003;
2.410500000000000E+009;1.698848307132721E-001;-3.064143098890781E-002;2.042775973677635E-003;-2.936337143182755E-003;
2.410666666666667E+009;1.698292791843414E-001;-3.162956610321999E-002;1.941420836374164E-003;-3.093885025009513E-003;
2.410833333333334E+009;1.698117852210999E-001;-3.233459591865540E-002;1.904346398077905E-003;-3.138921456411481E-003;
2.411000000000000E+009;1.696110963821411E-001;-3.323994576931000E-002;1.707356190308929E-003;-3.265320556238294E-003;
2.411166666666667E+009;1.695995926856995E-001;-3.401935845613480E-002;1.565238926559687E-003;-3.332338528707624E-003;
2.411333333333334E+009;1.692052781581879E-001;-3.464435413479805E-002;1.487885019741952E-003;-3.512030933052301E-003;
2.411500000000000E+009;1.689866334199905E-001;-3.579062968492508E-002;1.229080487973988E-003;-3.586990758776665E-003;
2.411666666666667E+009;1.690855622291565E-001;-3.653285652399063E-002;1.341621042229235E-003;-3.736234968528152E-003;
2.411833333333334E+009;1.687305271625519E-001;-3.751942887902260E-002;1.056152046658099E-003;-3.617185633629561E-003;
2.412000000000000E+009;1.683045029640198E-001;-3.841558098793030E-002;8.160228026099503E-004;-3.769472474232316E-003;
2.412166666666667E+009;1.681486368179321E-001;-3.921180218458176E-002;6.228239508345723E-004;-3.926771692931652E-003;
2.412333333333334E+009;1.679785847663879E-001;-4.018208757042885E-002;5.344153032638133E-004;-3.952450584620237E-003;
2.412500000000000E+009;1.673571020364761E-001;-4.092857986688614E-002;3.339584509376437E-004;-3.857638221234083E-003;
2.412666666666667E+009;1.668887287378311E-001;-4.206671938300133E-002;6.741838296875358E-005;-3.865604288876057E-003;
2.412833333333334E+009;1.666064411401749E-001;-4.278230667114258E-002;-1.315616973442957E-004;-3.711926285177469E-003;
2.413000000000000E+009;1.662212908267975E-001;-4.385665431618691E-002;-2.900093677453697E-004;-3.822591388598084E-003;
2.413166666666667E+009;1.654908210039139E-001;-4.493384063243866E-002;-5.222043837420642E-004;-3.993772901594639E-003;
2.413333333333334E+009;1.649384796619415E-001;-4.589354991912842E-002;-7.606588187627494E-004;-3.714542370289564E-003;
2.413500000000000E+009;1.646285057067871E-001;-4.700759053230286E-002;-8.558605331927538E-004;-3.594422247260809E-003;
2.413666666666667E+009;1.640058755874634E-001;-4.792647808790207E-002;-1.202939427457750E-003;-3.631518920883536E-003;
2.413833333333334E+009;1.634195595979691E-001;-4.890973120927811E-002;-1.249865163117647E-003;-3.396090585738421E-003;
2.414000000000000E+009;1.628292649984360E-001;-5.002152174711227E-002;-1.432240707799792E-003;-3.286232706159353E-003;
2.414166666666667E+009;1.623996347188950E-001;-5.092905834317207E-002;-1.444557332433760E-003;-3.164167981594801E-003;
2.414333333333334E+009;1.620724350214005E-001;-5.185191705822945E-002;-1.510946894995868E-003;-2.893950091674924E-003;
2.414500000000000E+009;1.616326719522476E-001;-5.281906202435494E-002;-1.743144704960287E-003;-2.704738639295101E-003;
2.414666666666667E+009;1.613811850547791E-001;-5.392536893486977E-002;-1.841043587774038E-003;-2.757544396445155E-003;
2.414833333333334E+009;1.608977466821671E-001;-5.482465401291847E-002;-2.049000235274434E-003;-2.575969789177179E-003;
2.415000000000000E+009;1.606301963329315E-001;-5.588653683662415E-002;-2.025678753852844E-003;-2.368416637182236E-003;
2.415166666666667E+009;1.603720933198929E-001;-5.704298987984657E-002;-2.098685363307595E-003;-2.246092772111297E-003;
2.415333333333334E+009;1.602809876203537E-001;-5.823344364762306E-002;-2.082224702462554E-003;-2.180831739678979E-003;
2.415500000000000E+009;1.600201725959778E-001;-5.928483232855797E-002;-2.031064825132489E-003;-2.129221335053444E-003;
2.415666666666667E+009;1.598749011754990E-001;-6.066268682479858E-002;-1.922219875268638E-003;-1.909161568619311E-003;
2.415833333333334E+009;1.596919596195221E-001;-6.175795942544937E-002;-2.051757415756583E-003;-1.789625268429518E-003;
2.416000000000000E+009;1.593488752841950E-001;-6.311790645122528E-002;-2.031967509537935E-003;-1.795391086488962E-003;
2.416166666666667E+009;1.593630015850067E-001;-6.433534622192383E-002;-1.966207986697555E-003;-1.552080502733588E-003;
2.416333333333334E+009;1.591099798679352E-001;-6.558179855346680E-002;-2.025438239797950E-003;-1.470725983381271E-003;
2.416500000000000E+009;1.588062047958374E-001;-6.692736595869064E-002;-1.820250297896564E-003;-1.331054721958935E-003;
2.416666666666667E+009;1.585460603237152E-001;-6.797645986080170E-002;-1.750333001837134E-003;-1.335920765995979E-003;
2.416833333333334E+009;1.583271324634552E-001;-6.937810778617859E-002;-1.667040865868330E-003;-9.988832753151655E-004;
2.417000000000000E+009;1.578118652105331E-001;-7.053987681865692E-002;-1.558081712573767E-003;-1.008650870062411E-003;
2.417166666666667E+009;1.576304435729981E-001;-7.168171554803848E-002;-1.579102361574769E-003;-1.000494812615216E-003;
2.417333333333334E+009;1.573882102966309E-001;-7.266233861446381E-002;-1.495120464824140E-003;-1.261684345081449E-003;
2.417500000000000E+009;1.569714397192001E-001;-7.392507046461105E-002;-1.424781046807766E-003;-1.037876703776419E-003;
2.417666666666667E+009;1.568333804607391E-001;-7.476282119750977E-002;-1.183369779027998E-003;-1.040420378558338E-003;
2.417833333333334E+009;1.565796583890915E-001;-7.556758821010590E-002;-1.346462522633374E-003;-1.128974254243076E-003;
2.418000000000000E+009;1.562720537185669E-001;-7.663016021251679E-002;-1.310112420469523E-003;-1.144589041359723E-003;
2.418166666666667E+009;1.560046672821045E-001;-7.732626050710678E-002;-1.118564163334668E-003;-1.330464496277273E-003;
2.418333333333334E+009;1.560855507850647E-001;-7.830722630023956E-002;-1.285633887164295E-003;-1.347193145193160E-003;
2.418500000000000E+009;1.557222008705139E-001;-7.909605652093887E-002;-1.256843795999885E-003;-1.386925461702049E-003;
2.418666666666667E+009;1.556556224822998E-001;-7.990568131208420E-002;-1.245130202732980E-003;-1.550599234178662E-003;
2.418833333333334E+009;1.553083509206772E-001;-8.066167682409287E-002;-1.360024092718959E-003;-1.512352493591607E-003;
2.419000000000000E+009;1.549693942070007E-001;-8.124724030494690E-002;-1.445890869945288E-003;-1.724387053400278E-003;
2.419166666666667E+009;1.548407524824143E-001;-8.213958144187927E-002;-1.296332920901477E-003;-1.561711425893009E-003;
2.419333333333334E+009;1.544077098369598E-001;-8.263626694679260E-002;-1.308911596424878E-003;-1.702546724118292E-003;
2.419500000000000E+009;1.542277038097382E-001;-8.341392874717712E-002;-1.453797332942486E-003;-1.752521144226193E-003;
2.419666666666667E+009;1.539478600025177E-001;-8.404981344938278E-002;-1.590809435583651E-003;-1.820927252992988E-003;
2.419833333333334E+009;1.535069197416306E-001;-8.447130024433136E-002;-1.802346669137478E-003;-1.874826382845640E-003;
2.420000000000000E+009;1.533861011266708E-001;-8.507677167654038E-002;-2.041961997747421E-003;-2.027332084253430E-003;
2.420166666666667E+009;1.530082523822784E-001;-8.572336286306381E-002;-1.950652920641005E-003;-1.989806303754449E-003;
2.420333333333334E+009;1.526858806610107E-001;-8.621907979249954E-002;-2.057992154732347E-003;-1.883812597952783E-003;
2.420500000000000E+009;1.525417417287827E-001;-8.650808036327362E-002;-2.285697031766176E-003;-2.103008562698960E-003;
2.420666666666667E+009;1.519259363412857E-001;-8.718934655189514E-002;-2.574063604697585E-003;-1.904369099065661E-003;
2.420833333333334E+009;1.516654342412949E-001;-8.775752782821655E-002;-2.721090801060200E-003;-2.001118380576372E-003;
2.421000000000000E+009;1.512671709060669E-001;-8.842018246650696E-002;-2.987651852890849E-003;-1.789693837054074E-003;
2.421166666666667E+009;1.509286016225815E-001;-8.894687891006470E-002;-3.211534349247813E-003;-1.675002858974040E-003;
2.421333333333334E+009;1.503963917493820E-001;-8.953294157981873E-002;-3.300862386822701E-003;-1.645281794480979E-003;
2.421500000000000E+009;1.499532610177994E-001;-9.010469913482666E-002;-3.511780174449086E-003;-1.386334071867168E-003;
2.421666666666667E+009;1.494312286376953E-001;-9.096948802471161E-002;-3.619707655161619E-003;-1.218388439156115E-003;
2.421833333333334E+009;1.490024626255035E-001;-9.142047166824341E-002;-3.742447122931480E-003;-1.020438619889319E-003;
2.422000000000000E+009;1.482695043087006E-001;-9.201468527317047E-002;-3.940866794437170E-003;-7.465136586688459E-004;
2.422166666666667E+009;1.474726796150208E-001;-9.292438626289368E-002;-3.925411496311426E-003;-7.837507291696966E-004;
2.422333333333334E+009;1.469831913709641E-001;-9.360137581825256E-002;-4.081257153302431E-003;-4.047784314025194E-004;
2.422500000000000E+009;1.463705748319626E-001;-9.418719261884689E-002;-4.280162975192070E-003;-1.488096750108525E-004;
2.422666666666667E+009;1.454912126064301E-001;-9.516949206590653E-002;-4.155087284743786E-003;1.131727622123435E-004;
2.422833333333334E+009;1.450621634721756E-001;-9.585529565811157E-002;-4.187771584838629E-003;4.421366320457310E-004;
2.423000000000000E+009;1.441373974084854E-001;-9.665135294198990E-002;-4.024642519652844E-003;6.363455322571099E-004;
2.423166666666667E+009;1.435496658086777E-001;-9.746491163969040E-002;-4.143726080656052E-003;1.043071853928268E-003;
2.423333333333334E+009;1.428916305303574E-001;-9.828621149063110E-002;-3.965561743825674E-003;1.265559927560389E-003;
2.423500000000000E+009;1.421537101268768E-001;-9.914711117744446E-002;-3.738914616405964E-003;1.366378972306848E-003;
2.423666666666667E+009;1.412750631570816E-001;-1.002533063292503E-001;-3.643594682216644E-003;1.694888342171907E-003;
2.423833333333334E+009;1.406776309013367E-001;-1.009868904948235E-001;-3.478854428976774E-003;1.841221586801112E-003;
2.424000000000000E+009;1.398943513631821E-001;-1.019579693675041E-001;-3.334238892421126E-003;1.834174967370927E-003;
2.424166666666667E+009;1.391905546188355E-001;-1.028294041752815E-001;-3.270679619163275E-003;1.973198028281331E-003;
2.424333333333334E+009;1.385082900524139E-001;-1.038304567337036E-001;-3.001075936481357E-003;2.225215313956142E-003;
2.424500000000000E+009;1.380105465650559E-001;-1.047615259885788E-001;-2.881783526390791E-003;2.172937616705895E-003;
2.424666666666667E+009;1.373517513275147E-001;-1.056183576583862E-001;-2.753320848569274E-003;2.253288170322776E-003;
2.424833333333334E+009;1.365736275911331E-001;-1.066867336630821E-001;-2.581837121397257E-003;2.126583363860846E-003;
2.425000000000000E+009;1.359685957431793E-001;-1.076118722558022E-001;-2.596338046714664E-003;2.426345832645893E-003;
2.425166666666667E+009;1.352252960205078E-001;-1.087432131171227E-001;-2.482633804902434E-003;2.260300563648343E-003;
2.425333333333334E+009;1.347860097885132E-001;-1.097469776868820E-001;-2.279040170833468E-003;2.377362456172705E-003;
2.425500000000000E+009;1.342338621616364E-001;-1.108176484704018E-001;-2.224843017756939E-003;2.399937482550740E-003;
2.425666666666667E+009;1.335576027631760E-001;-1.117011457681656E-001;-2.100550103932619E-003;2.242691349238157E-003;
2.425833333333334E+009;1.330803036689758E-001;-1.127126812934876E-001;-2.171454951167107E-003;2.316416008397937E-003;
2.426000000000000E+009;1.325515955686569E-001;-1.139415055513382E-001;-1.937993685714901E-003;2.541092224419117E-003;
2.426166666666667E+009;1.321768611669540E-001;-1.148987337946892E-001;-1.835808623582125E-003;2.397106029093266E-003;
2.426333333333334E+009;1.316075772047043E-001;-1.158114150166512E-001;-1.819588011130691E-003;2.595652593299747E-003;
2.426500000000000E+009;1.311635524034500E-001;-1.167135611176491E-001;-1.654783962294459E-003;2.614881843328476E-003;
2.426666666666667E+009;1.309125572443008E-001;-1.175462976098061E-001;-1.558658899739385E-003;2.550353063270450E-003;
2.426833333333334E+009;1.304944008588791E-001;-1.185413822531700E-001;-1.455485005863011E-003;2.752903848886490E-003;
2.427000000000000E+009;1.300856024026871E-001;-1.194941028952599E-001;-1.266760285943747E-003;2.661665435880423E-003;
2.427166666666667E+009;1.297065913677216E-001;-1.201338917016983E-001;-1.357815461233258E-003;2.628879155963659E-003;
2.427333333333334E+009;1.293711066246033E-001;-1.209662407636643E-001;-1.247946289367974E-003;2.689814893528819E-003;
2.427500000000000E+009;1.292594075202942E-001;-1.216799020767212E-001;-1.077999826520681E-003;2.681912155821919E-003;
2.427666666666667E+009;1.288153827190399E-001;-1.224242597818375E-001;-1.118218060582876E-003;2.723234472796321E-003;
