# Version 1.00
#
freq[Hz];re:Trc1_S11;im:Trc1_S11;re:Trc2_S21;im:Trc2_S21;
2.400000000000000E+009;1.685063242912293E-001;4.082601517438889E-002;1.755459117703140E-003;1.678114873357117E-003;
2.400166666666667E+009;1.689810752868652E-001;4.016488790512085E-002;1.680772867985070E-003;1.510891481302679E-003;
2.400333333333334E+009;1.694213002920151E-001;3.927790373563767E-002;1.570257823914290E-003;1.598238712176681E-003;
2.400500000000000E+009;1.699886322021484E-001;3.857210278511047E-002;1.679826178587973E-003;1.604072982445359E-003;
2.400666666666667E+009;1.702702641487122E-001;3.751591220498085E-002;1.834713737480342E-003;1.709842472337186E-003;
2.400833333333334E+009;1.709057092666626E-001;3.675153106451035E-002;1.790488371625543E-003;1.524810562841594E-003;
2.401000000000000E+009;1.709607392549515E-001;3.611032292246819E-002;1.794082229025662E-003;1.535755349323154E-003;
2.401166666666667E+009;1.713209003210068E-001;3.499261662364006E-002;1.927465549670160E-003;1.728416071273387E-003;
2.401333333333334E+009;1.712090820074081E-001;3.428966924548149E-002;1.903136493638158E-003;1.511904411017895E-003;
2.401500000000000E+009;1.718789637088776E-001;3.337389230728149E-002;1.855676062405109E-003;1.690506585873663E-003;
2.401666666666667E+009;1.716382205486298E-001;3.271631523966789E-002;2.001557964831591E-003;1.489464542828500E-003;
2.401833333333334E+009;1.718851029872894E-001;3.171097859740257E-002;2.150238491594791E-003;1.585256541147828E-003;
2.402000000000000E+009;1.715708673000336E-001;3.109642677009106E-002;2.288458636030555E-003;1.537213684059680E-003;
2.402166666666667E+009;1.717561781406403E-001;3.013419173657894E-002;2.355102216824889E-003;1.491400296799839E-003;
2.402333333333334E+009;1.717562377452850E-001;2.916217967867851E-002;2.425947226583958E-003;1.450984505936503E-003;
2.402500000000000E+009;1.719479411840439E-001;2.825097739696503E-002;2.607950475066900E-003;1.286663464270532E-003;
2.402666666666667E+009;1.718992143869400E-001;2.739295363426209E-002;2.502537798136473E-003;1.257122610695660E-003;
2.402833333333334E+009;1.717679053544998E-001;2.621743269264698E-002;2.780416281893849E-003;1.095319050364196E-003;
2.403000000000000E+009;1.714562028646469E-001;2.527088299393654E-002;2.664248924702406E-003;7.373135304078460E-004;
2.403166666666667E+009;1.715255677700043E-001;2.417548187077045E-002;2.736341208219528E-003;7.381825707852840E-004;
2.403333333333334E+009;1.713131219148636E-001;2.292971499264240E-002;2.710175234824419E-003;6.970774265937507E-004;
2.403500000000000E+009;1.711847186088562E-001;2.182259038090706E-002;2.509702462702990E-003;3.138121683150530E-004;
2.403666666666667E+009;1.709334999322891E-001;2.061595395207405E-002;2.643060171976686E-003;2.908491296693683E-004;
2.403833333333334E+009;1.707879602909088E-001;1.931524649262428E-002;2.601633546873927E-003;1.231288915732876E-004;
2.404000000000000E+009;1.706936806440353E-001;1.815041340887547E-002;2.483696443960071E-003;-5.519399201148190E-005;
2.404166666666667E+009;1.703841537237167E-001;1.680314727127552E-002;2.483794698491693E-003;1.239467092091218E-004;
2.404333333333334E+009;1.703813523054123E-001;1.547705382108688E-002;2.463942859321833E-003;-9.970290193450637E-006;
2.404500000000000E+009;1.701716035604477E-001;1.396045088768005E-002;2.399782184511423E-003;-1.502449158579111E-004;
2.404666666666667E+009;1.700666397809982E-001;1.258978061378002E-002;2.366780536249280E-003;-1.034812794387108E-005;
2.404833333333334E+009;1.699546426534653E-001;1.097800489515066E-002;2.195248147472739E-003;-1.174079661723226E-004;
2.405000000000000E+009;1.698937118053436E-001;9.594005532562733E-003;2.173094311729074E-003;-1.419501950294944E-005;
2.405166666666667E+009;1.698244512081146E-001;8.150683715939522E-003;2.204630523920059E-003;-1.183895656140521E-004;
2.405333333333334E+009;1.698113828897476E-001;6.329636089503765E-003;2.064918167889118E-003;-9.043487079907209E-005;
2.405500000000000E+009;1.697138398885727E-001;4.724698141217232E-003;2.233744598925114E-003;5.145779869053513E-005;
2.405666666666667E+009;1.698120683431625E-001;3.279703203588724E-003;2.265640068799257E-003;-6.101058534113690E-005;
2.405833333333334E+009;1.696162670850754E-001;1.864346908405423E-003;2.201812108978629E-003;-4.353873009677045E-005;
2.406000000000000E+009;1.695699244737625E-001;-1.024597077048384E-004;2.405109349638224E-003;-1.237358901562402E-005;
2.406166666666667E+009;1.693649739027023E-001;-1.592628657817841E-003;2.555907238274813E-003;-3.878309507854283E-005;
2.406333333333334E+009;1.693573296070099E-001;-3.162854118272662E-003;2.347498200833798E-003;8.690341201145202E-005;
2.406500000000000E+009;1.692569702863693E-001;-4.927692934870720E-003;2.431132597848773E-003;-1.347902434645221E-004;
2.406666666666667E+009;1.690246611833572E-001;-6.487583275884390E-003;2.545678289607167E-003;-2.786989498417825E-004;
2.406833333333334E+009;1.689729094505310E-001;-8.147431537508965E-003;2.640835475176573E-003;-2.107457548845559E-004;
2.407000000000000E+009;1.689995825290680E-001;-9.586635045707226E-003;2.635935554280877E-003;-3.389328485354781E-004;
2.407166666666667E+009;1.688026040792465E-001;-1.100787054747343E-002;2.728656167164445E-003;-4.053793381899595E-004;
2.407333333333334E+009;1.686841398477554E-001;-1.248781289905310E-002;2.939073834568262E-003;-6.013034726493061E-004;
2.407500000000000E+009;1.684640794992447E-001;-1.371191069483757E-002;2.922127489000559E-003;-5.200511077418923E-004;
2.407666666666667E+009;1.683789044618607E-001;-1.493147294968367E-002;2.967269392684102E-003;-8.064302965067327E-004;
2.407833333333334E+009;1.682948917150497E-001;-1.617253758013248E-002;3.128119278699160E-003;-8.622868917882443E-004;
2.408000000000000E+009;1.681741327047348E-001;-1.737223379313946E-002;3.044391516596079E-003;-9.917373536154628E-004;
2.408166666666667E+009;1.681049019098282E-001;-1.825921796262264E-002;3.104073228314519E-003;-1.063299714587629E-003;
2.408333333333334E+009;1.683620065450668E-001;-1.930198259651661E-002;2.915929770097137E-003;-1.358874724246562E-003;
2.408500000000000E+009;1.683082431554794E-001;-2.034809999167919E-002;3.053327323868871E-003;-1.531793270260096E-003;
2.408666666666667E+009;1.683511584997177E-001;-2.125433832406998E-002;3.110263030976057E-003;-1.681227353401482E-003;
2.408833333333334E+009;1.684716194868088E-001;-2.204214595258236E-002;3.030832158401609E-003;-1.692561665549874E-003;
2.409000000000000E+009;1.685939133167267E-001;-2.291482873260975E-002;2.913608914241195E-003;-2.113162772729993E-003;
2.409166666666667E+009;1.689071357250214E-001;-2.373828552663326E-002;2.756397472694516E-003;-2.112009329721332E-003;
2.409333333333334E+009;1.692113131284714E-001;-2.466965466737747E-002;2.753106411546469E-003;-2.324252389371395E-003;
2.409500000000000E+009;1.692313551902771E-001;-2.572654560208321E-002;2.656580181792378E-003;-2.396441530436277E-003;
2.409666666666667E+009;1.694143563508987E-001;-2.627887576818466E-002;2.635446144267917E-003;-2.467268845066428E-003;
2.409833333333334E+009;1.694429814815521E-001;-2.713748998939991E-002;2.419173019006848E-003;-2.558398526161909E-003;
2.410000000000000E+009;1.696946918964386E-001;-2.788515202701092E-002;2.364089014008641E-003;-2.818615175783634E-003;
2.410166666666667E+009;1.698663830757141E-001;-2.882601320743561E-002;2.143241232261062E-003;-2.812439342960715E-003;
2.410333333333334E+009;1.699384003877640E-001;-2.972251363098621E-002;2.109928755089641E-003;-2.765080193057656E-003;
2.410500000000000E+009;1.698863357305527E-001;-3.057791851460934E-002;1.927138888277113E-003;-2.823843620717526E-003;
2.410666666666667E+009;1.697837263345718E-001;-3.166107460856438E-002;1.923895906656981E-003;-2.890276722609997E-003;
2.410833333333334E+009;1.696953624486923E-001;-3.229823708534241E-002;1.840656739659607E-003;-3.173285163938999E-003;
2.411000000000000E+009;1.697715520858765E-001;-3.318930417299271E-002;1.694259699434042E-003;-3.170946380123496E-003;
2.411166666666667E+009;1.696543991565704E-001;-3.413618728518486E-002;1.699091866612434E-003;-3.400560468435288E-003;
2.411333333333334E+009;1.692705154418945E-001;-3.488498181104660E-002;1.566120539791882E-003;-3.393596038222313E-003;
2.411500000000000E+009;1.691050529479981E-001;-3.574639558792114E-002;1.423666602931917E-003;-3.604540135711432E-003;
2.411666666666667E+009;1.689299643039703E-001;-3.657655417919159E-002;1.066735829226673E-003;-3.608022816479206E-003;
2.411833333333334E+009;1.687011122703552E-001;-3.731627762317658E-002;8.531985804438591E-004;-3.684744937345386E-003;
2.412000000000000E+009;1.684251874685288E-001;-3.828006982803345E-002;8.441408863291144E-004;-3.759603714570403E-003;
2.412166666666667E+009;1.680779904127121E-001;-3.934417292475700E-002;7.584958220832050E-004;-3.755327779799700E-003;
2.412333333333334E+009;1.677846312522888E-001;-4.006992280483246E-002;4.731192020699382E-004;-3.932392690330744E-003;
2.412500000000000E+009;1.672416478395462E-001;-4.088901728391647E-002;3.033328393939883E-004;-3.904604585841298E-003;
2.412666666666667E+009;1.670697629451752E-001;-4.207499325275421E-002;1.553795736981556E-004;-3.858645912259817E-003;
2.412833333333334E+009;1.665291935205460E-001;-4.304749146103859E-002;-1.279287098441273E-004;-3.807831788435578E-003;
2.413000000000000E+009;1.661441922187805E-001;-4.402051120996475E-002;-3.124545328319073E-004;-3.995249047875404E-003;
2.413166666666667E+009;1.656110882759094E-001;-4.497945308685303E-002;-4.903137451037765E-004;-3.954786807298660E-003;
2.413333333333334E+009;1.649267673492432E-001;-4.589904099702835E-002;-8.134046220220625E-004;-3.726689610630274E-003;
2.413500000000000E+009;1.645525693893433E-001;-4.695300012826920E-002;-9.707380668260157E-004;-3.545965300872922E-003;
2.413666666666667E+009;1.639618873596191E-001;-4.805942624807358E-002;-1.182650448754430E-003;-3.597026923671365E-003;
2.413833333333334E+009;1.634845882654190E-001;-4.890761896967888E-002;-1.283515826798976E-003;-3.574845613911748E-003;
2.414000000000000E+009;1.629010289907455E-001;-4.998303204774857E-002;-1.419459818862379E-003;-3.231939859688282E-003;
2.414166666666667E+009;1.624306589365006E-001;-5.081194639205933E-002;-1.620986149646342E-003;-3.186508780345321E-003;
2.414333333333334E+009;1.618387252092362E-001;-5.188028886914253E-002;-1.733405166305602E-003;-2.889583352953196E-003;
2.414500000000000E+009;1.616336554288864E-001;-5.294501781463623E-002;-1.835936214774847E-003;-2.693837741389871E-003;
2.414666666666667E+009;1.613651812076569E-001;-5.379444360733032E-002;-1.761096064001322E-003;-2.744888886809349E-003;
2.414833333333334E+009;1.609337478876114E-001;-5.489038303494453E-002;-1.970458077266812E-003;-2.659220248460770E-003;
2.415000000000000E+009;1.605742573738098E-001;-5.585258081555367E-002;-1.917224959470332E-003;-2.491830848157406E-003;
2.415166666666667E+009;1.604091525077820E-001;-5.706453695893288E-002;-1.923272968269885E-003;-2.365529537200928E-003;
2.415333333333334E+009;1.601934432983398E-001;-5.822369083762169E-002;-2.052080817520618E-003;-2.149788429960609E-003;
2.415500000000000E+009;1.600279510021210E-001;-5.939275398850441E-002;-1.991372089833021E-003;-1.982457935810089E-003;
2.415666666666667E+009;1.598531305789948E-001;-6.048613414168358E-002;-2.090214285999537E-003;-1.952756894752383E-003;
2.415833333333334E+009;1.597892343997955E-001;-6.173163652420044E-002;-2.073659095913172E-003;-1.786934444680810E-003;
2.416000000000000E+009;1.593759655952454E-001;-6.309774518013001E-002;-2.027929062023759E-003;-1.693570171482861E-003;
2.416166666666667E+009;1.593885272741318E-001;-6.426605582237244E-002;-1.942617003805935E-003;-1.377353328280151E-003;
2.416333333333334E+009;1.590090841054916E-001;-6.556547433137894E-002;-1.892687054350972E-003;-1.476452220231295E-003;
2.416500000000000E+009;1.588703095912933E-001;-6.686925143003464E-002;-1.929477555677295E-003;-1.282779267057777E-003;
2.416666666666667E+009;1.585281044244766E-001;-6.804504245519638E-002;-1.863694982603192E-003;-1.188478432595730E-003;
2.416833333333334E+009;1.583939343690872E-001;-6.937865167856216E-002;-1.731681171804667E-003;-1.251771813258529E-003;
2.417000000000000E+009;1.578470170497894E-001;-7.055471837520599E-002;-1.626793295145035E-003;-1.105769886635244E-003;
2.417166666666667E+009;1.576066315174103E-001;-7.158247381448746E-002;-1.465547247789800E-003;-1.098488457500935E-003;
2.417333333333334E+009;1.573770195245743E-001;-7.267519831657410E-002;-1.427678274922073E-003;-1.024687313474715E-003;
2.417500000000000E+009;1.570802628993988E-001;-7.384668290615082E-002;-1.499672885984182E-003;-1.011554733850062E-003;
2.417666666666667E+009;1.568478792905808E-001;-7.464276999235153E-002;-1.323222648352385E-003;-1.037049805745482E-003;
2.417833333333334E+009;1.566422432661057E-001;-7.560111582279205E-002;-1.285036560148001E-003;-1.235296367667615E-003;
2.418000000000000E+009;1.563465297222138E-001;-7.655069231987000E-002;-1.258978270925582E-003;-1.092213904485107E-003;
2.418166666666667E+009;1.559918671846390E-001;-7.721696048974991E-002;-1.236101496033371E-003;-1.174412900581956E-003;
2.418333333333334E+009;1.560007631778717E-001;-7.829461246728897E-002;-1.291984342969954E-003;-1.342459698207676E-003;
2.418500000000000E+009;1.557478457689285E-001;-7.908393442630768E-002;-1.133575220592320E-003;-1.314763678237796E-003;
2.418666666666667E+009;1.555855274200440E-001;-7.991416752338409E-002;-1.174546312540770E-003;-1.620834344066680E-003;
2.418833333333334E+009;1.553415656089783E-001;-8.075832575559616E-002;-1.102961599826813E-003;-1.439921907149255E-003;
2.419000000000000E+009;1.549648940563202E-001;-8.136786520481110E-002;-1.216477365233004E-003;-1.611432060599327E-003;
2.419166666666667E+009;1.548304110765457E-001;-8.216816931962967E-002;-1.443258370272815E-003;-1.731937518343329E-003;
2.419333333333334E+009;1.544583886861801E-001;-8.264471590518951E-002;-1.378695247694850E-003;-1.736474456265569E-003;
2.419500000000000E+009;1.541316509246826E-001;-8.346723020076752E-002;-1.508399960584939E-003;-1.941119437105954E-003;
2.419666666666667E+009;1.539186537265778E-001;-8.404672890901566E-002;-1.624215510673821E-003;-1.989413751289249E-003;
2.419833333333334E+009;1.535864621400833E-001;-8.441901206970215E-002;-1.673657912760973E-003;-1.953136874362826E-003;
2.420000000000000E+009;1.533347070217133E-001;-8.515650779008865E-002;-1.786941429600120E-003;-1.927235163748264E-003;
2.420166666666667E+009;1.529736667871475E-001;-8.560501039028168E-002;-1.928952638991177E-003;-1.928870333358645E-003;
2.420333333333334E+009;1.526888161897659E-001;-8.618410676717758E-002;-2.146330196410418E-003;-2.044159220531583E-003;
2.420500000000000E+009;1.524694263935089E-001;-8.668702095746994E-002;-2.399010350927711E-003;-1.966533716768026E-003;
2.420666666666667E+009;1.519894301891327E-001;-8.720742166042328E-002;-2.612103242427111E-003;-1.873579109087586E-003;
2.420833333333334E+009;1.516768932342529E-001;-8.783201873302460E-002;-2.881218679249287E-003;-2.001072047278285E-003;
2.421000000000000E+009;1.511450260877609E-001;-8.850090205669403E-002;-2.989910077303648E-003;-1.716828322969377E-003;
2.421166666666667E+009;1.508612781763077E-001;-8.890053629875183E-002;-3.163430141285062E-003;-1.676339306868613E-003;
2.421333333333334E+009;1.506206244230270E-001;-8.958958089351654E-002;-3.327514044940472E-003;-1.590664847753942E-003;
2.421500000000000E+009;1.498607546091080E-001;-9.013396501541138E-002;-3.371904836967588E-003;-1.313852728344500E-003;
2.421666666666667E+009;1.493056118488312E-001;-9.070549905300140E-002;-3.570656524971128E-003;-1.277633011341095E-003;
2.421833333333334E+009;1.488332599401474E-001;-9.151079505681992E-002;-3.697476582601667E-003;-1.023245160467923E-003;
2.422000000000000E+009;1.482357680797577E-001;-9.213850647211075E-002;-3.831352107226849E-003;-8.357067126780748E-004;
2.422166666666667E+009;1.476141810417175E-001;-9.291135519742966E-002;-3.977060317993164E-003;-7.123763207346201E-004;
2.422333333333334E+009;1.468868553638458E-001;-9.349559992551804E-002;-3.992884885519743E-003;-3.022163582500070E-004;
2.422500000000000E+009;1.463121920824051E-001;-9.407605975866318E-002;-4.289011005312204E-003;-1.700867724139243E-004;
2.422666666666667E+009;1.456018686294556E-001;-9.490176290273666E-002;-4.028658848255873E-003;9.073531691683456E-005;
2.422833333333334E+009;1.448958665132523E-001;-9.587657451629639E-002;-4.057651851326227E-003;4.505870747379959E-004;
2.423000000000000E+009;1.442196369171143E-001;-9.665925055742264E-002;-4.071028903126717E-003;6.903465837240219E-004;
2.423166666666667E+009;1.437493264675140E-001;-9.744847565889359E-002;-4.077960737049580E-003;8.903628331609070E-004;
2.423333333333334E+009;1.427942514419556E-001;-9.803731739521027E-002;-3.994986880570650E-003;1.180474529974163E-003;
2.423500000000000E+009;1.422041505575180E-001;-9.912008047103882E-002;-3.699816530570388E-003;1.386119169183075E-003;
2.423666666666667E+009;1.413093060255051E-001;-1.001270115375519E-001;-3.740516956895590E-003;1.701687928289175E-003;
2.423833333333334E+009;1.408284753561020E-001;-1.011481508612633E-001;-3.605497535318136E-003;1.721916487440467E-003;
2.424000000000000E+009;1.398895233869553E-001;-1.019628793001175E-001;-3.342101117596030E-003;1.900258590467274E-003;
2.424166666666667E+009;1.392517536878586E-001;-1.028959900140762E-001;-3.238840959966183E-003;1.789973350241780E-003;
2.424333333333334E+009;1.385337114334106E-001;-1.036807149648666E-001;-3.050333121791482E-003;2.138040261343122E-003;
2.424500000000000E+009;1.377769112586975E-001;-1.048356741666794E-001;-2.752416068688035E-003;2.002939349040389E-003;
2.424666666666667E+009;1.372225135564804E-001;-1.054609045386314E-001;-2.792055485770106E-003;2.216093474999070E-003;
2.424833333333334E+009;1.364770382642746E-001;-1.066665798425674E-001;-2.585332142189145E-003;2.264706185087562E-003;
2.425000000000000E+009;1.359975337982178E-001;-1.077028214931488E-001;-2.426912309601903E-003;2.334724646061659E-003;
2.425166666666667E+009;1.352127492427826E-001;-1.086285188794136E-001;-2.196443965658546E-003;2.427609404549003E-003;
2.425333333333334E+009;1.347821652889252E-001;-1.096157655119896E-001;-2.460658084601164E-003;2.181807067245245E-003;
2.425500000000000E+009;1.342335641384125E-001;-1.107384115457535E-001;-2.246363554149866E-003;2.326983259990811E-003;
2.425666666666667E+009;1.335570365190506E-001;-1.118103265762329E-001;-2.088462235406041E-003;2.278934465721250E-003;
2.425833333333334E+009;1.330804824829102E-001;-1.127849668264389E-001;-1.979102147743106E-003;2.363409148529172E-003;
2.426000000000000E+009;1.324909478425980E-001;-1.139127165079117E-001;-2.075379714369774E-003;2.460051793605089E-003;
2.426166666666667E+009;1.322434544563294E-001;-1.149755641818047E-001;-1.920445240102708E-003;2.543764654546976E-003;
2.426333333333334E+009;1.316664516925812E-001;-1.158007383346558E-001;-1.923829200677574E-003;2.523880219087005E-003;
2.426500000000000E+009;1.312923580408096E-001;-1.167459264397621E-001;-1.749094459228218E-003;2.422868506982923E-003;
2.426666666666667E+009;1.308142095804215E-001;-1.175479143857956E-001;-1.646682387217879E-003;2.595373196527362E-003;
2.426833333333334E+009;1.304203420877457E-001;-1.184003353118897E-001;-1.540098921395838E-003;2.689378568902612E-003;
2.427000000000000E+009;1.300391256809235E-001;-1.195170730352402E-001;-1.566356979310513E-003;2.589107956737280E-003;
2.427166666666667E+009;1.296487450599670E-001;-1.200632452964783E-001;-1.314399298280478E-003;2.742632059380412E-003;
2.427333333333334E+009;1.293001472949982E-001;-1.209978014230728E-001;-1.107770716771483E-003;2.566748531535268E-003;
2.427500000000000E+009;1.292480379343033E-001;-1.216539964079857E-001;-1.210349379107356E-003;2.626724541187286E-003;
2.427666666666667E+009;1.287415176630020E-001;-1.225539073348045E-001;-1.065118238329887E-003;2.646460896357894E-003;
