# Version 1.00
#
freq[Hz];re:Trc1_S11;im:Trc1_S11;re:Trc2_S21;im:Trc2_S21;
2.400000000000000E+009;1.615487635135651E-001;5.837574228644371E-002;4.449455998837948E-003;4.451098386198282E-003;
2.400166666666667E+009;1.616020053625107E-001;5.688145756721497E-002;4.559811204671860E-003;4.365575034171343E-003;
2.400333333333334E+009;1.615894287824631E-001;5.510511249303818E-002;4.668961279094219E-003;4.187029786407948E-003;
2.400500000000000E+009;1.616053730249405E-001;5.328415706753731E-002;4.791425075381994E-003;4.255282692611218E-003;
2.400666666666667E+009;1.616350412368774E-001;5.152299627661705E-002;4.837897140532732E-003;3.883225610479713E-003;
2.400833333333334E+009;1.618434190750122E-001;4.977277293801308E-002;4.966947250068188E-003;3.811168717220426E-003;
2.401000000000000E+009;1.616543233394623E-001;4.760046303272247E-002;5.061145871877670E-003;3.830497385933995E-003;
2.401166666666667E+009;1.619695723056793E-001;4.566819593310356E-002;5.245036445558071E-003;3.481990890577436E-003;
2.401333333333334E+009;1.621351838111877E-001;4.366026446223259E-002;5.291246809065342E-003;3.191114636138082E-003;
2.401500000000000E+009;1.624205708503723E-001;4.192344471812248E-002;5.478099454194307E-003;3.092586528509855E-003;
2.401666666666667E+009;1.627397686243057E-001;4.005847498774529E-002;5.566156469285488E-003;2.958857687190175E-003;
2.401833333333334E+009;1.629660725593567E-001;3.799062967300415E-002;5.447148345410824E-003;2.542641246691346E-003;
2.402000000000000E+009;1.632615625858307E-001;3.619956597685814E-002;5.601522978395224E-003;2.496790606528521E-003;
2.402166666666667E+009;1.636737585067749E-001;3.448648005723953E-002;5.705740302801132E-003;2.210261067375541E-003;
2.402333333333334E+009;1.638697236776352E-001;3.255970403552055E-002;5.800357554107904E-003;2.205966506153345E-003;
2.402500000000000E+009;1.647397726774216E-001;3.089192323386669E-002;5.673499312251806E-003;1.914351247251034E-003;
2.402666666666667E+009;1.651148647069931E-001;2.919207140803337E-002;5.735451355576515E-003;1.573796616867185E-003;
2.402833333333334E+009;1.656197160482407E-001;2.768200263381004E-002;5.832390859723091E-003;1.374057144857943E-003;
2.403000000000000E+009;1.662492603063583E-001;2.606081031262875E-002;5.728850606828928E-003;1.372802653349936E-003;
2.403166666666667E+009;1.671009808778763E-001;2.449914067983627E-002;5.697830580174923E-003;1.094871200621128E-003;
2.403333333333334E+009;1.677450239658356E-001;2.305077761411667E-002;5.712224636226893E-003;1.061084680259228E-003;
2.403500000000000E+009;1.683569103479385E-001;2.162810601294041E-002;5.746120586991310E-003;7.768505020067096E-004;
2.403666666666667E+009;1.690632700920105E-001;2.025352790951729E-002;5.698030348867178E-003;5.494253127835691E-004;
2.403833333333334E+009;1.699471622705460E-001;1.910634525120258E-002;5.708244629204273E-003;4.063520464114845E-004;
2.404000000000000E+009;1.707299351692200E-001;1.783405989408493E-002;5.623775534331799E-003;3.910242812708020E-004;
2.404166666666667E+009;1.713421344757080E-001;1.670704968273640E-002;5.601957906037569E-003;1.582608674652875E-004;
2.404333333333334E+009;1.719864755868912E-001;1.581086404621601E-002;5.535482894629240E-003;-5.541129939956591E-005;
2.404500000000000E+009;1.727522015571594E-001;1.478350348770618E-002;5.408313591033220E-003;-3.429637945373543E-005;
2.404666666666667E+009;1.735383719205856E-001;1.397944707423449E-002;5.529561080038548E-003;-2.656956203281879E-004;
2.404833333333334E+009;1.742195338010788E-001;1.312776841223240E-002;5.455330479890108E-003;-4.528093268163502E-004;
2.405000000000000E+009;1.748484522104263E-001;1.230816077440977E-002;5.358262453228235E-003;-6.146839004941285E-004;
2.405166666666667E+009;1.755065768957138E-001;1.152641884982586E-002;5.308693274855614E-003;-5.787248373962939E-004;
2.405333333333334E+009;1.761431843042374E-001;1.085572410374880E-002;5.386564414948225E-003;-7.954314933158457E-004;
2.405500000000000E+009;1.766235977411270E-001;1.043576281517744E-002;5.255287513136864E-003;-8.189634536392987E-004;
2.405666666666667E+009;1.770917922258377E-001;1.001670025289059E-002;5.316407419741154E-003;-9.295553318224847E-004;
2.405833333333334E+009;1.775934845209122E-001;9.658160619437695E-003;5.155894905328751E-003;-1.160907791927457E-003;
2.406000000000000E+009;1.780921816825867E-001;8.995024487376213E-003;5.239618476480246E-003;-1.157922553829849E-003;
2.406166666666667E+009;1.782337427139282E-001;8.688494563102722E-003;5.145422182977200E-003;-1.257326221093535E-003;
2.406333333333334E+009;1.787012070417404E-001;8.262415416538715E-003;5.048922728747129E-003;-1.563002355396748E-003;
2.406500000000000E+009;1.788939982652664E-001;7.978748530149460E-003;5.123118869960308E-003;-1.570474589243531E-003;
2.406666666666667E+009;1.788218021392822E-001;7.548481691628695E-003;4.919461440294981E-003;-1.729253795929253E-003;
2.406833333333334E+009;1.790531128644943E-001;7.049660664051771E-003;4.928726237267256E-003;-1.819961820729077E-003;
2.407000000000000E+009;1.790307015180588E-001;6.667020265012980E-003;4.900146275758743E-003;-1.893827109597623E-003;
2.407166666666667E+009;1.792729049921036E-001;6.301068235188723E-003;4.759253468364477E-003;-2.143922261893749E-003;
2.407333333333334E+009;1.789067387580872E-001;5.759189836680889E-003;4.746767226606607E-003;-2.083047525957227E-003;
2.407500000000000E+009;1.787434220314026E-001;5.390117410570383E-003;4.619378596544266E-003;-2.363245701417327E-003;
2.407666666666667E+009;1.785192042589188E-001;5.011296831071377E-003;4.534238018095493E-003;-2.302581910043955E-003;
2.407833333333334E+009;1.779651045799255E-001;4.115179181098938E-003;4.428564570844173E-003;-2.539937617257237E-003;
2.408000000000000E+009;1.778059601783752E-001;3.540629521012306E-003;4.421335645020008E-003;-2.614930272102356E-003;
2.408166666666667E+009;1.773247569799423E-001;3.013128181919456E-003;4.360304214060307E-003;-2.883470384404063E-003;
2.408333333333334E+009;1.770739108324051E-001;2.186512108892202E-003;4.268392454832792E-003;-2.899235580116510E-003;
2.408500000000000E+009;1.765975952148438E-001;1.231734058819711E-003;4.078380297869444E-003;-2.862674184143543E-003;
2.408666666666667E+009;1.759822815656662E-001;3.138803585898131E-004;3.964473959058523E-003;-3.034570021554828E-003;
2.408833333333334E+009;1.754397898912430E-001;-4.267978365533054E-004;3.957439213991165E-003;-3.113381331786513E-003;
2.409000000000000E+009;1.748468726873398E-001;-1.556684728711844E-003;3.865566570311785E-003;-3.314492525532842E-003;
2.409166666666667E+009;1.741803586483002E-001;-2.782905241474509E-003;3.631669329479337E-003;-3.306814702227712E-003;
2.409333333333334E+009;1.737026870250702E-001;-3.898909781128168E-003;3.611173247918487E-003;-3.528880188241601E-003;
2.409500000000000E+009;1.731202751398087E-001;-5.284605547785759E-003;3.540871897712350E-003;-3.499376121908426E-003;
2.409666666666667E+009;1.724912822246552E-001;-6.580776534974575E-003;3.479012520983815E-003;-3.539601340889931E-003;
2.409833333333334E+009;1.717731207609177E-001;-7.915561087429524E-003;3.274146001785994E-003;-3.638761118054390E-003;
2.410000000000000E+009;1.713690161705017E-001;-9.365288540720940E-003;3.090678248554468E-003;-3.686715150251985E-003;
2.410166666666667E+009;1.706675142049789E-001;-1.099203433841467E-002;3.195280907675624E-003;-3.626087913289666E-003;
2.410333333333334E+009;1.701982766389847E-001;-1.257519144564867E-002;3.074016654863954E-003;-3.781075589358807E-003;
2.410500000000000E+009;1.695671379566193E-001;-1.422895956784487E-002;2.740939613431692E-003;-3.822913160547614E-003;
2.410666666666667E+009;1.692126393318176E-001;-1.607071422040463E-002;2.707273233681917E-003;-3.830752801150084E-003;
2.410833333333334E+009;1.688759475946426E-001;-1.764037460088730E-002;2.729463158175349E-003;-3.848691238090396E-003;
2.411000000000000E+009;1.684717833995819E-001;-1.956927776336670E-002;2.572097582742572E-003;-4.022764042019844E-003;
2.411166666666667E+009;1.681041121482849E-001;-2.134631946682930E-002;2.520415466278791E-003;-3.952416125684977E-003;
2.411333333333334E+009;1.678509861230850E-001;-2.314955741167069E-002;2.352913375943899E-003;-4.067953675985336E-003;
2.411500000000000E+009;1.677021980285645E-001;-2.520915120840073E-002;2.227532444521785E-003;-4.042078275233507E-003;
2.411666666666667E+009;1.679067611694336E-001;-2.713260985910893E-002;2.261352492496371E-003;-4.150012973695993E-003;
2.411833333333334E+009;1.675852090120316E-001;-2.880794927477837E-002;2.239167923107743E-003;-4.018375184386969E-003;
2.412000000000000E+009;1.677056103944778E-001;-3.069508075714111E-002;2.090202178806067E-003;-4.151816945523024E-003;
2.412166666666667E+009;1.676522940397263E-001;-3.256504610180855E-002;1.979332417249680E-003;-4.224985837936401E-003;
2.412333333333334E+009;1.682057082653046E-001;-3.453468903899193E-002;1.850318280048668E-003;-4.271119832992554E-003;
2.412500000000000E+009;1.679860204458237E-001;-3.634627908468247E-002;1.699144835583866E-003;-4.278445616364479E-003;
2.412666666666667E+009;1.685841828584671E-001;-3.817847743630409E-002;1.744755543768406E-003;-4.295121412724257E-003;
2.412833333333334E+009;1.689609289169312E-001;-4.006543383002281E-002;1.627766992896795E-003;-4.464963451027870E-003;
2.413000000000000E+009;1.692817062139511E-001;-4.180340096354485E-002;1.573837711475790E-003;-4.515998531132937E-003;
2.413166666666667E+009;1.694991588592529E-001;-4.352308064699173E-002;1.416866783984006E-003;-4.626182373613119E-003;
2.413333333333334E+009;1.700094044208527E-001;-4.517521709203720E-002;1.152389682829380E-003;-4.611267242580652E-003;
2.413500000000000E+009;1.703618913888931E-001;-4.683069139719009E-002;1.157819293439388E-003;-4.601988475769758E-003;
2.413666666666667E+009;1.708644628524780E-001;-4.823176562786102E-002;1.049671322107315E-003;-4.647741094231606E-003;
2.413833333333334E+009;1.713991761207581E-001;-4.964497312903404E-002;8.889926248230040E-004;-4.669220652431250E-003;
2.414000000000000E+009;1.717387437820435E-001;-5.108848214149475E-002;7.624607533216476E-004;-4.794308915734291E-003;
2.414166666666667E+009;1.724482327699661E-001;-5.242982506752014E-002;6.994517752900720E-004;-4.746356979012489E-003;
2.414333333333334E+009;1.729475855827332E-001;-5.356714874505997E-002;4.856403975281864E-004;-4.856892395764589E-003;
2.414500000000000E+009;1.736189723014832E-001;-5.464519560337067E-002;3.916467539966106E-004;-4.831476602703333E-003;
2.414666666666667E+009;1.739021688699722E-001;-5.567168816924095E-002;1.586329308338463E-004;-4.818283487111330E-003;
2.414833333333334E+009;1.742885857820511E-001;-5.660662427544594E-002;1.763802356435917E-005;-4.832434002310038E-003;
2.415000000000000E+009;1.747795492410660E-001;-5.749550461769104E-002;-1.366643555229530E-004;-4.743411205708981E-003;
2.415166666666667E+009;1.751904040575028E-001;-5.829566717147827E-002;-9.136440348811448E-005;-4.795814398676157E-003;
2.415333333333334E+009;1.757261157035828E-001;-5.912032723426819E-002;-2.187762584071606E-004;-4.770997446030378E-003;
2.415500000000000E+009;1.759269833564758E-001;-5.953960865736008E-002;-4.727764753624797E-004;-4.785354249179363E-003;
2.415666666666667E+009;1.761860698461533E-001;-6.007593497633934E-002;-5.173337412998080E-004;-4.744290839880705E-003;
2.415833333333334E+009;1.763890087604523E-001;-6.063640490174294E-002;-6.948884692974389E-004;-4.794362466782332E-003;
2.416000000000000E+009;1.763603091239929E-001;-6.110651418566704E-002;-6.626901449635625E-004;-4.774095490574837E-003;
2.416166666666667E+009;1.766469180583954E-001;-6.148699671030045E-002;-8.670291863381863E-004;-4.886745009571314E-003;
2.416333333333334E+009;1.764868795871735E-001;-6.169892102479935E-002;-1.136037404648960E-003;-4.743128083646298E-003;
2.416500000000000E+009;1.765159219503403E-001;-6.204647570848465E-002;-1.066491706296802E-003;-4.631867166608572E-003;
2.416666666666667E+009;1.762370318174362E-001;-6.221616268157959E-002;-1.316618290729821E-003;-4.532683175057173E-003;
2.416833333333334E+009;1.761860847473145E-001;-6.254799664020538E-002;-1.480219652876258E-003;-4.640101455152035E-003;
2.417000000000000E+009;1.756395548582077E-001;-6.270075589418411E-002;-1.552122528664768E-003;-4.629152826964855E-003;
2.417166666666667E+009;1.751938611268997E-001;-6.285273283720017E-002;-1.579433330334723E-003;-4.535670857876539E-003;
2.417333333333334E+009;1.747434884309769E-001;-6.308237463235855E-002;-1.845352933742106E-003;-4.531014710664749E-003;
2.417500000000000E+009;1.740595400333405E-001;-6.331683695316315E-002;-1.863255281932652E-003;-4.409675020724535E-003;
2.417666666666667E+009;1.734830439090729E-001;-6.341701000928879E-002;-2.006591996178031E-003;-4.425075370818377E-003;
2.417833333333334E+009;1.727658063173294E-001;-6.359994411468506E-002;-2.140786731615663E-003;-4.240804351866245E-003;
2.418000000000000E+009;1.717707812786102E-001;-6.403395533561707E-002;-2.274416154250503E-003;-4.147431813180447E-003;
2.418166666666667E+009;1.710001230239868E-001;-6.413205713033676E-002;-2.357686171308160E-003;-4.070876166224480E-003;
2.418333333333334E+009;1.700445115566254E-001;-6.455858796834946E-002;-2.538661705330014E-003;-3.986608237028122E-003;
2.418500000000000E+009;1.690369844436646E-001;-6.486756354570389E-002;-2.514536026865244E-003;-3.954191226512194E-003;
2.418666666666667E+009;1.680549532175064E-001;-6.526280194520950E-002;-2.709685591980815E-003;-3.934747073799372E-003;
2.418833333333334E+009;1.667199730873108E-001;-6.573466956615448E-002;-2.843716647475958E-003;-3.834452247247100E-003;
2.419000000000000E+009;1.655277758836746E-001;-6.625682860612869E-002;-2.918254351243377E-003;-3.805227810516954E-003;
2.419166666666667E+009;1.644539237022400E-001;-6.675424426794052E-002;-3.051574574783444E-003;-3.701707581058145E-003;
2.419333333333334E+009;1.630258709192276E-001;-6.741613149642944E-002;-3.162029199302197E-003;-3.660339629277587E-003;
2.419500000000000E+009;1.619181931018829E-001;-6.837230920791626E-002;-3.220719750970602E-003;-3.529793582856655E-003;
2.419666666666667E+009;1.608535945415497E-001;-6.920028477907181E-002;-3.271574154496193E-003;-3.426194423809648E-003;
2.419833333333334E+009;1.595527082681656E-001;-7.000526040792465E-002;-3.285374958068132E-003;-3.406936768442392E-003;
2.420000000000000E+009;1.583947986364365E-001;-7.091949880123138E-002;-3.263089340180159E-003;-3.296880749985576E-003;
2.420166666666667E+009;1.573260277509689E-001;-7.191465795040131E-002;-3.499685553833842E-003;-3.097387263551354E-003;
2.420333333333334E+009;1.559859514236450E-001;-7.314053177833557E-002;-3.772053634747863E-003;-2.995621645823121E-003;
2.420500000000000E+009;1.551721245050430E-001;-7.405156642198563E-002;-3.681063884869218E-003;-2.849109238013625E-003;
2.420666666666667E+009;1.540060639381409E-001;-7.536175847053528E-002;-3.804617561399937E-003;-2.603292232379317E-003;
2.420833333333334E+009;1.530711650848389E-001;-7.687123864889145E-002;-3.930598031729460E-003;-2.607126254588366E-003;
2.421000000000000E+009;1.520248949527741E-001;-7.843447476625443E-002;-3.869449254125357E-003;-2.570416312664747E-003;
2.421166666666667E+009;1.511548459529877E-001;-7.982052862644196E-002;-3.941883798688650E-003;-2.268942771479487E-003;
2.421333333333334E+009;1.505094170570374E-001;-8.142520487308502E-002;-3.966153599321842E-003;-2.272345358505845E-003;
2.421500000000000E+009;1.496040225028992E-001;-8.290266245603561E-002;-3.935635555535555E-003;-2.161144744604826E-003;
2.421666666666667E+009;1.490557640790939E-001;-8.447859436273575E-002;-3.980785142630339E-003;-1.845489372499287E-003;
2.421833333333334E+009;1.484766006469727E-001;-8.615168184041977E-002;-4.072222858667374E-003;-1.759555540047586E-003;
2.422000000000000E+009;1.478694677352905E-001;-8.781407028436661E-002;-4.090522415935993E-003;-1.826500985771418E-003;
2.422166666666667E+009;1.474025249481201E-001;-8.977767825126648E-002;-4.168723244220018E-003;-1.704550464637578E-003;
2.422333333333334E+009;1.471958607435226E-001;-9.132392704486847E-002;-4.144599661231041E-003;-1.636091154068708E-003;
2.422500000000000E+009;1.467384248971939E-001;-9.299886971712112E-002;-4.284296184778214E-003;-1.383285387419164E-003;
2.422666666666667E+009;1.466404646635056E-001;-9.479039907455444E-002;-4.225742071866989E-003;-1.324695418588817E-003;
2.422833333333334E+009;1.466109901666641E-001;-9.663790464401245E-002;-4.176756367087364E-003;-1.266476348973811E-003;
2.423000000000000E+009;1.466459780931473E-001;-9.841600805521011E-002;-4.214958287775517E-003;-1.184776308946312E-003;
2.423166666666667E+009;1.465761512517929E-001;-1.000269874930382E-001;-4.021352156996727E-003;-1.040264614857733E-003;
2.423333333333334E+009;1.468227803707123E-001;-1.013594940304756E-001;-4.278411623090506E-003;-1.002055243588984E-003;
2.423500000000000E+009;1.469064652919769E-001;-1.030426695942879E-001;-4.255610052496195E-003;-8.710600086487830E-004;
2.423666666666667E+009;1.469466090202332E-001;-1.048856005072594E-001;-4.134556744247675E-003;-6.429444183595479E-004;
2.423833333333334E+009;1.472912579774857E-001;-1.064686179161072E-001;-4.348549060523510E-003;-7.286249892786145E-004;
2.424000000000000E+009;1.475540697574616E-001;-1.077732369303703E-001;-4.285981412976980E-003;-4.118033102713525E-004;
2.424166666666667E+009;1.478837132453919E-001;-1.092428863048554E-001;-4.280232824385166E-003;-5.169545765966177E-004;
2.424333333333334E+009;1.484079957008362E-001;-1.104956492781639E-001;-4.339134320616722E-003;-2.565550094004720E-004;
2.424500000000000E+009;1.487274318933487E-001;-1.118130534887314E-001;-4.205237608402968E-003;-2.811056619975716E-004;
2.424666666666667E+009;1.492409259080887E-001;-1.127499192953110E-001;-4.293140955269337E-003;-1.114733822760172E-004;
2.424833333333334E+009;1.494895815849304E-001;-1.140159144997597E-001;-4.428377375006676E-003;-1.586405414855108E-005;
2.425000000000000E+009;1.500038206577301E-001;-1.150670051574707E-001;-4.217201378196478E-003;1.004245641524904E-004;
2.425166666666667E+009;1.500958502292633E-001;-1.160405948758125E-001;-4.247789271175861E-003;3.905513731297106E-004;
2.425333333333334E+009;1.505833119153976E-001;-1.169526129961014E-001;-4.239543806761503E-003;4.424144863151014E-004;
2.425500000000000E+009;1.510653644800186E-001;-1.178268045186997E-001;-4.256428685039282E-003;3.919476293958724E-004;
2.425666666666667E+009;1.510621458292007E-001;-1.184313818812370E-001;-4.266622010618448E-003;5.352184525690973E-004;
2.425833333333334E+009;1.515227258205414E-001;-1.190525144338608E-001;-4.114799201488495E-003;8.327342802658677E-004;
2.426000000000000E+009;1.515951305627823E-001;-1.196397095918655E-001;-4.192987922579050E-003;7.910351268947125E-004;
2.426166666666667E+009;1.519920080900192E-001;-1.202052831649780E-001;-4.229033365845680E-003;8.357945480383933E-004;
2.426333333333334E+009;1.519821584224701E-001;-1.205899640917778E-001;-4.082066006958485E-003;1.105658244341612E-003;
2.426500000000000E+009;1.519810259342194E-001;-1.208637282252312E-001;-4.012589342892170E-003;1.058024587109685E-003;
2.426666666666667E+009;1.520247608423233E-001;-1.210954189300537E-001;-4.128947854042053E-003;1.180061255581677E-003;
2.426833333333334E+009;1.519106477499008E-001;-1.213894784450531E-001;-3.857389325276017E-003;1.310734194703400E-003;
2.427000000000000E+009;1.516661196947098E-001;-1.216756924986839E-001;-3.913396969437599E-003;1.419186126440764E-003;
2.427166666666667E+009;1.514343172311783E-001;-1.217232868075371E-001;-3.708729753270745E-003;1.475739409215748E-003;
2.427333333333334E+009;1.509560942649841E-001;-1.218646913766861E-001;-3.906854428350925E-003;1.616829424165189E-003;
2.427500000000000E+009;1.506221145391464E-001;-1.221071630716324E-001;-3.650638274848461E-003;1.640946371480823E-003;
2.427666666666667E+009;1.500704288482666E-001;-1.220926865935326E-001;-3.646796336397529E-003;1.836844952777028E-003;
