# Hz S RI R 
2400000000.0000000000 0.168919131159782409667968750000 0.040244892239570617675781250000 0.003121703863143920898437500000 -0.001211982802487910010694194263 0 0 0 0 
2400166666.6666665077 0.169778093695640591720419365629 0.039697472006082541728932966407 0.003002635203301907019374228369 -0.001229947665706276893615722656 0 0 0 0 
2400333333.3333334923 0.170306026935577392578125000000 0.038736380636692047119140625000 0.002788600744679570198059082031 -0.001457246136851608970044780200 0 0 0 0 
2400500000.0000000000 0.170849695801734896560830634371 0.037902005016803741455078125000 0.002754320856183766885044716943 -0.001511762733571230931522988428 0 0 0 0 
2400666666.6666665077 0.171130463480949401855468750000 0.037055853754281997680664062500 0.002760228235274552865269326318 -0.001593747525475919029833149487 0 0 0 0 
2400833333.3333334923 0.171733990311622591873330634371 0.036454916000366210937500000000 0.002526017837226390838623046875 -0.001727317692711948914768838037 0 0 0 0 
2401000000.0000000000 0.171847149729728698730468750000 0.035620201379060752178151716407 0.002605253132060170173645019531 -0.001726592658087610981584858472 0 0 0 0 
2401166666.6666665077 0.172142937779426602462606865629 0.034778732806444168090820312500 0.002699436619877814812901162256 -0.001849987311288713975193642725 0 0 0 0 
2401333333.3333334923 0.172349452972412109375000000000 0.034054651856422417377512346093 0.002351141069084405899047851562 -0.001957623753696680068969726562 0 0 0 0 
2401500000.0000000000 0.172531276941299410720986884371 0.033214151859283447265625000000 0.002365725813433527946472167969 -0.001990726916119455857517861475 0 0 0 0 
2401666666.6666665077 0.172544732689857510665731865629 0.032588422298431403423268903907 0.002295163925737142996547079932 -0.001960220746695994897129677881 0 0 0 0 
2401833333.3333334923 0.172688096761703491210937500000 0.031691372394561767578125000000 0.002242906484752893014195107568 -0.002182974945753812789916992188 0 0 0 0 
2402000000.0000000000 0.172460421919822692871093750000 0.030971448868513110769251639454 0.002264878246933221817016601562 -0.002133216010406612916233681787 0 0 0 0 
2402166666.6666665077 0.172572746872901888748330634371 0.030141551047563549386998360546 0.002175625646486877961399697412 -0.002018739236518741087672568213 0 0 0 0 
2402333333.3333334923 0.172525763511657687088174384371 0.029448021203279498708704764454 0.002037924248725175857543945312 -0.002379452344030141830444335938 0 0 0 0 
2402500000.0000000000 0.172634884715080288986044365629 0.028507059440016749990443045704 0.001978889340534805817845009912 -0.002303645247593522071838378906 0 0 0 0 
2402666666.6666665077 0.172549352049827603439169365629 0.027530733495950698852539062500 0.001976287923753261999842978369 -0.002543806331232190132141113281 0 0 0 0 
2402833333.3333334923 0.172310277819633511642294365629 0.026592642068862918508509451954 0.001672157319262624003766704028 -0.002702770289033650918247841943 0 0 0 0 
2403000000.0000000000 0.172145858407020596603231865629 0.025711774826049811626393903907 0.001548457657918334007263183594 -0.002633878029882907867431640625 0 0 0 0 
2403166666.6666665077 0.171973302960395812988281250000 0.024458618834614750253697579296 0.001454832148738204999210976709 -0.002597206737846136093139648438 0 0 0 0 
2403333333.3333334923 0.171732068061828613281250000000 0.023693881928920749319056326954 0.001384717528708278916002583081 -0.002658694516867399215698242188 0 0 0 0 
2403500000.0000000000 0.171273127198219299316406250000 0.022529708221554759633997733204 0.001384520204737782912013388525 -0.002743771998211741013767861475 0 0 0 0 
2403666666.6666665077 0.171115979552269009689169365629 0.021238936111330989492396170704 0.001147030736319720961927104419 -0.002830157056450843811035156250 0 0 0 0 
2403833333.3333334923 0.171070039272308405120526231258 0.020217703655362129211425781250 0.000902614032384008169174194336 -0.002830065786838531927821493994 0 0 0 0 
2404000000.0000000000 0.170699328184127807617187500000 0.018884982913732528686523437500 0.001040033646859229044673300635 -0.002751632593572140173671103369 0 0 0 0 
2404166666.6666665077 0.170431345701217706878338731258 0.017465369775891300546666329296 0.000688553496729582548141479492 -0.002690805820748209953308105469 0 0 0 0 
2404333333.3333334923 0.170446053147316006759481865629 0.016294788569211959838867187500 0.000789824058301746953665578577 -0.002727915067225695090052939307 0 0 0 0 
2404500000.0000000000 0.169920042157173212249432481258 0.014729435555636879312535469921 0.000583603628911077976226806641 -0.002611922565847634835484170068 0 0 0 0 
2404666666.6666665077 0.169934317469596890548544365629 0.013444419018924239767054373829 0.000386275205528363585472106934 -0.002517647575587033791782998193 0 0 0 0 
2404833333.3333334923 0.169686600565910311599893134371 0.011975950561463829385777657421 0.000336625962518155574798583984 -0.002557934727519751028773642432 0 0 0 0 
2405000000.0000000000 0.169605091214179992675781250000 0.010435953736305240285853201954 0.000297680671792477423518580304 -0.002475675428286194801330566406 0 0 0 0 
2405166666.6666665077 0.169496268033981295486611884371 0.008614186197519302368164062500 0.000335625954903662204742431641 -0.002590015996247529983520507812 0 0 0 0 
2405333333.3333334923 0.169556543231010409256143134371 0.006785956211388111114501953125 0.000241962552536278990194043570 -0.002365992404520512060878134619 0 0 0 0 
2405500000.0000000000 0.169403463602066012283486884371 0.005402116570621728897094726562 0.000070417809183709323406219482 -0.002291884040459990935084677588 0 0 0 0 
2405666666.6666665077 0.169241353869438199142294365629 0.003715753788128495216369628906 0.000073070601501967757940292358 -0.002213924424722791151759482275 0 0 0 0 
2405833333.3333334923 0.169066458940506009200888115629 0.002186303725466132164001464844 0.000191183207789436009809216910 -0.002173135988414288000819540869 0 0 0 0 
2406000000.0000000000 0.169021934270858792404013115629 0.000225195413804613108008784161 0.000239086220972239998265942984 -0.001999733503907918930053710938 0 0 0 0 
2406166666.6666665077 0.168757155537605313400106865629 -0.001431539538316429095027304541 0.000308925838908180594444274902 -0.002129989443346858024597167969 0 0 0 0 
2406333333.3333334923 0.168835431337356595138388115629 -0.003126541385427116914036416162 0.000353947107214480584293919696 -0.002172123175114392800572060693 0 0 0 0 
2406500000.0000000000 0.168789193034172113616619981258 -0.004896124824881553649902343750 0.000327372370520606582790928973 -0.002140971599146724180934286963 0 0 0 0 
2406666666.6666665077 0.168433129787445096114950615629 -0.006555224303156138333792402051 0.000401243625674396807521265851 -0.002236759755760430855991982568 0 0 0 0 
2406833333.3333334923 0.168377846479415893554687500000 -0.008186494931578636169433593750 0.000533599290065467357635498047 -0.002353737596422433853149414062 0 0 0 0 
2407000000.0000000000 0.168372556567192105392294365629 -0.009837286546826362609863281250 0.000384497223421931320994776593 -0.002405032049864530997035361182 0 0 0 0 
2407166666.6666665077 0.168316498398780794998330634371 -0.011306507512927060563057146680 0.000494300271384418010711669922 -0.002311446936801075935363769531 0 0 0 0 
2407333333.3333334923 0.168124184012412997146768134371 -0.012864131480455400294293788477 0.000325066968798637390136718750 -0.002555884188041090965270996094 0 0 0 0 
2407500000.0000000000 0.167967781424522399902343750000 -0.014177778735756870615025704296 0.000240413195569999488905230112 -0.002607363741844892935511923682 0 0 0 0 
2407666666.6666665077 0.167992740869522094726562500000 -0.015414103865623470651646798046 0.000280817301245406324237269269 -0.002540776971727610068080283057 0 0 0 0 
2407833333.3333334923 0.167852267622947692871093750000 -0.016826864331960681570032889454 0.000247891439357772523730677472 -0.002833626000210642814636230469 0 0 0 0 
2408000000.0000000000 0.167905509471893310546875000000 -0.018028575927019119262695312500 0.000198171153897419598981580191 -0.002676123054698110060450888525 0 0 0 0 
2408166666.6666665077 0.167916923761367797851562500000 -0.018952917307615280151367187500 -0.000072589537012390792369842529 -0.002752943662926555113551474463 0 0 0 0 
2408333333.3333334923 0.168100193142890902420205634371 -0.020080467686057090759277343750 -0.000117999188660178306415834970 -0.002759690862149000167846679688 0 0 0 0 
2408500000.0000000000 0.168096393346786499023437500000 -0.021043514832854270935058593750 -0.000149603423778898986891069955 -0.002985833911225200133082724463 0 0 0 0 
2408666666.6666665077 0.168201044201850891113281250000 -0.022124504670500758779505545704 -0.000247084215516224503517150879 -0.002926056971773505210876464844 0 0 0 0 
2408833333.3333334923 0.168402329087257413009481865629 -0.022976772859692570077916329296 -0.000400572054786607623100280762 -0.002977675525471568107604980469 0 0 0 0 
2409000000.0000000000 0.168449506163597106933593750000 -0.023801637813448909414271170704 -0.000439221796113997697830200195 -0.003095054998993874029872275244 0 0 0 0 
2409166666.6666665077 0.168875023722648592849893134371 -0.024826547130942351604421247657 -0.000667737622279673814773559570 -0.002965752733871341185328818213 0 0 0 0 
2409333333.3333334923 0.169162407517433194259481865629 -0.025726810097694400442103201954 -0.000748997903428971767425537109 -0.003174846759065986113307333838 0 0 0 0 
2409500000.0000000000 0.169302284717559786697549384371 -0.026672732084989551198939139454 -0.000819813343696296215057373047 -0.003055362263694405989405966650 0 0 0 0 
2409666666.6666665077 0.169510543346405001541299384371 -0.027611773461103439331054687500 -0.001173303113318979956983256763 -0.003055288223549724058863974463 0 0 0 0 
2409833333.3333334923 0.169536292552947998046875000000 -0.028205312788486480712890625000 -0.001082813134416938044904399341 -0.003199851606041193008422851562 0 0 0 0 
2410000000.0000000000 0.169962346553802490234375000000 -0.028969520702958110464075858204 -0.001326146069914102988002158057 -0.003087254939600824876072548975 0 0 0 0 
2410166666.6666665077 0.170127913355827303787393134371 -0.029916187748312950134277343750 -0.001479835831560194926020956885 -0.003074307227507234053370810400 0 0 0 0 
2410333333.3333334923 0.170071154832839993575888115629 -0.030593235045671459543248360546 -0.001699537970125674984575581128 -0.003166427602991462187526083838 0 0 0 0 
2410500000.0000000000 0.170188874006271390060263115629 -0.031385179609060287475585937500 -0.001843061647377908012987446362 -0.002942070132121444182154990088 0 0 0 0 
2410666666.6666665077 0.170095726847648592849893134371 -0.032522331923246376728098283593 -0.001962484093382955031154013525 -0.002843605354428290887119912256 0 0 0 0 
2410833333.3333334923 0.170347049832344110686932481258 -0.032945197075605392456054687500 -0.002083879662677646116969443213 -0.002795452252030373053309775244 0 0 0 0 
2411000000.0000000000 0.170007735490799005706463731258 -0.033734913915395736694335937500 -0.002264169743284583091735839844 -0.002705866703763604164123535156 0 0 0 0 
2411166666.6666665077 0.169952362775802612304687500000 -0.034692313522100448608398437500 -0.002545118331909180121180868994 -0.002488204045221209959742880713 0 0 0 0 
2411333333.3333334923 0.169900953769683810135049384371 -0.035159032791852951049804687500 -0.002553834114223719076869345557 -0.002529761986806989149806357275 0 0 0 0 
2411500000.0000000000 0.169507399201393099685830634371 -0.036342389881610870361328125000 -0.002682313090190290971043252100 -0.002173965331166983084437704932 0 0 0 0 
2411666666.6666665077 0.169543072581291198730468750000 -0.036764502525329589843750000000 -0.002564060967415571212768554688 -0.002096568467095493836643838037 0 0 0 0 
2411833333.3333334923 0.169335380196571405608807481258 -0.037578750401735312725026716407 -0.002645599422976375059840536963 -0.002067347988486289978027343750 0 0 0 0 
2412000000.0000000000 0.168918043375015286544638115629 -0.038446191698312759399414062500 -0.002707578940317035155055380713 -0.001986691728234291076660156250 0 0 0 0 
2412166666.6666665077 0.168600142002105712890625000000 -0.039260856807231903076171875000 -0.002625935478135942979099892725 -0.001694280537776648998260498047 0 0 0 0 
2412333333.3333334923 0.168595865368843106368856865629 -0.040025282651185989379882812500 -0.002684487029910088019130087744 -0.001690318225882947011234902490 0 0 0 0 
2412500000.0000000000 0.168000459671020507812500000000 -0.040759943425655371929128278907 -0.002456180285662413077113486182 -0.001672297483310102982762002100 0 0 0 0 
2412666666.6666665077 0.167570650577545193771200615629 -0.041905850172042846679687500000 -0.002646781736984848976135253906 -0.001721974113024770996691059644 0 0 0 0 
2412833333.3333334923 0.167192384600639287750567518742 -0.042674697935581207275390625000 -0.002565044444054365158081054688 -0.001660234876908361911773681641 0 0 0 0 
2413000000.0000000000 0.166565805673599187652911268742 -0.043533727526664726947824846093 -0.002852559322491288185119628906 -0.001469859504140913920161581885 0 0 0 0 
2413166666.6666665077 0.166123151779174804687500000000 -0.044614542275667190551757812500 -0.002869996940717101097106933594 -0.001654305262491106986999511719 0 0 0 0 
2413333333.3333334923 0.165495887398719787597656250000 -0.045446317642927169799804687500 -0.003079870948567986922023154150 -0.001565972808748484091517783057 0 0 0 0 
2413500000.0000000000 0.164996400475501986404580634371 -0.046420056372880942607839216407 -0.003191390307620168165919638525 -0.001483396510593592903734516675 0 0 0 0 
2413666666.6666665077 0.164485096931457491775674384371 -0.047460366040468222881276716407 -0.003337080124765634970424033057 -0.001444781781174242930171347510 0 0 0 0 
2413833333.3333334923 0.163783609867096002776776231258 -0.048509258776903152465820312500 -0.003385019488632678985595703125 -0.001266644219867884895922016675 0 0 0 0 
2414000000.0000000000 0.163221836090087890625000000000 -0.049356773495674133300781250000 -0.003468725131824613051173544775 -0.001006613485515118078944540869 0 0 0 0 
2414166666.6666665077 0.162592858076095608810263115629 -0.050348762422800057148020158593 -0.003562226658686995939967490088 -0.000866103859152644872665405273 0 0 0 0 
2414333333.3333334923 0.162118226289749201018963731258 -0.051364351063966751098632812500 -0.003504346124827861785888671875 -0.000683700724039226770401000977 0 0 0 0 
2414500000.0000000000 0.161775097250938387771768134371 -0.052183996886014938354492187500 -0.003837272292003035979029990088 -0.000643818755634129047393798828 0 0 0 0 
2414666666.6666665077 0.161270469427108792404013115629 -0.053169805556535720825195312500 -0.003779812948778272108790732275 -0.000457985443063080310821533203 0 0 0 0 
2414833333.3333334923 0.160819560289382906814736884371 -0.054239701479673392559011091407 -0.003671834478154778914210654150 -0.000163804739713668796137133188 0 0 0 0 
2415000000.0000000000 0.160579949617385892013388115629 -0.055413644760847091674804687500 -0.003719030413776636123657226562 0.000018893564629252068698406219 0 0 0 0 
2415166666.6666665077 0.160204246640205411056356865629 -0.056475181132555007934570312500 -0.003770456183701754050013876807 0.000176982735865749391630449838 0 0 0 0 
2415333333.3333334923 0.159985050559043912032919365629 -0.057668868452310562133789062500 -0.003504621097818017005920410156 0.000535646860953420400619506836 0 0 0 0 
2415500000.0000000000 0.159747153520584106445312500000 -0.058808404952287667011301408593 -0.003513107774779200987574911963 0.000375504139810800606578272687 0 0 0 0 
2415666666.6666665077 0.159388363361358587066973768742 -0.060055714100599288940429687500 -0.003583153476938604874851845850 0.000636427197605371475219726562 0 0 0 0 
2415833333.3333334923 0.159246638417244013030682481258 -0.061432842165231711650807966407 -0.003508640918880701065063476562 0.000862429267726838588714599609 0 0 0 0 
2416000000.0000000000 0.158962965011596707443075615629 -0.062726676464080810546875000000 -0.003343583317473531203029013525 0.000819712993688881397247314453 0 0 0 0 
2416166666.6666665077 0.158749863505363492111044365629 -0.064006157219409942626953125000 -0.003438239218667149977443076025 0.001084303017705678939819335938 0 0 0 0 
2416333333.3333334923 0.158553272485733004470986884371 -0.065233416855335235595703125000 -0.003176066325977445082423544775 0.001090309349820018031476664966 0 0 0 0 
2416500000.0000000000 0.158324792981147793868856865629 -0.066661275923252105712890625000 -0.003024492645636200904846191406 0.001216297736391424915911030347 0 0 0 0 
2416666666.6666665077 0.157761111855506896972656250000 -0.067914858460426330566406250000 -0.003094879910349845886230468750 0.001331593608483671925188374097 0 0 0 0 
2416833333.3333334923 0.157798618078231811523437500000 -0.069305017590522766113281250000 -0.002920398255810141997096396338 0.001555504044517874934552836841 0 0 0 0 
2417000000.0000000000 0.157227918505668612381143134371 -0.070624232292175292968750000000 -0.002759656170383096174952841650 0.001540325698442756912828754956 0 0 0 0 
2417166666.6666665077 0.156920596957206698318643134371 -0.071626566350460052490234375000 -0.002904545748606324195861816406 0.001715659745968878052355122144 0 0 0 0 
2417333333.3333334923 0.156753569841384887695312500000 -0.072769299149513244628906250000 -0.002573087578639388084411621094 0.001609578030183911106706928784 0 0 0 0 
2417500000.0000000000 0.156385257840156610686932481258 -0.074053749442100524902343750000 -0.002553520957008004188537597656 0.001873570028692483901977539062 0 0 0 0 
2417666666.6666665077 0.156358376145362909515057481258 -0.074904568493366241455078125000 -0.002525440417230128808262490381 0.001830036402679980018018413013 0 0 0 0 
2417833333.3333334923 0.155988126993179293533486884371 -0.075814098119735717773437500000 -0.002217733068391681151149130713 0.001871443586423992893816303784 0 0 0 0 
2418000000.0000000000 0.155714392662048312088174384371 -0.077025771141052246093750000000 -0.002270156284794210953953408350 0.001869968837127089934108115088 0 0 0 0 
2418166666.6666665077 0.155477315187454195877236884371 -0.077772296965122222900390625000 -0.002085830317810177803039550781 0.001850711298175155899645161206 0 0 0 0 
2418333333.3333334923 0.155536800622940091232138115629 -0.078761041164398193359375000000 -0.002048481954261661009547568213 0.001762880361638963005663227612 0 0 0 0 
2418500000.0000000000 0.155261635780334500411825615629 -0.079677887260913848876953125000 -0.002063930500298738913295126807 0.002025073627009987831115722656 0 0 0 0 
2418666666.6666665077 0.155270487070083590408486884371 -0.080518007278442382812500000000 -0.001978840911760925812962197412 0.002004609908908606009242392432 0 0 0 0 
2418833333.3333334923 0.154767170548438998123330634371 -0.081315778195858001708984375000 -0.001956239575520157814025878906 0.002091413363814353942871093750 0 0 0 0 
2419000000.0000000000 0.154557332396507290939169365629 -0.082150109112262725830078125000 -0.001906047109514475085614848560 0.002157606650143862204310751807 0 0 0 0 
2419166666.6666665077 0.154412865638732910156250000000 -0.082806453108787536621093750000 -0.001709177158772944970371865381 0.002179307630285621123072958838 0 0 0 0 
2419333333.3333334923 0.154040157794952392578125000000 -0.083273209631443023681640625000 -0.001707400078885257027269672925 0.002379284938797355131862021338 0 0 0 0 
2419500000.0000000000 0.153904438018798800369424384371 -0.084244608879089355468750000000 -0.001618129666894674084307026440 0.002340783830732107162475585938 0 0 0 0 
2419666666.6666665077 0.153812989592552212814169365629 -0.084698460996150970458984375000 -0.001375893363729119084001850659 0.002226477954536675973179482568 0 0 0 0 
2419833333.3333334923 0.153431296348571805099325615629 -0.085214637219905853271484375000 -0.001340741524472832896588969653 0.002231889870017766952514648438 0 0 0 0 
