# Hz S RI R 
2400000000.0000000000 0.168915390968322809417401231258 0.040249146521091461181640625000 0.003048977116122841835021972656 -0.001216890988871454975725483472 0 0 0 0 
2400166666.6666665077 0.169699072837829589843750000000 0.039626922458410263061523437500 0.002955202478915452957153320312 -0.001393732381984591917750693213 0 0 0 0 
2400333333.3333334923 0.170241296291351290603799384371 0.038673475384712219238281250000 0.002844005823135375976562500000 -0.001420560758560895919799804688 0 0 0 0 
2400500000.0000000000 0.170754387974739102462606865629 0.037869125604629516601562500000 0.002721078461036086082458496094 -0.001526155509054661013959575122 0 0 0 0 
2400666666.6666665077 0.171059906482696505447549384371 0.037068840116262442851979841407 0.002820280846208333969116210938 -0.001503027742728590965270996094 0 0 0 0 
2400833333.3333334923 0.171575754880905206878338731258 0.036267980933189392089843750000 0.002600459149107336997985839844 -0.001619690330699085972429585034 0 0 0 0 
2401000000.0000000000 0.172020390629768399337606865629 0.035529453307390213012695312500 0.002679432276636362075805664062 -0.001829270273447036960004496997 0 0 0 0 
2401166666.6666665077 0.172103777527809087555255018742 0.034886520355939872051198591407 0.002335795667022467093226767432 -0.001831400324590503952623676831 0 0 0 0 
2401333333.3333334923 0.172228962182998712737713731258 0.033910416066646582866628278907 0.002463635057210921807530068506 -0.001746666384860873005510639722 0 0 0 0 
2401500000.0000000000 0.172671362757682800292968750000 0.033253397792577736591379533593 0.002444403944537044005153036963 -0.001893751206807791969896626050 0 0 0 0 
2401666666.6666665077 0.172551572322845486739950615629 0.032644651830196380615234375000 0.002320910803973675207850790869 -0.002067928202450274987461709131 0 0 0 0 
2401833333.3333334923 0.172612562775611905196981865629 0.031783100217580802226979841407 0.002289728261530398888828896631 -0.002217801986262201829197548975 0 0 0 0 
2402000000.0000000000 0.172507300972938509842080634371 0.030912963673472401010533516796 0.002337242010980844931361533057 -0.002112341113388537926914834131 0 0 0 0 
2402166666.6666665077 0.172490358352661105056924384371 0.030144352465867999685267264454 0.002225859789177774949314736475 -0.002285642083734273910522460938 0 0 0 0 
2402333333.3333334923 0.172478824853897094726562500000 0.029386922717094421386718750000 0.002144525526091455979588173975 -0.002432375214993954138514853369 0 0 0 0 
2402500000.0000000000 0.172597706317901611328125000000 0.028534997254610061645507812500 0.001958008855581284003016806494 -0.002323476597666739983799599756 0 0 0 0 
2402666666.6666665077 0.172399669885635403732138115629 0.027492832392454150808314139454 0.001879284391179681041120219653 -0.002637339988723396821262978662 0 0 0 0 
2402833333.3333334923 0.172101169824600191970986884371 0.026757739484310150146484375000 0.001694279606454073949101113428 -0.002551688347011805014369345557 0 0 0 0 
2403000000.0000000000 0.171902194619178799728231865629 0.025696067139506340026855468750 0.001674526603892445997950888525 -0.002722174627706408934352255713 0 0 0 0 
2403166666.6666665077 0.171878904104232788085937500000 0.024661466479301449167271798046 0.001499477075412870103951479273 -0.002690885215997695922851562500 0 0 0 0 
2403333333.3333334923 0.171621173620223999023437500000 0.023457560688257220876673514454 0.001340258284471929073333740234 -0.002790651284158229827880859375 0 0 0 0 
2403500000.0000000000 0.171153962612152099609375000000 0.022438429296016689645787423046 0.001246868283487855954411172021 -0.002849971642717719078063964844 0 0 0 0 
2403666666.6666665077 0.171012148261070306975994981258 0.021205792203545570373535156250 0.000919573125429451465606689453 -0.002782730618491768836975097656 0 0 0 0 
2403833333.3333334923 0.171001270413398687164630018742 0.020114259794354438781738281250 0.000968773732893168926239013672 -0.002679851371794939041137695312 0 0 0 0 
2404000000.0000000000 0.170718640089035006424111884371 0.018857169896364208566685860546 0.001025541569106281020520854419 -0.002574293175712227821350097656 0 0 0 0 
2404166666.6666665077 0.170452669262886102874432481258 0.017601212486624721181849295704 0.000700537872035056352615356445 -0.002589147305116056962254189600 0 0 0 0 
2404333333.3333334923 0.170145168900489807128906250000 0.016208160668611529958704764454 0.000629485875833779573440551758 -0.002685175742954016165492392432 0 0 0 0 
2404500000.0000000000 0.170074552297592190841513115629 0.014832745306193830317487147852 0.000801219837740063667297363281 -0.002593978308141231970546103369 0 0 0 0 
2404666666.6666665077 0.169954076409339904785156250000 0.013340686447918420273750506055 0.000587736256420612335205078125 -0.002474722452461719946620322119 0 0 0 0 
2404833333.3333334923 0.169798225164413507659588731258 0.011852565221488479269007498829 0.000405840895837172920077723370 -0.002486161654815078215358115088 0 0 0 0 
2405000000.0000000000 0.169768571853637695312500000000 0.010260884650051590311070626171 0.000282707158476114273071289062 -0.002493995940312743186950683594 0 0 0 0 
2405166666.6666665077 0.169556811451911898513955634371 0.008636122569441795349121093750 0.000329122092807665521472376691 -0.002437299350276588959934853662 0 0 0 0 
2405333333.3333334923 0.169457152485847500900106865629 0.007055884692817926406860351562 0.000241782356170006096363067627 -0.002220756141468882994410849463 0 0 0 0 
2405500000.0000000000 0.169442638754844693282919365629 0.005364331416785717010498046875 0.000205447984626516699790954590 -0.002251066267490386962890625000 0 0 0 0 
2405666666.6666665077 0.169299259781837491134481865629 0.003744654357433319091796875000 0.000106050174508709501154483934 -0.002035996178165078163146972656 0 0 0 0 
2405833333.3333334923 0.169129908084869412521200615629 0.002138353651389480070826865088 0.000184413613169454011038103647 -0.002172746928408741950988769531 0 0 0 0 
2406000000.0000000000 0.169047057628631591796875000000 0.000236985710216686102464953012 0.000408121937653049826622009277 -0.002032965188845992088317871094 0 0 0 0 
2406166666.6666665077 0.168838843703269986251669365629 -0.001335273613221942944767617334 0.000208248005947098108843126840 -0.002144869882613420920131064307 0 0 0 0 
2406333333.3333334923 0.168845325708389309982138115629 -0.003083175281062722206115722656 0.000245391420321538990170079364 -0.002083316678181291060206747900 0 0 0 0 
2406500000.0000000000 0.168751657009124811370526231258 -0.004807836841791868209838867188 0.000349323003320023417472839355 -0.001966786803677678108215332031 0 0 0 0 
2406666666.6666665077 0.168490111827850286285723768742 -0.006470246240496634569649980762 0.000420467957155779004096984863 -0.002024812158197164969203329932 0 0 0 0 
2406833333.3333334923 0.168465033173561096191406250000 -0.008175613358616828918457031250 0.000323271757224574685096740723 -0.002196871209889649911167763818 0 0 0 0 
2407000000.0000000000 0.168312788009643610198651231258 -0.009710985235869884490966796875 0.000137433729832992011874598370 -0.002244781237095593972447060693 0 0 0 0 
2407166666.6666665077 0.168381109833717401702557481258 -0.011247965507209299260149570898 0.000331355375237762873798924579 -0.002309356350451707839965820312 0 0 0 0 
2407333333.3333334923 0.168268308043479891678018134371 -0.012812281027436259878138358204 0.000206278957193717387601575308 -0.002408621367067099051234579932 0 0 0 0 
2407500000.0000000000 0.168044894933700589279013115629 -0.014135061763226989400843436329 0.000361654179869219714969080792 -0.002385149477049707932713173975 0 0 0 0 
2407666666.6666665077 0.167999237775802612304687500000 -0.015427842736244199925432774023 0.000288967508822679519653320312 -0.002530929399654268784763955225 0 0 0 0 
2407833333.3333334923 0.167787462472915704925213731258 -0.016902001574635509145716483204 -0.000006866424428153550252318382 -0.002591175725683569908142089844 0 0 0 0 
2408000000.0000000000 0.167890056967735290527343750000 -0.017996406182646751403808593750 0.000166314901434816392973223276 -0.002635515294969081878662109375 0 0 0 0 
2408166666.6666665077 0.167974188923835809905682481258 -0.018991785123944279062291329296 0.000076455515227280557155609131 -0.002736061112955213026759482275 0 0 0 0 
2408333333.3333334923 0.168110281229019192794638115629 -0.020165316760540008544921875000 -0.000231039448408410007327479230 -0.002736970083788036866428994287 0 0 0 0 
2408500000.0000000000 0.168053567409515408614950615629 -0.021119816228747371328333670704 -0.000161545904120430404513758527 -0.002876888262107967896702431787 0 0 0 0 
2408666666.6666665077 0.168326184153556795974893134371 -0.022003887221217158925989920704 -0.000298016471788287216990870343 -0.002934206044301391081569052588 0 0 0 0 
2408833333.3333334923 0.168424054980277987381143134371 -0.022839561104774478567103201954 -0.000247516058152541518211364746 -0.002992921741679310798645019531 0 0 0 0 
2409000000.0000000000 0.168476849794387789627236884371 -0.024014884606003761291503906250 -0.000625043059699237346649169922 -0.002903739456087350845336914062 0 0 0 0 
2409166666.6666665077 0.168831557035446194747763115629 -0.024686003103852268564244454296 -0.000567917362786829471588134766 -0.002968646585941315130946493994 0 0 0 0 
2409333333.3333334923 0.169213548302650507171307481258 -0.025726327672600749624232108204 -0.000678753945976495742797851562 -0.003095719963312149047851562500 0 0 0 0 
2409500000.0000000000 0.169357642531394986251669365629 -0.026628177613019939767857735546 -0.000861891021486371755599975586 -0.003091322956606746153590536963 0 0 0 0 
2409666666.6666665077 0.169559359550476101974325615629 -0.027385840192437168466588204296 -0.001044174772687255902531289209 -0.003099331166595220999476767432 0 0 0 0 
2409833333.3333334923 0.169734209775924710372763115629 -0.028229575604200359689732735546 -0.001159933512099087021471333081 -0.003222642233595252037048339844 0 0 0 0 
2410000000.0000000000 0.169935420155525207519531250000 -0.029049037024378780019739920704 -0.001340619870461523966548300635 -0.003141125664114952087402343750 0 0 0 0 
2410166666.6666665077 0.170055821537971496582031250000 -0.029848769307136539113978201954 -0.001576142269186675982234335791 -0.003101804060861467881443642725 0 0 0 0 
2410333333.3333334923 0.169991269707679804046307481258 -0.030627677217125889169713204296 -0.001579735311679542064666748047 -0.003076276741921902136561728369 0 0 0 0 
2410500000.0000000000 0.170329853892326410491619981258 -0.031594451516866677021067033593 -0.001810749759897589900373149341 -0.002822707640007137818577431787 0 0 0 0 
2410666666.6666665077 0.170228585600852994064169365629 -0.032416243106126792217214216407 -0.002075684489682317213771201025 -0.002817922271788119836094521631 0 0 0 0 
2410833333.3333334923 0.170190185308456393142861884371 -0.033198859542608261108398437500 -0.002139183925464748902561806787 -0.002729258034378290176391601562 0 0 0 0 
2411000000.0000000000 0.170062273740768404861611884371 -0.033933874219655990600585937500 -0.002202052855864167213439941406 -0.002587835770100355148315429688 0 0 0 0 
2411166666.6666665077 0.169855475425720187088174384371 -0.034659735858440399169921875000 -0.002362554660066961808445595850 -0.002673364942893385887145996094 0 0 0 0 
2411333333.3333334923 0.169848069548606900314169365629 -0.035581767559051506732981096093 -0.002520482055842876000645302881 -0.002517667366191744804382324219 0 0 0 0 
2411500000.0000000000 0.169521212577819796463174384371 -0.036316562443971626972238908593 -0.002585963811725378036499023438 -0.002236563945189117951634072412 0 0 0 0 
2411666666.6666665077 0.169315129518508911132812500000 -0.036937613040208823467214216407 -0.002499361289665102958679199219 -0.002104766434058547019958496094 0 0 0 0 
2411833333.3333334923 0.169040784239769009689169365629 -0.037648197263479232788085937500 -0.002684016479179263114929199219 -0.001912603853270411925074911963 0 0 0 0 
2412000000.0000000000 0.169081792235374506194744981258 -0.038444984704256057739257812500 -0.002616745419800281958339072119 -0.001966417068615556196925497900 0 0 0 0 
2412166666.6666665077 0.168754726648330688476562500000 -0.039272751659154891967773437500 -0.002634769072756170792820595850 -0.001793751609511674100991274194 0 0 0 0 
2412333333.3333334923 0.168463483452796908279580634371 -0.040052115917205810546875000000 -0.002669546520337461991551064600 -0.001828433130867779038072895581 0 0 0 0 
2412500000.0000000000 0.167906045913696289062500000000 -0.040786579251289367675781250000 -0.002406676532700657844543457031 -0.001774229458533227010014199365 0 0 0 0 
2412666666.6666665077 0.167606502771377591232138115629 -0.041993308812379837036132812500 -0.002688327571377158164978027344 -0.001552918460220098929164267432 0 0 0 0 
2412833333.3333334923 0.167206451296806307693643134371 -0.042623002082109451293945312500 -0.002554493956267834143397665869 -0.001643890165723860046984028394 0 0 0 0 
2413000000.0000000000 0.166678741574287386795205634371 -0.043423954397439956665039062500 -0.002795069478452206091639853369 -0.001629212638363241932512592847 0 0 0 0 
2413166666.6666665077 0.165983274579048212249432481258 -0.044536747038364410400390625000 -0.002858319785445929007289267432 -0.001615517423488199927686381763 0 0 0 0 
2413333333.3333334923 0.165346309542655889313067518742 -0.045566655695438391948659528907 -0.003014546819031238989589072119 -0.001496797893196343941929482568 0 0 0 0 
2413500000.0000000000 0.165017098188400296310263115629 -0.046404570341110229492187500000 -0.002947157016023993925807333838 -0.001493036048486829020856547778 0 0 0 0 
2413666666.6666665077 0.164478003978729303558026231258 -0.047383677214384078979492187500 -0.003295580158010125160217285156 -0.001442851033061742999433207935 0 0 0 0 
2413833333.3333334923 0.163758650422096307952557481258 -0.048249498009681701660156250000 -0.003369164187461138205287314307 -0.001197572564706206104875874097 0 0 0 0 
2414000000.0000000000 0.163160949945449801345986884371 -0.049339234828948981548268903907 -0.003430978627875446839573525537 -0.001099487650208174965502094800 0 0 0 0 
2414166666.6666665077 0.162630602717399597167968750000 -0.050228159874677658081054687500 -0.003472193377092481093165732275 -0.000963918922934681177139282227 0 0 0 0 
2414333333.3333334923 0.162010818719863891601562500000 -0.051307193934917449951171875000 -0.003551651025190949006321572412 -0.000822315749246627092361450195 0 0 0 0 
2414500000.0000000000 0.161797642707824707031250000000 -0.052267029881477362895925153907 -0.003718571970239282088038779150 -0.000615276745520532131195068359 0 0 0 0 
2414666666.6666665077 0.161340430378913907150106865629 -0.053224164992570877075195312500 -0.003719947068020700974705361475 -0.000327263987855985814898890363 0 0 0 0 
2414833333.3333334923 0.160958662629127502441406250000 -0.054336994886398322368581403907 -0.003637660061940550804138183594 -0.000161789968842640492037096567 0 0 0 0 
2415000000.0000000000 0.160516887903213500976562500000 -0.055345572531223297119140625000 -0.003573605790734291076660156250 -0.000107637832115869996234616690 0 0 0 0 
2415166666.6666665077 0.160139992833137512207031250000 -0.056490786373615271831472028907 -0.003678764216601849035975790869 0.000163776188855990794583997183 0 0 0 0 
2415333333.3333334923 0.160062149167060907561932481258 -0.057816352695226669311523437500 -0.003568778745830059051513671875 0.000422766315750777721405029297 0 0 0 0 
2415500000.0000000000 0.159759134054183987716513115629 -0.058762557804584503173828125000 -0.003573362482711673216578818213 0.000357536715455353314250391827 0 0 0 0 
2415666666.6666665077 0.159488096833229092696981865629 -0.060020964592695243144948591407 -0.003541883779689670042750693213 0.000690420216415077447891235352 0 0 0 0 
2415833333.3333334923 0.159483462572097806075888115629 -0.061400637030601501464843750000 -0.003480157116428018049952841650 0.000627114321105182170867919922 0 0 0 0 
2416000000.0000000000 0.158921405673027010818643134371 -0.062714636325836181640625000000 -0.003451923839747906164882040869 0.000996984425000846385955810547 0 0 0 0 
2416166666.6666665077 0.158802300691604586502236884371 -0.064007438719272613525390625000 -0.003325932193547486825230263818 0.001025163102895021004917763818 0 0 0 0 
2416333333.3333334923 0.158500805497169494628906250000 -0.065356150269508361816406250000 -0.003199640428647398948669433594 0.001175436191260815100428915869 0 0 0 0 
2416500000.0000000000 0.158324539661407498458700615629 -0.066638953983783721923828125000 -0.003074138192459940910339355469 0.001259782817214726968052529443 0 0 0 0 
2416666666.6666665077 0.157814934849739102462606865629 -0.067934162914752960205078125000 -0.003022928955033421950099326025 0.001494974945671855969669961084 0 0 0 0 
2416833333.3333334923 0.157779350876808194259481865629 -0.069437965750694274902343750000 -0.003023806959390639825108193506 0.001541960518807172992108989185 0 0 0 0 
2417000000.0000000000 0.157228633761405889313067518742 -0.070573739707469940185546875000 -0.002886364469304680824279785156 0.001742232590913773016688681494 0 0 0 0 
2417166666.6666665077 0.157011389732360812088174384371 -0.071611039340496063232421875000 -0.002611930482089519934413290869 0.001701053581200540065765380859 0 0 0 0 
2417333333.3333334923 0.156729251146316500564736884371 -0.072916530072689056396484375000 -0.002676172647625207901000976562 0.001662323717027903036830283057 0 0 0 0 
2417500000.0000000000 0.156383812427520807464276231258 -0.074070319533348083496093750000 -0.002584700006991624832153320312 0.001652469858527183966395712744 0 0 0 0 
2417666666.6666665077 0.156323820352554293533486884371 -0.074896678328514099121093750000 -0.002385383937507867813110351562 0.001796438591554760932922363281 0 0 0 0 
2417833333.3333334923 0.155951544642448397537393134371 -0.076063223183155059814453125000 -0.002304465742781757874729775537 0.001749584684148431041120219653 0 0 0 0 
2418000000.0000000000 0.155690118670463589767294365629 -0.077019423246383666992187500000 -0.002216614317148923873901367188 0.001946881762705743095995258862 0 0 0 0 
2418166666.6666665077 0.155385181307792691329794365629 -0.077835969626903533935546875000 -0.002215921180322765870335244287 0.002044685883447527885437011719 0 0 0 0 
2418333333.3333334923 0.155502811074256896972656250000 -0.078672289848327636718750000000 -0.002083503641188145117518759619 0.002030252944678068161010742188 0 0 0 0 
2418500000.0000000000 0.155145213007926913162393134371 -0.079649806022644042968750000000 -0.002040833001956344084498740088 0.001977524254471064047572470557 0 0 0 0 
2418666666.6666665077 0.154993176460266113281250000000 -0.080462343990802764892578125000 -0.001956449588760734038112021338 0.002026556758210062980651855469 0 0 0 0 
2418833333.3333334923 0.154879093170165987869424384371 -0.081444390118122100830078125000 -0.001904578763060271956800151294 0.002072741976007819175720214844 0 0 0 0 
2419000000.0000000000 0.154454544186592102050781250000 -0.082078225910663604736328125000 -0.001824099104851484081865620190 0.002155641093850135803222656250 0 0 0 0 
2419166666.6666665077 0.154357045888900812347088731258 -0.082742907106876373291015625000 -0.001851628418080508925794291919 0.002133960369974375204799033057 0 0 0 0 
2419333333.3333334923 0.153963491320610101897869981258 -0.083358183503150939941406250000 -0.001618352136574686007258749854 0.002153475536033511161804199219 0 0 0 0 
2419500000.0000000000 0.153783008456230191329794365629 -0.084115013480186462402343750000 -0.001601616619154810905456542969 0.002246794058009982109069824219 0 0 0 0 
2419666666.6666665077 0.153604790568351801116619981258 -0.084728665649890899658203125000 -0.001358346664346754984614706885 0.002245999639853835105895996094 0 0 0 0 
2419833333.3333334923 0.153298154473304804046307481258 -0.085116326808929443359375000000 -0.001258220756426454024073935400 0.002281785942614078955409384619 0 0 0 0 
