# Hz S RI R 
2400000000.0000000000 0.157782599329948397537393134371 0.111170813441276605804119981258 -0.004438957665115594863891601562 -0.008887203410267829895019531250 0 0 0 0 
2400166666.6666665077 0.157005816698074313064736884371 0.108955793082714094688334682814 -0.004560615867376328382010175488 -0.008664684370160102844238281250 0 0 0 0 
2400333333.3333334923 0.156839251518249511718750000000 0.106971599161624894569477817186 -0.004815239459276199340820312500 -0.008438340388238430023193359375 0 0 0 0 
2400500000.0000000000 0.156315430998802212814169365629 0.104430012404918698409872490629 -0.004906967747956514358520507812 -0.008353157900273799896240234375 0 0 0 0 
2400666666.6666665077 0.155975550413131713867187500000 0.101869091391563401649555942186 -0.005045083817094563570504472949 -0.008170823566615581512451171875 0 0 0 0 
2400833333.3333334923 0.155688315629959106445312500000 0.099111422896385192871093750000 -0.005115325562655925750732421875 -0.008031330071389675140380859375 0 0 0 0 
2401000000.0000000000 0.155465289950370788574218750000 0.096173733472824096679687500000 -0.005385763943195343017578125000 -0.007975580170750617980957031250 0 0 0 0 
2401166666.6666665077 0.155055880546569796463174384371 0.093366704881191253662109375000 -0.005520720500499010086059570312 -0.007907324470579624176025390625 0 0 0 0 
2401333333.3333334923 0.155139014124870300292968750000 0.090497858822345733642578125000 -0.005773137323558331403250409863 -0.007730979006737470626831054688 0 0 0 0 
2401500000.0000000000 0.155270174145698602874432481258 0.087458349764347076416015625000 -0.006107316352427005767822265625 -0.007662043906748294830322265625 0 0 0 0 
2401666666.6666665077 0.155083671212196405608807481258 0.084301963448524475097656250000 -0.006512131541967391967773437500 -0.007562234066426753997802734375 0 0 0 0 
2401833333.3333334923 0.155186086893081692794638115629 0.081400014460086822509765625000 -0.006772173102945089340209960938 -0.007366611622273921966552734375 0 0 0 0 
2402000000.0000000000 0.155638605356216402908486884371 0.078427225351333618164062500000 -0.006873207166790962219238281250 -0.007204513531178236007690429688 0 0 0 0 
2402166666.6666665077 0.156196475028991699218750000000 0.075492918491363525390625000000 -0.007242433261126279830932617188 -0.006849574856460095319266034863 0 0 0 0 
2402333333.3333334923 0.156893685460090609451455634371 0.072387278079986572265625000000 -0.007561379112303256988525390625 -0.006667452398687601089477539062 0 0 0 0 
2402500000.0000000000 0.157687425613403292556924384371 0.069553025066852569580078125000 -0.007741415407508611679077148438 -0.006344487890601158142089843750 0 0 0 0 
2402666666.6666665077 0.158464103937149103362713731258 0.067147985100746154785156250000 -0.007980979979038238525390625000 -0.006010407581925392150878906250 0 0 0 0 
2402833333.3333334923 0.159499987959861810882244981258 0.064058788120746612548828125000 -0.008157441392540931701660156250 -0.005728142336010932922363281250 0 0 0 0 
2403000000.0000000000 0.160986334085464505294638115629 0.061446521431207656860351562500 -0.008428810164332389831542968750 -0.005399381741881371411795331738 0 0 0 0 
2403166666.6666665077 0.162377998232841491699218750000 0.059033636003732681274414062500 -0.008464761078357696533203125000 -0.005038037430495023727416992188 0 0 0 0 
2403333333.3333334923 0.163781836628913907150106865629 0.056389246135950088500976562500 -0.008670726791024208068847656250 -0.004721614532172679901123046875 0 0 0 0 
2403500000.0000000000 0.165281847119331387618856865629 0.053821850568056106567382812500 -0.008828314021229743957519531250 -0.004308999050408601760864257812 0 0 0 0 
2403666666.6666665077 0.167111158370971707443075615629 0.051534540951251976703684221093 -0.008841936476528644561767578125 -0.003975821658968926343435956738 0 0 0 0 
2403833333.3333334923 0.168869495391845703125000000000 0.049311488866806030273437500000 -0.008924121968448162078857421875 -0.003538774559274315834045410156 0 0 0 0 
2404000000.0000000000 0.170432791113853510100994981258 0.047297675162553787231445312500 -0.008935572579503059387207031250 -0.003197078127413988113403320312 0 0 0 0 
2404166666.6666665077 0.172296851873397799392861884371 0.045377742499113082885742187500 -0.008994553238153457641601562500 -0.002757827751338481903076171875 0 0 0 0 
2404333333.3333334923 0.173966273665428189376669365629 0.043589849025011062622070312500 -0.009018551558256149291992187500 -0.002507812110707163810729980469 0 0 0 0 
2404500000.0000000000 0.175842061638832092285156250000 0.041923347860574722290039062500 -0.008898939006030559539794921875 -0.002003534929826856093165732275 0 0 0 0 
2404666666.6666665077 0.177694842219352694412393134371 0.040522657334804541851003278907 -0.008982376195490360260009765625 -0.001917062210850418047664023291 0 0 0 0 
2404833333.3333334923 0.179576724767684908767861884371 0.039269417524337768554687500000 -0.008980963379144668579101562500 -0.001587177859619260051129985278 0 0 0 0 
2405000000.0000000000 0.181052416563034113128338731258 0.038338277488946921611745466407 -0.008964164182543754577636718750 -0.001074732048436999104143452222 0 0 0 0 
2405166666.6666665077 0.182799398899078396896200615629 0.037300530821084983135182966407 -0.008771703578531742095947265625 -0.000721670337952673435211181641 0 0 0 0 
2405333333.3333334923 0.184602320194244412521200615629 0.036905407905578613281250000000 -0.008629999123513698577880859375 -0.000690653920173645019531250000 0 0 0 0 
2405500000.0000000000 0.186217620968818692306356865629 0.036135166883468627929687500000 -0.008795689791440963745117187500 -0.000424089259468019008636474609 0 0 0 0 
2405666666.6666665077 0.187885820865631103515625000000 0.035729683935642242431640625000 -0.008535826578736305236816406250 -0.000084232553490437567234039307 0 0 0 0 
2405833333.3333334923 0.189476236701011713225994981258 0.035522226244211196899414062500 -0.008445679210126399993896484375 0.000072886548878159373998641968 0 0 0 0 
2406000000.0000000000 0.190910473465919494628906250000 0.035227052867412567138671875000 -0.008503222838044166564941406250 0.000390173081541433876186925067 0 0 0 0 
2406166666.6666665077 0.192141294479370089431924384371 0.035140395164489753032643903907 -0.008343666791915893554687500000 0.000630476279184222221374511719 0 0 0 0 
2406333333.3333334923 0.193468257784843389313067518742 0.035237565636634826660156250000 -0.008177096955478191375732421875 0.000872103613801300525665283203 0 0 0 0 
2406500000.0000000000 0.194711968302726801116619981258 0.035371374338865280151367187500 -0.008209634572267532348632812500 0.001053968910127877972246479565 0 0 0 0 
2406666666.6666665077 0.195665702223777798751669365629 0.035482112318277359008789062500 -0.008126143366098403930664062500 0.001348073710687458948848105322 0 0 0 0 
2406833333.3333334923 0.196456462144851712325888115629 0.035679999738931662822682966407 -0.007874379865825176239013671875 0.001396303414367138905766152490 0 0 0 0 
2407000000.0000000000 0.197148516774177606780682481258 0.036071021109819412231445312500 -0.007863177917897701263427734375 0.001547113643027842044830322266 0 0 0 0 
2407166666.6666665077 0.197890326380729703048544365629 0.036334760487079620361328125000 -0.007706162054091691970825195312 0.001702153123915195898768759619 0 0 0 0 
2407333333.3333334923 0.198127329349517794510049384371 0.036740243434906012798268903907 -0.007604498881846666336059570312 0.001825670478865504047991108472 0 0 0 0 
2407500000.0000000000 0.198546886444091796875000000000 0.036967433989047997211496721093 -0.007591210305690765380859375000 0.001859115320257842974421835791 0 0 0 0 
2407666666.6666665077 0.198797181248664911468182481258 0.037380345165729522705078125000 -0.007517495658248662948608398438 0.002107361564412713050842285156 0 0 0 0 
2407833333.3333334923 0.198569744825363186935263115629 0.037666223943233489990234375000 -0.007507186848670244216918945312 0.002245495328679680824279785156 0 0 0 0 
2408000000.0000000000 0.198706835508346613128338731258 0.037840474396944052959401716407 -0.007414668332785367965698242188 0.002377941738814115957972861182 0 0 0 0 
2408166666.6666665077 0.198234617710113497635049384371 0.037930563092231750488281250000 -0.007544783409684897336477948926 0.002461697906255722045898437500 0 0 0 0 
2408333333.3333334923 0.198072478175163296798544365629 0.037945818156003952026367187500 -0.007428282871842384338378906250 0.002786341821774839921238564600 0 0 0 0 
2408500000.0000000000 0.197543323040008489410723768742 0.038016982376575469970703125000 -0.007401705719530582427978515625 0.002893299795687199072596884619 0 0 0 0 
2408666666.6666665077 0.196952328085899408538494981258 0.038025628775358200073242187500 -0.007412004750221967697143554688 0.003108426230028272108790732275 0 0 0 0 
2408833333.3333334923 0.196184962987899808029013115629 0.037648264318704612041432966407 -0.007295449264347553253173828125 0.003193860873579978942871093750 0 0 0 0 
2409000000.0000000000 0.195403784513473510742187500000 0.037275377660989761352539062500 -0.007366919890046119689941406250 0.003322305390611290931701660156 0 0 0 0 
2409166666.6666665077 0.194324180483818109710369981258 0.036771614104509346698801408593 -0.007163892034441232681274414062 0.003661735216155647797825478662 0 0 0 0 
2409333333.3333334923 0.193358480930328396896200615629 0.036201663315296173095703125000 -0.007091247010976076126098632812 0.003811371978372335000279091943 0 0 0 0 
2409500000.0000000000 0.192328304052352905273437500000 0.035246159881353378295898437500 -0.007068448700010777387137128613 0.004051825031638144579415605762 0 0 0 0 
2409666666.6666665077 0.191297531127929687500000000000 0.034272558987140662456472028907 -0.006810811348259449005126953125 0.004189056809991598129272460938 0 0 0 0 
2409833333.3333334923 0.189887419342994689941406250000 0.033111341297626502300222028907 -0.006630646996200084686279296875 0.004409675020724534988403320312 0 0 0 0 
2410000000.0000000000 0.188768401741981506347656250000 0.031921446323394782329518903907 -0.006610559299588203430175781250 0.004683907143771648406982421875 0 0 0 0 
2410166666.6666665077 0.187441214919090298751669365629 0.030261471867561340332031250000 -0.006487988401204347610473632812 0.004798912443220615386962890625 0 0 0 0 
2410333333.3333334923 0.186226904392242403885049384371 0.028830401599407199514368826954 -0.006336403079330921173095703125 0.004836919717490673065185546875 0 0 0 0 
2410500000.0000000000 0.185150742530822809417401231258 0.027173178270459178579310233204 -0.006190671119838953018188476562 0.005189633928239346417898847363 0 0 0 0 
2410666666.6666665077 0.183781549334526089767294365629 0.025259582325816151010533516796 -0.006055667065083981427664472363 0.005211672745645046234130859375 0 0 0 0 
2410833333.3333334923 0.182917699217796297928018134371 0.023085949942469600332239920704 -0.005786323454231023788452148438 0.005466542206704617413992597363 0 0 0 0 
2411000000.0000000000 0.181705936789512606521768134371 0.021082786843180659902552420704 -0.005649762228131294250488281250 0.005529466085135936737060546875 0 0 0 0 
2411166666.6666665077 0.180829212069511413574218750000 0.018846161663532260549525076954 -0.005481537897139787673950195312 0.005594928748905658721923828125 0 0 0 0 
2411333333.3333334923 0.179944962263107299804687500000 0.016458045691251761699636091407 -0.005426191724836826324462890625 0.005777969956398010253906250000 0 0 0 0 
2411500000.0000000000 0.179275646805763189117755018742 0.014151585288345810281773751171 -0.005325747188180685043334960938 0.005803964566439390182495117188 0 0 0 0 
2411666666.6666665077 0.178645655512809808929119981258 0.011730096302926540374755859375 -0.005291244015097618103027343750 0.005957020912319421768188476562 0 0 0 0 
2411833333.3333334923 0.178054660558700589279013115629 0.009399902075529098510742187500 -0.004988825879991055402273847363 0.005998255219310522079467773438 0 0 0 0 
2412000000.0000000000 0.177742451429367093185263115629 0.006620995234698057174682617188 -0.004984457977116107940673828125 0.006238568574190139770507812500 0 0 0 0 
2412166666.6666665077 0.177657961845398004729901231258 0.004037519916892051696777343750 -0.004903111606836318969726562500 0.006410263478755950927734375000 0 0 0 0 
2412333333.3333334923 0.177464395761489895919638115629 0.001429699361324310085893940503 -0.004826461896300315856933593750 0.006521590054035186767578125000 0 0 0 0 
2412500000.0000000000 0.177782788872718811035156250000 -0.001180356717668473937390971606 -0.004426651634275913238525390625 0.006497795227915048599243164062 0 0 0 0 
2412666666.6666665077 0.177878737449645996093750000000 -0.003892139531672000885009765625 -0.004672872833907604217529296875 0.006949354428797960281372070312 0 0 0 0 
2412833333.3333334923 0.178376734256744412521200615629 -0.006689986214041709899902343750 -0.004172928631305694580078125000 0.006956706754863262176513671875 0 0 0 0 
2413000000.0000000000 0.179086491465568486969317518742 -0.009190632961690425872802734375 -0.004163302015513181686401367188 0.007187695708125829696655273438 0 0 0 0 
2413166666.6666665077 0.179712578654289301116619981258 -0.011795573867857459676722342579 -0.003919371403753758344168378613 0.007413420826196671399588300488 0 0 0 0 
2413333333.3333334923 0.180401623249054010589276231258 -0.014455499127507209777832031250 -0.003851723158732057051417685400 0.007622949779033660888671875000 0 0 0 0 
2413500000.0000000000 0.181290760636329706390057481258 -0.017076723277568820608118826954 -0.003411502344533801078796386719 0.007809942122548818588256835938 0 0 0 0 
2413666666.6666665077 0.182393282651901300628338731258 -0.019526198506355289113978201954 -0.003171907737851142883300781250 0.007987883873283863067626953125 0 0 0 0 
2413833333.3333334923 0.183531910181045504470986884371 -0.021946545690298080444335937500 -0.002915368415415287017822265625 0.008063913322985172271728515625 0 0 0 0 
2414000000.0000000000 0.184689104557037409026776231258 -0.024344854056835181499440778907 -0.002566114766523241996765136719 0.008344661444425582885742187500 0 0 0 0 
2414166666.6666665077 0.185824155807495089431924384371 -0.026337729766964908945103829296 -0.002230860292911529974696493994 0.008498281240463256835937500000 0 0 0 0 
2414333333.3333334923 0.186990708112716702560263115629 -0.028561545535922050476074218750 -0.001943613635376095988629985278 0.008389619179069995880126953125 0 0 0 0 
2414500000.0000000000 0.188427373766899108886718750000 -0.030372884124517440795898437500 -0.001589124323800205967546772534 0.008642795495688915252685546875 0 0 0 0 
2414666666.6666665077 0.189834401011467007736044365629 -0.032293144613504409790039062500 -0.001284365309402347044703818213 0.008595700375735759735107421875 0 0 0 0 
2414833333.3333334923 0.191121548414230402190838731258 -0.034005708992481231689453125000 -0.000991449458524584770202636719 0.008639103733003139495849609375 0 0 0 0 
2415000000.0000000000 0.192354515194892911056356865629 -0.035543009638786322856862653907 -0.000609075592365115880966186523 0.008694303222000598907470703125 0 0 0 0 
2415166666.6666665077 0.193762764334678705413494981258 -0.036969739943742752075195312500 -0.000193750980542972711011609488 0.008673970587551593780517578125 0 0 0 0 
2415333333.3333334923 0.195210739970207186599893134371 -0.038131415843963623046875000000 0.000074176685302518308162689209 0.008492511697113513946533203125 0 0 0 0 
2415500000.0000000000 0.196567803621292086502236884371 -0.039043422788381576538085937500 0.000420682481490075588226318359 0.008551683276891708374023437500 0 0 0 0 
2415666666.6666665077 0.197804868221282986739950615629 -0.040089074522256851196289062500 0.000529610202647745609283447266 0.008520954288542270660400390625 0 0 0 0 
2415833333.3333334923 0.199115946888923700530682481258 -0.040738154202699661254882812500 0.000919372716452926397323608398 0.008384273387491703033447265625 0 0 0 0 
2416000000.0000000000 0.200076445937156705001669365629 -0.041610773652791976928710937500 0.001194377662613987922668457031 0.008317639119923114776611328125 0 0 0 0 
2416166666.6666665077 0.201303854584693908691406250000 -0.042187370359897606586496721093 0.001488450914621352932573628003 0.008133153431117534637451171875 0 0 0 0 
2416333333.3333334923 0.202245965600013705154580634371 -0.042608074843883507465402971093 0.001764202490448951938031840747 0.008111215196549892425537109375 0 0 0 0 
2416500000.0000000000 0.203137055039405794998330634371 -0.042906463146209716796875000000 0.002013822086155415014979697119 0.008096783421933650970458984375 0 0 0 0 
2416666666.6666665077 0.203855514526367187500000000000 -0.043254870921373367309570312500 0.002400127239525318145751953125 0.007990065030753612518310546875 0 0 0 0 
2416833333.3333334923 0.204342320561408996582031250000 -0.043232344090938568115234375000 0.002524032490327953858616494287 0.007888250052928924560546875000 0 0 0 0 
2417000000.0000000000 0.204874783754348810393963731258 -0.043381240218877792358398437500 0.002814476843923329873325966943 0.007685573305934667587280273438 0 0 0 0 
2417166666.6666665077 0.204981639981269808670205634371 -0.043117351830005652690847028907 0.003027515253052115006687783350 0.007720686495304107666015625000 0 0 0 0 
2417333333.3333334923 0.205123201012611389160156250000 -0.042848754674196243286132812500 0.003359048394486308097839355469 0.007468255236744880676269531250 0 0 0 0 
2417500000.0000000000 0.205161601305007906814736884371 -0.042768128216266632080078125000 0.003554286900907754898071289062 0.007461567409336566925048828125 0 0 0 0 
2417666666.6666665077 0.204971104860305786132812500000 -0.042396813631057739257812500000 0.003690988756716250939610146631 0.007113732863217592239379882812 0 0 0 0 
2417833333.3333334923 0.204850852489471407791299384371 -0.041998121887445449829101562500 0.004074225667864084243774414062 0.007002612575888633728027343750 0 0 0 0 
2418000000.0000000000 0.204440757632255609710369981258 -0.041466619819402701641042341407 0.004221102688461542129516601562 0.006848455872386693954467773438 0 0 0 0 
2418166666.6666665077 0.203937605023384094238281250000 -0.041109871119260787963867187500 0.004384756088256835937500000000 0.006744712125509977340698242188 0 0 0 0 
2418333333.3333334923 0.203289970755577087402343750000 -0.040771055966615676879882812500 0.004490255378186702728271484375 0.006445330101996660232543945312 0 0 0 0 
2418500000.0000000000 0.202489286661148099044638115629 -0.040444362908601760864257812500 0.004900100640952587127685546875 0.006192377768456935882568359375 0 0 0 0 
2418666666.6666665077 0.201737940311431912521200615629 -0.040139880031347281719167341407 0.004951726179569959640502929688 0.006006068084388971328735351562 0 0 0 0 
2418833333.3333334923 0.200660184025764493087606865629 -0.039914138615131378173828125000 0.004935266450047492980957031250 0.005834062583744525909423828125 0 0 0 0 
2419000000.0000000000 0.199490815401077298263388115629 -0.039789292961359017108957658593 0.005157561972737312316894531250 0.005654613487422466278076171875 0 0 0 0 
2419166666.6666665077 0.198228389024734497070312500000 -0.039799571037292480468750000000 0.005346599500626325607299804688 0.005392953753471375379080487988 0 0 0 0 
2419333333.3333334923 0.196911409497261102874432481258 -0.039926689118146903301198591407 0.005343451630324125289916992188 0.005253328941762447357177734375 0 0 0 0 
2419500000.0000000000 0.195279583334922790527343750000 -0.039986986666917800903320312500 0.005374857690185309323782636426 0.004963375162333250045776367188 0 0 0 0 
2419666666.6666665077 0.193780556321144104003906250000 -0.040555097162723541259765625000 0.005465027876198291778564453125 0.004924931563436985015869140625 0 0 0 0 
2419833333.3333334923 0.192213937640190096756143134371 -0.040924634784460067749023437500 0.005476580932736396789550781250 0.004691589623689652356619550488 0 0 0 0 
