# Hz S RI R 50
2400000000.0000000000 0.155167609453201293945312500000 0.106367520987987504432759067186 0.000948251399677246809005737305 -0.001800229074433445930480957031 0 0 0 0 
2400166666.6666665077 0.154940307140350286285723768742 0.103926733136177104621644673443 0.000875798636116087436676025391 -0.001906306599266827106475830078 0 0 0 0 
2400333333.3333334923 0.154804065823554992675781250000 0.101599976420402499099893134371 0.000755009124986827373504638672 -0.001877485774457454898236918872 0 0 0 0 
2400500000.0000000000 0.154737383127212496658486884371 0.098865047097206115722656250000 0.000587391143199056386947631836 -0.001862945151515305042266845703 0 0 0 0 
2400666666.6666665077 0.154808312654495211502236884371 0.096438147127628326416015625000 0.000490327307488769292831420898 -0.002188728656619787216186523438 0 0 0 0 
2400833333.3333334923 0.154789879918098505218182481258 0.093459859490394592285156250000 0.000314303237246349508136195050 -0.002154452493414282798767089844 0 0 0 0 
2401000000.0000000000 0.155011191964149502853231865629 0.090542748570442199707031250000 0.000341236183885484879643040790 -0.002180768875405191941502236475 0 0 0 0 
2401166666.6666665077 0.154805079102516202071981865629 0.087878681719303131103515625000 0.000053665011364500969648361206 -0.002133251400664449171779013525 0 0 0 0 
2401333333.3333334923 0.155090510845184298416299384371 0.084896840155124664306640625000 -0.000104042919701896594323296819 -0.002407927997410296960117959131 0 0 0 0 
2401500000.0000000000 0.155574232339859008789062500000 0.082078903913497924804687500000 -0.000297302467515692114830017090 -0.002187191275879741148707724463 0 0 0 0 
2401666666.6666665077 0.155774146318435696700888115629 0.079215720295906066894531250000 -0.000460374547401443123817443848 -0.002131327753886580900904990088 0 0 0 0 
2401833333.3333334923 0.156188681721687289138955634371 0.076615288853645324707031250000 -0.000685824372339993715286254883 -0.002234274521470069885253906250 0 0 0 0 
2402000000.0000000000 0.157242298126220703125000000000 0.073932223021984100341796875000 -0.000927876099012792110443115234 -0.002179766306653618812561035156 0 0 0 0 
2402166666.6666665077 0.157945901155471801757812500000 0.071129456162452697753906250000 -0.001154302270151674964307475513 -0.002031098818406463103053427588 0 0 0 0 
2402333333.3333334923 0.158845022320747403243856865629 0.068575523793697357177734375000 -0.001229472924023867087123251807 -0.001968318829312921004054404150 0 0 0 0 
2402500000.0000000000 0.160003557801246587555255018742 0.066055141389369964599609375000 -0.001295874128118156953098916162 -0.001865010941401124000549316406 0 0 0 0 
2402666666.6666665077 0.161025971174240112304687500000 0.063816659152507781982421875000 -0.001468071714043617031694721753 -0.001744441920891403935076069409 0 0 0 0 
2402833333.3333334923 0.162539020180702209472656250000 0.061395991593599319458007812500 -0.001595375593751668930053710938 -0.001303170109167695045471191406 0 0 0 0 
2403000000.0000000000 0.163845181465148898025674384371 0.059080969542264938354492187500 -0.001726459944620728926417685400 -0.001397217507474123997929238428 0 0 0 0 
2403166666.6666665077 0.165624067187309292892294365629 0.056943289935588836669921875000 -0.001633630599826573891880654443 -0.001202294835820794105529785156 0 0 0 0 
2403333333.3333334923 0.166776090860366793533486884371 0.054625403136014938354492187500 -0.001772939809598029093501425635 -0.000830931589007377624511718750 0 0 0 0 
2403500000.0000000000 0.168716698884963989257812500000 0.052744761109352111816406250000 -0.001762712490744888999341655200 -0.000712018983904272317886352539 0 0 0 0 
2403666666.6666665077 0.170583516359329195877236884371 0.050791952759027481079101562500 -0.001554842921905219988581992041 -0.000420620548538863713115137921 0 0 0 0 
2403833333.3333334923 0.172122955322265597244424384371 0.048924259841442108154296875000 -0.001522788428701459927799843896 -0.000321505882311612421840113507 0 0 0 0 
2404000000.0000000000 0.173679322004318209549111884371 0.047262545675039291381835937500 -0.001454545650631188912632607568 -0.000094455928774550557136535645 0 0 0 0 
2404166666.6666665077 0.175537943840026910979901231258 0.045671865344047553325612653907 -0.001263711717911065058467245947 -0.000105723833257798105478286743 0 0 0 0 
2404333333.3333334923 0.177146196365356500823651231258 0.044082913547754287719726562500 -0.001183332526125014045118022388 -0.000077027179941069334745407104 0 0 0 0 
2404500000.0000000000 0.178907945752143887618856865629 0.042860984802246086811106096093 -0.000836820458061993122100830078 -0.000124189042253419811099451886 0 0 0 0 
2404666666.6666665077 0.180525988340377807617187500000 0.041703239083290100097656250000 -0.000987663865089416503906250000 -0.000117548894195351803868693219 0 0 0 0 
2404833333.3333334923 0.182226359844207791427450615629 0.040624637156724929809570312500 -0.000960835895966738462448120117 -0.000244303169893100911944788800 0 0 0 0 
2405000000.0000000000 0.183486461639404296875000000000 0.040036048740148537372629533593 -0.000823524256702512502670288086 -0.000260977190919220501750391827 0 0 0 0 
2405166666.6666665077 0.185024335980415288727130018742 0.039294946938753128051757812500 -0.000831064477097243070602416992 -0.000180517294211313101366320200 0 0 0 0 
2405333333.3333334923 0.186563104391097994705361884371 0.038861900568008422851562500000 -0.000792983337305486202239990234 -0.000251530524110421484142857684 0 0 0 0 
2405500000.0000000000 0.187840819358825711349325615629 0.038348473608493811870534528907 -0.000902248197235167026519775391 -0.000225006457185372710227966309 0 0 0 0 
2405666666.6666665077 0.189109802246093805511151231258 0.037912692874670028686523437500 -0.000825326307676732540130615234 -0.000116394890937954200945715633 0 0 0 0 
2405833333.3333334923 0.190329775214195306975994981258 0.037739884108304977416992187500 -0.000720451294910162687301635742 -0.000121337405289523303508758545 0 0 0 0 
2406000000.0000000000 0.191390365362167386154013115629 0.037671506404876708984375000000 -0.000798515044152736663818359375 -0.000143813871545717093065538950 0 0 0 0 
2406166666.6666665077 0.192550331354141207595986884371 0.037473104894161217426340471093 -0.000886073103174567222595214844 -0.000089380038843955844640731812 0 0 0 0 
2406333333.3333334923 0.193366542458534212967080634371 0.037594038993120186542551408593 -0.000730437168385833501815795898 -0.000034463817428331822156906128 0 0 0 0 
2406500000.0000000000 0.194032236933708190917968750000 0.037536062300205230712890625000 -0.000595077348407357931137084961 0.000023144773876992988994325331 0 0 0 0 
2406666666.6666665077 0.194741427898407010177450615629 0.037565935403108596801757812500 -0.000738051661755889654159545898 -0.000032767016818979761820247038 0 0 0 0 
2406833333.3333334923 0.195298686623573303222656250000 0.037668969482183463359792341407 -0.000636403390672057867050170898 0.000053225416195346042513847351 0 0 0 0 
2407000000.0000000000 0.195551857352256802657919365629 0.037876341491937637329101562500 -0.000665017287246882915496826172 0.000114824229967780397690911565 0 0 0 0 
2407166666.6666665077 0.196025699377059908767861884371 0.037850003689527511596679687500 -0.000458291731774806976318359375 0.000074703311838675290346145630 0 0 0 0 
2407333333.3333334923 0.195888489484786987304687500000 0.038035269826650619506835937500 -0.000487695244373753721087855206 0.000004468471161089838398149891 0 0 0 0 
2407500000.0000000000 0.195844963192939813811932481258 0.038153018802404396747629533593 -0.000276424514595419222682398663 -0.000040303475543623790144920349 0 0 0 0 
2407666666.6666665077 0.195911735296249389648437500000 0.038070954382419593120534528907 -0.000299633218673989176750183105 -0.000029838945920346311550547941 0 0 0 0 
2407833333.3333334923 0.195342406630516107757244981258 0.038045108318328857421875000000 -0.000108517473563551902770996094 -0.000082391205069143325090408325 0 0 0 0 
2408000000.0000000000 0.195412307977676391601562500000 0.037879183888435356830637346093 -0.000248724827542900984913426532 -0.000150692358147352906778612680 0 0 0 0 
2408166666.6666665077 0.194927558302879305740518134371 0.037707649171352393413503278907 -0.000324586959322914481163024902 -0.000342860555974766612052917480 0 0 0 0 
2408333333.3333334923 0.194398880004882812500000000000 0.037253286689519882202148437500 -0.000260633009020239114761352539 -0.000352229137206450104713439941 0 0 0 0 
2408500000.0000000000 0.193696662783622686188067518742 0.036880448460578918457031250000 -0.000232326550758443799897870474 -0.000395762122934684211581629620 0 0 0 0 
2408666666.6666665077 0.193098962306976290603799384371 0.036340422928333282470703125000 -0.000091473601059988141059875488 -0.000486678007291629910469055176 0 0 0 0 
2408833333.3333334923 0.192374363541603088378906250000 0.035630777478218078613281250000 -0.000319420330924913287162780762 -0.000550712982658296823501586914 0 0 0 0 
2409000000.0000000000 0.191480666399002102950888115629 0.034655392169952392578125000000 -0.000390510685974731987148839130 -0.000723521399777382612228393555 0 0 0 0 
2409166666.6666665077 0.190621241927146911621093750000 0.033845402300357818603515625000 -0.000436332367826253175735473633 -0.000741644704248756170272827148 0 0 0 0 
2409333333.3333334923 0.189693301916122408767861884371 0.032767754048109061504323591407 -0.000581750471610575914382934570 -0.000777811394073069095611572266 0 0 0 0 
2409500000.0000000000 0.188504278659820612151776231258 0.031354952603578567504882812500 -0.000465013115899637287289219989 -0.000757191213779151439666748047 0 0 0 0 
2409666666.6666665077 0.187624379992485101897869981258 0.030029930174350738525390625000 -0.000656941963825374841690063477 -0.000656144344247877597808837891 0 0 0 0 
2409833333.3333334923 0.186412423849105807205361884371 0.028557162731885910034179687500 -0.000731240434106439352035522461 -0.000759043323341757059097290039 0 0 0 0 
2410000000.0000000000 0.185465559363365201095419365629 0.026959730312228199350377266796 -0.000730957719497382640838623047 -0.000686427345499396324157714844 0 0 0 0 
2410166666.6666665077 0.184507146477699307540731865629 0.025105996057391170156458670704 -0.000877632584888488054275512695 -0.000606669462285935878753662109 0 0 0 0 
2410333333.3333334923 0.183344155550003107268963731258 0.023180864751338958740234375000 -0.000833605881780385971069335938 -0.000666299951262772083282470703 0 0 0 0 
2410500000.0000000000 0.182322964072227505782919365629 0.021149357780814170837402343750 -0.000779009016696363687515258789 -0.000583963235840201377868652344 0 0 0 0 
2410666666.6666665077 0.181554794311523409744424384371 0.019060226157307628286341483204 -0.000820899847894906997680664062 -0.000660049670841544866561889648 0 0 0 0 
2410833333.3333334923 0.180833891034126309493856865629 0.016851147636771198617955391796 -0.000831416982691735029220581055 -0.000605623528826981782913208008 0 0 0 0 
2411000000.0000000000 0.180196583271026611328125000000 0.014722023159265519923200038477 -0.000903829524759203195571899414 -0.000513153092470020055770874023 0 0 0 0 
2411166666.6666665077 0.179371982812881497482138115629 0.012389806099236009770403477148 -0.000871401629410684108734130859 -0.000623704865574836730957031250 0 0 0 0 
2411333333.3333334923 0.178836479783058194259481865629 0.009899668395519256591796875000 -0.000924375082831829786300659180 -0.000535420374944806098937988281 0 0 0 0 
2411500000.0000000000 0.178317233920097406585369981258 0.007484784815460444364065839551 -0.001038277288898826079127646338 -0.000588817580137401819229125977 0 0 0 0 
2411666666.6666665077 0.178360566496849087814169365629 0.005190601572394371032714843750 -0.001115856342948972962023090894 -0.000661776226479560136795043945 0 0 0 0 
2411833333.3333334923 0.177850648760795593261718750000 0.002783715724945067925694131006 -0.000982032157480716705322265625 -0.000702766876202076673507690430 0 0 0 0 
2412000000.0000000000 0.178082928061485290527343750000 0.000181020950549282106474199838 -0.001215897034853697039960551685 -0.000645300722680985927581787109 0 0 0 0 
2412166666.6666665077 0.178218349814415005782919365629 -0.002079211873933672904968261719 -0.001328345155343412919285439600 -0.000700117787346243858337402344 0 0 0 0 
2412333333.3333334923 0.178449854254722595214843750000 -0.004609342198818922042846679688 -0.001439872081391512913944863428 -0.000603212276473641395568847656 0 0 0 0 
2412500000.0000000000 0.179036289453506497482138115629 -0.007148066069930791854858398438 -0.001622522366233170032501220703 -0.000625736836809664964675903320 0 0 0 0 
2412666666.6666665077 0.179349079728126498123330634371 -0.009520033374428749084472656250 -0.001609306666068732955335307544 -0.000441441952716559225886744366 0 0 0 0 
2412833333.3333334923 0.180176392197609003265057481258 -0.011973884887993339193323905079 -0.001596189453266561031341552734 -0.000443679920863360220759791241 0 0 0 0 
2413000000.0000000000 0.181012541055679293533486884371 -0.014194871298968790226946445898 -0.001814314397051929993870400537 -0.000253992795478552579879760742 0 0 0 0 
2413166666.6666665077 0.181821852922439602950888115629 -0.016743537038564678537388985546 -0.001907563069835304997087788159 -0.000242285124841146198198041373 0 0 0 0 
2413333333.3333334923 0.182639703154563903808593750000 -0.019058413803577419626256173046 -0.001794456737115978977800678784 -0.000072592876676935702562332153 0 0 0 0 
2413500000.0000000000 0.183557361364364596267861884371 -0.021336078643798831594446951954 -0.002022969769313931898829794775 0.000095550683909095823764801025 0 0 0 0 
2413666666.6666665077 0.184902355074882507324218750000 -0.023402072489261630666712576954 -0.001970891375094652175903320312 0.000052037717978237196803092957 0 0 0 0 
2413833333.3333334923 0.185939893126487704178018134371 -0.025445692241191860544224923046 -0.002141382312402129173278808594 0.000313891185214743018150329590 0 0 0 0 
2414000000.0000000000 0.187119618058204706390057481258 -0.027384065091609958303431326954 -0.001871545333415270068525004810 0.000452893145848065614700317383 0 0 0 0 
2414166666.6666665077 0.188394054770469693282919365629 -0.029206907376646999013880545704 -0.001885080710053443908691406250 0.000445289129856973886489868164 0 0 0 0 
2414333333.3333334923 0.189538121223449707031250000000 -0.031182562932372089731236641796 -0.001876634312793612913844443213 0.000542049645446240901947021484 0 0 0 0 
2414500000.0000000000 0.190834552049636813064736884371 -0.032537698745727539062500000000 -0.001710961456410587050794291919 0.000671930261887609958648681641 0 0 0 0 
2414666666.6666665077 0.191826775670051602462606865629 -0.034145150333642959594726562500 -0.001766524277627467892290424878 0.000705519982147961854934692383 0 0 0 0 
2414833333.3333334923 0.193252101540565490722656250000 -0.035542599856853492046315778907 -0.001690915203653275966644287109 0.000686411804053932428359985352 0 0 0 0 
2415000000.0000000000 0.194248721003532409667968750000 -0.036754507571458823467214216407 -0.001803118851967155933380126953 0.000852751138154417276382446289 0 0 0 0 
2415166666.6666665077 0.195545449852943392654580634371 -0.037874039262533187866210937500 -0.001691661775112152099609375000 0.000678815937135368585586547852 0 0 0 0 
2415333333.3333334923 0.196814432740211486816406250000 -0.038725964725017547607421875000 -0.001640994218178092999699257959 0.000853183912113308906555175781 0 0 0 0 
2415500000.0000000000 0.197881832718849209884481865629 -0.039585459977388381958007812500 -0.001539524761028588034986186450 0.000893096032086759805679321289 0 0 0 0 
2415666666.6666665077 0.198980540037155206878338731258 -0.040464997291564941406250000000 -0.001658103661611675999285053784 0.001157333143055438995361328125 0 0 0 0 
2415833333.3333334923 0.199776411056518610198651231258 -0.041132375597953803325612653907 -0.001659741858020425059674907153 0.001319224480539560101152729565 0 0 0 0 
2416000000.0000000000 0.200466766953468294998330634371 -0.041602339595556259155273437500 -0.001751088071614504077314067310 0.001281182630918920040130615234 0 0 0 0 
2416166666.6666665077 0.201341465115547207931356865629 -0.042135376483201980590820312500 -0.001498514669947325966478657300 0.001526908366940916018245077979 0 0 0 0 
2416333333.3333334923 0.202052593231201199630575615629 -0.042373213917016983032226562500 -0.001580804702825844071031879956 0.001521040336228907108306884766 0 0 0 0 
2416500000.0000000000 0.202497705817222595214843750000 -0.042728740721940987323801408593 -0.001385728013701736927032470703 0.001671370468102395968196249854 0 0 0 0 
2416666666.6666665077 0.202782213687896700760049384371 -0.042908098548650741577148437500 -0.001396800857037306048749614185 0.001793649164028465964673686450 0 0 0 0 
2416833333.3333334923 0.202890545129776000976562500000 -0.042971197515726089477539062500 -0.001145708374679089026210165869 0.001882738550193608023999858325 0 0 0 0 
2417000000.0000000000 0.203048899769782992263955634371 -0.043059851974248893047292341407 -0.001098687760531902096391987378 0.001901625422760844013811420972 0 0 0 0 
2417166666.6666665077 0.202770337462425204178018134371 -0.042923718690872192382812500000 -0.000901045801583677530288696289 0.002003022702410817146301269531 0 0 0 0 
2417333333.3333334923 0.202538520097732488434161268742 -0.042818985879421227191965471093 -0.000784773845225572586059570312 0.001865750993601978042005229419 0 0 0 0 
2417500000.0000000000 0.202246129512786892989950615629 -0.042758967727422707294504533593 -0.000657083117403090000152587891 0.002144657773897051811218261719 0 0 0 0 
2417666666.6666665077 0.201752856373786898513955634371 -0.042491573840379721904714216407 -0.000456935842521488720744532452 0.002078044693917036056518554688 0 0 0 0 
2417833333.3333334923 0.201397642493248013595419365629 -0.042421970516443252563476562500 -0.000232809674344025606482905255 0.001964052440598607063293457031 0 0 0 0 
2418000000.0000000000 0.200659766793251009842080634371 -0.042221434414386749267578125000 -0.000216490836464799913481035776 0.002136209979653358893153525244 0 0 0 0 
2418166666.6666665077 0.199833124876022311111611884371 -0.042065136134624481201171875000 -0.000127592240460216999053955078 0.002037881640717387199401855469 0 0 0 0 
2418333333.3333334923 0.198956638574600191970986884371 -0.041894912719726562500000000000 -0.000040812949009705341678073270 0.001911632949486375071881938403 0 0 0 0 
2418500000.0000000000 0.197818279266357394119424384371 -0.041900355368852622295339216407 0.000122475001262500909253796988 0.001682044356130063967463827979 0 0 0 0 
2418666666.6666665077 0.196955114603042602539062500000 -0.041793834418058402324636091407 0.000131520879222080111503601074 0.001576483948156238035914755713 0 0 0 0 
2418833333.3333334923 0.195716410875320406814736884371 -0.041962455958127982402761091407 0.000192949359188787612036028452 0.001655045663937926075578999097 0 0 0 0 
2419000000.0000000000 0.194261774420738192459268134371 -0.042193233966827392578125000000 0.000266661605564877390861511230 0.001611615647561847946764301831 0 0 0 0 
2419166666.6666665077 0.193137615919113186935263115629 -0.042466372251510620117187500000 0.000288528797682374715805053711 0.001503322855569422028185200269 0 0 0 0 
2419333333.3333334923 0.191676735877990694900674384371 -0.042874325066804892803151716407 0.000301546504488214904635828839 0.001410874770954251072527241284 0 0 0 0 
2419500000.0000000000 0.190164923667907687088174384371 -0.043462883681058876728098283593 0.000166221027029678198412218637 0.001402754918672143979313515771 0 0 0 0 
2419666666.6666665077 0.188626408576965304275674384371 -0.044340189546346657489817033593 0.000161078918608836802557268686 0.001303013414144515991210937500 0 0 0 0 
2419833333.3333334923 0.186787620186805697342080634371 -0.044842690229415886615793596093 0.000275478116236627101898193359 0.001379319699481130079982138525 0 0 0 0 
