# Hz S RI R 50
2400000000.0000000000 0.155087769031524713714276231258 0.106486082077026394943075615629 0.000803758332040160894393920898 -0.001673819264397025108337402344 0 0 0 0 
2400166666.6666665077 0.154886797070503207107705634371 0.104039810597896603683309990629 0.000892119714990258216857910156 -0.001857496798038483099696493994 0 0 0 0 
2400333333.3333334923 0.154867619276046808440838731258 0.101554684340953799148721259371 0.000845668429974466562271118164 -0.001864796737208962006809853662 0 0 0 0 
2400500000.0000000000 0.154670283198356600662393134371 0.098772555589675903320312500000 0.000705095473676919937133789062 -0.001955438870936632156372070312 0 0 0 0 
2400666666.6666665077 0.154734984040260287185830634371 0.096300609409809112548828125000 0.000612328352872282266616821289 -0.002113453578203916983363486182 0 0 0 0 
2400833333.3333334923 0.154887542128562899490518134371 0.093493998050689697265625000000 0.000522265327163040637969970703 -0.002194220433011651039123535156 0 0 0 0 
2401000000.0000000000 0.154760375618934603592080634371 0.090588472783565521240234375000 0.000348089670296758413314819336 -0.002228960627689958052394247900 0 0 0 0 
2401166666.6666665077 0.154843509197235107421875000000 0.087733216583728790283203125000 0.000012039100511174179950748750 -0.002300930675119162039515829932 0 0 0 0 
2401333333.3333334923 0.155222207307815607268963731258 0.085056856274604797363281250000 -0.000085759609646629542112350464 -0.002242395421490073204040527344 0 0 0 0 
2401500000.0000000000 0.155428081750869806487713731258 0.082252077758312225341796875000 -0.000266060873400420004695338116 -0.002223558258265256881713867188 0 0 0 0 
2401666666.6666665077 0.155800953507423400878906250000 0.079267211258411407470703125000 -0.000383632490411400794982910156 -0.002204890362918376922607421875 0 0 0 0 
2401833333.3333334923 0.156168147921562194824218750000 0.076543122529983520507812500000 -0.000605231965892016887664794922 -0.002310684882104396820068359375 0 0 0 0 
2402000000.0000000000 0.157106503844261197189169365629 0.073978677392005920410156250000 -0.000870302610564976930618286133 -0.002135151065886021094081259619 0 0 0 0 
2402166666.6666665077 0.157768189907074002364950615629 0.071271382272243499755859375000 -0.000947648193687200546264648438 -0.002117427298799157142639160156 0 0 0 0 
2402333333.3333334923 0.158790469169616699218750000000 0.068620376288890838623046875000 -0.001194740994833410003064799731 -0.002047990448772906823399209131 0 0 0 0 
2402500000.0000000000 0.159901142120361300369424384371 0.066218577325344085693359375000 -0.001376774976961314895032573169 -0.001894198707304894924163818359 0 0 0 0 
2402666666.6666665077 0.161057040095329312423544365629 0.063711762428283691406250000000 -0.001368610188364983038661337744 -0.001785992411896585984470986475 0 0 0 0 
2402833333.3333334923 0.162450015544891412933026231258 0.061327006667852401733398437500 -0.001508346409536897919298481519 -0.001547707477584481022478413159 0 0 0 0 
2403000000.0000000000 0.163889557123184204101562500000 0.059146355837583541870117187500 -0.001710499753244220993639301831 -0.001343328738585114912745810400 0 0 0 0 
2403166666.6666665077 0.165548339486122103592080634371 0.056932996958494193340261091407 -0.001707638264633714935900044019 -0.001046004472300410053850483472 0 0 0 0 
2403333333.3333334923 0.166965305805206298828125000000 0.054831940680742256855051408593 -0.001661990652792155959485698169 -0.000937194621656090021133422852 0 0 0 0 
2403500000.0000000000 0.168764904141426086425781250000 0.052827086299657821655273437500 -0.001719641848467289967777871240 -0.000727050355635583400726318359 0 0 0 0 
2403666666.6666665077 0.170543119311332702636718750000 0.050815828144550316547434221093 -0.001563013996928930065752338940 -0.000511668971739709377288818359 0 0 0 0 
2403833333.3333334923 0.172096207737922696212606865629 0.048981625586748123168945312500 -0.001641478273086250045179057544 -0.000536284700501710176467895508 0 0 0 0 
2404000000.0000000000 0.173695906996726989746093750000 0.047333694994449622417409528907 -0.001359048415906727097154926831 -0.000176451809238642508357447491 0 0 0 0 
2404166666.6666665077 0.175483331084251403808593750000 0.045736275613307952880859375000 -0.001228696666657925085780478369 -0.000129464038764126598834991455 0 0 0 0 
2404333333.3333334923 0.177066326141357394119424384371 0.044145490974187850952148437500 -0.001177029684185981967328715747 -0.000010112619747815189714533653 0 0 0 0 
2404500000.0000000000 0.178742349147796603103799384371 0.042778216302394866943359375000 -0.001102730515412986061693501050 -0.000046539942559320479631423950 0 0 0 0 
2404666666.6666665077 0.180544093251228304763955634371 0.041809119284152991558034528907 -0.000955618335865437984466552734 -0.000259352877037599682807922363 0 0 0 0 
2404833333.3333334923 0.182157352566719110686932481258 0.040592897683382027362863908593 -0.000809082644991576671600341797 -0.000162527227075770497322082520 0 0 0 0 
2405000000.0000000000 0.183564022183418301681356865629 0.040006600320339202880859375000 -0.000754914130084216594696044922 -0.000088959634013008326292037964 0 0 0 0 
2405166666.6666665077 0.184983849525451687911825615629 0.039388995617628097534179687500 -0.000856418628245592117309570312 -0.000061287209973670542240142822 0 0 0 0 
2405333333.3333334923 0.186521410942077608963174384371 0.038821231573820107196848283593 -0.000692490721121430397033691406 -0.000209128600545227500513353891 0 0 0 0 
2405500000.0000000000 0.187957912683486910720986884371 0.038465689867734909057617187500 -0.000786075426731258630752563477 -0.000159241768415085998460492545 0 0 0 0 
2405666666.6666665077 0.189177930355071993728799384371 0.037900269031524658203125000000 -0.000756127061322331428527832031 -0.000260774191701784675747471942 0 0 0 0 
2405833333.3333334923 0.190314203500747708419638115629 0.037768546491861343383789062500 -0.000797499960754066705703735352 -0.000109400265500880804940900259 0 0 0 0 
2406000000.0000000000 0.191396921873092706878338731258 0.037543669342994689941406250000 -0.000815340259578078985214233398 -0.000293701858026906902163905011 0 0 0 0 
2406166666.6666665077 0.192363098263740511795205634371 0.037435203790664672851562500000 -0.000821494671981781721115112305 -0.000184174699825234711170196533 0 0 0 0 
2406333333.3333334923 0.193288996815681513030682481258 0.037557974457740776752512346093 -0.000547503237612545490264892578 -0.000044650409108726307749748230 0 0 0 0 
2406500000.0000000000 0.194253399968147305587606865629 0.037491582334041602397878278907 -0.000708344567101448774337768555 0.000079896431998349726200103760 0 0 0 0 
2406666666.6666665077 0.194722071290016202071981865629 0.037718877196311950683593750000 -0.000672735390253365039825439453 0.000077323944424279034137725830 0 0 0 0 
2406833333.3333334923 0.195226669311523409744424384371 0.037719715386629111553151716407 -0.000578412262257188558578491211 0.000045318338379729539155960083 0 0 0 0 
2407000000.0000000000 0.195538952946662902832031250000 0.037994798272848129272460937500 -0.000566497445106506347656250000 0.000058653920859796933155467374 0 0 0 0 
2407166666.6666665077 0.195949450135230990310830634371 0.037942297756671912456472028907 -0.000354787654941901618808192120 0.000144986959639936712667188101 0 0 0 0 
2407333333.3333334923 0.195873200893402099609375000000 0.037969324737787246704101562500 -0.000331097922753542715876978741 -0.000017569649571669291367734603 0 0 0 0 
2407500000.0000000000 0.195929870009422302246093750000 0.038156092166900641704518903907 -0.000132272383780218687936505728 -0.000037728223105659708380699158 0 0 0 0 
2407666666.6666665077 0.195887804031372098068075615629 0.038160461932420730590820312500 -0.000148290433571673902586260385 -0.000034265813155798241496086121 0 0 0 0 
2407833333.3333334923 0.195510879158973693847656250000 0.038059819489717476581613908593 -0.000214462517760693999841967172 -0.000016734762539272199979032210 0 0 0 0 
2408000000.0000000000 0.195357725024223299881143134371 0.037916682660579681396484375000 -0.000125473088701255592420855112 -0.000230850098887458389431553973 0 0 0 0 
2408166666.6666665077 0.194764539599418612381143134371 0.037705209106206886982004533593 -0.000012459220670280050149167708 -0.000444525241618975996971130371 0 0 0 0 
2408333333.3333334923 0.194430291652679387848223768742 0.037227835506200790405273437500 -0.000099321870948188006877899170 -0.000250651093665510416030883789 0 0 0 0 
2408500000.0000000000 0.193758592009544400314169365629 0.036931905895471572875976562500 -0.000171214473084546598509111948 -0.000384606741135940009921473370 0 0 0 0 
2408666666.6666665077 0.193045660853385897537393134371 0.036403764039278030395507812500 -0.000129901760374195900842389517 -0.000445336627308279275894165039 0 0 0 0 
2408833333.3333334923 0.192340359091758700271768134371 0.035690262913703918457031250000 -0.000361824582796543782383519305 -0.000428754952736198902130126953 0 0 0 0 
2409000000.0000000000 0.191409587860107394119424384371 0.034756232053041458129882812500 -0.000318460690323263406753540039 -0.000570082222111523151397705078 0 0 0 0 
2409166666.6666665077 0.190528288483619689941406250000 0.033894371241331100463867187500 -0.000267203693510964512825012207 -0.000562236062251031398773193359 0 0 0 0 
2409333333.3333334923 0.189528539776802090743856865629 0.032859899103641510009765625000 -0.000416109076468273997306823730 -0.000763936492148786783218383789 0 0 0 0 
2409500000.0000000000 0.188447862863540704925213731258 0.031516276299953460693359375000 -0.000483853655168786590725499286 -0.000754034554120153188705444336 0 0 0 0 
2409666666.6666665077 0.187631592154502896407919365629 0.030136691406369209289550781250 -0.000604900531470775604248046875 -0.000713833142071962356567382812 0 0 0 0 
2409833333.3333334923 0.186309859156608609298544365629 0.028610058128833770751953125000 -0.000676226278301328420639038086 -0.000709715532138943672180175781 0 0 0 0 
2410000000.0000000000 0.185502007603645296951455634371 0.026993174105882651592214216407 -0.000692105561029165983200073242 -0.000602630898356437683105468750 0 0 0 0 
2410166666.6666665077 0.184593886137008694747763115629 0.025120086967945098876953125000 -0.000710534397512674331665039062 -0.000566131086088716983795166016 0 0 0 0 
2410333333.3333334923 0.183515682816505404373330634371 0.023465875536203380929967110546 -0.000809895049314945936203002930 -0.000564407499041408300399780273 0 0 0 0 
2410500000.0000000000 0.182543471455574007888955634371 0.021312845870852470397949218750 -0.000758109905291348695755004883 -0.000523324997629970312118530273 0 0 0 0 
2410666666.6666665077 0.181608319282531710525674384371 0.019200310111045840871790701954 -0.000857248727697879076004028320 -0.000571706099435687065124511719 0 0 0 0 
2410833333.3333334923 0.180911019444465609451455634371 0.017003500834107398986816406250 -0.000860290369018912315368652344 -0.000677417672704905271530151367 0 0 0 0 
2411000000.0000000000 0.180130571126937893966513115629 0.014796095900237560272216796875 -0.000901869207154959440231323242 -0.000451856292784214019775390625 0 0 0 0 
2411166666.6666665077 0.179503649473190307617187500000 0.012553200125694280106514177930 -0.000836958584841340780258178711 -0.000593745498917996883392333984 0 0 0 0 
2411333333.3333334923 0.178993776440620394607705634371 0.010032507590949540574043474805 -0.000781607406679540872573852539 -0.000559856882318854331970214844 0 0 0 0 
2411500000.0000000000 0.178427010774612399002236884371 0.007671204395592212677001953125 -0.000854704470839351415634155273 -0.000544934184290468692779541016 0 0 0 0 
2411666666.6666665077 0.178245157003402709960937500000 0.005324336700141429901123046875 -0.000979173113591969013214111328 -0.000595628167502582073211669922 0 0 0 0 
2411833333.3333334923 0.177903100848197909256143134371 0.002937037730589509010314941406 -0.000921100960113108158111572266 -0.000597663805820047855377197266 0 0 0 0 
2412000000.0000000000 0.178263992071151705642861884371 0.000080353849625680595636367798 -0.001221773796714842102648090894 -0.000610899005550891160964965820 0 0 0 0 
2412166666.6666665077 0.178191021084785489181356865629 -0.002060159575194119973423623193 -0.001220988924615084908129047925 -0.000779875088483095169067382812 0 0 0 0 
2412333333.3333334923 0.178578004240989712814169365629 -0.004675972741097211837768554688 -0.001263891346752644018885947119 -0.000632821989711374044418334961 0 0 0 0 
2412500000.0000000000 0.179016739130020113845986884371 -0.007236127741634845733642578125 -0.001358961453661323027369833838 -0.000651880400255322456359863281 0 0 0 0 
2412666666.6666665077 0.179537683725357111175213731258 -0.009488079696893692016601562500 -0.001455733436159789995906210791 -0.000612771720625460147857666016 0 0 0 0 
2412833333.3333334923 0.180248901247978210449218750000 -0.011898702941834930074671561329 -0.001670756144449115016339946216 -0.000633472925983369350433349609 0 0 0 0 
2413000000.0000000000 0.180933445692062405685263115629 -0.014380074106156829488734061329 -0.001640831935219466903089213794 -0.000439993658801540678173619403 0 0 0 0 
2413166666.6666665077 0.181732192635536193847656250000 -0.016467813402414318429967110546 -0.001777183613739907958387065356 -0.000360849167918786406517028809 0 0 0 0 
2413333333.3333334923 0.182674840092658996582031250000 -0.018957864493131641042689139454 -0.001892524654977024035212851416 -0.000069231959059834480285644531 0 0 0 0 
2413500000.0000000000 0.183723270893096896072549384371 -0.021258186548948291433314139454 -0.001965730683878064155578613281 0.000084959836385678499937057495 0 0 0 0 
2413666666.6666665077 0.184925049543380709549111884371 -0.023363512009382251394251639454 -0.002049889648333191871643066406 0.000032330481190001592040061951 0 0 0 0 
2413833333.3333334923 0.185977458953857394119424384371 -0.025419645011425018310546875000 -0.001910674618557095961329794775 0.000398193369619548320770263672 0 0 0 0 
2414000000.0000000000 0.186997205018997192382812500000 -0.027215858921408649789830391796 -0.001827787957154213948490761865 0.000423903984483331387669163837 0 0 0 0 
2414166666.6666665077 0.188465669751167297363281250000 -0.029236538335680961608886718750 -0.001818882068619132041931152344 0.000492909864988178014755249023 0 0 0 0 
2414333333.3333334923 0.189521610736846896072549384371 -0.031182285398244861257532889454 -0.001760901068337261893628764575 0.000516622676514089107513427734 0 0 0 0 
2414500000.0000000000 0.190969273447990389724893134371 -0.032511051744222640991210937500 -0.001562363933771848895429301685 0.000560078246053308248519897461 0 0 0 0 
2414666666.6666665077 0.191903397440910311599893134371 -0.034103684127330780029296875000 -0.001662074006162584044812846606 0.000605608627665787935256958008 0 0 0 0 
2414833333.3333334923 0.193233266472816495040731865629 -0.035524636507034301757812500000 -0.001551211695186794021009135669 0.000794911175034940242767333984 0 0 0 0 
2415000000.0000000000 0.194429352879524203201455634371 -0.036759912967681891704518903907 -0.001696135615929960987688374097 0.000742683827411383390426635742 0 0 0 0 
2415166666.6666665077 0.195642456412315396407919365629 -0.037890303879976272583007812500 -0.001742791733704506917240761865 0.000825389579404145479202270508 0 0 0 0 
2415333333.3333334923 0.196739137172699002364950615629 -0.038810629397630691528320312500 -0.001629832433536648967145610278 0.000700077449437230825424194336 0 0 0 0 
2415500000.0000000000 0.197826206684112604339276231258 -0.039541434496641159057617187500 -0.001657343003898859024047851562 0.000878094462677836418151855469 0 0 0 0 
2415666666.6666665077 0.198981925845146206954794365629 -0.040414866060018539428710937500 -0.001639842521399260000941611182 0.001073111081495881080627441406 0 0 0 0 
2415833333.3333334923 0.199848473072052001953125000000 -0.041037715971469879150390625000 -0.001661637681536376909968710791 0.001340300776064395904541015625 0 0 0 0 
2416000000.0000000000 0.200541779398918207366619981258 -0.041534751653671271587331403907 -0.001685098395682870908024453271 0.001124160015024245002149272388 0 0 0 0 
2416166666.6666665077 0.201217263936996487716513115629 -0.042220961302518851543386091407 -0.001476598787121474959729838794 0.001389148645102977969525981372 0 0 0 0 
2416333333.3333334923 0.201921492815017700195312500000 -0.042386192828416817401926408593 -0.001555388444103301005122519385 0.001588683458976448015925742041 0 0 0 0 
2416500000.0000000000 0.202467784285545404632244981258 -0.042634069919586181640625000000 -0.001486279070377350070356059497 0.001637473003938793919206928784 0 0 0 0 
2416666666.6666665077 0.202715143561363192459268134371 -0.043069493025541312480886091407 -0.001369753270410001061083149487 0.001862170640379190011265420068 0 0 0 0 
2416833333.3333334923 0.202924355864524813553018134371 -0.042972836643457412719726562500 -0.001244091195985675074933696216 0.001796550117433070919634174878 0 0 0 0 
2417000000.0000000000 0.203039646148681612869424384371 -0.043210454285144812847097028907 -0.001179668004624546007869101416 0.001781446044333278916002583081 0 0 0 0 
2417166666.6666665077 0.202792152762412997146768134371 -0.043025948107242577289621721093 -0.000968193984590470790863037109 0.002049995120614767074584960938 0 0 0 0 
2417333333.3333334923 0.202479511499404907226562500000 -0.042862579226493842388112653907 -0.000836885184980928897857666016 0.002075606957077980041503906250 0 0 0 0 
2417500000.0000000000 0.202305182814598111251669365629 -0.042814940214157097553293596093 -0.000698869524057954549789428711 0.001922169583849608898162841797 0 0 0 0 
2417666666.6666665077 0.201805531978607205489950615629 -0.042597465217113501811940778907 -0.000458190159406512975692749023 0.002025865484029055075404501807 0 0 0 0 
2417833333.3333334923 0.201399132609367398361044365629 -0.042382195591926581645925153907 -0.000323827232932671904563903809 0.001906209276057780005811381763 0 0 0 0 
2418000000.0000000000 0.200725182890892001053018134371 -0.042200580239295959472656250000 -0.000091992391389794647693634033 0.001930555212311447100398398291 0 0 0 0 
2418166666.6666665077 0.199827402830123901367187500000 -0.042046800255775451660156250000 -0.000075380361522547900676727295 0.002015362959355115890502929688 0 0 0 0 
2418333333.3333334923 0.198954820632934598068075615629 -0.041833057999610900878906250000 0.000026856416297960098495687178 0.001878771581687032959581684644 0 0 0 0 
2418500000.0000000000 0.197903260588645907303018134371 -0.041930828243494026874582658593 0.000110176712041720802157801495 0.001723637804388999938964843750 0 0 0 0 
2418666666.6666665077 0.196932926774024991134481865629 -0.041839376091957092285156250000 0.000129915031720884090096074237 0.001725386362522840933558798682 0 0 0 0 
2418833333.3333334923 0.195663392543792696853799384371 -0.041964918375015258789062500000 0.000314860517391934990882873535 0.001691670040600002028821635669 0 0 0 0 
2419000000.0000000000 0.194390073418617304046307481258 -0.042330466210842132568359375000 0.000315413140924647504657191144 0.001549168140627444007276225513 0 0 0 0 
2419166666.6666665077 0.193050384521484402755575615629 -0.042432833462953567504882812500 0.000181733950739726397112169809 0.001304598874412477016448974609 0 0 0 0 
2419333333.3333334923 0.191602095961570711990518134371 -0.042968314141035079956054687500 0.000210562051506713005617418832 0.001269795931875705935834575122 0 0 0 0 
2419500000.0000000000 0.190137267112731905838174384371 -0.043404299765825271606445312500 0.000226488205953501192018231802 0.001380171976052225069758749854 0 0 0 0 
2419666666.6666665077 0.188514605164527893066406250000 -0.044142652302980422973632812500 0.000273229728918522596359252930 0.001342887291684746959088969653 0 0 0 0 
2419833333.3333334923 0.186925143003463800628338731258 -0.044830024242401123046875000000 0.000256168714258819818496704102 0.001215213560499251105664897388 0 0 0 0 
