# Version 1.00
#
freq[Hz];re:Trc1_S11;im:Trc1_S11;re:Trc2_S21;im:Trc2_S21;
2.400000000000000E+009;1.730206906795502E-001;4.871843755245209E-002;4.640786442905664E-003;2.917080186307430E-003;
2.400166666666667E+009;1.736794561147690E-001;4.829196631908417E-002;4.434385336935520E-003;2.784431912004948E-003;
2.400333333333334E+009;1.739526093006134E-001;4.745431616902351E-002;4.440551623702049E-003;2.752732485532761E-003;
2.400500000000000E+009;1.743640601634979E-001;4.669756814837456E-002;4.250267054885626E-003;2.571967663243413E-003;
2.400666666666667E+009;1.748578548431397E-001;4.607885330915451E-002;4.076015669852495E-003;2.624243497848511E-003;
2.400833333333334E+009;1.751864105463028E-001;4.553346708416939E-002;3.978238441050053E-003;2.534383675083518E-003;
2.401000000000000E+009;1.753421723842621E-001;4.498501121997833E-002;3.908120095729828E-003;2.582939108833671E-003;
2.401166666666667E+009;1.756162941455841E-001;4.427273571491242E-002;3.767592832446098E-003;2.417366020381451E-003;
2.401333333333334E+009;1.755833923816681E-001;4.357804730534554E-002;3.722327528521419E-003;2.432400360703468E-003;
2.401500000000000E+009;1.758321821689606E-001;4.297600686550140E-002;3.714925376698375E-003;2.435886301100254E-003;
2.401666666666667E+009;1.757971346378326E-001;4.242549091577530E-002;3.540413687005639E-003;2.568521071225405E-003;
2.401833333333334E+009;1.756676584482193E-001;4.159475862979889E-002;3.640286857262254E-003;2.524472074583173E-003;
2.402000000000000E+009;1.756004989147186E-001;4.083551466464996E-002;3.655259031802416E-003;2.552590332925320E-003;
2.402166666666667E+009;1.755807697772980E-001;3.981386870145798E-002;3.565563820302486E-003;2.670912304893136E-003;
2.402333333333334E+009;1.752948760986328E-001;3.894750028848648E-002;3.820243058726192E-003;2.625497058033943E-003;
2.402500000000000E+009;1.754622906446457E-001;3.803361952304840E-002;3.612997243180871E-003;2.663438208401203E-003;
2.402666666666667E+009;1.750810891389847E-001;3.692078217864037E-002;3.755712881684303E-003;2.804290968924761E-003;
2.402833333333334E+009;1.748362928628922E-001;3.579111769795418E-002;3.784528234973550E-003;2.791449427604675E-003;
2.403000000000000E+009;1.744463592767716E-001;3.441884741187096E-002;3.959842957556248E-003;2.608736976981163E-003;
2.403166666666667E+009;1.743792891502380E-001;3.308928385376930E-002;4.028974100947380E-003;2.757168607786298E-003;
2.403333333333334E+009;1.737809032201767E-001;3.178059309720993E-002;3.989465534687042E-003;2.547397976741195E-003;
2.403500000000000E+009;1.734556704759598E-001;3.014267794787884E-002;4.015324171632528E-003;2.767439698800445E-003;
2.403666666666667E+009;1.729796677827835E-001;2.861939556896687E-002;4.241127986460924E-003;2.602271270006895E-003;
2.403833333333334E+009;1.728282272815704E-001;2.713174559175968E-002;4.287083167582750E-003;2.673348411917687E-003;
2.404000000000000E+009;1.724560707807541E-001;2.520130574703217E-002;4.240359645336866E-003;2.603275934234262E-003;
2.404166666666667E+009;1.720286160707474E-001;2.361702546477318E-002;4.232667386531830E-003;2.497565699741244E-003;
2.404333333333334E+009;1.715766936540604E-001;2.167969383299351E-002;4.369383677840233E-003;2.592265605926514E-003;
2.404500000000000E+009;1.713010966777802E-001;1.961243711411953E-002;4.569477867335081E-003;2.617602003738284E-003;
2.404666666666667E+009;1.709532439708710E-001;1.786665618419647E-002;4.669483751058579E-003;2.423277590423822E-003;
2.404833333333334E+009;1.707196980714798E-001;1.578150689601898E-002;4.743915051221848E-003;2.669944893568754E-003;
2.405000000000000E+009;1.705729216337204E-001;1.389537937939167E-002;4.921838175505400E-003;2.440144773572683E-003;
2.405166666666667E+009;1.704204678535461E-001;1.177011709660292E-002;4.927641246467829E-003;2.552034566178918E-003;
2.405333333333334E+009;1.705718040466309E-001;9.727099910378456E-003;5.040388554334641E-003;2.641320461407304E-003;
2.405500000000000E+009;1.704519987106323E-001;7.696534041315317E-003;5.139753688126802E-003;2.338765421882272E-003;
2.405666666666667E+009;1.704978197813034E-001;5.649507977068424E-003;5.237464327365160E-003;2.466448117047548E-003;
2.405833333333334E+009;1.705723702907562E-001;3.604759695008397E-003;5.403264425694943E-003;2.469698898494244E-003;
2.406000000000000E+009;1.707910150289536E-001;1.386830001138151E-003;5.610613152384758E-003;2.445106394588947E-003;
2.406166666666667E+009;1.709496825933456E-001;-4.483907541725785E-004;5.781769286841154E-003;2.113512484356761E-003;
2.406333333333334E+009;1.714973300695419E-001;-2.492769388481975E-003;5.921805743128061E-003;2.342429710552096E-003;
2.406500000000000E+009;1.718132942914963E-001;-4.497529473155737E-003;6.032730452716351E-003;2.217641333118081E-003;
2.406666666666667E+009;1.720894873142242E-001;-6.464235018938780E-003;6.220967043191195E-003;2.274279249832034E-003;
2.406833333333334E+009;1.728520244359970E-001;-8.552880957722664E-003;6.603016052395105E-003;2.096958458423615E-003;
2.407000000000000E+009;1.733789145946503E-001;-1.040459331125021E-002;6.777998059988022E-003;1.771607785485685E-003;
2.407166666666667E+009;1.740360260009766E-001;-1.225468050688505E-002;7.007257081568241E-003;1.742014195770025E-003;
2.407333333333334E+009;1.747008711099625E-001;-1.416357886046171E-002;7.262176834046841E-003;1.464065047912300E-003;
2.407500000000000E+009;1.753110289573669E-001;-1.601231284439564E-002;7.357959169894457E-003;1.265247236005962E-003;
2.407666666666667E+009;1.760802865028381E-001;-1.765718311071396E-002;7.626525592058897E-003;1.006984151899815E-003;
2.407833333333334E+009;1.765276342630386E-001;-1.927633397281170E-002;7.824964821338654E-003;7.091861916705966E-004;
2.408000000000000E+009;1.774661988019943E-001;-2.104479633271694E-002;8.048466406762600E-003;5.031850305385888E-004;
2.408166666666667E+009;1.781021803617477E-001;-2.232227846980095E-002;8.094388991594315E-003;1.272184745175764E-004;
2.408333333333334E+009;1.788161098957062E-001;-2.387809008359909E-002;8.263331837952137E-003;-3.989269316662103E-004;
2.408500000000000E+009;1.794116497039795E-001;-2.527161501348019E-002;8.342610672116280E-003;-5.937048117630184E-004;
2.408666666666667E+009;1.799983531236649E-001;-2.664138749241829E-002;8.335163816809654E-003;-1.013920991681516E-003;
2.408833333333334E+009;1.805141121149063E-001;-2.785010449588299E-002;8.444985374808312E-003;-1.354973763227463E-003;
2.409000000000000E+009;1.808547228574753E-001;-2.890889160335064E-002;8.531918749213219E-003;-1.831376110203564E-003;
2.409166666666667E+009;1.814193427562714E-001;-2.981262281537056E-002;8.303329348564148E-003;-2.142276149243116E-003;
2.409333333333334E+009;1.819567382335663E-001;-3.071686066687107E-002;8.416631259024143E-003;-2.426516497507691E-003;
2.409500000000000E+009;1.822890639305115E-001;-3.177311271429062E-002;8.205534890294075E-003;-2.819692017510533E-003;
2.409666666666667E+009;1.823643296957016E-001;-3.222278133034706E-002;8.183686994016171E-003;-3.174580167979002E-003;
2.409833333333334E+009;1.826198697090149E-001;-3.257580101490021E-002;8.016377687454224E-003;-3.549710847437382E-003;
2.410000000000000E+009;1.829790323972702E-001;-3.323379904031754E-002;7.820741273462772E-003;-3.633750835433602E-003;
2.410166666666667E+009;1.831081658601761E-001;-3.350839018821716E-002;7.876718416810036E-003;-4.110927227884531E-003;
2.410333333333334E+009;1.831677258014679E-001;-3.396506607532501E-002;7.725238800048828E-003;-4.286541137844324E-003;
2.410500000000000E+009;1.832189559936523E-001;-3.431891277432442E-002;7.636630441993475E-003;-4.609280265867710E-003;
2.410666666666667E+009;1.832163482904434E-001;-3.477635979652405E-002;7.368818856775761E-003;-4.821209236979485E-003;
2.410833333333334E+009;1.831950843334198E-001;-3.478437662124634E-002;7.261077873408794E-003;-5.033968482166529E-003;
2.411000000000000E+009;1.829248815774918E-001;-3.524951636791229E-002;7.046468555927277E-003;-5.306233186274767E-003;
2.411166666666667E+009;1.827710270881653E-001;-3.546382114291191E-002;6.910289637744427E-003;-5.650802515447140E-003;
2.411333333333334E+009;1.821596622467041E-001;-3.583385795354843E-002;6.748615298420191E-003;-5.819522775709629E-003;
2.411500000000000E+009;1.816129088401794E-001;-3.619723394513130E-002;6.620533298701048E-003;-5.843480583280325E-003;
2.411666666666667E+009;1.813580393791199E-001;-3.646722063422203E-002;6.312239915132523E-003;-6.342345848679543E-003;
2.411833333333334E+009;1.808197945356369E-001;-3.678811714053154E-002;6.262547336518765E-003;-6.487851962447166E-003;
2.412000000000000E+009;1.800587922334671E-001;-3.723253309726715E-002;5.820425227284432E-003;-6.734033115208149E-003;
2.412166666666667E+009;1.791073083877564E-001;-3.777412697672844E-002;5.646188743412495E-003;-6.943189073354006E-003;
2.412333333333334E+009;1.783933788537979E-001;-3.814923390746117E-002;5.319884046912193E-003;-7.416179869323969E-003;
2.412500000000000E+009;1.773045808076859E-001;-3.859729692339897E-002;4.940366838127375E-003;-7.424449082463980E-003;
2.412666666666667E+009;1.763750463724136E-001;-3.950279578566551E-002;4.981320351362228E-003;-7.477609906345606E-003;
2.412833333333334E+009;1.750945746898651E-001;-4.016831144690514E-002;4.615163430571556E-003;-7.566073909401894E-003;
2.413000000000000E+009;1.740263998508453E-001;-4.077148064970970E-002;4.272838123142719E-003;-7.721959613263607E-003;
2.413166666666667E+009;1.727669984102249E-001;-4.152821004390717E-002;3.978048451244831E-003;-7.804809138178825E-003;
2.413333333333334E+009;1.714494079351425E-001;-4.260684922337532E-002;3.638073103502393E-003;-7.987763732671738E-003;
2.413500000000000E+009;1.702350080013275E-001;-4.340854287147522E-002;3.640398150309920E-003;-7.954006083309650E-003;
2.413666666666667E+009;1.689258217811585E-001;-4.442163184285164E-002;3.175241639837623E-003;-8.182441815733910E-003;
2.413833333333334E+009;1.676023602485657E-001;-4.545886442065239E-002;3.054411849007011E-003;-8.111314848065376E-003;
2.414000000000000E+009;1.662232428789139E-001;-4.675358906388283E-002;2.749122679233551E-003;-8.168357424438000E-003;
2.414166666666667E+009;1.653238385915756E-001;-4.785982519388199E-002;2.493582665920258E-003;-8.236189372837544E-003;
2.414333333333334E+009;1.640396714210510E-001;-4.927528277039528E-002;2.316402504220605E-003;-8.137720637023449E-003;
2.414500000000000E+009;1.629222780466080E-001;-5.055052042007446E-002;2.053317148238421E-003;-8.196629583835602E-003;
2.414666666666667E+009;1.618005335330963E-001;-5.210210382938385E-002;1.903466181829572E-003;-8.243052288889885E-003;
2.414833333333334E+009;1.606305241584778E-001;-5.384367704391480E-002;1.722544082440436E-003;-8.132649585604668E-003;
2.415000000000000E+009;1.596242934465408E-001;-5.539539828896523E-002;1.515938201919198E-003;-8.196740411221981E-003;
2.415166666666667E+009;1.587343364953995E-001;-5.712196603417397E-002;1.215653144754469E-003;-8.235368877649307E-003;
2.415333333333334E+009;1.578330099582672E-001;-5.898130685091019E-002;1.087380922399461E-003;-8.293108083307743E-003;
2.415500000000000E+009;1.571552306413651E-001;-6.065581738948822E-002;8.497465751133859E-004;-8.445043116807938E-003;
2.415666666666667E+009;1.562455147504807E-001;-6.242946162819862E-002;5.569521454162896E-004;-8.516172878444195E-003;
2.415833333333334E+009;1.557071655988693E-001;-6.452193856239319E-002;4.941851366311312E-004;-8.742208592593670E-003;
2.416000000000000E+009;1.549685150384903E-001;-6.654499471187592E-002;2.801583323162049E-004;-8.714933879673481E-003;
2.416166666666667E+009;1.545546501874924E-001;-6.840915232896805E-002;-2.507472709112335E-005;-8.631478063762188E-003;
2.416333333333334E+009;1.540654301643372E-001;-7.037403434514999E-002;-3.111105761490762E-004;-8.587220683693886E-003;
2.416500000000000E+009;1.536197960376740E-001;-7.246143370866776E-002;-4.138788208365440E-004;-8.562705479562283E-003;
2.416666666666667E+009;1.531827002763748E-001;-7.430510967969894E-002;-8.314440492540598E-004;-8.679606020450592E-003;
2.416833333333334E+009;1.529411673545837E-001;-7.649297267198563E-002;-9.286489221267402E-004;-8.667686954140663E-003;
2.417000000000000E+009;1.526140868663788E-001;-7.835316658020020E-002;-1.196549623273313E-003;-8.656076155602932E-003;
2.417166666666667E+009;1.523815691471100E-001;-8.010634779930115E-002;-1.321022748015821E-003;-8.530478924512863E-003;
2.417333333333334E+009;1.522848308086395E-001;-8.193088322877884E-002;-1.611148822121322E-003;-8.782458491623402E-003;
2.417500000000000E+009;1.521622389554977E-001;-8.391398191452026E-002;-1.768038026057184E-003;-8.855806663632393E-003;
2.417666666666667E+009;1.521724909543991E-001;-8.548362553119659E-002;-2.069992711767554E-003;-8.742657490074635E-003;
2.417833333333334E+009;1.522384881973267E-001;-8.706796914339066E-002;-2.455187495797873E-003;-8.753924630582333E-003;
2.418000000000000E+009;1.521411687135696E-001;-8.858960121870041E-002;-2.667428459972143E-003;-8.881318382918835E-003;
2.418166666666667E+009;1.523249298334122E-001;-8.983048796653748E-002;-3.121288493275642E-003;-8.688976988196373E-003;
2.418333333333334E+009;1.526509374380112E-001;-9.125108271837235E-002;-3.301951568573713E-003;-8.620080538094044E-003;
2.418500000000000E+009;1.525401026010513E-001;-9.235616773366928E-002;-3.514799755066633E-003;-8.748411200940609E-003;
2.418666666666667E+009;1.529169231653214E-001;-9.363439679145813E-002;-3.916155081242323E-003;-8.630762808024883E-003;
2.418833333333334E+009;1.529032588005066E-001;-9.458153694868088E-002;-4.273285157978535E-003;-8.610276505351067E-003;
2.419000000000000E+009;1.530838012695313E-001;-9.541249275207520E-002;-4.486152902245522E-003;-8.522041141986847E-003;
2.419166666666667E+009;1.532203257083893E-001;-9.613226354122162E-002;-5.006068851798773E-003;-8.437946438789368E-003;
2.419333333333334E+009;1.533540934324265E-001;-9.657891094684601E-002;-5.329193081706762E-003;-8.349748328328133E-003;
2.419500000000000E+009;1.535973548889160E-001;-9.737456589937210E-002;-5.609870888292790E-003;-8.142231963574886E-003;
2.419666666666667E+009;1.537647694349289E-001;-9.774374216794968E-002;-5.996406543999910E-003;-8.052856661379337E-003;
2.419833333333334E+009;1.538079380989075E-001;-9.783575683832169E-002;-6.337109021842480E-003;-7.874109782278538E-003;
2.420000000000000E+009;1.540400236845017E-001;-9.795016795396805E-002;-6.700015161186457E-003;-7.696660701185465E-003;
2.420166666666667E+009;1.540684252977371E-001;-9.819196909666061E-002;-7.240726146847010E-003;-7.517969235777855E-003;
2.420333333333334E+009;1.540830582380295E-001;-9.803855419158936E-002;-7.507127244025469E-003;-7.328910753130913E-003;
2.420500000000000E+009;1.541065126657486E-001;-9.793655574321747E-002;-7.829119451344013E-003;-6.870113313198090E-003;
2.420666666666667E+009;1.538723856210709E-001;-9.769228100776672E-002;-8.196872659027576E-003;-6.598765030503273E-003;
2.420833333333334E+009;1.538977175951004E-001;-9.756992012262344E-002;-8.536803536117077E-003;-6.390839349478483E-003;
2.421000000000000E+009;1.538101285696030E-001;-9.750851988792419E-002;-8.850884623825550E-003;-5.999623332172632E-003;
2.421166666666667E+009;1.536361575126648E-001;-9.704130887985230E-002;-9.160466492176056E-003;-5.625209771096706E-003;
2.421333333333334E+009;1.533196270465851E-001;-9.669276326894760E-002;-9.418972767889500E-003;-5.180317908525467E-003;
2.421500000000000E+009;1.528361439704895E-001;-9.637966752052307E-002;-9.699873626232147E-003;-4.674016032367945E-003;
2.421666666666667E+009;1.523406803607941E-001;-9.609970450401306E-002;-9.936302900314331E-003;-4.369140602648258E-003;
2.421833333333334E+009;1.518941074609757E-001;-9.574104845523834E-002;-1.012094132602215E-002;-3.843620419502258E-003;
2.422000000000000E+009;1.510166227817535E-001;-9.540200978517532E-002;-1.022380590438843E-002;-3.565117716789246E-003;
2.422166666666667E+009;1.502685099840164E-001;-9.521775692701340E-002;-1.036405470222235E-002;-2.946465509012342E-003;
2.422333333333334E+009;1.495262682437897E-001;-9.490947425365448E-002;-1.046110875904560E-002;-2.439535455778241E-003;
2.422500000000000E+009;1.484524160623550E-001;-9.460766613483429E-002;-1.046273484826088E-002;-1.932738814502955E-003;
2.422666666666667E+009;1.473183780908585E-001;-9.457667917013168E-002;-1.063282508403063E-002;-1.632260857149959E-003;
2.422833333333334E+009;1.462640017271042E-001;-9.435169398784638E-002;-1.061361934989691E-002;-7.890702108852565E-004;
2.423000000000000E+009;1.449247002601624E-001;-9.426081180572510E-002;-1.054175291210413E-002;-3.973745042458177E-004;
2.423166666666667E+009;1.437868326902390E-001;-9.426465630531311E-002;-1.043402869254351E-002;4.285640443413286E-006;
2.423333333333334E+009;1.423556804656982E-001;-9.408042579889298E-002;-1.032166089862585E-002;7.759757572785020E-004;
2.423500000000000E+009;1.409054845571518E-001;-9.425492584705353E-002;-1.018610037863255E-002;1.087980577722192E-003;
2.423666666666667E+009;1.393080651760101E-001;-9.433243423700333E-002;-1.009433623403311E-002;1.538340584374964E-003;
2.423833333333334E+009;1.381101310253143E-001;-9.459947794675827E-002;-9.869359433650971E-003;1.979040447622538E-003;
2.424000000000000E+009;1.363739371299744E-001;-9.465941786766052E-002;-9.625011123716831E-003;2.361105987802148E-003;
2.424166666666667E+009;1.347742378711700E-001;-9.490619599819183E-002;-9.323568083345890E-003;2.667987020686269E-003;
2.424333333333334E+009;1.333248466253281E-001;-9.541271626949310E-002;-9.160403162240982E-003;3.031219588592649E-003;
2.424500000000000E+009;1.319656521081924E-001;-9.583663195371628E-002;-8.971034549176693E-003;3.351806662976742E-003;
2.424666666666667E+009;1.306277513504028E-001;-9.622094035148621E-002;-8.656967431306839E-003;3.558552358299494E-003;
2.424833333333334E+009;1.289267539978027E-001;-9.704068303108215E-002;-8.160375058650971E-003;4.024537280201912E-003;
2.425000000000000E+009;1.277240365743637E-001;-9.789303690195084E-002;-7.857582531869412E-003;4.196583759039640E-003;
2.425166666666667E+009;1.261857748031616E-001;-9.875581413507462E-002;-7.514457684010267E-003;4.502533469349146E-003;
2.425333333333334E+009;1.251493394374847E-001;-9.971995651721954E-002;-7.082630880177021E-003;4.654163494706154E-003;
2.425500000000000E+009;1.239245831966400E-001;-1.008433178067207E-001;-6.840481888502836E-003;4.824430216103792E-003;
2.425666666666667E+009;1.225550472736359E-001;-1.019913852214813E-001;-6.500917021185160E-003;4.994062241166830E-003;
2.425833333333334E+009;1.214455738663673E-001;-1.032266244292259E-001;-6.260129623115063E-003;4.960930906236172E-003;
2.426000000000000E+009;1.205193251371384E-001;-1.045527681708336E-001;-5.942546296864748E-003;5.092405714094639E-003;
2.426166666666667E+009;1.197240576148033E-001;-1.059320792555809E-001;-5.688239820301533E-003;5.313567817211151E-003;
2.426333333333334E+009;1.187887415289879E-001;-1.073653250932694E-001;-5.246826447546482E-003;5.336598958820105E-003;
2.426500000000000E+009;1.181277781724930E-001;-1.089420542120934E-001;-5.033458583056927E-003;5.434081424027681E-003;
2.426666666666667E+009;1.174746602773666E-001;-1.103065684437752E-001;-4.603436682373285E-003;5.299903452396393E-003;
2.426833333333334E+009;1.167635321617127E-001;-1.118999272584915E-001;-4.391933791339397E-003;5.297458730638027E-003;
2.427000000000000E+009;1.162848696112633E-001;-1.136621609330177E-001;-4.180111456662417E-003;5.297038704156876E-003;
2.427166666666667E+009;1.158007383346558E-001;-1.150756180286408E-001;-3.771845484152436E-003;5.435529164969921E-003;
2.427333333333334E+009;1.154660210013390E-001;-1.166467964649200E-001;-3.686718642711639E-003;5.236395634710789E-003;
2.427500000000000E+009;1.153095886111260E-001;-1.183480694890022E-001;-3.346738871186972E-003;5.127360112965107E-003;
2.427666666666667E+009;1.150317639112473E-001;-1.200233697891235E-001;-3.111470490694046E-003;5.175608675926924E-003;
