# Hz S RI R 50
2400000000.0000000000 0.172975778579711886306924384371 0.048769976943731307983398437500 0.004691796842962503433227539062 0.003056999761611222787144326318 0 0 0 0 
2400166666.6666665077 0.173545747995376586914062500000 0.048157099634408950805664062500 0.004585471469908952713012695312 0.002900626976042985916137695312 0 0 0 0 
2400333333.3333334923 0.173963919281959505935830634371 0.047443449497222900390625000000 0.004381263162940740585327148438 0.002653068862855433984043740381 0 0 0 0 
2400500000.0000000000 0.174406945705413790603799384371 0.046851731836795806884765625000 0.004375416319817304611206054688 0.002576738130301237106323242188 0 0 0 0 
2400666666.6666665077 0.174762636423110989669638115629 0.046035092324018478393554687500 0.004068928770720958709716796875 0.002562380861490964889526367188 0 0 0 0 
2400833333.3333334923 0.175158128142356900314169365629 0.045643046498298651958425153907 0.003997154533863067626953125000 0.002572972327470778985264443506 0 0 0 0 
2401000000.0000000000 0.175317838788032503982705634371 0.044799536466598510742187500000 0.003929627593606709566598222949 0.002506791613996028900146484375 0 0 0 0 
2401166666.6666665077 0.175493448972701998611611884371 0.044152308255434043193776716407 0.003784706350415945053100585938 0.002611282747238874001743935693 0 0 0 0 
2401333333.3333334923 0.175654932856559808929119981258 0.043692260980606079101562500000 0.003927617333829402923583984375 0.002535650506615639166591025244 0 0 0 0 
2401500000.0000000000 0.175889477133750887771768134371 0.042890962213277816772460937500 0.003875161521136761145350790869 0.002533512189984322027919150244 0 0 0 0 
2401666666.6666665077 0.175826773047447204589843750000 0.042373094707727432250976562500 0.003690335666760801835301064600 0.002562236506491899924037314307 0 0 0 0 
2401833333.3333334923 0.175864011049270602127236884371 0.041420601308345801616628278907 0.003758247010409832000732421875 0.002664503641426562829258584131 0 0 0 0 
2402000000.0000000000 0.175566419959068298339843750000 0.040877237915992736816406250000 0.003701488487422465844395302881 0.002510412828996777968165732275 0 0 0 0 
2402166666.6666665077 0.175582855939865112304687500000 0.039681240916252143169362653907 0.003920876886695623397827148438 0.002536998130381106896641396631 0 0 0 0 
2402333333.3333334923 0.175363466143608093261718750000 0.038932371884584426879882812500 0.003748044837266207175013876807 0.002590153133496642112731933594 0 0 0 0 
2402500000.0000000000 0.175509884953498812576455634371 0.037910286337137222290039062500 0.003728866809979081153869628906 0.002637115772813559012172079932 0 0 0 0 
2402666666.6666665077 0.175277531147003201583700615629 0.036737821996212012554128278907 0.003924233373254537582397460938 0.002587960800155996842625283350 0 0 0 0 
2402833333.3333334923 0.174830287694931002517861884371 0.035588689148426062847097028907 0.003918658010661602020263671875 0.002613407792523502869846963037 0 0 0 0 
2403000000.0000000000 0.174483254551887512207031250000 0.034374020993709557270090471093 0.003910657018423079576974199512 0.002676523290574551062342978369 0 0 0 0 
2403166666.6666665077 0.174311205744743402679119981258 0.033070534467697136615793596093 0.004030028823763132095336914062 0.002727517858147621154785156250 0 0 0 0 
2403333333.3333334923 0.173931553959846496582031250000 0.031772904098033911968190778907 0.004100041463971138000488281250 0.002631120150908828215358115088 0 0 0 0 
2403500000.0000000000 0.173587024211883489410723768742 0.030204692855477329599400704296 0.004052668809890747070312500000 0.002706872997805476188659667969 0 0 0 0 
2403666666.6666665077 0.173084616661071805099325615629 0.028523935005068778991699218750 0.004068305250257253646850585938 0.002719419775530695915222167969 0 0 0 0 
2403833333.3333334923 0.172831162810325594803018134371 0.026791289448738101613978201954 0.004172999411821365356445312500 0.002665960229933261871337890625 0 0 0 0 
2404000000.0000000000 0.172426968812942504882812500000 0.025228686630725860595703125000 0.004287716932594776153564453125 0.002608942100778222084045410156 0 0 0 0 
2404166666.6666665077 0.172068268060684204101562500000 0.023385448381304740905761718750 0.004444397985935211181640625000 0.002652106806635857062098837744 0 0 0 0 
2404333333.3333334923 0.171586737036704989334268134371 0.021623045206069949758509451954 0.004348274786025285720825195312 0.002608249429613351821899414062 0 0 0 0 
2404500000.0000000000 0.171219214797019986251669365629 0.019669607281684878957728201954 0.004424867685884237289428710938 0.002623591339215635819676064600 0 0 0 0 
2404666666.6666665077 0.171197503805160494705361884371 0.017718361690640449523925781250 0.004652126692235469818115234375 0.002454028232023119926452636719 0 0 0 0 
2404833333.3333334923 0.170813351869583102127236884371 0.015915822237730029714564139454 0.004697076510637998580932617188 0.002554175443947315216064453125 0 0 0 0 
2405000000.0000000000 0.170606687664985712249432481258 0.013822548091411590576171875000 0.004838678520172834396362304688 0.002496916102245450019836425781 0 0 0 0 
2405166666.6666665077 0.170521974563598605056924384371 0.011773685924708839761754219921 0.004853909835219383239746093750 0.002549338387325406074523925781 0 0 0 0 
2405333333.3333334923 0.170540422201156588455361884371 0.009688974358141422271728515625 0.005139667540788651380057050488 0.002580230357125401930568076025 0 0 0 0 
2405500000.0000000000 0.170659184455871609786825615629 0.007712668739259243011474609375 0.005092723295092582702636718750 0.002529781078919767899754189600 0 0 0 0 
2405666666.6666665077 0.170497417449951199630575615629 0.005688622128218412399291992188 0.005359790753573179244995117188 0.002578603569418191909790039062 0 0 0 0 
2405833333.3333334923 0.170646488666534396072549384371 0.003802884137257934050319052588 0.005497093312442302703857421875 0.002528800861909985975978232275 0 0 0 0 
2406000000.0000000000 0.170791894197463989257812500000 0.001510164816863835074781108325 0.005707295611500740051269531250 0.002458516974002122879028320312 0 0 0 0 
2406166666.6666665077 0.170982360839843805511151231258 -0.000468722748337313478619176044 0.005893510300666093826293945312 0.002434605499729514122009277344 0 0 0 0 
2406333333.3333334923 0.171559244394302395919638115629 -0.002511157421395183043238974463 0.006024045869708061218261718750 0.002189723076298832893371582031 0 0 0 0 
2406500000.0000000000 0.171925395727157592773437500000 -0.004510097671300172805786132812 0.006042484659701585769653320312 0.002143570221960545019862509619 0 0 0 0 
2406666666.6666665077 0.172211125493049593826455634371 -0.006362818647176027297973632812 0.006412587594240903854370117188 0.002191778970882296995875693213 0 0 0 0 
2406833333.3333334923 0.172916784882545498946981865629 -0.008503792807459831237792968750 0.006690026260912418365478515625 0.001958970911800860924961709131 0 0 0 0 
2407000000.0000000000 0.173429518938064602950888115629 -0.010353263467550279444684413477 0.006832298357039690017700195312 0.001977632055059074921848916162 0 0 0 0 
2407166666.6666665077 0.174210920929908807952557481258 -0.012165371328592300415039062500 0.006979665253311395645141601562 0.001605436438694596073747944409 0 0 0 0 
2407333333.3333334923 0.174755677580833407303018134371 -0.014151153154671190434465977148 0.007272258400917053222656250000 0.001306961406953633048413920825 0 0 0 0 
2407500000.0000000000 0.175468251109123202224893134371 -0.015867343172430988657017891796 0.007356806192547082901000976562 0.001298419432714581923243857275 0 0 0 0 
2407666666.6666665077 0.176160275936126708984375000000 -0.017463151365518569946289062500 0.007737803272902966413016034863 0.001049979589879513003705668872 0 0 0 0 
2407833333.3333334923 0.176616743206977788727130018742 -0.019385708495974540710449218750 0.007812222931534051895141601562 0.000756822177208960056304931641 0 0 0 0 
2408000000.0000000000 0.177532196044921902755575615629 -0.020997297018766399728795235546 0.008062700740993022918701171875 0.000526433344930410385131835938 0 0 0 0 
2408166666.6666665077 0.178113445639610290527343750000 -0.022444903850555419921875000000 0.008186632767319679260253906250 0.000091272471763659268617630005 0 0 0 0 
2408333333.3333334923 0.178884223103523309905682481258 -0.023916335776448249816894531250 0.008507869206368923187255859375 -0.000270410586381331086158752441 0 0 0 0 
2408500000.0000000000 0.179461792111396789550781250000 -0.025290198624134060251256173046 0.008361250162124633789062500000 -0.000815529376268386840820312500 0 0 0 0 
2408666666.6666665077 0.179994732141494806487713731258 -0.026744375005364421499232108204 0.008601907640695571899414062500 -0.000851656543090939521789550781 0 0 0 0 
2408833333.3333334923 0.180529832839965792556924384371 -0.027914870530366901052454764454 0.008401782251894474029541015625 -0.001473565120249987082240439307 0 0 0 0 
2409000000.0000000000 0.180977031588554410079794365629 -0.028801009058952331542968750000 0.008349138312041759490966796875 -0.001785155152902007102966308594 0 0 0 0 
2409166666.6666665077 0.181518286466598510742187500000 -0.029943009838461879384974295704 0.008306406438350677490234375000 -0.002228707307949662208557128906 0 0 0 0 
2409333333.3333334923 0.181828498840332003494424384371 -0.030753452330827709543248360546 0.008355543948709964752197265625 -0.002502165269106626944300986182 0 0 0 0 
2409500000.0000000000 0.182227134704589788238848768742 -0.031768754124641418457031250000 0.008341873064637184143066406250 -0.002829607576131821112391806494 0 0 0 0 
2409666666.6666665077 0.182510554790496798416299384371 -0.032230276614427573467214216407 0.008099080994725227355957031250 -0.003100386355072259902954101562 0 0 0 0 
2409833333.3333334923 0.182601794600486810882244981258 -0.032737579196691513061523437500 0.008076557889580726623535156250 -0.003357889596372842788696289062 0 0 0 0 
2410000000.0000000000 0.182938665151596097091513115629 -0.033254351466894149780273437500 0.007876018062233924865722656250 -0.003594513051211833953857421875 0 0 0 0 
2410166666.6666665077 0.183248534798622103592080634371 -0.033541936427354812622070312500 0.007846261374652385711669921875 -0.003971133846789599332327558301 0 0 0 0 
2410333333.3333334923 0.183252453804016113281250000000 -0.034016393125057220458984375000 0.007738582789897918701171875000 -0.004258364439010620117187500000 0 0 0 0 
2410500000.0000000000 0.183192282915115411956463731258 -0.034175600856542587280273437500 0.007319594733417034149169921875 -0.004399747122079133987426757812 0 0 0 0 
2410666666.6666665077 0.183188810944557189941406250000 -0.034682601690292358398437500000 0.007416650652885437011718750000 -0.004686870146542788419241620801 0 0 0 0 
2410833333.3333334923 0.183177962899208096603231865629 -0.035093244165182106708567033593 0.007378311827778816223144531250 -0.005010811146348714828491210938 0 0 0 0 
2411000000.0000000000 0.183029487729072598556356865629 -0.035170618444681167602539062500 0.007262992672622203826904296875 -0.005434784572571516036987304688 0 0 0 0 
2411166666.6666665077 0.182690232992172213455361884371 -0.035544402897357940673828125000 0.006734217982739210128784179688 -0.005647276528179646405691816113 0 0 0 0 
2411333333.3333334923 0.182328656315803500076455634371 -0.035754207521677017211914062500 0.006683959625661373138427734375 -0.005868236999958753585815429688 0 0 0 0 
2411500000.0000000000 0.181611612439155606368856865629 -0.036120906472206122661550153907 0.006483072880655527114868164062 -0.006144020240753889083862304688 0 0 0 0 
2411666666.6666665077 0.181358531117439297775106865629 -0.036584522575139999389648437500 0.006407664157450199127197265625 -0.006304636131972075376028730176 0 0 0 0 
2411833333.3333334923 0.180894583463668795486611884371 -0.036756161600351326679270158593 0.006068037822842597961425781250 -0.006452896632254123687744140625 0 0 0 0 
2412000000.0000000000 0.180072814226150512695312500000 -0.037379972636699683452565778907 0.005821554455906152725219726562 -0.006735095288604497909545898438 0 0 0 0 
2412166666.6666665077 0.179130584001541109939736884371 -0.037751626223325729370117187500 0.005697729997336865338797284863 -0.007086763158440589904785156250 0 0 0 0 
2412333333.3333334923 0.178340524435043307205361884371 -0.038102667778730392456054687500 0.005397032015025615692138671875 -0.007247507106512784957885742188 0 0 0 0 
2412500000.0000000000 0.177280798554420498946981865629 -0.038680363446474082256276716407 0.004998516291379928588867187500 -0.007330236490815877914428710938 0 0 0 0 
2412666666.6666665077 0.176443815231323186676348768742 -0.039475452154874801635742187500 0.004813807550817728042602539062 -0.007426455151289702329153730176 0 0 0 0 
2412833333.3333334923 0.175111666321754511077557481258 -0.040131911635398871684987653907 0.004419723991304636001586914062 -0.007569624576717615127563476562 0 0 0 0 
2413000000.0000000000 0.174009069800376892089843750000 -0.040791153907775878906250000000 0.004166596569120883941650390625 -0.007755007594823837280273437500 0 0 0 0 
2413166666.6666665077 0.172770589590072604080361884371 -0.041662055999040596698801408593 0.004079672973603010177612304688 -0.007972972467541694641113281250 0 0 0 0 
2413333333.3333334923 0.171619743108749389648437500000 -0.042340952903032302856445312500 0.003866491140797733826878213037 -0.007831946946680545806884765625 0 0 0 0 
2413500000.0000000000 0.170438945293426513671875000000 -0.043272126466035842895507812500 0.003307918086647986932041787256 -0.007945436052978038787841796875 0 0 0 0 
2413666666.6666665077 0.169155552983283996582031250000 -0.044480152428150177001953125000 0.003275393974035977883579873193 -0.008016204461455345153808593750 0 0 0 0 
2413833333.3333334923 0.167693302035331698318643134371 -0.045493468642234802246093750000 0.002909124363213777975795126807 -0.008173933252692222595214843750 0 0 0 0 
2414000000.0000000000 0.166237682104110690017861884371 -0.046868380159139633178710937500 0.002772333100438117980957031250 -0.008215695619583129882812500000 0 0 0 0 
2414166666.6666665077 0.165271073579788208007812500000 -0.047854207456111907958984375000 0.002464755671098827882053994287 -0.008203612640500068664550781250 0 0 0 0 
2414333333.3333334923 0.163972854614257812500000000000 -0.049307256937026977539062500000 0.002256810665130614800694131006 -0.008228561840951442718505859375 0 0 0 0 
2414500000.0000000000 0.163097396492958096603231865629 -0.050612870603799819946289062500 0.002194697968661785125732421875 -0.008212564513087272644042968750 0 0 0 0 
2414666666.6666665077 0.161909729242324801345986884371 -0.052124977111816413188893903907 0.001833248650655149979832314600 -0.008348077535629272460937500000 0 0 0 0 
2414833333.3333334923 0.160634994506835909744424384371 -0.053751800209283828735351562500 0.001830128137953578992130898584 -0.008327197283506393432617187500 0 0 0 0 
2415000000.0000000000 0.159638047218322809417401231258 -0.055242847651243209838867187500 0.001496587414294481060625385815 -0.008414753712713718414306640625 0 0 0 0 
2415166666.6666665077 0.158751755952835110763388115629 -0.057134833186864852905273437500 0.001193702686578034920933388818 -0.008239576593041419982910156250 0 0 0 0 
2415333333.3333334923 0.157892465591430691818075615629 -0.058982081711292266845703125000 0.000920551538001745939254760742 -0.008436854928731918334960937500 0 0 0 0 
2415500000.0000000000 0.157042369246482904632244981258 -0.060702368617057800292968750000 0.000910483766347169876098632812 -0.008452167734503746032714843750 0 0 0 0 
2415666666.6666665077 0.156267181038856506347656250000 -0.062563531100749969482421875000 0.000631684379186481237411499023 -0.008500535972416400909423828125 0 0 0 0 
2415833333.3333334923 0.155734032392501803299111884371 -0.064416408538818359375000000000 0.000373464747099205905764979230 -0.008507065474987030029296875000 0 0 0 0 
2416000000.0000000000 0.155006587505340603927450615629 -0.066439755260944366455078125000 0.000225265888730064007356920786 -0.008585426956415176391601562500 0 0 0 0 
2416166666.6666665077 0.154704824090003995040731865629 -0.068496212363243103027343750000 0.000067462555307429283857345581 -0.008629447780549526214599609375 0 0 0 0 
2416333333.3333334923 0.153953865170478793045205634371 -0.070470206439495086669921875000 -0.000122247991384938413470667706 -0.008641143329441547393798828125 0 0 0 0 
2416500000.0000000000 0.153560146689415005782919365629 -0.072545483708381652832031250000 -0.000463786476757377386093139648 -0.008512930944561958312988281250 0 0 0 0 
2416666666.6666665077 0.153168797492981012542401231258 -0.074429392814636230468750000000 -0.000777669076342135667800903320 -0.008609795942902565002441406250 0 0 0 0 
2416833333.3333334923 0.152929916977882413009481865629 -0.076544456183910369873046875000 -0.000959168944973498582839965820 -0.008789523504674434661865234375 0 0 0 0 
2417000000.0000000000 0.152513056993484497070312500000 -0.078461199998855590820312500000 -0.001155036501586437008501362378 -0.008653681725263595581054687500 0 0 0 0 
2417166666.6666665077 0.152369812130928011795205634371 -0.080168239772319793701171875000 -0.001456171856261790015577006763 -0.008784282952547073364257812500 0 0 0 0 
2417333333.3333334923 0.152280792593955993652343750000 -0.081948533654212951660156250000 -0.001732504577375947995426797021 -0.008727245032787322998046875000 0 0 0 0 
2417500000.0000000000 0.152182564139366205413494981258 -0.083909943699836730957031250000 -0.001906581805087625980377197266 -0.008793468587100505828857421875 0 0 0 0 
2417666666.6666665077 0.152325853705406188964843750000 -0.085488043725490570068359375000 -0.002236269880086183981654501807 -0.008604581467807292938232421875 0 0 0 0 
2417833333.3333334923 0.152338415384292602539062500000 -0.086856372654438018798828125000 -0.002434144029393792152404785156 -0.008544605225324630737304687500 0 0 0 0 
2418000000.0000000000 0.152141541242599487304687500000 -0.088636510074138641357421875000 -0.002813284052535891966578818213 -0.008595070801675319671630859375 0 0 0 0 
2418166666.6666665077 0.152333408594131497482138115629 -0.089757733047008514404296875000 -0.003059585578739643096923828125 -0.008578713051974773406982421875 0 0 0 0 
2418333333.3333334923 0.152628600597381591796875000000 -0.091246083378791809082031250000 -0.003353206207975745201110839844 -0.008656668476760387420654296875 0 0 0 0 
2418500000.0000000000 0.152664005756378201583700615629 -0.092453315854072570800781250000 -0.003772774711251258850097656250 -0.008586206473410129547119140625 0 0 0 0 
2418666666.6666665077 0.152869910001754788497763115629 -0.093547388911247253417968750000 -0.003795822151005268096923828125 -0.008587562479078769683837890625 0 0 0 0 
2418833333.3333334923 0.152926921844482394119424384371 -0.094502560794353485107421875000 -0.004292856901884078979492187500 -0.008376874960958957672119140625 0 0 0 0 
2419000000.0000000000 0.153002724051475497146768134371 -0.095339447259902954101562500000 -0.004607454873621463775634765625 -0.008473143912851810455322265625 0 0 0 0 
2419166666.6666665077 0.153273656964302090743856865629 -0.096146188676357269287109375000 -0.004933042451739311218261718750 -0.008444239385426044464111328125 0 0 0 0 
2419333333.3333334923 0.153221487998962402343750000000 -0.096495874226093292236328125000 -0.005394457839429379376883222363 -0.008257288485765457153320312500 0 0 0 0 
2419500000.0000000000 0.153511688113212613204794365629 -0.097099222242832183837890625000 -0.005707873962819576263427734375 -0.008196508511900901794433593750 0 0 0 0 
2419666666.6666665077 0.153774663805961608886718750000 -0.097732000052928924560546875000 -0.006104870233684778213500976562 -0.008033838123083114624023437500 0 0 0 0 
2419833333.3333334923 0.153742522001266507247763115629 -0.097772978246212005615234375000 -0.006450206041336059570312500000 -0.007837287150323390960693359375 0 0 0 0 
