# Hz S RI R 50
2400000000.0000000000 0.155867725610733004470986884371 0.111067377030849498420472798443 -0.005978309083729982376098632812 0.004169812891632319364065839551 0 0 0 0 
2400166666.6666665077 0.155226930975914001464843750000 0.108785457909107194374165317186 -0.006079523824155330657958984375 0.004563778638839721679687500000 0 0 0 0 
2400333333.3333334923 0.155043154954910306075888115629 0.106412254273891504485760606258 -0.005891161505132913589477539062 0.005043586716055870056152343750 0 0 0 0 
2400500000.0000000000 0.154791921377182006835937500000 0.103819824755191802978515625000 -0.005808407906442880630493164062 0.005270416382700204849243164062 0 0 0 0 
2400666666.6666665077 0.154591307044029208084268134371 0.101397372782230404952841240629 -0.005589771550148726377005292676 0.005646112374961376190185546875 0 0 0 0 
2400833333.3333334923 0.154484346508979797363281250000 0.098441503942012786865234375000 -0.005204469431191682815551757812 0.005938490852713584899902343750 0 0 0 0 
2401000000.0000000000 0.154216021299362210372763115629 0.095559053122997283935546875000 -0.004928232636302709579467773438 0.006231347564607858657836914062 0 0 0 0 
2401166666.6666665077 0.154213994741439791580361884371 0.092492535710334777832031250000 -0.004649964626878499984741210938 0.006348819937556982040405273438 0 0 0 0 
2401333333.3333334923 0.154215335845947293380575615629 0.089718759059906005859375000000 -0.004207976162433624267578125000 0.006571097765117883682250976562 0 0 0 0 
2401500000.0000000000 0.154342710971832303146200615629 0.086606726050376892089843750000 -0.003995985724031925201416015625 0.006666223984211683273315429688 0 0 0 0 
2401666666.6666665077 0.154503583908081110198651231258 0.083497136831283569335937500000 -0.003685935633257031007053994287 0.006946078501641750335693359375 0 0 0 0 
2401833333.3333334923 0.154817089438438387771768134371 0.080595254898071289062500000000 -0.003299677977338432832005166162 0.006977205164730548858642578125 0 0 0 0 
2402000000.0000000000 0.155445054173469487945880018742 0.077509708702564239501953125000 -0.002994008595123887062072753906 0.006939424201846122741699218750 0 0 0 0 
2402166666.6666665077 0.156027078628540011306924384371 0.074819505214691162109375000000 -0.002736929571256041960475302588 0.007004032377153635025024414062 0 0 0 0 
2402333333.3333334923 0.156795158982276888748330634371 0.071760833263397216796875000000 -0.002359824255108832879307412256 0.007045708596706390380859375000 0 0 0 0 
2402500000.0000000000 0.157875269651412991622763115629 0.068920537829399108886718750000 -0.002215253422036767005920410156 0.006989421322941780090332031250 0 0 0 0 
2402666666.6666665077 0.158818408846855191329794365629 0.066448323428630828857421875000 -0.001783221377991140105603862231 0.006958716548979282379150390625 0 0 0 0 
2402833333.3333334923 0.160017147660255404373330634371 0.063606575131416320800781250000 -0.001565066631883383014081645435 0.006933670956641435623168945312 0 0 0 0 
2403000000.0000000000 0.161158010363578796386718750000 0.060938652604818337177317033593 -0.001297152135521173910853720557 0.006836271379142999649047851562 0 0 0 0 
2403166666.6666665077 0.163143128156661987304687500000 0.058605369180440902709960937500 -0.001171342213638127066968608325 0.006929466500878334045410156250 0 0 0 0 
2403333333.3333334923 0.164514049887657193282919365629 0.056123763322830200195312500000 -0.000894878001417964696884155273 0.006895846221596002578735351562 0 0 0 0 
2403500000.0000000000 0.166257947683334406097088731258 0.053961601108312606811523437500 -0.000721083662938326597213745117 0.006870967801660299301147460938 0 0 0 0 
2403666666.6666665077 0.168081179261207608321981865629 0.051771499216556549072265625000 -0.000460268638562411124080103741 0.006868635304272174835205078125 0 0 0 0 
2403833333.3333334923 0.169748902320861788650674384371 0.049565546214580542827565778907 -0.000365927728125825524330139160 0.006984541658312082290649414062 0 0 0 0 
2404000000.0000000000 0.171547368168830899337606865629 0.047705460339784622192382812500 -0.000006149668024590937420725822 0.006842490751296281814575195312 0 0 0 0 
2404166666.6666665077 0.173291742801666287521200615629 0.045920535922050483013112653907 0.000301265419693663716316223145 0.006850483361631631851196289062 0 0 0 0 
2404333333.3333334923 0.175142481923103304763955634371 0.044291250407695770263671875000 0.000297148100798949599266052246 0.006864178460091353330130292676 0 0 0 0 
2404500000.0000000000 0.176788285374641390701455634371 0.042577013373374938964843750000 0.000523910217452794313430786133 0.006716000381857156753540039062 0 0 0 0 
2404666666.6666665077 0.178865924477577209472656250000 0.041464742273092269897460937500 0.000650725385639816522598266602 0.006956702563911676406860351562 0 0 0 0 
2404833333.3333334923 0.180622220039367703536825615629 0.040100686252117156982421875000 0.000915783224627375602722167969 0.006879333406686782836914062500 0 0 0 0 
2405000000.0000000000 0.182270914316177395919638115629 0.039361290633678443218190778907 0.001127875642850995063781738281 0.006765450350940228375906659863 0 0 0 0 
2405166666.6666665077 0.183922633528709411621093750000 0.038505122065544128417968750000 0.001391100930050015015843056787 0.006583718117326498031616210938 0 0 0 0 
2405333333.3333334923 0.185510009527206393142861884371 0.037952337414026260375976562500 0.001712315715849400000331259619 0.006666470319032669067382812500 0 0 0 0 
2405500000.0000000000 0.187132537364959689041299384371 0.037564441561698906635324846093 0.001901768613606690926792763818 0.006603650283068419370169355176 0 0 0 0 
2405666666.6666665077 0.188565090298652704436932481258 0.037121344357728958129882812500 0.002088153036311268806457519531 0.006501239724457263946533203125 0 0 0 0 
2405833333.3333334923 0.190066248178482111175213731258 0.036904048174619681621511091407 0.002359517617151141166687011719 0.006377583835273981094360351562 0 0 0 0 
2406000000.0000000000 0.191289171576499911209268134371 0.036948025226593017578125000000 0.002582842018455266952514648438 0.006215634755790233612060546875 0 0 0 0 
2406166666.6666665077 0.192523553967475891113281250000 0.036811038851737983013112653907 0.002831825986504555182216025244 0.005944042932242155075073242188 0 0 0 0 
2406333333.3333334923 0.193659439682960510253906250000 0.036954153329133987426757812500 0.003168958937749267058131552588 0.005695876199752092361450195312 0 0 0 0 
2406500000.0000000000 0.194642722606658907791299384371 0.037281926721334457397460937500 0.003379448084160685972926474463 0.005548402201384305953979492188 0 0 0 0 
2406666666.6666665077 0.195519685745239313323651231258 0.037394631654024117206613908593 0.003444970585405827002284384619 0.005414052400738000869750976562 0 0 0 0 
2406833333.3333334923 0.196348100900649996658486884371 0.037754893302917480468750000000 0.003491044044494628906250000000 0.005258118733763694763183593750 0 0 0 0 
2407000000.0000000000 0.196840092539787292480468750000 0.038204345852136611938476562500 0.003723355475813149972202920068 0.005089086014777421951293945312 0 0 0 0 
2407166666.6666665077 0.197396278381347711761151231258 0.038384497165679931640625000000 0.003541999496519566015956259619 0.004676591139286757382864667676 0 0 0 0 
2407333333.3333334923 0.197525873780250604827557481258 0.038883972913026809692382812500 0.003693879116326570944545126807 0.004795612301677464571481035449 0 0 0 0 
2407500000.0000000000 0.197817713022232111175213731258 0.039266139268875122070312500000 0.003777670674026011986973427881 0.004571957513689994812011718750 0 0 0 0 
2407666666.6666665077 0.197914004325866699218750000000 0.039605617523193359375000000000 0.003278872231021523909327841650 0.004367061425000429153442382812 0 0 0 0 
2407833333.3333334923 0.197630345821380587478799384371 0.039742611348628997802734375000 0.003907202742993831634521484375 0.004119429737329483032226562500 0 0 0 0 
2408000000.0000000000 0.197751745581626892089843750000 0.039928391575813293457031250000 0.003952591679990291595458984375 0.004280210938304662704467773438 0 0 0 0 
2408166666.6666665077 0.197178453207015991210937500000 0.040005367249250411987304687500 0.004181644879281520843505859375 0.004094358533620834350585937500 0 0 0 0 
2408333333.3333334923 0.197156086564063998123330634371 0.039885587990283973003347028907 0.003893693676218390898463583838 0.005218235310167074203491210938 0 0 0 0 
2408500000.0000000000 0.196173757314682006835937500000 0.039888963103294372558593750000 0.004215473774820566177368164062 0.003417040221393107934239052881 0 0 0 0 
2408666666.6666665077 0.195628985762596102615518134371 0.039747770875692367553710937500 0.003915720153599978360647870801 0.004141427110880613327026367188 0 0 0 0 
2408833333.3333334923 0.194809362292289706131143134371 0.039499804377555847167968750000 0.003966951742768287658691406250 0.003341038478538393974304199219 0 0 0 0 
2409000000.0000000000 0.193968817591667203048544365629 0.038798045367002487182617187500 0.004366072360426188382620527051 0.003558532334864139990565634619 0 0 0 0 
2409166666.6666665077 0.192887738347053500076455634371 0.038055717945098876953125000000 0.004418085329234600067138671875 0.003610091982409358024597167969 0 0 0 0 
2409333333.3333334923 0.192107185721397399902343750000 0.037375811487436301494557966407 0.004310169257223606109619140625 0.003277752082794905142543173682 0 0 0 0 
2409500000.0000000000 0.190931692719459505935830634371 0.036273527890443801879882812500 0.004466234706342220306396484375 0.003286355873569846153259277344 0 0 0 0 
2409666666.6666665077 0.189627915620803805252236884371 0.035174820572137832641601562500 0.004499170463532209396362304688 0.003328163409605621857884072412 0 0 0 0 
2409833333.3333334923 0.188544422388076809982138115629 0.033878315240144729614257812500 0.004662412684410811337942792676 0.003197053447365760803222656250 0 0 0 0 
2410000000.0000000000 0.187413051724433898925781250000 0.032419715076684951782226562500 0.004570629913359879580025957324 0.003252612892538309097290039062 0 0 0 0 
2410166666.6666665077 0.186092674732208307464276231258 0.030765058472752571105957031250 0.004989234264940023422241210938 0.003227437380701303915736533057 0 0 0 0 
2410333333.3333334923 0.185072451829910306075888115629 0.029108328744769099843958670704 0.005033944267779588699340820312 0.003177993465214968161342001807 0 0 0 0 
2410500000.0000000000 0.183922544121742304046307481258 0.027290271595120429992675781250 0.005049764644354581832885742188 0.002940588863566517829895019531 0 0 0 0 
2410666666.6666665077 0.182650730013847406585369981258 0.024996645748615268362025076954 0.005170109216123819351196289062 0.002974041271954774856567382812 0 0 0 0 
2410833333.3333334923 0.181761950254440307617187500000 0.022973660379648208618164062500 0.005453685298562049865722656250 0.002797969849780201911926269531 0 0 0 0 
2411000000.0000000000 0.180770441889762906173544365629 0.020759524777531620370885079296 0.005548764951527118682861328125 0.002681298647075891928431845557 0 0 0 0 
2411166666.6666665077 0.179895728826522799392861884371 0.018536996096372600900670235546 0.005638094153255224227905273438 0.002459899988025426864624023438 0 0 0 0 
2411333333.3333334923 0.179116606712341308593750000000 0.015981702134013179433802420704 0.005785987712442874908447265625 0.002342267194762825965881347656 0 0 0 0 
2411500000.0000000000 0.178420454263687106033486884371 0.013669294305145740509033203125 0.005884601268917322158813476562 0.002047157613560556931736611475 0 0 0 0 
2411666666.6666665077 0.178082972764968899825888115629 0.011169118806719779968261718750 0.005930949002504348754882812500 0.001840711338445544026018452222 0 0 0 0 
2411833333.3333334923 0.177538827061653109451455634371 0.008702833205461502075195312500 0.005988620687276124954223632812 0.001721195178106426975847553784 0 0 0 0 
2412000000.0000000000 0.177415847778320312500000000000 0.005880866199731826782226562500 0.006024997215718030929565429688 0.001520716235972940921783447266 0 0 0 0 
2412166666.6666665077 0.177409395575523404220419365629 0.003598686773329972787144326318 0.006127506028860807418823242188 0.001488649519160389900207519531 0 0 0 0 
2412333333.3333334923 0.177294924855232211013955634371 0.000752821681089699268341064453 0.006197337992489337921142578125 0.001191739807836710973026894678 0 0 0 0 
2412500000.0000000000 0.177844941616058405120526231258 -0.001805042731575668074964213794 0.006213143933564425382132245801 0.000984339509159326553344726562 0 0 0 0 
2412666666.6666665077 0.178097650408744812011718750000 -0.004611346404999495419974042676 0.006421552039682865142822265625 0.000772020895965397357940673828 0 0 0 0 
2412833333.3333334923 0.178685516119003295898437500000 -0.007152697537094354629516601562 0.006396275479346513748168945312 0.000612197385635226964950561523 0 0 0 0 
2413000000.0000000000 0.179414406418800409515057481258 -0.009873243048787117004394531250 0.006436619441956281661987304688 0.000310581322992220520973205566 0 0 0 0 
2413166666.6666665077 0.180108070373535211761151231258 -0.012345780618488790339459804102 0.006407312117516995343680097363 0.000260817178059369325637817383 0 0 0 0 
2413333333.3333334923 0.181191369891166687011718750000 -0.014922574162483220536201677930 0.006524567026644945144653320312 -0.000030566854547942057251930237 0 0 0 0 
2413500000.0000000000 0.181971505284309387207031250000 -0.017484923824667930603027343750 0.006587311159819365415091230176 -0.000359920057235285585552769794 0 0 0 0 
2413666666.6666665077 0.183257699012756403167401231258 -0.019977336749434471130371093750 0.006719043478369712829589843750 -0.000627315195742994546890258789 0 0 0 0 
2413833333.3333334923 0.184480428695678710937500000000 -0.022208679467439651489257812500 0.006760140880942344665527343750 -0.000974736176431179046630859375 0 0 0 0 
2414000000.0000000000 0.185561224818229703048544365629 -0.024531099945306781423548514454 0.006649862043559551239013671875 -0.001084165531210600896122597803 0 0 0 0 
2414166666.6666665077 0.187072694301605196853799384371 -0.026491042226552959787388985546 0.006635891273617743578439043262 -0.001446095295250416018842387622 0 0 0 0 
2414333333.3333334923 0.188121140003204401214276231258 -0.028835320845246318471888358204 0.006406217347830533981323242188 -0.001781217986717819950701069409 0 0 0 0 
2414500000.0000000000 0.189648225903511102874432481258 -0.030422896146774288522740548046 0.006547512486577033996582031250 -0.001892245374619961001752543872 0 0 0 0 
2414666666.6666665077 0.190909937024116488357705634371 -0.032170269638299942016601562500 0.006319597363471984863281250000 -0.002217900473624467849731445312 0 0 0 0 
2414833333.3333334923 0.192334249615669305999432481258 -0.033920742571353912353515625000 0.006150691770017147064208984375 -0.002510400023311377005336142432 0 0 0 0 
2415000000.0000000000 0.193578928709030206878338731258 -0.035355050116777420043945312500 0.006104999687522649765014648438 -0.002723936690017580986022949219 0 0 0 0 
2415166666.6666665077 0.195019587874412508865518134371 -0.036638587713241577148437500000 0.006014968268573284149169921875 -0.002895889570936561064479208838 0 0 0 0 
2415333333.3333334923 0.196441531181335504729901231258 -0.037794120609760277484934221093 0.005966946948319674405569745801 -0.003089489182457327842712402344 0 0 0 0 
2415500000.0000000000 0.197740763425826998611611884371 -0.038658421486616141582448591407 0.005905386526137590408325195312 -0.003274123882874846892115927588 0 0 0 0 
2415666666.6666665077 0.199020698666572598556356865629 -0.039660807698965072631835937500 0.005768060684204102429861737988 -0.003629815764725207848789834131 0 0 0 0 
2415833333.3333334923 0.200114771723747308929119981258 -0.040347114205360412597656250000 0.005355918314307928085327148438 -0.003691962454468011856079101562 0 0 0 0 
2416000000.0000000000 0.201303243637084988693075615629 -0.041015852242708213115651716407 0.005424349568784236907958984375 -0.003842277452349663214442587744 0 0 0 0 
2416166666.6666665077 0.202214092016220092773437500000 -0.041728645563125610351562500000 0.005058296490460634231567382812 -0.004111411515623331069946289062 0 0 0 0 
2416333333.3333334923 0.203129425644874600509481865629 -0.042061734944581992412526716407 0.004985939711332321166992187500 -0.004517942201346158981323242188 0 0 0 0 
2416500000.0000000000 0.203876659274101312835369981258 -0.042214173823595046997070312500 0.004690186586230993270874023438 -0.004527939017862082395071698926 0 0 0 0 
2416666666.6666665077 0.204369425773620605468750000000 -0.042593464255332946777343750000 0.004567416850477457046508789062 -0.004827627446502447128295898438 0 0 0 0 
2416833333.3333334923 0.204783573746681213378906250000 -0.042581055313348770141601562500 0.004147573839873076352591230176 -0.005006194580346345901489257812 0 0 0 0 
2417000000.0000000000 0.205268219113349886795205634371 -0.042668834328651428222656250000 0.003944792319089174270629882812 -0.005077528301626443862915039062 0 0 0 0 
2417166666.6666665077 0.205251216888427706619424384371 -0.042497459799051291728932966407 0.003612686181440949006321572412 -0.005175224039703608426565839551 0 0 0 0 
2417333333.3333334923 0.205229058861732510665731865629 -0.042215954512357711791992187500 0.003356474684551357789280556787 -0.005319206975400447845458984375 0 0 0 0 
2417500000.0000000000 0.205215886235237093826455634371 -0.042065914720296859741210937500 0.003106370801106094880345009912 -0.005258386954665184020996093750 0 0 0 0 
2417666666.6666665077 0.204769819974899291992187500000 -0.041753139346837997436523437500 0.002821980742737650871276855469 -0.005113260820508003234863281250 0 0 0 0 
2417833333.3333334923 0.204536616802215603927450615629 -0.041347194463014602661132812500 0.002771590137854218916652060400 -0.005136475432664155960083007812 0 0 0 0 
2418000000.0000000000 0.204218864440917996505575615629 -0.040866773575544357299804687500 0.002670151181519031958339072119 -0.005174889229238033294677734375 0 0 0 0 
2418166666.6666665077 0.203307211399078396896200615629 -0.040673542767763137817382812500 0.002292683115229011015651083838 -0.005125704221427440643310546875 0 0 0 0 
2418333333.3333334923 0.202588617801666287521200615629 -0.040255594998598098754882812500 0.002233373001217842102050781250 -0.005088501144200563430786132812 0 0 0 0 
2418500000.0000000000 0.201659753918647793868856865629 -0.040175896137952811504323591407 0.002270448487251996994018554688 -0.005029898136854171752929687500 0 0 0 0 
2418666666.6666665077 0.200808241963386507888955634371 -0.039860282093286507343332658593 0.002079784404486418204066611182 -0.005169120617210865020751953125 0 0 0 0 
2418833333.3333334923 0.199590742588043212890625000000 -0.039673581719398498535156250000 0.002101411577314137978794716943 -0.005328659433871507644653320312 0 0 0 0 
2419000000.0000000000 0.198361411690712002853231865629 -0.039732716977596282958984375000 0.001843787147663533904431987231 -0.005150219891220331192016601562 0 0 0 0 
2419166666.6666665077 0.196961343288421603103799384371 -0.039701528847217559814453125000 0.001784867607057095007655478369 -0.005383972078561782836914062500 0 0 0 0 
2419333333.3333334923 0.195453658699989291092080634371 -0.039901938289403922344167341407 0.001599641051143408038495707935 -0.005337699316442012786865234375 0 0 0 0 
2419500000.0000000000 0.193960249423980712890625000000 -0.040145494043827056884765625000 0.001535609248094260909436870044 -0.005349949467927218350882245801 0 0 0 0 
2419666666.6666665077 0.192363694310188293457031250000 -0.040762659162282936786692033593 0.001451156567782164053675986182 -0.005579992663115262985229492188 0 0 0 0 
2419833333.3333334923 0.190368756651878412444744981258 -0.041135292500257492065429687500 0.001254213741049170927760458838 -0.005656499415636062622070312500 0 0 0 0 
2420000000.0000000000 0.188781723380088806152343750000 -0.041903655976057052612304687500 0.001143053523264824910404824365 -0.005563885904848575592041015625 0 0 0 0 
