# Hz S RI R 
2400000000.0000000000 0.155390292406082208831463731258 0.109463348984718294998330634371 -0.001288766623474657969233847510 0.006963062100112438201904296875 0 0 0 0 
2400166666.6666665077 0.155283406376838711837606865629 0.107170537114143399337606865629 0.000905371038243174552917480469 0.007956488057971000671386718750 0 0 0 0 
2400333333.3333334923 0.155057951807975796798544365629 0.105122834444046006630024692186 -0.000829231925308704376220703125 0.007879737764596939086914062500 0 0 0 0 
2400500000.0000000000 0.155094593763351412674111884371 0.102351881563663496543803432814 0.000052460094593698158860206604 0.008471072651445865631103515625 0 0 0 0 
2400666666.6666665077 0.154966056346893310546875000000 0.099861383438110351562500000000 0.000119101991003844900570730891 0.007963266223669052124023437500 0 0 0 0 
2400833333.3333334923 0.155013173818588312347088731258 0.097129516303539276123046875000 0.000666030158754438161849975586 0.008753513917326927185058593750 0 0 0 0 
2401000000.0000000000 0.154913067817687988281250000000 0.094076290726661682128906250000 0.000800357374828308820724487305 0.007844502106308937072753906250 0 0 0 0 
2401166666.6666665077 0.154758155345916803558026231258 0.091017097234725952148437500000 0.001348017249256373102303530054 0.006860249210149049758911132812 0 0 0 0 
2401333333.3333334923 0.155215114355087308029013115629 0.088341079652309417724609375000 0.001473261509090662002563476562 0.007592837791889905929565429688 0 0 0 0 
2401500000.0000000000 0.155459985136985806564169365629 0.085487850010395050048828125000 0.002031225711107254028320312500 0.008033406920731067657470703125 0 0 0 0 
2401666666.6666665077 0.155670955777168301681356865629 0.082731127738952636718750000000 0.002422570716589688821079873193 0.007963233627378940582275390625 0 0 0 0 
2401833333.3333334923 0.156296610832214410979901231258 0.079679936170578002929687500000 0.002860559849068522886988974463 0.007940195500850677490234375000 0 0 0 0 
2402000000.0000000000 0.157050654292106600662393134371 0.076894663274288177490234375000 0.003201497485861182212829589844 0.007891641929745674133300781250 0 0 0 0 
2402166666.6666665077 0.157813102006912203689736884371 0.074420735239982604980468750000 0.003592969384044408798217773438 0.007713354658335447311401367188 0 0 0 0 
2402333333.3333334923 0.158618152141570989410723768742 0.071416400372982025146484375000 0.004132545087486506375784589551 0.007461874280124902725219726562 0 0 0 0 
2402500000.0000000000 0.159843131899833706954794365629 0.068896673619747161865234375000 0.004249120596796274185180664062 0.007360470946878194808959960938 0 0 0 0 
2402666666.6666665077 0.160869956016540499588174384371 0.066401943564414978027343750000 0.004678384866565465927124023438 0.007097544614225625991821289062 0 0 0 0 
2402833333.3333334923 0.162220522761344909667968750000 0.063954994082450866699218750000 0.005111191887408494949340820312 0.006945741828531026840209960938 0 0 0 0 
2403000000.0000000000 0.163650676608085604568643134371 0.061451867222785949707031250000 0.005409947130829095840454101562 0.006634423974901437759399414062 0 0 0 0 
2403166666.6666665077 0.165329128503799410720986884371 0.059051636606454849243164062500 0.005600507836788892745971679688 0.006241573952138423919677734375 0 0 0 0 
2403333333.3333334923 0.166953235864639309982138115629 0.056913942098617546772043596093 0.005944321863353252410888671875 0.005894583649933338165283203125 0 0 0 0 
2403500000.0000000000 0.168611183762550409515057481258 0.054560359567403793334960937500 0.006094074808061122894287109375 0.005514579825103282928466796875 0 0 0 0 
2403666666.6666665077 0.170309707522392300704794365629 0.052562989294528961181640625000 0.006403373088687658309936523438 0.005213937722146511077880859375 0 0 0 0 
2403833333.3333334923 0.172081425786018399337606865629 0.050347674638032913208007812500 0.006405346095561981201171875000 0.004842848982661963376517011426 0 0 0 0 
2404000000.0000000000 0.173698067665100097656250000000 0.048606567084789283061940778907 0.006544136907905340194702148438 0.004619341809302567568307207324 0 0 0 0 
2404166666.6666665077 0.175535589456558199783486884371 0.047101125121116638183593750000 0.006665088701993227005004882812 0.004366538021713495254516601562 0 0 0 0 
2404333333.3333334923 0.177173793315887506683026231258 0.045448161661624908447265625000 0.006789596285670995712280273438 0.004046361893415451049804687500 0 0 0 0 
2404500000.0000000000 0.179068922996520996093750000000 0.043746441602706909179687500000 0.006879091262817382812500000000 0.003735374193638563156127929688 0 0 0 0 
2404666666.6666665077 0.180860996246337890625000000000 0.042719069868326187133789062500 0.006888834293931722640991210938 0.003481850959360599951503134619 0 0 0 0 
2404833333.3333334923 0.182526171207428006271200615629 0.041534297168254852294921875000 0.007024054881185293197631835938 0.003292158478870987892150878906 0 0 0 0 
2405000000.0000000000 0.184096530079841613769531250000 0.040677338838577270507812500000 0.007113123312592506408691406250 0.002911948831751943068263388525 0 0 0 0 
2405166666.6666665077 0.185482740402221707443075615629 0.039824288338422782207448591407 0.007143637165427207946777343750 0.002712063025683165030238486182 0 0 0 0 
2405333333.3333334923 0.187004789710044888595419365629 0.039429627358913421630859375000 0.007232731673866510391235351562 0.002472752006724476814270019531 0 0 0 0 
2405500000.0000000000 0.188469037413597106933593750000 0.038825381547212600708007812500 0.007211472839117050170898437500 0.002046028152108192010166787256 0 0 0 0 
2405666666.6666665077 0.189905002713203402420205634371 0.038421332836151123046875000000 0.007339143659919500350952148438 0.001743801985867321924922324072 0 0 0 0 
2405833333.3333334923 0.191222429275512695312500000000 0.038132183253765113140065778907 0.007201958913356065750122070312 0.001512614195235074000117636572 0 0 0 0 
2406000000.0000000000 0.192371875047683688064736884371 0.037983916699886322021484375000 0.007257245015352964401245117188 0.001173092867247760079027485425 0 0 0 0 
2406166666.6666665077 0.193417385220527704436932481258 0.037907276302576072002370466407 0.007175179198384284973144531250 0.000920588325243443250656127930 0 0 0 0 
2406333333.3333334923 0.194376215338706997970419365629 0.038043607026338577270507812500 0.007243508007377386093139648438 0.000715903064701706171035766602 0 0 0 0 
2406500000.0000000000 0.195387005805969210525674384371 0.038079597055912017822265625000 0.007181340828537940979003906250 0.000444569071987643783718663348 0 0 0 0 
2406666666.6666665077 0.196147352457046508789062500000 0.038179825991392142559011091407 0.007195731159299612045288085938 0.000122313445899635607570093976 0 0 0 0 
2406833333.3333334923 0.196682676672935513595419365629 0.038148868829011917114257812500 0.007052113767713308334350585938 -0.000111366418423131094731469426 0 0 0 0 
2407000000.0000000000 0.197064355015754699707031250000 0.038604598492383956909179687500 0.006765049416571856412405683301 -0.000267401541350409388542175293 0 0 0 0 
2407166666.6666665077 0.197745710611343411544638115629 0.038565676659345626831054687500 0.006754741538316011428833007812 -0.000504226831253618001937866211 0 0 0 0 
2407333333.3333334923 0.197502553462982205489950615629 0.038714762777090072631835937500 0.006708777509629726409912109375 -0.000859609106555581092834472656 0 0 0 0 
2407500000.0000000000 0.197619691491126986404580634371 0.038896169513463967060129533593 0.006669103633612394332885742188 -0.000923969550058245658874511719 0 0 0 0 
2407666666.6666665077 0.197778865694999694824218750000 0.039013002067804336547851562500 0.006294229999184609326834394238 -0.001173914060927927927729941260 0 0 0 0 
2407833333.3333334923 0.197382032871246310135049384371 0.038955532014369971538503278907 0.006202245596796274185180664062 -0.001220477395690978007075644385 0 0 0 0 
2408000000.0000000000 0.197442725300788907150106865629 0.039005674421787261962890625000 0.006246641278266906738281250000 -0.001346411299891770102857280200 0 0 0 0 
2408166666.6666665077 0.196818575263023404220419365629 0.038917768746614463115651716407 0.006135443691164255142211914062 -0.001629455829970539049861288916 0 0 0 0 
2408333333.3333334923 0.196528434753417996505575615629 0.038543038070201866840402971093 0.005828063003718852996826171875 -0.001721639651805161996128701318 0 0 0 0 
2408500000.0000000000 0.195796534419059808929119981258 0.038361791521310813213307966407 0.005555724259465932846069335938 -0.001657245331443846008898090894 0 0 0 0 
2408666666.6666665077 0.195291042327880887130575615629 0.037977509200572967529296875000 0.005699089262634515762329101562 -0.001849371939897537014604878003 0 0 0 0 
2408833333.3333334923 0.194574758410453796386718750000 0.037406746298074722290039062500 0.005685599055141211423392011426 -0.001821467303670943000196147388 0 0 0 0 
2409000000.0000000000 0.193695425987243707854901231258 0.036728609353303909301757812500 0.005440079141408205032348632812 -0.001912791631184517903568886865 0 0 0 0 
2409166666.6666665077 0.192663133144378689864950615629 0.035722851753234863281250000000 0.005373921710997819900512695312 -0.002101908903568983078002929688 0 0 0 0 
2409333333.3333334923 0.191644266247749300857705634371 0.034922070801258087158203125000 0.005381559953093528747558593750 -0.002125422935932875113246298682 0 0 0 0 
2409500000.0000000000 0.190655976533889798263388115629 0.033751524984836578369140625000 0.005399100482463836669921875000 -0.002195572014898062186000204932 0 0 0 0 
2409666666.6666665077 0.189624130725860595703125000000 0.032363370060920722270925153907 0.005443484056740999221801757812 -0.002252615522593259811401367188 0 0 0 0 
2409833333.3333334923 0.188377127051353510100994981258 0.031130675226449969900111014454 0.005331023130565881729125976562 -0.002168989274650812149047851562 0 0 0 0 
2410000000.0000000000 0.187482148408889798263388115629 0.029627494513988498342493826954 0.005228945054113864898681640625 -0.002524450421333312988281250000 0 0 0 0 
2410166666.6666665077 0.186271160840988186935263115629 0.027862587943673130380650704296 0.005262172315269708633422851562 -0.002770841820165514945983886719 0 0 0 0 
2410333333.3333334923 0.185340955853462191482705634371 0.026191467419266700744628906250 0.005138564389199019345755292676 -0.002740297932177782058715820312 0 0 0 0 
2410500000.0000000000 0.184278205037117004394531250000 0.024270385503768920898437500000 0.005153366364538669586181640625 -0.003033320652320981025695800781 0 0 0 0 
2410666666.6666665077 0.183316066861152704436932481258 0.022172505035996440542200858204 0.005006215535104274749755859375 -0.002962213708087801933288574219 0 0 0 0 
2410833333.3333334923 0.182538419961929293533486884371 0.019896617159247398376464843750 0.004904644563794136047363281250 -0.003211761824786663055419921875 0 0 0 0 
2411000000.0000000000 0.181587517261505099197549384371 0.017800990492105480539342110546 0.004926201887428761395926191113 -0.003393399063497782187220908057 0 0 0 0 
2411166666.6666665077 0.181049898266792297363281250000 0.015625597909092899667760079296 0.004903148859739303588867187500 -0.003501605708152056174037314307 0 0 0 0 
2411333333.3333334923 0.180311352014541598220986884371 0.013125937432050710160225115430 0.004512583836913108825683593750 -0.003671283833682537078857421875 0 0 0 0 
2411500000.0000000000 0.179864794015884399414062500000 0.010718161240220069885253906250 0.004394683055579662322998046875 -0.003814150812104343934300088037 0 0 0 0 
2411666666.6666665077 0.179592922329902704436932481258 0.008356316946446895599365234375 0.004366420675069093704223632812 -0.003764202352613211111781454932 0 0 0 0 
2411833333.3333334923 0.179139062762260409256143134371 0.005817087367177009582519531250 0.004185599740594626340384198926 -0.003759796964004635810852050781 0 0 0 0 
2412000000.0000000000 0.179190903902053805252236884371 0.003330248175188899040222167969 0.004316707607358694076538085938 -0.003838678123429418043849326025 0 0 0 0 
2412166666.6666665077 0.179122284054756192306356865629 0.000880785926710814237594604492 0.003932979889214038848876953125 -0.004132709931582211580758379199 0 0 0 0 
2412333333.3333334923 0.179301202297210693359375000000 -0.001767701236531137986424111475 0.003955768421292304992675781250 -0.004186549689620733261108398438 0 0 0 0 
2412500000.0000000000 0.179619669914245605468750000000 -0.004381609149277210235595703125 0.003875551978126167817356728662 -0.004168583080172538757324218750 0 0 0 0 
2412666666.6666665077 0.179960355162620488922442518742 -0.006885088514536619186401367188 0.003775099525228143172023154150 -0.004123581107705832395071698926 0 0 0 0 
2412833333.3333334923 0.180591002106666592696981865629 -0.009379251860082149505615234375 0.003821246325969696044921875000 -0.004301698412746191024780273438 0 0 0 0 
2413000000.0000000000 0.181263342499732998946981865629 -0.011783447116613389796246913477 0.003599596675485372977015829932 -0.004355241544544696807861328125 0 0 0 0 
2413166666.6666665077 0.182130679488182095626669365629 -0.014194403775036340195625506055 0.003608738770708442167994833838 -0.004496406763792037963867187500 0 0 0 0 
2413333333.3333334923 0.182983294129371587555255018742 -0.016538547351956370962122733204 0.003665143391117454008815146338 -0.004760785959661006927490234375 0 0 0 0 
2413500000.0000000000 0.184031575918197604080361884371 -0.018953643739223480224609375000 0.003436678089201449914219521631 -0.004921102430671454343313886426 0 0 0 0 
2413666666.6666665077 0.184962332248687688629473768742 -0.021294161677360541606862653907 0.003142899600788950920104980469 -0.004991048946976661682128906250 0 0 0 0 
2413833333.3333334923 0.186281278729438809493856865629 -0.023367065936326980590820312500 0.003149000462144612832310341943 -0.005245886277407407760620117188 0 0 0 0 
2414000000.0000000000 0.187299996614456204513388115629 -0.025444403290748599660853201954 0.002849253593012690977809286963 -0.005475963465869426727294921875 0 0 0 0 
2414166666.6666665077 0.188606813549995394607705634371 -0.027328316122293468820592110546 0.002783627482131123976466513525 -0.005681091453880071640014648438 0 0 0 0 
2414333333.3333334923 0.189782217144966097732705634371 -0.029449574649333950387974923046 0.002451440319418907165527343750 -0.005590225569903851422781659863 0 0 0 0 
2414500000.0000000000 0.190971538424491910079794365629 -0.031167700886726379394531250000 0.002197636058554052872898720850 -0.005782757885754108428955078125 0 0 0 0 
2414666666.6666665077 0.192208632826805086990518134371 -0.032666545361280441284179687500 0.002044327789917587800266884912 -0.005709496792405843734741210938 0 0 0 0 
2414833333.3333334923 0.193351000547409113128338731258 -0.034223016351461410522460937500 0.001783005543984472968457866138 -0.005785922985523939132690429688 0 0 0 0 
2415000000.0000000000 0.194645345211029108245526231258 -0.035482570528984069824218750000 0.001602493342943489985225058447 -0.005656367167830467224121093750 0 0 0 0 
2415166666.6666665077 0.195941880345344487945880018742 -0.036717124283313751220703125000 0.001512332935817539908765483325 -0.005849805194884538650512695312 0 0 0 0 
2415333333.3333334923 0.197151497006416293045205634371 -0.037828646600246429443359375000 0.001277606119401752948760986328 -0.005732827354222536087036132812 0 0 0 0 
2415500000.0000000000 0.198283731937408502776776231258 -0.038501247763633728027343750000 0.000976628740318119525909423828 -0.005669436883181334409231855176 0 0 0 0 
2415666666.6666665077 0.199388727545738192459268134371 -0.039431072771549231792409528907 0.001041937968693674044368124854 -0.005697517655789852142333984375 0 0 0 0 
2415833333.3333334923 0.200350895524024991134481865629 -0.040067333728075027465820312500 0.000955064257141202688217163086 -0.005850603803992271423339843750 0 0 0 0 
2416000000.0000000000 0.201280429959297207931356865629 -0.040719214826822280883789062500 0.000695670139975845813751220703 -0.005727047100663185119628906250 0 0 0 0 
2416166666.6666665077 0.202126145362854003906250000000 -0.041187576949596411968190778907 0.000424648780608549714088439941 -0.005930789280682802200317382812 0 0 0 0 
2416333333.3333334923 0.202839836478233309646768134371 -0.041527897119522101665456403907 0.000419797550421208089024144305 -0.005911447107791900634765625000 0 0 0 0 
2416500000.0000000000 0.203433826565742492675781250000 -0.041885487735271446918527971093 0.000228684293688274892881670541 -0.005907083861529827117919921875 0 0 0 0 
2416666666.6666665077 0.203951671719551086425781250000 -0.042288448661565780639648437500 0.000194632593775168088361463004 -0.005958954803645610809326171875 0 0 0 0 
2416833333.3333334923 0.204061821103096008300781250000 -0.042130969464778900146484375000 0.000041597322706365957856178284 -0.006016944069415330886840820312 0 0 0 0 
2417000000.0000000000 0.204325869679450988769531250000 -0.042281199246644966815988908593 -0.000223632596316747394487103873 -0.006099919322878122329711914062 0 0 0 0 
2417166666.6666665077 0.204231545329093905349893134371 -0.042204950004816062236745466407 -0.000244152906816452687412816180 -0.006098515354096890363211347363 0 0 0 0 
2417333333.3333334923 0.204149082303047207931356865629 -0.042031273245811462402343750000 -0.000506268988829106092453002930 -0.006271705031394959363455487988 0 0 0 0 
2417500000.0000000000 0.203924357891082791427450615629 -0.042024087160825729370117187500 -0.000805313524324446916580200195 -0.006341944448649883270263671875 0 0 0 0 
2417666666.6666665077 0.203424006700515802581463731258 -0.041631922125816352153737653907 -0.000966624298598617315292358398 -0.006283572874963284406180097363 0 0 0 0 
2417833333.3333334923 0.203059941530227688888388115629 -0.041437514126300811767578125000 -0.001293685287237166924717568506 -0.006363803520798683166503906250 0 0 0 0 
2418000000.0000000000 0.202513858675956698318643134371 -0.041149158030748367309570312500 -0.001540561439469457106349326025 -0.006281223613768815994262695312 0 0 0 0 
2418166666.6666665077 0.201729834079742403885049384371 -0.041051361709833152080495466407 -0.001811129855923355059382773291 -0.006282864604145289334768964551 0 0 0 0 
2418333333.3333334923 0.200877577066421508789062500000 -0.040760871022939682006835937500 -0.002150731859728693962097167969 -0.006242293864488601684570312500 0 0 0 0 
2418500000.0000000000 0.199997827410697909256143134371 -0.040796585381031043315847028907 -0.002336902543902397155761718750 -0.006133923772722482681274414062 0 0 0 0 
2418666666.6666665077 0.199026063084602411468182481258 -0.040682103484869003295898437500 -0.002530819503590465025660849463 -0.006022668909281492233276367188 0 0 0 0 
2418833333.3333334923 0.197841480374336187164630018742 -0.040583040565252297138254533593 -0.002918038284406065940856933594 -0.005834395065903663635253906250 0 0 0 0 
2419000000.0000000000 0.196378126740455599685830634371 -0.040691591799259192729909528907 -0.002962258178740739822387695312 -0.005597190465778112411499023438 0 0 0 0 
2419166666.6666665077 0.195153102278709411621093750000 -0.040906563401222229003906250000 -0.003233650699257851080653525244 -0.005619224626570940017700195312 0 0 0 0 
2419333333.3333334923 0.193773567676544189453125000000 -0.041351702064275741577148437500 -0.003427783260121942000148154150 -0.005366252269595860567574785449 0 0 0 0 
2419500000.0000000000 0.192321062088012695312500000000 -0.041794769465923309326171875000 -0.003404651302844285964965820312 -0.005277589894831180572509765625 0 0 0 0 
2419666666.6666665077 0.190646424889564486404580634371 -0.042467888444662087177317033593 -0.003532764269039034843444824219 -0.005208138376474381360525800488 0 0 0 0 
2419833333.3333334923 0.189012542366981506347656250000 -0.042993873357772827148437500000 -0.003805796150118112997767783057 -0.005000052507966756820678710938 0 0 0 0 
