# Hz S RI R 50
2400000000.0000000000 0.155155792832374600509481865629 0.109374880790710504729901231258 0.002645464614033699035644531250 0.004108612891286612424368573926 0 0 0 0 
2400166666.6666665077 0.154880806803703308105468750000 0.106755688786506694465394673443 0.003324493067339063124415732275 0.003645691089332104162928915869 0 0 0 0 
2400333333.3333334923 0.154733955860137911697549384371 0.104579135775566101074218750000 0.003239684039726852936985634912 0.003768571186810731887817382812 0 0 0 0 
2400500000.0000000000 0.154726579785347012618856865629 0.102097906172275501579527201557 0.003603962948545813994166708838 0.005153207574039697647094726562 0 0 0 0 
2400666666.6666665077 0.154362574219703702071981865629 0.099449619650840759277343750000 0.003404229646548628807067871094 0.002872839570045471191406250000 0 0 0 0 
2400833333.3333334923 0.154162451624870300292968750000 0.096429355442523956298828125000 0.003405173774808644814732216943 0.001755282864905894019483256763 0 0 0 0 
2401000000.0000000000 0.154292523860931396484375000000 0.094162665307521820068359375000 0.002034533536061644987819052588 0.003163162618875503973719931494 0 0 0 0 
2401166666.6666665077 0.154104754328727694412393134371 0.091229967772960662841796875000 0.001994462218135594887974404443 0.002393238246440887884852743994 0 0 0 0 
2401333333.3333334923 0.154873713850975008865518134371 0.088543273508548736572265625000 0.003604170633479952812194824219 0.004328064620494843396658612988 0 0 0 0 
2401500000.0000000000 0.154912114143371609786825615629 0.085590623319149017333984375000 0.002786349272355436845066689600 0.003449978539720178084132529150 0 0 0 0 
2401666666.6666665077 0.155189394950866699218750000000 0.082414999604225158691406250000 0.003433170495554804801940917969 0.002625936642289162115809775244 0 0 0 0 
2401833333.3333334923 0.155791342258453396896200615629 0.079758301377296447753906250000 0.003593594999983907179591513525 0.002454475732520223097560263525 0 0 0 0 
2402000000.0000000000 0.156473636627197293380575615629 0.076943591237068176269531250000 0.003718677442520856857299804688 0.002527082338929175896885537256 0 0 0 0 
2402166666.6666665077 0.157304137945175198654013115629 0.074248299002647399902343750000 0.003843865357339382171630859375 0.002350597409531474113464355469 0 0 0 0 
2402333333.3333334923 0.158042833209037808517294365629 0.071364402770996093750000000000 0.003953242674469947814941406250 0.002478729700669645829441689600 0 0 0 0 
2402500000.0000000000 0.159217447042465209960937500000 0.068857669830322265625000000000 0.004004829563200473785400390625 0.002303450368344784216639853369 0 0 0 0 
2402666666.6666665077 0.160456061363220187088174384371 0.066431827843189239501953125000 0.004196101333945989608764648438 0.002312636701390147209167480469 0 0 0 0 
2402833333.3333334923 0.161625891923904391189736884371 0.063992887735366821289062500000 0.004485757090151309967041015625 0.002015493111684917969944619287 0 0 0 0 
2403000000.0000000000 0.163044646382331903655682481258 0.061444889754056930541992187500 0.004614017903804779052734375000 0.001836206996813416914698935400 0 0 0 0 
2403166666.6666665077 0.164794266223907498458700615629 0.059119127690792076801340471093 0.004883782938122749328613281250 0.001674340805038809993146586841 0 0 0 0 
2403333333.3333334923 0.166201114654540987869424384371 0.056929741054773330688476562500 0.004872153513133525848388671875 0.001397828222252428965327597510 0 0 0 0 
2403500000.0000000000 0.168019860982894897460937500000 0.054659795016050338745117187500 0.004928091540932655334472656250 0.001077535445801913955091166919 0 0 0 0 
2403666666.6666665077 0.169916927814483587066973768742 0.052525352686643600463867187500 0.005229482427239418029785156250 0.000831594166811555624008178711 0 0 0 0 
2403833333.3333334923 0.171471953392028808593750000000 0.050790894776582717895507812500 0.005324916914105415344238281250 0.000603322230745106935501098633 0 0 0 0 
2404000000.0000000000 0.173237591981887789627236884371 0.048822253942489617084543596093 0.005282799247652292251586914062 0.000332071678712964112132471906 0 0 0 0 
2404166666.6666665077 0.175047397613525390625000000000 0.047127798199653632427175153907 0.005191863048821687698364257812 -0.000005494224296853644773364067 0 0 0 0 
2404333333.3333334923 0.176752105355262811858807481258 0.045533329248428351665456403907 0.005292927380651235580444335938 -0.000185660959687083986684522086 0 0 0 0 
2404500000.0000000000 0.178518608212471008300781250000 0.043907657265663146972656250000 0.005145425442606210708618164062 -0.000505658797919750213623046875 0 0 0 0 
2404666666.6666665077 0.180277332663536099532919365629 0.042997613549232482910156250000 0.005127355456352233886718750000 -0.000745882978662848472595214844 0 0 0 0 
2404833333.3333334923 0.182025402784347506424111884371 0.041700430214405059814453125000 0.004961325321346521377563476562 -0.000988383311778306961059570312 0 0 0 0 
2405000000.0000000000 0.183409661054611206054687500000 0.040966089814901351928710937500 0.005028191022574901580810546875 -0.001106192823499440930010151440 0 0 0 0 
2405166666.6666665077 0.185002580285072298904580634371 0.040009669959545142436940778907 0.004741562064737082395071698926 -0.001214229036122560934779501807 0 0 0 0 
2405333333.3333334923 0.186466604471206692794638115629 0.039607565850019461894948591407 0.004542247392237186431884765625 -0.001542304409667849974391318213 0 0 0 0 
2405500000.0000000000 0.187943711876869201660156250000 0.039099745452404022216796875000 0.004577611573040485382080078125 -0.001657937886193395094630576025 0 0 0 0 
2405666666.6666665077 0.189453616738319396972656250000 0.038640536367893218994140625000 0.004501934163272380828857421875 -0.001693430589511990980861044775 0 0 0 0 
2405833333.3333334923 0.190848335623741205413494981258 0.038516998291015631938893903907 0.004496527835726737976074218750 -0.001933916006237268014195107568 0 0 0 0 
2406000000.0000000000 0.191896691918373107910156250000 0.038232307881116867065429687500 0.004272693768143653869628906250 -0.002119750017300248146057128906 0 0 0 0 
2406166666.6666665077 0.192976132035255404373330634371 0.038133993744850158691406250000 0.004148686304688453674316406250 -0.002186898840591311888453818213 0 0 0 0 
2406333333.3333334923 0.194046348333358792404013115629 0.038257788866758346557617187500 0.004122414160519838333129882812 -0.002297409577295184135437011719 0 0 0 0 
2406500000.0000000000 0.194873765110969487945880018742 0.038270831108093261718750000000 0.003997564315795897570138262012 -0.002451747190207242965698242188 0 0 0 0 
2406666666.6666665077 0.195694953203201293945312500000 0.038355011492967612529714216407 0.003972609061747789382934570312 -0.002601289656013249917271279443 0 0 0 0 
2406833333.3333334923 0.196377709507942199707031250000 0.038530670106410980224609375000 0.003738114377483725981471396338 -0.002836243249475955963134765625 0 0 0 0 
2407000000.0000000000 0.196755573153495788574218750000 0.038865089416503913188893903907 0.003682759124785662131068564307 -0.002907420741394162178039550781 0 0 0 0 
2407166666.6666665077 0.197345137596130398849325615629 0.038714360445737838745117187500 0.003520205849781631989720009912 -0.003047349397093058066127158057 0 0 0 0 
2407333333.3333334923 0.197273388504981994628906250000 0.039093434810638427734375000000 0.003349191742017865180969238281 -0.003171585733070970015284872900 0 0 0 0 
2407500000.0000000000 0.197398409247398404220419365629 0.039327904582023620605468750000 0.003089543199166655974147177588 -0.003301025135442614989039755713 0 0 0 0 
2407666666.6666665077 0.197492226958274813553018134371 0.039309192448854453350026716407 0.003090331098064779801609658350 -0.003388802753761411146876669775 0 0 0 0 
2407833333.3333334923 0.197217732667923001388388115629 0.039362002164125442504882812500 0.002963959239423274993896484375 -0.003489570459350943999049521338 0 0 0 0 
2408000000.0000000000 0.197189942002296503265057481258 0.039293903857469558715820312500 0.002696773735806345939636230469 -0.003590970300137997107264853369 0 0 0 0 
2408166666.6666665077 0.196686729788780212402343750000 0.039243470877408981323242187500 0.002732939086854457855224609375 -0.003539624158293008804321289062 0 0 0 0 
2408333333.3333334923 0.196356594562530489822549384371 0.038974974304437637329101562500 0.002330559073016047911403036963 -0.003636420471593738035914755713 0 0 0 0 
2408500000.0000000000 0.195707380771636990646200615629 0.038705874234437942504882812500 0.002220407826825975938084267725 -0.003830170026049017906188964844 0 0 0 0 
2408666666.6666665077 0.195090174674987792968750000000 0.038415122777223587036132812500 0.002168315229937434196472167969 -0.003545196959748864173889160156 0 0 0 0 
2408833333.3333334923 0.194351196289062500000000000000 0.037849817425012588500976562500 0.001895139925181865908979106372 -0.003599836723878980116603232275 0 0 0 0 
2409000000.0000000000 0.193449005484580993652343750000 0.036996342241764068603515625000 0.001770047703757881901384663159 -0.003662447677925229072570800781 0 0 0 0 
2409166666.6666665077 0.192554458975791903396768134371 0.036199860274791717529296875000 0.001684136805124581076978373950 -0.003658055793493986129760742188 0 0 0 0 
2409333333.3333334923 0.191584184765815707107705634371 0.035248912870883941650390625000 0.001537121715955436012865376050 -0.003777047153562306924107216943 0 0 0 0 
2409500000.0000000000 0.190576031804084805587606865629 0.034075018018484122539479841407 0.001392360311001539013506245190 -0.003704194677993655204772949219 0 0 0 0 
2409666666.6666665077 0.189401283860206604003906250000 0.032856997102499008178710937500 0.001363907707855104966404580225 -0.003657979425042868094203329932 0 0 0 0 
2409833333.3333334923 0.188319727778434808929119981258 0.031546041369438171386718750000 0.001216685515828431086299277197 -0.003724325448274611993076943506 0 0 0 0 
2410000000.0000000000 0.187391161918640108963174384371 0.030006075277924541128138358204 0.001071199891157448074938129956 -0.003765827510505915121791220557 0 0 0 0 
2410166666.6666665077 0.186232581734657287597656250000 0.028247825801372531545618826954 0.001008367864415049986598349463 -0.003726697294041513962986611475 0 0 0 0 
2410333333.3333334923 0.185238957405090304275674384371 0.026591213420033458364466483204 0.000942256941925734281539916992 -0.003812453709542750878574990381 0 0 0 0 
2410500000.0000000000 0.184109449386596707443075615629 0.024730952456593510019322579296 0.000704960839357227087020874023 -0.003825026098638772964477539062 0 0 0 0 
2410666666.6666665077 0.183246016502380398849325615629 0.022279735654592510568638985546 0.000567313632927834987640380859 -0.003775546792894601821899414062 0 0 0 0 
2410833333.3333334923 0.182446613907813998123330634371 0.020428618416190150869349295704 0.000358386110747232978970128192 -0.003783849999308586120605468750 0 0 0 0 
2411000000.0000000000 0.181620135903358487228231865629 0.018147917464375499380091483204 0.000176328627276234301641741342 -0.003680552355945109887364052881 0 0 0 0 
2411166666.6666665077 0.180884391069412203689736884371 0.015967955812811851501464843750 0.000050556500355014577507972717 -0.003786567132920027212855673682 0 0 0 0 
2411333333.3333334923 0.180394113063812311370526231258 0.013409143313765529287318045704 -0.000209823556360788589150029315 -0.003520950442180037932154990088 0 0 0 0 
2411500000.0000000000 0.179578050971031188964843750000 0.011060511693358419590960117773 -0.000286401656921953017085474835 -0.003591627348214387893676757812 0 0 0 0 
2411666666.6666665077 0.179393887519836398025674384371 0.008620912209153175354003906250 -0.000311298877932131290435791016 -0.003343188436701893806457519531 0 0 0 0 
2411833333.3333334923 0.178965955972671508789062500000 0.006134249269962310791015625000 -0.000448953767772764021724146710 -0.003236896358430386023280478369 0 0 0 0 
2412000000.0000000000 0.178969800472259493728799384371 0.003629718907177447839024209131 -0.000542076246347278356552124023 -0.003340243827551602883579873193 0 0 0 0 
2412166666.6666665077 0.179082870483398409744424384371 0.001077483058907092051265097510 -0.000510420068167150020599365234 -0.003216380719095468954799033057 0 0 0 0 
2412333333.3333334923 0.179183274507522610763388115629 -0.001454188255593181090113974463 -0.000638989091385155916213989258 -0.002988083753734827041625976562 0 0 0 0 
2412500000.0000000000 0.179440110921859713455361884371 -0.004022027831524611386770917676 -0.000552005774807184934616088867 -0.002895201090723276138305664062 0 0 0 0 
2412666666.6666665077 0.179941296577453613281250000000 -0.006411864422261714935302734375 -0.000673901813570410013198852539 -0.002696705982089043097255087744 0 0 0 0 
2412833333.3333334923 0.180535778403282193282919365629 -0.009018039330840110778808593750 -0.000622113468125462532043457031 -0.002688973909243940873387002100 0 0 0 0 
2413000000.0000000000 0.181316033005714388748330634371 -0.011520360596477990586250506055 -0.000746008125133812427520751953 -0.002654240000993012948277138818 0 0 0 0 
2413166666.6666665077 0.182072639465332003494424384371 -0.013728166930377479898472969921 -0.000456663867225870490074157715 -0.002631385112181305885314941406 0 0 0 0 
2413333333.3333334923 0.183071047067642211914062500000 -0.016272773966193199157714843750 -0.000637459568679332733154296875 -0.002691777655854821205139160156 0 0 0 0 
2413500000.0000000000 0.183916047215461703201455634371 -0.018770981580019000661829764454 -0.000601202889811247587203979492 -0.002557038329541683197021484375 0 0 0 0 
2413666666.6666665077 0.185320258140563992599325615629 -0.020995344966650009155273437500 -0.000457442656625062173039036884 -0.002774413442239164872410439600 0 0 0 0 
2413833333.3333334923 0.186177700757980402190838731258 -0.023108744993805888784388358204 -0.000627492845524102449417114258 -0.002754666376858950094935751807 0 0 0 0 
2414000000.0000000000 0.187380000948905889313067518742 -0.025189811363816261291503906250 -0.000594605691730976104736328125 -0.002817598637193440957310341943 0 0 0 0 
2414166666.6666665077 0.188669741153717013260049384371 -0.027089718729257580148717110546 -0.000760377850383520126342773438 -0.002817921340465546087977743994 0 0 0 0 
2414333333.3333334923 0.189679518342018099685830634371 -0.029225049540400508535364920704 -0.000688338011968880891799926758 -0.002793836174532771110534667969 0 0 0 0 
2414500000.0000000000 0.190966501832008389571981865629 -0.030709238722920421255091483204 -0.001013079425320029041887592847 -0.002827899996191263198852539062 0 0 0 0 
2414666666.6666665077 0.192196056246757507324218750000 -0.032302256673574447631835937500 -0.001100820256397128105163574219 -0.002756115281954408125636435400 0 0 0 0 
2414833333.3333334923 0.193364173173904391189736884371 -0.033862780779600143432617187500 -0.001143122790381311936619423975 -0.002737737959250808195826865088 0 0 0 0 
2415000000.0000000000 0.194504097104072598556356865629 -0.035099163651466369628906250000 -0.001304063480347394943237304688 -0.002730722539126873016357421875 0 0 0 0 
2415166666.6666665077 0.195955872535705594161825615629 -0.036305289715528488159179687500 -0.001419700798578559918644570459 -0.002617957768961786790135048975 0 0 0 0 
2415333333.3333334923 0.197245880961418207366619981258 -0.037268597632646560668945312500 -0.001272674766369163990020751953 -0.002523642033338547186610556494 0 0 0 0 
2415500000.0000000000 0.198326468467712402343750000000 -0.038066949695348739624023437500 -0.001406735740602016015293740381 -0.002493996871635317802429199219 0 0 0 0 
2415666666.6666665077 0.199430003762245205978231865629 -0.038972847163677222515065778907 -0.001516460790298878929735493237 -0.002427254337817430929896689307 0 0 0 0 
2415833333.3333334923 0.200389191508293207366619981258 -0.039636082947254180908203125000 -0.001544068334624171040178608472 -0.002220550319179892973658896338 0 0 0 0 
2416000000.0000000000 0.201329946517944308181924384371 -0.040168173611164093017578125000 -0.001389138633385301069972372900 -0.002207664540037513212916708838 0 0 0 0 
2416166666.6666665077 0.202215760946273803710937500000 -0.040847163647413246845285783593 -0.001512216753326355977299355615 -0.002147099236026405854466103662 0 0 0 0 
2416333333.3333334923 0.202890232205390902420205634371 -0.041140172630548477172851562500 -0.001440201187506318092346191406 -0.002126152161508799032924033057 0 0 0 0 
2416500000.0000000000 0.203483760356903103927450615629 -0.041386641561985022808034528907 -0.001425474998541176102281879956 -0.002117670373991132216212607275 0 0 0 0 
2416666666.6666665077 0.203912705183029202560263115629 -0.041763611137866966938059221093 -0.001287068007513880946515727466 -0.002207797020673751831054687500 0 0 0 0 
2416833333.3333334923 0.204239785671234103103799384371 -0.041778445243835449218750000000 -0.001493950956501066901563334888 -0.002125091152265667915344238281 0 0 0 0 
2417000000.0000000000 0.204507827758789090255575615629 -0.041960809379816062236745466407 -0.001430444768629967949510883862 -0.002250683959573506875279091943 0 0 0 0 
2417166666.6666665077 0.204408615827560397049111884371 -0.041723862290382392192800153907 -0.001485333312302828051923442310 -0.002184717450290917916538857568 0 0 0 0 
2417333333.3333334923 0.204153344035148592849893134371 -0.041552770882844931865651716407 -0.001369139179587363979936909253 -0.002559618093073368072509765625 0 0 0 0 
2417500000.0000000000 0.204044848680496188064736884371 -0.041503440588712692260742187500 -0.001575876609422266916987753760 -0.002399779390543698830845498193 0 0 0 0 
2417666666.6666665077 0.203604280948638888260049384371 -0.041177734732627868652343750000 -0.001682545756921171925188374097 -0.002590551041066647009608603369 0 0 0 0 
2417833333.3333334923 0.203207224607467706878338731258 -0.041076593101024627685546875000 -0.001823293743655085997340536963 -0.002660514554008841948268271338 0 0 0 0 
2418000000.0000000000 0.202706530690193204025106865629 -0.040720514953136437152902971093 -0.002043148037046194076538085938 -0.002553735161200166182277060400 0 0 0 0 
2418166666.6666665077 0.201936826109886197189169365629 -0.040602844208478927612304687500 -0.002157866721972823143005371094 -0.002745130332186818122863769531 0 0 0 0 
2418333333.3333334923 0.201121047139167813400106865629 -0.040414862334728240966796875000 -0.002460836200043559074401855469 -0.002770479070022701783421181787 0 0 0 0 
2418500000.0000000000 0.200101867318153409103231865629 -0.040340486913919448852539062500 -0.002622692845761775970458984375 -0.002640441758558154106140136719 0 0 0 0 
2418666666.6666665077 0.199120163917541503906250000000 -0.040099959820508956909179687500 -0.002839838387444614930393838037 -0.002392170717939734892604208838 0 0 0 0 
2418833333.3333334923 0.197972699999809292892294365629 -0.040222443640232093120534528907 -0.002932982984930276870727539062 -0.002408500993624330000636435400 0 0 0 0 
2419000000.0000000000 0.196814656257629394531250000000 -0.040343355387449271465261091407 -0.003128046868368982835056923975 -0.002080323640257120132446289062 0 0 0 0 
2419166666.6666665077 0.195519134402275113204794365629 -0.040585581213235862041432966407 -0.003395308507606387138366699219 -0.002030722098425031141993857275 0 0 0 0 
2419333333.3333334923 0.194081008434295709808026231258 -0.040889848023653030395507812500 -0.003430665936321020126342773438 -0.001898764050565659999847412109 0 0 0 0 
2419500000.0000000000 0.192675992846489008147869981258 -0.041179221123456961894948591407 -0.003478419501334428787231445312 -0.001588914543390274047851562500 0 0 0 0 
2419666666.6666665077 0.190967142581939697265625000000 -0.042078681290149688720703125000 -0.003438160289078950881958007812 -0.001544751925393939018249511719 0 0 0 0 
2419833333.3333334923 0.189329236745834406097088731258 -0.042640313506126396869699846093 -0.003624109784141182899475097656 -0.001193086849525571086286235278 0 0 0 0 
