# Version 1.00
#
freq[Hz];re:Trc1_S11;im:Trc1_S11;re:Trc2_S21;im:Trc2_S21;
2.400000000000000E+009;1.553130000829697E-001;1.064846515655518E-001;-5.136854946613312E-003;9.270624141208828E-004;
2.400166666666667E+009;1.551947146654129E-001;1.041588559746742E-001;-5.244846455752850E-003;1.206120359711349E-003;
2.400333333333334E+009;1.552473604679108E-001;1.019427403807640E-001;-5.110688973218203E-003;1.490781316533685E-003;
2.400500000000000E+009;1.552092581987381E-001;9.922327846288681E-002;-5.040441639721394E-003;1.440271036699414E-003;
2.400666666666667E+009;1.553877592086792E-001;9.669459611177445E-002;-4.790175240486860E-003;1.642950344830751E-003;
2.400833333333334E+009;1.553173512220383E-001;9.365659207105637E-002;-4.665855783969164E-003;1.720724045298994E-003;
2.401000000000000E+009;1.557280570268631E-001;9.100557863712311E-002;-4.700952209532261E-003;1.764740562066436E-003;
2.401166666666667E+009;1.557151079177856E-001;8.833649009466171E-002;-4.454480018466711E-003;2.030484843999147E-003;
2.401333333333334E+009;1.561502665281296E-001;8.538446575403214E-002;-4.359274636954069E-003;1.957942964509130E-003;
2.401500000000000E+009;1.565992087125778E-001;8.260913938283920E-002;-4.522772505879402E-003;2.137018833309412E-003;
2.401666666666667E+009;1.571736782789230E-001;7.974324375391007E-002;-4.381397273391485E-003;2.158928662538528E-003;
2.401833333333334E+009;1.575318276882172E-001;7.701229304075241E-002;-4.246917553246021E-003;2.291052136570215E-003;
2.402000000000000E+009;1.584789007902145E-001;7.443071156740189E-002;-4.154919181019068E-003;2.518119756132364E-003;
2.402166666666667E+009;1.591809540987015E-001;7.185477018356323E-002;-3.992510959506035E-003;2.514416817575693E-003;
2.402333333333334E+009;1.600363403558731E-001;6.921554356813431E-002;-3.983675036579371E-003;2.862068824470043E-003;
2.402500000000000E+009;1.614587306976318E-001;6.668248772621155E-002;-3.941608127206564E-003;2.956348471343517E-003;
2.402666666666667E+009;1.624916940927506E-001;6.446717679500580E-002;-3.683830145746470E-003;2.933551091700792E-003;
2.402833333333334E+009;1.637785583734512E-001;6.193777918815613E-002;-3.643962554633617E-003;3.107368713244796E-003;
2.403000000000000E+009;1.652487814426422E-001;5.958846956491470E-002;-3.522197250276804E-003;3.136880462989211E-003;
2.403166666666667E+009;1.668705642223358E-001;5.752356722950935E-002;-3.466608468443155E-003;3.164555178955197E-003;
2.403333333333334E+009;1.683357059955597E-001;5.518158152699471E-002;-3.400881541892886E-003;3.448206000030041E-003;
2.403500000000000E+009;1.700662225484848E-001;5.322827771306038E-002;-3.145327558740974E-003;3.475168952718377E-003;
2.403666666666667E+009;1.719309538602829E-001;5.124023184180260E-002;-2.955576404929161E-003;3.418501000851393E-003;
2.403833333333334E+009;1.735827177762985E-001;4.960652813315392E-002;-2.431441796943545E-003;3.827753243967891E-003;
2.404000000000000E+009;1.751392185688019E-001;4.761846736073494E-002;-2.366676460951567E-003;3.556410083547235E-003;
2.404166666666667E+009;1.769724637269974E-001;4.586912691593170E-002;-2.556829014793038E-003;3.194678807631135E-003;
2.404333333333334E+009;1.789317280054092E-001;4.489295184612274E-002;-1.529169152490795E-003;3.863377030938864E-003;
2.404500000000000E+009;1.798066049814224E-001;4.269702732563019E-002;-2.769435057416558E-003;3.136917250230908E-003;
2.404666666666667E+009;1.814272254705429E-001;4.214032366871834E-002;-2.160712610930204E-003;4.107794258743525E-003;
2.404833333333334E+009;1.832135319709778E-001;4.082428291440010E-002;-1.993909478187561E-003;3.528355853632093E-003;
2.405000000000000E+009;1.837655007839203E-001;4.082149639725685E-002;-2.731280634179711E-003;5.010695196688175E-003;
2.405166666666667E+009;1.857005208730698E-001;3.987114131450653E-002;-1.768877729773521E-003;4.093461669981480E-003;
2.405333333333334E+009;1.870988309383392E-001;3.939341381192207E-002;-1.605555065907538E-003;4.201585426926613E-003;
2.405500000000000E+009;1.886450052261353E-001;3.884486109018326E-002;-1.308647682890296E-003;3.864245256409049E-003;
2.405666666666667E+009;1.898270845413208E-001;3.844964504241943E-002;-1.261971192434430E-003;3.659214358776808E-003;
2.405833333333334E+009;1.910844892263413E-001;3.814017400145531E-002;-1.303439377807081E-003;3.529328387230635E-003;
2.406000000000000E+009;1.920633912086487E-001;3.790892660617828E-002;-8.832708117552102E-004;3.688647178933024E-003;
2.406166666666667E+009;1.930696964263916E-001;3.769836202263832E-002;-1.060270587913692E-003;3.613907145336270E-003;
2.406333333333334E+009;1.938453167676926E-001;3.773296624422073E-002;-8.826083503663540E-004;3.483704989776015E-003;
2.406500000000000E+009;1.945758610963821E-001;3.772701323032379E-002;-7.982760434970260E-004;3.397629363462329E-003;
2.406666666666667E+009;1.950970739126205E-001;3.773212805390358E-002;-8.093817159533501E-004;3.396869171410799E-003;
2.406833333333334E+009;1.957456171512604E-001;3.769125416874886E-002;-9.134651045314968E-004;3.341407980769873E-003;
2.407000000000000E+009;1.958809345960617E-001;3.791790455579758E-002;-7.628292660228908E-004;3.430798649787903E-003;
2.407166666666667E+009;1.963523924350739E-001;3.761245310306549E-002;-6.591473938897252E-004;3.403848269954324E-003;
2.407333333333334E+009;1.962241530418396E-001;3.778900578618050E-002;-7.668666075915098E-004;3.202290507033467E-003;
2.407500000000000E+009;1.960887908935547E-001;3.779476881027222E-002;-5.861296667717397E-004;3.304693382233381E-003;
2.407666666666667E+009;1.961345821619034E-001;3.766972571611404E-002;-7.121019880287349E-004;3.294311696663499E-003;
2.407833333333334E+009;1.956519782543182E-001;3.741665557026863E-002;-4.546770942397416E-004;3.283485537394881E-003;
2.408000000000000E+009;1.955768465995789E-001;3.729412704706192E-002;-6.842737202532589E-004;3.202710300683975E-003;
2.408166666666667E+009;1.949746161699295E-001;3.695694357156754E-002;-7.109995931386948E-004;3.187265479937196E-003;
2.408333333333334E+009;1.945364326238632E-001;3.638232126832008E-002;-6.718736840412021E-004;3.048875601962209E-003;
2.408500000000000E+009;1.938621401786804E-001;3.594180941581726E-002;-6.494844565168023E-004;3.122463589534164E-003;
2.408666666666667E+009;1.931249797344208E-001;3.548296168446541E-002;-5.931566120125353E-004;3.223154926672578E-003;
2.408833333333334E+009;1.925331354141235E-001;3.464291244745255E-002;-7.319854921661317E-004;3.247679211199284E-003;
2.409000000000000E+009;1.915742009878159E-001;3.363675624132156E-002;-6.869182689115405E-004;3.159744665026665E-003;
2.409166666666667E+009;1.905849128961563E-001;3.273309394717217E-002;-5.849553854204714E-004;3.300264710560441E-003;
2.409333333333334E+009;1.897661685943604E-001;3.178368136286736E-002;-7.019356125965715E-004;3.478346159681678E-003;
2.409500000000000E+009;1.886002272367477E-001;3.034154511988163E-002;-8.001264068298042E-004;3.567232750356197E-003;
2.409666666666667E+009;1.875189095735550E-001;2.889450080692768E-002;-6.321416585706174E-004;3.585093189030886E-003;
2.409833333333334E+009;1.866244524717331E-001;2.741525880992413E-002;-5.498940008692443E-004;3.821198362857103E-003;
2.410000000000000E+009;1.856318861246109E-001;2.581418491899967E-002;-5.110788624733686E-004;3.864088328555226E-003;
2.410166666666667E+009;1.845431774854660E-001;2.390933781862259E-002;-3.799026890192181E-004;3.927163779735565E-003;
2.410333333333334E+009;1.837204247713089E-001;2.229212410748005E-002;-3.688386641442776E-004;4.086114000529051E-003;
2.410500000000000E+009;1.826822906732559E-001;2.031043358147144E-002;-1.458673359593377E-004;4.172524902969599E-003;
2.410666666666667E+009;1.819225102663040E-001;1.804753579199314E-002;-1.199908510898240E-004;4.233972635120153E-003;
2.410833333333334E+009;1.812337785959244E-001;1.583513244986534E-002;5.445438364404254E-005;4.416148178279400E-003;
2.411000000000000E+009;1.805923283100128E-001;1.361784990876913E-002;2.520217676647008E-004;4.251919686794281E-003;
2.411166666666667E+009;1.800082623958588E-001;1.146590337157250E-002;4.702679289039224E-004;4.349586553871632E-003;
2.411333333333334E+009;1.794535070657730E-001;8.943214081227779E-003;4.742706951219589E-004;4.244838375598192E-003;
2.411500000000000E+009;1.787810921669006E-001;6.633177399635315E-003;7.621992263011634E-004;4.540939349681139E-003;
2.411666666666667E+009;1.788354367017746E-001;4.278243053704500E-003;9.308031876571477E-004;4.321866668760777E-003;
2.411833333333334E+009;1.784457415342331E-001;1.855654059909284E-003;1.189980190247297E-003;4.349272232502699E-003;
2.412000000000000E+009;1.785812675952911E-001;-7.376141147688031E-004;1.298128510825336E-003;4.382980056107044E-003;
2.412166666666667E+009;1.787816882133484E-001;-3.077909117564559E-003;1.574602210894227E-003;4.333735443651676E-003;
2.412333333333334E+009;1.788165718317032E-001;-5.453851539641619E-003;1.672414480708540E-003;4.360341001302004E-003;
2.412500000000000E+009;1.791596561670303E-001;-7.915507070720196E-003;1.752086100168526E-003;4.307243041694164E-003;
2.412666666666667E+009;1.796839535236359E-001;-1.025511231273413E-002;1.897128764539957E-003;4.190869629383087E-003;
2.412833333333334E+009;1.805275529623032E-001;-1.256773527711630E-002;2.204181859269738E-003;4.084123764187098E-003;
2.413000000000000E+009;1.811140179634094E-001;-1.484045851975679E-002;2.231468679383397E-003;4.100727848708630E-003;
2.413166666666667E+009;1.819163858890533E-001;-1.704476587474346E-002;2.339134225621820E-003;3.963998984545469E-003;
2.413333333333334E+009;1.829046458005905E-001;-1.921720802783966E-002;2.411499619483948E-003;3.824770916253328E-003;
2.413500000000000E+009;1.837064623832703E-001;-2.161410637199879E-002;2.549102762714028E-003;3.730060299858451E-003;
2.413666666666667E+009;1.848842352628708E-001;-2.359637431800365E-002;2.758024260401726E-003;3.676284570246935E-003;
2.413833333333334E+009;1.860341280698776E-001;-2.546267583966255E-002;2.733129076659679E-003;3.762933658435941E-003;
2.414000000000000E+009;1.870360970497131E-001;-2.757569588720799E-002;2.884541871026158E-003;3.535728203132749E-003;
2.414166666666667E+009;1.882312148809433E-001;-2.931329794228077E-002;2.938481047749519E-003;3.466327674686909E-003;
2.414333333333334E+009;1.893715262413025E-001;-3.123985044658184E-002;3.085631877183914E-003;3.459965577349067E-003;
2.414500000000000E+009;1.906029433012009E-001;-3.262229636311531E-002;3.295298665761948E-003;3.254693467170000E-003;
2.414666666666667E+009;1.917768716812134E-001;-3.410534933209419E-002;3.465734189376235E-003;3.172514494508505E-003;
2.414833333333334E+009;1.927220374345779E-001;-3.549042344093323E-002;3.238428384065628E-003;2.959565958008170E-003;
2.415000000000000E+009;1.939056068658829E-001;-3.664768487215042E-002;3.499119542539120E-003;2.896958962082863E-003;
2.415166666666667E+009;1.951217949390411E-001;-3.773068264126778E-002;3.869615495204926E-003;2.835186431184411E-003;
2.415333333333334E+009;1.961084753274918E-001;-3.863733261823654E-002;3.742303466424346E-003;2.637726720422506E-003;
2.415500000000000E+009;1.972975283861160E-001;-3.927756100893021E-002;3.807129571214318E-003;2.484125783666968E-003;
2.415666666666667E+009;1.982778757810593E-001;-4.016671702265739E-002;3.946165554225445E-003;2.440849551931024E-003;
2.415833333333334E+009;1.990883946418762E-001;-4.073916748166084E-002;4.127555992454290E-003;2.101902384310961E-003;
2.416000000000000E+009;1.998543292284012E-001;-4.133107513189316E-002;4.017670173197985E-003;1.963037066161633E-003;
2.416166666666667E+009;2.005530297756195E-001;-4.191625118255615E-002;4.107077140361071E-003;2.074854914098978E-003;
2.416333333333334E+009;2.011385113000870E-001;-4.208856076002121E-002;4.123004153370857E-003;1.800901140086353E-003;
2.416500000000000E+009;2.016025334596634E-001;-4.235402122139931E-002;4.159923642873764E-003;1.686111441813409E-003;
2.416666666666667E+009;2.017833888530731E-001;-4.275897890329361E-002;4.137164447456598E-003;1.613277476280928E-003;
2.416833333333334E+009;2.019161134958267E-001;-4.276788979768753E-002;4.152444656938314E-003;1.567696104757488E-003;
2.417000000000000E+009;2.020708620548248E-001;-4.294109344482422E-002;4.227597732096911E-003;1.188884722068906E-003;
2.417166666666667E+009;2.017800211906433E-001;-4.291407391428947E-002;4.270762670785189E-003;1.150720636360347E-003;
2.417333333333334E+009;2.015004158020020E-001;-4.275042563676834E-002;4.381718579679728E-003;1.072197686880827E-003;
2.417500000000000E+009;2.012362629175186E-001;-4.282752051949501E-002;4.406179301440716E-003;9.030781220644712E-004;
2.417666666666667E+009;2.006823867559433E-001;-4.250065237283707E-002;4.317336250096560E-003;7.945875986479223E-004;
2.417833333333334E+009;2.001656293869019E-001;-4.244849085807800E-002;4.377930890768766E-003;6.340366671793163E-004;
2.418000000000000E+009;1.995171904563904E-001;-4.219031333923340E-002;4.504082724452019E-003;3.442556771915406E-004;
2.418166666666667E+009;1.986821889877319E-001;-4.213647544384003E-002;4.323748406022787E-003;2.713602443691343E-004;
2.418333333333334E+009;1.977311819791794E-001;-4.198254644870758E-002;4.431823268532753E-003;1.155177014879882E-004;
2.418500000000000E+009;1.968471705913544E-001;-4.205595329403877E-002;4.419035743921995E-003;-1.100571535062045E-004;
2.418666666666667E+009;1.958759874105454E-001;-4.184919595718384E-002;4.371880088001490E-003;-2.232143306173384E-004;
2.418833333333334E+009;1.946172714233398E-001;-4.218943417072296E-002;4.430911969393492E-003;-3.450381045695394E-004;
2.419000000000000E+009;1.932919472455978E-001;-4.229936748743057E-002;4.128464963287115E-003;-5.303487996570766E-004;
2.419166666666667E+009;1.920926570892334E-001;-4.260702803730965E-002;3.965133335441351E-003;-7.559169316664338E-004;
2.419333333333334E+009;1.906922608613968E-001;-4.321420192718506E-002;4.064965527504683E-003;-8.083077846094966E-004;
2.419500000000000E+009;1.892209500074387E-001;-4.359894245862961E-002;3.764384659007192E-003;-8.756355964578688E-004;
2.419666666666667E+009;1.877026855945587E-001;-4.452887177467346E-002;3.808076959103346E-003;-9.516709251329303E-004;
2.419833333333334E+009;1.862037032842636E-001;-4.503531381487846E-002;3.620839212089777E-003;-1.012184191495180E-003;
2.420000000000000E+009;1.846814155578613E-001;-4.596284404397011E-002;3.537710988894105E-003;-1.117353443987668E-003;
2.420166666666667E+009;1.830915510654450E-001;-4.699621722102165E-002;3.459068015217781E-003;-1.130551449023187E-003;
2.420333333333334E+009;1.815299689769745E-001;-4.828140884637833E-002;3.412234131246805E-003;-1.149616437032819E-003;
2.420500000000000E+009;1.797318905591965E-001;-4.957855492830277E-002;3.322864649817348E-003;-1.090075122192502E-003;
2.420666666666667E+009;1.782790571451187E-001;-5.058237537741661E-002;3.271311987191439E-003;-1.143153174780309E-003;
2.420833333333334E+009;1.767574250698090E-001;-5.206754058599472E-002;3.256589639931917E-003;-1.108324038796127E-003;
2.421000000000000E+009;1.752556413412094E-001;-5.373051017522812E-002;3.319550538435578E-003;-1.146392547525466E-003;
2.421166666666667E+009;1.738307029008865E-001;-5.536529049277306E-002;3.253106726333499E-003;-1.043966272845864E-003;
2.421333333333334E+009;1.723354756832123E-001;-5.691788345575333E-002;3.430054523050785E-003;-1.273406785912812E-003;
2.421500000000000E+009;1.710941046476364E-001;-5.879930034279823E-002;3.364475909620524E-003;-1.315848203375936E-003;
2.421666666666667E+009;1.698968708515167E-001;-6.071939691901207E-002;3.410543082281947E-003;-1.451962860301137E-003;
2.421833333333334E+009;1.687708497047424E-001;-6.239926442503929E-002;3.311346052214503E-003;-1.409706659615040E-003;
2.422000000000000E+009;1.675524711608887E-001;-6.428475677967072E-002;3.217596095055342E-003;-1.564455218613148E-003;
2.422166666666667E+009;1.668627709150314E-001;-6.628707051277161E-002;3.268227213993669E-003;-1.648623263463378E-003;
2.422333333333334E+009;1.659344732761383E-001;-6.839817762374878E-002;3.152489662170410E-003;-1.790866139344871E-003;
2.422500000000000E+009;1.651048213243485E-001;-7.031105458736420E-002;3.195146098732948E-003;-1.655787695199251E-003;
2.422666666666667E+009;1.644561141729355E-001;-7.221328467130661E-002;3.131157252937555E-003;-1.800935133360326E-003;
2.422833333333334E+009;1.638967245817184E-001;-7.458996027708054E-002;2.990645822137594E-003;-1.902276067994535E-003;
2.423000000000000E+009;1.634192615747452E-001;-7.636691629886627E-002;2.997593721374869E-003;-2.036513062193990E-003;
2.423166666666667E+009;1.630639880895615E-001;-7.830549031496048E-002;2.843006048351526E-003;-2.079463563859463E-003;
2.423333333333334E+009;1.627934128046036E-001;-8.017688989639282E-002;2.822610083967447E-003;-1.966005191206932E-003;
2.423500000000000E+009;1.627997159957886E-001;-8.173842728137970E-002;2.805685158818960E-003;-2.041946863755584E-003;
2.423666666666667E+009;1.627360135316849E-001;-8.373375236988068E-002;2.675504656508565E-003;-2.108945278450847E-003;
2.423833333333334E+009;1.627353429794312E-001;-8.552422374486923E-002;2.642605453729630E-003;-2.044508466497064E-003;
2.424000000000000E+009;1.628703922033310E-001;-8.721338212490082E-002;2.732552122324705E-003;-2.106113126501441E-003;
2.424166666666667E+009;1.628627181053162E-001;-8.874951303005219E-002;2.570143900811672E-003;-2.075353404507041E-003;
2.424333333333334E+009;1.631310880184174E-001;-9.021210670471191E-002;2.578141400590539E-003;-2.122413134202361E-003;
2.424500000000000E+009;1.634570807218552E-001;-9.190978109836578E-002;2.651433460414410E-003;-2.320415340363979E-003;
2.424666666666667E+009;1.637950688600540E-001;-9.316649287939072E-002;2.662865212187171E-003;-2.348957816138864E-003;
2.424833333333334E+009;1.643671393394470E-001;-9.444632381200790E-002;2.506931778043509E-003;-2.361879218369722E-003;
2.425000000000000E+009;1.646533906459808E-001;-9.557975828647614E-002;2.597112907096744E-003;-2.419640542939305E-003;
2.425166666666667E+009;1.648984402418137E-001;-9.675777703523636E-002;2.563886810094118E-003;-2.509204205125570E-003;
2.425333333333334E+009;1.651554554700851E-001;-9.765291213989258E-002;2.540263114497066E-003;-2.512591658160090E-003;
2.425500000000000E+009;1.656941026449204E-001;-9.854932874441147E-002;2.459994517266750E-003;-2.661364851519465E-003;
2.425666666666667E+009;1.661482900381088E-001;-9.914347529411316E-002;2.546306001022458E-003;-2.833987586200237E-003;
2.425833333333334E+009;1.664469242095947E-001;-9.994156658649445E-002;2.390660345554352E-003;-2.932822331786156E-003;
2.426000000000000E+009;1.667505055665970E-001;-1.004037633538246E-001;2.479590009897947E-003;-3.011563559994102E-003;
2.426166666666667E+009;1.670571863651276E-001;-1.008811295032501E-001;2.327206544578075E-003;-2.986450912430883E-003;
2.426333333333334E+009;1.672003567218781E-001;-1.014667302370071E-001;2.334102522581816E-003;-3.229063935577869E-003;
2.426500000000000E+009;1.675587147474289E-001;-1.016695275902748E-001;2.266736933961511E-003;-3.145442111417651E-003;
2.426666666666667E+009;1.678019016981125E-001;-1.020173579454422E-001;1.936201471835375E-003;-3.408054588362575E-003;
2.426833333333334E+009;1.681538373231888E-001;-1.023524701595306E-001;2.041289815679193E-003;-3.501797327771783E-003;
2.427000000000000E+009;1.680508106946945E-001;-1.025580838322640E-001;1.869340427219868E-003;-3.497292520478368E-003;
2.427166666666667E+009;1.680737584829330E-001;-1.027394384145737E-001;1.907032215967774E-003;-3.567536594346166E-003;
2.427333333333334E+009;1.679998934268951E-001;-1.029581055045128E-001;1.854502363130450E-003;-3.635585540905595E-003;
2.427500000000000E+009;1.676746159791946E-001;-1.030863523483276E-001;1.698552514426410E-003;-3.892458276823163E-003;
2.427666666666667E+009;1.673732399940491E-001;-1.031788438558579E-001;1.584013924002647E-003;-3.676287131384015E-003;
2.427833333333334E+009;1.670261472463608E-001;-1.032939925789833E-001;1.371612306684256E-003;-3.829523222520948E-003;
