# Hz S RI R 50
2400000000.0000000000 0.156072467565536499023437500000 0.062004346400499336933176408593 -0.000096339805168099701404571533 0.002833005972206592993495322119 0 0 0 0 
2400166666.6666665077 0.155935809016227694412393134371 0.060249753296375281597097028907 -0.000061141392507124692201614380 0.002705791499465703964233398438 0 0 0 0 
2400333333.3333334923 0.155891329050064086914062500000 0.058138664811849587177317033593 0.000188187419553287300184526987 0.002668345579877496199366904150 0 0 0 0 
2400500000.0000000000 0.156006380915641812423544365629 0.056190319359302520751953125000 0.000137938099214807206958216534 0.002675860887393354935887002100 0 0 0 0 
2400666666.6666665077 0.156156823039054898361044365629 0.054012522101402282714843750000 0.000333512434735894203186035156 0.002581618959084153175354003906 0 0 0 0 
2400833333.3333334923 0.156320750713348388671875000000 0.052012469619512557983398437500 0.000507565564475953578948974609 0.002587017370387911796569824219 0 0 0 0 
2401000000.0000000000 0.156481817364692687988281250000 0.049840584397315979003906250000 0.000608235190156847238540649414 0.002566754817962646918055868994 0 0 0 0 
2401166666.6666665077 0.156917646527290288727130018742 0.047626968473196029663085937500 0.000643115141429007053375244141 0.002677381504327058792114257812 0 0 0 0 
2401333333.3333334923 0.157190322875976590255575615629 0.045415319502353668212890625000 0.000708640494849532842636108398 0.002534406725317240195033408057 0 0 0 0 
2401500000.0000000000 0.157769575715065002441406250000 0.043386545032262802124023437500 0.000799006782472133636474609375 0.002394719747826457023620605469 0 0 0 0 
2401666666.6666665077 0.158038064837455805022869981258 0.041458792984485633159597028907 0.000908307440113276243209838867 0.002474430715665221214294433594 0 0 0 0 
2401833333.3333334923 0.158610373735427911956463731258 0.039171554148197167133371721093 0.000898549391422420740127563477 0.002327804453670978979823447119 0 0 0 0 
2402000000.0000000000 0.159231349825859097579794365629 0.037316083908081061626393903907 0.001146381488069891929626464844 0.002479713875800371170043945312 0 0 0 0 
2402166666.6666665077 0.159802496433258112151776231258 0.035355545580387122417409528907 0.001155029516667128042933798682 0.002397257834672927856445312500 0 0 0 0 
2402333333.3333334923 0.160720884799957303146200615629 0.033409524708986282348632812500 0.001295515918172895908355712891 0.002242108341306447982788085938 0 0 0 0 
2402500000.0000000000 0.161527246236801202972088731258 0.031478129327297210693359375000 0.001347336918115616061566996997 0.002191740320995450019836425781 0 0 0 0 
2402666666.6666665077 0.162365749478340204436932481258 0.029799826443195339548131173046 0.001518615288659930012346577222 0.002153080422431230978724814307 0 0 0 0 
2402833333.3333334923 0.163291603326797513107138115629 0.028345353901386260986328125000 0.001416199957020580985425639575 0.002061558188870549201965332031 0 0 0 0 
2403000000.0000000000 0.164385065436363192459268134371 0.026688884943723678588867187500 0.001541609060950577042223286206 0.002067084889858961105346679688 0 0 0 0 
2403166666.6666665077 0.165271714329719487945880018742 0.025099955499172210693359375000 0.001775480108335613987566303784 0.002036151476204394860508584131 0 0 0 0 
2403333333.3333334923 0.166193127632141113281250000000 0.023960171267390251159667968750 0.001766602275893091938616108472 0.001916207140311598994611430591 0 0 0 0 
2403500000.0000000000 0.167340487241744995117187500000 0.022603448480367660522460937500 0.001800767262466252066968608325 0.001782066887244581959368061597 0 0 0 0 
2403666666.6666665077 0.168311089277267511565838731258 0.021176813170313838613489920704 0.001747050322592259103890444116 0.001779880258254707076429057544 0 0 0 0 
2403833333.3333334923 0.169661790132522610763388115629 0.020131412893533710134486014454 0.001918419846333562894108437646 0.001622637850232421918156289209 0 0 0 0 
2404000000.0000000000 0.170521289110183688064736884371 0.019087146967649459838867187500 0.001703029498457909064051962744 0.001455636695027350945713662256 0 0 0 0 
2404166666.6666665077 0.171560525894165011306924384371 0.017949154600501060485839843750 0.001943595940247178077697753906 0.001463068882003426985499716650 0 0 0 0 
2404333333.3333334923 0.172705128788948086837606865629 0.017355298623442649841308593750 0.002100110519677401022670126807 0.001545095467008650086046528394 0 0 0 0 
2404500000.0000000000 0.173469200730323791503906250000 0.016339752823114398611048514454 0.001955620944499969916102743994 0.001259416807442903952357626807 0 0 0 0 
2404666666.6666665077 0.174566298723220797439736884371 0.015902904793620109558105468750 0.001915924716740847067592001807 0.001227952772751450972316122900 0 0 0 0 
2404833333.3333334923 0.175427168607711791992187500000 0.015097687020897870499580584180 0.001984320115298033194300986182 0.001174638979136944033979106372 0 0 0 0 
2405000000.0000000000 0.176533117890357998946981865629 0.014533338136971000326136405079 0.002095903269946575164794921875 0.001081664930097758986829448169 0 0 0 0 
2405166666.6666665077 0.177226781845092801193075615629 0.014108140021562579763392264454 0.002004935638979076905491494287 0.000985437422059476375579833984 0 0 0 0 
2405333333.3333334923 0.178106039762497003753338731258 0.013393502682447430002232735546 0.002092964015901089148280478369 0.000891456613317131996154785156 0 0 0 0 
2405500000.0000000000 0.178653657436370905120526231258 0.013127789832651620346992693555 0.001965391682460904121398925781 0.000836069171782582998275756836 0 0 0 0 
2405666666.6666665077 0.179459840059280395507812500000 0.012904166243970390665074532421 0.002125342376530170006992959131 0.000573784403968602418899536133 0 0 0 0 
2405833333.3333334923 0.179665982723236111739950615629 0.012835897505283359182337576954 0.002152762375771998925449990381 0.000768020865507423877716064453 0 0 0 0 
2406000000.0000000000 0.180357113480567904373330634371 0.012331188656389709817906563671 0.002087340457364916801452636719 0.000610708608292043209075927734 0 0 0 0 
2406166666.6666665077 0.180695354938507107833700615629 0.012116280384361740457555001171 0.002166137099266051812412881006 0.000449521787231787984997349872 0 0 0 0 
2406333333.3333334923 0.181206420063972500900106865629 0.012006371282041069376012032421 0.002200162503868341012241982568 0.000484310963656753301620483398 0 0 0 0 
2406500000.0000000000 0.181220620870590209960937500000 0.011696921661496160679827305273 0.002314386190846561951878213037 0.000277160695986822301715296613 0 0 0 0 
2406666666.6666665077 0.180995643138885498046875000000 0.011513937264680860692034336523 0.002378655364736915068385458838 0.000265380978817120194435119629 0 0 0 0 
2406833333.3333334923 0.181242242455482510665731865629 0.011185050010681150609026524023 0.002342990599572658972499228369 0.000241793342866003513336181641 0 0 0 0 
2407000000.0000000000 0.181220024824142511565838731258 0.010902728885412219655970389454 0.002232059836387633843662881006 0.000174490531207993599489489145 0 0 0 0 
2407166666.6666665077 0.181163862347602788727130018742 0.010790104977786539250383945898 0.002336250385269523100612021338 -0.000064731684688013046979904175 0 0 0 0 
2407333333.3333334923 0.180824756622314508636151231258 0.010314924642443660390833670704 0.002399119315668940977809286963 -0.000061977909354027360677719116 0 0 0 0 
2407500000.0000000000 0.180380985140800503829794365629 0.009927923791110515594482421875 0.002254999242722988128662109375 -0.000205119577003642889574328012 0 0 0 0 
2407666666.6666665077 0.180158421397209195236044365629 0.009471455588936805725097656250 0.002412217436358333067653036963 -0.000387750100344419479370117188 0 0 0 0 
2407833333.3333334923 0.179540380835533086578692518742 0.008816216140985488891601562500 0.002288254443556069894077920068 -0.000499028188642114400863647461 0 0 0 0 
2408000000.0000000000 0.179031983017921503265057481258 0.008138651028275489807128906250 0.002254215069115161895751953125 -0.000672626250889152288436889648 0 0 0 0 
2408166666.6666665077 0.178463548421859713455361884371 0.007719779387116432189941406250 0.002343299333006144003627158057 -0.000760392518714070320129394531 0 0 0 0 
2408333333.3333334923 0.178049027919769287109375000000 0.006825769320130348205566406250 0.002088440349325538115260458838 -0.000788447970990091562271118164 0 0 0 0 
2408500000.0000000000 0.177237808704376192947549384371 0.005808517336845397949218750000 0.002133395755663514137268066406 -0.000926475680898874998092651367 0 0 0 0 
2408666666.6666665077 0.176515847444534301757812500000 0.004880467895418406400198652051 0.002029110910370945930480957031 -0.001070467522367835044860839844 0 0 0 0 
2408833333.3333334923 0.175576493144035311599893134371 0.003693358972668648199794150244 0.001891309162601829008815146338 -0.001142689143307507038116455078 0 0 0 0 
2409000000.0000000000 0.175016805529594393631143134371 0.002582876710221170945408486475 0.001902398071251810030696249854 -0.001221999176777899048448872144 0 0 0 0 
2409166666.6666665077 0.174148529767990112304687500000 0.001320492825470864989637065356 0.001728795119561254978179931641 -0.001270200824365020015119243091 0 0 0 0 
2409333333.3333334923 0.173451781272888211349325615629 -0.000045983430027263239026069641 0.001701510860584676048876118237 -0.001308684819377958991407084888 0 0 0 0 
2409500000.0000000000 0.172743707895278902908486884371 -0.001579089206643403010127402197 0.001531222485937177918077778394 -0.001472413074225187084795307690 0 0 0 0 
2409666666.6666665077 0.171912401914596613128338731258 -0.003090719459578394889831542969 0.001477984595112503008601523291 -0.001478834077715873935102153247 0 0 0 0 
2409833333.3333334923 0.171092823147773687164630018742 -0.004512345883995294570922851562 0.001370154903270303986193012769 -0.001551980967633425972582172925 0 0 0 0 
2410000000.0000000000 0.170585885643959100921307481258 -0.006290002260357142362112714551 0.001197967911139131026027060400 -0.001731661264784633896471333081 0 0 0 0 
2410166666.6666665077 0.169783502817153902908486884371 -0.008049692027270793914794921875 0.001123515074141324000117636572 -0.001718995277769864039180136572 0 0 0 0 
2410333333.3333334923 0.169268295168876703460369981258 -0.009771493263542652130126953125 0.001095854444429277940037392725 -0.001586432103067636923549033057 0 0 0 0 
2410500000.0000000000 0.168744862079620389083700615629 -0.011801722459495069331159022852 0.000897216727025806903839111328 -0.001605216879397630908368754810 0 0 0 0 
2410666666.6666665077 0.168318137526512201507244981258 -0.013724849559366699564000313671 0.000838687643408775329589843750 -0.001624222728423774025560688550 0 0 0 0 
2410833333.3333334923 0.167778909206390408614950615629 -0.015509151853621009481409842579 0.000642259372398257255554199219 -0.001752992160618304989458393628 0 0 0 0 
2411000000.0000000000 0.167521670460700988769531250000 -0.017431493848562240600585937500 0.000598693790379911661148071289 -0.001701932633295655033708881909 0 0 0 0 
2411166666.6666665077 0.167279526591300992111044365629 -0.019640937447547909128209298046 0.000518408429343253374099731445 -0.001828220905736088969587016528 0 0 0 0 
2411333333.3333334923 0.167101651430130004882812500000 -0.021699704229831699026087576954 0.000412877649068832397460937500 -0.001733486773446202061296772534 0 0 0 0 
2411500000.0000000000 0.166976273059844998458700615629 -0.023724829778075221670130545704 0.000261973502347245812416076660 -0.001875851419754325909855507959 0 0 0 0 
2411666666.6666665077 0.167135044932365389724893134371 -0.025898570194840431213378906250 0.000281307526165619492530822754 -0.001699566142633557102800678784 0 0 0 0 
2411833333.3333334923 0.167166471481323186676348768742 -0.027703482657670981670339216407 0.000000764535400321619817987084 -0.001745006418786942958831787109 0 0 0 0 
2412000000.0000000000 0.167330354452133206466513115629 -0.029928883537650108337402343750 -0.000054619264119537547230720520 -0.001607168582268059036852192456 0 0 0 0 
2412166666.6666665077 0.167414158582687405685263115629 -0.032011043280363082885742187500 -0.000245671049924567287594395770 -0.001594988047145307064056396484 0 0 0 0 
2412333333.3333334923 0.167828902602195711990518134371 -0.033869735896587371826171875000 -0.000370001565897837281227111816 -0.001395850558765232996699667822 0 0 0 0 
2412500000.0000000000 0.168139159679412786285723768742 -0.035651534795761108398437500000 -0.000459230912383645772933959961 -0.001435135956853627941728901440 0 0 0 0 
2412666666.6666665077 0.168687850236892700195312500000 -0.037769004702568047260324846093 -0.000566044473089277744293212891 -0.001423586276359855911852192456 0 0 0 0 
2412833333.3333334923 0.169147998094558688064736884371 -0.039622087031602859497070312500 -0.000712859793566167354583740234 -0.001544408267363905906677246094 0 0 0 0 
2413000000.0000000000 0.169690266251563998123330634371 -0.041189629584550857543945312500 -0.000588797614909708499908447266 -0.001341289840638637976405478369 0 0 0 0 
2413166666.6666665077 0.170224919915199307540731865629 -0.043029766529798507690429687500 -0.000705743907019495964050292969 -0.001229231129400431892992329175 0 0 0 0 
2413333333.3333334923 0.170847550034523010253906250000 -0.044721968472003936767578125000 -0.000936562544666230678558349609 -0.001118292799219489097595214844 0 0 0 0 
2413500000.0000000000 0.171457096934318486969317518742 -0.046223364770412452007253278907 -0.000903597625438123941421508789 -0.000877209706231951713562011719 0 0 0 0 
2413666666.6666665077 0.171974673867225702483807481258 -0.047791298478841781616210937500 -0.000962250109296292066574096680 -0.000893177581019699573516845703 0 0 0 0 
2413833333.3333334923 0.172596991062164306640625000000 -0.049144975841045379638671875000 -0.000853307021316140890121459961 -0.000815313367638736963272094727 0 0 0 0 
2414000000.0000000000 0.173293992877006503006143134371 -0.050480682402849197387695312500 -0.001042937976308166980743408203 -0.000626110762823373079299926758 0 0 0 0 
2414166666.6666665077 0.173962652683258112151776231258 -0.051477894186973571777343750000 -0.001112036872655153057695698315 -0.000655129668302834033966064453 0 0 0 0 
2414333333.3333334923 0.174569815397262600997763115629 -0.052835065871477127075195312500 -0.001079976558685302951215434497 -0.000510133453644812107086181641 0 0 0 0 
2414500000.0000000000 0.175248250365257290939169365629 -0.053745619952678680419921875000 -0.001041108160279691002489399487 -0.000270553282462060505717676984 0 0 0 0 
2414666666.6666665077 0.175773575901985196212606865629 -0.054670255631208419799804687500 -0.001065720221959054903743124854 -0.000271731347311288118362426758 0 0 0 0 
2414833333.3333334923 0.176337122917175292968750000000 -0.055463779717683792114257812500 -0.000960306089837104082107543945 -0.000250711193075403625338953839 0 0 0 0 
2415000000.0000000000 0.176738306879997308929119981258 -0.056108489632606513286550153907 -0.001128820003941654942156147534 -0.000092145754024386405944824219 0 0 0 0 
2415166666.6666665077 0.177170276641845703125000000000 -0.056926488876342773437500000000 -0.001117418752983212904689169775 0.000044488973799161612987518311 0 0 0 0 
2415333333.3333334923 0.177886024117469787597656250000 -0.057388488203287131572682966407 -0.000903780222870409488677978516 -0.000043618529161904007196426392 0 0 0 0 
2415500000.0000000000 0.178003773093223599532919365629 -0.057759638875722892070729841407 -0.000965273880865424871444702148 0.000159544753842055797576904297 0 0 0 0 
2415666666.6666665077 0.178280696272850008865518134371 -0.058242309838533401489257812500 -0.000949046865571290254592895508 0.000181008246727287796422681265 0 0 0 0 
2415833333.3333334923 0.178557708859443692306356865629 -0.058538123965263366699218750000 -0.000790822319686412811279296875 0.000330633542034775018692016602 0 0 0 0 
2416000000.0000000000 0.178477033972740201095419365629 -0.058852415531873703002929687500 -0.000840193184558302164077758789 0.000380875630071386694908142090 0 0 0 0 
2416166666.6666665077 0.178661391139030512054119981258 -0.059102945029735572124440778907 -0.000896603683941066265106201172 0.000281211541732773184776306152 0 0 0 0 
2416333333.3333334923 0.178541392087936401367187500000 -0.059181489050388343120534528907 -0.000703072350006550550460815430 0.000328111345879733616679591046 0 0 0 0 
2416500000.0000000000 0.178402245044708307464276231258 -0.059420917183160781860351562500 -0.000772912579122930765151977539 0.000451828789664432406425476074 0 0 0 0 
2416666666.6666665077 0.178034767508506802657919365629 -0.059390712529420852661132812500 -0.000606483605224639177322387695 0.000555996084585785865783691406 0 0 0 0 
2416833333.3333334923 0.177667528390884399414062500000 -0.059686530381441123271901716407 -0.000799006433226168155670166016 0.000535461469553411006927490234 0 0 0 0 
2417000000.0000000000 0.177074432373046902755575615629 -0.059717930853366851806640625000 -0.000551288307178765535354614258 0.000638032273855060338973999023 0 0 0 0 
2417166666.6666665077 0.176636844873428289215411268742 -0.059704571962356567382812500000 -0.000598992919549345970153808594 0.000577162310946732759475708008 0 0 0 0 
2417333333.3333334923 0.176070019602775601486044365629 -0.059905331581830978393554687500 -0.000534245918970555067062377930 0.000757391273509711027145385742 0 0 0 0 
2417500000.0000000000 0.175041735172271700760049384371 -0.060181576758623123168945312500 -0.000421458302298560684353428973 0.000802164548076689243316650391 0 0 0 0 
2417666666.6666665077 0.174493685364723205566406250000 -0.060248278081417076801340471093 -0.000435167341493070125579833984 0.000665536790620535612106323242 0 0 0 0 
2417833333.3333334923 0.173506319522857693771200615629 -0.060487825423479080200195312500 -0.000632017035968601703643798828 0.000749957573134452104568481445 0 0 0 0 
2418000000.0000000000 0.172448113560676602462606865629 -0.060760289430618293071706403907 -0.000392697344068437814712524414 0.000630184949841350317001342773 0 0 0 0 
2418166666.6666665077 0.171317368745803805252236884371 -0.061012022197246551513671875000 -0.000416558788856491500705164777 0.000683984253555536270141601562 0 0 0 0 
2418333333.3333334923 0.170460149645805386642294365629 -0.061460349708795547485351562500 -0.000409763393690809607505798340 0.000897658581379801034927368164 0 0 0 0 
2418500000.0000000000 0.169122874736785888671875000000 -0.061840966343879699707031250000 -0.000334325537551194375187474384 0.000908253481611609458923339844 0 0 0 0 
2418666666.6666665077 0.168016627430915804763955634371 -0.062411017715930938720703125000 -0.000410181761253625208705347882 0.000860336178448051214218139648 0 0 0 0 
2418833333.3333334923 0.166616767644882202148437500000 -0.063036061823368072509765625000 -0.000396350777009502107470911847 0.000811083649750798940658569336 0 0 0 0 
2419000000.0000000000 0.165290266275405911544638115629 -0.063515417277812957763671875000 -0.000312718300847336704104822980 0.000837090017739683389663696289 0 0 0 0 
2419166666.6666665077 0.164184167981147793868856865629 -0.064363151788711547851562500000 -0.000185780882020480903700151987 0.000861669832374900579452514648 0 0 0 0 
2419333333.3333334923 0.162822976708412198165731865629 -0.064790807664394378662109375000 -0.000239004875766113400459289551 0.000986785744316875934600830078 0 0 0 0 
2419500000.0000000000 0.161519989371299688141192518742 -0.065944485366344451904296875000 -0.000092883521574549376964569092 0.001043413998559117100359272534 0 0 0 0 
2419666666.6666665077 0.160398721694946289062500000000 -0.067062512040138244628906250000 -0.000064425425080116838216781616 0.000996713642962276935577392578 0 0 0 0 
2419833333.3333334923 0.159044638276100186446981865629 -0.067937925457954406738281250000 -0.000102450911072082804001946721 0.001187070040032268004176474463 0 0 0 0 
