# Version 1.00
#
freq[Hz];re:Trc1_S11;im:Trc1_S11;re:Trc2_S21;im:Trc2_S21;
2.400000000000000E+009;1.737101674079895E-001;4.915637522935867E-002;2.744493540376425E-003;5.341892596334219E-003;
2.400166666666667E+009;1.742859333753586E-001;4.864998906850815E-002;2.707655541598797E-003;5.159647203981876E-003;
2.400333333333334E+009;1.747716814279556E-001;4.778719693422318E-002;2.603854984045029E-003;5.273277405649424E-003;
2.400500000000000E+009;1.751454770565033E-001;4.727015271782875E-002;2.779406029731035E-003;5.128865130245686E-003;
2.400666666666667E+009;1.753944456577301E-001;4.643576592206955E-002;2.552438527345657E-003;4.995193798094988E-003;
2.400833333333334E+009;1.757558584213257E-001;4.588768258690834E-002;2.828323049470782E-003;5.077657755464315E-003;
2.401000000000000E+009;1.757175028324127E-001;4.512305185198784E-002;2.721333643421531E-003;4.997084382921457E-003;
2.401166666666667E+009;1.760537177324295E-001;4.453647881746292E-002;2.975360257551074E-003;5.007422529160976E-003;
2.401333333333334E+009;1.759060025215149E-001;4.357986524701119E-002;2.925886074081063E-003;4.990354645997286E-003;
2.401500000000000E+009;1.760288327932358E-001;4.292595013976097E-002;3.060836112126708E-003;5.031337030231953E-003;
2.401666666666667E+009;1.760321557521820E-001;4.231664165854454E-002;3.175886813551188E-003;4.962877370417118E-003;
2.401833333333334E+009;1.758554875850678E-001;4.137367382645607E-002;3.270720830187202E-003;4.863108973950148E-003;
2.402000000000000E+009;1.757171154022217E-001;4.053751379251480E-002;3.565520280972123E-003;4.791882820427418E-003;
2.402166666666667E+009;1.756663769483566E-001;3.951401263475418E-002;3.539881436154246E-003;4.859520588070154E-003;
2.402333333333334E+009;1.752708852291107E-001;3.856761753559113E-002;3.662113565951586E-003;4.845683928579092E-003;
2.402500000000000E+009;1.751278936862946E-001;3.753633797168732E-002;3.768106456845999E-003;4.927466157823801E-003;
2.402666666666667E+009;1.747626066207886E-001;3.649633377790451E-002;3.956563770771027E-003;4.766251891851425E-003;
2.402833333333334E+009;1.744213104248047E-001;3.536607697606087E-002;4.197358153760433E-003;4.860054701566696E-003;
2.403000000000000E+009;1.743158251047134E-001;3.409580141305924E-002;4.357182886451483E-003;4.641546867787838E-003;
2.403166666666667E+009;1.738526672124863E-001;3.252210095524788E-002;4.466590471565723E-003;4.537463653832674E-003;
2.403333333333334E+009;1.734250634908676E-001;3.121258877217770E-002;4.356960766017437E-003;4.455501679331064E-003;
2.403500000000000E+009;1.729983538389206E-001;2.954487875103951E-002;4.628624301403761E-003;4.404291976243258E-003;
2.403666666666667E+009;1.726538538932800E-001;2.799789607524872E-002;4.679513163864613E-003;4.129946231842041E-003;
2.403833333333334E+009;1.722751259803772E-001;2.633965015411377E-002;4.835259635001421E-003;4.142292775213718E-003;
2.404000000000000E+009;1.717601567506790E-001;2.456777542829514E-002;4.903565160930157E-003;3.982194699347019E-003;
2.404166666666667E+009;1.714980900287628E-001;2.270822413265705E-002;4.803831223398447E-003;3.806043183431029E-003;
2.404333333333334E+009;1.709652245044708E-001;2.098129503428936E-002;5.001122131943703E-003;3.718942170962691E-003;
2.404500000000000E+009;1.707710176706314E-001;1.912707276642323E-002;5.327205173671246E-003;3.526500891894102E-003;
2.404666666666667E+009;1.705389320850372E-001;1.719002798199654E-002;5.266932304948568E-003;3.420570399612188E-003;
2.404833333333334E+009;1.702157258987427E-001;1.520030666142702E-002;5.255111027508974E-003;3.156443126499653E-003;
2.405000000000000E+009;1.700920760631561E-001;1.317909825593233E-002;5.169236101210117E-003;3.277997020632029E-003;
2.405166666666667E+009;1.698827147483826E-001;1.133905071765184E-002;5.294953472912312E-003;2.924055093899369E-003;
2.405333333333334E+009;1.699913889169693E-001;9.326248429715633E-003;5.438372492790222E-003;2.968688961118460E-003;
2.405500000000000E+009;1.699496209621429E-001;7.209844421595335E-003;5.429099779576063E-003;2.764996606856585E-003;
2.405666666666667E+009;1.699824631214142E-001;5.293386522680521E-003;5.377085413783789E-003;2.689688699319959E-003;
2.405833333333334E+009;1.700155138969421E-001;3.434934653341770E-003;5.317239090800285E-003;2.719594864174724E-003;
2.406000000000000E+009;1.703768372535706E-001;1.198847661726177E-003;5.448639392852783E-003;2.714119153097272E-003;
2.406166666666667E+009;1.705838888883591E-001;-6.660937215201557E-004;5.516912788152695E-003;2.541222842410207E-003;
2.406333333333334E+009;1.712533086538315E-001;-2.658438403159380E-003;5.533067043870688E-003;2.651473740115762E-003;
2.406500000000000E+009;1.714645475149155E-001;-4.644770640879870E-003;5.757618229836226E-003;2.306900918483734E-003;
2.406666666666667E+009;1.718237400054932E-001;-6.448062602430582E-003;5.789067596197128E-003;2.437901915982366E-003;
2.406833333333334E+009;1.725285500288010E-001;-8.455811068415642E-003;5.746221635490656E-003;2.328388160094619E-003;
2.407000000000000E+009;1.732534170150757E-001;-1.028772071003914E-002;5.978235974907875E-003;2.214298583567143E-003;
2.407166666666667E+009;1.739607006311417E-001;-1.207935623824596E-002;6.140931043773890E-003;2.231630962342024E-003;
2.407333333333334E+009;1.745506674051285E-001;-1.380556263029575E-002;6.397237535566092E-003;2.079583937302232E-003;
2.407500000000000E+009;1.753193438053131E-001;-1.563719287514687E-002;6.661160849034786E-003;1.746538560837507E-003;
2.407666666666667E+009;1.759976893663406E-001;-1.722471602261066E-002;6.715095601975918E-003;1.630466780625284E-003;
2.407833333333334E+009;1.767276376485825E-001;-1.893742568790913E-002;6.802484393119812E-003;1.480126637034118E-003;
2.408000000000000E+009;1.774217039346695E-001;-2.051460742950440E-002;7.059239782392979E-003;1.242289436049759E-003;
2.408166666666667E+009;1.781873106956482E-001;-2.195886708796024E-002;7.085891906172037E-003;1.115639810450375E-003;
2.408333333333334E+009;1.792116910219193E-001;-2.335795760154724E-002;7.085108663886786E-003;8.479037205688655E-004;
2.408500000000000E+009;1.797178536653519E-001;-2.477393858134747E-002;7.381299044936895E-003;5.224162014201284E-004;
2.408666666666667E+009;1.803228557109833E-001;-2.598600275814533E-002;7.540010847151279E-003;3.069412778131664E-004;
2.408833333333334E+009;1.807774305343628E-001;-2.716480940580368E-002;7.345950230956078E-003;-8.751157292863354E-005;
2.409000000000000E+009;1.811961531639099E-001;-2.828972414135933E-002;7.427847944200039E-003;-2.206576464232057E-004;
2.409166666666667E+009;1.818083226680756E-001;-2.929542027413845E-002;7.321860175579786E-003;-4.902932560071349E-004;
2.409333333333334E+009;1.822954565286636E-001;-3.008359111845493E-002;7.371814921498299E-003;-7.574422052130103E-004;
2.409500000000000E+009;1.824694424867630E-001;-3.089412115514278E-002;7.384778000414372E-003;-7.873280555941165E-004;
2.409666666666667E+009;1.827584207057953E-001;-3.135399147868156E-002;7.495825178921223E-003;-1.145059824921191E-003;
2.409833333333334E+009;1.830054670572281E-001;-3.191718459129334E-002;7.302440702915192E-003;-1.475826371461153E-003;
2.410000000000000E+009;1.831600666046143E-001;-3.243992105126381E-002;7.170910015702248E-003;-1.628267811611295E-003;
2.410166666666667E+009;1.833213567733765E-001;-3.276067599654198E-002;7.205291185528040E-003;-1.842031371779740E-003;
2.410333333333334E+009;1.833705455064774E-001;-3.311171010136604E-002;7.251349277794361E-003;-1.981775276362896E-003;
2.410500000000000E+009;1.833685934543610E-001;-3.326096013188362E-002;7.231316529214382E-003;-2.271830337122083E-003;
2.410666666666667E+009;1.832117438316345E-001;-3.386805951595306E-002;7.047286257147789E-003;-2.540566958487034E-003;
2.410833333333334E+009;1.832144409418106E-001;-3.404159098863602E-002;7.129903417080641E-003;-2.614373806864023E-003;
2.411000000000000E+009;1.830037236213684E-001;-3.436873108148575E-002;6.985280662775040E-003;-2.798407571390271E-003;
2.411166666666667E+009;1.827953457832336E-001;-3.470443189144135E-002;7.052130531519651E-003;-3.259991295635700E-003;
2.411333333333334E+009;1.822520941495895E-001;-3.487408906221390E-002;6.907002069056034E-003;-3.405011491850019E-003;
2.411500000000000E+009;1.817478388547897E-001;-3.534372895956039E-002;6.853168364614248E-003;-3.599939169362187E-003;
2.411666666666667E+009;1.814630180597305E-001;-3.566426038742065E-002;6.728422828018665E-003;-3.892728360369802E-003;
2.411833333333334E+009;1.806609183549881E-001;-3.606536239385605E-002;6.590658798813820E-003;-4.133004229515791E-003;
2.412000000000000E+009;1.800778061151505E-001;-3.651990368962288E-002;6.570859346538782E-003;-4.358131904155016E-003;
2.412166666666667E+009;1.790314316749573E-001;-3.692675754427910E-002;6.381038110703230E-003;-4.544559400528669E-003;
2.412333333333334E+009;1.783130317926407E-001;-3.735593333840370E-002;6.298999302089214E-003;-4.782596137374640E-003;
2.412500000000000E+009;1.771582216024399E-001;-3.792477771639824E-002;6.098855752497912E-003;-5.157188978046179E-003;
2.412666666666667E+009;1.762014478445053E-001;-3.881463035941124E-002;5.875932052731514E-003;-5.195462610572577E-003;
2.412833333333334E+009;1.751725077629089E-001;-3.933885321021080E-002;5.702185444533825E-003;-5.560256540775299E-003;
2.413000000000000E+009;1.738016158342362E-001;-4.007545486092567E-002;5.385718774050474E-003;-5.411530379205942E-003;
2.413166666666667E+009;1.726670712232590E-001;-4.096750542521477E-002;5.251177586615086E-003;-5.737916566431522E-003;
2.413333333333334E+009;1.714444011449814E-001;-4.178523644804955E-002;5.011642351746559E-003;-5.754784215241671E-003;
2.413500000000000E+009;1.701677292585373E-001;-4.281478375196457E-002;4.744948353618383E-003;-5.764389410614967E-003;
2.413666666666667E+009;1.688520461320877E-001;-4.384724050760269E-002;4.532672930508852E-003;-5.772147327661514E-003;
2.413833333333334E+009;1.677081882953644E-001;-4.505368694663048E-002;4.477299749851227E-003;-5.835468880832195E-003;
2.414000000000000E+009;1.663227230310440E-001;-4.632223397493362E-002;4.419692326337099E-003;-5.946030840277672E-003;
2.414166666666667E+009;1.651973873376846E-001;-4.765648022294045E-002;4.230370745062828E-003;-5.891609936952591E-003;
2.414333333333334E+009;1.640208661556244E-001;-4.897698387503624E-002;3.915899433195591E-003;-6.223234347999096E-003;
2.414500000000000E+009;1.629599481821060E-001;-5.038052052259445E-002;3.939462359994650E-003;-6.146363914012909E-003;
2.414666666666667E+009;1.617387384176254E-001;-5.196193978190422E-002;3.783687949180603E-003;-6.174341775476933E-003;
2.414833333333334E+009;1.606361269950867E-001;-5.356585606932640E-002;3.730485448613763E-003;-6.186878774315119E-003;
2.415000000000000E+009;1.595764756202698E-001;-5.519946292042732E-002;3.541900310665369E-003;-6.467483006417751E-003;
2.415166666666667E+009;1.586583405733109E-001;-5.697100609540939E-002;3.364237491041422E-003;-6.488916929811239E-003;
2.415333333333334E+009;1.579044163227081E-001;-5.888888612389565E-002;3.261869773268700E-003;-6.627440452575684E-003;
2.415500000000000E+009;1.571190953254700E-001;-6.067119911313057E-002;3.195367986336350E-003;-6.839842535555363E-003;
2.415666666666667E+009;1.564043611288071E-001;-6.245617195963860E-002;3.261862555518746E-003;-6.957980338484049E-003;
2.415833333333334E+009;1.557832360267639E-001;-6.457633525133133E-002;2.834974322468042E-003;-7.014429662376642E-003;
2.416000000000000E+009;1.551655083894730E-001;-6.645026057958603E-002;2.777810906991363E-003;-7.216025609523058E-003;
2.416166666666667E+009;1.548109799623489E-001;-6.843380630016327E-002;2.656158758327365E-003;-7.315850351005793E-003;
2.416333333333334E+009;1.542992889881134E-001;-7.032039761543274E-002;2.684741979464889E-003;-7.469849195331335E-003;
2.416500000000000E+009;1.538486629724503E-001;-7.243545353412628E-002;2.303252462297678E-003;-7.598889991641045E-003;
2.416666666666667E+009;1.534324735403061E-001;-7.432478666305542E-002;2.029378665611148E-003;-7.864487357437611E-003;
2.416833333333334E+009;1.532731205224991E-001;-7.649769634008408E-002;1.786754000931978E-003;-7.878515869379044E-003;
2.417000000000000E+009;1.529089808464050E-001;-7.831255346536636E-002;1.665490330196917E-003;-8.179616183042526E-003;
2.417166666666667E+009;1.527867019176483E-001;-8.015929907560349E-002;1.405195915140212E-003;-8.102768100798130E-003;
2.417333333333334E+009;1.527317017316818E-001;-8.190418779850006E-002;1.122613786719739E-003;-8.336786180734634E-003;
2.417500000000000E+009;1.526074856519699E-001;-8.385501801967621E-002;7.058275514282286E-004;-8.358374238014221E-003;
2.417666666666667E+009;1.527416110038757E-001;-8.526863902807236E-002;4.704449092969298E-004;-8.359606377780438E-003;
2.417833333333334E+009;1.527258157730103E-001;-8.688919991254807E-002;3.164591325912625E-004;-8.403841406106949E-003;
2.418000000000000E+009;1.526234000921249E-001;-8.854823559522629E-002;-1.342878967989236E-004;-8.519730530679226E-003;
2.418166666666667E+009;1.527983844280243E-001;-8.970156311988831E-002;-4.296258266549557E-004;-8.542664349079132E-003;
2.418333333333334E+009;1.531376838684082E-001;-9.099730104207993E-002;-6.296086939983070E-004;-8.437436074018478E-003;
2.418500000000000E+009;1.531717032194138E-001;-9.229753166437149E-002;-9.464148897677660E-004;-8.535925298929215E-003;
2.418666666666667E+009;1.535464823246002E-001;-9.338767081499100E-002;-1.325135119259358E-003;-8.391004987061024E-003;
2.418833333333334E+009;1.535045802593231E-001;-9.421225637197495E-002;-1.640636008232832E-003;-8.403659798204899E-003;
2.419000000000000E+009;1.536819934844971E-001;-9.510756283998489E-002;-1.740916632115841E-003;-8.347451686859131E-003;
2.419166666666667E+009;1.538830846548080E-001;-9.568071365356445E-002;-2.079391852021217E-003;-8.323100395500660E-003;
2.419333333333334E+009;1.539783477783203E-001;-9.614925831556320E-002;-2.470430452376604E-003;-8.253970183432102E-003;
2.419500000000000E+009;1.542488485574722E-001;-9.689893573522568E-002;-2.703790320083499E-003;-8.181699551641941E-003;
2.419666666666667E+009;1.544297039508820E-001;-9.724516421556473E-002;-2.906016772612929E-003;-7.952255196869373E-003;
2.419833333333334E+009;1.542731225490570E-001;-9.743864089250565E-002;-3.179663792252541E-003;-8.009439334273338E-003;
2.420000000000000E+009;1.544893831014633E-001;-9.763456881046295E-002;-3.383861854672432E-003;-7.787878625094891E-003;
2.420166666666667E+009;1.545615494251251E-001;-9.762097150087357E-002;-3.707309486344457E-003;-7.827313616871834E-003;
2.420333333333334E+009;1.548033058643341E-001;-9.757935255765915E-002;-4.101887810975313E-003;-7.697487715631723E-003;
2.420500000000000E+009;1.548173278570175E-001;-9.735320508480072E-002;-4.362909123301506E-003;-7.531430106610060E-003;
2.420666666666667E+009;1.546063423156738E-001;-9.724497050046921E-002;-4.696072079241276E-003;-7.577912881970406E-003;
2.420833333333334E+009;1.546182781457901E-001;-9.698898345232010E-002;-4.923764616250992E-003;-7.282946258783341E-003;
2.421000000000000E+009;1.544224619865418E-001;-9.685830026865006E-002;-5.053978879004717E-003;-7.241227664053440E-003;
2.421166666666667E+009;1.540020406246185E-001;-9.656715393066406E-002;-5.430555436760187E-003;-7.061775773763657E-003;
2.421333333333334E+009;1.539538353681564E-001;-9.625725448131561E-002;-5.757912993431091E-003;-6.911600939929485E-003;
2.421500000000000E+009;1.535610109567642E-001;-9.585934132337570E-002;-5.893516819924116E-003;-6.697847042232752E-003;
2.421666666666667E+009;1.529847681522369E-001;-9.570097178220749E-002;-6.308991927653551E-003;-6.431964691728354E-003;
2.421833333333334E+009;1.522523462772369E-001;-9.527126699686050E-002;-6.502442061901093E-003;-6.189553998410702E-003;
2.422000000000000E+009;1.515711843967438E-001;-9.497281908988953E-002;-6.908174604177475E-003;-6.028795614838600E-003;
2.422166666666667E+009;1.508442908525467E-001;-9.501697123050690E-002;-7.084121927618980E-003;-5.634035449475050E-003;
2.422333333333334E+009;1.499409973621368E-001;-9.472824633121491E-002;-7.080262061208487E-003;-5.325543694198132E-003;
2.422500000000000E+009;1.488900035619736E-001;-9.425703436136246E-002;-7.508699782192707E-003;-5.148768424987793E-003;
2.422666666666667E+009;1.477394849061966E-001;-9.414674341678619E-002;-7.589408196508884E-003;-4.812886007130146E-003;
2.422833333333334E+009;1.466581225395203E-001;-9.425672143697739E-002;-7.797070778906345E-003;-4.249001387506723E-003;
2.423000000000000E+009;1.453542858362198E-001;-9.419468045234680E-002;-7.935625500977039E-003;-3.944934811443090E-003;
2.423166666666667E+009;1.440901160240173E-001;-9.407010674476624E-002;-7.948094978928566E-003;-3.469571704044938E-003;
2.423333333333334E+009;1.426814496517181E-001;-9.389255195856094E-002;-7.854663766920567E-003;-3.292512847110629E-003;
2.423500000000000E+009;1.410913020372391E-001;-9.420535713434219E-002;-7.880775257945061E-003;-3.026287537068129E-003;
2.423666666666667E+009;1.394918262958527E-001;-9.435307979583740E-002;-7.961845956742764E-003;-2.669905545189977E-003;
2.423833333333334E+009;1.381572484970093E-001;-9.460606426000595E-002;-7.853373885154724E-003;-2.373583614826202E-003;
2.424000000000000E+009;1.364975273609161E-001;-9.474781900644302E-002;-7.802270818501711E-003;-2.199505921453238E-003;
2.424166666666667E+009;1.348516494035721E-001;-9.508395195007324E-002;-7.847820408642292E-003;-1.866651349700987E-003;
2.424333333333334E+009;1.335183084011078E-001;-9.545950591564179E-002;-7.765631191432476E-003;-1.637335168197751E-003;
2.424500000000000E+009;1.320953071117401E-001;-9.612112492322922E-002;-7.934064604341984E-003;-1.451453426852822E-003;
2.424666666666667E+009;1.306885033845902E-001;-9.657350182533264E-002;-7.844888605177403E-003;-1.360890222713351E-003;
2.424833333333334E+009;1.290721148252487E-001;-9.740933775901794E-002;-7.631012704223394E-003;-1.047591096721590E-003;
2.425000000000000E+009;1.278072446584702E-001;-9.820814430713654E-002;-7.681805640459061E-003;-8.036937797442079E-004;
2.425166666666667E+009;1.261753737926483E-001;-9.912747889757156E-002;-7.842612452805042E-003;-7.481396314688027E-004;
2.425333333333334E+009;1.250899732112885E-001;-1.000475883483887E-001;-7.722938433289528E-003;-3.880040894728154E-004;
2.425500000000000E+009;1.239369362592697E-001;-1.012930050492287E-001;-7.792578544467688E-003;-2.599775907583535E-004;
2.425666666666667E+009;1.226035505533218E-001;-1.023291349411011E-001;-7.567688822746277E-003;1.397132000420243E-004;
2.425833333333334E+009;1.215225383639336E-001;-1.036677584052086E-001;-7.707312237471342E-003;1.308427163166925E-004;
2.426000000000000E+009;1.205392181873322E-001;-1.051729023456574E-001;-7.546145934611559E-003;5.354717141017318E-004;
2.426166666666667E+009;1.196614205837250E-001;-1.066028848290443E-001;-7.563007529824972E-003;9.356004302389920E-004;
2.426333333333334E+009;1.186573132872582E-001;-1.080152243375778E-001;-7.561223115772009E-003;1.101683708839119E-003;
2.426500000000000E+009;1.179932057857513E-001;-1.093614920973778E-001;-7.250713650137186E-003;1.176051329821348E-003;
2.426666666666667E+009;1.175058633089066E-001;-1.109265461564064E-001;-7.094888947904110E-003;1.332239597104490E-003;
2.426833333333334E+009;1.167567595839500E-001;-1.125211268663406E-001;-7.001333404332399E-003;1.796085853129625E-003;
2.427000000000000E+009;1.161047741770744E-001;-1.142486110329628E-001;-6.753563880920410E-003;1.866322825662792E-003;
2.427166666666667E+009;1.157013624906540E-001;-1.156309768557549E-001;-6.642005871981382E-003;1.929690130054951E-003;
2.427333333333334E+009;1.151813492178917E-001;-1.172337904572487E-001;-6.582209840416908E-003;2.070996910333633E-003;
2.427500000000000E+009;1.150316223502159E-001;-1.189539507031441E-001;-6.381748709827662E-003;2.182058757171035E-003;
2.427666666666667E+009;1.147071868181229E-001;-1.204617097973824E-001;-5.952514708042145E-003;2.219483256340027E-003;
