# Hz S RI R 
2400000000.0000000000 0.168520897626876803299111884371 0.040830582380294799804687500000 0.002358330180868505997898720850 -0.001474892953410745100734091650 0 0 0 0 
2400166666.6666665077 0.169143736362457303146200615629 0.040216904133558273315429687500 0.002354035153985023932216025244 -0.001525800675153732082964253003 0 0 0 0 
2400333333.3333334923 0.169553458690643310546875000000 0.039226919412612921977956403907 0.002185341203585267066955566406 -0.001604686724022031047223735278 0 0 0 0 
2400500000.0000000000 0.170235097408294705489950615629 0.038496978580951690673828125000 0.002308717230334877967834472656 -0.001763280015438795089721679688 0 0 0 0 
2400666666.6666665077 0.170489117503166198730468750000 0.037520982325077056884765625000 0.002094444818794726891758584131 -0.001799144665710628032684326172 0 0 0 0 
2400833333.3333334923 0.170950025320053100585937500000 0.036676511168479919433593750000 0.001839589909650384946110390771 -0.002129796193912624879124306787 0 0 0 0 
2401000000.0000000000 0.171300753951072692871093750000 0.036048401147127151489257812500 0.001552242087200284004211425781 -0.001979960594326258139369345557 0 0 0 0 
2401166666.6666665077 0.171409338712692288497763115629 0.035232584923505783081054687500 0.001618903828784822983982705225 -0.001955114305019379095790243994 0 0 0 0 
2401333333.3333334923 0.171541005373001098632812500000 0.034170750528573989868164062500 0.001404644339345395998713827979 -0.001913318759761750914930034106 0 0 0 0 
2401500000.0000000000 0.171817347407341003417968750000 0.033553179353475570678710937500 0.001253115478903054974199604565 -0.002032203599810599847080849756 0 0 0 0 
2401666666.6666665077 0.171997591853141812423544365629 0.032836627215147018432617187500 0.001122040674090385003330849756 -0.002076430711895226998570107568 0 0 0 0 
2401833333.3333334923 0.171961173415183993240518134371 0.031977087259292602539062500000 0.000832214776892215013504028320 -0.001859210897237063104744936304 0 0 0 0 
2402000000.0000000000 0.171909257769584711272869981258 0.030974267050623890268346016796 0.000717005343176424503326416016 -0.001775376615114510059356689453 0 0 0 0 
2402166666.6666665077 0.171906024217605590820312500000 0.030162570998072620737096016796 0.000571703538298606872558593750 -0.001658394350670278072357177734 0 0 0 0 
2402333333.3333334923 0.171983569860458401779013115629 0.029304927214980128896693045704 0.000407465500757098197937011719 -0.001498686615377664999720908057 0 0 0 0 
2402500000.0000000000 0.172447100281715393066406250000 0.028460245579481128347376639454 0.000358870282070711309283655988 -0.001364584662951529026031494141 0 0 0 0 
2402666666.6666665077 0.171849951148033086578692518742 0.027445115149021148681640625000 0.000453182728961110115051269531 -0.001213185954838990948320698315 0 0 0 0 
2402833333.3333334923 0.171834558248519897460937500000 0.026492951437830928457239920704 0.000387734209652990102767944336 -0.000908671936485916376113891602 0 0 0 0 
2403000000.0000000000 0.171833783388137789627236884371 0.025408077985048290597935860546 0.000383091683033853823512476788 -0.001014639157801866965052939307 0 0 0 0 
2403166666.6666665077 0.171748816967010498046875000000 0.024257531389594081533411795704 0.000430545653216540813446044922 -0.000876403995789587497711181641 0 0 0 0 
2403333333.3333334923 0.171572968363761901855468750000 0.023309553042054179800013358204 0.000572684570215642452239990234 -0.000534943246748298406600952148 0 0 0 0 
2403500000.0000000000 0.171485781669616699218750000000 0.022042475640773769723912423046 0.000713318353518843650817871094 -0.000673084054142236709594726562 0 0 0 0 
2403666666.6666665077 0.171174362301826504806356865629 0.020761495456099510192871093750 0.000785150157753378152847290039 -0.000601623964030295610427856445 0 0 0 0 
2403833333.3333334923 0.171065896749496487716513115629 0.019346747547388080251673514454 0.000964294187724590301513671875 -0.000315639481414109522670191632 0 0 0 0 
2404000000.0000000000 0.170943722128868103027343750000 0.018210209906101230276087576954 0.001033163280226290009142231519 -0.000446490535978227907985133038 0 0 0 0 
2404166666.6666665077 0.170640200376510592361611884371 0.016722068190574649465540701954 0.001251163193956017927882529150 -0.000465571123640984296798706055 0 0 0 0 
2404333333.3333334923 0.170619472861290005782919365629 0.015562835149466989689837070898 0.001541829318739474036573100513 -0.000541495275683701038360595703 0 0 0 0 
2404500000.0000000000 0.170484557747840909103231865629 0.014033568091690540313720703125 0.001620579510927200100542378003 -0.000615573138929903507232666016 0 0 0 0 
2404666666.6666665077 0.170267850160598810393963731258 0.012632032856345180166224295704 0.001751832547597586891771626050 -0.000770200742408633232116699219 0 0 0 0 
2404833333.3333334923 0.170132905244827298263388115629 0.011328825727105140686035156250 0.002073709154501556916477822412 -0.000955715891905128955841064453 0 0 0 0 
2405000000.0000000000 0.170094698667526300628338731258 0.009670880623161792755126953125 0.002158893505111337141749716650 -0.000997382565401494503021240234 0 0 0 0 
2405166666.6666665077 0.170006364583969088455361884371 0.008134142495691776275634765625 0.002046525711193681196925497900 -0.001346666365861892917035746997 0 0 0 0 
2405333333.3333334923 0.169940963387489291092080634371 0.006511685904115439328665448926 0.002334108343347907066345214844 -0.001419171923771501021144247900 0 0 0 0 
2405500000.0000000000 0.169882878661155700683593750000 0.004930344875901938352102948926 0.002476020716130733923671103369 -0.001659919740632175965550088037 0 0 0 0 
2405666666.6666665077 0.169931739568710299392861884371 0.003330215578898787932154990088 0.002337900921702384948730468750 -0.001767807058058679103851318359 0 0 0 0 
2405833333.3333334923 0.169659152626991299728231865629 0.001812137779779732010485004956 0.002300714375451207160949707031 -0.002073089359328151182887411963 0 0 0 0 
2406000000.0000000000 0.169708237051963806152343750000 -0.000142093034810386598110198975 0.002072746632620691819431923975 -0.002391496207565069198608398438 0 0 0 0 
2406166666.6666665077 0.169578209519386291503906250000 -0.001563076162710786082624125903 0.001939863082952796979191445459 -0.002651258837431668801548623193 0 0 0 0 
2406333333.3333334923 0.169609829783439608474893134371 -0.003309197956696153120753622900 0.001905061770230531909345317310 -0.002743944758549333052394247900 0 0 0 0 
2406500000.0000000000 0.169319868087768610198651231258 -0.005004688631743192672729492188 0.001784193213097750923754047925 -0.003146444447338581085205078125 0 0 0 0 
2406666666.6666665077 0.169011041522026089767294365629 -0.006487454753369092941284179688 0.001532411552034318013432168115 -0.003266149200499058203456259619 0 0 0 0 
2406833333.3333334923 0.169104740023613003829794365629 -0.008179198950529098510742187500 0.001494521507993340925929404150 -0.003363169729709624810459756006 0 0 0 0 
2407000000.0000000000 0.168937921524047907073651231258 -0.009662979282438755035400390625 0.001182326348498464064357138525 -0.003461504820734262900111533057 0 0 0 0 
2407166666.6666665077 0.169074073433876009842080634371 -0.011121223680675029754638671875 0.000976923736743628978729248047 -0.003606352023780345916748046875 0 0 0 0 
2407333333.3333334923 0.168702498078346307952557481258 -0.012579979375004770106305507227 0.000773135107010602951049804688 -0.003671494312584400177001953125 0 0 0 0 
2407500000.0000000000 0.168560072779655512054119981258 -0.013828117400407789402971836523 0.000461752904811873977810460223 -0.003941524308174849423880292676 0 0 0 0 
2407666666.6666665077 0.168479338288307189941406250000 -0.015056312084197999781598475977 0.000119434218504466102875848088 -0.003928934689611197385306073926 0 0 0 0 
2407833333.3333334923 0.168206334114074707031250000000 -0.016408540308475490915318673046 -0.000259293010458350181579589844 -0.003904351731762290000915527344 0 0 0 0 
2408000000.0000000000 0.168281659483909606933593750000 -0.017590044066309928894042968750 -0.000422440498368814587593078613 -0.003932854626327753067016601562 0 0 0 0 
2408166666.6666665077 0.168170154094695989410723768742 -0.018451657146215438842773437500 -0.000563262728974223136901855469 -0.003862960496917366981506347656 0 0 0 0 
2408333333.3333334923 0.168320670723915100097656250000 -0.019413383677601810800572579296 -0.001122743240557610988616943359 -0.003721634158864616914036416162 0 0 0 0 
2408500000.0000000000 0.168337151408195495605468750000 -0.020429277792572978628138358204 -0.001202295883558690981623984229 -0.003555388888344169096705771338 0 0 0 0 
2408666666.6666665077 0.168468192219734191894531250000 -0.021339513361454010009765625000 -0.001463063294067979075788188403 -0.003407504642382264137268066406 0 0 0 0 
2408833333.3333334923 0.168554350733756991287393134371 -0.022191762924194339406946951954 -0.001559015130624175071716308594 -0.003226557048037648200988769531 0 0 0 0 
2409000000.0000000000 0.168732300400734003265057481258 -0.023008236661553379404088204296 -0.001818431308493017933489155347 -0.003024691483005880875828408350 0 0 0 0 
2409166666.6666665077 0.168884113430976895431356865629 -0.023881759494543079030970389454 -0.001736898324452341036555624854 -0.002882162574678659005406045068 0 0 0 0 
2409333333.3333334923 0.169276133179664611816406250000 -0.024746904149651530874232108204 -0.001916153007186949036241840894 -0.002592605771496891975402832031 0 0 0 0 
2409500000.0000000000 0.169249653816223089020098768742 -0.025745736435055729257603829296 -0.001993318554013967947718954932 -0.002416959032416344122645712744 0 0 0 0 
2409666666.6666665077 0.169462338089942904373330634371 -0.026485145092010501516321951954 -0.001953941304236650900599814307 -0.002417165786027907891514443506 0 0 0 0 
2409833333.3333334923 0.169414386153221102615518134371 -0.027337312698364261281946951954 -0.002156464615836739973780966650 -0.002230033744126557870152138818 0 0 0 0 
2410000000.0000000000 0.169809281826019287109375000000 -0.028101714327931400644322579296 -0.002025567460805178122279501807 -0.001967157702893019156215048682 0 0 0 0 
2410166666.6666665077 0.169968307018280001541299384371 -0.028984962031245231628417968750 -0.001985986484214663939235068213 -0.001760727027431129975559853662 0 0 0 0 
2410333333.3333334923 0.170009061694145202636718750000 -0.029792277142405509948730468750 -0.001994000049307941956761025537 -0.001762373838573694012285542065 0 0 0 0 
2410500000.0000000000 0.169969975948333712478799384371 -0.030578717589378360403040701954 -0.002006988041102886199951171875 -0.001508043846115469932556152344 0 0 0 0 
2410666666.6666665077 0.169943511486053494552450615629 -0.031653299927711486816406250000 -0.001943688490428030924556113135 -0.001470031333155930042266845703 0 0 0 0 
2410833333.3333334923 0.169893652200698908050213731258 -0.032462995499372482299804687500 -0.001831272616982460021972656250 -0.001297479378990828990936279297 0 0 0 0 
2411000000.0000000000 0.169806927442550686935263115629 -0.033283803611993789672851562500 -0.001918086782097816900966025244 -0.001315946807153522968292236328 0 0 0 0 
2411166666.6666665077 0.169815599918365506271200615629 -0.034044634550809860229492187500 -0.001696337945759295983555459131 -0.001211452879942954020259238135 0 0 0 0 
2411333333.3333334923 0.169469058513641412933026231258 -0.034902688115835189819335937500 -0.001647465513087809085845947266 -0.001157886697910726070404052734 0 0 0 0 
2411500000.0000000000 0.169267728924751309493856865629 -0.035833824425935752178151716407 -0.001572431065142154910443950122 -0.001188563066534698009490966797 0 0 0 0 
2411666666.6666665077 0.169026345014572088043536268742 -0.036582142114639282226562500000 -0.001709307194687426090240478516 -0.001097184256650508100625063257 0 0 0 0 
2411833333.3333334923 0.168947622179985101897869981258 -0.037352193146944052959401716407 -0.001487076515331863923313759912 -0.001194897107779979922650981372 0 0 0 0 
2412000000.0000000000 0.168624565005302401443643134371 -0.038220249116420752788503278907 -0.001578040304593741893768310547 -0.001225014915689826011657714844 0 0 0 0 
2412166666.6666665077 0.168107599020004300216513115629 -0.039291974157094962383229841407 -0.001557319657877088026759482275 -0.001211738213896750970127724756 0 0 0 0 
2412333333.3333334923 0.168157607316970797439736884371 -0.039997614920139312744140625000 -0.001426593516953289942500449072 -0.001323567586950957991956401294 0 0 0 0 
2412500000.0000000000 0.167547881603240994552450615629 -0.040875043720006942749023437500 -0.001590420259162784056422568213 -0.001356041291728615977643657153 0 0 0 0 
2412666666.6666665077 0.167139664292335510253906250000 -0.042091995477676391601562500000 -0.001539166085422039031982421875 -0.001378814340569078922271728516 0 0 0 0 
2412833333.3333334923 0.166862145066261291503906250000 -0.042842049151659011840820312500 -0.001411260222084820053697895581 -0.001413450227119029001948691260 0 0 0 0 
2413000000.0000000000 0.166167065501213101486044365629 -0.043709751218557357788085937500 -0.001626996323466300964355468750 -0.001408227835781872055651020581 0 0 0 0 
2413166666.6666665077 0.165921524167060907561932481258 -0.044794090092182159423828125000 -0.001829851767979562065721821362 -0.001626915298402308984043740381 0 0 0 0 
2413333333.3333334923 0.165145650506019592285156250000 -0.045845497399568557739257812500 -0.001885954523459077098249125903 -0.001491766073741018988965678638 0 0 0 0 
2413500000.0000000000 0.164761215448379488845986884371 -0.046888895332813262939453125000 -0.001836069277487695000292133862 -0.001518044038675725893733359229 0 0 0 0 
2413666666.6666665077 0.164178237318992586990518134371 -0.047850206494331359863281250000 -0.002042886102572083906886435400 -0.001491780509240925095201801831 0 0 0 0 
2413833333.3333334923 0.163499742746353204925213731258 -0.048659112304449081420898437500 -0.002066876273602246804478310693 -0.001713143195956944985630654443 0 0 0 0 
2414000000.0000000000 0.163051292300224304199218750000 -0.049822334200143807148020158593 -0.002189858816564083099365234375 -0.001492622424848377921460795825 0 0 0 0 
2414166666.6666665077 0.162775158882141113281250000000 -0.050751108676195151592214216407 -0.002417140873149036927464150537 -0.001223239465616642995121621240 0 0 0 0 
2414333333.3333334923 0.162152066826820401290731865629 -0.051714561879634857177734375000 -0.002400669734925032095668173682 -0.001334089320152997970581054688 0 0 0 0 
2414500000.0000000000 0.161994367837905911544638115629 -0.052782256156206130981445312500 -0.002693724818527698950526572119 -0.001336264191195368983625102466 0 0 0 0 
2414666666.6666665077 0.161622151732444790939169365629 -0.053691558539867401123046875000 -0.002243410097435117201564169775 -0.001395544852130115032196044922 0 0 0 0 
2414833333.3333334923 0.161090373992919894119424384371 -0.054807767271995537494699846093 -0.002556478139013051986694335938 -0.001451973337680100960972451318 0 0 0 0 
2415000000.0000000000 0.160745427012443486969317518742 -0.055865213274955749511718750000 -0.002859817119315267042872763525 -0.000942931976169347763061523438 0 0 0 0 
2415166666.6666665077 0.160463869571685791015625000000 -0.056962080299854278564453125000 -0.002938857302069664001464843750 -0.000934755953494459390640258789 0 0 0 0 
2415333333.3333334923 0.160577893257141113281250000000 -0.058142498135566711425781250000 -0.002972484566271305084228515625 -0.000873244542162865400314331055 0 0 0 0 
2415500000.0000000000 0.160257026553153991699218750000 -0.059266984462738037109375000000 -0.002914859680458902879002236475 -0.000600198283791542053222656250 0 0 0 0 
2415666666.6666665077 0.160035148262977600097656250000 -0.060306768864393227314035783593 -0.003157777711749076843261718750 -0.000514897808898240327835083008 0 0 0 0 
2415833333.3333334923 0.159935548901557894607705634371 -0.061729881912469856952707658593 -0.003226212691515684127807617188 -0.000473167747259140014648437500 0 0 0 0 
2416000000.0000000000 0.159573301672935513595419365629 -0.063042886555194854736328125000 -0.003220081562176347212550497900 -0.000255036284215748310089111328 0 0 0 0 
2416166666.6666665077 0.159499436616897610763388115629 -0.064273163676261901855468750000 -0.003291550558060408072230673682 -0.000144012694363482296466827393 0 0 0 0 
2416333333.3333334923 0.159156113862991305252236884371 -0.065477430820465087890625000000 -0.003291260683909059004542685400 0.000043421117879915982484817505 0 0 0 0 
2416500000.0000000000 0.158883735537528991699218750000 -0.066894941031932830810546875000 -0.003271914320066570801975869287 0.000018905848264694210479055711 0 0 0 0 
2416666666.6666665077 0.158644363284110995193643134371 -0.067954450845718383789062500000 -0.003459481056779623031616210938 0.000270136544713750481605529785 0 0 0 0 
2416833333.3333334923 0.158463984727859497070312500000 -0.069357790052890777587890625000 -0.003235672134906053976771689307 0.000494614359922707080841064453 0 0 0 0 
2417000000.0000000000 0.157884642481803894042968750000 -0.070539727807044982910156250000 -0.003356019267812370820286416162 0.000659722718410193920135498047 0 0 0 0 
2417166666.6666665077 0.157649889588355990310830634371 -0.071616910398006439208984375000 -0.003213902935385704040527343750 0.000896476733032613992691040039 0 0 0 0 
2417333333.3333334923 0.157394394278526306152343750000 -0.072573870420455932617187500000 -0.003341441275551915168762207031 0.001060246722772717909571982275 0 0 0 0 
2417500000.0000000000 0.157132059335708590408486884371 -0.073811396956443786621093750000 -0.003208693815395236015319824219 0.001214268500916660048841166919 0 0 0 0 
2417666666.6666665077 0.156838268041610690017861884371 -0.074694044888019561767578125000 -0.003147905925288795991184853662 0.001388918492011725902557373047 0 0 0 0 
2417833333.3333334923 0.156644687056541387359942518742 -0.075582712888717651367187500000 -0.003067669924348593191859579932 0.001496319659054278893711709131 0 0 0 0 
2418000000.0000000000 0.156387373805046109298544365629 -0.076648078858852386474609375000 -0.002886421279981731934788369287 0.001637745299376546902897500146 0 0 0 0 
2418166666.6666665077 0.156117841601371792892294365629 -0.077408626675605773925781250000 -0.002607135102152823968174599756 0.001957566943019628958461142432 0 0 0 0 
2418333333.3333334923 0.156233087182045010665731865629 -0.078340642154216766357421875000 -0.002549895085394382910487509619 0.002114731119945644898655556787 0 0 0 0 
2418500000.0000000000 0.155880525708198602874432481258 -0.079225540161132812500000000000 -0.002437258372083305878880166162 0.002100436482578516006469726562 0 0 0 0 
2418666666.6666665077 0.155667170882225008865518134371 -0.079833127558231353759765625000 -0.002363385399803518815281533350 0.002233971841633319854736328125 0 0 0 0 
2418833333.3333334923 0.155333146452903803069744981258 -0.080959826707839965820312500000 -0.002166794845834373994114541162 0.002151366788893938064575195312 0 0 0 0 
2419000000.0000000000 0.154995203018188504318075615629 -0.081499680876731872558593750000 -0.002038678620010613961460732568 0.002197079593315720991847372900 0 0 0 0 
2419166666.6666665077 0.154846519231796292404013115629 -0.082396157085895538330078125000 -0.001974007114768027825596474756 0.002354400232434273199794150244 0 0 0 0 
2419333333.3333334923 0.154321908950805691818075615629 -0.082745611667633056640625000000 -0.001842705416493118026136088794 0.002292937599122523827793740381 0 0 0 0 
2419500000.0000000000 0.154158025979995699783486884371 -0.083679720759391784667968750000 -0.001610120758414268927333212744 0.002317085862159729003906250000 0 0 0 0 
2419666666.6666665077 0.154039487242698697189169365629 -0.084249824285507202148437500000 -0.001452334458008408980128622900 0.002315680030733346939086914062 0 0 0 0 
2419833333.3333334923 0.153593853116035489181356865629 -0.084683738648891448974609375000 -0.001331355888396501974818564307 0.002224938478320837020874023438 0 0 0 0 
