# Hz S RI R 
2400000000.0000000000 0.157948598265647888183593750000 0.112556107342243194580078125000 0.003940361086279153823852539062 -0.005638568196445704373831464551 0 0 0 0 
2400166666.6666665077 0.157317906618118286132812500000 0.110326364636421203613281250000 0.003905032528564333915710449219 -0.005708775017410516738891601562 0 0 0 0 
2400333333.3333334923 0.157066822052002008636151231258 0.107990138232708005050497490629 0.003766903886571526961085654150 -0.005661743227392435073852539062 0 0 0 0 
2400500000.0000000000 0.156589254736900301834268134371 0.105424486100673703292684990629 0.003791629103943705992457724463 -0.005749638658016920089721679688 0 0 0 0 
2400666666.6666665077 0.156394511461257906814736884371 0.102861136198043795486611884371 0.003746726317331194877624511719 -0.006225652992725372314453125000 0 0 0 0 
2400833333.3333334923 0.156019240617752102950888115629 0.099951133131980895996093750000 0.003723425557836889786961220850 -0.006271806545555591583251953125 0 0 0 0 
2401000000.0000000000 0.155975073575973510742187500000 0.097298353910446166992187500000 0.003497339785099029974696493994 -0.006678430363535881042480468750 0 0 0 0 
2401166666.6666665077 0.155564814805984497070312500000 0.094401091337203979492187500000 0.003370398189872502846958779443 -0.006781240459531545639038085938 0 0 0 0 
2401333333.3333334923 0.155632808804511996170205634371 0.091448999941349029541015625000 0.003060341347008943991420126807 -0.007148094940930604934692382812 0 0 0 0 
2401500000.0000000000 0.155651226639747591873330634371 0.088345825672149658203125000000 0.002908088965341448783874511719 -0.007549426052719354629516601562 0 0 0 0 
2401666666.6666665077 0.155617088079452486892861884371 0.085301376879215240478515625000 0.002539882436394691900966025244 -0.007716774009168148040771484375 0 0 0 0 
2401833333.3333334923 0.155897453427314813811932481258 0.082418829202651977539062500000 0.002185322577133775191066122900 -0.007801675237715244293212890625 0 0 0 0 
2402000000.0000000000 0.156538546085357693771200615629 0.079137660562992095947265625000 0.001762373489327728965161967700 -0.008170641027390956878662109375 0 0 0 0 
2402166666.6666665077 0.156897529959678705413494981258 0.076241858303546905517578125000 0.001429552212357521057128906250 -0.008267570286989212036132812500 0 0 0 0 
2402333333.3333334923 0.157806113362312289138955634371 0.073276519775390625000000000000 0.000809103890787810087203979492 -0.008240139111876487731933593750 0 0 0 0 
2402500000.0000000000 0.158525049686431912521200615629 0.070185683667659759521484375000 0.000501546892337501049041748047 -0.008422841317951679229736328125 0 0 0 0 
2402666666.6666665077 0.159555926918983487228231865629 0.067558020353317260742187500000 -0.000016758691344875838944708177 -0.008497075177729129791259765625 0 0 0 0 
2402833333.3333334923 0.160651430487632806975994981258 0.064834043383598327636718750000 -0.000475566776003688573837280273 -0.008464847691357135772705078125 0 0 0 0 
2403000000.0000000000 0.161917835474014309982138115629 0.062102809548377990722656250000 -0.000824485206976532936096191406 -0.008350157178938388824462890625 0 0 0 0 
2403166666.6666665077 0.163469403982162503341513115629 0.059400439262390136718750000000 -0.001488827634602784893633198315 -0.008123143576085567474365234375 0 0 0 0 
2403333333.3333334923 0.164842382073402404785156250000 0.056876160204410552978515625000 -0.001923048752360045909881591797 -0.007896254770457744598388671875 0 0 0 0 
2403500000.0000000000 0.166729733347892788986044365629 0.054367035627365112304687500000 -0.002239992842078208923339843750 -0.007709575816988945007324218750 0 0 0 0 
2403666666.6666665077 0.168269157409667996505575615629 0.052135724574327468872070312500 -0.002784459618851542906520224463 -0.007335466332733631134033203125 0 0 0 0 
2403833333.3333334923 0.170077174901962308029013115629 0.049773942679166786884348283593 -0.003079425776377319855930947412 -0.007080884184688329696655273438 0 0 0 0 
2404000000.0000000000 0.171423494815826388260049384371 0.047767005860805511474609375000 -0.003188431728631258010864257812 -0.006583482492715120315551757812 0 0 0 0 
2404166666.6666665077 0.173545628786087008377236884371 0.045965850353240966796875000000 -0.003429921576753259138820029150 -0.006125117652118206024169921875 0 0 0 0 
2404333333.3333334923 0.175198882818222101409588731258 0.043958455324172966693918596093 -0.003574893344193696975708007812 -0.005798744969069957733154296875 0 0 0 0 
2404500000.0000000000 0.177096307277679387848223768742 0.042300883680582053447682966407 -0.003729809075593947930576943506 -0.005531748291105031967163085938 0 0 0 0 
2404666666.6666665077 0.178922548890113802810830634371 0.040936700999736792827565778907 -0.003697880078107119040248251807 -0.005286194384098052978515625000 0 0 0 0 
2404833333.3333334923 0.180899262428283691406250000000 0.039676036685705191875417341407 -0.003829982830211520195007324219 -0.005058228503912687301635742188 0 0 0 0 
2405000000.0000000000 0.182352140545845003982705634371 0.038725212216377258300781250000 -0.003803177038207650184631347656 -0.004949942696839570999145507812 0 0 0 0 
2405166666.6666665077 0.184228405356407193282919365629 0.037742689251899719238281250000 -0.003828415879979730086085654150 -0.004501837771385908126831054688 0 0 0 0 
2405333333.3333334923 0.185835063457489013671875000000 0.037055548280477516864817033593 -0.003860175842419267134425497900 -0.004428516607731580734252929688 0 0 0 0 
2405500000.0000000000 0.187616094946861294845419365629 0.036532651633024222637136091407 -0.003892429638653994040248251807 -0.004264800343662500381469726562 0 0 0 0 
2405666666.6666665077 0.189249023795127896407919365629 0.036018766462802886962890625000 -0.003864144673570990996119833838 -0.004104992840439081192016601562 0 0 0 0 
2405833333.3333334923 0.190661579370498712737713731258 0.035729441791772842407226562500 -0.003888115053996444182154990088 -0.004000357352197170257568359375 0 0 0 0 
2406000000.0000000000 0.192066699266433688064736884371 0.035440891981124877929687500000 -0.003888341132551432089564658057 -0.003861870616674422784092568506 0 0 0 0 
2406166666.6666665077 0.193536967039108304122763115629 0.035289220511913299560546875000 -0.003965240903198719024658203125 -0.003595512825995684103724814307 0 0 0 0 
2406333333.3333334923 0.194779753684997586349325615629 0.035241488367319107055664062500 -0.003965202718973159790039062500 -0.003627620870247482819798134912 0 0 0 0 
2406500000.0000000000 0.195938497781753512283486884371 0.035468798130750663066823591407 -0.004142662510275840759277343750 -0.003247539279982448057887411963 0 0 0 0 
2406666666.6666665077 0.196956396102905301193075615629 0.035657558590173721313476562500 -0.004009377676993609342093183301 -0.003187211230397223992588662256 0 0 0 0 
2406833333.3333334923 0.197755336761474609375000000000 0.035911247134208679199218750000 -0.004100454039871692657470703125 -0.003165085799992084936854697119 0 0 0 0 
2407000000.0000000000 0.198480919003486605545205634371 0.036127567291259772563893903907 -0.003873783163726329803466796875 -0.002957652090117334885838173975 0 0 0 0 
2407166666.6666665077 0.199166804552078302581463731258 0.036342322826385498046875000000 -0.003960019443184137344360351562 -0.002855333499610424041748046875 0 0 0 0 
2407333333.3333334923 0.199390843510627802093182481258 0.036733612418174736713449846093 -0.004076771438121795654296875000 -0.002687038155272603034973144531 0 0 0 0 
2407500000.0000000000 0.199583038687705993652343750000 0.037027277052402503276784528907 -0.004002793692052364349365234375 -0.002526264172047377066371298682 0 0 0 0 
2407666666.6666665077 0.199877083301544189453125000000 0.037240624427795410156250000000 -0.003998481668531894683837890625 -0.002346396679058670997619628906 0 0 0 0 
2407833333.3333334923 0.199734777212142888824786268742 0.037422794848680503154714216407 -0.003890333231538534164428710938 -0.002198948292061686949488974463 0 0 0 0 
2408000000.0000000000 0.199835419654846191406250000000 0.037705577909946441650390625000 -0.003881451673805714087245322119 -0.002202380448579788208007812500 0 0 0 0 
2408166666.6666665077 0.199259206652641296386718750000 0.037726100534200668334960937500 -0.003712860634550451798679970850 -0.002261628629639745192286826025 0 0 0 0 
2408333333.3333334923 0.199044764041900607010049384371 0.037640150636434561992604841407 -0.003733485005795956091639853369 -0.002089925343170762062072753906 0 0 0 0 
2408500000.0000000000 0.198494523763656588455361884371 0.037553329020738601684570312500 -0.003721322864294052124023437500 -0.002052760683000088171717978369 0 0 0 0 
2408666666.6666665077 0.197867512702941894531250000000 0.037645827978849411010742187500 -0.003549485001713037924525595557 -0.001901510404422879002214741284 0 0 0 0 
2408833333.3333334923 0.197174057364463806152343750000 0.037246711552143096923828125000 -0.003492941148579121069667197119 -0.002047676127403974966761923682 0 0 0 0 
2409000000.0000000000 0.196307182312011690994424384371 0.036823339760303497314453125000 -0.003561703255400062041041708838 -0.001972895348444581031799316406 0 0 0 0 
2409166666.6666665077 0.195310860872268704513388115629 0.036098625510931021953542341407 -0.003694000188261270956752158057 -0.001926461467519402937648154150 0 0 0 0 
2409333333.3333334923 0.194307580590248107910156250000 0.035588338971138000488281250000 -0.003547443542629479928257607568 -0.002043399028480052947998046875 0 0 0 0 
2409500000.0000000000 0.192963004112243707854901231258 0.034649446606636047363281250000 -0.003520064754411578178405761719 -0.002067867433652282194850302588 0 0 0 0 
2409666666.6666665077 0.191993713378906305511151231258 0.033491648733615882183034528907 -0.003586348844692111015319824219 -0.002083471976220608191249228369 0 0 0 0 
2409833333.3333334923 0.190683022141456604003906250000 0.032364990562200553203542341407 -0.003551673376932740211486816406 -0.001918666763231158039690327222 0 0 0 0 
2410000000.0000000000 0.189503327012062100509481865629 0.031041122972965240478515625000 -0.003594829933717846870422363281 -0.002068495145067573027369833838 0 0 0 0 
2410166666.6666665077 0.188172057271003695388955634371 0.029609223827719688415527343750 -0.003595008049160242080688476562 -0.002007378265261650085449218750 0 0 0 0 
2410333333.3333334923 0.186894819140434292892294365629 0.028036288917064670217493826954 -0.003601860255002975897548056494 -0.002001827582716941833496093750 0 0 0 0 
2410500000.0000000000 0.185624763369560186188067518742 0.026344818994402888906458670704 -0.003666224889457225799560546875 -0.002080383244901895956752158057 0 0 0 0 
2410666666.6666665077 0.184509471058845492263955634371 0.024190444499254230154017264454 -0.003569770138710736794712685693 -0.002130392240360378785374306787 0 0 0 0 
2410833333.3333334923 0.183486089110374506194744981258 0.022220965474843978881835937500 -0.003645439166575669808628701318 -0.002190773840993642807006835938 0 0 0 0 
2411000000.0000000000 0.182449609041213989257812500000 0.019967589527368549001673514454 -0.003714109538123012022731161963 -0.002156559610739349885227822412 0 0 0 0 
2411166666.6666665077 0.181403800845146206954794365629 0.017909128218889239919642264454 -0.003770710434764624075648642432 -0.002373873721808195114135742188 0 0 0 0 
2411333333.3333334923 0.180636674165725708007812500000 0.015392364934086799621582031250 -0.004002012778073549270629882812 -0.002278926782310009002685546875 0 0 0 0 
2411500000.0000000000 0.179797619581222506424111884371 0.013089674524962900334368320898 -0.004026439506560564041137695312 -0.002212275052443147139308310400 0 0 0 0 
2411666666.6666665077 0.179325938224792508224325615629 0.010566405020654199772844883398 -0.004410691093653441342825605176 -0.002289313124492764906642294775 0 0 0 0 
2411833333.3333334923 0.178419739007949801345986884371 0.008025668561458587646484375000 -0.004650807939469814300537109375 -0.002181413583457469940185546875 0 0 0 0 
2412000000.0000000000 0.178308293223380986969317518742 0.005404665134847164154052734375 -0.004781037103384733200073242188 -0.002109554130584001974818564307 0 0 0 0 
2412166666.6666665077 0.178126305341720608810263115629 0.002825110917910933928248740088 -0.004936760757118464383597089551 -0.002230896614491939978358603369 0 0 0 0 
2412333333.3333334923 0.177969262003898592849893134371 0.000280342705082148313522338867 -0.005269070621579886350149823926 -0.002064508618786931037902832031 0 0 0 0 
2412500000.0000000000 0.178119167685508700271768134371 -0.002440686337649821801426552881 -0.005347513128072023391723632812 -0.001870902255177498080609965747 0 0 0 0 
2412666666.6666665077 0.178425520658492986481036268742 -0.005119791254401206970214843750 -0.005679891910403966903686523438 -0.001767003443092107989667582935 0 0 0 0 
2412833333.3333334923 0.178771495819091796875000000000 -0.007666821591556072235107421875 -0.005953534506261348724365234375 -0.001567192142829298973083496094 0 0 0 0 
2413000000.0000000000 0.179461658000945989410723768742 -0.010350512340664860116978829296 -0.006156556773930788040161132812 -0.001361762406304479079005576025 0 0 0 0 
2413166666.6666665077 0.180040135979652404785156250000 -0.012929058633744720113734061329 -0.006473731249570847424978925488 -0.001196025172248482921003032153 0 0 0 0 
2413333333.3333334923 0.180783703923225402832031250000 -0.015518687665462490427037423046 -0.006665576715022326383108808301 -0.000740199233405292034149169922 0 0 0 0 
2413500000.0000000000 0.181733459234237698654013115629 -0.018110936507582661020299141796 -0.006766685284674167633056640625 -0.000434587243944406509399414062 0 0 0 0 
2413666666.6666665077 0.182834774255752591232138115629 -0.020582450553774830209752266796 -0.006988008506596088409423828125 -0.000098175725725013762712478638 0 0 0 0 
2413833333.3333334923 0.183833852410316495040731865629 -0.022872043773531910287877266796 -0.007014528848230838775634765625 0.000300329731544479673534947528 0 0 0 0 
2414000000.0000000000 0.184969902038574190994424384371 -0.025226075202226638793945312500 -0.006880349945276975631713867188 0.000845027389004826654135549280 0 0 0 0 
2414166666.6666665077 0.186252191662788391113281250000 -0.027419049292802810668945312500 -0.006843632087111473083496093750 0.001225965912453830025316547925 0 0 0 0 
2414333333.3333334923 0.187587618827819796463174384371 -0.029547177255153659475306326954 -0.006750884465873241424560546875 0.001392866717651485963108681787 0 0 0 0 
2414500000.0000000000 0.188818842172622708419638115629 -0.031414616852998726581613908593 -0.006770592182874680432791425488 0.001822205958887934901593852466 0 0 0 0 
2414666666.6666665077 0.190283089876174899002236884371 -0.033240649849176406860351562500 -0.006441937293857336044311523438 0.002005452523007988929748535156 0 0 0 0 
2414833333.3333334923 0.191450595855712890625000000000 -0.034911271184682853008229841407 -0.006403710227459669113159179688 0.002365007763728498978855752100 0 0 0 0 
2415000000.0000000000 0.192939981818199213225994981258 -0.036385342478752143169362653907 -0.006235271692276000976562500000 0.002622068161144853071925497900 0 0 0 0 
2415166666.6666665077 0.194275885820388793945312500000 -0.037913393229246139526367187500 -0.005984867922961711883544921875 0.002831971971318126158473349463 0 0 0 0 
2415333333.3333334923 0.195668622851371792892294365629 -0.039145834743976593017578125000 -0.005845493171364068984985351562 0.003160158870741724967956542969 0 0 0 0 
2415500000.0000000000 0.197027519345283508300781250000 -0.040009226649999618530273437500 -0.005877778865396977338309003613 0.003285546554252504868748330225 0 0 0 0 
2415666666.6666665077 0.198419839143753107268963731258 -0.041083320975303649902343750000 -0.005557151045650243759155273438 0.003511995309963821931126259912 0 0 0 0 
2415833333.3333334923 0.199524700641632107833700615629 -0.041768286377191536640207658593 -0.005534750875085592269897460938 0.003688296535983682112452841650 0 0 0 0 
2416000000.0000000000 0.200595423579216003417968750000 -0.042520776391029357910156250000 -0.005254177376627922058105468750 0.003853621194139122962951660156 0 0 0 0 
2416166666.6666665077 0.201517581939697293380575615629 -0.043240513652563102031667341407 -0.005114126950502395629882812500 0.004056641366332769393920898438 0 0 0 0 
2416333333.3333334923 0.202544748783111600021200615629 -0.043476771563291549682617187500 -0.004987376276403666409964277051 0.004273050464689731597900390625 0 0 0 0 
2416500000.0000000000 0.203473061323165893554687500000 -0.043867297470569610595703125000 -0.004805034492164850234985351562 0.004494821652770042419433593750 0 0 0 0 
2416666666.6666665077 0.204020217061042813400106865629 -0.044241223484277732158620466407 -0.004559247754514217376708984375 0.004592142533510923385620117188 0 0 0 0 
2416833333.3333334923 0.204582288861274691482705634371 -0.044271770864725112915039062500 -0.004228845238685607910156250000 0.004858468659222126007080078125 0 0 0 0 
2417000000.0000000000 0.205028071999549893478231865629 -0.044378120452165596698801408593 -0.004004415124654769897460937500 0.005048386286944150924682617188 0 0 0 0 
2417166666.6666665077 0.205007135868072509765625000000 -0.044090736657381057739257812500 -0.003746592672541737990138388525 0.005223128013312816619873046875 0 0 0 0 
2417333333.3333334923 0.205035701394081087967080634371 -0.043900869786739349365234375000 -0.003436662489548325972316122900 0.005246177315711975097656250000 0 0 0 0 
2417500000.0000000000 0.205070316791534396072549384371 -0.043718732893466949462890625000 -0.003236315911635756926295615088 0.005381779279559850692749023438 0 0 0 0 
2417666666.6666665077 0.204904630780220003982705634371 -0.043334133923053741455078125000 -0.003045896068215370178222656250 0.005526960361748933792114257812 0 0 0 0 
2417833333.3333334923 0.204662531614303588867187500000 -0.042992308735847473144531250000 -0.002672366099432110786437988281 0.005442366469651460647583007812 0 0 0 0 
2418000000.0000000000 0.204231545329093905349893134371 -0.042597658932209021831472028907 -0.002392827067524195151088095557 0.005415588151663541793823242188 0 0 0 0 
2418166666.6666665077 0.203696981072425786774005018742 -0.042224027216434478759765625000 -0.002132022054865955872776650537 0.005348718259483575820922851562 0 0 0 0 
2418333333.3333334923 0.202942058444023104568643134371 -0.041756566613912582397460937500 -0.001825917279347776932957314600 0.005304482765495777130126953125 0 0 0 0 
2418500000.0000000000 0.202073931694030789474325615629 -0.041444182395935058593750000000 -0.001800125814042985005619668115 0.005190210416913033399100019238 0 0 0 0 
2418666666.6666665077 0.201236113905906705001669365629 -0.041177626699209213256835937500 -0.001477543031796813011169433594 0.005228893831372261047363281250 0 0 0 0 
2418833333.3333334923 0.200030252337455805022869981258 -0.040976434946060180664062500000 -0.001409486983902751965763711084 0.005221832543611527356619550488 0 0 0 0 
2419000000.0000000000 0.198743849992752102950888115629 -0.040826316922903060913085937500 -0.001013351371511816978454589844 0.005102755501866340637207031250 0 0 0 0 
2419166666.6666665077 0.197584390640258789062500000000 -0.040882192552089691162109375000 -0.000918048841413110494613647461 0.005002208985388278961181640625 0 0 0 0 
2419333333.3333334923 0.196086883544921902755575615629 -0.041102252900600433349609375000 -0.000768219644669443368911743164 0.004828658420592547330374433301 0 0 0 0 
2419500000.0000000000 0.194514796137809808929119981258 -0.041158027946949012065847028907 -0.000740131363272666931152343750 0.004771552048623561859130859375 0 0 0 0 
2419666666.6666665077 0.192792281508445711990518134371 -0.041592821478843688964843750000 -0.000630386814009398221969604492 0.004578144755214452743530273438 0 0 0 0 
2419833333.3333334923 0.191128998994827298263388115629 -0.041861541569232940673828125000 -0.000605956127401441335678100586 0.004576054867357015609741210938 0 0 0 0 
