# Hz S RI R 50
2400000000.0000000000 0.154875203967094393631143134371 0.106857180595398004729901231258 0.000271471275482326800197047101 -0.002036655088886619047877646338 0 0 0 0 
2400166666.6666665077 0.154639974236488286774005018742 0.104383744299411801437216240629 0.000068161090894136577844619751 -0.002143030986189841790440224756 0 0 0 0 
2400333333.3333334923 0.154969379305839510818643134371 0.102032765746116596550230326557 0.000178578178747557103633880615 -0.002068238332867621941807412256 0 0 0 0 
2400500000.0000000000 0.154911249876022311111611884371 0.099342867732048034667968750000 -0.000057077348174061632972171171 -0.002291305223479866981506347656 0 0 0 0 
2400666666.6666665077 0.154963850975036593338174384371 0.096799612045288085937500000000 -0.000046356184611795470118522644 -0.002250381512567400932312011719 0 0 0 0 
2400833333.3333334923 0.155097797513008089920205634371 0.093844719231128692626953125000 -0.000198890280444175004959106445 -0.002377821598201990127563476562 0 0 0 0 
2401000000.0000000000 0.155304446816444396972656250000 0.091072998940944671630859375000 -0.000208951823879033299997606821 -0.002409402281045914129969931494 0 0 0 0 
2401166666.6666665077 0.155267387628555297851562500000 0.088512279093265533447265625000 -0.000327509304042905623286646710 -0.002441180171445012092590332031 0 0 0 0 
2401333333.3333334923 0.155729517340660095214843750000 0.085732951760292053222656250000 -0.000375346222426742315292358398 -0.002319809282198547883274697412 0 0 0 0 
2401500000.0000000000 0.156120657920837402343750000000 0.082775212824344635009765625000 -0.000441145675722509622573852539 -0.002489758189767599105834960938 0 0 0 0 
2401666666.6666665077 0.156609162688255310058593750000 0.080198809504508972167968750000 -0.000606211600825190544128417969 -0.002401107223704456849339150537 0 0 0 0 
2401833333.3333334923 0.157175794243812588790731865629 0.077287286520004272460937500000 -0.000763800111599266529083251953 -0.002525037387385963959934853662 0 0 0 0 
2402000000.0000000000 0.158020213246345492263955634371 0.074508465826511383056640625000 -0.000673914735671132802963256836 -0.002501716604456305937526083838 0 0 0 0 
2402166666.6666665077 0.158717468380928011795205634371 0.072039715945720672607421875000 -0.000811643665656447410583496094 -0.002440569689497352080104208838 0 0 0 0 
2402333333.3333334923 0.159814566373825100997763115629 0.069346167147159576416015625000 -0.000853004516102373600006103516 -0.002501563169062138037440634619 0 0 0 0 
2402500000.0000000000 0.160827025771141107757244981258 0.066891968250274658203125000000 -0.001050351071171462969539023291 -0.002510630991309881210327148438 0 0 0 0 
2402666666.6666665077 0.162132620811462402343750000000 0.064489178359508514404296875000 -0.001264413353055715994593954932 -0.002476412802934647040126181494 0 0 0 0 
2402833333.3333334923 0.163473591208458002288494981258 0.062007080763578421855886091407 -0.001498389756307006099103618091 -0.002367885783314704895019531250 0 0 0 0 
2403000000.0000000000 0.164977207779884310623330634371 0.059900764375925057148020158593 -0.001458598184399306990979838794 -0.002434122376143931908848427881 0 0 0 0 
2403166666.6666665077 0.166583210229873712737713731258 0.057637646794319152832031250000 -0.001659362344071269035339355469 -0.002385428175330162048339843750 0 0 0 0 
2403333333.3333334923 0.168044447898864801604901231258 0.055548608303070068359375000000 -0.001837912714108824946759868091 -0.002283752663061023192164755713 0 0 0 0 
2403500000.0000000000 0.169846430420875604827557481258 0.053521007299423217773437500000 -0.001890056882984936020494770581 -0.002324351342394948005676269531 0 0 0 0 
2403666666.6666665077 0.171620026230812100509481865629 0.051610369235277182842214216407 -0.002075525932013988928553915869 -0.002106606960296630859375000000 0 0 0 0 
2403833333.3333334923 0.173268496990203912933026231258 0.049641896039247512817382812500 -0.002026492962613701820373535156 -0.002123675774782896041870117188 0 0 0 0 
2404000000.0000000000 0.174607723951339693924111884371 0.048022750765085220336914062500 -0.002193248597905039787292480469 -0.001964521827176212830784463037 0 0 0 0 
2404166666.6666665077 0.176577493548393305022869981258 0.046597898006439208984375000000 -0.002215618267655373053309775244 -0.001835846342146397070643759619 0 0 0 0 
2404333333.3333334923 0.178098306059837313553018134371 0.045083511620759957050363908593 -0.002343726577237247987034463037 -0.001789715606719255013706826318 0 0 0 0 
2404500000.0000000000 0.179930850863456698318643134371 0.043616034090518951416015625000 -0.002281632041558622880222939600 -0.001572217443026602051378559644 0 0 0 0 
2404666666.6666665077 0.181285068392753601074218750000 0.042637016624212271953542341407 -0.002507852856069802804234170068 -0.001683319685980678038356161963 0 0 0 0 
2404833333.3333334923 0.182977542281150790115518134371 0.041522633284330368041992187500 -0.002599694998934864997863769531 -0.001497973571531475023982382666 0 0 0 0 
2405000000.0000000000 0.184357166290283203125000000000 0.040883205831050872802734375000 -0.002586652059108018875122070312 -0.001370028592646121978759765625 0 0 0 0 
2405166666.6666665077 0.185807839035987909515057481258 0.040273122489452362060546875000 -0.002805550815537571907043457031 -0.001256749033927917914149618994 0 0 0 0 
2405333333.3333334923 0.187262579798698397537393134371 0.039657521992921829223632812500 -0.002718451665714383125305175781 -0.001213785726577043967006064307 0 0 0 0 
2405500000.0000000000 0.188453808426856994628906250000 0.039233818650245673442800153907 -0.002847051247954369024989462744 -0.001002380507998168902156210791 0 0 0 0 
2405666666.6666665077 0.189743220806121798416299384371 0.038841381669044501567800153907 -0.002936320146545767784118652344 -0.001044764183461666107177734375 0 0 0 0 
2405833333.3333334923 0.191103518009185791015625000000 0.038643535226583480834960937500 -0.002846198854967952208278036963 -0.000701779325027018785476684570 0 0 0 0 
2406000000.0000000000 0.192013472318649291992187500000 0.038454603403806693340261091407 -0.003079924499616026878356933594 -0.000406268722144886905520838605 0 0 0 0 
2406166666.6666665077 0.192988708615303011795205634371 0.038221675902605056762695312500 -0.003062112024053930802586220850 -0.000408406369388103485107421875 0 0 0 0 
2406333333.3333334923 0.193875804543495205978231865629 0.038177225738763809204101562500 -0.003143617184832692146301269531 -0.000173429507412947687223711557 0 0 0 0 
2406500000.0000000000 0.194611102342605590820312500000 0.038155656307935721660573591407 -0.003004116239026188850402832031 0.000030523624445777393203189237 0 0 0 0 
2406666666.6666665077 0.195189908146858187576455634371 0.038333401083946228027343750000 -0.003183362307026981873753213037 0.000162601572810672196462908334 0 0 0 0 
2406833333.3333334923 0.195682272315025301834268134371 0.038321174681186682964284528907 -0.003150895470753312110900878906 0.000382787169655785018771571027 0 0 0 0 
2407000000.0000000000 0.195898264646530206878338731258 0.038417346775531768798828125000 -0.002922292100265622138977050781 0.000427304650656879002421778546 0 0 0 0 
2407166666.6666665077 0.196313545107841491699218750000 0.038132581859827041625976562500 -0.002934493822976946830749511719 0.000796263222582638263702392578 0 0 0 0 
2407333333.3333334923 0.196257695555687006194744981258 0.038224224001169211650807966407 -0.002842762973159552054164267432 0.000701644574292004108428955078 0 0 0 0 
2407500000.0000000000 0.196147426962852505782919365629 0.038367878645658493041992187500 -0.002794694853946567015406943213 0.001026295940391718907597207178 0 0 0 0 
2407666666.6666665077 0.196120977401733398437500000000 0.038157612085342407226562500000 -0.002664184197783470153808593750 0.001095002982765435955644917065 0 0 0 0 
2407833333.3333334923 0.195623591542244013030682481258 0.038048412650823593139648437500 -0.002437181305140256881713867188 0.001205799751915038065669394385 0 0 0 0 
2408000000.0000000000 0.195638865232467706878338731258 0.037684909999370581890065778907 -0.002383233048021792931797646631 0.001306637655943631909014057690 0 0 0 0 
2408166666.6666665077 0.195066675543785095214843750000 0.037408936768770217895507812500 -0.002293622819706798033473349463 0.001463483320549130006077431787 0 0 0 0 
2408333333.3333334923 0.194655582308769198318643134371 0.036827117204666137695312500000 -0.002262523397803307013270712744 0.001554581802338361956952739185 0 0 0 0 
2408500000.0000000000 0.193857640027999905685263115629 0.036369912326335906982421875000 -0.002036789199337362809422158350 0.001607595011591911099077534253 0 0 0 0 
2408666666.6666665077 0.193173334002494812011718750000 0.035775050520896911621093750000 -0.001881288131698966026306152344 0.001764027751050889925715781104 0 0 0 0 
2408833333.3333334923 0.192588567733764703948651231258 0.035154737532138817523996721093 -0.001835559378378093025804829175 0.001838444150052964904187846606 0 0 0 0 
2409000000.0000000000 0.191604256629943903167401231258 0.033986765891313552856445312500 -0.001574749941937624974491738428 0.001899695605970918915392231519 0 0 0 0 
2409166666.6666665077 0.190679207444191006759481865629 0.033093053847551352764089216407 -0.001486312132328748919843364185 0.001915479777380824089050292969 0 0 0 0 
2409333333.3333334923 0.189806312322616604904013115629 0.031956560909748077392578125000 -0.001396531937643886046168661963 0.002115060342475771903991699219 0 0 0 0 
2409500000.0000000000 0.188681602478027288238848768742 0.030662376433610919607142264454 -0.001102159149013459899305034106 0.002049904083833097977879189600 0 0 0 0 
2409666666.6666665077 0.187727063894271906097088731258 0.029285117983818050729771798046 -0.001018040347844362042070698315 0.002025814261287450790405273438 0 0 0 0 
2409833333.3333334923 0.186528831720352200607138115629 0.027763593941926959646204764454 -0.000881054380442947149276733398 0.001921642920933664061902690356 0 0 0 0 
2410000000.0000000000 0.185721114277839688400106865629 0.025948693975806239736536795704 -0.000673132366500794887542724609 0.001943096518516540961024618994 0 0 0 0 
2410166666.6666665077 0.184615477919578607757244981258 0.024033300578594211233118826954 -0.000621063692960888147354125977 0.001865408848971128897425986182 0 0 0 0 
2410333333.3333334923 0.183798328042030306717080634371 0.022368043661117550241490548046 -0.000334950309479609077602940692 0.001907530706375836892368935693 0 0 0 0 
2410500000.0000000000 0.182890728116035489181356865629 0.020508119836449619638463204296 -0.000318199192406609708636683331 0.001932442537508904933929443359 0 0 0 0 
2410666666.6666665077 0.181892961263656588455361884371 0.018197035416960719717005545704 -0.000106879015220329206116260667 0.001899385359138249917271279443 0 0 0 0 
2410833333.3333334923 0.181391283869743402679119981258 0.015968678519129749643346016796 -0.000038934795156819752674510343 0.001757661229930818080902099609 0 0 0 0 
2411000000.0000000000 0.180524304509162902832031250000 0.013957462273538109170933907421 0.000131819906528107794836321420 0.001581068732775747992871928638 0 0 0 0 
2411166666.6666665077 0.180062845349311800857705634371 0.011642807163298130035400390625 0.000164748853421770009115496225 0.001575680798850954012629843604 0 0 0 0 
2411333333.3333334923 0.179447427392005892654580634371 0.009180187247693538665771484375 0.000215744352317415204927167349 0.001574592199176549911499023438 0 0 0 0 
2411500000.0000000000 0.178983509540557889083700615629 0.006673583295196294784545898438 0.000507806427776813507080078125 0.001438931445591151931165385669 0 0 0 0 
2411666666.6666665077 0.178965464234352111816406250000 0.004544635768979787826538085938 0.000456575973657891208499354230 0.001271004206500947909114218604 0 0 0 0 
2411833333.3333334923 0.178706929087638910491619981258 0.002113345311954617933986044775 0.000587408489082008600234985352 0.001211509690620004913927387769 0 0 0 0 
2412000000.0000000000 0.178727418184280395507812500000 -0.000430093903560191392898559570 0.000697342795319855213165283203 0.001145067857578397014020610278 0 0 0 0 
2412166666.6666665077 0.178997740149498013595419365629 -0.002788159297779202894923544775 0.000511715421453118324279785156 0.000727256876416504383087158203 0 0 0 0 
2412333333.3333334923 0.179137527942657498458700615629 -0.005340842995792627334594726562 0.000564586254768073558807373047 0.000664750521536916494369506836 0 0 0 0 
2412500000.0000000000 0.179495945572853088378906250000 -0.007767340168356894579415605762 0.000703915487974882125854492188 0.000629333721008151769638061523 0 0 0 0 
2412666666.6666665077 0.180039048194885309417401231258 -0.010189013555645939218541329296 0.000539821747224777936935424805 0.000472107873065397089153844012 0 0 0 0 
2412833333.3333334923 0.180789083242416409591513115629 -0.012599424459040170151680193555 0.000654034898616373538970947266 0.000333978707203641479641514911 0 0 0 0 
2413000000.0000000000 0.181495785713195800781250000000 -0.014922175556421279907226562500 0.000381790217943489605754298077 0.000210572936339303905337733136 0 0 0 0 
2413166666.6666665077 0.182399541139602688888388115629 -0.017050897702574729919433593750 0.000302232539979740977287292480 0.000072718998126219958066940308 0 0 0 0 
2413333333.3333334923 0.183229640126228304763955634371 -0.019357977434992790222167968750 0.000371389032807201201289576398 0.000116723495011683594114841600 0 0 0 0 
2413500000.0000000000 0.184101149439811706542968750000 -0.021578887477517131460169608204 0.000201294416910968693807879037 -0.000087686654296703636646270752 0 0 0 0 
2413666666.6666665077 0.185376510024070711990518134371 -0.023835513740777969360351562500 0.000141584983794018599108019418 -0.000058882149460259831767489774 0 0 0 0 
2413833333.3333334923 0.186522632837295504470986884371 -0.025800282135605808603306954296 0.000083245591667946428060531616 -0.000127656283439136987358647479 0 0 0 0 
2414000000.0000000000 0.187409281730651910979901231258 -0.027576085180044170724888985546 0.000052697389037348330020904541 -0.000167251739185303503840845929 0 0 0 0 
2414166666.6666665077 0.188772797584533691406250000000 -0.029471097514033321035364920704 0.000076189156970940530300140381 -0.000049184134695678949356079102 0 0 0 0 
2414333333.3333334923 0.189716994762420709808026231258 -0.031225701794028278696080391796 0.000065378364524804055690765381 -0.000208318844670429798677721567 0 0 0 0 
2414500000.0000000000 0.191020235419273404220419365629 -0.032575350254774086689035783593 0.000038195739762159057635853426 -0.000077738201071042567491531372 0 0 0 0 
2414666666.6666665077 0.192076057195663507659588731258 -0.034200027585029602050781250000 0.000050603754061739891767501831 -0.000108248372271191301658907480 0 0 0 0 
2414833333.3333334923 0.193194404244422912597656250000 -0.035612527281045906757395158593 -0.000187305588042363497331896371 -0.000234483144595287713125505991 0 0 0 0 
2415000000.0000000000 0.194333851337432889083700615629 -0.036646917462348937988281250000 -0.000233093538554385304450988770 -0.000151483880472369492053985596 0 0 0 0 
2415166666.6666665077 0.195364579558372497558593750000 -0.037731841206550598144531250000 -0.000287161645246669704287928448 -0.000362417194992303902476710187 0 0 0 0 
2415333333.3333334923 0.196607351303100613693075615629 -0.038648612797260277484934221093 -0.000355140160536393523216247559 -0.000276960141491144895553588867 0 0 0 0 
2415500000.0000000000 0.197616264224052401443643134371 -0.039430536329746253276784528907 -0.000421101110987365300029200421 -0.000314071163302287513583582745 0 0 0 0 
2415666666.6666665077 0.198538988828659113128338731258 -0.040305264294147491455078125000 -0.000734772474970668554306030273 -0.000426595390308648402064722882 0 0 0 0 
2415833333.3333334923 0.199405834078788812835369981258 -0.040764909237623221660573591407 -0.000690919405315071344375610352 -0.000245651172008365392684936523 0 0 0 0 
2416000000.0000000000 0.200067430734634399414062500000 -0.041283313184976577758789062500 -0.000859842519275844097137451172 -0.000257600040640681982040405273 0 0 0 0 
2416166666.6666665077 0.200818270444869995117187500000 -0.041893575340509421611745466407 -0.000854398764204233884811401367 -0.000270413089310750419467371808 0 0 0 0 
2416333333.3333334923 0.201460406184196499923544365629 -0.042076867073774337768554687500 -0.001065551885403692939160991138 -0.000068082459620200097560882568 0 0 0 0 
2416500000.0000000000 0.201944515109062194824218750000 -0.042424585670232772827148437500 -0.000964367063716053962707519531 0.000201995135284960297033032828 0 0 0 0 
2416666666.6666665077 0.202165439724922207931356865629 -0.042812682688236236572265625000 -0.001121655921451746983769082178 0.000238956243265420198440551758 0 0 0 0 
2416833333.3333334923 0.202271178364753695388955634371 -0.042752306908369057392160783593 -0.000963142665568739175796508789 0.000278140738373622298240661621 0 0 0 0 
2417000000.0000000000 0.202401354908943204025106865629 -0.042899191379547119140625000000 -0.001211914466693996949436806787 0.000444035249529406374126988544 0 0 0 0 
2417166666.6666665077 0.202163025736808804611044365629 -0.042840935289859771728515625000 -0.001127769239246845028520893628 0.000498369277920573949813842773 0 0 0 0 
2417333333.3333334923 0.201856121420860290527343750000 -0.042660214006900787353515625000 -0.001162273576483131105538393335 0.000592279247939586639404296875 0 0 0 0 
2417500000.0000000000 0.201439678668975802322549384371 -0.042744848877191536640207658593 -0.001105412608012557029724121094 0.000612984935287386178970336914 0 0 0 0 
2417666666.6666665077 0.200980499386787386795205634371 -0.042513780295848853374440778907 -0.000993795925751328468322753906 0.000646415865048766136169433594 0 0 0 0 
2417833333.3333334923 0.200591117143631009200888115629 -0.042407419532537460327148437500 -0.000990789150819182395935058594 0.000872871081810444593429565430 0 0 0 0 
2418000000.0000000000 0.199877843260765103439169365629 -0.042225483804941177368164062500 -0.000964259961619973182678222656 0.000896799378097057342529296875 0 0 0 0 
2418166666.6666665077 0.199012547731399508377236884371 -0.042098928242921829223632812500 -0.000927859626244753599166870117 0.000825679337140172719955444336 0 0 0 0 
2418333333.3333334923 0.198118180036544799804687500000 -0.042068678885698318481445312500 -0.000867962487973272800445556641 0.001021189847961067936540913159 0 0 0 0 
2418500000.0000000000 0.197014555335044888595419365629 -0.042097043246030807495117187500 -0.000702519377227872610092163086 0.000965875806286931037902832031 0 0 0 0 
2418666666.6666665077 0.196157708764076205154580634371 -0.042097277939319610595703125000 -0.000636116194073110818862915039 0.001137614250183105902430868994 0 0 0 0 
2418833333.3333334923 0.194837599992752102950888115629 -0.042181354016065597534179687500 -0.000615845492575317621231079102 0.001074659405276179096819233472 0 0 0 0 
2419000000.0000000000 0.193564981222152709960937500000 -0.042373307049274451518972028907 -0.000543016649316996335983276367 0.001133079873397945924046181787 0 0 0 0 
2419166666.6666665077 0.192311361432075500488281250000 -0.042809162288904190063476562500 -0.000456509878858923912048339844 0.001040182076394557952880859375 0 0 0 0 
2419333333.3333334923 0.190840050578117398361044365629 -0.043175991624593741680104841407 -0.000345391745213419198989868164 0.001114192302338778972625732422 0 0 0 0 
2419500000.0000000000 0.189456105232238797286825615629 -0.043643102049827582622487653907 -0.000383165111998096108436584473 0.001117066713050008036969829028 0 0 0 0 
2419666666.6666665077 0.187932968139648409744424384371 -0.044589865952730178833007812500 -0.000337359728291630690723973407 0.001056027598679065921186137622 0 0 0 0 
2419833333.3333334923 0.186279296875000000000000000000 -0.045359682291746139526367187500 -0.000291160074993968009948730469 0.001067179371602833054186176831 0 0 0 0 
