# Version 1.00
#
freq[Hz];re:Trc1_S11;im:Trc1_S11;re:Trc2_S21;im:Trc2_S21;
2.400000000000000E+009;1.691412925720215E-001;4.544941708445549E-002;-5.726565141230822E-003;-9.259345824830234E-004;
2.400166666666667E+009;1.702821105718613E-001;4.448718577623367E-002;-5.806186236441135E-003;-5.957487737759948E-004;
2.400333333333334E+009;1.710975617170334E-001;4.326016828417778E-002;-5.658186040818691E-003;-3.760521649383009E-004;
2.400500000000000E+009;1.720415949821472E-001;4.227483645081520E-002;-5.660682916641235E-003;-1.913516462082043E-005;
2.400666666666667E+009;1.727935969829559E-001;4.139680787920952E-002;-5.566562060266733E-003;4.197607922833413E-004;
2.400833333333334E+009;1.737350225448608E-001;4.049018025398254E-002;-5.507785826921463E-003;7.665571756660938E-004;
2.401000000000000E+009;1.745222657918930E-001;3.969204053282738E-002;-5.302030127495527E-003;1.074205734767020E-003;
2.401166666666667E+009;1.752811670303345E-001;3.906121104955673E-002;-5.290503613650799E-003;1.378607354126871E-003;
2.401333333333334E+009;1.759457290172577E-001;3.808060660958290E-002;-4.885228350758553E-003;1.460790634155273E-003;
2.401500000000000E+009;1.768263131380081E-001;3.753922879695892E-002;-4.945053253322840E-003;1.757696270942688E-003;
2.401666666666667E+009;1.773154586553574E-001;3.727380931377411E-002;-4.613299388438463E-003;2.016672631725669E-003;
2.401833333333334E+009;1.777482777833939E-001;3.642453998327255E-002;-4.293901380151510E-003;2.213023602962494E-003;
2.402000000000000E+009;1.779369115829468E-001;3.579546138644218E-002;-4.219220951199532E-003;2.419798402115703E-003;
2.402166666666667E+009;1.786664724349976E-001;3.517138212919235E-002;-3.823703620582819E-003;2.397108357399702E-003;
2.402333333333334E+009;1.789373457431793E-001;3.457522764801979E-002;-3.521062666550279E-003;2.637911587953568E-003;
2.402500000000000E+009;1.794584840536118E-001;3.430264443159103E-002;-3.411518409848213E-003;2.893247641623020E-003;
2.402666666666667E+009;1.794709712266922E-001;3.344099968671799E-002;-2.967588603496552E-003;2.942167222499847E-003;
2.402833333333334E+009;1.796015650033951E-001;3.297534584999085E-002;-2.676415024325252E-003;2.846637507900596E-003;
2.403000000000000E+009;1.797563880681992E-001;3.206607699394226E-002;-2.464535878971219E-003;2.929124748334289E-003;
2.403166666666667E+009;1.796364188194275E-001;3.134352341294289E-002;-2.181294839829207E-003;2.978117670863867E-003;
2.403333333333334E+009;1.796617805957794E-001;3.082599863409996E-002;-1.932461047545075E-003;2.899333368986845E-003;
2.403500000000000E+009;1.792569011449814E-001;2.984407544136047E-002;-1.840724726207554E-003;2.638149075210095E-003;
2.403666666666667E+009;1.789886951446533E-001;2.862985618412495E-002;-1.441538566723466E-003;2.410264220088720E-003;
2.403833333333334E+009;1.789510995149612E-001;2.770378813147545E-002;-1.366408308967948E-003;2.456565387547016E-003;
2.404000000000000E+009;1.786718815565109E-001;2.668318711221218E-002;-1.322691678069532E-003;2.035339362919331E-003;
2.404166666666667E+009;1.782291233539581E-001;2.547900192439556E-002;-9.839716367423534E-004;2.017103834077716E-003;
2.404333333333334E+009;1.777347028255463E-001;2.440367452800274E-002;-9.135630680248141E-004;1.794983283616602E-003;
2.404500000000000E+009;1.771929115056992E-001;2.284928783774376E-002;-9.185847593471408E-004;1.510792295448482E-003;
2.404666666666667E+009;1.767903566360474E-001;2.171389944851399E-002;-8.490961045026779E-004;1.375942258164287E-003;
2.404833333333334E+009;1.762857884168625E-001;2.023718692362309E-002;-9.766626171767712E-004;1.145084388554096E-003;
2.405000000000000E+009;1.756988614797592E-001;1.872327923774719E-002;-1.028553815558553E-003;1.046773628331721E-003;
2.405166666666667E+009;1.752900630235672E-001;1.725779287517071E-002;-1.063263276591897E-003;1.082075643353164E-003;
2.405333333333334E+009;1.748044639825821E-001;1.544944662600756E-002;-1.176048419438303E-003;7.352689863182604E-004;
2.405500000000000E+009;1.744447648525238E-001;1.399183645844460E-002;-1.264072838239372E-003;6.652805604971945E-004;
2.405666666666667E+009;1.740846335887909E-001;1.205525826662779E-002;-1.443877117708325E-003;5.555305397138000E-004;
2.405833333333334E+009;1.734179258346558E-001;1.050128508359194E-002;-1.553724636323750E-003;3.953416307922453E-004;
2.406000000000000E+009;1.733042299747467E-001;8.580586872994900E-003;-1.720595173537731E-003;4.947450943291187E-004;
2.406166666666667E+009;1.728570610284805E-001;6.646714638918638E-003;-1.971584279090166E-003;4.570960009004921E-004;
2.406333333333334E+009;1.729016155004501E-001;4.775629378855228E-003;-2.101757330819964E-003;5.173110985197127E-004;
2.406500000000000E+009;1.725600659847260E-001;2.605376997962594E-003;-2.475229091942310E-003;3.447908966336399E-004;
2.406666666666667E+009;1.721490472555161E-001;6.458943244069815E-004;-2.592628821730614E-003;5.825715488754213E-004;
2.406833333333334E+009;1.722555905580521E-001;-1.318889553658664E-003;-2.721888944506645E-003;5.646020290441811E-004;
2.407000000000000E+009;1.723444610834122E-001;-3.391663078218699E-003;-3.032502252608538E-003;7.994767511263490E-004;
2.407166666666667E+009;1.724940091371536E-001;-5.356730427592993E-003;-3.089477075263858E-003;1.078507746569812E-003;
2.407333333333334E+009;1.724969446659088E-001;-7.654923014342785E-003;-3.209116170182824E-003;1.289272448047996E-003;
2.407500000000000E+009;1.727036535739899E-001;-9.530060924589634E-003;-3.514542244374752E-003;1.332727726548910E-003;
2.407666666666667E+009;1.729356050491333E-001;-1.154011487960815E-002;-3.653440391644836E-003;1.741564599797130E-003;
2.407833333333334E+009;1.731373220682144E-001;-1.380886603146792E-002;-3.628131700679660E-003;1.873920904472470E-003;
2.408000000000000E+009;1.734130084514618E-001;-1.588866859674454E-002;-3.706848714500666E-003;2.287119161337614E-003;
2.408166666666667E+009;1.738836765289307E-001;-1.770938560366631E-002;-3.718016669154167E-003;2.611476229503751E-003;
2.408333333333334E+009;1.744663119316101E-001;-1.962443813681603E-002;-3.628170117735863E-003;2.764654578641057E-003;
2.408500000000000E+009;1.747852116823196E-001;-2.162648737430573E-002;-3.520879428833723E-003;3.043956588953733E-003;
2.408666666666667E+009;1.752118766307831E-001;-2.348837442696095E-002;-3.498919075354934E-003;3.608523635193706E-003;
2.408833333333334E+009;1.754429191350937E-001;-2.515908516943455E-002;-3.361253067851067E-003;3.737658495083451E-003;
2.409000000000000E+009;1.758693754673004E-001;-2.680586650967598E-002;-3.156663849949837E-003;3.995413891971111E-003;
2.409166666666667E+009;1.764195561408997E-001;-2.825506404042244E-002;-2.991745015606284E-003;4.309236072003841E-003;
2.409333333333334E+009;1.770508736371994E-001;-2.986099384725094E-002;-2.734989626333118E-003;4.626413807272911E-003;
2.409500000000000E+009;1.774562299251556E-001;-3.111225552856922E-002;-2.401566132903099E-003;4.880804102867842E-003;
2.409666666666667E+009;1.778187304735184E-001;-3.234657272696495E-002;-2.181106712669134E-003;5.177248734980822E-003;
2.409833333333334E+009;1.784014701843262E-001;-3.344279527664185E-002;-2.062075072899461E-003;5.110008642077446E-003;
2.410000000000000E+009;1.788868606090546E-001;-3.443787992000580E-002;-1.740167383104563E-003;5.334911867976189E-003;
2.410166666666667E+009;1.795279383659363E-001;-3.539046645164490E-002;-1.270404667593539E-003;5.345579702407122E-003;
2.410333333333334E+009;1.797789335250855E-001;-3.628265857696533E-002;-1.018116949126124E-003;5.676220636814833E-003;
2.410500000000000E+009;1.802381873130798E-001;-3.706790506839752E-002;-5.820483784191310E-004;5.629669409245253E-003;
2.410666666666667E+009;1.807080209255219E-001;-3.795184567570686E-002;-2.822186506818980E-004;5.788804031908512E-003;
2.410833333333334E+009;1.809778511524200E-001;-3.847340866923332E-002;2.747807229752652E-005;5.704221781343222E-003;
2.411000000000000E+009;1.815045624971390E-001;-3.899505734443665E-002;2.526247117202729E-004;5.666432436555624E-003;
2.411166666666667E+009;1.814499646425247E-001;-3.968278691172600E-002;6.856720428913832E-004;5.741287488490343E-003;
2.411333333333334E+009;1.818723678588867E-001;-4.026741161942482E-002;9.733813931234181E-004;5.731817334890366E-003;
2.411500000000000E+009;1.817686855792999E-001;-4.084829986095429E-002;1.540241762995720E-003;5.464869551360607E-003;
2.411666666666667E+009;1.820104122161865E-001;-4.115872085094452E-002;1.707419403828681E-003;5.299251992255449E-003;
2.411833333333334E+009;1.820833981037140E-001;-4.163359478116036E-002;1.919962931424379E-003;5.062684416770935E-003;
2.412000000000000E+009;1.818406730890274E-001;-4.203860089182854E-002;2.224183175712824E-003;5.059356801211834E-003;
2.412166666666667E+009;1.815206855535507E-001;-4.234671965241432E-002;2.466756850481033E-003;4.679384641349316E-003;
2.412333333333334E+009;1.812483221292496E-001;-4.252490773797035E-002;2.777451416477561E-003;4.483688622713089E-003;
2.412500000000000E+009;1.806657165288925E-001;-4.302782192826271E-002;2.966687781736255E-003;4.244847223162651E-003;
2.412666666666667E+009;1.801780164241791E-001;-4.360012710094452E-002;3.061018418520689E-003;3.975377418100834E-003;
2.412833333333334E+009;1.795049905776978E-001;-4.394599422812462E-002;3.107035765424371E-003;3.785833250731230E-003;
2.413000000000000E+009;1.788510978221893E-001;-4.413027316331863E-002;3.266579471528530E-003;3.636890091001988E-003;
2.413166666666667E+009;1.778762638568878E-001;-4.457876831293106E-002;3.305267775431275E-003;3.276640316471458E-003;
2.413333333333334E+009;1.768908649682999E-001;-4.505763575434685E-002;3.340079681947827E-003;2.972695743665099E-003;
2.413500000000000E+009;1.760191470384598E-001;-4.565660655498505E-002;3.262842772528529E-003;2.665104111656547E-003;
2.413666666666667E+009;1.750221699476242E-001;-4.623400047421455E-002;3.335724119096994E-003;2.677892567589879E-003;
2.413833333333334E+009;1.739207804203033E-001;-4.666556045413017E-002;3.248423570767045E-003;2.510986989364028E-003;
2.414000000000000E+009;1.728373318910599E-001;-4.755134880542755E-002;3.110712394118309E-003;2.276317449286580E-003;
2.414166666666667E+009;1.717028319835663E-001;-4.814304783940315E-002;2.985325176268816E-003;2.190781990066171E-003;
2.414333333333334E+009;1.703170388936997E-001;-4.892714321613312E-002;3.197639947757125E-003;2.067456021904945E-003;
2.414500000000000E+009;1.694208383560181E-001;-4.967729374766350E-002;3.048801561817527E-003;1.913557527586818E-003;
2.414666666666667E+009;1.681952029466629E-001;-5.061035603284836E-002;2.977241296321154E-003;1.824946724809706E-003;
2.414833333333334E+009;1.668044030666351E-001;-5.183800309896469E-002;2.990782028064132E-003;1.702998299151659E-003;
2.415000000000000E+009;1.656058281660080E-001;-5.265590175986290E-002;2.891505835577846E-003;1.718862215057015E-003;
2.415166666666667E+009;1.644177436828613E-001;-5.411652103066444E-002;2.869796939194202E-003;1.847272505983710E-003;
2.415333333333334E+009;1.633475720882416E-001;-5.533479899168015E-002;2.904072403907776E-003;1.628495054319501E-003;
2.415500000000000E+009;1.620749980211258E-001;-5.665944144129753E-002;2.888619434088469E-003;1.669869991019368E-003;
2.415666666666667E+009;1.609561741352081E-001;-5.797557532787323E-002;2.866963623091579E-003;1.586940139532089E-003;
2.415833333333334E+009;1.598847061395645E-001;-5.966629087924957E-002;3.038441529497504E-003;1.552597852423787E-003;
2.416000000000000E+009;1.587617397308350E-001;-6.139720231294632E-002;2.987413201481104E-003;1.441164757125080E-003;
2.416166666666667E+009;1.579432338476181E-001;-6.301774084568024E-002;2.854584716260433E-003;1.413760590367019E-003;
2.416333333333334E+009;1.567955017089844E-001;-6.469069421291351E-002;2.990842331200838E-003;1.369795645587146E-003;
2.416500000000000E+009;1.559179574251175E-001;-6.661033630371094E-002;2.956693992018700E-003;1.261931960470974E-003;
2.416666666666667E+009;1.549509763717651E-001;-6.843305379152298E-002;3.019127063453198E-003;1.142632565461099E-003;
2.416833333333334E+009;1.541824638843536E-001;-7.042571157217026E-002;2.850910881534219E-003;1.307427533902228E-003;
2.417000000000000E+009;1.533163934946060E-001;-7.233151793479919E-002;3.003822639584541E-003;1.145976944826543E-003;
2.417166666666667E+009;1.527245342731476E-001;-7.413968443870544E-002;2.940581645816565E-003;1.061177579686046E-003;
2.417333333333334E+009;1.521540433168411E-001;-7.609243690967560E-002;3.037728136405349E-003;1.192691735923290E-003;
2.417500000000000E+009;1.514698565006256E-001;-7.808726280927658E-002;2.886077156290412E-003;1.121894689276815E-003;
2.417666666666667E+009;1.510600894689560E-001;-7.983823120594025E-002;2.935399767011404E-003;9.846184402704239E-004;
2.417833333333334E+009;1.506117582321167E-001;-8.165216445922852E-002;2.940484089776874E-003;1.002988428808749E-003;
2.418000000000000E+009;1.501625776290894E-001;-8.356092870235443E-002;2.993848873302341E-003;1.021154224872589E-003;
2.418166666666667E+009;1.498352885246277E-001;-8.515037596225739E-002;2.988693071529269E-003;1.069211866706610E-003;
2.418333333333334E+009;1.499163061380386E-001;-8.687576651573181E-002;2.863328205421567E-003;1.020642812363803E-003;
2.418500000000000E+009;1.495398730039597E-001;-8.856806904077530E-002;3.112765029072762E-003;1.062826486304402E-003;
2.418666666666667E+009;1.496115624904633E-001;-8.999474346637726E-002;3.039728384464979E-003;1.038443995639682E-003;
2.418833333333334E+009;1.494166702032089E-001;-9.148960560560226E-002;3.000148339197040E-003;1.253075199201703E-003;
2.419000000000000E+009;1.493331044912338E-001;-9.276053309440613E-002;3.195851342752576E-003;1.118852989748120E-003;
2.419166666666667E+009;1.494170129299164E-001;-9.416655451059341E-002;3.390226513147354E-003;1.258405623957515E-003;
2.419333333333334E+009;1.493269205093384E-001;-9.507504850625992E-002;3.627114230766892E-003;1.204242231324315E-003;
2.419500000000000E+009;1.496524363756180E-001;-9.642051160335541E-002;3.803040599450469E-003;1.221369020640850E-003;
2.419666666666667E+009;1.498285233974457E-001;-9.727512300014496E-002;3.939649555832148E-003;1.110929879359901E-003;
2.419833333333334E+009;1.498910486698151E-001;-9.796294569969177E-002;4.071211908012629E-003;9.980567265301943E-004;
2.420000000000000E+009;1.502938121557236E-001;-9.864271432161331E-002;4.196028225123882E-003;9.096789290197194E-004;
2.420166666666667E+009;1.504374891519547E-001;-9.929857403039932E-002;4.522670060396195E-003;7.843733183108270E-004;
2.420333333333334E+009;1.507358402013779E-001;-9.969025105237961E-002;4.689530935138464E-003;7.506750989705324E-004;
2.420500000000000E+009;1.511799842119217E-001;-9.984240680932999E-002;4.769011866301298E-003;5.125639145262539E-004;
2.420666666666667E+009;1.512604653835297E-001;-1.002583429217339E-001;5.120193585753441E-003;3.700592787936330E-004;
2.420833333333334E+009;1.514600664377213E-001;-1.004800722002983E-001;5.283998325467110E-003;6.312558980425820E-005;
2.421000000000000E+009;1.515846252441406E-001;-1.006360501050949E-001;5.409208592027426E-003;-8.787117258179933E-005;
2.421166666666667E+009;1.519105881452560E-001;-1.005694493651390E-001;5.686522927135229E-003;-4.540960653685033E-004;
2.421333333333334E+009;1.520169973373413E-001;-1.006033197045326E-001;5.760056897997856E-003;-7.387252408079803E-004;
2.421500000000000E+009;1.520485579967499E-001;-1.003548800945282E-001;5.994705483317375E-003;-1.108463620766997E-003;
2.421666666666667E+009;1.522008478641510E-001;-1.001964285969734E-001;6.066851317882538E-003;-1.353050582110882E-003;
2.421833333333334E+009;1.520825773477554E-001;-9.995828568935394E-002;6.013492122292519E-003;-1.648655510507524E-003;
2.422000000000000E+009;1.518517732620239E-001;-9.980387985706329E-002;6.140713114291430E-003;-2.169000450521708E-003;
2.422166666666667E+009;1.515439301729202E-001;-9.961970150470734E-002;6.028831936419010E-003;-2.546189352869988E-003;
2.422333333333334E+009;1.514289677143097E-001;-9.922976046800613E-002;6.122524850070477E-003;-2.980282297357917E-003;
2.422500000000000E+009;1.508069485425949E-001;-9.875825792551041E-002;5.985454656183720E-003;-3.452167846262455E-003;
2.422666666666667E+009;1.501398086547852E-001;-9.849718213081360E-002;5.775004625320435E-003;-3.955414984375238E-003;
2.422833333333334E+009;1.496186405420303E-001;-9.823928028345108E-002;5.663008429110050E-003;-4.549210425466299E-003;
2.423000000000000E+009;1.489420384168625E-001;-9.789117425680161E-002;5.309347528964281E-003;-4.948002286255360E-003;
2.423166666666667E+009;1.481316685676575E-001;-9.748328477144241E-002;5.036251619458199E-003;-5.156828556209803E-003;
2.423333333333334E+009;1.472423821687698E-001;-9.716707468032837E-002;4.820270929485560E-003;-5.639773327857256E-003;
2.423500000000000E+009;1.461162120103836E-001;-9.694484621286392E-002;4.327715840190649E-003;-5.893338937312365E-003;
2.423666666666667E+009;1.447914540767670E-001;-9.673011302947998E-002;3.921969793736935E-003;-6.332118529826403E-003;
2.423833333333334E+009;1.437836587429047E-001;-9.649083763360977E-002;3.621169133111835E-003;-6.561615038663149E-003;
2.424000000000000E+009;1.425402909517288E-001;-9.607800096273422E-002;3.063752083107829E-003;-6.667513865977526E-003;
2.424166666666667E+009;1.410798579454422E-001;-9.617168456315994E-002;2.474938752129674E-003;-6.712000351399183E-003;
2.424333333333334E+009;1.399485766887665E-001;-9.595414251089096E-002;2.108040032908320E-003;-6.942749489098787E-003;
2.424500000000000E+009;1.384736448526382E-001;-9.607565402984619E-002;1.570302410982549E-003;-6.884486880153418E-003;
2.424666666666667E+009;1.371124237775803E-001;-9.586618840694428E-002;1.157087972387672E-003;-7.115850690752268E-003;
2.424833333333334E+009;1.354971975088120E-001;-9.633610397577286E-002;7.182674598880112E-004;-7.130507379770279E-003;
2.425000000000000E+009;1.341113150119782E-001;-9.658128768205643E-002;1.565964776091278E-004;-6.975198630243540E-003;
2.425166666666667E+009;1.325022727251053E-001;-9.700766205787659E-002;-2.829497389029712E-004;-6.671409588307142E-003;
2.425333333333334E+009;1.309498697519302E-001;-9.744607657194138E-002;-6.781159318052232E-004;-6.606787443161011E-003;
2.425500000000000E+009;1.296675950288773E-001;-9.813883155584335E-002;-9.402792784385383E-004;-6.366353016346693E-003;
2.425666666666667E+009;1.281378269195557E-001;-9.899196773767471E-002;-1.331770909018815E-003;-5.989206023514271E-003;
2.425833333333334E+009;1.266920417547226E-001;-9.982753545045853E-002;-1.635362161323428E-003;-5.876259878277779E-003;
2.426000000000000E+009;1.253011971712112E-001;-1.009128093719482E-001;-1.940382411703467E-003;-5.512311588972807E-003;
2.426166666666667E+009;1.240917593240738E-001;-1.019436195492744E-001;-2.134629059582949E-003;-5.311639048159123E-003;
2.426333333333334E+009;1.226824149489403E-001;-1.031921654939652E-001;-2.436717972159386E-003;-5.092321429401636E-003;
2.426500000000000E+009;1.215315237641335E-001;-1.043087244033814E-001;-2.549553755670786E-003;-4.818656481802464E-003;
2.426666666666667E+009;1.204839721322060E-001;-1.055782958865166E-001;-2.750851679593325E-003;-4.312004894018173E-003;
2.426833333333334E+009;1.192568838596344E-001;-1.071936562657356E-001;-2.733552362769842E-003;-4.019568208605051E-003;
2.427000000000000E+009;1.182163208723068E-001;-1.087689176201820E-001;-2.790394704788923E-003;-3.804284147918224E-003;
2.427166666666667E+009;1.172647923231125E-001;-1.102411746978760E-001;-2.745230682194233E-003;-3.648844081908464E-003;
2.427333333333334E+009;1.162110120058060E-001;-1.120426729321480E-001;-2.744359662756324E-003;-3.154743229970336E-003;
2.427500000000000E+009;1.156519725918770E-001;-1.137177199125290E-001;-2.757377456873655E-003;-2.934765536338091E-003;
2.427666666666667E+009;1.148476526141167E-001;-1.154425293207169E-001;-2.774569671601057E-003;-2.876518061384559E-003;
2.427833333333334E+009;1.140698790550232E-001;-1.171628534793854E-001;-2.652947092428803E-003;-2.719610929489136E-003;
