# Hz S RI R 
2400000000.0000000000 0.154978320002555902679119981258 0.106559172272682203819194057814 -0.003720109350979328155517578125 -0.001317979069426655986188579028 0 0 0 0 
2400166666.6666665077 0.154730424284934997558593750000 0.104145094752311706542968750000 -0.003720792708918451829197548975 -0.001141502871178091006038046729 0 0 0 0 
2400333333.3333334923 0.154970243573188809493856865629 0.101972363889217404464559990629 -0.003543020458891987800598144531 -0.000988268526270985603332519531 0 0 0 0 
2400500000.0000000000 0.154923915863037109375000000000 0.099466405808925628662109375000 -0.003496235236525536017176962744 -0.000656632764730602502822875977 0 0 0 0 
2400666666.6666665077 0.154988273978233309646768134371 0.096412800252437591552734375000 -0.003939067013561725616455078125 -0.000678239797707647085189819336 0 0 0 0 
2400833333.3333334923 0.155194059014320401290731865629 0.093987531960010528564453125000 -0.003190775867551565170288085938 -0.001117282197810709910151816260 0 0 0 0 
2401000000.0000000000 0.155171126127242986481036268742 0.091000862419605255126953125000 -0.003544039325788617134094238281 -0.000437745184171944910853785382 0 0 0 0 
2401166666.6666665077 0.155301228165626498123330634371 0.088549338281154632568359375000 -0.002979577984660863876342773438 -0.000615748227573931217193603516 0 0 0 0 
2401333333.3333334923 0.155714690685272189041299384371 0.085473619401454925537109375000 -0.003976593259721994400024414062 -0.000257704494288191199302673340 0 0 0 0 
2401500000.0000000000 0.156149759888648986816406250000 0.082833819091320037841796875000 -0.003081226255744696097133017432 -0.000449523591669276410907191144 0 0 0 0 
2401666666.6666665077 0.156572371721267700195312500000 0.079999044537544250488281250000 -0.003472936106845736937281943213 -0.000263746624113991910785120831 0 0 0 0 
2401833333.3333334923 0.157426908612251309493856865629 0.077021732926368713378906250000 -0.004055727738887071609497070312 -0.000401366560254245996475219727 0 0 0 0 
2402000000.0000000000 0.157814472913742093185263115629 0.074258252978324890136718750000 -0.003776601282879710197448730469 0.000255028106039390022128504620 0 0 0 0 
2402166666.6666665077 0.159006178379058810135049384371 0.071990661323070526123046875000 -0.003598398296162486076354980469 -0.000147539438330568400308331900 0 0 0 0 
2402333333.3333334923 0.159810960292816189864950615629 0.069205798208713531494140625000 -0.003628843231126666069030761719 -0.000087036496552173048257827759 0 0 0 0 
2402500000.0000000000 0.161043286323547391036825615629 0.066850349307060241699218750000 -0.003471815492957829995396279443 -0.000048731464630691341381480558 0 0 0 0 
2402666666.6666665077 0.162104234099388094803018134371 0.064328067004680633544921875000 -0.003694556653499602837803506006 0.000131676337332464808791560040 0 0 0 0 
2402833333.3333334923 0.163594797253608703613281250000 0.062107946723699569702148437500 -0.003395426785573362870457314600 0.000087414831796195358037948608 0 0 0 0 
2403000000.0000000000 0.165127798914909390548544365629 0.059879772365093231201171875000 -0.003693403443321586088893271338 0.000155603062012232812956133432 0 0 0 0 
2403166666.6666665077 0.166607558727264404296875000000 0.057534269988536841655690778907 -0.003774497425183653831481933594 0.000288647279376164078712463379 0 0 0 0 
2403333333.3333334923 0.168261066079139709472656250000 0.055406484752893447875976562500 -0.003726102411746979193446493994 0.000444681703811511397361755371 0 0 0 0 
2403500000.0000000000 0.169804930686950711349325615629 0.053288184106349952007253278907 -0.003636156208813190893885947119 0.000669941946398466825485229492 0 0 0 0 
2403666666.6666665077 0.171441167593002291580361884371 0.051480602473020546649973283593 -0.003799220314249395890476845850 0.000837932573631405830383300781 0 0 0 0 
2403833333.3333334923 0.173260048031807001311932481258 0.049766201525926589965820312500 -0.003837799886241555213928222656 0.000705066893715411424636840820 0 0 0 0 
2404000000.0000000000 0.174683377146720886230468750000 0.047924503684043877338449846093 -0.003849292639642953872680664062 0.001104216440580785057665180737 0 0 0 0 
2404166666.6666665077 0.176571562886238098144531250000 0.046408530324697501445729841407 -0.003645395860075951056239462744 0.001083075185306370041490864331 0 0 0 0 
2404333333.3333334923 0.178088501095771789550781250000 0.044789429754018776630442033593 -0.003637659596279263930079794775 0.001357214525341988043544150244 0 0 0 0 
2404500000.0000000000 0.179811254143714904785156250000 0.043453447520732879638671875000 -0.003516512224450707001927041162 0.001612268621101975007298134912 0 0 0 0 
2404666666.6666665077 0.181411042809486389160156250000 0.042457785457372672344167341407 -0.003389813005924224853515625000 0.001821714802645147063611674731 0 0 0 0 
2404833333.3333334923 0.182893067598342895507812500000 0.041521061211824417114257812500 -0.003196643898263574080226279150 0.001964647555723785920384072412 0 0 0 0 
2405000000.0000000000 0.184169113636016901214276231258 0.040631506592035286640207658593 -0.003193024545907973809483193506 0.001877521397545933940290141528 0 0 0 0 
2405166666.6666665077 0.185742601752281188964843750000 0.040041971951723098754882812500 -0.003093699226155877113342285156 0.002125995932146906852722167969 0 0 0 0 
2405333333.3333334923 0.187145128846168490310830634371 0.039569288492202758789062500000 -0.003073137253522872924804687500 0.001963573973625897927525185693 0 0 0 0 
2405500000.0000000000 0.188570708036422701736611884371 0.038940001279115676879882812500 -0.002938912482932209968566894531 0.002121069468557835058925009619 0 0 0 0 
2405666666.6666665077 0.189730867743492098709268134371 0.038705293089151382446289062500 -0.002803749637678266005275107275 0.002175226807594298882725381006 0 0 0 0 
2405833333.3333334923 0.190867602825164794921875000000 0.038532055914402008056640625000 -0.002711804118007421927211142432 0.002161661628633737997767783057 0 0 0 0 
2406000000.0000000000 0.191907480359077509124432481258 0.038177713751792907714843750000 -0.002541905036196113066432333838 0.002260250272229313850402832031 0 0 0 0 
2406166666.6666665077 0.192941948771476801116619981258 0.037962533533573150634765625000 -0.002552394755184649987461709131 0.002169970422983169989344931494 0 0 0 0 
2406333333.3333334923 0.193783551454544095138388115629 0.038023117929697036743164062500 -0.002423257566988468170166015625 0.002199221402406692938563681494 0 0 0 0 
2406500000.0000000000 0.194468066096305902679119981258 0.037887450307607650756835937500 -0.002351441420614718957188271631 0.002190246479585766792297363281 0 0 0 0 
2406666666.6666665077 0.195117443799972506424111884371 0.038070481270551681518554687500 -0.002383313141763209862949990381 0.002279240638017653985264443506 0 0 0 0 
2406833333.3333334923 0.195564031600952203948651231258 0.037911534309387207031250000000 -0.002264425158500670953037881006 0.002118137897923589186427451025 0 0 0 0 
2407000000.0000000000 0.195869609713554410079794365629 0.038140006363391883159597028907 -0.002214787527918816046473837744 0.002279174514114857153651572119 0 0 0 0 
2407166666.6666665077 0.196229994297027587890625000000 0.037930097430944442749023437500 -0.002389233326539396806004189600 0.002238122513517736954929970850 0 0 0 0 
2407333333.3333334923 0.196094930171966608245526231258 0.038001790642738342285156250000 -0.002283570356667042212245322119 0.002245622454211115837097167969 0 0 0 0 
2407500000.0000000000 0.196058228611946105957031250000 0.038033552467823028564453125000 -0.002343761501833796934840536963 0.002366105560213326974156045068 0 0 0 0 
2407666666.6666665077 0.196045801043510409256143134371 0.037946511059999472881276716407 -0.002220936818048357963562011719 0.002437754068523644967320107568 0 0 0 0 
2407833333.3333334923 0.195659458637237604339276231258 0.037841297686100013042409528907 -0.002053718315437436103820800781 0.002549681579694151878356933594 0 0 0 0 
2408000000.0000000000 0.195500001311302212814169365629 0.037612400949001312255859375000 -0.002188951941207050843479775537 0.002512264298275113105773925781 0 0 0 0 
2408166666.6666665077 0.194815501570701599121093750000 0.037227526307106018066406250000 -0.002249263459816575050354003906 0.002666826592758297920227050781 0 0 0 0 
2408333333.3333334923 0.194385975599288912674111884371 0.036763072013854980468750000000 -0.002035809680819510979893349756 0.002659961115568875832798623193 0 0 0 0 
2408500000.0000000000 0.193618193268775912185830634371 0.036196451634168631816823591407 -0.002194377128034830093383789062 0.002733724191784859137294150244 0 0 0 0 
2408666666.6666665077 0.193033039569854708572549384371 0.035690370947122566913645158593 -0.002041155239567161040065146338 0.002783495932817459106445312500 0 0 0 0 
2408833333.3333334923 0.192319482564926202972088731258 0.035069894045591347431223283593 -0.002065842738375068144557333838 0.002753279870375990867614746094 0 0 0 0 
2409000000.0000000000 0.191335305571556091308593750000 0.034076526761054992675781250000 -0.002141607692465186119079589844 0.002864266978576778931858681787 0 0 0 0 
2409166666.6666665077 0.190536826848983792404013115629 0.033106885850429541851003278907 -0.002137741539627314047572470557 0.002940813079476356940028525244 0 0 0 0 
2409333333.3333334923 0.189590796828269986251669365629 0.031984630972146987915039062500 -0.002151916967704892158508300781 0.002994317561388016180751181494 0 0 0 0 
2409500000.0000000000 0.188580408692359896560830634371 0.030708862468600269662877266796 -0.002157204551622271971461630713 0.003238727338612080054042197119 0 0 0 0 
2409666666.6666665077 0.187627092003822298904580634371 0.029257258400321010244349295704 -0.001974290004000068144557333838 0.003333402331918478012084960938 0 0 0 0 
2409833333.3333334923 0.186442345380783108810263115629 0.027800530195236209524134451954 -0.002056860830634831948521279443 0.003391562961041926903965615381 0 0 0 0 
2410000000.0000000000 0.185564085841178894042968750000 0.026110472157597538339635079296 -0.001879987888969480991363525391 0.003590889973565936088562011719 0 0 0 0 
2410166666.6666665077 0.184725299477577209472656250000 0.024188529700040820730189139454 -0.001765046385116874954820942456 0.003691719844937324957606650244 0 0 0 0 
2410333333.3333334923 0.183723494410514803787393134371 0.022471999749541279184361641796 -0.001634779851883650042890239185 0.003899380564689635796787881006 0 0 0 0 
2410500000.0000000000 0.182716548442840603927450615629 0.020549604669213298452357108204 -0.001575094065628946044324565356 0.004170623607933521270751953125 0 0 0 0 
2410666666.6666665077 0.181791752576828002929687500000 0.018326159566640850412388985546 -0.001374523621052504019496298682 0.003971268888562917709350585938 0 0 0 0 
2410833333.3333334923 0.181378573179244995117187500000 0.015940781682729721069335937500 -0.001094626029953360991237021338 0.004253185819834470748901367188 0 0 0 0 
2411000000.0000000000 0.180464714765548706054687500000 0.013926262967288490640660469921 -0.000986812869086861610412597656 0.004221851471811532974243164062 0 0 0 0 
2411166666.6666665077 0.180000141263008089920205634371 0.011702291667461400467842302930 -0.000891739968210458755493164062 0.004356543999165297421927167676 0 0 0 0 
2411333333.3333334923 0.179556354880333002288494981258 0.009108304046094417572021484375 -0.000609721755608916282653808594 0.004442540463060140609741210938 0 0 0 0 
2411500000.0000000000 0.178981125354766901214276231258 0.006842457689344882965087890625 -0.000314439268549904173046666278 0.004412207286804915341849042676 0 0 0 0 
2411666666.6666665077 0.178837433457374600509481865629 0.004332477226853370666503906250 -0.000192589228390715989187517709 0.004367397632449865341186523438 0 0 0 0 
2411833333.3333334923 0.178465098142623901367187500000 0.002063876949250698089599609375 0.000028236925572855401447023085 0.004359727259725332260131835938 0 0 0 0 
2412000000.0000000000 0.178620323538780212402343750000 -0.000525415700394660234451293945 0.000206696204259060296133318491 0.004343845881521701812744140625 0 0 0 0 
2412166666.6666665077 0.178701326251029996017294365629 -0.002718575298786162896397256006 0.000288404262391850406497401105 0.004423237871378660202026367188 0 0 0 0 
2412333333.3333334923 0.179015934467315701583700615629 -0.005498303100466728210449218750 0.000565371417906135320663452148 0.004320248030126094818115234375 0 0 0 0 
2412500000.0000000000 0.179492622613906888107138115629 -0.007719814311712980270385742188 0.000576382328290492296218872070 0.004322189372032880783081054688 0 0 0 0 
2412666666.6666665077 0.179899707436561612228231865629 -0.010141149163246159989326677930 0.000854357727803289890289306641 0.004369158763438463211059570312 0 0 0 0 
2412833333.3333334923 0.180547967553138705154580634371 -0.012641967274248600006103515625 0.000891216273885220289230346680 0.004112749360501766204833984375 0 0 0 0 
2413000000.0000000000 0.181324169039726312835369981258 -0.014869873411953449249267578125 0.001020791358314454989192343604 0.004122369922697544097900390625 0 0 0 0 
2413166666.6666665077 0.181964889168739291092080634371 -0.017107160761952400207519531250 0.001096764579415320916416787256 0.003888720879331231117248535156 0 0 0 0 
2413333333.3333334923 0.183083906769752502441406250000 -0.019354082643985748291015625000 0.001254330622032284953473735278 0.003935121465474367141723632812 0 0 0 0 
2413500000.0000000000 0.183997333049774197677450615629 -0.021656531840562820434570312500 0.001310788094997406005859375000 0.004000390414148569107055664062 0 0 0 0 
2413666666.6666665077 0.185130864381790188888388115629 -0.023752473294734958303431326954 0.001587659004144370989558554541 0.003892224980518221855163574219 0 0 0 0 
2413833333.3333334923 0.186362862586975097656250000000 -0.025643508881330490112304687500 0.001610013307072222015978169019 0.003763626795262097878697060693 0 0 0 0 
2414000000.0000000000 0.187396660447120694259481865629 -0.027580823749303821218470389454 0.001737876562401651902439736475 0.003722959198057651953456259619 0 0 0 0 
2414166666.6666665077 0.188442140817642211914062500000 -0.029382094740867621684987653907 0.001694503123871982097625732422 0.003680367255583405928370810400 0 0 0 0 
2414333333.3333334923 0.189583539962768610198651231258 -0.031487125903368003154714216407 0.001964081078767776922938681494 0.003586662001907825903651572119 0 0 0 0 
2414500000.0000000000 0.190891027450561495681924384371 -0.032749060541391372680664062500 0.001980419270694255828857421875 0.003708635689690709114074707031 0 0 0 0 
2414666666.6666665077 0.191903397440910311599893134371 -0.034140750765800483013112653907 0.002161323092877864837646484375 0.003609083360061049895045615088 0 0 0 0 
2414833333.3333334923 0.193112134933471707443075615629 -0.035495422780513763427734375000 0.002338323742151259942295693506 0.003486065659672021865844726562 0 0 0 0 
2415000000.0000000000 0.193933784961700411697549384371 -0.036760102957487113262136091407 0.002495730761438608169555664062 0.003481919644400476975681923975 0 0 0 0 
2415166666.6666665077 0.195366367697715787032919365629 -0.037813797593116760253906250000 0.002553906058892608122584677588 0.003412578487768768830540322412 0 0 0 0 
2415333333.3333334923 0.196424901485443087478799384371 -0.038839507848024368286132812500 0.002794174477458000183105468750 0.003154927399009466171264648438 0 0 0 0 
2415500000.0000000000 0.197519421577453613281250000000 -0.039461556822061538696289062500 0.002809765283018351034877158057 0.003080798545852303938624716650 0 0 0 0 
2415666666.6666665077 0.198571071028709411621093750000 -0.040310550481081008911132812500 0.002825892763212323188781738281 0.002997407456859945817234658350 0 0 0 0 
2415833333.3333334923 0.199205294251442011077557481258 -0.040875721722841262817382812500 0.002983757760375738143920898438 0.002859208267182112173793173682 0 0 0 0 
2416000000.0000000000 0.199983343482017489334268134371 -0.041388101875782012939453125000 0.002977323485538363890406943213 0.002787698991596699194667197119 0 0 0 0 
2416166666.6666665077 0.200665533542633112151776231258 -0.042017072439193732524831403907 0.003042601514607667922973632812 0.002746429760009049935581826318 0 0 0 0 
2416333333.3333334923 0.201247453689575195312500000000 -0.042194820940494537353515625000 0.003206796012818812890293740381 0.002553848316892981962916708838 0 0 0 0 
2416500000.0000000000 0.201768219470977810958700615629 -0.042533379048109061504323591407 0.003053196705877780914306640625 0.002523272531107068061828613281 0 0 0 0 
2416666666.6666665077 0.202036246657371493240518134371 -0.042832612991333007812500000000 0.003163531888276339010951376807 0.002268954645842314200160361182 0 0 0 0 
2416833333.3333334923 0.202099487185478210449218750000 -0.042779464274644851684570312500 0.003191968891769648031947470557 0.002473360393196343941929482568 0 0 0 0 
2417000000.0000000000 0.202190250158309908767861884371 -0.043032787740230560302734375000 0.003462851280346512794494628906 0.002228013705462216897251748193 0 0 0 0 
2417166666.6666665077 0.201874330639839200118856865629 -0.042864896357059478759765625000 0.003404513234272598786595009912 0.002285194117575883865356445312 0 0 0 0 
2417333333.3333334923 0.201629906892776489257812500000 -0.042732167989015579223632812500 0.003605366451665759086608886719 0.002132090041413902802708291162 0 0 0 0 
2417500000.0000000000 0.201284155249595586578692518742 -0.042741056531667709350585937500 0.003528371686115860939025878906 0.002017623977735639052150107275 0 0 0 0 
2417666666.6666665077 0.200707748532295199295205634371 -0.042485173791646957397460937500 0.003848022781312466101405478369 0.001864931546151638031005859375 0 0 0 0 
2417833333.3333334923 0.200259074568748501876669365629 -0.042415946722030639648437500000 0.003980402834713459014892578125 0.001774870557710527940037392725 0 0 0 0 
2418000000.0000000000 0.199615344405174310882244981258 -0.042098287492990486835520158593 0.003986730705946683883666992188 0.001611090148799120946171425928 0 0 0 0 
2418166666.6666665077 0.198802128434181213378906250000 -0.042086713016033172607421875000 0.004189794417470693588256835938 0.001421872177161275906803750146 0 0 0 0 
2418333333.3333334923 0.197921618819236810882244981258 -0.041829649358987808227539062500 0.004157131537795066833496093750 0.001333403983153403022168803638 0 0 0 0 
2418500000.0000000000 0.196832031011581393142861884371 -0.042011220008134841918945312500 0.004289731383323669433593750000 0.001061719143763184981105185400 0 0 0 0 
2418666666.6666665077 0.195966541767120389083700615629 -0.041871104389429092407226562500 0.004444892518222332000732421875 0.000853678502608090639114379883 0 0 0 0 
2418833333.3333334923 0.194617837667465209960937500000 -0.042051117867231369018554687500 0.004373427014797925949096679688 0.000656448828522115945816040039 0 0 0 0 
2419000000.0000000000 0.193249925971031188964843750000 -0.042334046214818947528879533593 0.004297819919884204864501953125 0.000544055248610675334930419922 0 0 0 0 
2419166666.6666665077 0.192012533545494107345419365629 -0.042563859373331069946289062500 0.004095880780369043350219726562 0.000368206965504214221805018292 0 0 0 0 
2419333333.3333334923 0.190624177455902099609375000000 -0.043127194046974182128906250000 0.004322861321270465850830078125 0.000013040686098975129425525665 0 0 0 0 
2419500000.0000000000 0.189193725585937500000000000000 -0.043535165488719940185546875000 0.004110367503017187118530273438 -0.000089154360466636717319488525 0 0 0 0 
2419666666.6666665077 0.187609866261482211013955634371 -0.044410549104213721538503278907 0.003998385742306709289550781250 -0.000236665771808475310176295148 0 0 0 0 
2419833333.3333334923 0.186086535453796386718750000000 -0.044987436383962631225585937500 0.003881309647113084793090820312 -0.000173414693563245209768572397 0 0 0 0 
2420000000.0000000000 0.184625998139381408691406250000 -0.045846775174140930175781250000 0.003733466379344462914707802881 -0.000444507488282397389411926270 0 0 0 0 
