# Hz S RI R 50
2400000000.0000000000 0.158589228987693786621093750000 0.062933027744293212890625000000 -0.002759619383141397996189736475 0.005212898366153240203857421875 0 0 0 0 
2400166666.6666665077 0.158237278461456298828125000000 0.061310756951570510864257812500 -0.002526125404983758926391601562 0.005204294808208942413330078125 0 0 0 0 
2400333333.3333334923 0.158142194151878412444744981258 0.059527527540922171855886091407 -0.002325057983398437933680868994 0.005238767713308334350585937500 0 0 0 0 
2400500000.0000000000 0.158173620700836209396200615629 0.057719670236110687255859375000 -0.002193138236179947853088378906 0.005247063934803009033203125000 0 0 0 0 
2400666666.6666665077 0.157869279384613009353799384371 0.055472180247306816791574846093 -0.001851600245572627024409628760 0.005416573025286197662353515625 0 0 0 0 
2400833333.3333334923 0.157871142029762295821981865629 0.053478889167308807373046875000 -0.001817378099076450087903666919 0.005471762269735336303710937500 0 0 0 0 
2401000000.0000000000 0.157883897423744201660156250000 0.051649309694766998291015625000 -0.001420864602550864002825092847 0.005459430161863564577584551074 0 0 0 0 
2401166666.6666665077 0.158034756779670687576455634371 0.049493059515953057025949846093 -0.001233142451383173899409628760 0.005663371644914150238037109375 0 0 0 0 
2401333333.3333334923 0.158103823661804199218750000000 0.047405004501342773437500000000 -0.001025468111038208007812500000 0.005719265900552272796630859375 0 0 0 0 
2401500000.0000000000 0.158557936549186706542968750000 0.045326471328735351562500000000 -0.000978288124315440654754638672 0.005497162695974112424368573926 0 0 0 0 
2401666666.6666665077 0.158872693777084406097088731258 0.043473046272993087768554687500 -0.000814246363006532192230224609 0.005470536183565855026245117188 0 0 0 0 
2401833333.3333334923 0.159028530120849609375000000000 0.041305005550384521484375000000 -0.000683103105984628200531005859 0.005693591199815273284912109375 0 0 0 0 
2402000000.0000000000 0.159346833825111389160156250000 0.039348497986793518066406250000 -0.000430905143730342388153076172 0.005733685567975044250488281250 0 0 0 0 
2402166666.6666665077 0.159854874014854403396768134371 0.037201490253210067749023437500 -0.000294330471660941785008031024 0.005715562496334314346313476562 0 0 0 0 
2402333333.3333334923 0.160118356347084100921307481258 0.035402663052082061767578125000 -0.000191422994248569011688232422 0.005776207894086837768554687500 0 0 0 0 
2402500000.0000000000 0.161150544881820706466513115629 0.033424053341150276874582658593 0.000250879500526934916346949445 0.005571578163653612136840820312 0 0 0 0 
2402666666.6666665077 0.161780580878257806975994981258 0.031711194664239883422851562500 0.000268449861323460882336217059 0.005527113098651170730590820312 0 0 0 0 
2402833333.3333334923 0.162561982870101900955361884371 0.029959116131067279470423514454 0.000722231459803879261016845703 0.005670867860317230224609375000 0 0 0 0 
2403000000.0000000000 0.163235902786254910568075615629 0.028281379491090781475026716407 0.000836320221424102783203125000 0.005758569110184907913208007812 0 0 0 0 
2403166666.6666665077 0.164046034216880798339843750000 0.026622746139764789236048514454 0.001130658318288624069811176831 0.005471643991768360137939453125 0 0 0 0 
2403333333.3333334923 0.164865031838417108733807481258 0.025182146579027179372767264454 0.001335235545411705970764160156 0.005425999406725168228149414062 0 0 0 0 
2403500000.0000000000 0.165744423866272000411825615629 0.023610381409525871276855468750 0.001530124805867671966552734375 0.005495889578014612197875976562 0 0 0 0 
2403666666.6666665077 0.166698992252349909026776231258 0.022301150485873218881627266796 0.001605474739335476918461464990 0.005373695399612188339233398438 0 0 0 0 
2403833333.3333334923 0.167808875441551208496093750000 0.020806750282645228994349295704 0.001876969705335796096204448169 0.005253639537841081619262695312 0 0 0 0 
2404000000.0000000000 0.168652758002281188964843750000 0.019627027213573459279993826954 0.002068914473056793212890625000 0.004998018499463796615600585938 0 0 0 0 
2404166666.6666665077 0.169819086790084811111611884371 0.018452327698469158517857735546 0.002378700999543070793151855469 0.005029394757002592086791992188 0 0 0 0 
2404333333.3333334923 0.170729801058769198318643134371 0.017390811815857890737513358204 0.002503609517589211897609091650 0.005055177491158246994018554688 0 0 0 0 
2404500000.0000000000 0.171584472060203607757244981258 0.016275821253657341003417968750 0.002756628207862377166748046875 0.004913252778351306915283203125 0 0 0 0 
2404666666.6666665077 0.172553285956382806975994981258 0.015511000528931619471539882227 0.002910637995228170914890908350 0.004547640681266784667968750000 0 0 0 0 
2404833333.3333334923 0.173590689897537203689736884371 0.014664717949926849710484688671 0.003005335107445716857910156250 0.004569771233946084976196289062 0 0 0 0 
2405000000.0000000000 0.174468174576759310623330634371 0.013852916657924650364885899023 0.003126667579635978178737021338 0.004242739174515008926391601562 0 0 0 0 
2405166666.6666665077 0.175437182188034113128338731258 0.013258499093353750056256679102 0.003413068363443017005920410156 0.004273881670087575912475585938 0 0 0 0 
2405333333.3333334923 0.176269322633743286132812500000 0.012469395995140079153040701954 0.003513522911816834969761513818 0.004161042161285877227783203125 0 0 0 0 
2405500000.0000000000 0.177035391330718994140625000000 0.012198137119412420445452305273 0.003501625498756765885594033350 0.003883162746205925941467285156 0 0 0 0 
2405666666.6666665077 0.177836850285530090332031250000 0.011585374362766739236851876171 0.003805245738476514816284179688 0.003713892074301838874816894531 0 0 0 0 
2405833333.3333334923 0.178198978304863003829794365629 0.011301533319056030618687813671 0.003817575518041849136352539062 0.003622697666287422180175781250 0 0 0 0 
2406000000.0000000000 0.179105862975120488922442518742 0.010727701708674430847167968750 0.003898207098245621161219931494 0.003537103533744812011718750000 0 0 0 0 
2406166666.6666665077 0.179508253931999206542968750000 0.010507572442293170583704764454 0.004035803489387035369873046875 0.003202959429472684860229492188 0 0 0 0 
2406333333.3333334923 0.180122673511505099197549384371 0.010131506249308589590052420704 0.004044407512992621335501386426 0.003052064683288335800170898438 0 0 0 0 
2406500000.0000000000 0.180370837450027493575888115629 0.009771325625479221343994140625 0.004284637514501810073852539062 0.002819763496518135070800781250 0 0 0 0 
2406666666.6666665077 0.180559009313583401779013115629 0.009540470317006111145019531250 0.004495855886489152908325195312 0.002727207494899630980250693213 0 0 0 0 
2406833333.3333334923 0.180797696113586398025674384371 0.009215618483722209930419921875 0.004634625744074583053588867188 0.002452315529808402061462402344 0 0 0 0 
2407000000.0000000000 0.180970475077629089355468750000 0.008805256336927413940429687500 0.004573043435811997327322675488 0.002323796274140477180480957031 0 0 0 0 
2407166666.6666665077 0.181120648980140713790731865629 0.008720953017473220825195312500 0.004563672933727502822875976562 0.002172310138121246857884072412 0 0 0 0 
2407333333.3333334923 0.180988267064094487945880018742 0.008097575046122074127197265625 0.004661346320062875747680664062 0.001884791068732738928553915869 0 0 0 0 
2407500000.0000000000 0.180852010846138000488281250000 0.007830688729882240295410156250 0.004712249618023633956909179688 0.001720779109746217944501567310 0 0 0 0 
2407666666.6666665077 0.180747047066688509842080634371 0.007472696714103221893310546875 0.004806467331945896148681640625 0.001475140568800270991084433447 0 0 0 0 
2407833333.3333334923 0.180317819118499811370526231258 0.006812939886003732681274414062 0.004809316247701644897460937500 0.001160569954663515090942382812 0 0 0 0 
2408000000.0000000000 0.179945528507232693771200615629 0.006262644194066525372976972363 0.004912788514047861099243164062 0.001069447956979274966596293872 0 0 0 0 
2408166666.6666665077 0.179613038897514287750567518742 0.005851817782968282699584960938 0.004661710932850837707519531250 0.000796434236690402030944824219 0 0 0 0 
2408333333.3333334923 0.179295435547828702071981865629 0.005017003510147333145141601562 0.004857169929891824722290039062 0.000598809798248112201690673828 0 0 0 0 
2408500000.0000000000 0.178733929991722106933593750000 0.004302238114178180694580078125 0.004718897398561239242553710938 0.000507652061060070991516113281 0 0 0 0 
2408666666.6666665077 0.178079128265380887130575615629 0.003346843412145971818211220850 0.004696583840996026992797851562 0.000363850675057619810104370117 0 0 0 0 
2408833333.3333334923 0.177417397499084500411825615629 0.002622253494337201118469238281 0.004633378237485885620117187500 0.000154222769197076613276881085 0 0 0 0 
2409000000.0000000000 0.176758319139480590820312500000 0.001465956098400055928471230615 0.004649024456739425659179687500 -0.000071953742008190602064132690 0 0 0 0 
2409166666.6666665077 0.176143616437911987304687500000 0.000450087536592036485671997070 0.004539451096206904325003339551 -0.000270448508672416210174560547 0 0 0 0 
2409333333.3333334923 0.175532713532447787185830634371 -0.000623393629211932420730590820 0.004542097449302673339843750000 -0.000408083724323660081059056415 0 0 0 0 
2409500000.0000000000 0.174705386161804199218750000000 -0.002130840905010699792149209131 0.004471144173294305801391601562 -0.000499165384098887443542480469 0 0 0 0 
2409666666.6666665077 0.174004092812538202483807481258 -0.003255179617553948922398232568 0.004422308411449193954467773438 -0.000653404218610376119613647461 0 0 0 0 
2409833333.3333334923 0.173282235860824612716513115629 -0.004703558050096035003662109375 0.004292006604373455047607421875 -0.000911212409846484661102294922 0 0 0 0 
2410000000.0000000000 0.172595575451850891113281250000 -0.006048051174730063352102948926 0.004311229567974805831909179688 -0.001065752119757235050201416016 0 0 0 0 
2410166666.6666665077 0.172028914093971307952557481258 -0.007660336792469024658203125000 0.004198440816253423690795898438 -0.001192871830426156954524374854 0 0 0 0 
2410333333.3333334923 0.171339571475982693771200615629 -0.009171662852168083190917968750 0.004100969526916742324829101562 -0.001360578578896820978877402197 0 0 0 0 
2410500000.0000000000 0.170837596058845492263955634371 -0.010891660116612909489641758398 0.003845622064545751051661826025 -0.001539903692901134924647665869 0 0 0 0 
2410666666.6666665077 0.170144990086555508712606865629 -0.012744992040097710001012032421 0.003905208082869648933410644531 -0.001693719299510120911839150537 0 0 0 0 
2410833333.3333334923 0.169655308127403287032919365629 -0.014450878836214540654192539648 0.003812507726252079010009765625 -0.001534849870949984030482626807 0 0 0 0 
2411000000.0000000000 0.169259205460548400878906250000 -0.016155131161212921142578125000 0.003694982267916202978846884619 -0.001902226009406148953678750146 0 0 0 0 
2411166666.6666665077 0.168754830956459100921307481258 -0.018253300338983539236048514454 0.003443331690505146980285644531 -0.002038390608504414992091513525 0 0 0 0 
2411333333.3333334923 0.168614283204078702071981865629 -0.020188864320516589773157889454 0.003393799765035510063171386719 -0.002162232995033264160156250000 0 0 0 0 
2411500000.0000000000 0.168315917253494290450888115629 -0.022335648536682128906250000000 0.003272638889029622077941894531 -0.002185914898291230201721191406 0 0 0 0 
2411666666.6666665077 0.168363004922866793533486884371 -0.024197708815336230886439139454 0.003027847968041896820068359375 -0.002300129039213060899021767725 0 0 0 0 
2411833333.3333334923 0.168096885085105895996093750000 -0.026035794988274570810338204296 0.003023746423423289819004677881 -0.002449780702590941949131631006 0 0 0 0 
2412000000.0000000000 0.168033257126808194259481865629 -0.028101723641157150268554687500 0.002791002392768859863281250000 -0.002541311550885438919067382812 0 0 0 0 
2412166666.6666665077 0.168151438236236600021200615629 -0.030093077570199969900111014454 0.002589970827102661132812500000 -0.002660152735188602967503213037 0 0 0 0 
2412333333.3333334923 0.168472453951835604568643134371 -0.031964961439371109008789062500 0.002585855079814792113063193213 -0.002717463066801428794860839844 0 0 0 0 
2412500000.0000000000 0.168487384915351895431356865629 -0.033795721828937530517578125000 0.002458275062963366942164755713 -0.002736302325502038002014160156 0 0 0 0 
2412666666.6666665077 0.168842047452926607986611884371 -0.035978682339191436767578125000 0.002143915044143795967102050781 -0.002685155486688017845153808594 0 0 0 0 
2412833333.3333334923 0.169018268585205105880575615629 -0.037731282413005828857421875000 0.002120151882991195158717490088 -0.002888269256800413131713867188 0 0 0 0 
2413000000.0000000000 0.169409811496734591385049384371 -0.039550065994262702251393903907 0.002073449315503240065333701025 -0.002768407110124825997593545068 0 0 0 0 
2413166666.6666665077 0.169710516929626492599325615629 -0.041318278759717941284179687500 0.001856014365330338911769247900 -0.002618485363200306892395019531 0 0 0 0 
2413333333.3333334923 0.169978931546211187164630018742 -0.043128482997417449951171875000 0.001732365461066365025163960034 -0.002756524598225951194763183594 0 0 0 0 
2413500000.0000000000 0.170497104525566101074218750000 -0.044663779437541961669921875000 0.001516273361630737998365092700 -0.002885835943743586973903036963 0 0 0 0 
2413666666.6666665077 0.171187177300453213790731865629 -0.046298567205667502666432966407 0.001477236277423799037933349609 -0.002703374251723289923426962744 0 0 0 0 
2413833333.3333334923 0.171645432710647610763388115629 -0.047794502228498458862304687500 0.001166796660982071919682168115 -0.002825683914124966101405478369 0 0 0 0 
2414000000.0000000000 0.172066628932952908614950615629 -0.049303449690341949462890625000 0.001084808493033051924464560400 -0.002707842271775006814243935693 0 0 0 0 
2414166666.6666665077 0.172661930322647094726562500000 -0.050560437142848968505859375000 0.001055131666362286047694540869 -0.002825849922373890876770019531 0 0 0 0 
2414333333.3333334923 0.173245728015899713714276231258 -0.051929540932178497314453125000 0.000900162325706332921981811523 -0.002721290569752455191371298682 0 0 0 0 
2414500000.0000000000 0.173893496394157409667968750000 -0.053078062832355499267578125000 0.000696954550221562385559082031 -0.002780438167974352836608886719 0 0 0 0 
2414666666.6666665077 0.174445673823356600662393134371 -0.054070536047220230102539062500 0.000583359040319919586181640625 -0.002631215844303369955775595557 0 0 0 0 
2414833333.3333334923 0.174790039658546503265057481258 -0.055247507989406592632253278907 0.000396684743463993126719874249 -0.002627939218655229048487997900 0 0 0 0 
2415000000.0000000000 0.175371319055557306487713731258 -0.055959742516279220581054687500 0.000200627458980307010099133902 -0.002575346035882831053492880713 0 0 0 0 
2415166666.6666665077 0.175636157393455505371093750000 -0.056990243494510650634765625000 0.000240934736211784211084088736 -0.002495593857020140127894736182 0 0 0 0 
2415333333.3333334923 0.176334947347640991210937500000 -0.057587809860706329345703125000 0.000081144971773028373718261719 -0.002469624159857631163356161963 0 0 0 0 
2415500000.0000000000 0.176532104611396789550781250000 -0.058309935033321380615234375000 0.000015690824511693790555000305 -0.002405092353001236915588378906 0 0 0 0 
2415666666.6666665077 0.176715031266212491134481865629 -0.058823961764574050903320312500 0.000007453183570760302245616913 -0.002274314872920513153076171875 0 0 0 0 
2415833333.3333334923 0.177089035511016901214276231258 -0.059368196874856948852539062500 0.000007777643986628390848636627 -0.002255891682580112977268838037 0 0 0 0 
2416000000.0000000000 0.177120402455329895019531250000 -0.059774134308099746704101562500 -0.000180637842277064892366686411 -0.002083695260807871818542480469 0 0 0 0 
2416166666.6666665077 0.177413046360015896896200615629 -0.060121059417724609375000000000 -0.000089602348452899605035781860 -0.002126406412571669058558798682 0 0 0 0 
2416333333.3333334923 0.177276864647865295410156250000 -0.060502249747514731670339216407 -0.000182508956640958813115796500 -0.001914066378958523056627583081 0 0 0 0 
2416500000.0000000000 0.177295431494712801834268134371 -0.060891732573509223247487653907 -0.000099601813417393714189529419 -0.001981313573196529908421181787 0 0 0 0 
2416666666.6666665077 0.177097976207733209808026231258 -0.061040166765451431274414062500 -0.000307580688968300819396972656 -0.001755337580107152895686484229 0 0 0 0 
2416833333.3333334923 0.176871761679649408538494981258 -0.061430279165506362915039062500 -0.000353786483174189925193786621 -0.001743485336191952011705708081 0 0 0 0 
2417000000.0000000000 0.176466614007949801345986884371 -0.061677664518356323242187500000 -0.000240704292082227793618878775 -0.001733181299641727967503213037 0 0 0 0 
2417166666.6666665077 0.176140129566192599197549384371 -0.061690106987953192974050153907 -0.000343009742209687774807530536 -0.001648239558562635941746377100 0 0 0 0 
2417333333.3333334923 0.175652921199798611739950615629 -0.061847742646932601928710937500 -0.000396166229620575904846191406 -0.001539712189696728966356586987 0 0 0 0 
2417500000.0000000000 0.175018668174743707854901231258 -0.062330331653356552124023437500 -0.000097584328614175319671630859 -0.001655253116041422107099223560 0 0 0 0 
2417666666.6666665077 0.174526184797286987304687500000 -0.062400620430707931518554687500 -0.000333592906827107126086634503 -0.001515974057838320948957133716 0 0 0 0 
2417833333.3333334923 0.173704490065574701507244981258 -0.062516242265701293945312500000 -0.000168620274052955210208892822 -0.001356408116407691998722695459 0 0 0 0 
2418000000.0000000000 0.172749146819114712814169365629 -0.063058927655220031738281250000 -0.000075900876254308968782424927 -0.001485608168877661011339497144 0 0 0 0 
2418166666.6666665077 0.171742960810661288162393134371 -0.063102059066295623779296875000 -0.000286493159364908879429417743 -0.001463681226596236012102436597 0 0 0 0 
2418333333.3333334923 0.171108067035675104339276231258 -0.063504524528980255126953125000 -0.000156333306222222799628657208 -0.001433745026588439941406250000 0 0 0 0 
2418500000.0000000000 0.169947221875190707107705634371 -0.063830919563770294189453125000 -0.000138379458803683492258349008 -0.001318224705755711035487509619 0 0 0 0 
2418666666.6666665077 0.168954908847808810135049384371 -0.064369194209575653076171875000 -0.000213351406273432103082379752 -0.001292923116125165982487343896 0 0 0 0 
2418833333.3333334923 0.167710810899734497070312500000 -0.064812421798706054687500000000 -0.000190855644177645390659886493 -0.001369389705359935977338481372 0 0 0 0 
2419000000.0000000000 0.166501596570015009124432481258 -0.065289795398712158203125000000 -0.000269287556875497102737426758 -0.001459059771150351004359579932 0 0 0 0 
2419166666.6666665077 0.165475159883499201018963731258 -0.066012538969516754150390625000 -0.000192400693777017295360565186 -0.001426944509148597934125590747 0 0 0 0 
2419333333.3333334923 0.164109572768211392501669365629 -0.066468894481658935546875000000 -0.000270720251137390678555089130 -0.001270389533601701042772602612 0 0 0 0 
2419500000.0000000000 0.162970960140228299239950615629 -0.067506916821002960205078125000 -0.000213736318983137607574462891 -0.001339980983175337097765278394 0 0 0 0 
2419666666.6666665077 0.161963760852813692947549384371 -0.068384386599063873291015625000 -0.000265818584011867588192540302 -0.001370442216284573078155517578 0 0 0 0 
2419833333.3333334923 0.160657331347465487381143134371 -0.069110140204429626464843750000 -0.000333482079440727775723057880 -0.001480163657106458923937153394 0 0 0 0 
