# Hz S RI R 
2400000000.0000000000 0.171042338013648986816406250000 0.040175125002861022949218750000 0.002781838411465287208557128906 0.000124517086078412803724566049 0 0 0 0 
2400166666.6666665077 0.171875774860382107833700615629 0.039738111197948462749440778907 0.002542106201872230009791708838 0.000096020849014166742563247681 0 0 0 0 
2400333333.3333334923 0.172240763902664212325888115629 0.038926783949136727069895158593 0.002669787034392356872558593750 -0.000207239820156246396616259164 0 0 0 0 
2400500000.0000000000 0.172828316688537597656250000000 0.038374524563550949096679687500 0.002761152805760502815246582031 -0.000063646024500485509634017944 0 0 0 0 
2400666666.6666665077 0.173084020614623995681924384371 0.037682849913835532451589216407 0.002672258997336030006408691406 -0.000275928061455488204956054688 0 0 0 0 
2400833333.3333334923 0.173464432358741788009481865629 0.037172388285398483276367187500 0.002663008170202374891993857275 -0.000289010378764942288398742676 0 0 0 0 
2401000000.0000000000 0.173576593399047907073651231258 0.036493647843599319458007812500 0.002597506856545805931091308594 -0.000509004050400108098983764648 0 0 0 0 
2401166666.6666665077 0.173672974109649713714276231258 0.035942010581493377685546875000 0.002702504629269241853001259912 -0.000610623217653483152389526367 0 0 0 0 
2401333333.3333334923 0.173550784587860107421875000000 0.035272981971502297138254533593 0.002724323654547334151027060400 -0.000661434954963624477386474609 0 0 0 0 
2401500000.0000000000 0.173776477575302096267861884371 0.034474331885576248168945312500 0.002584461355581880049464560400 -0.000820692628622055053710937500 0 0 0 0 
2401666666.6666665077 0.173463106155395507812500000000 0.033917199820280082012136091407 0.002628555521368979974033974756 -0.001004883786663413047790527344 0 0 0 0 
2401833333.3333334923 0.173347339034080505371093750000 0.033127829432487487792968750000 0.002397749107331037955043173682 -0.001037053763866424994227743994 0 0 0 0 
2402000000.0000000000 0.173104092478752108474893134371 0.032402243465185172344167341407 0.002382413716986774964573525537 -0.001205849461257457949994731372 0 0 0 0 
2402166666.6666665077 0.172827914357185391525106865629 0.031588930636644363403320312500 0.002199306152760982947108603369 -0.001242491300217807076097797925 0 0 0 0 
2402333333.3333334923 0.172728329896926907638388115629 0.030822776257991790771484375000 0.001944597461260854981066059644 -0.001252357498742640018463134766 0 0 0 0 
2402500000.0000000000 0.172612592577934292892294365629 0.029878126457333571697194685157 0.002052304800599813894984579932 -0.001416691928170620961430214990 0 0 0 0 
2402666666.6666665077 0.172129526734352111816406250000 0.028939777985215190542200858204 0.001913343323394655964495014722 -0.001308710197918117046356201172 0 0 0 0 
2402833333.3333334923 0.171757563948631286621093750000 0.028053153306245800363560860546 0.001724452828057110092760395581 -0.001616418594494462013244628906 0 0 0 0 
2403000000.0000000000 0.171459481120109613616619981258 0.027004692703485488891601562500 0.001640161615796386978746723706 -0.001515161129646003029466938550 0 0 0 0 
2403166666.6666665077 0.171278268098831204513388115629 0.025839077308773990976353829296 0.001401257119141519069671630859 -0.001466343412175775007960654150 0 0 0 0 
2403333333.3333334923 0.171023637056350708007812500000 0.024817150086164471017857735546 0.001348405960015953020808554541 -0.001695220475085080103633261572 0 0 0 0 
2403500000.0000000000 0.170354411005973788162393134371 0.023504314944148060190221016796 0.001316832494921982071520161206 -0.001339242444373667023302387769 0 0 0 0 
2403666666.6666665077 0.170073643326759310623330634371 0.021949291229248050344446951954 0.001090847887098788998247456128 -0.001477450015954673073412251050 0 0 0 0 
2403833333.3333334923 0.169932305812835693359375000000 0.020603373646736148488978201954 0.001025099656544625975965190356 -0.001398468273691833019256591797 0 0 0 0 
2404000000.0000000000 0.169525861740112304687500000000 0.019145149737596508371373360546 0.001046701101586223082301474463 -0.001386144780553876919987343896 0 0 0 0 
2404166666.6666665077 0.169125840067863492111044365629 0.017699312418699271465261091407 0.000991508481092751026153564453 -0.001343258540146053054212260669 0 0 0 0 
2404333333.3333334923 0.168976172804832486251669365629 0.016297195106744769704798514454 0.000960638688411563634872436523 -0.001137992250733077959773398291 0 0 0 0 
2404500000.0000000000 0.168490961194038391113281250000 0.014556217007339000701904296875 0.000927689543459564447402954102 -0.001188924536108971075770712744 0 0 0 0 
2404666666.6666665077 0.168411150574684087555255018742 0.012999271973967550450335117773 0.000740814022719860076904296875 -0.001050404505804181098937988281 0 0 0 0 
2404833333.3333334923 0.168260499835014287750567518742 0.011201514862477779388427734375 0.000839398300740867853164672852 -0.000895539065822958946228027344 0 0 0 0 
2405000000.0000000000 0.168123796582222012618856865629 0.009354544803500175476074218750 0.000682577316183596849441528320 -0.000738683913368731737136840820 0 0 0 0 
2405166666.6666665077 0.168162196874618502517861884371 0.007591053377836942672729492188 0.001006506732665001912357949365 -0.000579796673264354467391967773 0 0 0 0 
2405333333.3333334923 0.168076023459434509277343750000 0.005756301805377007398123456738 0.001018357463181019046186137622 -0.000752991356421262025833129883 0 0 0 0 
2405500000.0000000000 0.168028607964515713790731865629 0.004015052225440740585327148438 0.001039558905176817937138222803 -0.000699711614288389682769775391 0 0 0 0 
2405666666.6666665077 0.168017268180847195724325615629 0.002203339710831642150878906250 0.001026360201649368026136088794 -0.000774812477175146341323852539 0 0 0 0 
2405833333.3333334923 0.167838871479034396072549384371 0.000336047058226540684700012207 0.001203135005198419094085693359 -0.000707058876287192106246948242 0 0 0 0 
2406000000.0000000000 0.167872875928878811935263115629 -0.001699472777545451901079487378 0.001225119689479470036150288159 -0.000786287477239966392517089844 0 0 0 0 
2406166666.6666665077 0.167764976620674105545205634371 -0.003412815975025296211242675781 0.001256578485481441020965576172 -0.000625419546850025653839111328 0 0 0 0 
2406333333.3333334923 0.167956933379173306564169365629 -0.005266573280096054077148437500 0.001382186310365796089172363281 -0.000798626861069351434707641602 0 0 0 0 
2406500000.0000000000 0.167863056063652010818643134371 -0.007160136941820383071899414062 0.001505355932749808051465678638 -0.000800125475507229566574096680 0 0 0 0 
2406666666.6666665077 0.167744532227516202071981865629 -0.008706638589501380920410156250 0.001730986987240612940547324072 -0.001001022174023092009900737231 0 0 0 0 
2406833333.3333334923 0.167936190962791387359942518742 -0.010491503402590749913225742773 0.001784348743967711925506591797 -0.001103405840694903893711709131 0 0 0 0 
2407000000.0000000000 0.168024420738220187088174384371 -0.012170364148914810525914376171 0.001579770352691411972045898438 -0.001079520792700350067735981519 0 0 0 0 
2407166666.6666665077 0.168010577559471102615518134371 -0.013616078533232210331926914648 0.001773383584804832935333251953 -0.001196631463244556946995400537 0 0 0 0 
2407333333.3333334923 0.167972594499588012695312500000 -0.015185061842203140258789062500 0.001529744011349976062774658203 -0.001440326799638568921330117334 0 0 0 0 
2407500000.0000000000 0.168247491121292086502236884371 -0.016529437154531478881835937500 0.001623018993996083953260112231 -0.001517804339528084018109965747 0 0 0 0 
2407666666.6666665077 0.168234124779701205154580634371 -0.017810279503464698791503906250 0.001615182380191982009290385669 -0.001715469988994299931767129053 0 0 0 0 
2407833333.3333334923 0.168292596936225891113281250000 -0.018988853320479389535924141796 0.001698948792181909084320068359 -0.001662159571424127058741904150 0 0 0 0 
2408000000.0000000000 0.168493390083312988281250000000 -0.020203324034810069692591483204 0.001596035202965139909031533350 -0.001950456760823727087733603369 0 0 0 0 
2408166666.6666665077 0.168679580092430086990518134371 -0.021011726930737498891810233204 0.001368468510918319008470844800 -0.001755970297381282069562602466 0 0 0 0 
2408333333.3333334923 0.169002413749694796463174384371 -0.022040743380784988403320312500 0.001361165428534149906755756909 -0.001868579769507050947902060400 0 0 0 0 
2408500000.0000000000 0.169099390506744412521200615629 -0.022909479215741161001185233204 0.001369102741591631932499550928 -0.002022817498072981834411621094 0 0 0 0 
2408666666.6666665077 0.169523656368255587478799384371 -0.023805981501936909067174141796 0.001243206672370434024213481372 -0.002040301915258169174194335938 0 0 0 0 
2408833333.3333334923 0.169764816761016901214276231258 -0.024503611028194430959681326954 0.001121707377023994922637939453 -0.002034084405750035805943154443 0 0 0 0 
2409000000.0000000000 0.169997185468673706054687500000 -0.025306178256869319570521170704 0.001001609605737030939814902197 -0.002085541374981402917149209131 0 0 0 0 
2409166666.6666665077 0.170534729957580594161825615629 -0.026026457548141479492187500000 0.001089614583179355101344443213 -0.002056718571111559867858886719 0 0 0 0 
2409333333.3333334923 0.170942097902298001388388115629 -0.026714300736784938467005545704 0.001219622790813446044921875000 -0.002045120811089872880222939600 0 0 0 0 
2409500000.0000000000 0.171191513538360595703125000000 -0.027655279263854030263880545704 0.001012504100799560980555868994 -0.002114799804985522790196084131 0 0 0 0 
2409666666.6666665077 0.171221256256103487869424384371 -0.028219046071171760559082031250 0.001062887255102396011352539062 -0.002219522371888161139247275244 0 0 0 0 
2409833333.3333334923 0.171465888619422912597656250000 -0.028968809172511100769042968750 0.000988809741102159023284912109 -0.002223879098892211914062500000 0 0 0 0 
2410000000.0000000000 0.171842634677886990646200615629 -0.029659284278750419616699218750 0.001019501476548611900926899487 -0.002129797590896486802342080225 0 0 0 0 
2410166666.6666665077 0.171897366642951993087606865629 -0.030302893370389938354492187500 0.000965522427577525377273559570 -0.002252236241474748091456747900 0 0 0 0 
2410333333.3333334923 0.171864017844200106521768134371 -0.031079674139618870126744454296 0.000802878465037792921066284180 -0.002441850490868092016932822119 0 0 0 0 
2410500000.0000000000 0.171859472990036010742187500000 -0.031732000410556793212890625000 0.000807007541880011558532714844 -0.002515662461519240899326943506 0 0 0 0 
2410666666.6666665077 0.171769171953201293945312500000 -0.032425094395875930786132812500 0.001072401879355310960056923975 -0.002557760104537010192871093750 0 0 0 0 
2410833333.3333334923 0.171689406037330599685830634371 -0.033032447099685668945312500000 0.000739625596906989812850952148 -0.002702106488868594169616699219 0 0 0 0 
2411000000.0000000000 0.171545699238777188400106865629 -0.033571522682905197143554687500 0.000933703209739178419113159180 -0.002808472374454141096827841650 0 0 0 0 
2411166666.6666665077 0.171162828803062411209268134371 -0.034268852323293692851979841407 0.000802439986728131771087646484 -0.003042792901396750970127724756 0 0 0 0 
2411333333.3333334923 0.170929506421089200118856865629 -0.035006243735551827167551408593 0.000794245628640055656433105469 -0.003061905968934297995326376807 0 0 0 0 
2411500000.0000000000 0.170573949813842801193075615629 -0.035506982356309890747070312500 0.000614714692346751689910888672 -0.003206731984391808943507529150 0 0 0 0 
2411666666.6666665077 0.170291602611541803558026231258 -0.036136586219072341918945312500 0.000527150405105203390121459961 -0.003307542530819774107692099463 0 0 0 0 
2411833333.3333334923 0.169745132327079800704794365629 -0.036750819534063339233398437500 0.000325370114296674674183446063 -0.003506723092868924140930175781 0 0 0 0 
2412000000.0000000000 0.169445320963859613616619981258 -0.037634823471307761455495466407 0.000103056372608989504262647086 -0.003555898088961840109584189307 0 0 0 0 
2412166666.6666665077 0.168695226311683710296307481258 -0.038374897092580802226979841407 -0.000241547371842898401335039682 -0.003652260405942798094508505713 0 0 0 0 
2412333333.3333334923 0.168631643056869506835937500000 -0.038931217044591896747629533593 -0.000418036623159423524707239972 -0.003773450618609786033630371094 0 0 0 0 
2412500000.0000000000 0.168005347251892089843750000000 -0.039875149726867682720143903907 -0.000674797338433563709259033203 -0.003894151421263813972473144531 0 0 0 0 
2412666666.6666665077 0.167110562324523898025674384371 -0.040782950818538672710378278907 -0.000892307725735008716583251953 -0.003922095987945795059204101562 0 0 0 0 
2412833333.3333334923 0.166691601276397705078125000000 -0.041709650307893753051757812500 -0.001068492652848362922668457031 -0.003887097584083675904514931787 0 0 0 0 
2413000000.0000000000 0.166107252240180996993856865629 -0.042593285441398620605468750000 -0.001426626695320009968401264722 -0.003859736025333404974696493994 0 0 0 0 
2413166666.6666665077 0.165339782834053011795205634371 -0.043615411967039108276367187500 -0.001786451670341193892835307544 -0.003702742746099830107447958838 0 0 0 0 
2413333333.3333334923 0.164554506540298489669638115629 -0.044664602726697921752929687500 -0.001917669549584388949750590747 -0.003712673438712954954860068213 0 0 0 0 
2413500000.0000000000 0.163896009325981112381143134371 -0.045610990375280380249023437500 -0.002290545729920268058776855469 -0.003429441014304757118225097656 0 0 0 0 
2413666666.6666665077 0.163402259349822998046875000000 -0.046823456883430480957031250000 -0.002395268296822905974147177588 -0.003297402290627359910252236475 0 0 0 0 
2413833333.3333334923 0.162467837333679199218750000000 -0.047785565257072448730468750000 -0.002400102326646447181701660156 -0.003191471099853516058680868994 0 0 0 0 
2414000000.0000000000 0.161769598722457913497763115629 -0.048902001231908798217773437500 -0.002634094096720219092128134619 -0.002923517953604460196254111182 0 0 0 0 
2414166666.6666665077 0.161147564649581909179687500000 -0.049903299659490592266042341407 -0.002743589691817760901210165869 -0.002587104681879281997680664062 0 0 0 0 
2414333333.3333334923 0.160510092973709106445312500000 -0.051177736371755599975585937500 -0.002644436433911323981044150244 -0.002423636848106979890110634912 0 0 0 0 
2414500000.0000000000 0.160335481166839599609375000000 -0.052210319787263870239257812500 -0.002905372297391294999363564600 -0.002229720586910843849182128906 0 0 0 0 
2414666666.6666665077 0.159673765301704406738281250000 -0.053368389606475830078125000000 -0.002987382933497428894042968750 -0.002030754461884499029872275244 0 0 0 0 
2414833333.3333334923 0.159210428595542907714843750000 -0.054643999785184860229492187500 -0.002966165309771894974949502100 -0.002019644482061266899108886719 0 0 0 0 
2415000000.0000000000 0.158829882740974398513955634371 -0.055859807878732681274414062500 -0.002995951334014534950256347656 -0.001768292975611984946607280200 0 0 0 0 
2415166666.6666665077 0.158561140298843411544638115629 -0.057032953947782523418386091407 -0.003085127566009759902954101562 -0.001772913732565938992741250146 0 0 0 0 
2415333333.3333334923 0.158472433686256408691406250000 -0.058521714061498641967773437500 -0.003051253035664557976963662256 -0.001607789774425327994702983325 0 0 0 0 
2415500000.0000000000 0.158160835504531888107138115629 -0.059979889541864402080495466407 -0.003002951852977275848388671875 -0.001448138384148478941676474463 0 0 0 0 
2415666666.6666665077 0.157895535230636596679687500000 -0.061270795762538909912109375000 -0.002994991606101394133326865088 -0.001391936209984123923658061450 0 0 0 0 
2415833333.3333334923 0.157664626836776705642861884371 -0.062743358314037322998046875000 -0.003082883078604937033412314307 -0.001134910969994961998583149487 0 0 0 0 
2416000000.0000000000 0.157275408506393404861611884371 -0.064217224717140197753906250000 -0.003127134870737791061401367188 -0.001201813458465039946912455981 0 0 0 0 
2416166666.6666665077 0.157383158802986200530682481258 -0.065684519708156585693359375000 -0.003222185187041759924647665869 -0.000969862681813538074493408203 0 0 0 0 
2416333333.3333334923 0.157036498188972500900106865629 -0.067008532583713531494140625000 -0.003072783118113874955418252100 -0.000950340356212109327316284180 0 0 0 0 
2416500000.0000000000 0.156947463750839205642861884371 -0.068449184298515319824218750000 -0.003150058444589376015904091943 -0.000675162998959422111511230469 0 0 0 0 
2416666666.6666665077 0.156659573316574096679687500000 -0.069760315120220184326171875000 -0.003187067806720734076258993994 -0.000526253017596900463104248047 0 0 0 0 
2416833333.3333334923 0.156663388013839693924111884371 -0.071286432445049285888671875000 -0.003093236824497580961940146338 -0.000483139738207683021396082745 0 0 0 0 
2417000000.0000000000 0.156294107437133789062500000000 -0.072661481797695159912109375000 -0.003169413888826965852024697412 -0.000104835511592682505219858990 0 0 0 0 
2417166666.6666665077 0.156131699681281987945880018742 -0.073719598352909088134765625000 -0.003107070224359631972071982275 -0.000105561797681730199925838332 0 0 0 0 
2417333333.3333334923 0.156057044863700894454794365629 -0.074890561401844024658203125000 -0.003028604434803127808811806787 -0.000070519701694138348102569580 0 0 0 0 
2417500000.0000000000 0.155828982591629000564736884371 -0.076169036328792572021484375000 -0.003057185560464859008789062500 0.000085281491919886320829391479 0 0 0 0 
2417666666.6666665077 0.155746743083000210861044365629 -0.076994247734546661376953125000 -0.002922175684943795204162597656 0.000178686314029619097709655762 0 0 0 0 
2417833333.3333334923 0.155667394399642888824786268742 -0.077981084585189819335937500000 -0.002885203575715423063990927588 0.000301311520161107182502746582 0 0 0 0 
2418000000.0000000000 0.155540212988853510100994981258 -0.079191200435161590576171875000 -0.002561355242505670027491904150 0.000613442040048539638519287109 0 0 0 0 
2418166666.6666665077 0.155568435788154602050781250000 -0.079835228621959686279296875000 -0.002619112143293023109436035156 0.000536848790943622589111328125 0 0 0 0 
2418333333.3333334923 0.155634582042694091796875000000 -0.080661483108997344970703125000 -0.002566236769780517058131552588 0.000569981697481125593185424805 0 0 0 0 
2418500000.0000000000 0.155452400445938110351562500000 -0.081614442169666290283203125000 -0.002424760954454541206359863281 0.000700468372087925672531127930 0 0 0 0 
2418666666.6666665077 0.155554756522178705413494981258 -0.082165695726871490478515625000 -0.002153977751731872992274618994 0.000702396384440362453460693359 0 0 0 0 
2418833333.3333334923 0.155244439840316800216513115629 -0.082902140915393829345703125000 -0.002299881307408214049098349463 0.000612751056905835866928100586 0 0 0 0 
2419000000.0000000000 0.155141726136207608321981865629 -0.083559975028038024902343750000 -0.002053701784461737112758017432 0.000704827427398413419723510742 0 0 0 0 
2419166666.6666665077 0.155064180493354797363281250000 -0.084078066051006317138671875000 -0.002132005756720900969264365088 0.000707877567037940025329589844 0 0 0 0 
2419333333.3333334923 0.154847919940948486328125000000 -0.084445074200630187988281250000 -0.001894806162454188086866069263 0.000643459148705005754172170374 0 0 0 0 
2419500000.0000000000 0.154785245656967190841513115629 -0.085257351398468017578125000000 -0.001875480636954307989833212744 0.000676982162985950708389282227 0 0 0 0 
2419666666.6666665077 0.154635995626449612716513115629 -0.085706047713756561279296875000 -0.002002241788432002067565917969 0.000725777470506727695465087891 0 0 0 0 
2419833333.3333334923 0.154328539967536898513955634371 -0.085988163948059082031250000000 -0.001863480894826353029963827979 0.000663758604787290096282958984 0 0 0 0 
