# Version 1.00
#
freq[Hz];re:Trc1_S11;im:Trc1_S11;re:Trc2_S21;im:Trc2_S21;
2.400000000000000E+009;1.570410579442978E-001;6.101947650313377E-002;-1.956007909029722E-003;-2.171545522287488E-003;
2.400166666666667E+009;1.572218984365463E-001;5.905811861157417E-002;-2.058042213320732E-003;-2.077753888443112E-003;
2.400333333333334E+009;1.570769697427750E-001;5.699169263243675E-002;-2.073526615276933E-003;-2.079990226775408E-003;
2.400500000000000E+009;1.572704166173935E-001;5.525378882884979E-002;-2.206837758421898E-003;-1.967704854905605E-003;
2.400666666666667E+009;1.573627740144730E-001;5.327875167131424E-002;-2.270828466862440E-003;-1.927574980072677E-003;
2.400833333333334E+009;1.577411592006683E-001;5.136175826191902E-002;-2.326651010662317E-003;-1.797293196432293E-003;
2.401000000000000E+009;1.580875664949417E-001;4.904000088572502E-002;-2.623451175168157E-003;-1.885719015263021E-003;
2.401166666666667E+009;1.585309654474258E-001;4.707944765686989E-002;-2.662331564351916E-003;-1.788811525329948E-003;
2.401333333333334E+009;1.589015275239945E-001;4.506367817521095E-002;-2.638351870700717E-003;-1.616823603399098E-003;
2.401500000000000E+009;1.592990458011627E-001;4.297024756669998E-002;-2.916173310950398E-003;-1.552417757920921E-003;
2.401666666666667E+009;1.597618609666824E-001;4.111260175704956E-002;-3.026610473170877E-003;-1.588902669027448E-003;
2.401833333333334E+009;1.602623611688614E-001;3.911571577191353E-002;-2.845363924279809E-003;-1.369650941342115E-003;
2.402000000000000E+009;1.609323471784592E-001;3.728094696998596E-002;-3.041471121832728E-003;-1.214891788549721E-003;
2.402166666666667E+009;1.615513116121292E-001;3.519290685653687E-002;-3.253775183111429E-003;-1.117674633860588E-003;
2.402333333333334E+009;1.622645258903503E-001;3.344051539897919E-002;-3.152105025947094E-003;-1.127278897911310E-003;
2.402500000000000E+009;1.632668077945709E-001;3.186675533652306E-002;-3.235924523323774E-003;-7.811053656041622E-004;
2.402666666666667E+009;1.638786345720291E-001;3.026164509356022E-002;-3.478131489828229E-003;-8.231445681303740E-004;
2.402833333333334E+009;1.648306101560593E-001;2.869542874395847E-002;-3.497902071103454E-003;-8.052714983932674E-004;
2.403000000000000E+009;1.656034439802170E-001;2.720716036856175E-002;-3.187228459864855E-003;-6.655559409409761E-004;
2.403166666666667E+009;1.664955019950867E-001;2.554179728031158E-002;-3.536265809088945E-003;-6.790471379645169E-004;
2.403333333333334E+009;1.674686670303345E-001;2.431018836796284E-002;-3.539086552336812E-003;-5.917280213907361E-004;
2.403500000000000E+009;1.683667302131653E-001;2.329766750335693E-002;-3.728376235812903E-003;-3.502915205899626E-004;
2.403666666666667E+009;1.693277806043625E-001;2.177207730710506E-002;-3.645801451057196E-003;-4.428125612321310E-005;
2.403833333333334E+009;1.702363044023514E-001;2.069152891635895E-002;-3.770712297409773E-003;1.309363142354414E-004;
2.404000000000000E+009;1.711701005697250E-001;1.963782124221325E-002;-3.770540468394756E-003;9.091691754292697E-005;
2.404166666666667E+009;1.720902919769287E-001;1.860713772475720E-002;-3.839638317003846E-003;3.948801604565233E-004;
2.404333333333334E+009;1.729376614093781E-001;1.791443675756455E-002;-4.056519828736782E-003;3.401289577595890E-004;
2.404500000000000E+009;1.736209094524384E-001;1.702118851244450E-002;-3.902103751897812E-003;6.751206819899380E-004;
2.404666666666667E+009;1.745306253433228E-001;1.624814420938492E-002;-3.988205455243588E-003;7.054946618154645E-004;
2.404833333333334E+009;1.752713471651077E-001;1.557468902319670E-002;-4.022392444312573E-003;8.816219051368535E-004;
2.405000000000000E+009;1.759921908378601E-001;1.499085221439600E-002;-3.989737480878830E-003;1.143940142355859E-003;
2.405166666666667E+009;1.767887026071549E-001;1.437089685350657E-002;-3.946671262383461E-003;1.550594344735146E-003;
2.405333333333334E+009;1.774906069040299E-001;1.381942164152861E-002;-3.988189157098532E-003;1.759906182996929E-003;
2.405500000000000E+009;1.780930459499359E-001;1.343214884400368E-002;-3.917051944881678E-003;1.746003981679678E-003;
2.405666666666667E+009;1.784046888351440E-001;1.307973917573690E-002;-3.847195534035564E-003;2.193277236074209E-003;
2.405833333333334E+009;1.787568032741547E-001;1.286226324737072E-002;-3.673270111903548E-003;2.228535711765289E-003;
2.406000000000000E+009;1.792266964912415E-001;1.242295652627945E-002;-3.651408012956381E-003;2.423065248876810E-003;
2.406166666666667E+009;1.794163733720779E-001;1.231412962079048E-002;-3.560712561011314E-003;2.504607196897268E-003;
2.406333333333334E+009;1.796470135450363E-001;1.200753916054964E-002;-3.514488926157355E-003;2.756752073764801E-003;
2.406500000000000E+009;1.797340661287308E-001;1.156606711447239E-002;-3.418523818254471E-003;2.895185491070151E-003;
2.406666666666667E+009;1.796963661909103E-001;1.130265649408102E-002;-3.175593679770827E-003;3.106214338913560E-003;
2.406833333333334E+009;1.798687726259232E-001;1.096374262124300E-002;-3.161076456308365E-003;3.141936613246799E-003;
2.407000000000000E+009;1.796521544456482E-001;1.054419018328190E-002;-2.726774429902434E-003;3.438779851421714E-003;
2.407166666666667E+009;1.796265244483948E-001;1.017067674547434E-002;-2.818871987983584E-003;3.603981342166662E-003;
2.407333333333334E+009;1.794279366731644E-001;9.684145450592041E-003;-2.560639986768365E-003;3.610261715948582E-003;
2.407500000000000E+009;1.789958178997040E-001;9.198590181767941E-003;-2.426683437079191E-003;3.652191720902920E-003;
2.407666666666667E+009;1.786346882581711E-001;8.733042515814304E-003;-2.212567022070289E-003;3.698799526318908E-003;
2.407833333333334E+009;1.780583560466766E-001;7.958702743053436E-003;-2.110500354319811E-003;3.803361672908068E-003;
2.408000000000000E+009;1.776645332574844E-001;7.247488480061293E-003;-1.818114775232971E-003;3.843484446406364E-003;
2.408166666666667E+009;1.771664619445801E-001;6.664389278739691E-003;-1.729985233396292E-003;4.039172083139420E-003;
2.408333333333334E+009;1.768068522214890E-001;5.748791154474020E-003;-1.634771935641766E-003;4.022250883281231E-003;
2.408500000000000E+009;1.760204136371613E-001;4.761100746691227E-003;-1.313105924054980E-003;4.010540898889303E-003;
2.408666666666667E+009;1.753711253404617E-001;3.552075708284974E-003;-1.376834465190768E-003;4.042639862746000E-003;
2.408833333333334E+009;1.747779250144959E-001;2.381933620199561E-003;-1.095305080525577E-003;4.034613724797964E-003;
2.409000000000000E+009;1.739568859338760E-001;1.311553060077131E-003;-8.737247553654015E-004;4.017301369458437E-003;
2.409166666666667E+009;1.734755188226700E-001;-7.899939373601228E-005;-7.542567327618599E-004;4.129906650632620E-003;
2.409333333333334E+009;1.728495955467224E-001;-1.361601636745036E-003;-5.940838018432260E-004;4.180676769465208E-003;
2.409500000000000E+009;1.721076965332031E-001;-2.863897942006588E-003;-3.699655062519014E-004;4.080848768353462E-003;
2.409666666666667E+009;1.714856922626495E-001;-4.337574820965529E-003;-2.320714556844905E-004;4.003182984888554E-003;
2.409833333333334E+009;1.708107739686966E-001;-5.901488475501537E-003;-6.955969001865014E-005;4.053872544318438E-003;
2.410000000000000E+009;1.702589392662048E-001;-7.306769955903292E-003;8.515000081388280E-005;3.974149469286203E-003;
2.410166666666667E+009;1.697864681482315E-001;-9.138899855315685E-003;3.387359902262688E-004;4.091872368007898E-003;
2.410333333333334E+009;1.692709773778915E-001;-1.084115542471409E-002;4.570716700982302E-004;3.975670784711838E-003;
2.410500000000000E+009;1.688808947801590E-001;-1.259960327297449E-002;4.981359816156328E-004;3.944266121834517E-003;
2.410666666666667E+009;1.684585660696030E-001;-1.465875748544931E-002;8.511668420396745E-004;3.843708429485560E-003;
2.410833333333334E+009;1.682759225368500E-001;-1.632250286638737E-002;9.892149828374386E-004;3.841293044388294E-003;
2.411000000000000E+009;1.678357869386673E-001;-1.814724318683147E-002;1.044073374941945E-003;3.695875406265259E-003;
2.411166666666667E+009;1.677450239658356E-001;-2.011443302035332E-002;1.166411791928113E-003;3.703459631651640E-003;
2.411333333333334E+009;1.677494347095490E-001;-2.219676785171032E-002;1.399024855345488E-003;3.657708875834942E-003;
2.411500000000000E+009;1.676053255796433E-001;-2.409596927464008E-002;1.409122487530112E-003;3.563572652637959E-003;
2.411666666666667E+009;1.676681786775589E-001;-2.604720927774906E-002;1.473930780775845E-003;3.367713885381818E-003;
2.411833333333334E+009;1.680263131856918E-001;-2.795206196606159E-002;1.605700934305787E-003;3.413779893890023E-003;
2.412000000000000E+009;1.682169884443283E-001;-2.995262481272221E-002;1.903054653666914E-003;3.263839054852724E-003;
2.412166666666667E+009;1.684952527284622E-001;-3.186471015214920E-002;1.897426205687225E-003;3.158265491947532E-003;
2.412333333333334E+009;1.689546257257462E-001;-3.349445760250092E-002;2.076658885926008E-003;2.915636403486133E-003;
2.412500000000000E+009;1.691417545080185E-001;-3.538754209876061E-002;2.122647594660521E-003;2.867147326469421E-003;
2.412666666666667E+009;1.696035116910934E-001;-3.746772184967995E-002;2.142356242984533E-003;2.676669042557478E-003;
2.412833333333334E+009;1.701513677835465E-001;-3.891707956790924E-002;2.284915186464787E-003;2.649395028129220E-003;
2.413000000000000E+009;1.705864369869232E-001;-4.071607440710068E-002;2.408964792266488E-003;2.666487125679851E-003;
2.413166666666667E+009;1.709441244602203E-001;-4.218087345361710E-002;2.371511422097683E-003;2.499068621546030E-003;
2.413333333333334E+009;1.716662943363190E-001;-4.386327043175697E-002;2.495552180334926E-003;2.208097372204065E-003;
2.413500000000000E+009;1.721655130386353E-001;-4.530567675828934E-002;2.605229383334518E-003;2.100360114127398E-003;
2.413666666666667E+009;1.729215085506439E-001;-4.684394970536232E-002;2.450755331665278E-003;2.070007845759392E-003;
2.413833333333334E+009;1.734150797128677E-001;-4.831357672810555E-002;2.593555487692356E-003;1.957230269908905E-003;
2.414000000000000E+009;1.740038692951202E-001;-4.944615811109543E-002;2.725249389186502E-003;1.800448633730412E-003;
2.414166666666667E+009;1.747663766145706E-001;-5.058821290731430E-002;2.515875035896897E-003;1.559212803840637E-003;
2.414333333333334E+009;1.751248091459274E-001;-5.163423717021942E-002;2.580068539828062E-003;1.483205589465797E-003;
2.414500000000000E+009;1.758524328470230E-001;-5.274848267436028E-002;2.507053315639496E-003;1.358829438686371E-003;
2.414666666666667E+009;1.762616485357285E-001;-5.358154699206352E-002;2.689164830371738E-003;1.383278053253889E-003;
2.414833333333334E+009;1.765894740819931E-001;-5.449145659804344E-002;2.595918951556087E-003;1.246670144610107E-003;
2.415000000000000E+009;1.770460903644562E-001;-5.507874488830566E-002;2.574772806838155E-003;1.119497115723789E-003;
2.415166666666667E+009;1.774479299783707E-001;-5.590429902076721E-002;2.581701148301363E-003;1.121102948673070E-003;
2.415333333333334E+009;1.778118014335632E-001;-5.641771107912064E-002;2.451546955853701E-003;7.777584251016378E-004;
2.415500000000000E+009;1.781141757965088E-001;-5.686545744538307E-002;2.538412576541305E-003;7.872564601711929E-004;
2.415666666666667E+009;1.780437380075455E-001;-5.731323361396790E-002;2.484532073140144E-003;7.417670567519963E-004;
2.415833333333334E+009;1.782345473766327E-001;-5.784699320793152E-002;2.771124010905623E-003;6.713857292197645E-004;
2.416000000000000E+009;1.781936287879944E-001;-5.818509683012962E-002;2.475947141647339E-003;5.663526244461536E-004;
2.416166666666667E+009;1.782894134521484E-001;-5.841973051428795E-002;2.581966808065772E-003;6.540003814734519E-004;
2.416333333333334E+009;1.781632751226425E-001;-5.866720154881477E-002;2.576500177383423E-003;4.287037008907646E-004;
2.416500000000000E+009;1.778147965669632E-001;-5.897542089223862E-002;2.456910442560911E-003;3.941293398384005E-004;
2.416666666666667E+009;1.774375140666962E-001;-5.902189388871193E-002;2.324238652363420E-003;9.820423292694613E-005;
2.416833333333334E+009;1.770800352096558E-001;-5.956746637821198E-002;2.503173891454935E-003;1.479022175772116E-004;
2.417000000000000E+009;1.764116436243057E-001;-5.969372764229775E-002;2.342314226552844E-003;-3.363727591931820E-005;
2.417166666666667E+009;1.759082227945328E-001;-5.971695855259895E-002;2.303696470335126E-003;-3.015363654412795E-005;
2.417333333333334E+009;1.751435995101929E-001;-6.002901867032051E-002;2.407320309430361E-003;-1.101915840990841E-004;
2.417500000000000E+009;1.744303107261658E-001;-6.048996001482010E-002;2.213708357885480E-003;-2.912288182415068E-004;
2.417666666666667E+009;1.737309545278549E-001;-6.052455678582192E-002;2.269716467708349E-003;-2.456300135236234E-004;
2.417833333333334E+009;1.727995723485947E-001;-6.086119636893272E-002;2.250259974971414E-003;-3.325633006170392E-004;
2.418000000000000E+009;1.717753261327744E-001;-6.147183850407600E-002;2.173264976590872E-003;-4.527310084085912E-004;
2.418166666666667E+009;1.706240624189377E-001;-6.156736239790916E-002;2.016894752159715E-003;-4.366020148154348E-004;
2.418333333333334E+009;1.697461009025574E-001;-6.218792870640755E-002;1.988321077078581E-003;-5.892092594876885E-004;
2.418500000000000E+009;1.685709506273270E-001;-6.263826787471771E-002;2.008488867431879E-003;-6.228894926607609E-004;
2.418666666666667E+009;1.676484495401382E-001;-6.329394876956940E-002;1.910264254547656E-003;-6.144307553768158E-004;
2.418833333333334E+009;1.663123816251755E-001;-6.402348726987839E-002;1.746159512549639E-003;-6.379116675816476E-004;
2.419000000000000E+009;1.650019735097885E-001;-6.472615152597427E-002;1.749822753481567E-003;-5.175617989152670E-004;
2.419166666666667E+009;1.637482941150665E-001;-6.547766178846359E-002;1.631309045478702E-003;-7.851811242289841E-004;
2.419333333333334E+009;1.625421345233917E-001;-6.629484891891480E-002;1.697362866252661E-003;-6.713316543027759E-004;
2.419500000000000E+009;1.614172309637070E-001;-6.739188730716705E-002;1.558795571327210E-003;-5.712250131182373E-004;
2.419666666666667E+009;1.602823585271835E-001;-6.839989125728607E-002;1.597548136487603E-003;-7.068002014420927E-004;
2.419833333333334E+009;1.589646637439728E-001;-6.940176337957382E-002;1.480088452808559E-003;-5.900250398553908E-004;
2.420000000000000E+009;1.580013632774353E-001;-7.055629789829254E-002;1.514508971013129E-003;-5.658002337440848E-004;
2.420166666666667E+009;1.569425463676453E-001;-7.186192274093628E-002;1.520700287073851E-003;-6.925901398062706E-004;
2.420333333333334E+009;1.558605432510376E-001;-7.319758087396622E-002;1.335254404693842E-003;-6.650963914580643E-004;
2.420500000000000E+009;1.550420522689819E-001;-7.436744868755341E-002;1.345532247796655E-003;-5.747508257627487E-004;
2.420666666666667E+009;1.539831906557083E-001;-7.590573281049728E-002;1.241998397745192E-003;-7.220674888230860E-004;
2.420833333333334E+009;1.532488614320755E-001;-7.738798856735230E-002;1.386055839248002E-003;-6.260719965212047E-004;
2.421000000000000E+009;1.524000912904739E-001;-7.905942946672440E-002;1.390926656313241E-003;-6.586496601812542E-004;
2.421166666666667E+009;1.518155187368393E-001;-8.058147132396698E-002;1.271121902391315E-003;-4.860673798248172E-004;
2.421333333333334E+009;1.513931900262833E-001;-8.222558349370956E-002;1.235292875207961E-003;-6.708831060677767E-004;
2.421500000000000E+009;1.506367772817612E-001;-8.370210230350494E-002;1.272816909477115E-003;-7.236191886477172E-004;
2.421666666666667E+009;1.502907127141953E-001;-8.550442010164261E-002;1.182598993182182E-003;-6.095605785958469E-004;
2.421833333333334E+009;1.499381214380264E-001;-8.715149015188217E-002;1.160426414571703E-003;-6.935212295502424E-004;
2.422000000000000E+009;1.496271193027496E-001;-8.884427696466446E-002;1.174722565338016E-003;-6.890880758874118E-004;
2.422166666666667E+009;1.494366526603699E-001;-9.072154015302658E-002;1.054173801094294E-003;-7.786068017594516E-004;
2.422333333333334E+009;1.493854969739914E-001;-9.218587726354599E-002;1.060385606251657E-003;-6.670303991995752E-004;
2.422500000000000E+009;1.492365300655365E-001;-9.372075647115707E-002;9.214916499331594E-004;-6.701498641632497E-004;
2.422666666666667E+009;1.494630277156830E-001;-9.546776115894318E-002;1.001514727249742E-003;-7.147375727072358E-004;
2.422833333333334E+009;1.497270017862320E-001;-9.722980856895447E-002;9.924885816872120E-004;-7.662537973374128E-004;
2.423000000000000E+009;1.498233675956726E-001;-9.872823208570480E-002;8.831009618006647E-004;-5.768117262050510E-004;
2.423166666666667E+009;1.501650959253311E-001;-1.003461033105850E-001;1.045064651407301E-003;-6.436452968046069E-004;
2.423333333333334E+009;1.505558490753174E-001;-1.016814783215523E-001;9.554268326610327E-004;-6.755536887794733E-004;
2.423500000000000E+009;1.509138792753220E-001;-1.031948998570442E-001;8.684095810167491E-004;-5.641031311824918E-004;
2.423666666666667E+009;1.511413753032684E-001;-1.048336327075958E-001;8.351225405931473E-004;-6.909088115207851E-004;
2.423833333333334E+009;1.517370045185089E-001;-1.060721278190613E-001;9.700251393951476E-004;-6.333965575322509E-004;
2.424000000000000E+009;1.521278917789459E-001;-1.070181950926781E-001;7.570167072117329E-004;-5.068138125352562E-004;
2.424166666666667E+009;1.525929868221283E-001;-1.083969399333000E-001;8.833914762362838E-004;-4.403949133120477E-004;
2.424333333333334E+009;1.532634496688843E-001;-1.092577576637268E-001;8.479193202219904E-004;-5.876647774130106E-004;
2.424500000000000E+009;1.536060869693756E-001;-1.105367690324783E-001;9.176349849440157E-004;-5.814833566546440E-004;
2.424666666666667E+009;1.541941910982132E-001;-1.112054437398911E-001;9.366365266032517E-004;-3.418486157897860E-004;
2.424833333333334E+009;1.545561999082565E-001;-1.122825294733048E-001;8.322198991663754E-004;-5.268951645120978E-004;
2.425000000000000E+009;1.550674587488174E-001;-1.130532398819923E-001;8.220984018407762E-004;-5.538925761356950E-004;
2.425166666666667E+009;1.553309261798859E-001;-1.137297302484512E-001;7.969483267515898E-004;-4.521243099588901E-004;
2.425333333333334E+009;1.557791829109192E-001;-1.142458990216255E-001;8.035210776142776E-004;-3.478830622043461E-004;
2.425500000000000E+009;1.561185717582703E-001;-1.150208786129952E-001;9.098122827708721E-004;-4.558880464173853E-004;
2.425666666666667E+009;1.563240885734558E-001;-1.154801622033119E-001;8.563866722397506E-004;-4.037412873003632E-004;
2.425833333333334E+009;1.565126329660416E-001;-1.158933788537979E-001;8.285559597425163E-004;-4.937265766784549E-004;
2.426000000000000E+009;1.565373092889786E-001;-1.164039224386215E-001;9.314924827776849E-004;-5.284658400341868E-004;
2.426166666666667E+009;1.568296253681183E-001;-1.167561188340187E-001;9.836015524342656E-004;-4.112603201065213E-004;
2.426333333333334E+009;1.566094011068344E-001;-1.169085279107094E-001;1.019188435748220E-003;-4.283150774426758E-004;
2.426500000000000E+009;1.565553545951843E-001;-1.171270534396172E-001;1.061016111634672E-003;-5.188498180359602E-004;
2.426666666666667E+009;1.565546840429306E-001;-1.172262132167816E-001;1.000953954644501E-003;-6.377570680342615E-004;
2.426833333333334E+009;1.561000794172287E-001;-1.175426244735718E-001;9.022488375194371E-004;-6.206762045621872E-004;
2.427000000000000E+009;1.556810140609741E-001;-1.177512034773827E-001;1.230665249750018E-003;-7.013552822172642E-004;
2.427166666666667E+009;1.551796495914459E-001;-1.176633387804031E-001;8.940852712839842E-004;-4.462050856091082E-004;
2.427333333333334E+009;1.545204967260361E-001;-1.178586333990097E-001;1.022033393383026E-003;-6.346547743305564E-004;
2.427500000000000E+009;1.539117991924286E-001;-1.180458590388298E-001;1.111244549974799E-003;-6.178661715239286E-004;
2.427666666666667E+009;1.532358676195145E-001;-1.181510537862778E-001;1.022638985887170E-003;-5.913104396313429E-004;
2.427833333333334E+009;1.522633731365204E-001;-1.183507144451141E-001;1.111096004024148E-003;-6.130370311439037E-004;
