# Version 1.00
#
freq[Hz];re:Trc1_S11;im:Trc1_S11;re:Trc2_S21;im:Trc2_S21;
2.400000000000000E+009;1.570499092340469E-001;6.088818982243538E-002;-1.961281290277839E-003;-2.014159923419356E-003;
2.400166666666667E+009;1.571227908134460E-001;5.907115340232849E-002;-2.139546675607562E-003;-1.921717310324311E-003;
2.400333333333334E+009;1.571318805217743E-001;5.725361406803131E-002;-2.106657484546304E-003;-2.000160282477737E-003;
2.400500000000000E+009;1.575555950403214E-001;5.528030171990395E-002;-2.319172490388155E-003;-2.014855155721307E-003;
2.400666666666667E+009;1.574685126543045E-001;5.315348878502846E-002;-2.304029650986195E-003;-1.819720026105642E-003;
2.400833333333334E+009;1.577769815921783E-001;5.128241702914238E-002;-2.390324603766203E-003;-1.818972756154835E-003;
2.401000000000000E+009;1.580717712640762E-001;4.906982928514481E-002;-2.522253897041082E-003;-1.754201017320156E-003;
2.401166666666667E+009;1.584191471338272E-001;4.705369099974632E-002;-2.633490134030581E-003;-1.657179091125727E-003;
2.401333333333334E+009;1.587830036878586E-001;4.495853558182716E-002;-2.735141664743424E-003;-1.635277410969138E-003;
2.401500000000000E+009;1.593319177627564E-001;4.292291775345802E-002;-2.803664188832045E-003;-1.551288994960487E-003;
2.401666666666667E+009;1.596983671188355E-001;4.103174433112145E-002;-2.919363323599100E-003;-1.456238795071840E-003;
2.401833333333334E+009;1.603338867425919E-001;3.898267820477486E-002;-2.950677182525396E-003;-1.384685048833489E-003;
2.402000000000000E+009;1.609139889478684E-001;3.708236292004585E-002;-2.978454111143947E-003;-1.279287505894899E-003;
2.402166666666667E+009;1.616295576095581E-001;3.517678007483482E-002;-3.323645563796163E-003;-1.109386561438441E-003;
2.402333333333334E+009;1.622923761606216E-001;3.333887085318565E-002;-3.102492773905397E-003;-1.066425465978682E-003;
2.402500000000000E+009;1.631897687911987E-001;3.171826899051666E-002;-3.196479519829154E-003;-9.815635858103633E-004;
2.402666666666667E+009;1.639191210269928E-001;3.009887784719467E-002;-3.315300215035677E-003;-7.370270905084908E-004;
2.402833333333334E+009;1.647450774908066E-001;2.864468283951283E-002;-3.310570726171136E-003;-7.805671775713563E-004;
2.403000000000000E+009;1.655313819646835E-001;2.704471349716187E-002;-3.421303816139698E-003;-5.506098386831582E-004;
2.403166666666667E+009;1.666651368141174E-001;2.564105950295925E-002;-3.445660462602973E-003;-6.832857616245747E-004;
2.403333333333334E+009;1.674242466688156E-001;2.417013794183731E-002;-3.554685041308403E-003;-3.830043424386531E-004;
2.403500000000000E+009;1.683601289987564E-001;2.308144234120846E-002;-3.632397623732686E-003;-2.726124075707048E-004;
2.403666666666667E+009;1.691914498806000E-001;2.156008221209049E-002;-3.759004874154925E-003;-1.764731423463672E-004;
2.403833333333334E+009;1.703438013792038E-001;2.053032815456390E-002;-3.725869581103325E-003;-4.438610631041229E-005;
2.404000000000000E+009;1.711573004722595E-001;1.941699720919132E-002;-3.876977134495974E-003;1.667454489506781E-004;
2.404166666666667E+009;1.720986068248749E-001;1.840848848223686E-002;-3.786561079323292E-003;4.290568467695266E-004;
2.404333333333334E+009;1.729456484317780E-001;1.778683066368103E-002;-3.878693096339703E-003;4.994979244656861E-004;
2.404500000000000E+009;1.737044602632523E-001;1.689022779464722E-002;-3.966809250414372E-003;5.033694906160235E-004;
2.404666666666667E+009;1.746240407228470E-001;1.614054478704929E-002;-4.006998147815466E-003;7.566983695141971E-004;
2.404833333333334E+009;1.754778921604157E-001;1.551762036979199E-002;-4.048504866659641E-003;9.987928206101060E-004;
2.405000000000000E+009;1.759774833917618E-001;1.494515128433704E-002;-4.000289365649223E-003;1.224637846462429E-003;
2.405166666666667E+009;1.767251640558243E-001;1.437171641737223E-002;-3.967643715441227E-003;1.523749320767820E-003;
2.405333333333334E+009;1.773419231176376E-001;1.381695270538330E-002;-3.865241305902600E-003;1.628968049772084E-003;
2.405500000000000E+009;1.779488474130631E-001;1.355442777276039E-002;-3.811583388596773E-003;1.793261268176138E-003;
2.405666666666667E+009;1.784964501857758E-001;1.308019366115332E-002;-3.881866345182061E-003;1.970233395695686E-003;
2.405833333333334E+009;1.786654740571976E-001;1.278056483715773E-002;-3.669702447950840E-003;2.221859525889158E-003;
2.406000000000000E+009;1.792062371969223E-001;1.238286774605513E-002;-3.661792725324631E-003;2.419037511572242E-003;
2.406166666666667E+009;1.794886589050293E-001;1.224485412240028E-002;-3.561539575457573E-003;2.577303675934672E-003;
2.406333333333334E+009;1.797547191381455E-001;1.196825318038464E-002;-3.606155980378389E-003;2.642133738845587E-003;
2.406500000000000E+009;1.797935664653778E-001;1.153328642249107E-002;-3.208692185580730E-003;2.838384127244353E-003;
2.406666666666667E+009;1.795094311237335E-001;1.137639209628105E-002;-3.174962941557169E-003;2.824786351993680E-003;
2.406833333333334E+009;1.797133237123489E-001;1.087973825633526E-002;-3.076379187405109E-003;3.205599263310432E-003;
2.407000000000000E+009;1.798591911792755E-001;1.053204759955406E-002;-3.359085880219936E-003;3.231116337701678E-003;
2.407166666666667E+009;1.795731037855148E-001;1.031133811920881E-002;-2.854861551895738E-003;3.452590899541974E-003;
2.407333333333334E+009;1.792933195829392E-001;9.774487465620041E-003;-2.628746209666133E-003;3.513769013807178E-003;
2.407500000000000E+009;1.790859401226044E-001;9.189696051180363E-003;-2.455416833981872E-003;3.572145709767938E-003;
2.407666666666667E+009;1.786519885063171E-001;8.654295466840267E-003;-2.209117868915200E-003;3.740139072760940E-003;
2.407833333333334E+009;1.779711544513702E-001;8.013132028281689E-003;-2.121080877259374E-003;3.966036252677441E-003;
2.408000000000000E+009;1.776857674121857E-001;7.221775595098734E-003;-1.886953017674387E-003;3.861423814669251E-003;
2.408166666666667E+009;1.771452724933624E-001;6.512703374028206E-003;-1.792147872038186E-003;3.851749934256077E-003;
2.408333333333334E+009;1.767224371433258E-001;5.685023032128811E-003;-1.469832379370928E-003;3.884080331772566E-003;
2.408500000000000E+009;1.760890781879425E-001;4.657231271266937E-003;-1.276290626265109E-003;4.095451906323433E-003;
2.408666666666667E+009;1.754484921693802E-001;3.659153822809458E-003;-1.198746031150222E-003;4.047931637614965E-003;
2.408833333333334E+009;1.746210604906082E-001;2.402964746579528E-003;-1.040956471115351E-003;4.044678993523121E-003;
2.409000000000000E+009;1.740087717771530E-001;1.381818088702858E-003;-7.625324651598930E-004;3.957888111472130E-003;
2.409166666666667E+009;1.733716279268265E-001;6.418361590476707E-005;-5.703532951883972E-004;4.130351357161999E-003;
2.409333333333334E+009;1.728109866380692E-001;-1.288202707655728E-003;-6.235790788196027E-004;4.276861902326345E-003;
2.409500000000000E+009;1.720412969589233E-001;-2.968109911307693E-003;-2.616040583234280E-004;4.104894585907459E-003;
2.409666666666667E+009;1.713908761739731E-001;-4.280121531337500E-003;-2.708129177335650E-004;4.006472416222096E-003;
2.409833333333334E+009;1.706682890653610E-001;-5.708809476345778E-003;8.648218499729410E-005;4.077687393873930E-003;
2.410000000000000E+009;1.702022105455399E-001;-7.461386732757092E-003;9.823719301493838E-005;4.159095231443644E-003;
2.410166666666667E+009;1.698081791400909E-001;-9.115058928728104E-003;2.712943241931498E-004;4.071155562996864E-003;
2.410333333333334E+009;1.692649573087692E-001;-1.086123846471310E-002;4.100141231901944E-004;3.934268839657307E-003;
2.410500000000000E+009;1.689392477273941E-001;-1.272547896951437E-002;6.006455514580011E-004;3.940118942409754E-003;
2.410666666666667E+009;1.684663146734238E-001;-1.469488721340895E-002;7.611231412738562E-004;3.795233322307468E-003;
2.410833333333334E+009;1.682708561420441E-001;-1.629211381077766E-002;9.301336249336600E-004;3.811109811067581E-003;
2.411000000000000E+009;1.679964661598206E-001;-1.820616424083710E-002;9.908964857459068E-004;3.697768086567521E-003;
2.411166666666667E+009;1.677277982234955E-001;-2.019203267991543E-002;1.109373522922397E-003;3.667947836220264E-003;
2.411333333333334E+009;1.677737236022949E-001;-2.207996323704720E-002;1.385827315971255E-003;3.585667815059423E-003;
2.411500000000000E+009;1.675811707973480E-001;-2.424789033830166E-002;1.342361909337342E-003;3.399524604901671E-003;
2.411666666666667E+009;1.678009629249573E-001;-2.614326402544975E-002;1.549991196952760E-003;3.477959893643856E-003;
2.411833333333334E+009;1.678754240274429E-001;-2.785832434892654E-002;1.625159056857228E-003;3.382312133908272E-003;
2.412000000000000E+009;1.681513637304306E-001;-2.985885180532932E-002;1.889627659693360E-003;3.227241802960634E-003;
2.412166666666667E+009;1.684304028749466E-001;-3.186769038438797E-002;1.875877031125128E-003;2.993807662278414E-003;
2.412333333333334E+009;1.689499914646149E-001;-3.363716229796410E-002;2.005707006901503E-003;3.057539463043213E-003;
2.412500000000000E+009;1.692271977663040E-001;-3.552098199725151E-002;2.272690646350384E-003;2.945387503132224E-003;
2.412666666666667E+009;1.695239841938019E-001;-3.737654536962509E-002;2.126435982063413E-003;2.869269810616970E-003;
2.412833333333334E+009;1.700502485036850E-001;-3.890378400683403E-002;2.304341644048691E-003;2.690217457711697E-003;
2.413000000000000E+009;1.703538596630096E-001;-4.066390916705132E-002;2.392465714365244E-003;2.476687775924802E-003;
2.413166666666667E+009;1.710168719291687E-001;-4.227328300476074E-002;2.349056070670486E-003;2.413020003587008E-003;
2.413333333333334E+009;1.715823858976364E-001;-4.391234368085861E-002;2.549994038417935E-003;2.291813027113676E-003;
2.413500000000000E+009;1.721978783607483E-001;-4.535688459873200E-002;2.431070432066917E-003;2.200429793447256E-003;
2.413666666666667E+009;1.730050146579742E-001;-4.664600640535355E-002;2.719304990023375E-003;2.109423978254199E-003;
2.413833333333334E+009;1.734750717878342E-001;-4.829378798604012E-002;2.649905160069466E-003;1.939806737937033E-003;
2.414000000000000E+009;1.738222688436508E-001;-4.956489801406860E-002;2.519181929528713E-003;1.867064740508795E-003;
2.414166666666667E+009;1.745373755693436E-001;-5.033880844712257E-002;2.714978531002998E-003;1.618451904505491E-003;
2.414333333333334E+009;1.751524507999420E-001;-5.165917053818703E-002;2.616174519062042E-003;1.637836336158216E-003;
2.414500000000000E+009;1.759138405323029E-001;-5.260205641388893E-002;2.755637746304274E-003;1.470846589654684E-003;
2.414666666666667E+009;1.762923747301102E-001;-5.358593538403511E-002;2.812671009451151E-003;1.281045493669808E-003;
2.414833333333334E+009;1.765664666891098E-001;-5.438655614852905E-002;2.683238126337528E-003;1.192690688185394E-003;
2.415000000000000E+009;1.770000159740448E-001;-5.509423464536667E-002;2.492556581273675E-003;9.888261556625366E-004;
2.415166666666667E+009;1.774565428495407E-001;-5.574114993214607E-002;2.678528428077698E-003;8.016439387574792E-004;
2.415333333333334E+009;1.777614504098892E-001;-5.633638799190521E-002;2.764022676274180E-003;9.039746946655214E-004;
2.415500000000000E+009;1.779692471027374E-001;-5.689430609345436E-002;2.671588910743594E-003;8.684288477525115E-004;
2.415666666666667E+009;1.781523078680039E-001;-5.730233341455460E-002;2.576450351625681E-003;7.221339037641883E-004;
2.415833333333334E+009;1.782648116350174E-001;-5.783550068736076E-002;2.775750588625670E-003;6.907919887453318E-004;
2.416000000000000E+009;1.780850142240524E-001;-5.805201828479767E-002;2.599067054688931E-003;5.177443381398916E-004;
2.416166666666667E+009;1.783195436000824E-001;-5.845190584659576E-002;2.522686030715704E-003;4.201010742690414E-004;
2.416333333333334E+009;1.781129688024521E-001;-5.868327617645264E-002;2.627986948937178E-003;3.199818020220846E-004;
2.416500000000000E+009;1.777737438678742E-001;-5.891290307044983E-002;2.345669083297253E-003;1.486674154875800E-004;
2.416666666666667E+009;1.774428337812424E-001;-5.902475118637085E-002;2.411283086985350E-003;2.238644228782505E-004;
2.416833333333334E+009;1.772011518478394E-001;-5.951596796512604E-002;2.235444961115718E-003;1.611134166523698E-006;
2.417000000000000E+009;1.764350086450577E-001;-5.971517786383629E-002;2.231603022664785E-003;6.121394108049572E-005;
2.417166666666667E+009;1.758466958999634E-001;-5.978909507393837E-002;2.187015023082495E-003;-1.060001231962815E-004;
2.417333333333334E+009;1.752282679080963E-001;-6.001070141792297E-002;2.435868140310049E-003;5.165548282093369E-005;
2.417500000000000E+009;1.743911653757095E-001;-6.055185198783875E-002;2.146040089428425E-003;-1.308350183535367E-004;
2.417666666666667E+009;1.737009286880493E-001;-6.059793755412102E-002;2.190032741054893E-003;-2.407092542853206E-004;
2.417833333333334E+009;1.726759672164917E-001;-6.087758392095566E-002;2.191756153479219E-003;-2.256132574984804E-004;
2.418000000000000E+009;1.716185510158539E-001;-6.131424009799957E-002;2.019437495619059E-003;-2.012907352764159E-004;
2.418166666666667E+009;1.705840677022934E-001;-6.165820732712746E-002;2.052652416750789E-003;-3.920580202247948E-004;
2.418333333333334E+009;1.697745025157929E-001;-6.229212880134583E-002;1.897561131045222E-003;-3.243325918447226E-004;
2.418500000000000E+009;1.685036867856979E-001;-6.271604448556900E-002;1.893262728117406E-003;-3.735775535460562E-004;
2.418666666666667E+009;1.674673408269882E-001;-6.332737207412720E-002;1.753186690621078E-003;-5.168589414097369E-004;
2.418833333333334E+009;1.661565005779266E-001;-6.406679004430771E-002;1.701182918623090E-003;-4.263519658707082E-004;
2.419000000000000E+009;1.648883819580078E-001;-6.465144455432892E-002;1.587477396242321E-003;-4.821638285648078E-004;
2.419166666666667E+009;1.636509448289871E-001;-6.569864600896835E-002;1.713072764687240E-003;-4.366813518572599E-004;
2.419333333333334E+009;1.622954308986664E-001;-6.618654727935791E-002;1.614827779121697E-003;-4.445566155482084E-004;
2.419500000000000E+009;1.612720489501953E-001;-6.732179224491119E-002;1.596503425389528E-003;-4.381740582175553E-004;
2.419666666666667E+009;1.601479500532150E-001;-6.836806237697601E-002;1.436406048014760E-003;-4.182220727670938E-004;
2.419833333333334E+009;1.588138192892075E-001;-6.943324953317642E-002;1.561234123073518E-003;-4.164612619206309E-004;
2.420000000000000E+009;1.578688621520996E-001;-7.066355645656586E-002;1.491529634222388E-003;-3.572573186829686E-004;
2.420166666666667E+009;1.567461788654327E-001;-7.183177769184113E-002;1.489650690928102E-003;-6.623520748689771E-004;
2.420333333333334E+009;1.557592451572418E-001;-7.319732010364533E-002;1.360331312753260E-003;-4.515699401963502E-004;
2.420500000000000E+009;1.547603160142899E-001;-7.436949014663696E-002;1.429113908670843E-003;-6.226007826626301E-004;
2.420666666666667E+009;1.539243161678314E-001;-7.586944103240967E-002;1.252690330147743E-003;-5.400713416747749E-004;
2.420833333333334E+009;1.532883644104004E-001;-7.741947472095490E-002;1.348216319456697E-003;-5.061298725195229E-004;
2.421000000000000E+009;1.522563993930817E-001;-7.896330207586289E-002;1.324632321484387E-003;-5.944746080785990E-004;
2.421166666666667E+009;1.516728997230530E-001;-8.050291985273361E-002;1.339115318842232E-003;-4.572563339024782E-004;
2.421333333333334E+009;1.511976271867752E-001;-8.219029754400253E-002;1.277931383810937E-003;-5.092313513159752E-004;
2.421500000000000E+009;1.505333930253983E-001;-8.370537310838699E-002;1.283779507502914E-003;-7.281232974492014E-004;
2.421666666666667E+009;1.502011865377426E-001;-8.537741005420685E-002;1.388721982948482E-003;-6.614389130845666E-004;
2.421833333333334E+009;1.499905884265900E-001;-8.710968494415283E-002;1.138533698394895E-003;-5.484754219651222E-004;
2.422000000000000E+009;1.496469378471375E-001;-8.878608793020248E-002;1.243330771103501E-003;-6.135734729468823E-004;
2.422166666666667E+009;1.495076864957809E-001;-9.057853370904923E-002;1.140239182859659E-003;-5.561053403653204E-004;
2.422333333333334E+009;1.495996862649918E-001;-9.216272830963135E-002;1.264008344151080E-003;-7.134453044272959E-004;
2.422500000000000E+009;1.493758112192154E-001;-9.373491257429123E-002;1.077349646948278E-003;-6.737107178196311E-004;
2.422666666666667E+009;1.493456214666367E-001;-9.546200186014175E-002;1.068775774911046E-003;-4.875731538049877E-004;
2.422833333333334E+009;1.495515406131744E-001;-9.711024910211563E-002;1.029685372486711E-003;-7.197470986284316E-004;
2.423000000000000E+009;1.498363465070725E-001;-9.866703301668167E-002;9.629843407310545E-004;-5.169195355847478E-004;
2.423166666666667E+009;1.502646654844284E-001;-1.004063487052918E-001;9.966372745111585E-004;-7.123327814042568E-004;
2.423333333333334E+009;1.504851877689362E-001;-1.018500253558159E-001;1.031612278893590E-003;-4.432091955095530E-004;
2.423500000000000E+009;1.509583592414856E-001;-1.032433435320854E-001;9.833603398874402E-004;-5.630464293062687E-004;
2.423666666666667E+009;1.510798186063767E-001;-1.045735925436020E-001;8.876081556081772E-004;-4.429325344972313E-004;
2.423833333333334E+009;1.517126560211182E-001;-1.059903651475906E-001;9.099030285142362E-004;-5.257530137896538E-004;
2.424000000000000E+009;1.522082388401032E-001;-1.070317402482033E-001;8.947373717091978E-004;-4.825669457204640E-004;
2.424166666666667E+009;1.525598168373108E-001;-1.082936748862267E-001;8.879738743416965E-004;-5.743735237047076E-004;
2.424333333333334E+009;1.531545668840408E-001;-1.094055101275444E-001;8.714368450455368E-004;-6.102801999077201E-004;
2.424500000000000E+009;1.535920500755310E-001;-1.106059700250626E-001;8.634710684418678E-004;-4.360788152553141E-004;
2.424666666666667E+009;1.543581336736679E-001;-1.112475767731667E-001;8.152673835866153E-004;-3.892973181791604E-004;
2.424833333333334E+009;1.545891314744949E-001;-1.122129186987877E-001;8.377130725421011E-004;-5.203172331675887E-004;
2.425000000000000E+009;1.550501585006714E-001;-1.130692362785339E-001;9.695534245111048E-004;-4.100404912605882E-004;
2.425166666666667E+009;1.552987843751907E-001;-1.137179732322693E-001;1.079586567357183E-003;-4.867656680289656E-004;
2.425333333333334E+009;1.558082401752472E-001;-1.143328920006752E-001;8.944917935878038E-004;-4.551959573291242E-004;
2.425500000000000E+009;1.560688614845276E-001;-1.149774864315987E-001;8.746169623918831E-004;-3.541634650900960E-004;
2.425666666666667E+009;1.562201231718063E-001;-1.155198216438294E-001;8.756977040320635E-004;-5.173927056603134E-004;
2.425833333333334E+009;1.564787924289703E-001;-1.159885898232460E-001;8.977988036349416E-004;-4.955463227815926E-004;
2.426000000000000E+009;1.566160023212433E-001;-1.164976879954338E-001;1.019577728584409E-003;-5.296483868733048E-004;
2.426166666666667E+009;1.567876189947128E-001;-1.167947575449944E-001;9.855676908046007E-004;-3.698023792821914E-004;
2.426333333333334E+009;1.566866338253021E-001;-1.169520244002342E-001;9.512106189504266E-004;-5.822634557262063E-004;
2.426500000000000E+009;1.564926356077194E-001;-1.171840429306030E-001;1.012535416521132E-003;-4.810937389265746E-004;
2.426666666666667E+009;1.564131826162338E-001;-1.173349395394325E-001;9.334113565273583E-004;-4.473444132599980E-004;
2.426833333333334E+009;1.560731977224350E-001;-1.175275892019272E-001;8.065317524597049E-004;-5.808519781567156E-004;
2.427000000000000E+009;1.557316035032272E-001;-1.177093610167503E-001;9.342866251245141E-004;-6.727496511302888E-004;
2.427166666666667E+009;1.552435159683228E-001;-1.177318021655083E-001;9.392541251145303E-004;-6.305365241132677E-004;
2.427333333333334E+009;1.546087563037872E-001;-1.178589388728142E-001;1.020550145767629E-003;-6.961835315451026E-004;
2.427500000000000E+009;1.540197432041168E-001;-1.181019693613052E-001;9.991171536967158E-004;-5.608306382782757E-004;
2.427666666666667E+009;1.532110124826431E-001;-1.182350590825081E-001;1.040317467413843E-003;-5.703295464627445E-004;
2.427833333333334E+009;1.522885262966156E-001;-1.183801814913750E-001;1.080904039554298E-003;-7.234545191749930E-004;
