# Version 1.00
#
freq[Hz];re:Trc1_S11;im:Trc1_S11;re:Trc2_S21;im:Trc2_S21;
2.400000000000000E+009;1.553380787372589E-001;6.162431836128235E-002;-4.251898732036352E-003;-2.206974430009723E-003;
2.400166666666667E+009;1.553423851728439E-001;5.972298607230187E-002;-4.315998870879412E-003;-2.121852478012443E-003;
2.400333333333334E+009;1.553542613983154E-001;5.764611437916756E-002;-4.197573289275169E-003;-1.998649211600423E-003;
2.400500000000000E+009;1.554763317108154E-001;5.545704439282417E-002;-4.396355710923672E-003;-2.110958797857165E-003;
2.400666666666667E+009;1.555165052413940E-001;5.328326299786568E-002;-4.320411011576653E-003;-1.876426744274795E-003;
2.400833333333334E+009;1.557748764753342E-001;5.113895609974861E-002;-4.363853484392166E-003;-1.734657329507172E-003;
2.401000000000000E+009;1.559545844793320E-001;4.899070411920548E-002;-4.255706910043955E-003;-1.520847668871284E-003;
2.401166666666667E+009;1.563068330287933E-001;4.666588082909584E-002;-4.304855130612850E-003;-1.522424165159464E-003;
2.401333333333334E+009;1.567319482564926E-001;4.446277394890785E-002;-4.550029523670673E-003;-1.329774851910770E-003;
2.401500000000000E+009;1.574364006519318E-001;4.214932769536972E-002;-4.385809879750013E-003;-1.280655851587653E-003;
2.401666666666667E+009;1.579172313213348E-001;4.034088551998138E-002;-4.252846352756023E-003;-1.155001693405211E-003;
2.401833333333334E+009;1.585420370101929E-001;3.816760703921318E-002;-4.304198082536459E-003;-1.080801477655768E-003;
2.402000000000000E+009;1.589496582746506E-001;3.599791228771210E-002;-4.290963523089886E-003;-9.208094561472535E-004;
2.402166666666667E+009;1.599663943052292E-001;3.402282670140266E-002;-4.438068717718124E-003;-8.543884032405913E-004;
2.402333333333334E+009;1.607655882835388E-001;3.215038776397705E-002;-4.311451222747564E-003;-6.619637133553624E-004;
2.402500000000000E+009;1.618137210607529E-001;3.035497665405273E-002;-4.335575737059116E-003;-8.549184422008693E-004;
2.402666666666667E+009;1.625829488039017E-001;2.871211245656014E-002;-4.451293498277664E-003;-5.423711845651269E-004;
2.402833333333334E+009;1.636293381452560E-001;2.714435569941998E-002;-4.373775329440832E-003;-6.600850610993803E-004;
2.403000000000000E+009;1.645574420690537E-001;2.549707330763340E-002;-4.325328860431910E-003;-5.425887065939605E-004;
2.403166666666667E+009;1.657112985849381E-001;2.434271946549416E-002;-4.286310635507107E-003;-3.623240627348423E-004;
2.403333333333334E+009;1.667233556509018E-001;2.287492342293263E-002;-4.269429482519627E-003;-3.357665555085987E-004;
2.403500000000000E+009;1.678453236818314E-001;2.162143960595131E-002;-4.382599145174027E-003;-1.843249046942219E-004;
2.403666666666667E+009;1.688660830259323E-001;2.034076116979122E-002;-4.514981526881456E-003;-2.449057938065380E-004;
2.403833333333334E+009;1.701854467391968E-001;1.929667405784130E-002;-4.408311564475298E-003;-5.594313188339584E-005;
2.404000000000000E+009;1.712800711393356E-001;1.813725568354130E-002;-4.417860414832830E-003;6.589260010514408E-005;
2.404166666666667E+009;1.721982508897781E-001;1.738337613642216E-002;-4.384785890579224E-003;1.977834472199902E-004;
2.404333333333334E+009;1.732754558324814E-001;1.660270802676678E-002;-4.461898468434811E-003;2.963070583064109E-004;
2.404500000000000E+009;1.742634922266007E-001;1.588277891278267E-002;-4.429561551660299E-003;4.496867768466473E-004;
2.404666666666667E+009;1.752531081438065E-001;1.518172305077314E-002;-4.554842598736286E-003;5.032631452195346E-004;
2.404833333333334E+009;1.762863099575043E-001;1.468988694250584E-002;-4.514812026172876E-003;5.984703311696649E-004;
2.405000000000000E+009;1.771508753299713E-001;1.418411266058683E-002;-4.528682678937912E-003;8.484844584017992E-004;
2.405166666666667E+009;1.779793947935104E-001;1.382582355290651E-002;-4.588541574776173E-003;9.082140168175101E-004;
2.405333333333334E+009;1.786045134067535E-001;1.330528501421213E-002;-4.526576027274132E-003;1.077234512194991E-003;
2.405500000000000E+009;1.792915016412735E-001;1.319476030766964E-002;-4.454064182937145E-003;1.239254837855697E-003;
2.405666666666667E+009;1.796452403068543E-001;1.302002556622028E-002;-4.418393131345511E-003;1.235179253853858E-003;
2.405833333333334E+009;1.800729483366013E-001;1.284146029502153E-002;-4.429513122886419E-003;1.321539515629411E-003;
2.406000000000000E+009;1.805314570665360E-001;1.254576630890369E-002;-4.509789403527975E-003;1.597172813490033E-003;
2.406166666666667E+009;1.808772981166840E-001;1.251138653606176E-002;-4.384290426969528E-003;1.679586828686297E-003;
2.406333333333334E+009;1.810970306396484E-001;1.235040556639433E-002;-4.265654366463423E-003;1.729271025396884E-003;
2.406500000000000E+009;1.811514496803284E-001;1.220604218542576E-002;-4.019394051283598E-003;1.851157750934362E-003;
2.406666666666667E+009;1.810512542724609E-001;1.213914807885885E-002;-4.213146865367889E-003;1.830012188293040E-003;
2.406833333333334E+009;1.810715794563294E-001;1.188718434423208E-002;-4.141482524573803E-003;1.977286767214537E-003;
2.407000000000000E+009;1.808562278747559E-001;1.163325365632772E-002;-4.069876857101917E-003;2.054811222478747E-003;
2.407166666666667E+009;1.808560937643051E-001;1.130599342286587E-002;-4.090437665581703E-003;2.233093604445458E-003;
2.407333333333334E+009;1.804106980562210E-001;1.096499431878328E-002;-4.011047072708607E-003;2.391523914411664E-003;
2.407500000000000E+009;1.800228357315064E-001;1.070653088390827E-002;-3.865458071231842E-003;2.338427817448974E-003;
2.407666666666667E+009;1.793973296880722E-001;1.014421693980694E-002;-3.725403221324086E-003;2.493896521627903E-003;
2.407833333333334E+009;1.787902563810349E-001;9.525443427264690E-003;-3.799100173637271E-003;2.766723278909922E-003;
2.408000000000000E+009;1.783156991004944E-001;8.824470452964306E-003;-3.706361632794142E-003;2.760978182777762E-003;
2.408166666666667E+009;1.776093095541000E-001;8.332859724760056E-003;-3.628719598054886E-003;2.863246016204357E-003;
2.408333333333334E+009;1.771102994680405E-001;7.427924312651157E-003;-3.516963915899396E-003;2.823305781930685E-003;
2.408500000000000E+009;1.761988252401352E-001;6.519711576402187E-003;-3.452103119343519E-003;2.930774120613933E-003;
2.408666666666667E+009;1.754641830921173E-001;5.445779766887426E-003;-3.480526152998209E-003;3.009143518283963E-003;
2.408833333333334E+009;1.746243536472321E-001;4.324865061789751E-003;-3.273064037784934E-003;3.173724282532930E-003;
2.409000000000000E+009;1.737763732671738E-001;3.169129602611065E-003;-3.329185536131263E-003;3.105332143604755E-003;
2.409166666666667E+009;1.730204224586487E-001;1.886579906567931E-003;-3.283367957919836E-003;3.175224177539349E-003;
2.409333333333334E+009;1.722495257854462E-001;3.709617594722658E-004;-3.038227092474699E-003;3.176991362124682E-003;
2.409500000000000E+009;1.713820695877075E-001;-1.205011736601591E-003;-3.021544544026256E-003;3.398706438019872E-003;
2.409666666666667E+009;1.706649363040924E-001;-2.814971841871738E-003;-2.882882021367550E-003;3.418702399358153E-003;
2.409833333333334E+009;1.698454022407532E-001;-4.198078997433186E-003;-2.901774132624269E-003;3.411549143493176E-003;
2.410000000000000E+009;1.691978573799133E-001;-6.000144407153130E-003;-2.829849487170577E-003;3.530274843797088E-003;
2.410166666666667E+009;1.686521023511887E-001;-7.857961580157280E-003;-2.727096434682608E-003;3.600930562242866E-003;
2.410333333333334E+009;1.681069731712341E-001;-9.606079198420048E-003;-2.720913151279092E-003;3.521239385008812E-003;
2.410500000000000E+009;1.676338613033295E-001;-1.181979011744261E-002;-2.493640873581171E-003;3.666944103315473E-003;
2.410666666666667E+009;1.670702993869782E-001;-1.384690683335066E-002;-2.483085962012410E-003;3.621380776166916E-003;
2.410833333333334E+009;1.669094562530518E-001;-1.556478999555111E-002;-2.498618094250560E-003;3.647668519988656E-003;
2.411000000000000E+009;1.666459441184998E-001;-1.771677471697331E-002;-2.369363326579332E-003;3.631037194281817E-003;
2.411166666666667E+009;1.662928909063339E-001;-1.984446309506893E-002;-2.315329853445292E-003;3.776936559006572E-003;
2.411333333333334E+009;1.662022173404694E-001;-2.187027409672737E-002;-2.262264955788851E-003;3.864267375320196E-003;
2.411500000000000E+009;1.662131100893021E-001;-2.408646233379841E-002;-2.243943512439728E-003;3.891427302733064E-003;
2.411666666666667E+009;1.663340032100678E-001;-2.612224593758583E-002;-2.183391014114022E-003;4.082327708601952E-003;
2.411833333333334E+009;1.664845049381256E-001;-2.806478179991245E-002;-2.052265452221036E-003;4.242785274982452E-003;
2.412000000000000E+009;1.668469756841660E-001;-3.014582581818104E-002;-1.992163714021444E-003;4.090258851647377E-003;
2.412166666666667E+009;1.671348065137863E-001;-3.212711215019226E-002;-1.969381002709270E-003;4.268834833055735E-003;
2.412333333333334E+009;1.676554679870606E-001;-3.425340726971626E-002;-1.921534189023078E-003;4.338221158832312E-003;
2.412500000000000E+009;1.680235415697098E-001;-3.610194846987724E-002;-1.909727463498712E-003;4.321205429732800E-003;
2.412666666666667E+009;1.685156375169754E-001;-3.823281824588776E-002;-1.777476747520268E-003;4.440372809767723E-003;
2.412833333333334E+009;1.691836267709732E-001;-4.009264707565308E-002;-1.609650556929410E-003;4.577072802931070E-003;
2.413000000000000E+009;1.699205487966538E-001;-4.162242636084557E-002;-1.637567766010761E-003;4.706818610429764E-003;
2.413166666666667E+009;1.705008000135422E-001;-4.355674237012863E-002;-1.376429572701454E-003;4.801940172910690E-003;
2.413333333333334E+009;1.710229068994522E-001;-4.509679228067398E-002;-1.484052394516766E-003;4.753019195050001E-003;
2.413500000000000E+009;1.717092990875244E-001;-4.666778445243835E-002;-1.077216351404786E-003;4.915071651339531E-003;
2.413666666666667E+009;1.725356429815292E-001;-4.807391017675400E-002;-1.035403693094850E-003;5.002661608159542E-003;
2.413833333333334E+009;1.732721626758575E-001;-4.936996102333069E-002;-7.621936383657157E-004;5.001718644052744E-003;
2.414000000000000E+009;1.738014072179794E-001;-5.064035207033157E-002;-5.962417344562709E-004;5.009733606129885E-003;
2.414166666666667E+009;1.747083663940430E-001;-5.176690965890884E-002;-6.045579793862999E-004;5.025150720030069E-003;
2.414333333333334E+009;1.753556132316589E-001;-5.306445062160492E-002;-4.026904643978924E-004;5.251408088952303E-003;
2.414500000000000E+009;1.762045919895172E-001;-5.393719300627708E-002;-2.252617123303935E-004;5.304447375237942E-003;
2.414666666666667E+009;1.767844259738922E-001;-5.471754074096680E-002;-1.109970107791014E-004;5.377643276005983E-003;
2.414833333333334E+009;1.773013919591904E-001;-5.554515868425369E-002;1.292827073484659E-004;5.457424093037844E-003;
2.415000000000000E+009;1.777895987033844E-001;-5.616370588541031E-002;1.336723653366789E-004;5.484815686941147E-003;
2.415166666666667E+009;1.781817376613617E-001;-5.673585832118988E-002;5.537412944249809E-004;5.598485004156828E-003;
2.415333333333334E+009;1.786729842424393E-001;-5.729692056775093E-002;7.111026206985116E-004;5.507526919245720E-003;
2.415500000000000E+009;1.790200918912888E-001;-5.767265334725380E-002;9.308742010034621E-004;5.486018024384975E-003;
2.415666666666667E+009;1.791454106569290E-001;-5.795935913920403E-002;9.532098774798214E-004;5.424215458333492E-003;
2.415833333333334E+009;1.794431954622269E-001;-5.830841138958931E-002;1.131032709963620E-003;5.434645805507898E-003;
2.416000000000000E+009;1.795025020837784E-001;-5.862685292959213E-002;1.353206927888095E-003;5.356647539883852E-003;
2.416166666666667E+009;1.794474273920059E-001;-5.866552516818047E-002;1.643106108531356E-003;5.314902402460575E-003;
2.416333333333334E+009;1.793102920055389E-001;-5.887813121080399E-002;1.710851094685495E-003;5.423916969448328E-003;
2.416500000000000E+009;1.791148632764816E-001;-5.894167721271515E-002;1.837811665609479E-003;5.169007461518049E-003;
2.416666666666667E+009;1.788139045238495E-001;-5.907067656517029E-002;2.024099929258227E-003;5.180276464670897E-003;
2.416833333333334E+009;1.784899979829788E-001;-5.921110510826111E-002;2.201271010562778E-003;5.135788116604090E-003;
2.417000000000000E+009;1.777301877737045E-001;-5.925509333610535E-002;2.524992451071739E-003;4.965049214661121E-003;
2.417166666666667E+009;1.769749969244003E-001;-5.936987698078156E-002;2.638756530359387E-003;5.042517092078924E-003;
2.417333333333334E+009;1.763212531805039E-001;-5.935756489634514E-002;2.686213701963425E-003;5.057185888290405E-003;
2.417500000000000E+009;1.755417734384537E-001;-5.964069068431854E-002;2.904604421928525E-003;4.805787932127714E-003;
2.417666666666667E+009;1.746545583009720E-001;-5.974392965435982E-002;3.185606561601162E-003;4.634559620171785E-003;
2.417833333333334E+009;1.737009435892105E-001;-5.989049002528191E-002;3.313964232802391E-003;4.722864367067814E-003;
2.418000000000000E+009;1.725246906280518E-001;-6.025017052888870E-002;3.322925651445985E-003;4.481511190533638E-003;
2.418166666666667E+009;1.713577508926392E-001;-6.054607778787613E-002;3.552455455064774E-003;4.283084999769926E-003;
2.418333333333334E+009;1.703844815492630E-001;-6.087775900959969E-002;3.639061236754060E-003;4.237870685756207E-003;
2.418500000000000E+009;1.690512150526047E-001;-6.133075430989265E-002;3.802938153967261E-003;4.136669449508190E-003;
2.418666666666667E+009;1.678514033555985E-001;-6.188911199569702E-002;3.903176402673125E-003;4.090715665370226E-003;
2.418833333333334E+009;1.663463860750198E-001;-6.261125952005386E-002;3.952608443796635E-003;3.787912428379059E-003;
2.419000000000000E+009;1.649192124605179E-001;-6.324398517608643E-002;4.238560330122709E-003;3.759575774893165E-003;
2.419166666666667E+009;1.635881513357163E-001;-6.409064680337906E-002;4.257387481629849E-003;3.632910549640656E-003;
2.419333333333334E+009;1.620445251464844E-001;-6.477708369493485E-002;4.356149118393660E-003;3.634290071204305E-003;
2.419500000000000E+009;1.609091162681580E-001;-6.600356847047806E-002;4.343585111200810E-003;3.452146658673883E-003;
2.419666666666667E+009;1.597120016813278E-001;-6.710967421531677E-002;4.511362873017788E-003;3.225989406928420E-003;
2.419833333333334E+009;1.582992225885391E-001;-6.808993965387344E-002;4.563265480101109E-003;3.217686200514436E-003;
2.420000000000000E+009;1.571780145168304E-001;-6.933617591857910E-002;4.723977297544479E-003;2.896582009270787E-003;
2.420166666666667E+009;1.559839546680450E-001;-7.065661251544952E-002;4.817713517695665E-003;2.795612905174494E-003;
2.420333333333334E+009;1.548038870096207E-001;-7.215993106365204E-002;4.870706237852573E-003;2.719033509492874E-003;
2.420500000000000E+009;1.538438498973846E-001;-7.332021743059158E-002;4.877764265984297E-003;2.471043495461345E-003;
2.420666666666667E+009;1.527803093194962E-001;-7.490074634552002E-002;4.936828278005123E-003;2.416712697595358E-003;
2.420833333333334E+009;1.519070416688919E-001;-7.655496895313263E-002;4.878027364611626E-003;2.259266562759876E-003;
2.421000000000000E+009;1.511330306529999E-001;-7.833133637905121E-002;5.139018408954144E-003;1.977879088371992E-003;
2.421166666666667E+009;1.502484977245331E-001;-7.987379282712936E-002;5.201464984565973E-003;1.886750687845051E-003;
2.421333333333334E+009;1.497615128755570E-001;-8.185732364654541E-002;5.329100415110588E-003;1.621867646463215E-003;
2.421500000000000E+009;1.490857452154160E-001;-8.357565104961395E-002;5.317828152328730E-003;1.538126729428768E-003;
2.421666666666667E+009;1.488413065671921E-001;-8.528759330511093E-002;5.236849188804627E-003;1.509417779743671E-003;
2.421833333333334E+009;1.483607888221741E-001;-8.696159720420837E-002;5.236494354903698E-003;1.228982117027044E-003;
2.422000000000000E+009;1.481795459985733E-001;-8.880554884672165E-002;5.372525658458471E-003;1.198642421513796E-003;
2.422166666666667E+009;1.481414288282394E-001;-9.090631455183029E-002;5.400772206485272E-003;9.876288240775466E-004;
2.422333333333334E+009;1.480605602264404E-001;-9.253494441509247E-002;5.278388503938913E-003;8.045188151299954E-004;
2.422500000000000E+009;1.479691863059998E-001;-9.414796531200409E-002;5.401032045483589E-003;6.558339809998870E-004;
2.422666666666667E+009;1.480581611394882E-001;-9.597024321556091E-002;5.262144841253758E-003;4.217530658934265E-004;
2.422833333333334E+009;1.483653485774994E-001;-9.781397879123688E-002;5.200550425797701E-003;3.867801860906184E-004;
2.423000000000000E+009;1.487271189689636E-001;-9.931930899620056E-002;5.255432333797216E-003;1.646059681661427E-004;
2.423166666666667E+009;1.491254419088364E-001;-1.009987294673920E-001;5.251235794275999E-003;-8.812680607661605E-005;
2.423333333333334E+009;1.497104912996292E-001;-1.025098711252213E-001;5.187173839658499E-003;-2.027953742071986E-004;
2.423500000000000E+009;1.500389873981476E-001;-1.040800660848618E-001;5.208301823586226E-003;-2.553312806412578E-004;
2.423666666666667E+009;1.504817008972168E-001;-1.054632812738419E-001;5.148049443960190E-003;-4.870989068876952E-004;
2.423833333333334E+009;1.513378173112869E-001;-1.069753766059876E-001;5.290363449603319E-003;-5.590312066487968E-004;
2.424000000000000E+009;1.516537964344025E-001;-1.081656441092491E-001;5.137884523719549E-003;-6.787086604163051E-004;
2.424166666666667E+009;1.522558927536011E-001;-1.092966869473457E-001;5.109723657369614E-003;-7.771007367409766E-004;
2.424333333333334E+009;1.529889106750488E-001;-1.103294193744659E-001;5.201164633035660E-003;-8.939608815126121E-004;
2.424500000000000E+009;1.536084115505219E-001;-1.114382967352867E-001;4.981959238648415E-003;-1.165517955087125E-003;
2.424666666666667E+009;1.543490141630173E-001;-1.121731474995613E-001;4.955862648785114E-003;-1.027054153382778E-003;
2.424833333333334E+009;1.547431498765945E-001;-1.131328716874123E-001;5.001937504857779E-003;-1.439944491721690E-003;
2.425000000000000E+009;1.552903503179550E-001;-1.138541325926781E-001;4.881850443780422E-003;-1.592630520462990E-003;
2.425166666666667E+009;1.557138115167618E-001;-1.145408898591995E-001;4.815534688532352E-003;-1.703743590041995E-003;
2.425333333333334E+009;1.562926322221756E-001;-1.149858087301254E-001;4.758983384817839E-003;-1.859242445789278E-003;
2.425500000000000E+009;1.567228138446808E-001;-1.156516596674919E-001;4.712232388556004E-003;-1.934619853273034E-003;
2.425666666666667E+009;1.568752080202103E-001;-1.160406172275543E-001;4.717852454632521E-003;-2.059401012957096E-003;
2.425833333333334E+009;1.572084128856659E-001;-1.163997426629067E-001;4.551706835627556E-003;-2.151878550648689E-003;
2.426000000000000E+009;1.573757976293564E-001;-1.167077869176865E-001;4.587093368172646E-003;-2.203890588134527E-003;
2.426166666666667E+009;1.577252596616745E-001;-1.169418916106224E-001;4.488927312195301E-003;-2.516816370189190E-003;
2.426333333333334E+009;1.575667858123779E-001;-1.170094087719917E-001;4.352071322500706E-003;-2.637531142681837E-003;
2.426500000000000E+009;1.577007025480270E-001;-1.171470433473587E-001;4.522902425378561E-003;-2.661673119291663E-003;
2.426666666666667E+009;1.574115157127380E-001;-1.171090006828308E-001;4.274186212569475E-003;-2.952741691842675E-003;
2.426833333333334E+009;1.571846008300781E-001;-1.171855330467224E-001;4.118751268833876E-003;-2.937554847449064E-003;
2.427000000000000E+009;1.568480134010315E-001;-1.173120215535164E-001;4.153863061219454E-003;-3.203054424375296E-003;
2.427166666666667E+009;1.562675684690476E-001;-1.171106174588203E-001;3.790875896811485E-003;-3.451843280345202E-003;
2.427333333333334E+009;1.557513177394867E-001;-1.171941682696343E-001;3.814827417954803E-003;-3.379105124622583E-003;
2.427500000000000E+009;1.550987362861633E-001;-1.171549409627914E-001;3.734776983037591E-003;-3.330002073198557E-003;
2.427666666666667E+009;1.542627811431885E-001;-1.172481626272202E-001;3.702372545376420E-003;-3.546310123056173E-003;
2.427833333333334E+009;1.532940566539764E-001;-1.172910705208778E-001;3.555211704224348E-003;-3.740092972293496E-003;
