# Hz S RI R 
2400000000.0000000000 0.172878891229629488845986884371 0.048754218965768807148020158593 0.004136364907026290893554687500 0.001818124204874038913129496997 0 0 0 0 
2400166666.6666665077 0.173504725098609896560830634371 0.048072230070829391479492187500 0.003988729324191808700561523438 0.001866589998826384978053427588 0 0 0 0 
2400333333.3333334923 0.173817679286003112792968750000 0.047417465597391128540039062500 0.004080883692950010299682617188 0.001844215439632534980773925781 0 0 0 0 
2400500000.0000000000 0.174363553524017306228799384371 0.046747293323278427124023437500 0.004212868399918079376220703125 0.001891324645839631991145468604 0 0 0 0 
2400666666.6666665077 0.174608498811721801757812500000 0.045993689447641372680664062500 0.004434482194483280181884765625 0.001715465681627392985700297778 0 0 0 0 
2400833333.3333334923 0.174919694662094088455361884371 0.045561939477920532226562500000 0.004580720793455839157104492188 0.001810685382224618954899453271 0 0 0 0 
2401000000.0000000000 0.175236284732818603515625000000 0.044811852276325232768972028907 0.004737013019621372222900390625 0.001905297860503196933149028247 0 0 0 0 
2401166666.6666665077 0.175475776195526095291299384371 0.044142533093690872192382812500 0.004843767266720533370971679688 0.001748794806189835071563720703 0 0 0 0 
2401333333.3333334923 0.175545975565910311599893134371 0.043478310108184807514231096093 0.005019827745854854583740234375 0.001788845169357956106301332788 0 0 0 0 
2401500000.0000000000 0.175654113292694091796875000000 0.042670391499996192241628278907 0.005155357997864484786987304688 0.001692788326181470914127968896 0 0 0 0 
2401666666.6666665077 0.175710722804069491287393134371 0.042057279497385031963307966407 0.005337219685316085815429687500 0.001463057473301887945887900244 0 0 0 0 
2401833333.3333334923 0.175532490015029907226562500000 0.041285417973995208740234375000 0.005507312249392271041870117188 0.001492776791565120003343891675 0 0 0 0 
2402000000.0000000000 0.175466522574424688141192518742 0.040404025465250022197682966407 0.005794407799839972582345293262 0.001131422002799808979034423828 0 0 0 0 
2402166666.6666665077 0.175245285034179687500000000000 0.039646692574024200439453125000 0.005963520612567663192749023438 0.000798308290541172027587890625 0 0 0 0 
2402333333.3333334923 0.174971088767051696777343750000 0.038677532225847237323801408593 0.006164012476801872253417968750 0.000592351891100406646728515625 0 0 0 0 
2402500000.0000000000 0.175025597214698791503906250000 0.037693828344345092773437500000 0.006132808979600667953491210938 0.000456676498288288712501525879 0 0 0 0 
2402666666.6666665077 0.174716070294380187988281250000 0.036772176623344421386718750000 0.006291944999247789382934570312 0.000195087355677969807952326642 0 0 0 0 
2402833333.3333334923 0.174397468566894503494424384371 0.035577159374952323223073591407 0.006461905315518379211425781250 -0.000172303713043220286995488300 0 0 0 0 
2403000000.0000000000 0.174136415123939486404580634371 0.034401532262563712383229841407 0.006511950865387917432303144238 -0.000472435523988679105609339581 0 0 0 0 
2403166666.6666665077 0.173884153366088894943075615629 0.033095851540565490722656250000 0.006370685994625092420096112988 -0.000762170820962637662887573242 0 0 0 0 
2403333333.3333334923 0.173589557409286499023437500000 0.031764786690473563457448591407 0.006426798645406960573678301074 -0.001018451410345732948900532300 0 0 0 0 
2403500000.0000000000 0.173108503222465487381143134371 0.030300721526145938528040701954 0.006482133176177740097045898438 -0.001431524171493947939631796729 0 0 0 0 
2403666666.6666665077 0.172830373048782404143963731258 0.028792256489396098745325858204 0.006488543003797531127929687500 -0.001555782975628972053527832031 0 0 0 0 
2403833333.3333334923 0.172525063157081604003906250000 0.027122460305690768850306326954 0.006512234453111886978149414062 -0.002025774447247385978698730469 0 0 0 0 
2404000000.0000000000 0.171944350004196194747763115629 0.025405231863260269165039062500 0.006306477822363376617431640625 -0.002285450929775834083557128906 0 0 0 0 
2404166666.6666665077 0.171779051423072787185830634371 0.023666990920901298522949218750 0.006203916389495134353637695312 -0.002438703784719109968898154150 0 0 0 0 
2404333333.3333334923 0.171403229236602810958700615629 0.021920267492532730102539062500 0.006168833933770656585693359375 -0.002744453959167004065272665869 0 0 0 0 
2404500000.0000000000 0.170828953385353088378906250000 0.019845133647322661663014997657 0.005946714896708726882934570312 -0.003201571060344576835632324219 0 0 0 0 
2404666666.6666665077 0.170772925019264193435830634371 0.018112272024154659616490548046 0.005878634285181760787963867188 -0.003468871815130114989039755713 0 0 0 0 
2404833333.3333334923 0.170493766665458706954794365629 0.016085939481854438781738281250 0.005556423682719469070434570312 -0.003581496421247721152064658057 0 0 0 0 
2405000000.0000000000 0.170276135206222506424111884371 0.014270249754190450150459490430 0.005214249715209007263183593750 -0.003990507218986749649047851562 0 0 0 0 
2405166666.6666665077 0.170322731137275695800781250000 0.012270799838006499898890311329 0.005039209499955177307128906250 -0.004216242115944623947143554688 0 0 0 0 
2405333333.3333334923 0.170334756374359103103799384371 0.010076682083308700216273123829 0.004798658657819032669067382812 -0.004148674663156270980834960938 0 0 0 0 
2405500000.0000000000 0.170209467411041287521200615629 0.008222257718443870544433593750 0.004463081248104572296142578125 -0.004432810004800558090209960938 0 0 0 0 
2405666666.6666665077 0.170306608080864008147869981258 0.006192154716700316342825605176 0.004403718281537294387817382812 -0.004517633467912673950195312500 0 0 0 0 
2405833333.3333334923 0.170296967029571505447549384371 0.004208985250443220138549804688 0.003950594458729028701782226562 -0.004519475158303976058959960938 0 0 0 0 
2406000000.0000000000 0.170662373304367093185263115629 0.001960553461685777144191122900 0.003822627710178494887111044775 -0.004564639646559953689575195312 0 0 0 0 
2406166666.6666665077 0.170865833759307889083700615629 0.000118016600026749101564130240 0.003479940351098775863647460938 -0.004708803258836269378662109375 0 0 0 0 
2406333333.3333334923 0.171333700418472290039062500000 -0.001958859153091907934901572119 0.003231713548302650885341025244 -0.004611869808286429318899823926 0 0 0 0 
2406500000.0000000000 0.171730011701583890060263115629 -0.004002360627055168151855468750 0.003057909430935978889465332031 -0.004392045550048351287841796875 0 0 0 0 
2406666666.6666665077 0.172093197703361511230468750000 -0.005788107402622699737548828125 0.002790234284475446181056357275 -0.004726971499621868133544921875 0 0 0 0 
2406833333.3333334923 0.172731876373290987869424384371 -0.007854317314922809600830078125 0.002635162789374589920043945312 -0.004584266804158687591552734375 0 0 0 0 
2407000000.0000000000 0.173284083604812594314736884371 -0.009833073243498802185058593750 0.002537810243666172027587890625 -0.004549057688564062118530273438 0 0 0 0 
2407166666.6666665077 0.173986047506332397460937500000 -0.011640455573797229421595389454 0.002318354090675712065455771338 -0.004417123273015022277832031250 0 0 0 0 
2407333333.3333334923 0.174549371004104586502236884371 -0.013489371165633199864397617773 0.002408853964880108833312988281 -0.004678687080740928649902343750 0 0 0 0 
2407500000.0000000000 0.175368368625640896896200615629 -0.015260234475135799753209298046 0.002097925636917353110072470557 -0.004344608634710311889648437500 0 0 0 0 
2407666666.6666665077 0.176139503717422513107138115629 -0.016850059852004051208496093750 0.002099643927067517800572060693 -0.004341361578553915023803710938 0 0 0 0 
2407833333.3333334923 0.176653102040290804763955634371 -0.018763689324259761465052420704 0.001946852891705930016161274487 -0.004436015151441097259521484375 0 0 0 0 
2408000000.0000000000 0.177476540207862909515057481258 -0.020453300327062610280970389454 0.001822670106776059107539511572 -0.004425136372447013854980468750 0 0 0 0 
2408166666.6666665077 0.178086251020431490799111884371 -0.021991914138197898864746093750 0.001765596563927829048754047925 -0.004220978822559118270874023438 0 0 0 0 
2408333333.3333334923 0.179078102111816406250000000000 -0.023329237475991249084472656250 0.001766674919053911945940327222 -0.004486599471420049667358398438 0 0 0 0 
2408500000.0000000000 0.179557323455810602386151231258 -0.024871649220585819589635079296 0.001588073559105396053911518628 -0.004422462545335292816162109375 0 0 0 0 
2408666666.6666665077 0.180099785327911404708700615629 -0.026197332888841629028320312500 0.001580751733854413032531738281 -0.004489066079258918762207031250 0 0 0 0 
2408833333.3333334923 0.180615991353988702972088731258 -0.027354057878255840646763985546 0.001477642566896975040435791016 -0.004505184479057788848876953125 0 0 0 0 
2409000000.0000000000 0.181024670600891113281250000000 -0.028449345380067828786829764454 0.001405621762387454943415976416 -0.004433709662407636642456054688 0 0 0 0 
2409166666.6666665077 0.181479722261428805252236884371 -0.029607446864247318613072579296 0.001159244799055159091949462891 -0.004298954270780087384695722363 0 0 0 0 
2409333333.3333334923 0.181878104805946405608807481258 -0.030367227271199229848841483204 0.001026505837216973087908100659 -0.004472374916076660156250000000 0 0 0 0 
2409500000.0000000000 0.182199224829673794845419365629 -0.031252015382051467895507812500 0.001044464763253927013994526440 -0.004365162923932076367850019238 0 0 0 0 
2409666666.6666665077 0.182442203164100702483807481258 -0.031875077635049819946289062500 0.000841928529553115367889404297 -0.004448792897164821624755859375 0 0 0 0 
2409833333.3333334923 0.182801648974418612381143134371 -0.032361377030611038208007812500 0.000755371933337301015853881836 -0.004419082775712013244628906250 0 0 0 0 
2410000000.0000000000 0.182890653610229492187500000000 -0.032825566828250891948659528907 0.000851474585942924022674560547 -0.004526439588516950607299804688 0 0 0 0 
2410166666.6666665077 0.183328554034233093261718750000 -0.033384412527084350585937500000 0.000779248774051666259765625000 -0.004490896128118038177490234375 0 0 0 0 
2410333333.3333334923 0.183266922831535311599893134371 -0.033770482987165451049804687500 0.000650952861178666353225708008 -0.004465800710022450360769941113 0 0 0 0 
2410500000.0000000000 0.183476984500885009765625000000 -0.034108307212591171264648437500 0.000706470862496644258499145508 -0.004516568034887313842773437500 0 0 0 0 
2410666666.6666665077 0.183213248848915100097656250000 -0.034482371062040328979492187500 0.000478553556604310924380701886 -0.004613707307726144790649414062 0 0 0 0 
2410833333.3333334923 0.183410227298736600021200615629 -0.034659001976251602172851562500 0.000407645682571455782085972919 -0.004552491009235382080078125000 0 0 0 0 
2411000000.0000000000 0.183078974485397311111611884371 -0.035016559064388282085378278907 0.000231657308177091208383283072 -0.004530231468379498395437909863 0 0 0 0 
2411166666.6666665077 0.182840347290039090255575615629 -0.035504713654518127441406250000 0.000195879678358323899194440298 -0.004738951567560434341430664062 0 0 0 0 
2411333333.3333334923 0.182364895939826993087606865629 -0.035668950527906417846679687500 0.000178556714672595289632520132 -0.004577620886266232404226972363 0 0 0 0 
2411500000.0000000000 0.181973293423652704436932481258 -0.036180980503559112548828125000 -0.000149059633258730200216016226 -0.004701726138591766357421875000 0 0 0 0 
2411666666.6666665077 0.181497439742088290115518134371 -0.036518815904855728149414062500 -0.000192660721950233009740552359 -0.004650217946618795394897460938 0 0 0 0 
2411833333.3333334923 0.180881381034851101974325615629 -0.036697410047054290771484375000 -0.000236069099628366502836504526 -0.004663687199354171752929687500 0 0 0 0 
2412000000.0000000000 0.180182605981826809982138115629 -0.037173982709646231914479841407 -0.000357451237505301778942662372 -0.004819142166525126370901777051 0 0 0 0 
2412166666.6666665077 0.179203391075134305099325615629 -0.037734750658273696899414062500 -0.000511590507812798023223876953 -0.004806704353541135787963867188 0 0 0 0 
2412333333.3333334923 0.178527072072029113769531250000 -0.038145214319229132915456403907 -0.000582590233534574508666992188 -0.004810792859643697738647460938 0 0 0 0 
2412500000.0000000000 0.177390187978744506835937500000 -0.038646444678306579589843750000 -0.000746140489354729652404785156 -0.004638258367776870727539062500 0 0 0 0 
2412666666.6666665077 0.176399216055870111663494981258 -0.039575830101966857910156250000 -0.000751102867070585489273071289 -0.004694106522947549819946289062 0 0 0 0 
2412833333.3333334923 0.175373181700706509689169365629 -0.040135059505701072002370466407 -0.001005550380796194076538085938 -0.004611338954418897628784179688 0 0 0 0 
2413000000.0000000000 0.174037888646125793457031250000 -0.040879067033529281616210937500 -0.000979749602265655994415283203 -0.004711869638413190841674804688 0 0 0 0 
2413166666.6666665077 0.172837480902671786209268134371 -0.041734322905540473247487653907 -0.001082587870769202926038432544 -0.004685749765485525131225585938 0 0 0 0 
2413333333.3333334923 0.171704977750778198242187500000 -0.042469903826713562011718750000 -0.001250708941370249011396098560 -0.004764534533023834228515625000 0 0 0 0 
2413500000.0000000000 0.170398861169815091232138115629 -0.043482501059770577167551408593 -0.001275911810807883956311870044 -0.004632671829313039779663085938 0 0 0 0 
2413666666.6666665077 0.169090285897254888336505018742 -0.044622648507356636737863908593 -0.001407308387570082924486469800 -0.004585314542055130004882812500 0 0 0 0 
2413833333.3333334923 0.167780116200447110275106865629 -0.045611198991537087177317033593 -0.001444404013454914093017578125 -0.004690136760473251342773437500 0 0 0 0 
2414000000.0000000000 0.166450932621955899337606865629 -0.046715628355741500854492187500 -0.001577353337779640934587788159 -0.004588645417243242263793945312 0 0 0 0 
2414166666.6666665077 0.165358945727348299881143134371 -0.048007786273956298828125000000 -0.001580051030032336928723979419 -0.004674007650464773178100585938 0 0 0 0 
2414333333.3333334923 0.164087936282157897949218750000 -0.049296170473098761821706403907 -0.001819628872908652045606303638 -0.004628315567970275878906250000 0 0 0 0 
2414500000.0000000000 0.163039967417717007736044365629 -0.050862349569797522808034528907 -0.001579846255481242916704487378 -0.004582804627716541290283203125 0 0 0 0 
2414666666.6666665077 0.161741033196449307540731865629 -0.052215583622455596923828125000 -0.001935934764333069107652973706 -0.004632595460861921310424804688 0 0 0 0 
2414833333.3333334923 0.160603672266006497482138115629 -0.053900208324193947528879533593 -0.002003544475883245901820517432 -0.004853670019656419754028320312 0 0 0 0 
2415000000.0000000000 0.159589976072311401367187500000 -0.055397178977727890014648437500 -0.002146536018699408011195517432 -0.004761089105159044265747070312 0 0 0 0 
2415166666.6666665077 0.158557996153831509689169365629 -0.057151813060045242309570312500 -0.002303420100361109213588095557 -0.004859000910073518753051757812 0 0 0 0 
2415333333.3333334923 0.157817170023918207366619981258 -0.058933153748512268066406250000 -0.002501502633094788031337118994 -0.004994400776922702789306640625 0 0 0 0 
2415500000.0000000000 0.156857654452323913574218750000 -0.060685865581035607074777971093 -0.002722773002460598945617675781 -0.004932173993438482284545898438 0 0 0 0 
2415666666.6666665077 0.156111627817153902908486884371 -0.062513060867786407470703125000 -0.002938646823167800903320312500 -0.004908272996544837951660156250 0 0 0 0 
2415833333.3333334923 0.155490845441818209549111884371 -0.064459666609764099121093750000 -0.003097589593380690054652548682 -0.004959112964570522308349609375 0 0 0 0 
2416000000.0000000000 0.154781192541122408767861884371 -0.066431969404220581054687500000 -0.003225238528102635903599404443 -0.004958142060786485671997070312 0 0 0 0 
2416166666.6666665077 0.154299139976501492599325615629 -0.068304263055324554443359375000 -0.003533835289999843077418661963 -0.004864264745265244570260332324 0 0 0 0 
2416333333.3333334923 0.153779134154319790939169365629 -0.070265576243400573730468750000 -0.003771598916500806808471679688 -0.004727503750473260879516601562 0 0 0 0 
2416500000.0000000000 0.153365507721900912185830634371 -0.072409234941005706787109375000 -0.003920049872249364852905273438 -0.004764250945299863815307617188 0 0 0 0 
2416666666.6666665077 0.152950122952461187164630018742 -0.074233368039131164550781250000 -0.004240998998284339904785156250 -0.004569536540657281875610351562 0 0 0 0 
2416833333.3333334923 0.152664467692375210861044365629 -0.076404415071010589599609375000 -0.004562560934573411941528320312 -0.004404524806886911392211914062 0 0 0 0 
2417000000.0000000000 0.152108103036880493164062500000 -0.078223839402198791503906250000 -0.004737112671136856079101562500 -0.004421961959451436996459960938 0 0 0 0 
2417166666.6666665077 0.151959493756294305999432481258 -0.080059036612510681152343750000 -0.005104524083435535430908203125 -0.004167361650615931424612714551 0 0 0 0 
2417333333.3333334923 0.151923760771751403808593750000 -0.081796571612358093261718750000 -0.005107354838401079177856445312 -0.004028492607176303863525390625 0 0 0 0 
2417500000.0000000000 0.151789844036102294921875000000 -0.083588957786560058593750000000 -0.005458326544612646102905273438 -0.003897528164088726043701171875 0 0 0 0 
2417666666.6666665077 0.151866659522056607345419365629 -0.085092522203922271728515625000 -0.005576315335929393768310546875 -0.003746826667338610129115439307 0 0 0 0 
2417833333.3333334923 0.151761457324027987381143134371 -0.086646445095539093017578125000 -0.005812555085867643356323242188 -0.003558974713087081909179687500 0 0 0 0 
2418000000.0000000000 0.151833459734916687011718750000 -0.088273204863071441650390625000 -0.006041995249688625335693359375 -0.003263133578002452850341796875 0 0 0 0 
2418166666.6666665077 0.151948347687721307952557481258 -0.089386396110057830810546875000 -0.006149549037218093872070312500 -0.003069577971473335786106728662 0 0 0 0 
2418333333.3333334923 0.152190536260604886154013115629 -0.090863920748233795166015625000 -0.006343494635075330734252929688 -0.002819719491526484923121786963 0 0 0 0 
2418500000.0000000000 0.152271017432212801834268134371 -0.092001184821128845214843750000 -0.006662848871201276779174804688 -0.002380870282649993896484375000 0 0 0 0 
2418666666.6666665077 0.152443721890449496170205634371 -0.093112006783485412597656250000 -0.006682621780782938003540039062 -0.002115317620337008996250771631 0 0 0 0 
2418833333.3333334923 0.152413383126258905608807481258 -0.094071127474308013916015625000 -0.006742650177329778671264648438 -0.001667291624471545002580952222 0 0 0 0 
2419000000.0000000000 0.152621969580650301834268134371 -0.094876095652580261230468750000 -0.006893747486174106597900390625 -0.001468416303396224975585937500 0 0 0 0 
2419166666.6666665077 0.152869105339050292968750000000 -0.095487549901008605957031250000 -0.006964566651731730374808027051 -0.001158500206656754016876220703 0 0 0 0 
2419333333.3333334923 0.153075933456420898437500000000 -0.095886319875717163085937500000 -0.006754969246685504913330078125 -0.000764966825954616069793701172 0 0 0 0 
2419500000.0000000000 0.153272911906242398361044365629 -0.096561253070831298828125000000 -0.006922942586243152618408203125 -0.000466593774035573005676269531 0 0 0 0 
2419666666.6666665077 0.153504818677902193924111884371 -0.097071133553981781005859375000 -0.006781121250241994857788085938 -0.000034883047192124649882316589 0 0 0 0 
2419833333.3333334923 0.153552696108818109710369981258 -0.097217917442321777343750000000 -0.006744730751961469650268554688 0.000235235071158967912197113037 0 0 0 0 
