# Hz S RI R 
2400000000.0000000000 0.168228238821029690841513115629 0.046836502850055701518972028907 -0.002408301923424005942103720557 -0.003199116326868534088134765625 0 0 0 0 
2400166666.6666665077 0.169142276048660306075888115629 0.045647762715816497802734375000 -0.002605711808428167863133095850 -0.003221717895939946174621582031 0 0 0 0 
2400333333.3333334923 0.170060262084007290939169365629 0.044525340199470520019531250000 -0.002417020965367556051967001807 -0.003175837220624088807346963037 0 0 0 0 
2400500000.0000000000 0.170820862054824801345986884371 0.043507371097803122783620466407 -0.002927586436271667914149618994 -0.002994321985170245170593261719 0 0 0 0 
2400666666.6666665077 0.171704128384590204436932481258 0.042519625276327133178710937500 -0.003099353518337010903599404443 -0.002969604451209307150599814307 0 0 0 0 
2400833333.3333334923 0.172522917389869689941406250000 0.041648305952548980712890625000 -0.003095961175858974890467978369 -0.003021043958142399787902832031 0 0 0 0 
2401000000.0000000000 0.173410460352897588531817518742 0.040642417967319488525390625000 -0.003345721168443561033961630713 -0.002948355628177524046656943213 0 0 0 0 
2401166666.6666665077 0.174195587635040310958700615629 0.039900995790958411479909528907 -0.003387067001312971115112304688 -0.002693968126550316810607910156 0 0 0 0 
2401333333.3333334923 0.174484789371490506271200615629 0.039134979248046881938893903907 -0.003573147114366292953491210938 -0.002711272565647960142848349463 0 0 0 0 
2401500000.0000000000 0.175584867596626309493856865629 0.038422990590333938598632812500 -0.003753179451450705961940146338 -0.002599071012809873060939169775 0 0 0 0 
2401666666.6666665077 0.176151722669601412674111884371 0.037759929895401000976562500000 -0.004029847215861082077026367188 -0.002218276029452681975123740088 0 0 0 0 
2401833333.3333334923 0.176596537232398986816406250000 0.037208545953035361553151716407 -0.004198743496090173721313476562 -0.002280368236824870109558105469 0 0 0 0 
2402000000.0000000000 0.176911100745201110839843750000 0.036506015807390213012695312500 -0.004260733723640441894531250000 -0.002231990918517113165614462744 0 0 0 0 
2402166666.6666665077 0.177547872066497802734375000000 0.035587228834629058837890625000 -0.004451734013855457305908203125 -0.001875513233244419097900390625 0 0 0 0 
2402333333.3333334923 0.177866995334625188629473768742 0.035079620778560638427734375000 -0.004531924612820149335379316113 -0.001850989297963679053662944263 0 0 0 0 
2402500000.0000000000 0.178462043404579190353231865629 0.034480635076761252666432966407 -0.004709383472800254821777343750 -0.001791062648408114910125732422 0 0 0 0 
2402666666.6666665077 0.178589284420013399978799384371 0.033709958195686340332031250000 -0.004719521384686231613159179688 -0.001339771668426692919490195166 0 0 0 0 
2402833333.3333334923 0.178533196449279812911825615629 0.033045016229152679443359375000 -0.004892967175692319869995117188 -0.001210135989822447083116840894 0 0 0 0 
2403000000.0000000000 0.178735435009002713302450615629 0.032249059528112411499023437500 -0.004857152234762907028198242188 -0.001125983661040663936017680591 0 0 0 0 
2403166666.6666665077 0.178780838847160311599893134371 0.031556282192468643188476562500 -0.004956123419106006622314453125 -0.000581232889089733362197875977 0 0 0 0 
2403333333.3333334923 0.178819924592971801757812500000 0.030716005712747570383092110546 -0.005103983450680971145629882812 -0.000518549757543951272964477539 0 0 0 0 
2403500000.0000000000 0.178536072373390197753906250000 0.029702143743634220468541329296 -0.005203925073146820068359375000 -0.000335940014338120818138122559 0 0 0 0 
2403666666.6666665077 0.178391709923744201660156250000 0.028743866831064220773717110546 -0.004994305782020092010498046875 -0.000097176351118832826614379883 0 0 0 0 
2403833333.3333334923 0.178318679332733209808026231258 0.027654746547341350210169608204 -0.005082603078335523605346679688 -0.000018277503841090950777734450 0 0 0 0 
2404000000.0000000000 0.178072988986968994140625000000 0.026621332392096519470214843750 -0.005143519025295972824096679688 0.000359835277777165174484252930 0 0 0 0 
2404166666.6666665077 0.177788108587264986892861884371 0.025366470217704769479771798046 -0.005091110710054636001586914062 0.000750983774196356534957885742 0 0 0 0 
2404333333.3333334923 0.177320599555969210525674384371 0.024025576189160350454310233204 -0.005077644716948270797729492188 0.001049355487339199023005820166 0 0 0 0 
2404500000.0000000000 0.176786825060844393631143134371 0.022810777649283409118652343750 -0.004906969610601663589477539062 0.001172960153780878023860312354 0 0 0 0 
2404666666.6666665077 0.176661506295204190353231865629 0.021512389183044430124303048046 -0.005001482553780078887939453125 0.001410431228578091101405478369 0 0 0 0 
2404833333.3333334923 0.176070138812065096756143134371 0.020216980949044231069544608204 -0.004913133569061756134033203125 0.001422259607352315945866250146 0 0 0 0 
2405000000.0000000000 0.175679489970207186599893134371 0.018652413040399551391601562500 -0.004828774370253086090087890625 0.001787108019925653934478759766 0 0 0 0 
2405166666.6666665077 0.175267294049263000488281250000 0.017285896465182300912877266796 -0.004596369806677103042602539062 0.002109050983563065962550497900 0 0 0 0 
2405333333.3333334923 0.174976184964179992675781250000 0.015485743992030620574951171875 -0.004526454489678145322317792676 0.002193800406530499891993857275 0 0 0 0 
2405500000.0000000000 0.174567997455596896072549384371 0.014097956009209159505823905079 -0.004338026978075504302978515625 0.002393079223111271858215332031 0 0 0 0 
2405666666.6666665077 0.174267753958702087402343750000 0.012303539551794530695905116602 -0.004295865539461374282836914062 0.002550199395045638084411621094 0 0 0 0 
2405833333.3333334923 0.173739165067672701736611884371 0.010694332420825959986676600977 -0.004108822904527187347412109375 0.002801633207127451896667480469 0 0 0 0 
2406000000.0000000000 0.173664957284927395919638115629 0.008735354989767074584960937500 -0.003991488832980394363403320312 0.003053505904972552819492959131 0 0 0 0 
2406166666.6666665077 0.173316225409507806975994981258 0.007109820377081632614135742188 -0.003777965903282165961024618994 0.003189790295436977906468056787 0 0 0 0 
2406333333.3333334923 0.173303529620170593261718750000 0.005189973395317792892456054688 -0.003708795877173542976379394531 0.003122596768662333922145224463 0 0 0 0 
2406500000.0000000000 0.173072576522827203948651231258 0.003203043248504399819615029443 -0.003386811818927526907679892432 0.003147447947412728829624795068 0 0 0 0 
2406666666.6666665077 0.172919809818267794510049384371 0.001271380693651735999463725513 -0.003325284225866198973414755713 0.003455271478742361068725585938 0 0 0 0 
2406833333.3333334923 0.172926783561706487457598768742 -0.000810984871350228786468505859 -0.002967353211715817885157919775 0.003543287282809615135192871094 0 0 0 0 
2407000000.0000000000 0.173079669475555392166299384371 -0.002752899425104260010960244287 -0.002900917315855621857884072412 0.003600305411964654922485351562 0 0 0 0 
2407166666.6666665077 0.173187673091888399978799384371 -0.004698447883129119873046875000 -0.002596484730020165009739541162 0.003637223504483699798583984375 0 0 0 0 
2407333333.3333334923 0.173356294631958007812500000000 -0.006859631743282079696655273438 -0.002414399757981299920323037256 0.003700478700920939011814736475 0 0 0 0 
2407500000.0000000000 0.173571735620498712737713731258 -0.008737287484109401702880859375 -0.002310579176992177963256835938 0.003824409563094377951381064307 0 0 0 0 
2407666666.6666665077 0.173824623227119501311932481258 -0.010814133100211620330810546875 -0.002179814968258142904994345557 0.003726483788341283798217773438 0 0 0 0 
2407833333.3333334923 0.173975452780723599532919365629 -0.012944236397743230301826677930 -0.001976113067939877943751669775 0.003839591983705759048461914062 0 0 0 0 
2408000000.0000000000 0.174341171979904202560263115629 -0.014917415566742420196533203125 -0.001975904451683164076564169775 0.003809111891314386887791298975 0 0 0 0 
2408166666.6666665077 0.174736559391021700760049384371 -0.016806507483124729501744454296 -0.001655393745750189044355082935 0.003670699894428253173828125000 0 0 0 0 
2408333333.3333334923 0.175246804952621487716513115629 -0.018872492015361789358118826954 -0.001573354005813599066493368994 0.003734217258170247077941894531 0 0 0 0 
2408500000.0000000000 0.175545677542686490157919365629 -0.020691789686679840087890625000 -0.001286040176637470939038920825 0.003754386212676763968226767432 0 0 0 0 
2408666666.6666665077 0.175975471735000610351562500000 -0.022525850683450698852539062500 -0.001365824020467699007747031104 0.003731473814696073965785361182 0 0 0 0 
2408833333.3333334923 0.176066160202026394943075615629 -0.024390960112214088439941406250 -0.001171709387563169002532958984 0.003638936439529060883762978662 0 0 0 0 
2409000000.0000000000 0.176408350467681912521200615629 -0.025839282199740409851074218750 -0.001305990503169595978380512769 0.003505968488752841949462890625 0 0 0 0 
2409166666.6666665077 0.176807284355163601974325615629 -0.027394410222768780099888985546 -0.001047471072524785995483398438 0.003607605816796422004699707031 0 0 0 0 
2409333333.3333334923 0.177188605070114107986611884371 -0.028994213789701458322545235546 -0.000907623791135847568511962891 0.003645633347332478003260947119 0 0 0 0 
2409500000.0000000000 0.177633821964263888260049384371 -0.030237037688493728637695312500 -0.000972718698903918266296386719 0.003624958684667944908142089844 0 0 0 0 
2409666666.6666665077 0.178008958697319003006143134371 -0.031237877905368808401087576954 -0.000749814149457961320877075195 0.003534277668222784996032714844 0 0 0 0 
2409833333.3333334923 0.178414911031722994705361884371 -0.032380469143390662456472028907 -0.000629882910288870334625244141 0.003521892474964261054992675781 0 0 0 0 
2410000000.0000000000 0.178891763091087313553018134371 -0.033286791294813163066823591407 -0.000599644379690289497375488281 0.003589330008253455162048339844 0 0 0 0 
2410166666.6666665077 0.179439306259155301193075615629 -0.034178987145423889160156250000 -0.000649601861368864774703979492 0.003502776380628346963169716943 0 0 0 0 
2410333333.3333334923 0.179576903581619290450888115629 -0.035159993916749947284738908593 -0.000311031704768538475036621094 0.003618992399424314932582236182 0 0 0 0 
2410500000.0000000000 0.180058717727661105056924384371 -0.035909507423639297485351562500 -0.000272333738394081592559814453 0.003655686276033521132228232275 0 0 0 0 
2410666666.6666665077 0.180388525128364590743856865629 -0.036788646131753921508789062500 -0.000149126644828356802463531494 0.003482838394120336012599326025 0 0 0 0 
2410833333.3333334923 0.180750459432601900955361884371 -0.037337239831686019897460937500 -0.000277565239230170900195521222 0.003427605144679545922520302881 0 0 0 0 
2411000000.0000000000 0.181006103754043606857138115629 -0.037903867661952972412109375000 -0.000136402421048842397615155630 0.003489925060421227975132607568 0 0 0 0 
2411166666.6666665077 0.181169286370277404785156250000 -0.038517691195011138916015625000 0.000016091526049422100186347961 0.003713693935424088998081826318 0 0 0 0 
2411333333.3333334923 0.181384399533271789550781250000 -0.039068974554538726806640625000 0.000085196887084748595952987671 0.003698095679283142089843750000 0 0 0 0 
2411500000.0000000000 0.181544348597526605804119981258 -0.039671491831541061401367187500 0.000265402282821014523506164551 0.003601710777729750113246298682 0 0 0 0 
2411666666.6666665077 0.181610256433486910720986884371 -0.040064770728349692607839216407 0.000332453113514930009841918945 0.003686615265905857086181640625 0 0 0 0 
2411833333.3333334923 0.181580305099487304687500000000 -0.040371548384428017353098283593 0.000283721194136887788772583008 0.003701069625094532966613769531 0 0 0 0 
2412000000.0000000000 0.181365489959716796875000000000 -0.040938027203083038330078125000 0.000440993258962407708168029785 0.003626420628279447989222861182 0 0 0 0 
2412166666.6666665077 0.180832892656326293945312500000 -0.041306033730506896972656250000 0.000508053868543356657028198242 0.003640162758529185815098427881 0 0 0 0 
2412333333.3333334923 0.180631682276725796798544365629 -0.041603446006774902343750000000 0.000668253982439637184143066406 0.003791290335357189178466796875 0 0 0 0 
2412500000.0000000000 0.180254861712455805022869981258 -0.042006731033325202251393903907 0.000878522638231515884399414062 0.003719852771610022024867392432 0 0 0 0 
2412666666.6666665077 0.179709509015083312988281250000 -0.042632501572370529174804687500 0.000882642809301614761352539062 0.003483467269688845114467001807 0 0 0 0 
2412833333.3333334923 0.179138213396072387695312500000 -0.043038744479417800903320312500 0.000954964139964431524276733398 0.003409592201933265166041708838 0 0 0 0 
2413000000.0000000000 0.178329706192016601562500000000 -0.043365515768527991558034528907 0.001112527912482619068743061597 0.003588007763028144836425781250 0 0 0 0 
2413166666.6666665077 0.177670672535896301269531250000 -0.044018972665071487426757812500 0.001049336860887706062914204175 0.003603892168030142784118652344 0 0 0 0 
2413333333.3333334923 0.176585495471954401214276231258 -0.044169135391712188720703125000 0.001118182903155684904811240088 0.003564902348443866209742880713 0 0 0 0 
2413500000.0000000000 0.175873681902885409256143134371 -0.044714491814374916767160783593 0.001229615882039069912554096753 0.003411445533856749968287802588 0 0 0 0 
2413666666.6666665077 0.174755319952964810470419365629 -0.045404776930809020996093750000 0.001341768889687954945805214990 0.003477492136880754990818642725 0 0 0 0 
2413833333.3333334923 0.173831433057785006424111884371 -0.046139106154441826557199846093 0.001506625791080296039581298828 0.003302094293758273124694824219 0 0 0 0 
2414000000.0000000000 0.172687768936157198806924384371 -0.046818424016237258911132812500 0.001595745794475079016444540869 0.003435122780501842932460165869 0 0 0 0 
2414166666.6666665077 0.171746298670768710037393134371 -0.047499768435955047607421875000 0.001703668036498128934147500146 0.003490397939458488984348916162 0 0 0 0 
2414333333.3333334923 0.170510843396186800857705634371 -0.048329193145036697387695312500 0.001811527530662715001347207178 0.003411487909033894972560263525 0 0 0 0 
2414500000.0000000000 0.169634357094764709472656250000 -0.049178004264831542968750000000 0.001832741312682629065272665869 0.003384496783837676048278808594 0 0 0 0 
2414666666.6666665077 0.168275848031044006347656250000 -0.050181504338979721069335937500 0.002022644039243460135218954932 0.003364313626661897139308310400 0 0 0 0 
2414833333.3333334923 0.166990146040916387359942518742 -0.051285110414028167724609375000 0.002210496924817562103271484375 0.003490177914500236944911337744 0 0 0 0 
2415000000.0000000000 0.165893271565437289138955634371 -0.052428565919399261474609375000 0.002368894638493657112121582031 0.003256477415561676025390625000 0 0 0 0 
2415166666.6666665077 0.164729848504066495040731865629 -0.053633857518434531475026716407 0.002604966750368475914001464844 0.003183502005413175062892294775 0 0 0 0 
2415333333.3333334923 0.163692399859428405761718750000 -0.054983939975500106811523437500 0.002621407853439449830296181787 0.003084027208387852148768759619 0 0 0 0 
2415500000.0000000000 0.162448048591613797286825615629 -0.056386243551969528198242187500 0.002757966285571455955505371094 0.003119429107755423025843954932 0 0 0 0 
2415666666.6666665077 0.161422058939933804611044365629 -0.057817649096250527118723283593 0.002920921659097075896022177588 0.003023619763553142981288290869 0 0 0 0 
2415833333.3333334923 0.160391777753830011565838731258 -0.059474453330039978027343750000 0.002923664869740604920628213037 0.002977082738652824921848916162 0 0 0 0 
2416000000.0000000000 0.159237951040267888824786268742 -0.061058469116687781597097028907 0.003123700153082609176635742188 0.002725870115682483153102255713 0 0 0 0 
2416166666.6666665077 0.158377721905708312988281250000 -0.062866061925888061523437500000 0.003197622951120138168334960938 0.002655735705047845840454101562 0 0 0 0 
2416333333.3333334923 0.157293513417244013030682481258 -0.064590163528919219970703125000 0.003281758865341544151306152344 0.002636110177263617949244833838 0 0 0 0 
2416500000.0000000000 0.156456828117370605468750000000 -0.066430211067199707031250000000 0.003426638897508382797241210938 0.002432397799566388130187988281 0 0 0 0 
2416666666.6666665077 0.155545219779014587402343750000 -0.068272829055786132812500000000 0.003425486385822296142578125000 0.002231336664408444924595498193 0 0 0 0 
2416833333.3333334923 0.154803827404975891113281250000 -0.070311464369297027587890625000 0.003476333105936646895167685400 0.002101669553667306900024414062 0 0 0 0 
2417000000.0000000000 0.153880268335342407226562500000 -0.072156094014644622802734375000 0.003699733177199960188624716650 0.002073706127703189849853515625 0 0 0 0 
2417166666.6666665077 0.153140693902969388107138115629 -0.073947757482528686523437500000 0.003468851326033473014831542969 0.001827539177611470005632710034 0 0 0 0 
2417333333.3333334923 0.152592718601226806640625000000 -0.075929574668407440185546875000 0.003712692996487021012547158350 0.001712320139631628990173339844 0 0 0 0 
2417500000.0000000000 0.151942238211631802657919365629 -0.078031010925769805908203125000 0.003600829280912876129150390625 0.001705655944533646106719970703 0 0 0 0 
2417666666.6666665077 0.151581585407257107833700615629 -0.079679280519485473632812500000 0.003650337690487504005432128906 0.001366966869682074026820517432 0 0 0 0 
2417833333.3333334923 0.151012703776359613616619981258 -0.081540405750274658203125000000 0.003698621643707156181335449219 0.001449166913516819910762167822 0 0 0 0 
2418000000.0000000000 0.150497049093246487716513115629 -0.083363853394985198974609375000 0.003808878595009446144104003906 0.001175825600512325980542827075 0 0 0 0 
2418166666.6666665077 0.150144383311271695236044365629 -0.084860973060131072998046875000 0.003701500361785293059108115088 0.001143755274824798107147216797 0 0 0 0 
2418333333.3333334923 0.150117158889770507812500000000 -0.086731366813182830810546875000 0.003782842075452208952662802588 0.001009340863674879074096679688 0 0 0 0 
2418500000.0000000000 0.149752974510192898849325615629 -0.088206999003887176513671875000 0.003815982956439257101771689307 0.000835232727695256471633911133 0 0 0 0 
2418666666.6666665077 0.149723321199417086502236884371 -0.089768119156360626220703125000 0.003895378904417157173156738281 0.000793194281868636608123779297 0 0 0 0 
2418833333.3333334923 0.149469599127769497970419365629 -0.091259375214576721191406250000 0.003853883361443876786472939600 0.000697506940923631191253662109 0 0 0 0 
2419000000.0000000000 0.149350911378860501388388115629 -0.092364594340324401855468750000 0.003819351317360997200012207031 0.000564520596526563167572021484 0 0 0 0 
2419166666.6666665077 0.149437531828880310058593750000 -0.093581102788448333740234375000 0.003699801396578549905064248193 0.000355148717062547802925109863 0 0 0 0 
2419333333.3333334923 0.149421438574791010100994981258 -0.094650954008102416992187500000 0.003761550877243279977085732568 0.000330150476656854206889551984 0 0 0 0 
2419500000.0000000000 0.149761587381362887283486884371 -0.095765374600887298583984375000 0.003710765158757566972019814600 0.000078034914622548967599868774 0 0 0 0 
2419666666.6666665077 0.149886697530746487716513115629 -0.096659891307353973388671875000 0.003559393808245658874511718750 -0.000011887653272424360568625297 0 0 0 0 
2419833333.3333334923 0.149904429912567110916299384371 -0.097222544252872467041015625000 0.003677228232845664024353027344 -0.000005161156877875328063964844 0 0 0 0 
