# Version 1.00
#
freq[Hz];re:Trc1_S11;im:Trc1_S11;re:Trc2_S21;im:Trc2_S21;
2.400000000000000E+009;1.564988195896149E-001;1.054090708494186E-001;5.019757896661758E-003;-3.371479688212276E-003;
2.400166666666667E+009;1.564917117357254E-001;1.031473949551582E-001;5.190742667764425E-003;-3.465712536126375E-003;
2.400333333333334E+009;1.566494107246399E-001;1.010793074965477E-001;4.987236112356186E-003;-3.683383809402585E-003;
2.400500000000000E+009;1.568200886249542E-001;9.827184677124023E-002;4.921078681945801E-003;-3.969933837652206E-003;
2.400666666666667E+009;1.570968627929688E-001;9.598249197006226E-002;5.083240102976561E-003;-4.189671017229557E-003;
2.400833333333334E+009;1.574240922927856E-001;9.332659095525742E-002;4.788745194673538E-003;-4.473666660487652E-003;
2.401000000000000E+009;1.577064543962479E-001;9.058139473199844E-002;4.742209799587727E-003;-4.545823205262423E-003;
2.401166666666667E+009;1.579961180686951E-001;8.784709870815277E-002;4.730488173663616E-003;-4.942998755723238E-003;
2.401333333333334E+009;1.583413928747177E-001;8.535828441381455E-002;4.385190084576607E-003;-5.078505259007216E-003;
2.401500000000000E+009;1.590017378330231E-001;8.250222355127335E-002;4.456806462258101E-003;-5.427153315395117E-003;
2.401666666666667E+009;1.592938899993897E-001;7.968811690807343E-002;4.076076205819845E-003;-5.551389418542385E-003;
2.401833333333334E+009;1.601482182741165E-001;7.733882218599320E-002;3.723362460732460E-003;-5.863791797310114E-003;
2.402000000000000E+009;1.608641296625137E-001;7.458566129207611E-002;3.439940512180328E-003;-5.935735069215298E-003;
2.402166666666667E+009;1.616677492856979E-001;7.237968593835831E-002;3.119132248684764E-003;-6.161959376186132E-003;
2.402333333333334E+009;1.627189517021179E-001;6.976705044507980E-002;2.603307599201798E-003;-6.362703163176775E-003;
2.402500000000000E+009;1.638040244579315E-001;6.741786748170853E-002;2.294156700372696E-003;-6.404337007552385E-003;
2.402666666666667E+009;1.649589389562607E-001;6.520164757966995E-002;1.870549516752362E-003;-6.438851822167635E-003;
2.402833333333334E+009;1.660956144332886E-001;6.266646087169647E-002;1.676541287451983E-003;-6.487774662673473E-003;
2.403000000000000E+009;1.675839573144913E-001;6.072484701871872E-002;1.140199485234916E-003;-6.424583494663239E-003;
2.403166666666667E+009;1.689498573541641E-001;5.857228115200996E-002;8.438592194579542E-004;-6.353635806590319E-003;
2.403333333333334E+009;1.703788936138153E-001;5.663389340043068E-002;5.260176258161664E-004;-6.216105073690414E-003;
2.403500000000000E+009;1.718354523181915E-001;5.462478101253510E-002;2.231170656159520E-004;-6.027357652783394E-003;
2.403666666666667E+009;1.733984947204590E-001;5.270388349890709E-002;-3.222396844648756E-005;-5.759648978710175E-003;
2.403833333333334E+009;1.748841553926468E-001;5.094355717301369E-002;-2.408438012935221E-004;-5.594621878117323E-003;
2.404000000000000E+009;1.763279289007187E-001;4.932796582579613E-002;-6.015579565428197E-004;-5.266205407679081E-003;
2.404166666666667E+009;1.778330802917481E-001;4.795743152499199E-002;-5.445638671517372E-004;-5.213188473135233E-003;
2.404333333333334E+009;1.793123930692673E-001;4.638684168457985E-002;-5.652432446368039E-004;-4.848630167543888E-003;
2.404500000000000E+009;1.806250512599945E-001;4.502672702074051E-002;-7.152526522986591E-004;-4.765937570482492E-003;
2.404666666666667E+009;1.821807771921158E-001;4.391514509916306E-002;-6.220922805368900E-004;-4.742830526083708E-003;
2.404833333333334E+009;1.834179908037186E-001;4.288336634635925E-002;-7.356293499469757E-004;-4.274189472198486E-003;
2.405000000000000E+009;1.848599463701248E-001;4.226256161928177E-002;-7.487382972612977E-004;-4.315087106078863E-003;
2.405166666666667E+009;1.859751194715500E-001;4.144918546080589E-002;-5.559726268984377E-004;-4.266922827810049E-003;
2.405333333333334E+009;1.871109753847122E-001;4.091097041964531E-002;-6.841715658083558E-004;-4.287100397050381E-003;
2.405500000000000E+009;1.882639676332474E-001;4.034363105893135E-002;-7.029955158941448E-004;-4.234524909406900E-003;
2.405666666666667E+009;1.893740892410278E-001;3.995386138558388E-002;-8.181578014045954E-004;-4.392877221107483E-003;
2.405833333333334E+009;1.903278827667236E-001;3.963052853941917E-002;-9.262691019102931E-004;-4.229935351759195E-003;
2.406000000000000E+009;1.911982744932175E-001;3.927764296531677E-002;-9.809040930122137E-004;-4.199789371341467E-003;
2.406166666666667E+009;1.920500248670578E-001;3.896621987223625E-002;-9.281093953177333E-004;-4.207210615277290E-003;
2.406333333333334E+009;1.928181648254395E-001;3.890027105808258E-002;-1.030066283419728E-003;-4.188933409750462E-003;
2.406500000000000E+009;1.934304982423782E-001;3.886215388774872E-002;-1.076878979802132E-003;-4.092999268323183E-003;
2.406666666666667E+009;1.938490122556686E-001;3.872509673237801E-002;-1.137282466515899E-003;-4.025074653327465E-003;
2.406833333333334E+009;1.942943036556244E-001;3.845634311437607E-002;-1.251069363206625E-003;-4.034049343317747E-003;
2.407000000000000E+009;1.945665329694748E-001;3.861698135733604E-002;-1.201655133627355E-003;-3.902730997651815E-003;
2.407166666666667E+009;1.948108375072479E-001;3.823807463049889E-002;-1.218363759107888E-003;-3.805611049756408E-003;
2.407333333333334E+009;1.947508454322815E-001;3.827166929841042E-002;-1.165880006738007E-003;-3.814021125435829E-003;
2.407500000000000E+009;1.947233378887177E-001;3.803684934973717E-002;-1.199459540657699E-003;-3.874652786180377E-003;
2.407666666666667E+009;1.946683675050736E-001;3.788698092103005E-002;-1.096273190341890E-003;-3.797287121415138E-003;
2.407833333333334E+009;1.941412240266800E-001;3.772186115384102E-002;-1.101508038118482E-003;-3.815980860963464E-003;
2.408000000000000E+009;1.941258460283279E-001;3.737528249621391E-002;-1.196987694129348E-003;-3.799651749432087E-003;
2.408166666666667E+009;1.937009841203690E-001;3.695857897400856E-002;-1.035048509947956E-003;-4.042178392410278E-003;
2.408333333333334E+009;1.932456195354462E-001;3.628488257527351E-002;-1.081892871297896E-003;-4.021371249109507E-003;
2.408500000000000E+009;1.925718039274216E-001;3.585212677717209E-002;-1.031284220516682E-003;-4.026438575237989E-003;
2.408666666666667E+009;1.921540647745132E-001;3.527639061212540E-002;-1.098761218599975E-003;-4.085464403033257E-003;
2.408833333333334E+009;1.915586143732071E-001;3.436037525534630E-002;-1.310990774072707E-003;-4.138736054301262E-003;
2.409000000000000E+009;1.908606588840485E-001;3.329930454492569E-002;-1.319349277764559E-003;-4.431756678968668E-003;
2.409166666666667E+009;1.899448633193970E-001;3.235083445906639E-002;-1.348374178633094E-003;-4.388126544654369E-003;
2.409333333333334E+009;1.892778128385544E-001;3.121761232614517E-002;-1.550302025862038E-003;-4.674656316637993E-003;
2.409500000000000E+009;1.882650852203369E-001;2.988730557262898E-002;-1.584323705174029E-003;-4.612448625266552E-003;
2.409666666666667E+009;1.874821782112122E-001;2.846691571176052E-002;-1.837786636315286E-003;-4.650258459150791E-003;
2.409833333333334E+009;1.866355538368225E-001;2.693285793066025E-002;-1.812902395613492E-003;-4.868786316365004E-003;
2.410000000000000E+009;1.859196424484253E-001;2.548906765878201E-002;-2.129902364686132E-003;-4.898626822978258E-003;
2.410166666666667E+009;1.849614679813385E-001;2.350501157343388E-002;-2.464622259140015E-003;-5.147112067788839E-003;
2.410333333333334E+009;1.842051148414612E-001;2.193588204681873E-002;-2.573037985712290E-003;-4.890462849289179E-003;
2.410500000000000E+009;1.834619641304016E-001;2.006628550589085E-002;-2.703867154195905E-003;-5.167440045624971E-003;
2.410666666666667E+009;1.826682239770889E-001;1.785792596638203E-002;-3.058051923289895E-003;-5.082242190837860E-003;
2.410833333333334E+009;1.822170466184616E-001;1.575881801545620E-002;-3.223429201170802E-003;-5.203940439969301E-003;
2.411000000000000E+009;1.816049814224243E-001;1.362603530287743E-002;-3.469174262136221E-003;-5.171162541955710E-003;
2.411166666666667E+009;1.810460984706879E-001;1.181021519005299E-002;-3.746423637494445E-003;-5.136403720825911E-003;
2.411333333333334E+009;1.808549165725708E-001;9.409147314727306E-003;-3.944292664527893E-003;-5.247782450169325E-003;
2.411500000000000E+009;1.804385930299759E-001;7.196138612926006E-003;-4.300971049815416E-003;-5.225880071520805E-003;
2.411666666666667E+009;1.803313940763474E-001;4.961641971021891E-003;-4.460418596863747E-003;-5.090767052024603E-003;
2.411833333333334E+009;1.802235692739487E-001;2.779242116957903E-003;-4.829874262213707E-003;-5.017167422920466E-003;
2.412000000000000E+009;1.804523766040802E-001;3.489964874461293E-004;-5.131676327437162E-003;-5.064350087195635E-003;
2.412166666666667E+009;1.803882122039795E-001;-1.907485653646290E-003;-5.454280413687229E-003;-4.831377882510424E-003;
2.412333333333334E+009;1.807416081428528E-001;-3.994841128587723E-003;-5.878081545233727E-003;-4.663690458983183E-003;
2.412500000000000E+009;1.812419295310974E-001;-6.197119131684303E-003;-6.154083181172609E-003;-4.641551524400711E-003;
2.412666666666667E+009;1.817700415849686E-001;-8.599705994129181E-003;-6.603729911148548E-003;-4.250207915902138E-003;
2.412833333333334E+009;1.824095100164414E-001;-1.071238145232201E-002;-6.821011193096638E-003;-4.027403891086578E-003;
2.413000000000000E+009;1.831152141094208E-001;-1.281555183231831E-002;-7.137516047805548E-003;-3.746864851564169E-003;
2.413166666666667E+009;1.839315742254257E-001;-1.482041925191879E-002;-7.626137696206570E-003;-3.285961458459497E-003;
2.413333333333334E+009;1.849079877138138E-001;-1.706743054091930E-002;-7.878553122282028E-003;-2.959185512736440E-003;
2.413500000000000E+009;1.857570260763168E-001;-1.905334740877152E-002;-8.189101703464985E-003;-2.593446755781770E-003;
2.413666666666667E+009;1.867327392101288E-001;-2.108332142233849E-002;-8.219865150749683E-003;-2.004893729463220E-003;
2.413833333333334E+009;1.878901869058609E-001;-2.301292866468430E-002;-8.269763551652432E-003;-1.502101309597492E-003;
2.414000000000000E+009;1.887566000223160E-001;-2.475608885288239E-002;-8.396063931286335E-003;-1.011072541587055E-003;
2.414166666666667E+009;1.899046152830124E-001;-2.639046125113964E-002;-8.491627871990204E-003;-4.244562878739089E-004;
2.414333333333334E+009;1.909441649913788E-001;-2.814882434904575E-002;-8.658061735332012E-003;-7.907550025265664E-005;
2.414500000000000E+009;1.919895708560944E-001;-2.942416444420815E-002;-8.328190073370934E-003;4.257211985532194E-004;
2.414666666666667E+009;1.929739415645599E-001;-3.071002662181854E-002;-8.315756916999817E-003;8.947495371103287E-004;
2.414833333333334E+009;1.941896975040436E-001;-3.218550980091095E-002;-8.101862855255604E-003;1.426469651050866E-003;
2.415000000000000E+009;1.950763314962387E-001;-3.345423191785812E-002;-7.897742092609406E-003;1.768767600879073E-003;
2.415166666666667E+009;1.962862312793732E-001;-3.448363766074181E-002;-7.711460813879967E-003;1.986779272556305E-003;
2.415333333333334E+009;1.971740424633026E-001;-3.533497452735901E-002;-7.576474919915199E-003;2.472286345437169E-003;
2.415500000000000E+009;1.981828957796097E-001;-3.602271899580956E-002;-7.476249244064093E-003;2.737726550549269E-003;
2.415666666666667E+009;1.992050707340241E-001;-3.703055158257484E-002;-7.400878239423037E-003;3.004222875460982E-003;
2.415833333333334E+009;1.999173313379288E-001;-3.761908411979675E-002;-7.105831056833267E-003;3.332793479785323E-003;
2.416000000000000E+009;2.004310041666031E-001;-3.819299116730690E-002;-6.950434762984514E-003;3.574934555217624E-003;
2.416166666666667E+009;2.010460644960403E-001;-3.895621374249458E-002;-6.612593308091164E-003;3.835925366729498E-003;
2.416333333333334E+009;2.014916986227036E-001;-3.916945680975914E-002;-6.415597628802061E-003;4.210142884403467E-003;
2.416500000000000E+009;2.019966989755631E-001;-3.966066613793373E-002;-6.193963345140219E-003;4.439072683453560E-003;
2.416666666666667E+009;2.021125704050064E-001;-3.996878862380981E-002;-5.843147169798613E-003;4.492965992540121E-003;
2.416833333333334E+009;2.021159082651138E-001;-4.015459865331650E-002;-5.794869270175695E-003;4.927352070808411E-003;
2.417000000000000E+009;2.021868526935577E-001;-4.053953662514687E-002;-5.227786488831043E-003;5.048583727329969E-003;
2.417166666666667E+009;2.019479125738144E-001;-4.059803858399391E-002;-4.877209663391113E-003;5.305063910782337E-003;
2.417333333333334E+009;2.016854137182236E-001;-4.059748724102974E-002;-4.588530864566565E-003;5.484085064381361E-003;
2.417500000000000E+009;2.013525068759918E-001;-4.070289805531502E-002;-4.212492611259222E-003;5.469216965138912E-003;
2.417666666666667E+009;2.008194029331207E-001;-4.073354601860046E-002;-3.910899627953768E-003;5.578567273914814E-003;
2.417833333333334E+009;2.003654688596726E-001;-4.070581123232842E-002;-3.579535754397512E-003;5.598388146609068E-003;
2.418000000000000E+009;1.997989565134049E-001;-4.055651277303696E-002;-3.306968137621880E-003;5.594286136329174E-003;
2.418166666666667E+009;1.988701224327087E-001;-4.069031029939652E-002;-3.071737242862582E-003;5.495612043887377E-003;
2.418333333333334E+009;1.979870200157166E-001;-4.070943221449852E-002;-2.752874279394746E-003;5.453284829854965E-003;
2.418500000000000E+009;1.970377862453461E-001;-4.102424532175064E-002;-2.448165323585272E-003;5.436117295175791E-003;
2.418666666666667E+009;1.962195783853531E-001;-4.101099818944931E-002;-2.261283108964562E-003;5.389071535319090E-003;
2.418833333333334E+009;1.951384097337723E-001;-4.148462414741516E-002;-1.928842859342694E-003;5.093169398605824E-003;
2.419000000000000E+009;1.939777731895447E-001;-4.187202453613281E-002;-1.860154094174504E-003;5.050802603363991E-003;
2.419166666666667E+009;1.928306818008423E-001;-4.219716787338257E-002;-1.541601726785302E-003;4.945513792335987E-003;
2.419333333333334E+009;1.914483755826950E-001;-4.279690235853195E-002;-1.498035038821399E-003;4.975812509655953E-003;
2.419500000000000E+009;1.900112479925156E-001;-4.350946843624115E-002;-1.464063767343760E-003;4.700430203229189E-003;
2.419666666666667E+009;1.886339634656906E-001;-4.441615194082260E-002;-1.323772710748017E-003;4.633720498532057E-003;
2.419833333333334E+009;1.872477829456329E-001;-4.509602859616280E-002;-1.274588517844677E-003;4.415368195623159E-003;
2.420000000000000E+009;1.858029812574387E-001;-4.601706564426422E-002;-1.216492732055485E-003;4.431092645972967E-003;
2.420166666666667E+009;1.844017356634140E-001;-4.703403264284134E-002;-1.216163975186646E-003;4.343140870332718E-003;
2.420333333333334E+009;1.828361898660660E-001;-4.830680415034294E-002;-1.232121721841395E-003;4.247479140758514E-003;
2.420500000000000E+009;1.812820732593536E-001;-4.960601776838303E-002;-1.118931453675032E-003;4.276823718100786E-003;
2.420666666666667E+009;1.799286305904388E-001;-5.069727450609207E-002;-1.164774061180651E-003;4.335060715675354E-003;
2.420833333333334E+009;1.785378605127335E-001;-5.225750803947449E-002;-1.142297871410847E-003;4.322650842368603E-003;
2.421000000000000E+009;1.771837770938873E-001;-5.378606915473938E-002;-1.151347300037742E-003;4.281534347683191E-003;
2.421166666666667E+009;1.759751290082932E-001;-5.548255145549774E-002;-1.003434997983277E-003;4.263381008058786E-003;
2.421333333333334E+009;1.745055913925171E-001;-5.702605843544006E-002;-9.529824019409716E-004;4.309477750211954E-003;
2.421500000000000E+009;1.732933670282364E-001;-5.888652801513672E-002;-7.463863003067672E-004;4.359460901468992E-003;
2.421666666666667E+009;1.721519827842712E-001;-6.045486032962799E-002;-6.221231305971742E-004;4.352096933871508E-003;
2.421833333333334E+009;1.712736785411835E-001;-6.247550621628761E-002;-5.918726674281061E-004;4.535269457846880E-003;
2.422000000000000E+009;1.701575070619583E-001;-6.429661810398102E-002;-5.182991735637188E-004;4.325033165514469E-003;
2.422166666666667E+009;1.694232821464539E-001;-6.630059331655502E-002;-4.008867545053363E-004;4.313378129154444E-003;
2.422333333333334E+009;1.685029715299606E-001;-6.802076101303101E-002;-4.416109877638519E-004;4.257099702954292E-003;
2.422500000000000E+009;1.679004132747650E-001;-7.002719491720200E-002;-2.382044767728075E-004;4.147924948483706E-003;
2.422666666666667E+009;1.671058982610703E-001;-7.191744446754456E-002;-2.640167949721217E-004;4.141908604651690E-003;
2.422833333333334E+009;1.667349636554718E-001;-7.374856621026993E-002;-3.392140788491815E-004;4.111172631382942E-003;
2.423000000000000E+009;1.663406044244766E-001;-7.578084617853165E-002;-2.276658196933568E-004;4.231364931911230E-003;
2.423166666666667E+009;1.657977253198624E-001;-7.754371315240860E-002;-6.079294325900264E-005;4.070402123034000E-003;
2.423333333333334E+009;1.656813770532608E-001;-7.939141988754273E-002;-1.169335737358779E-004;4.062509629875422E-003;
2.423500000000000E+009;1.657374501228333E-001;-8.099379390478134E-002;-4.011624332633801E-005;4.045702051371336E-003;
2.423666666666667E+009;1.657175421714783E-001;-8.298979699611664E-002;-9.705145930638537E-005;4.053547047078610E-003;
2.423833333333334E+009;1.654914468526840E-001;-8.477739244699478E-002;-9.692878666101024E-005;4.177906550467014E-003;
2.424000000000000E+009;1.655867099761963E-001;-8.623452484607697E-002;-7.154716149671003E-005;4.247581120580435E-003;
2.424166666666667E+009;1.656342595815659E-001;-8.782391995191574E-002;-8.665070345159620E-005;4.396791569888592E-003;
2.424333333333334E+009;1.657165437936783E-001;-8.926346153020859E-002;1.271138462470844E-004;4.410732537508011E-003;
2.424500000000000E+009;1.660378873348236E-001;-9.093259274959564E-002;7.908197585493326E-005;4.561741370707750E-003;
2.424666666666667E+009;1.661749184131622E-001;-9.232494235038757E-002;2.047779125859961E-004;4.645318258553743E-003;
2.424833333333334E+009;1.666021049022675E-001;-9.360881149768829E-002;3.929044178221375E-004;4.823059309273958E-003;
2.425000000000000E+009;1.668828874826431E-001;-9.459740668535233E-002;3.297613002359867E-004;4.882251378148794E-003;
2.425166666666667E+009;1.672310829162598E-001;-9.570500999689102E-002;6.433378439396620E-004;4.913588054478169E-003;
2.425333333333334E+009;1.672359108924866E-001;-9.673395007848740E-002;6.502936594188213E-004;4.996973555535078E-003;
2.425500000000000E+009;1.677138954401016E-001;-9.767864644527435E-002;1.020294730551541E-003;5.119656678289175E-003;
2.425666666666667E+009;1.679243743419647E-001;-9.837884455919266E-002;1.334530767053366E-003;5.150664132088423E-003;
2.425833333333334E+009;1.681547611951828E-001;-9.923531860113144E-002;1.395009574480355E-003;5.160733591765165E-003;
2.426000000000000E+009;1.684292852878571E-001;-9.967817366123200E-002;1.617011032067239E-003;5.089610815048218E-003;
2.426166666666667E+009;1.687479168176651E-001;-1.003605648875237E-001;1.794675597921014E-003;5.187135655432940E-003;
2.426333333333334E+009;1.687270998954773E-001;-1.007764413952828E-001;2.092750975862145E-003;5.107353907078505E-003;
2.426500000000000E+009;1.690663099288940E-001;-1.012599989771843E-001;2.314699580892921E-003;5.160030908882618E-003;
2.426666666666667E+009;1.692196428775787E-001;-1.016347035765648E-001;2.529824618250132E-003;5.121456924825907E-003;
2.426833333333334E+009;1.694050282239914E-001;-1.020809113979340E-001;2.722343197092414E-003;4.879395943135023E-003;
2.427000000000000E+009;1.693541258573532E-001;-1.023373752832413E-001;2.888889983296394E-003;4.762536846101284E-003;
2.427166666666667E+009;1.692901551723480E-001;-1.025179103016853E-001;3.167105140164495E-003;4.912312608212233E-003;
2.427333333333334E+009;1.690566986799240E-001;-1.028451919555664E-001;3.339279443025589E-003;4.733402281999588E-003;
2.427500000000000E+009;1.688846796751022E-001;-1.031366214156151E-001;3.376507898792625E-003;4.495326429605484E-003;
2.427666666666667E+009;1.684892624616623E-001;-1.034201681613922E-001;3.624065779149532E-003;4.313965793699026E-003;
