# Hz S RI R 50
2400000000.0000000000 0.168946459889411898513955634371 0.046982992440462112426757812500 -0.003185275709256529808044433594 -0.001831146539188922102089907007 0 0 0 0 
2400166666.6666665077 0.169909819960594205001669365629 0.046132173389196402812917341407 -0.002994185779243708090541220557 -0.001920130453072488091112446362 0 0 0 0 
2400333333.3333334923 0.170742794871330288986044365629 0.044992566108703613281250000000 -0.003242900595068932013270712744 -0.001789582194760441996930766528 0 0 0 0 
2400500000.0000000000 0.171724498271942110916299384371 0.043857749551534652709960937500 -0.003239947371184825897216796875 -0.001683825394138694026349711841 0 0 0 0 
2400666666.6666665077 0.172585919499397305587606865629 0.042880300432443618774414062500 -0.003140905406326055960414267432 -0.001458501443266869024989462744 0 0 0 0 
2400833333.3333334923 0.173335582017898587325888115629 0.042381223291158683086354841407 -0.003245500614866613908054970850 -0.001554574235342442989349365234 0 0 0 0 
2401000000.0000000000 0.173952996730804387848223768742 0.041505295783281333232839216407 -0.003256166353821754889247275244 -0.001298576011322438933728862231 0 0 0 0 
2401166666.6666665077 0.174932390451431302169638115629 0.040783900767564766620676408593 -0.003187820082530378861668252100 -0.001229418092407285950304340894 0 0 0 0 
2401333333.3333334923 0.175443589687347412109375000000 0.039948750287294387817382812500 -0.003307162318378686904907226562 -0.000967236817814409732818603516 0 0 0 0 
2401500000.0000000000 0.176407337188720703125000000000 0.039301197975873947143554687500 -0.003382485825568438009974814307 -0.000899450562428683042526245117 0 0 0 0 
2401666666.6666665077 0.176758170127868707854901231258 0.038728535175323493267018903907 -0.003416684456169604821446084131 -0.000798703287728130817413330078 0 0 0 0 
2401833333.3333334923 0.177379503846168490310830634371 0.037964932620525360107421875000 -0.003429964650422335104701376807 -0.000617223500739783048629760742 0 0 0 0 
2402000000.0000000000 0.177723169326782198806924384371 0.037603061646223068237304687500 -0.003501280210912228064296103369 -0.000442868418758735114901942120 0 0 0 0 
2402166666.6666665077 0.178161442279815701583700615629 0.036679517477750778198242187500 -0.003388384124264121055603027344 -0.000394699804019182920455932617 0 0 0 0 
2402333333.3333334923 0.178405329585075406173544365629 0.036294735968112952495534528907 -0.003405880881473422050476074219 -0.000298387894872575998306274414 0 0 0 0 
2402500000.0000000000 0.178915277123451205154580634371 0.035681243985891342163085937500 -0.003376396140083671049830771338 -0.000002657748609635746106505394 0 0 0 0 
2402666666.6666665077 0.179095953702926607986611884371 0.035026274621486656879465471093 -0.003351325867697596983668661963 0.000096010175184346735477447510 0 0 0 0 
2402833333.3333334923 0.179190829396247891525106865629 0.034152492880821228027343750000 -0.003157832426950335936305380713 0.000335496821207925677299499512 0 0 0 0 
2403000000.0000000000 0.179161563515663202483807481258 0.033300388604402542114257812500 -0.003180501749739050865173339844 0.000302973465295508503913879395 0 0 0 0 
2403166666.6666665077 0.179267019033432006835937500000 0.032320298254489898681640625000 -0.003170569892972708182093954932 0.000410328852012753486633300781 0 0 0 0 
2403333333.3333334923 0.178997561335563687423544365629 0.031737435609102249145507812500 -0.003018342191353439851048134912 0.000309842755086719989776611328 0 0 0 0 
2403500000.0000000000 0.178842470049858093261718750000 0.030608765780925750732421875000 -0.003089684760197997093200683594 0.000493186002131551504135131836 0 0 0 0 
2403666666.6666665077 0.178636625409126309493856865629 0.029559809714555740356445312500 -0.002700413577258586883544921875 0.000725903897546231746673583984 0 0 0 0 
2403833333.3333334923 0.178338795900344904143963731258 0.028399983420968059194544608204 -0.002590671181678771972656250000 0.000738609174732118844985961914 0 0 0 0 
2404000000.0000000000 0.178107619285583496093750000000 0.027389600872993469238281250000 -0.002624129876494408087489462744 0.000895701581612229347229003906 0 0 0 0 
2404166666.6666665077 0.177545562386512811858807481258 0.026104407384991649282435233204 -0.002652821829542518095729208838 0.000779237889219075441360473633 0 0 0 0 
2404333333.3333334923 0.177292719483375604827557481258 0.024862376973032951354980468750 -0.002562536159530282020568847656 0.001028847065754235007642436450 0 0 0 0 
2404500000.0000000000 0.176670402288436889648437500000 0.023434765636920928955078125000 -0.002338537247851490974426269531 0.000883271801285445690155029297 0 0 0 0 
2404666666.6666665077 0.176274955272674588302450615629 0.022107632830739021301269531250 -0.002309559145942329926731728662 0.000988075044006109237670898438 0 0 0 0 
2404833333.3333334923 0.175856038928031893631143134371 0.020652262493968009948730468750 -0.002242452464997767968418740381 0.000919440062716603279113769531 0 0 0 0 
2405000000.0000000000 0.175494045019149808029013115629 0.019199887290596958505650704296 -0.002321845851838589148280478369 0.000909166643396019935607910156 0 0 0 0 
2405166666.6666665077 0.174897581338882501800213731258 0.017523869872093200683593750000 -0.002234351588413118882420205225 0.001049732323735951943638466943 0 0 0 0 
2405333333.3333334923 0.174586683511734008789062500000 0.015658592805266380310058593750 -0.002018965780735015869140625000 0.001154146390035748915431357275 0 0 0 0 
2405500000.0000000000 0.174198582768440302093182481258 0.013885362073779109609583670704 -0.002028828253969550132751464844 0.001170794246718287901637411963 0 0 0 0 
2405666666.6666665077 0.173842370510101290603799384371 0.012348780408501630265205584180 -0.001818759716115891933441162109 0.001112583675421773953678750146 0 0 0 0 
2405833333.3333334923 0.173346728086471613128338731258 0.010663015767931939906110194727 -0.002127220854163169860839843750 0.001145937014371156909345317310 0 0 0 0 
2406000000.0000000000 0.173233777284622192382812500000 0.008527032099664211273193359375 -0.001963823335245252089259482275 0.001122384215705096938489604419 0 0 0 0 
2406166666.6666665077 0.172744378447532709319744981258 0.006846579723060131072998046875 -0.001899060560390352985979389722 0.001202229876071214892743754810 0 0 0 0 
2406333333.3333334923 0.172899007797241210937500000000 0.004936461336910724639892578125 -0.001972657162696123123168945312 0.001058423542417586066602397388 0 0 0 0 
2406500000.0000000000 0.172715753316879300216513115629 0.002901882864534854888916015625 -0.001837775227613746903063129956 0.001349207363091408989549946362 0 0 0 0 
2406666666.6666665077 0.172475099563598605056924384371 0.000924021063838154077529907227 -0.001987637020647525787353515625 0.001245792722329496903660439600 0 0 0 0 
2406833333.3333334923 0.172817245125770596603231865629 -0.001181620871648191972019814600 -0.001708533032797276973724365234 0.001206838409416377978083945166 0 0 0 0 
2407000000.0000000000 0.172871336340904208084268134371 -0.003183446358889340920689248193 -0.001740078325383364937425922925 0.001235146308317780928370810400 0 0 0 0 
2407166666.6666665077 0.173149287700653103927450615629 -0.005128432530909776687622070312 -0.001625355565920471928240131909 0.001449360977858304977416992188 0 0 0 0 
2407333333.3333334923 0.173203557729721097091513115629 -0.007530808914452791213989257812 -0.001902916468679904937744140625 0.001273309346288443045375204932 0 0 0 0 
2407500000.0000000000 0.173487916588783291915731865629 -0.009416741319000720977783203125 -0.001623385003767908053157187354 0.001587744452990591959712363135 0 0 0 0 
2407666666.6666665077 0.173843368887901306152343750000 -0.011404800228774549311627772852 -0.001698498032055794975878071362 0.001473462907597423033473349463 0 0 0 0 
2407833333.3333334923 0.174162521958351107498330634371 -0.013569491915404800069788748829 -0.001552107278257607980015420068 0.001489975140430032990099262769 0 0 0 0 
2408000000.0000000000 0.174566015601158086578692518742 -0.015759438276290890085240548046 -0.001409434597007930061937641675 0.001602659467607737021205283057 0 0 0 0 
2408166666.6666665077 0.174989059567451504806356865629 -0.017589222639799121511439139454 -0.001449608360417186997057270581 0.001650137943215667984606098706 0 0 0 0 
2408333333.3333334923 0.175609380006790188888388115629 -0.019583187997341159475306326954 -0.001366563956253231005427695166 0.001523813465610146956202841650 0 0 0 0 
2408500000.0000000000 0.175874054431915310958700615629 -0.021620361134409901010533516796 -0.001278780051507055976270366138 0.001625980949029326005222939600 0 0 0 0 
2408666666.6666665077 0.176348865032195989410723768742 -0.023424571380019191396693045704 -0.001308664446696639060974121094 0.001606085221283138015149760669 0 0 0 0 
2408833333.3333334923 0.176673725247383089920205634371 -0.025099866092205051076868826954 -0.001071963808499277071711874854 0.001574350404553114934208535303 0 0 0 0 
2409000000.0000000000 0.177054330706596402267294365629 -0.026682745665311809885045235546 -0.001052823732607067064998007666 0.001580471755005419037462544019 0 0 0 0 
2409166666.6666665077 0.177536025643348693847656250000 -0.028133394196629520761510079296 -0.000959564291406422853469848633 0.001529541332274674935581826318 0 0 0 0 
2409333333.3333334923 0.178151816129684503753338731258 -0.029512509703636169433593750000 -0.000914354575797915458679199219 0.001555046648718416907666850513 0 0 0 0 
2409500000.0000000000 0.178476199507713290115518134371 -0.030963003635406490671178048046 -0.000764066528063267469406127930 0.001541650039143859906437539209 0 0 0 0 
2409666666.6666665077 0.178921282291412409026776231258 -0.031996026635169982910156250000 -0.000698518299032002687454223633 0.001241480698809028105494833838 0 0 0 0 
2409833333.3333334923 0.179240256547927911956463731258 -0.033070888370275497436523437500 -0.000734412402380257844924926758 0.001371185760945081927655864185 0 0 0 0 
2410000000.0000000000 0.179904282093048095703125000000 -0.033997938036918640136718750000 -0.000658808450680226087570190430 0.001347128883935510895372700269 0 0 0 0 
2410166666.6666665077 0.180221572518348693847656250000 -0.034823160618543631816823591407 -0.000788213161285966634750366211 0.001152335433289408900617289966 0 0 0 0 
2410333333.3333334923 0.180487468838691711425781250000 -0.035769768059253692626953125000 -0.000784581468906253576278686523 0.001186491805128752968431782300 0 0 0 0 
2410500000.0000000000 0.180979505181312588790731865629 -0.036386590451002120971679687500 -0.000629676040261983871459960938 0.001006822101771831946132040869 0 0 0 0 
2410666666.6666665077 0.181371435523033086578692518742 -0.037157356739044189453125000000 -0.000760846538469195365905761719 0.001048298901878296895268105615 0 0 0 0 
2410833333.3333334923 0.181676506996154812911825615629 -0.037715382874011993408203125000 -0.000750556937418878078460693359 0.001156560843810438892961811597 0 0 0 0 
2411000000.0000000000 0.182011961936950711349325615629 -0.038155436515808112407643903907 -0.000837747415062040090560913086 0.001005484024062752940534282153 0 0 0 0 
2411166666.6666665077 0.182135581970214788238848768742 -0.038684770464897162700612653907 -0.000801745452918112277984619141 0.001066735363565384907963418115 0 0 0 0 
2411333333.3333334923 0.182225987315177889724893134371 -0.039075780659914016723632812500 -0.000739255978260189294815063477 0.000972846813965588808059692383 0 0 0 0 
2411500000.0000000000 0.182167872786521911621093750000 -0.039666190743446350097656250000 -0.000777228735387325286865234375 0.000917048018891364336013793945 0 0 0 0 
2411666666.6666665077 0.182372510433196993728799384371 -0.040081541985273361206054687500 -0.000982222845777869224548339844 0.000940741098020225763320922852 0 0 0 0 
2411833333.3333334923 0.182045817375183105468750000000 -0.040194649249315261840820312500 -0.000941368401981890201568603516 0.000987242325209081172943115234 0 0 0 0 
2412000000.0000000000 0.182014420628547696212606865629 -0.040727689862251281738281250000 -0.001214875490404665903804160010 0.000772044295445084571838378906 0 0 0 0 
2412166666.6666665077 0.181507006287574795821981865629 -0.041069187223911292339284528907 -0.001236920710653067068812704932 0.000759983959142118692398071289 0 0 0 0 
2412333333.3333334923 0.181308373808860806564169365629 -0.041378803551197052001953125000 -0.001216785982251167080522846753 0.000828335934784263372421264648 0 0 0 0 
2412500000.0000000000 0.180559650063514709472656250000 -0.041626058518886573101003278907 -0.001325072371400892951368022388 0.000748841441236436367034912109 0 0 0 0 
2412666666.6666665077 0.180049791932105990310830634371 -0.042174655944108963012695312500 -0.001464134082198143005371093750 0.000841359724290668964385986328 0 0 0 0 
2412833333.3333334923 0.179469227790832491775674384371 -0.042656045407056808471679687500 -0.001679113949649035930633544922 0.000852764642331749200820922852 0 0 0 0 
2413000000.0000000000 0.178603380918502807617187500000 -0.042826265096664428710937500000 -0.001776607008650898933410644531 0.000987511826679110527038574219 0 0 0 0 
2413166666.6666665077 0.177803441882133511642294365629 -0.043480198830366141582448591407 -0.001748655922710895972010947119 0.001005651196464895985246967847 0 0 0 0 
2413333333.3333334923 0.176698938012123107910156250000 -0.043726760894060141826589216407 -0.001794512500055134079576801831 0.001162209897302090904833149487 0 0 0 0 
2413500000.0000000000 0.175699487328529413421307481258 -0.044278528541326522827148437500 -0.002056895056739449934718466650 0.001248160377144813971278525244 0 0 0 0 
2413666666.6666665077 0.174847617745399502853231865629 -0.044938798993825912475585937500 -0.002283187350258231163024902344 0.001429434749297797896741557544 0 0 0 0 
2413833333.3333334923 0.173617884516716003417968750000 -0.045561529695987701416015625000 -0.002217557281255722045898437500 0.001731497934088110923767089844 0 0 0 0 
2414000000.0000000000 0.172265857458114596267861884371 -0.046409968286752700805664062500 -0.002333628013730049133300781250 0.001721311593428253910662006909 0 0 0 0 
2414166666.6666665077 0.171209618449211092849893134371 -0.046973202377557761455495466407 -0.002383541315793991088867187500 0.001780154532752930901171040112 0 0 0 0 
2414333333.3333334923 0.170153826475143404861611884371 -0.047816935926675803447682966407 -0.002261143643409014181849814307 0.002293004188686608834507607568 0 0 0 0 
2414500000.0000000000 0.169029608368873596191406250000 -0.048600781708955771709401716407 -0.002243310678750276999232626807 0.002548598451539874076843261719 0 0 0 0 
2414666666.6666665077 0.167621314525604303558026231258 -0.049469005316495902324636091407 -0.002471287501975893974304199219 0.002740762196481227874755859375 0 0 0 0 
2414833333.3333334923 0.166370987892150906661825615629 -0.050742287188768386840820312500 -0.002456083195284008979797363281 0.003032780950888990922215127100 0 0 0 0 
2415000000.0000000000 0.165184661746025113204794365629 -0.051877588033676147460937500000 -0.002217577304691075845005654443 0.003162291599437593980076455225 0 0 0 0 
2415166666.6666665077 0.163991883397102411468182481258 -0.053189970552921302104909528907 -0.002127194078639150099513388525 0.003588822670280932946446084131 0 0 0 0 
2415333333.3333334923 0.163089215755462701995526231258 -0.054486222565174102783203125000 -0.001999982865527271790745400537 0.003813141724094748930690146338 0 0 0 0 
2415500000.0000000000 0.161814942955970791915731865629 -0.055921133607625961303710937500 -0.001813871203921735069872211987 0.004050791729241609573364257812 0 0 0 0 
2415666666.6666665077 0.160672292113304110428018134371 -0.057401657104492187500000000000 -0.001561315497383475086809467847 0.004229369107633829116821289062 0 0 0 0 
2415833333.3333334923 0.159617334604263305664062500000 -0.059267967939376831054687500000 -0.001440528430975974039790488135 0.004342067055404186248779296875 0 0 0 0 
2416000000.0000000000 0.158521756529807988922442518742 -0.060804698616266250610351562500 -0.001174084958620369000675820459 0.004632538650184869766235351562 0 0 0 0 
2416166666.6666665077 0.157763540744781494140625000000 -0.062623687088489532470703125000 -0.000826496921945363283157348633 0.004614798352122306823730468750 0 0 0 0 
2416333333.3333334923 0.156706243753433199783486884371 -0.064403958618640899658203125000 -0.000662038917653262615203857422 0.004811161663383246335501386426 0 0 0 0 
2416500000.0000000000 0.155796751379966708084268134371 -0.066327430307865142822265625000 -0.000246729468926787376403808594 0.004893557168543338775634765625 0 0 0 0 
2416666666.6666665077 0.154870554804801913162393134371 -0.068230524659156799316406250000 -0.000048846981371752917766571045 0.004967215936630964279174804688 0 0 0 0 
2416833333.3333334923 0.154224306344985989669638115629 -0.070384502410888671875000000000 0.000374084484064951484829503192 0.005036975257098674774169921875 0 0 0 0 
2417000000.0000000000 0.153366073966026306152343750000 -0.072361022233963012695312500000 0.000577638158574700355529785156 0.005111915990710259351248456738 0 0 0 0 
2417166666.6666665077 0.152777388691902188400106865629 -0.074192918837070465087890625000 0.000778269080910831689834594727 0.004981058184057474136352539062 0 0 0 0 
2417333333.3333334923 0.152141734957695007324218750000 -0.076190501451492309570312500000 0.001360032940283417918561625903 0.005115539766848087310791015625 0 0 0 0 
2417500000.0000000000 0.151490077376365689376669365629 -0.078215442597866058349609375000 0.001491035101935267014744423975 0.004979069810360670089721679688 0 0 0 0 
2417666666.6666665077 0.151154771447181701660156250000 -0.080084994435310363769531250000 0.001711798948235810019849467700 0.004800284281373023986816406250 0 0 0 0 
2417833333.3333334923 0.150826051831245394607705634371 -0.081687770783901214599609375000 0.002043190412223339080810546875 0.004856821615248919400686933301 0 0 0 0 
2418000000.0000000000 0.150316521525382995605468750000 -0.083679236471652984619140625000 0.002318276325240730805637978662 0.004538178443908691406250000000 0 0 0 0 
2418166666.6666665077 0.150227397680282592773437500000 -0.085363112390041351318359375000 0.002505967859178781943080283057 0.004527501761913300427908612988 0 0 0 0 
2418333333.3333334923 0.150189563632011413574218750000 -0.087120883166790008544921875000 0.002776943612843751907348632812 0.004309167619794607162475585938 0 0 0 0 
2418500000.0000000000 0.149849548935890197753906250000 -0.088626444339752197265625000000 0.002972270827740430831909179688 0.004142364021390677365774823926 0 0 0 0 
2418666666.6666665077 0.150002390146255493164062500000 -0.090258225798606872558593750000 0.003217372344806789918186806787 0.003966292832046747207641601562 0 0 0 0 
2418833333.3333334923 0.149867802858352688888388115629 -0.091658383607864379882812500000 0.003312840359285473823547363281 0.003843724029138683839085244287 0 0 0 0 
2419000000.0000000000 0.149836018681526211837606865629 -0.092900931835174560546875000000 0.003381926799193025068995810400 0.003454937366768718199488974463 0 0 0 0 
2419166666.6666665077 0.150067493319511413574218750000 -0.094175308942794799804687500000 0.003728846553713082833531045068 0.003279310418292880058288574219 0 0 0 0 
2419333333.3333334923 0.149857088923454312423544365629 -0.094896741211414337158203125000 0.003672083374112844900843954932 0.003260247176513075828552246094 0 0 0 0 
2419500000.0000000000 0.150352954864502008636151231258 -0.096212655305862426757812500000 0.003821471938863397078273154150 0.002907554153352975845336914062 0 0 0 0 
2419666666.6666665077 0.150652393698692294021768134371 -0.097134999930858612060546875000 0.003737697843462229208705283057 0.002811240032315254211425781250 0 0 0 0 
2419833333.3333334923 0.150693997740745488922442518742 -0.097834609448909759521484375000 0.003803487634286284013035439600 0.002515809610486031012294150244 0 0 0 0 
