# Version 1.00
#
freq[Hz];re:Trc1_S11;im:Trc1_S11;re:Trc2_S21;im:Trc2_S21;
2.400000000000000E+009;1.551290601491928E-001;1.062809079885483E-001;-6.783233489841223E-003;-5.677273496985436E-003;
2.400166666666667E+009;1.548679172992706E-001;1.038923412561417E-001;-7.095721084624529E-003;-5.378253757953644E-003;
2.400333333333334E+009;1.548498570919037E-001;1.015482991933823E-001;-7.335450965911150E-003;-5.273994524031878E-003;
2.400500000000000E+009;1.549720168113709E-001;9.882777929306030E-002;-7.576421834528446E-003;-4.835278261452913E-003;
2.400666666666667E+009;1.548878401517868E-001;9.632728993892670E-002;-7.777434308081865E-003;-4.627238027751446E-003;
2.400833333333334E+009;1.551380008459091E-001;9.356319159269333E-002;-8.059477433562279E-003;-4.237721208482981E-003;
2.401000000000000E+009;1.550753563642502E-001;9.091491997241974E-002;-8.407973684370518E-003;-3.817447694018483E-003;
2.401166666666667E+009;1.552399694919586E-001;8.816133439540863E-002;-8.534574881196022E-003;-3.571989713236690E-003;
2.401333333333334E+009;1.557521373033524E-001;8.522089570760727E-002;-8.718324825167656E-003;-3.235843032598496E-003;
2.401500000000000E+009;1.561623364686966E-001;8.239147812128067E-002;-8.754626847803593E-003;-2.825917676091194E-003;
2.401666666666667E+009;1.564654260873795E-001;7.981058955192566E-002;-8.877870626747608E-003;-2.622523112222552E-003;
2.401833333333334E+009;1.569531857967377E-001;7.720918953418732E-002;-8.898638188838959E-003;-2.359953941777349E-003;
2.402000000000000E+009;1.579918265342712E-001;7.436335831880570E-002;-8.956666104495525E-003;-1.928964746184647E-003;
2.402166666666667E+009;1.587478369474411E-001;7.203177362680435E-002;-9.232724085450172E-003;-1.579543575644493E-003;
2.402333333333334E+009;1.599314659833908E-001;6.941793859004974E-002;-9.238225407898426E-003;-1.344287535175681E-003;
2.402500000000000E+009;1.609381884336472E-001;6.682398170232773E-002;-9.191841818392277E-003;-8.714506402611733E-004;
2.402666666666667E+009;1.620670408010483E-001;6.457849591970444E-002;-9.418502449989319E-003;-3.136578889098018E-004;
2.402833333333334E+009;1.634764820337296E-001;6.209851801395416E-002;-9.309823624789715E-003;-3.924287011614069E-005;
2.403000000000000E+009;1.647926717996597E-001;5.976125970482826E-002;-9.359586052596569E-003;3.068691585212946E-004;
2.403166666666667E+009;1.666415482759476E-001;5.764682590961456E-002;-9.439089335501194E-003;5.296769668348134E-004;
2.403333333333334E+009;1.681954264640808E-001;5.538625642657280E-002;-9.276871569454670E-003;1.208755653351545E-003;
2.403500000000000E+009;1.698611676692963E-001;5.345666781067848E-002;-9.124138392508030E-003;1.428804709576070E-003;
2.403666666666667E+009;1.716869622468948E-001;5.154836177825928E-002;-9.011353366076946E-003;1.714352867566049E-003;
2.403833333333334E+009;1.733603924512863E-001;4.972453787922859E-002;-8.987015113234520E-003;2.224049996584654E-003;
2.404000000000000E+009;1.747809350490570E-001;4.795546457171440E-002;-8.887358009815216E-003;2.632730407640338E-003;
2.404166666666667E+009;1.767174154520035E-001;4.633826762437820E-002;-8.648735471069813E-003;2.968171844258905E-003;
2.404333333333334E+009;1.782547831535339E-001;4.494136199355125E-002;-8.531283587217331E-003;3.200485836714506E-003;
2.404500000000000E+009;1.799067556858063E-001;4.353135079145432E-002;-8.317763917148113E-003;3.563338657841086E-003;
2.404666666666667E+009;1.815869063138962E-001;4.245669767260552E-002;-7.958727888762951E-003;3.806918859481812E-003;
2.404833333333334E+009;1.833277940750122E-001;4.139976203441620E-002;-7.728477474302054E-003;4.058131482452154E-003;
2.405000000000000E+009;1.843693405389786E-001;4.072349518537521E-002;-7.658594753593206E-003;4.366603679955006E-003;
2.405166666666667E+009;1.858547031879425E-001;3.994398191571236E-002;-7.254048250615597E-003;4.597134888172150E-003;
2.405333333333334E+009;1.873609125614166E-001;3.949422761797905E-002;-7.150536403059959E-003;4.925011657178402E-003;
2.405500000000000E+009;1.886031776666641E-001;3.892323002219200E-002;-6.816430017352104E-003;5.000361241400242E-003;
2.405666666666667E+009;1.899566501379013E-001;3.864451497793198E-002;-6.631182506680489E-003;5.175272002816200E-003;
2.405833333333334E+009;1.911128163337708E-001;3.822526335716248E-002;-6.338777951896191E-003;5.545921158045530E-003;
2.406000000000000E+009;1.920830160379410E-001;3.802478685975075E-002;-5.881918128579855E-003;5.602591205388308E-003;
2.406166666666667E+009;1.930625885725021E-001;3.777319192886353E-002;-5.755320191383362E-003;5.639235489070416E-003;
2.406333333333334E+009;1.940069198608398E-001;3.783446177840233E-002;-5.475281737744808E-003;5.806727800518274E-003;
2.406500000000000E+009;1.946826577186585E-001;3.781095892190933E-002;-5.181944929063320E-003;5.731999874114990E-003;
2.406666666666667E+009;1.952626705169678E-001;3.787879645824432E-002;-4.877158906310797E-003;5.875174421817064E-003;
2.406833333333334E+009;1.958136409521103E-001;3.784751519560814E-002;-4.623653367161751E-003;5.824588239192963E-003;
2.407000000000000E+009;1.961107403039932E-001;3.791946172714233E-002;-4.359475336968899E-003;6.011127959936857E-003;
2.407166666666667E+009;1.963541209697723E-001;3.766529634594917E-002;-4.214330110698938E-003;6.036791484802961E-003;
2.407333333333334E+009;1.964451819658279E-001;3.788126632571220E-002;-3.971466328948736E-003;5.929338745772839E-003;
2.407500000000000E+009;1.962323337793350E-001;3.784032166004181E-002;-3.786833491176367E-003;5.886327475309372E-003;
2.407666666666667E+009;1.963503807783127E-001;3.771739453077316E-002;-3.602529177442193E-003;5.907107144594193E-003;
2.407833333333334E+009;1.958239972591400E-001;3.748081624507904E-002;-3.465176094323397E-003;5.852520465850830E-003;
2.408000000000000E+009;1.957554966211319E-001;3.741297870874405E-002;-3.216317854821682E-003;5.812178831547499E-003;
2.408166666666667E+009;1.950238347053528E-001;3.696383908390999E-002;-3.181109204888344E-003;5.861831363290548E-003;
2.408333333333334E+009;1.946895271539688E-001;3.646580129861832E-002;-2.931635361164808E-003;5.777706392109394E-003;
2.408500000000000E+009;1.939831078052521E-001;3.600967675447464E-002;-2.893749857321382E-003;5.701067857444286E-003;
2.408666666666667E+009;1.932525336742401E-001;3.556898236274719E-002;-2.846292918547988E-003;5.497163161635399E-003;
2.408833333333334E+009;1.925859600305557E-001;3.452492877840996E-002;-2.768824808299542E-003;5.768318194895983E-003;
2.409000000000000E+009;1.916314214468002E-001;3.378363698720932E-002;-2.643918385729194E-003;5.606853868812323E-003;
2.409166666666667E+009;1.906746625900269E-001;3.276329487562180E-002;-2.648014808073640E-003;5.659523885697126E-003;
2.409333333333334E+009;1.898698508739471E-001;3.173948079347611E-002;-2.581346314400435E-003;5.624608602374792E-003;
2.409500000000000E+009;1.886160820722580E-001;3.032927401363850E-002;-2.602759283035994E-003;5.599889904260635E-003;
2.409666666666667E+009;1.877292543649674E-001;2.889507636427879E-002;-2.462342847138643E-003;5.780314095318317E-003;
2.409833333333334E+009;1.867475807666779E-001;2.745427004992962E-002;-2.441575517877936E-003;5.772492848336697E-003;
2.410000000000000E+009;1.856556981801987E-001;2.583628147840500E-002;-2.485913923010230E-003;5.876780021935701E-003;
2.410166666666667E+009;1.846296787261963E-001;2.388639561831951E-002;-2.334500895813108E-003;5.939183291047812E-003;
2.410333333333334E+009;1.837841421365738E-001;2.233256958425045E-002;-2.320983912795782E-003;5.958673544228077E-003;
2.410500000000000E+009;1.829397380352020E-001;2.009646035730839E-002;-2.167082857340574E-003;6.097244098782539E-003;
2.410666666666667E+009;1.819370090961456E-001;1.807497441768646E-002;-2.218595007434487E-003;6.120882928371429E-003;
2.410833333333334E+009;1.813531816005707E-001;1.584015600383282E-002;-2.079344820231199E-003;6.248863879591227E-003;
2.411000000000000E+009;1.806089431047440E-001;1.351445913314819E-002;-1.913714688271284E-003;6.450092885643244E-003;
2.411166666666667E+009;1.799391359090805E-001;1.138736587017775E-002;-1.871195854619145E-003;6.491141393780708E-003;
2.411333333333334E+009;1.796207129955292E-001;8.818943984806538E-003;-1.796095399186015E-003;6.610475946217775E-003;
2.411500000000000E+009;1.790919303894043E-001;6.569047458469868E-003;-1.519970595836639E-003;6.739396136254072E-003;
2.411666666666667E+009;1.789824962615967E-001;4.295442719012499E-003;-1.344989170320332E-003;6.666653323918581E-003;
2.411833333333334E+009;1.785924136638641E-001;1.857863506302238E-003;-1.467029796913266E-003;6.801271811127663E-003;
2.412000000000000E+009;1.787548065185547E-001;-6.858645938336849E-004;-1.166008762083948E-003;6.858679931610823E-003;
2.412166666666667E+009;1.787575483322144E-001;-3.027975792065263E-003;-1.007302897050977E-003;7.019805721938610E-003;
2.412333333333334E+009;1.790218651294708E-001;-5.543929059058428E-003;-9.429377387277782E-004;7.126707118004561E-003;
2.412500000000000E+009;1.793318092823029E-001;-7.859013043344021E-003;-9.542468469589949E-004;7.144299801439047E-003;
2.412666666666667E+009;1.799840778112412E-001;-1.050121057778597E-002;-6.795240915380418E-004;7.169203832745552E-003;
2.412833333333334E+009;1.805970966815949E-001;-1.273192930966616E-002;-5.680117174051702E-004;7.425033487379551E-003;
2.413000000000000E+009;1.811463534832001E-001;-1.506577152758837E-002;-4.043603257741779E-004;7.305651903152466E-003;
2.413166666666667E+009;1.820952296257019E-001;-1.731408946216106E-002;-9.155433508567512E-005;7.392843253910542E-003;
2.413333333333334E+009;1.829940229654312E-001;-1.957821287214756E-002;8.400651859119535E-005;7.698782719671726E-003;
2.413500000000000E+009;1.839081943035126E-001;-2.180249243974686E-002;2.662480110302568E-004;7.780313491821289E-003;
2.413666666666667E+009;1.849518269300461E-001;-2.400304563343525E-002;5.449505988508463E-004;8.001275360584259E-003;
2.413833333333334E+009;1.861888766288757E-001;-2.604927495121956E-002;8.260325994342566E-004;7.996866479516029E-003;
2.414000000000000E+009;1.870600283145905E-001;-2.784648351371288E-002;1.191955409012735E-003;8.041094057261944E-003;
2.414166666666667E+009;1.883333027362824E-001;-2.967295981943607E-002;1.376922708004713E-003;8.270871825516224E-003;
2.414333333333334E+009;1.893461793661118E-001;-3.156388550996780E-002;1.718517276458442E-003;8.305582217872143E-003;
2.414500000000000E+009;1.906007081270218E-001;-3.300089389085770E-002;1.955938292667270E-003;8.362931199371815E-003;
2.414666666666667E+009;1.916528940200806E-001;-3.452548757195473E-002;2.395187271758914E-003;8.412585593760014E-003;
2.414833333333334E+009;1.928545832633972E-001;-3.571527823805809E-002;2.833426464349031E-003;8.444165810942650E-003;
2.415000000000000E+009;1.938629448413849E-001;-3.693334758281708E-002;3.226673696190119E-003;8.270884864032269E-003;
2.415166666666667E+009;1.950091123580933E-001;-3.796501085162163E-002;3.489850321784616E-003;8.285333402454853E-003;
2.415333333333334E+009;1.961576491594315E-001;-3.903278708457947E-002;3.762420499697328E-003;7.991241291165352E-003;
2.415500000000000E+009;1.971108317375183E-001;-3.970501944422722E-002;4.336493555456400E-003;8.069744333624840E-003;
2.415666666666667E+009;1.981486231088638E-001;-4.045313224196434E-002;4.508965183049440E-003;7.724531460553408E-003;
2.415833333333334E+009;1.989708542823792E-001;-4.109966009855270E-002;4.904984962195158E-003;7.701927796006203E-003;
2.416000000000000E+009;1.994857639074326E-001;-4.171769320964813E-002;5.299311596900225E-003;7.588534615933895E-003;
2.416166666666667E+009;2.002723217010498E-001;-4.211151227355003E-002;5.696992855519056E-003;7.504675071686506E-003;
2.416333333333334E+009;2.008335441350937E-001;-4.246263951063156E-002;5.974133498966694E-003;7.202814798802137E-003;
2.416500000000000E+009;2.013048976659775E-001;-4.271504282951355E-002;6.149781867861748E-003;6.883500143885613E-003;
2.416666666666667E+009;2.014914304018021E-001;-4.292503744363785E-002;6.391475442796946E-003;6.609302014112473E-003;
2.416833333333334E+009;2.015971392393112E-001;-4.302765801548958E-002;6.780891679227352E-003;6.287621334195137E-003;
2.417000000000000E+009;2.017035484313965E-001;-4.310410469770432E-002;6.910372059792280E-003;6.112506613135338E-003;
2.417166666666667E+009;2.013749629259110E-001;-4.304105043411255E-002;7.194935809820890E-003;5.817386321723461E-003;
2.417333333333334E+009;2.011130154132843E-001;-4.286971688270569E-002;7.344118785113096E-003;5.357229616492987E-003;
2.417500000000000E+009;2.007728070020676E-001;-4.279930144548416E-002;7.533172145485878E-003;5.165214650332928E-003;
2.417666666666667E+009;2.002794742584229E-001;-4.266832396388054E-002;7.629308383911848E-003;4.875262733548880E-003;
2.417833333333334E+009;1.995932012796402E-001;-4.241909086704254E-002;7.710938807576895E-003;4.456962458789349E-003;
2.418000000000000E+009;1.990530341863632E-001;-4.217395186424255E-002;7.916214875876904E-003;4.223410040140152E-003;
2.418166666666667E+009;1.982550173997879E-001;-4.199521988630295E-002;7.937272079288960E-003;4.013448953628540E-003;
2.418333333333334E+009;1.973388493061066E-001;-4.185382276773453E-002;8.181984536349773E-003;3.594346810132265E-003;
2.418500000000000E+009;1.962692439556122E-001;-4.191259294748306E-002;8.208252489566803E-003;3.388891927897930E-003;
2.418666666666667E+009;1.953742355108261E-001;-4.176947101950645E-002;8.300805464386940E-003;3.217769321054220E-003;
2.418833333333334E+009;1.940655708312988E-001;-4.205257073044777E-002;8.281758055090904E-003;2.970143919810653E-003;
2.419000000000000E+009;1.927700042724609E-001;-4.213843867182732E-002;8.310629054903984E-003;2.499164547771215E-003;
2.419166666666667E+009;1.915664523839951E-001;-4.240301996469498E-002;8.394399657845497E-003;2.391314366832376E-003;
2.419333333333334E+009;1.902238130569458E-001;-4.279966279864311E-002;8.493999950587750E-003;2.081723883748055E-003;
2.419500000000000E+009;1.888333708047867E-001;-4.331887513399124E-002;8.545515127480030E-003;1.932493993081152E-003;
2.419666666666667E+009;1.873303353786469E-001;-4.410568997263908E-002;8.405001834034920E-003;1.621567062102258E-003;
2.419833333333334E+009;1.858207434415817E-001;-4.464886710047722E-002;8.624227717518807E-003;1.466689631342888E-003;
2.420000000000000E+009;1.843166053295136E-001;-4.554307088255882E-002;8.538950234651566E-003;1.123299472965300E-003;
2.420166666666667E+009;1.826467067003250E-001;-4.642336070537567E-002;8.564682677388191E-003;8.800303912721574E-004;
2.420333333333334E+009;1.810574382543564E-001;-4.770758375525475E-002;8.494124747812748E-003;6.201899959705770E-004;
2.420500000000000E+009;1.795675903558731E-001;-4.887554794549942E-002;8.433614857494831E-003;3.033945977222174E-004;
2.420666666666667E+009;1.781282126903534E-001;-5.015941336750984E-002;8.471742272377014E-003;5.664655327564105E-005;
2.420833333333334E+009;1.764018088579178E-001;-5.161694064736366E-002;8.509251289069653E-003;-1.465183595428243E-004;
2.421000000000000E+009;1.750737726688385E-001;-5.325584113597870E-002;8.435374125838280E-003;-4.262195143382996E-004;
2.421166666666667E+009;1.736902296543121E-001;-5.475135520100594E-002;8.453305810689926E-003;-7.372903637588024E-004;
2.421333333333334E+009;1.721139401197434E-001;-5.638960376381874E-002;8.460110053420067E-003;-1.077419030480087E-003;
2.421500000000000E+009;1.709934622049332E-001;-5.824160575866699E-002;8.291762322187424E-003;-1.284706173464656E-003;
2.421666666666667E+009;1.698561012744904E-001;-5.992173403501511E-002;8.250415325164795E-003;-1.473364769481123E-003;
2.421833333333334E+009;1.687419861555100E-001;-6.184164062142372E-002;8.191521279513836E-003;-1.815821975469589E-003;
2.422000000000000E+009;1.676804870367050E-001;-6.367563456296921E-002;8.007938042283058E-003;-1.930282567627728E-003;
2.422166666666667E+009;1.668608635663986E-001;-6.592582911252976E-002;7.815828546881676E-003;-2.067183842882514E-003;
2.422333333333334E+009;1.659266501665115E-001;-6.773325055837631E-002;7.767690811306238E-003;-2.476280089467764E-003;
2.422500000000000E+009;1.650857329368591E-001;-6.985069066286087E-002;7.683265488594770E-003;-2.747913124039769E-003;
2.422666666666667E+009;1.644728779792786E-001;-7.170630246400833E-002;7.439831271767616E-003;-2.901560626924038E-003;
2.422833333333334E+009;1.641225814819336E-001;-7.374302297830582E-002;7.428468205034733E-003;-3.137929830700159E-003;
2.423000000000000E+009;1.636137068271637E-001;-7.596183568239212E-002;7.153491955250502E-003;-3.424853784963489E-003;
2.423166666666667E+009;1.632505059242249E-001;-7.787144929170609E-002;6.960969418287277E-003;-3.376666223630309E-003;
2.423333333333334E+009;1.629382818937302E-001;-7.971709221601486E-002;6.815764587372541E-003;-3.818540601059794E-003;
2.423500000000000E+009;1.631058752536774E-001;-8.155712485313416E-002;6.555450148880482E-003;-3.712848061695695E-003;
2.423666666666667E+009;1.631009280681610E-001;-8.338322490453720E-002;6.457636132836342E-003;-3.849555505439639E-003;
2.423833333333334E+009;1.629684269428253E-001;-8.513188362121582E-002;6.360756698995829E-003;-4.145610146224499E-003;
2.424000000000000E+009;1.630430519580841E-001;-8.688952773809433E-002;6.129004992544651E-003;-4.303353838622570E-003;
2.424166666666667E+009;1.630709320306778E-001;-8.846770972013474E-002;5.986969452351332E-003;-4.271757788956165E-003;
2.424333333333334E+009;1.635112166404724E-001;-8.998279273509979E-002;5.958662368357182E-003;-4.394216462969780E-003;
2.424500000000000E+009;1.637475937604904E-001;-9.163174778223038E-002;5.867008585482836E-003;-4.428861662745476E-003;
2.424666666666667E+009;1.639444828033447E-001;-9.307042509317398E-002;5.591202061623335E-003;-4.537709522992373E-003;
2.424833333333334E+009;1.644595265388489E-001;-9.426815062761307E-002;5.568535067141056E-003;-4.584767390042543E-003;
2.425000000000000E+009;1.649288684129715E-001;-9.535036236047745E-002;5.551794543862343E-003;-4.824326373636723E-003;
2.425166666666667E+009;1.652238070964813E-001;-9.655915945768356E-002;5.451979115605354E-003;-4.837998654693365E-003;
2.425333333333334E+009;1.655188947916031E-001;-9.749266505241394E-002;5.205261986702681E-003;-4.920378327369690E-003;
2.425500000000000E+009;1.659959405660629E-001;-9.846442192792893E-002;5.137819796800613E-003;-5.217098630964756E-003;
2.425666666666667E+009;1.664728820323944E-001;-9.904546290636063E-002;5.081782117486000E-003;-5.274728871881962E-003;
2.425833333333334E+009;1.666617393493652E-001;-9.976249933242798E-002;4.980589263141155E-003;-5.449574906378985E-003;
2.426000000000000E+009;1.670322269201279E-001;-1.001831665635109E-001;4.716092254966497E-003;-5.453476682305336E-003;
2.426166666666667E+009;1.674428433179855E-001;-1.007638648152351E-001;4.749621730297804E-003;-5.782011896371841E-003;
2.426333333333334E+009;1.675209701061249E-001;-1.012577712535858E-001;4.625376779586077E-003;-5.826207809150219E-003;
2.426500000000000E+009;1.679699122905731E-001;-1.015097796916962E-001;4.372087772935629E-003;-5.871523171663284E-003;
2.426666666666667E+009;1.680552065372467E-001;-1.018352210521698E-001;4.346091300249100E-003;-6.208561826497316E-003;
2.426833333333334E+009;1.683768033981323E-001;-1.022037565708160E-001;4.115360323339701E-003;-6.318963132798672E-003;
2.427000000000000E+009;1.683740913867950E-001;-1.023565754294395E-001;4.007494542747736E-003;-6.424846127629280E-003;
2.427166666666667E+009;1.684099286794663E-001;-1.024968326091766E-001;3.815370844677091E-003;-6.412253715097904E-003;
2.427333333333334E+009;1.681941598653793E-001;-1.027713194489479E-001;3.679430112242699E-003;-6.629320792853832E-003;
2.427500000000000E+009;1.679943948984146E-001;-1.028997898101807E-001;3.282233839854598E-003;-6.598075851798058E-003;
2.427666666666667E+009;1.676417440176010E-001;-1.030562445521355E-001;3.296803683042526E-003;-6.745332386344671E-003;
2.427833333333334E+009;1.673501133918762E-001;-1.030881851911545E-001;3.093917621299624E-003;-6.854659412056208E-003;
