# Hz S RI R 
2400000000.0000000000 0.168647944927215603927450615629 0.040170822292566299438476562500 0.002409130567684770064112997900 0.001609270111657679080963134766 0 0 0 0 
2400166666.6666665077 0.169333755970001192947549384371 0.039591331034898757934570312500 0.002637838711962103843688964844 0.001516327727586030960083007812 0 0 0 0 
2400333333.3333334923 0.169939011335372897049111884371 0.038784813135862350463867187500 0.002662238664925097985508584131 0.001452318974770605997798300635 0 0 0 0 
2400500000.0000000000 0.170482337474822998046875000000 0.037807893007993698120117187500 0.002869493095204234123229980469 0.001593295601196587085723876953 0 0 0 0 
2400666666.6666665077 0.171126693487167386154013115629 0.036990236490964889526367187500 0.002806114731356502012965536963 0.001565293874591588973999023438 0 0 0 0 
2400833333.3333334923 0.171273663640022305587606865629 0.036451291292905807495117187500 0.003038119757547975020167685400 0.001460794592276215986964560400 0 0 0 0 
2401000000.0000000000 0.171652093529701205154580634371 0.035538978874683380126953125000 0.003190116258338094191310263525 0.001171212410554290034650493091 0 0 0 0 
2401166666.6666665077 0.171828523278236389160156250000 0.034675732254982001567800153907 0.003329724539071321921107626807 0.001250610919669270949122763525 0 0 0 0 
2401333333.3333334923 0.172002986073494013030682481258 0.033929437398910522460937500000 0.003597455564886331991908408057 0.001161066349595784924150776440 0 0 0 0 
2401500000.0000000000 0.172260597348213195800781250000 0.033180341124534606933593750000 0.003695590421557426886317587744 0.000957270269282162189483642578 0 0 0 0 
2401666666.6666665077 0.172277554869651794433593750000 0.032665349543094641948659528907 0.003711600089445710182189941406 0.000809171935543417930603027344 0 0 0 0 
2401833333.3333334923 0.172362953424453707595986884371 0.031747680157423019409179687500 0.003837015479803084893467568506 0.000493378902319818735122680664 0 0 0 0 
2402000000.0000000000 0.172131985425949096679687500000 0.030960597097873691213587576954 0.004022495355457068356985761426 0.000343820429407060200541895734 0 0 0 0 
2402166666.6666665077 0.172311827540397588531817518742 0.030063515529036518442174141796 0.004081623628735542297363281250 0.000111223271233029704220356126 0 0 0 0 
2402333333.3333334923 0.172157257795333890060263115629 0.029184989631175998342493826954 0.003939705900847911834716796875 -0.000183628828381188186720171518 0 0 0 0 
2402500000.0000000000 0.172279000282287597656250000000 0.028420010581612590444544608204 0.004097029566764832410330487988 -0.000299678154988214373588562012 0 0 0 0 
2402666666.6666665077 0.171957790851592989822549384371 0.027579506859183311462402343750 0.004086195025593042373657226562 -0.000521295412909239530563354492 0 0 0 0 
2402833333.3333334923 0.172046020627021789550781250000 0.026519274339079860342005545704 0.004114757291972637176513671875 -0.000607829773798584938049316406 0 0 0 0 
2403000000.0000000000 0.171892046928405789474325615629 0.025638686493039131164550781250 0.003981476649641990661621093750 -0.001000911113806068897247314453 0 0 0 0 
2403166666.6666665077 0.171832039952278109451455634371 0.024472357705235481262207031250 0.003902985248714685006382607568 -0.000897762831300497055053710938 0 0 0 0 
2403333333.3333334923 0.171470046043395996093750000000 0.023400222882628440856933593750 0.003928257618099451065063476562 -0.001241118879988789992091513525 0 0 0 0 
2403500000.0000000000 0.171189114451408386230468750000 0.022236224263906478881835937500 0.003991013392806053161621093750 -0.001219670986756681962254189600 0 0 0 0 
2403666666.6666665077 0.171079814434051513671875000000 0.021066566929221149789830391796 0.003893915563821793036219931494 -0.001530051929876208088518452222 0 0 0 0 
2403833333.3333334923 0.170974135398864801604901231258 0.019934521988034248352050781250 0.003702849615365266799926757812 -0.001707067131064831993700336987 0 0 0 0 
2404000000.0000000000 0.170688524842262295821981865629 0.018765820190310481679896170704 0.003771828021854162216186523438 -0.001940638641826809103127504663 0 0 0 0 
2404166666.6666665077 0.170458614826202392578125000000 0.017365572974085811269739920704 0.003692431375384331183192587744 -0.002040422055870295004603720557 0 0 0 0 
2404333333.3333334923 0.170394837856292696853799384371 0.016103705391287800180455391796 0.003539951285347342924830771338 -0.002343433443456888198852539062 0 0 0 0 
2404500000.0000000000 0.170127779245376586914062500000 0.014734596945345400029192539648 0.003415761748328804969787597656 -0.002498676301911472840550088037 0 0 0 0 
2404666666.6666665077 0.170048788189888000488281250000 0.013247185386717319488525390625 0.003393054939806460900547646631 -0.002834630431607366041896201025 0 0 0 0 
2404833333.3333334923 0.170010223984718294998330634371 0.011695930734276769810686680273 0.003155117388814688162562704932 -0.002775961766019463972804404150 0 0 0 0 
2405000000.0000000000 0.169931992888450594803018134371 0.010174345225095750636090663477 0.002832521451637148857116699219 -0.002751104999333620071411132812 0 0 0 0 
2405166666.6666665077 0.169679105281829806228799384371 0.008511009626090526580810546875 0.002755748573690652847290039062 -0.003093114821240305900573730469 0 0 0 0 
2405333333.3333334923 0.169705793261527987381143134371 0.006802666466683149337768554688 0.002715594368055462837219238281 -0.003169782459735869927647256006 0 0 0 0 
2405500000.0000000000 0.169559359550476101974325615629 0.005292332731187343597412109375 0.002339235739782453016993857275 -0.003227002453058958053588867188 0 0 0 0 
2405666666.6666665077 0.169593423604965209960937500000 0.003612247528508305983302451025 0.002191746607422829107997275244 -0.003376644570380448861363076318 0 0 0 0 
2405833333.3333334923 0.169271320104598999023437500000 0.001885481178760528998133993994 0.001880739466287195899366069263 -0.003412782913073896928074502100 0 0 0 0 
2406000000.0000000000 0.169316932559013394454794365629 0.000069230984081514179706573486 0.001813694136217236952540732275 -0.003385254181921482086181640625 0 0 0 0 
2406166666.6666665077 0.169154629111290005782919365629 -0.001421582535840570926666259766 0.001498247846029699065564799731 -0.003512602532282472090480185400 0 0 0 0 
2406333333.3333334923 0.169082224369049100021200615629 -0.003212677780538796944859170068 0.001400563516654073975206684644 -0.003432893194258213043212890625 0 0 0 0 
2406500000.0000000000 0.169067367911338806152343750000 -0.004981433041393756866455078125 0.001197691075503825924516987378 -0.003405467141419649124145507812 0 0 0 0 
2406666666.6666665077 0.168592825531959505935830634371 -0.006594177801162005338186933301 0.001006470876745880083796835791 -0.003267060732468963103053427588 0 0 0 0 
2406833333.3333334923 0.168614715337753295898437500000 -0.008270738646388053894042968750 0.000896869692951440811157226562 -0.003370002610608934922459267725 0 0 0 0 
2407000000.0000000000 0.168525770306587191482705634371 -0.009762443602085113525390625000 0.000602900399826467037200927734 -0.003172245575115085081813193213 0 0 0 0 
2407166666.6666665077 0.168467000126838711837606865629 -0.011279731057584289205530936329 0.000317740079481154680252075195 -0.003207040252164005799534463037 0 0 0 0 
2407333333.3333334923 0.168235719203949002364950615629 -0.012772870250046249734898751171 0.000284338399069383686215001239 -0.003057084046304225921630859375 0 0 0 0 
2407500000.0000000000 0.168096050620079012771768134371 -0.014093843288719650613805001171 0.000246282026637345606654566632 -0.002958050463348627090454101562 0 0 0 0 
2407666666.6666665077 0.168207332491874694824218750000 -0.015347135253250600642194179102 0.000287076720269396901130676270 -0.002797673223540186882019042969 0 0 0 0 
2407833333.3333334923 0.167759597301483209808026231258 -0.016693139448761940002441406250 0.000039313239540206268429756165 -0.002575187012553215026855468750 0 0 0 0 
2408000000.0000000000 0.167807087302208002288494981258 -0.017908986657857898366907889454 0.000034174932807218276638577120 -0.002638455247506498856785439600 0 0 0 0 
2408166666.6666665077 0.167726844549179104904013115629 -0.018848184496164318429967110546 0.000087137152149807661771774292 -0.002497135894373058839085244287 0 0 0 0 
2408333333.3333334923 0.168024361133575411697549384371 -0.019882773980498310434361641796 0.000035225071769673377275466919 -0.002353082410991191864013671875 0 0 0 0 
2408500000.0000000000 0.168048396706581087967080634371 -0.020898055285215381277064139454 -0.000007480962722183903679251671 -0.002208039630204439163208007812 0 0 0 0 
2408666666.6666665077 0.168181061744689913650674384371 -0.021711139008402820932408516796 0.000172196319908834993839263916 -0.002163639292120933966395712744 0 0 0 0 
2408833333.3333334923 0.168294414877891512771768134371 -0.022752031683921810495396798046 0.000172605345142073902204790659 -0.002272989368066192106959677588 0 0 0 0 
2409000000.0000000000 0.168375775218010004241619981258 -0.023538077250123020517369454296 0.000131983979372307712405604230 -0.002135546877980231805088662256 0 0 0 0 
2409166666.6666665077 0.168816968798637390136718750000 -0.024530282244086269033411795704 0.000184893098776228698805132455 -0.002083011437207459969761513818 0 0 0 0 
2409333333.3333334923 0.168967321515083312988281250000 -0.025375273078680038452148437500 0.000367552129318937713473719464 -0.002110084053128958182093954932 0 0 0 0 
2409500000.0000000000 0.169202432036399813553018134371 -0.026259608566761020315150076954 0.000393336347769945914119166241 -0.002280494663864374160766601562 0 0 0 0 
2409666666.6666665077 0.169313058257102994064169365629 -0.027163296937942508352259451954 0.000405964558012783473164158954 -0.002372124930843710899353027344 0 0 0 0 
2409833333.3333334923 0.169623866677284212967080634371 -0.027826804667711261404017264454 0.000541875837370753288269042969 -0.002313700737431644959690713037 0 0 0 0 
2410000000.0000000000 0.169867351651191711425781250000 -0.028670381754636771465261091407 0.000487724086269736289978027344 -0.002376580145210028128383017432 0 0 0 0 
2410166666.6666665077 0.169913098216056795974893134371 -0.029636152088642120361328125000 0.000607230758760124444961547852 -0.002450652886182070212123251807 0 0 0 0 
2410333333.3333334923 0.169967994093894986251669365629 -0.030317371711134910583496093750 0.000533637939952313899993896484 -0.002571710851043463186976767432 0 0 0 0 
2410500000.0000000000 0.170119971036911010742187500000 -0.031366012990474700927734375000 0.000373252143617719411849975586 -0.002598161343485116958618164062 0 0 0 0 
2410666666.6666665077 0.169859021902084406097088731258 -0.032218415290117256855051408593 0.000419966876506805419921875000 -0.002728424267843366102931357275 0 0 0 0 
2410833333.3333334923 0.170141845941543606857138115629 -0.032852157950401313091237653907 0.000292366952635347788960057391 -0.002971524139866232872009277344 0 0 0 0 
2411000000.0000000000 0.169948533177375793457031250000 -0.033834952861070632934570312500 0.000126490747788920998573303223 -0.002868786687031387849095009912 0 0 0 0 
2411166666.6666665077 0.169921636581420898437500000000 -0.034489065408706671977956403907 0.000041617811803007498383522034 -0.002870735712349414825439453125 0 0 0 0 
2411333333.3333334923 0.169754788279533386230468750000 -0.035257216542959213256835937500 -0.000019237013475503769109045335 -0.003119869856163858933689736475 0 0 0 0 
2411500000.0000000000 0.169427305459976196289062500000 -0.036059916019439697265625000000 -0.000066446787968743592500686646 -0.003077720757573843002319335938 0 0 0 0 
2411666666.6666665077 0.169245779514312688629473768742 -0.036812689155340201641042341407 -0.000113950860395561903715133667 -0.003148080781102180914637900244 0 0 0 0 
2411833333.3333334923 0.169047102332115201095419365629 -0.037504393607378012920339216407 -0.000293784076347947120666503906 -0.003219728125259280204772949219 0 0 0 0 
2412000000.0000000000 0.169038847088813809493856865629 -0.038532122969627380371093750000 -0.000496791268233209848403930664 -0.003308645682409406141993857275 0 0 0 0 
2412166666.6666665077 0.168514192104339599609375000000 -0.039297588169574737548828125000 -0.000524442119058221578598022461 -0.003249490866437553925755166162 0 0 0 0 
2412333333.3333334923 0.168515890836715698242187500000 -0.040053814649581909179687500000 -0.000671684741973876953125000000 -0.003419533837586640877964638818 0 0 0 0 
2412500000.0000000000 0.167923286557197598556356865629 -0.040783632546663277362863908593 -0.000765964330639690160751342773 -0.003391831880435347990748740088 0 0 0 0 
2412666666.6666665077 0.167551457881927490234375000000 -0.041874270886182791973073591407 -0.000980493845418095588684082031 -0.003388108685612678961512900244 0 0 0 0 
2412833333.3333334923 0.167272999882698086837606865629 -0.042896565049886696552317033593 -0.001076782005839050032972026294 -0.003481833729892969131469726562 0 0 0 0 
2413000000.0000000000 0.166662111878395108321981865629 -0.043711584061384201049804687500 -0.001146778115071356079698872144 -0.003291014814749360084533691406 0 0 0 0 
2413166666.6666665077 0.166016161441803006271200615629 -0.044606838375329971313476562500 -0.001308804610744118907331157153 -0.003399985376745461983921670068 0 0 0 0 
2413333333.3333334923 0.165638372302055386642294365629 -0.045652538537979132915456403907 -0.001583710080012679100036621094 -0.003338133916258811950683593750 0 0 0 0 
2413500000.0000000000 0.165061324834823608398437500000 -0.046745646744966506958007812500 -0.001767820795066654898999858325 -0.003408382181078196005580283057 0 0 0 0 
2413666666.6666665077 0.164440646767616299728231865629 -0.047711160033941268920898437500 -0.001667419564910233020782470703 -0.003324464662000536918640136719 0 0 0 0 
2413833333.3333334923 0.163828462362289400955361884371 -0.048640083521604537963867187500 -0.002018077531829475922825478662 -0.003225741907954216003417968750 0 0 0 0 
2414000000.0000000000 0.163209676742553710937500000000 -0.049669396132230758666992187500 -0.002159498864784837202784872900 -0.003225120250135660171508789062 0 0 0 0 
2414166666.6666665077 0.162832707166671808440838731258 -0.050623405724763870239257812500 -0.002236093161627649827244423975 -0.003138664411380887031555175781 0 0 0 0 
2414333333.3333334923 0.162238880991935702224893134371 -0.051731877028942108154296875000 -0.002518627559766172929051064600 -0.003118775086477398872375488281 0 0 0 0 
2414500000.0000000000 0.161966115236282404143963731258 -0.052514225244522101665456403907 -0.002605685731396079063415527344 -0.003044952172785996957066201318 0 0 0 0 
2414666666.6666665077 0.161469131708145113845986884371 -0.053613472729921340942382812500 -0.002738825976848601861241006006 -0.002806389704346656799316406250 0 0 0 0 
2414833333.3333334923 0.161093503236770602127236884371 -0.054642248898744583129882812500 -0.002915394026786088943481445312 -0.002675274619832634925842285156 0 0 0 0 
2415000000.0000000000 0.160725295543670709808026231258 -0.055712472647428512573242187500 -0.003119783010333776907679892432 -0.002504759468138217926025390625 0 0 0 0 
2415166666.6666665077 0.160411030054092407226562500000 -0.056826993823051452636718750000 -0.003174408338963985009434365381 -0.002423594938591123060939169775 0 0 0 0 
2415333333.3333334923 0.160183072090148898025674384371 -0.058010932058095932006835937500 -0.003384866984561086134669638525 -0.002214384730905293984654091943 0 0 0 0 
2415500000.0000000000 0.159874662756919888595419365629 -0.059260375797748572612722028907 -0.003351167775690556006190634619 -0.001993526471778749985935830225 0 0 0 0 
2415666666.6666665077 0.159720152616500910003338731258 -0.060272157192230231548268903907 -0.003436255035921930833103798975 -0.001790206180885433933855366284 0 0 0 0 
2415833333.3333334923 0.159479811787605313400106865629 -0.061719756573438637470285783593 -0.003484485205262898965122841943 -0.001590736559592186970951699365 0 0 0 0 
2416000000.0000000000 0.159122511744499206542968750000 -0.063028588891029357910156250000 -0.003449143143370747999904013525 -0.001529562985524534962297749097 0 0 0 0 
2416166666.6666665077 0.159011930227279690841513115629 -0.064361974596977233886718750000 -0.003583992132917046980616904150 -0.001374175888486206965205527197 0 0 0 0 
2416333333.3333334923 0.158752515912055996993856865629 -0.065567314624786376953125000000 -0.003461715998128056959864951025 -0.001080375746823847077013325269 0 0 0 0 
2416500000.0000000000 0.158339440822601290603799384371 -0.066849268972873687744140625000 -0.003415251383557916121241904150 -0.000943386927247047424316406250 0 0 0 0 
2416666666.6666665077 0.158021509647369412521200615629 -0.068211771547794342041015625000 -0.003470496740192174911499023438 -0.000911784125491976737976074219 0 0 0 0 
2416833333.3333334923 0.157879665493965204436932481258 -0.069525457918643951416015625000 -0.003375072497874497933628701318 -0.000760730006732046604156494141 0 0 0 0 
2417000000.0000000000 0.157315149903297396560830634371 -0.070693947374820709228515625000 -0.003364952281117438836338662256 -0.000754216045606881380081176758 0 0 0 0 
2417166666.6666665077 0.157145231962204007247763115629 -0.071855485439300537109375000000 -0.003222038969397544860839843750 -0.000592145370319485664367675781 0 0 0 0 
2417333333.3333334923 0.156855285167694091796875000000 -0.072905302047729492187500000000 -0.003311252454295753998997353662 -0.000653280003461986780166625977 0 0 0 0 
2417500000.0000000000 0.156504705548286410232705634371 -0.074184663593769073486328125000 -0.003357471665367484092712402344 -0.000468352256575599312782287598 0 0 0 0 
2417666666.6666665077 0.156285434961318997482138115629 -0.074965752661228179931640625000 -0.003381128190085291862487792969 -0.000356103555532172322273254395 0 0 0 0 
2417833333.3333334923 0.156026378273963900467080634371 -0.075912609696388244628906250000 -0.003516933647915720939636230469 -0.000493893516249954700469970703 0 0 0 0 
2418000000.0000000000 0.155711889266967801193075615629 -0.077008441090583801269531250000 -0.003644596785306930975673056494 -0.000130080632516183013289851056 0 0 0 0 
2418166666.6666665077 0.155408561229705810546875000000 -0.077768795192241668701171875000 -0.003454538295045495033264160156 -0.000018629167243489060888086625 0 0 0 0 
2418333333.3333334923 0.155432432889938410003338731258 -0.078653469681739807128906250000 -0.003528450848534702821018838037 0.000131460401462390991762438364 0 0 0 0 
2418500000.0000000000 0.155173987150192288497763115629 -0.079479537904262542724609375000 -0.003549720160663127899169921875 0.000362033926649019122123718262 0 0 0 0 
2418666666.6666665077 0.155265003442764309982138115629 -0.080389842391014099121093750000 -0.003486803965643047852757119287 0.000431578751886263489723205566 0 0 0 0 
2418833333.3333334923 0.154690399765968294998330634371 -0.081228308379650115966796875000 -0.003406448289752006964442587744 0.000670794746838510036468505859 0 0 0 0 
2419000000.0000000000 0.154438555240631103515625000000 -0.081899508833885192871093750000 -0.003359076334163546995875693213 0.000940980040468275547027587891 0 0 0 0 
2419166666.6666665077 0.154475003480911310393963731258 -0.082645870745182037353515625000 -0.003287188941612840132472372900 0.001008878345601261095759726416 0 0 0 0 
2419333333.3333334923 0.153999432921409606933593750000 -0.083039395511150360107421875000 -0.003022713586688042120692587744 0.001122510409913956902147602612 0 0 0 0 
2419500000.0000000000 0.153820574283599909026776231258 -0.083986520767211914062500000000 -0.002969368128105998039245605469 0.001199479098431766033172607422 0 0 0 0 
2419666666.6666665077 0.153721109032630892654580634371 -0.084561854600906372070312500000 -0.002688931766897439956665039062 0.001322329742833971977233886719 0 0 0 0 
2419833333.3333334923 0.153391107916831997970419365629 -0.085039362311363220214843750000 -0.002467786194756627082824707031 0.001327037927694618918775248950 0 0 0 0 
