# Version 1.00
#
freq[Hz];re:Trc1_S11;im:Trc1_S11;re:Trc2_S21;im:Trc2_S21;
2.400000000000000E+009;1.639744192361832E-001;5.185478553175926E-002;-1.311909290961921E-003;2.027265960350633E-003;
2.400166666666667E+009;1.640117317438126E-001;5.047303438186646E-002;-1.184072229079902E-003;2.210267120972276E-003;
2.400333333333334E+009;1.637989282608032E-001;4.868039861321449E-002;-1.102372072637081E-003;2.502284012734890E-003;
2.400500000000000E+009;1.636396497488022E-001;4.684963077306747E-002;-1.084271352738142E-003;2.735750051215291E-003;
2.400666666666667E+009;1.635950505733490E-001;4.495326057076454E-002;-7.993528852239251E-004;2.858510240912437E-003;
2.400833333333334E+009;1.639612466096878E-001;4.310331493616104E-002;-8.636921411380172E-004;2.995884278789163E-003;
2.401000000000000E+009;1.638015359640122E-001;4.115666821599007E-002;-6.814150838181377E-004;3.154715523123741E-003;
2.401166666666667E+009;1.638351380825043E-001;3.925524652004242E-002;-4.883764195255935E-004;3.267676336690784E-003;
2.401333333333334E+009;1.638844460248947E-001;3.707183524966240E-002;-2.757724723778665E-004;3.502541454508901E-003;
2.401500000000000E+009;1.643063724040985E-001;3.530994057655335E-002;-4.833919228985906E-005;3.620289266109467E-003;
2.401666666666667E+009;1.644655019044876E-001;3.334295004606247E-002;2.201249881181866E-004;3.827418433502317E-003;
2.401833333333334E+009;1.647725850343704E-001;3.130243718624115E-002;4.473621957004070E-004;3.771820804104209E-003;
2.402000000000000E+009;1.648701131343842E-001;2.936547435820103E-002;6.455981056205928E-004;3.667762037366629E-003;
2.402166666666667E+009;1.650768071413040E-001;2.722872421145439E-002;7.558272336609662E-004;3.772330703213811E-003;
2.402333333333334E+009;1.654515862464905E-001;2.559389173984528E-002;1.137722982093692E-003;3.795451950281858E-003;
2.402500000000000E+009;1.661489009857178E-001;2.381096407771111E-002;1.502614817582071E-003;3.957268316298723E-003;
2.402666666666667E+009;1.665284186601639E-001;2.207772992551327E-002;1.562349498271942E-003;3.836106508970261E-003;
2.402833333333334E+009;1.670235544443131E-001;2.046550065279007E-002;2.077222801744938E-003;3.778126556426287E-003;
2.403000000000000E+009;1.675341427326202E-001;1.867054775357246E-002;2.264631213620305E-003;3.875390393659473E-003;
2.403166666666667E+009;1.683248877525330E-001;1.713708415627480E-002;2.729562111198902E-003;3.740102285519242E-003;
2.403333333333334E+009;1.689890325069428E-001;1.566421240568161E-002;2.841554349288344E-003;3.576037008315325E-003;
2.403500000000000E+009;1.694983839988709E-001;1.427374780178070E-002;3.072422929108143E-003;3.372985403984785E-003;
2.403666666666667E+009;1.704065948724747E-001;1.263025216758251E-002;3.499778220430017E-003;3.315886016935110E-003;
2.403833333333334E+009;1.711222678422928E-001;1.133603788912296E-002;3.541858866810799E-003;3.029305255040526E-003;
2.404000000000000E+009;1.716803610324860E-001;1.015075854957104E-002;3.835544688627124E-003;2.883488778024912E-003;
2.404166666666667E+009;1.724874377250671E-001;8.763566613197327E-003;3.992321435362101E-003;2.511477796360850E-003;
2.404333333333334E+009;1.730380207300186E-001;7.714032661169767E-003;4.331611562520266E-003;2.235358580946922E-003;
2.404500000000000E+009;1.737657189369202E-001;6.600570864975452E-003;4.376718774437904E-003;1.998384250327945E-003;
2.404666666666667E+009;1.745202988386154E-001;5.837796721607447E-003;4.422784782946110E-003;1.703798072412610E-003;
2.404833333333334E+009;1.752095222473145E-001;4.906338639557362E-003;4.546347074210644E-003;1.335137640126050E-003;
2.405000000000000E+009;1.759155839681625E-001;3.848902415484190E-003;4.717201925814152E-003;1.258921227417886E-003;
2.405166666666667E+009;1.764555722475052E-001;3.235519630834460E-003;4.628360737115145E-003;7.391074905171990E-004;
2.405333333333334E+009;1.772141605615616E-001;2.475669607520104E-003;4.437095485627651E-003;6.709599983878434E-004;
2.405500000000000E+009;1.778210550546646E-001;2.060277620330453E-003;4.628137685358524E-003;1.888643164420500E-004;
2.405666666666667E+009;1.782251745462418E-001;1.396167208440602E-003;4.640580154955387E-003;-9.601286001270637E-005;
2.405833333333334E+009;1.785167753696442E-001;9.848180925473571E-004;4.450880922377110E-003;-3.077847068198025E-004;
2.406000000000000E+009;1.791933327913284E-001;3.934296255465597E-004;4.440283868461847E-003;-6.933970726095140E-004;
2.406166666666667E+009;1.792925298213959E-001;2.797548077069223E-004;4.423600621521473E-003;-7.675237138755620E-004;
2.406333333333334E+009;1.798015236854553E-001;-2.282156492583454E-004;4.306629765778780E-003;-1.040234463289380E-003;
2.406500000000000E+009;1.797631680965424E-001;-5.744642694480717E-004;4.052958451211453E-003;-9.606443345546722E-004;
2.406666666666667E+009;1.799686104059219E-001;-1.109268632717431E-003;4.053582902997732E-003;-1.501766615547240E-003;
2.406833333333334E+009;1.800693124532700E-001;-1.410628668963909E-003;4.099398851394653E-003;-1.439416315406561E-003;
2.407000000000000E+009;1.801101267337799E-001;-1.769020687788725E-003;3.991857171058655E-003;-1.750384340994060E-003;
2.407166666666667E+009;1.802341639995575E-001;-2.084403298795223E-003;3.674913430586457E-003;-1.973452512174845E-003;
2.407333333333334E+009;1.799983233213425E-001;-2.463505137711763E-003;3.657365683466196E-003;-1.996108097955585E-003;
2.407500000000000E+009;1.798357218503952E-001;-2.948663895949721E-003;3.412811784073710E-003;-2.246626419946551E-003;
2.407666666666667E+009;1.797685623168945E-001;-3.255138173699379E-003;3.322113770991564E-003;-2.379734069108963E-003;
2.407833333333334E+009;1.791495829820633E-001;-3.930888604372740E-003;3.372806590050459E-003;-2.445701975375414E-003;
2.408000000000000E+009;1.788053512573242E-001;-4.346070345491171E-003;3.104911651462317E-003;-2.625490073114634E-003;
2.408166666666667E+009;1.784777045249939E-001;-4.852473735809326E-003;2.998363226652145E-003;-2.732923021540046E-003;
2.408333333333334E+009;1.780769526958466E-001;-5.548254121094942E-003;2.849822863936424E-003;-2.788170473650098E-003;
2.408500000000000E+009;1.776278465986252E-001;-6.327281240373850E-003;2.810129430145025E-003;-3.070600796490908E-003;
2.408666666666667E+009;1.769220530986786E-001;-7.168042007833719E-003;2.522458322346211E-003;-3.024696139618754E-003;
2.408833333333334E+009;1.762508302927017E-001;-8.024580776691437E-003;2.220882102847099E-003;-3.116281237453222E-003;
2.409000000000000E+009;1.755792498588562E-001;-8.824939839541912E-003;2.211313229054213E-003;-3.272473113611341E-003;
2.409166666666667E+009;1.749556064605713E-001;-9.875417686998844E-003;2.013216260820627E-003;-3.212643787264824E-003;
2.409333333333334E+009;1.741930991411209E-001;-1.115354057401419E-002;1.767722307704389E-003;-3.095600288361311E-003;
2.409500000000000E+009;1.736701875925064E-001;-1.242827251553536E-002;1.580166863277555E-003;-3.167284186929464E-003;
2.409666666666667E+009;1.727126389741898E-001;-1.348860096186400E-002;1.571024535223842E-003;-3.186520189046860E-003;
2.409833333333334E+009;1.720931679010391E-001;-1.454403158277273E-002;1.241229823790491E-003;-3.226613393053412E-003;
2.410000000000000E+009;1.714692115783691E-001;-1.602290198206902E-002;1.011824933812022E-003;-3.265922656282783E-003;
2.410166666666667E+009;1.708084642887116E-001;-1.756937429308891E-002;1.068943412974477E-003;-3.268917789682746E-003;
2.410333333333334E+009;1.700847744941711E-001;-1.906072534620762E-002;9.037344134412706E-004;-3.153568599373102E-003;
2.410500000000000E+009;1.695508956909180E-001;-2.065487764775753E-002;7.311419467441738E-004;-3.112975042313337E-003;
2.410666666666667E+009;1.689494699239731E-001;-2.236178331077099E-002;6.039142608642578E-004;-3.168014576658607E-003;
2.410833333333334E+009;1.684067696332932E-001;-2.402033098042011E-002;5.522219580598176E-004;-3.170191776007414E-003;
2.411000000000000E+009;1.678861081600189E-001;-2.557907998561859E-002;5.074241198599339E-004;-3.056451678276062E-003;
2.411166666666667E+009;1.674797087907791E-001;-2.745112217962742E-002;3.868739586323500E-004;-2.965836785733700E-003;
2.411333333333334E+009;1.669422835111618E-001;-2.928196266293526E-002;2.729541447479278E-004;-3.032139269635081E-003;
2.411500000000000E+009;1.665496081113815E-001;-3.141133114695549E-002;2.622526953928173E-004;-3.049934748560190E-003;
2.411666666666667E+009;1.666464656591415E-001;-3.313552960753441E-002;1.243625447386876E-004;-3.035024506971240E-003;
2.411833333333334E+009;1.663280874490738E-001;-3.500965982675552E-002;3.447388735366985E-005;-3.069698810577393E-003;
2.412000000000000E+009;1.664290875196457E-001;-3.695236518979073E-002;-5.880669050384313E-005;-3.125414252281189E-003;
2.412166666666667E+009;1.662663519382477E-001;-3.858876600861549E-002;-1.185192959383130E-004;-2.881173277273774E-003;
2.412333333333334E+009;1.664687097072601E-001;-4.042692109942436E-002;-8.927719318307936E-005;-2.862080000340939E-003;
2.412500000000000E+009;1.662494540214539E-001;-4.238456860184670E-002;-2.367228589719161E-004;-3.128034295514226E-003;
2.412666666666667E+009;1.665293425321579E-001;-4.449991509318352E-002;-2.909106842707843E-004;-3.121278481557965E-003;
2.412833333333334E+009;1.667906492948532E-001;-4.637874290347099E-002;-4.630996263585985E-004;-3.023292869329453E-003;
2.413000000000000E+009;1.668160259723663E-001;-4.795038700103760E-002;-4.267282492946833E-004;-3.074171021580696E-003;
2.413166666666667E+009;1.671757102012634E-001;-4.975644871592522E-002;-7.889988482929766E-004;-3.073707455769181E-003;
2.413333333333334E+009;1.673686951398850E-001;-5.152986198663712E-002;-6.807240424677730E-004;-3.121899673715234E-003;
2.413500000000000E+009;1.678621172904968E-001;-5.303842201828957E-002;-9.395672823302448E-004;-3.040946321561933E-003;
2.413666666666667E+009;1.680995672941208E-001;-5.470222234725952E-002;-1.220219535753131E-003;-2.956165466457605E-003;
2.413833333333334E+009;1.685191541910172E-001;-5.615471675992012E-002;-1.199616817757487E-003;-2.878566505387425E-003;
2.414000000000000E+009;1.689040064811707E-001;-5.771702155470848E-002;-1.329599530436099E-003;-2.915998920798302E-003;
2.414166666666667E+009;1.694470196962357E-001;-5.900189653038979E-002;-1.472517615184188E-003;-2.912464318796992E-003;
2.414333333333334E+009;1.697065383195877E-001;-6.036165356636047E-002;-1.648637116886675E-003;-2.804520307108760E-003;
2.414500000000000E+009;1.704790741205216E-001;-6.156349182128906E-002;-1.819114782847464E-003;-2.768466481938958E-003;
2.414666666666667E+009;1.706835478544235E-001;-6.244386732578278E-002;-1.916951732710004E-003;-2.676004543900490E-003;
2.414833333333334E+009;1.711241751909256E-001;-6.363791972398758E-002;-2.057049889117479E-003;-2.421395853161812E-003;
2.415000000000000E+009;1.715009063482285E-001;-6.452053785324097E-002;-2.334912773221731E-003;-2.472368767485023E-003;
2.415166666666667E+009;1.719535142183304E-001;-6.531445682048798E-002;-2.235519699752331E-003;-2.535256557166576E-003;
2.415333333333334E+009;1.722665578126907E-001;-6.613151729106903E-002;-2.584310248494148E-003;-2.327883616089821E-003;
2.415500000000000E+009;1.727166026830673E-001;-6.684911996126175E-002;-2.533959224820137E-003;-2.160902833566070E-003;
2.415666666666667E+009;1.727255284786224E-001;-6.724929064512253E-002;-2.771924948319793E-003;-2.043959917500615E-003;
2.415833333333334E+009;1.731016039848328E-001;-6.801398098468781E-002;-2.767321188002825E-003;-1.763054402545095E-003;
2.416000000000000E+009;1.731319278478622E-001;-6.851682811975479E-002;-2.920414321124554E-003;-1.610856386832893E-003;
2.416166666666667E+009;1.733179688453674E-001;-6.889350712299347E-002;-2.845228416845202E-003;-1.521052909083664E-003;
2.416333333333334E+009;1.732522845268250E-001;-6.923229992389679E-002;-2.985235070809722E-003;-1.208363799378276E-003;
2.416500000000000E+009;1.731008440256119E-001;-6.960614025592804E-002;-3.004716476425529E-003;-1.316647161729634E-003;
2.416666666666667E+009;1.730531752109528E-001;-6.979494541883469E-002;-3.124640323221684E-003;-1.029145787470043E-003;
2.416833333333334E+009;1.728797405958176E-001;-7.022257149219513E-002;-3.098132321611047E-003;-7.347940118052065E-004;
2.417000000000000E+009;1.722849756479263E-001;-7.041940838098526E-002;-3.201142419129610E-003;-5.763407098129392E-004;
2.417166666666667E+009;1.720595806837082E-001;-7.056001573801041E-002;-3.174641402438283E-003;-5.076670204289258E-004;
2.417333333333334E+009;1.716152578592300E-001;-7.075900584459305E-002;-3.192608011886478E-003;-2.912715135607868E-004;
2.417500000000000E+009;1.710763871669769E-001;-7.110385596752167E-002;-3.208407433703542E-003;-7.837884186301380E-005;
2.417666666666667E+009;1.704144775867462E-001;-7.120542973279953E-002;-3.234533593058586E-003;-2.518639848858584E-005;
2.417833333333334E+009;1.696374714374542E-001;-7.144114375114441E-002;-3.235510550439358E-003;1.790066598914564E-004;
2.418000000000000E+009;1.687779873609543E-001;-7.185915857553482E-002;-3.186731832101941E-003;4.210325714666396E-004;
2.418166666666667E+009;1.680038273334503E-001;-7.189373672008514E-002;-3.138111438602209E-003;5.119996494613588E-004;
2.418333333333334E+009;1.673727035522461E-001;-7.219601422548294E-002;-2.895223442465067E-003;6.817722460255027E-004;
2.418500000000000E+009;1.662252396345139E-001;-7.269438356161118E-002;-2.998004434630275E-003;8.330160635523498E-004;
2.418666666666667E+009;1.653315275907517E-001;-7.303775101900101E-002;-2.700300887227058E-003;1.108615542761982E-003;
2.418833333333334E+009;1.640335768461227E-001;-7.350398600101471E-002;-2.617280231788755E-003;1.148623065091670E-003;
2.419000000000000E+009;1.629164367914200E-001;-7.407417893409729E-002;-2.609655028209090E-003;1.223000697791576E-003;
2.419166666666667E+009;1.615936756134033E-001;-7.464400678873062E-002;-2.572295721620321E-003;1.418762025423348E-003;
2.419333333333334E+009;1.603415161371231E-001;-7.523631304502487E-002;-2.560090273618698E-003;1.475397148169577E-003;
2.419500000000000E+009;1.591418981552124E-001;-7.610756158828735E-002;-2.291627228260040E-003;1.714957179501653E-003;
2.419666666666667E+009;1.580919325351715E-001;-7.698573917150497E-002;-2.055630087852478E-003;1.701843691989780E-003;
2.419833333333334E+009;1.568116098642349E-001;-7.749506086111069E-002;-2.120414981618524E-003;1.823841710574925E-003;
2.420000000000000E+009;1.556754261255264E-001;-7.862669974565506E-002;-2.081765094771981E-003;1.979827880859375E-003;
2.420166666666667E+009;1.543266922235489E-001;-7.962255924940109E-002;-1.870856853201985E-003;1.914174179546535E-003;
2.420333333333334E+009;1.531287133693695E-001;-8.071971684694290E-002;-1.776424935087562E-003;2.085166051983833E-003;
2.420500000000000E+009;1.521828919649124E-001;-8.170703053474426E-002;-1.530529931187630E-003;2.216789405792952E-003;
2.420666666666667E+009;1.509906947612763E-001;-8.298186212778091E-002;-1.443277462385595E-003;2.223614836111665E-003;
2.420833333333334E+009;1.499349623918533E-001;-8.431953191757202E-002;-1.410003867931664E-003;2.352900570258498E-003;
2.421000000000000E+009;1.490511149168015E-001;-8.573319017887116E-002;-1.200418337248266E-003;2.296236343681812E-003;
2.421166666666667E+009;1.482190489768982E-001;-8.712235838174820E-002;-8.770670392550528E-004;2.547322539612651E-003;
2.421333333333334E+009;1.473199576139450E-001;-8.869864791631699E-002;-7.791987736709416E-004;2.611470874398947E-003;
2.421500000000000E+009;1.464114338159561E-001;-9.025128185749054E-002;-7.050300482660532E-004;2.459799405187368E-003;
2.421666666666667E+009;1.457610875368118E-001;-9.176734089851379E-002;-4.571111930999905E-004;2.642697887495160E-003;
2.421833333333334E+009;1.452615261077881E-001;-9.332057833671570E-002;-1.030544663080946E-004;2.609120216220617E-003;
2.422000000000000E+009;1.445891708135605E-001;-9.500027447938919E-002;1.031411229632795E-004;2.581369830295444E-003;
2.422166666666667E+009;1.440567970275879E-001;-9.690730273723602E-002;1.589502207934856E-004;2.600393490865827E-003;
2.422333333333334E+009;1.438882052898407E-001;-9.831500798463821E-002;3.896423440892249E-004;2.490185433998704E-003;
2.422500000000000E+009;1.434306353330612E-001;-1.001194193959236E-001;6.858726264908910E-004;2.456136280670762E-003;
2.422666666666667E+009;1.430744826793671E-001;-1.018186807632446E-001;8.247231016866863E-004;2.236418426036835E-003;
2.422833333333334E+009;1.430643200874329E-001;-1.037046685814858E-001;1.007397775538266E-003;2.126052044332027E-003;
2.423000000000000E+009;1.429451256990433E-001;-1.052603051066399E-001;1.212719362229109E-003;1.950511825270951E-003;
2.423166666666667E+009;1.429363042116165E-001;-1.069639027118683E-001;1.225408399477601E-003;1.922430004924536E-003;
2.423333333333334E+009;1.431766748428345E-001;-1.085631102323532E-001;1.452170195989311E-003;1.836770446971059E-003;
2.423500000000000E+009;1.433993130922318E-001;-1.102193519473076E-001;1.462253741919994E-003;1.700475811958313E-003;
2.423666666666667E+009;1.433037072420120E-001;-1.118066683411598E-001;1.583174220286310E-003;1.282500452362001E-003;
2.423833333333334E+009;1.436706632375717E-001;-1.133116632699966E-001;1.591367996297777E-003;1.149025280028582E-003;
2.424000000000000E+009;1.438611298799515E-001;-1.145411953330040E-001;1.676366315223277E-003;9.546506335027516E-004;
2.424166666666667E+009;1.441500186920166E-001;-1.160782277584076E-001;1.833692309446633E-003;8.147167973220348E-004;
2.424333333333334E+009;1.444671154022217E-001;-1.172041296958923E-001;1.699489308521152E-003;8.676683064550161E-004;
2.424500000000000E+009;1.449819952249527E-001;-1.185303851962090E-001;1.659130328334868E-003;5.676551372744143E-004;
2.424666666666667E+009;1.452217251062393E-001;-1.196258813142777E-001;1.659200061112642E-003;5.299068870954216E-004;
2.424833333333334E+009;1.455709934234619E-001;-1.207962036132813E-001;1.733629615046084E-003;2.607214846648276E-004;
2.425000000000000E+009;1.459522396326065E-001;-1.216619238257408E-001;1.509675639681518E-003;2.286803501192480E-004;
2.425166666666667E+009;1.462467610836029E-001;-1.227150782942772E-001;1.537075848318636E-003;7.011850539129227E-005;
2.425333333333334E+009;1.465608030557632E-001;-1.234524548053742E-001;1.425749389454722E-003;-3.761293919524178E-005;
2.425500000000000E+009;1.470220535993576E-001;-1.242782622575760E-001;1.584382611326873E-003;-9.278617653762922E-006;
2.425666666666667E+009;1.470119059085846E-001;-1.247310936450958E-001;1.487124362029135E-003;-1.930453145178035E-004;
2.425833333333334E+009;1.473021954298019E-001;-1.253334283828735E-001;1.380998408421874E-003;-2.882717526517808E-004;
2.426000000000000E+009;1.475083380937576E-001;-1.259534209966660E-001;1.312287058681250E-003;-3.735924256034195E-004;
2.426166666666667E+009;1.478206217288971E-001;-1.263155937194824E-001;1.182605512440205E-003;-4.404712235555053E-004;
2.426333333333334E+009;1.477735936641693E-001;-1.266716122627258E-001;1.288640778511763E-003;-4.428464453667402E-004;
2.426500000000000E+009;1.478535830974579E-001;-1.268105208873749E-001;1.262807985767722E-003;-4.972141468897462E-004;
2.426666666666667E+009;1.478125303983688E-001;-1.269281655550003E-001;1.266160979866982E-003;-6.415778188966215E-004;
2.426833333333334E+009;1.477160304784775E-001;-1.271039396524429E-001;1.153046032413840E-003;-7.040120544843376E-004;
2.427000000000000E+009;1.474063247442246E-001;-1.273307204246521E-001;1.097519183531404E-003;-6.862419540993869E-004;
2.427166666666667E+009;1.471455246210098E-001;-1.271912306547165E-001;9.615534800104797E-004;-7.855074945837259E-004;
2.427333333333334E+009;1.466476470232010E-001;-1.273319572210312E-001;9.425287134945393E-004;-7.917464245110750E-004;
2.427500000000000E+009;1.463016122579575E-001;-1.271958798170090E-001;9.673184249550104E-004;-7.644122233614326E-004;
2.427666666666667E+009;1.456076800823212E-001;-1.273217201232910E-001;8.922364213503897E-004;-8.051646873354912E-004;
