# Version 1.00
#
freq[Hz];re:Trc1_S11;im:Trc1_S11;re:Trc2_S21;im:Trc2_S21;
2.400000000000000E+009;1.639307737350464E-001;5.184678360819817E-002;-1.169294351711869E-003;2.019083360210061E-003;
2.400166666666667E+009;1.638997197151184E-001;5.051785707473755E-002;-1.185673172585666E-003;2.226783195510507E-003;
2.400333333333334E+009;1.637970954179764E-001;4.855532199144363E-002;-1.221764599904418E-003;2.401606645435095E-003;
2.400500000000000E+009;1.638687849044800E-001;4.691053181886673E-002;-1.080018351785839E-003;2.864492125809193E-003;
2.400666666666667E+009;1.638019382953644E-001;4.490093514323235E-002;-1.051670755259693E-003;2.976534189656377E-003;
2.400833333333334E+009;1.637827157974243E-001;4.315404966473579E-002;-8.048465824685991E-004;3.030525986105204E-003;
2.401000000000000E+009;1.639055460691452E-001;4.123337566852570E-002;-6.230291328392923E-004;3.313893917948008E-003;
2.401166666666667E+009;1.639559119939804E-001;3.910581767559052E-002;-5.300836637616158E-004;3.268073545768857E-003;
2.401333333333334E+009;1.640520393848419E-001;3.718399628996849E-002;-1.045478566084057E-004;3.615863621234894E-003;
2.401500000000000E+009;1.643573939800263E-001;3.521481528878212E-002;-5.945148950559087E-005;3.625082317739725E-003;
2.401666666666667E+009;1.644423007965088E-001;3.325332328677177E-002;2.169795479858294E-004;3.660035785287619E-003;
2.401833333333334E+009;1.645768880844116E-001;3.113888949155808E-002;3.751684271264821E-004;3.852009307593107E-003;
2.402000000000000E+009;1.647198647260666E-001;2.931053005158901E-002;6.350390031002462E-004;3.930013161152601E-003;
2.402166666666667E+009;1.652353405952454E-001;2.731909602880478E-002;8.486408623866737E-004;3.807909321039915E-003;
2.402333333333334E+009;1.653815656900406E-001;2.557565644383431E-002;1.298121758736670E-003;3.895032219588757E-003;
2.402500000000000E+009;1.660986244678497E-001;2.388694323599339E-002;1.539610093459487E-003;3.953803330659866E-003;
2.402666666666667E+009;1.666175127029419E-001;2.201882004737854E-002;1.781430793926120E-003;3.877021605148912E-003;
2.402833333333334E+009;1.670885086059570E-001;2.043382450938225E-002;1.981239067390561E-003;3.930557519197464E-003;
2.403000000000000E+009;1.676142662763596E-001;1.867871917784214E-002;2.353651681914926E-003;3.810443915426731E-003;
2.403166666666667E+009;1.682965010404587E-001;1.711962930858135E-002;2.631856361404061E-003;3.697780659422278E-003;
2.403333333333334E+009;1.688896417617798E-001;1.548923365771771E-002;2.858210355043411E-003;3.531110705807805E-003;
2.403500000000000E+009;1.695601493120194E-001;1.409077737480402E-002;3.228253219276667E-003;3.469029208645225E-003;
2.403666666666667E+009;1.702938675880432E-001;1.254244986921549E-002;3.499734215438366E-003;3.184991423040628E-003;
2.403833333333334E+009;1.709837615489960E-001;1.119752787053585E-002;3.504721680656076E-003;3.018620656803250E-003;
2.404000000000000E+009;1.717388331890106E-001;1.015974767506123E-002;3.712218953296542E-003;2.694974886253476E-003;
2.404166666666667E+009;1.723076701164246E-001;8.695987053215504E-003;4.151999950408936E-003;2.498941728845239E-003;
2.404333333333334E+009;1.730998903512955E-001;7.765320129692555E-003;4.253643564879894E-003;2.191780367866159E-003;
2.404500000000000E+009;1.737854778766632E-001;6.579683162271977E-003;4.398202989250422E-003;1.952195423655212E-003;
2.404666666666667E+009;1.745011806488037E-001;5.807057954370976E-003;4.331380594521761E-003;1.779965357854962E-003;
2.404833333333334E+009;1.752149313688278E-001;4.813591483980417E-003;4.464299883693457E-003;1.327999751083553E-003;
2.405000000000000E+009;1.759046763181686E-001;3.965093288570643E-003;4.701597150415182E-003;1.113889389671385E-003;
2.405166666666667E+009;1.764571219682694E-001;3.291785251349211E-003;4.636011086404324E-003;8.705435902811587E-004;
2.405333333333334E+009;1.771129667758942E-001;2.411826280876994E-003;4.583131056278944E-003;5.660841125063598E-004;
2.405500000000000E+009;1.778037399053574E-001;1.998753054067493E-003;4.544859286397696E-003;2.718472096603364E-004;
2.405666666666667E+009;1.782855540513992E-001;1.424459274858236E-003;4.676027223467827E-003;9.933621186064556E-005;
2.405833333333334E+009;1.786294281482697E-001;9.975732536986470E-004;4.514843691140413E-003;-1.825337967602536E-004;
2.406000000000000E+009;1.792811453342438E-001;4.724857572000474E-004;4.469063598662615E-003;-3.233408497180790E-004;
2.406166666666667E+009;1.794115155935288E-001;1.948831340996549E-004;4.492681939154863E-003;-5.753358127549291E-004;
2.406333333333334E+009;1.798106729984283E-001;-2.711630077101290E-004;4.472153726965189E-003;-8.862861432135105E-004;
2.406500000000000E+009;1.799985468387604E-001;-7.224400760605931E-004;4.318708088248968E-003;-1.243376056663692E-003;
2.406666666666667E+009;1.800334453582764E-001;-9.647729457356036E-004;3.996401093900204E-003;-1.422274392098188E-003;
2.406833333333334E+009;1.802722364664078E-001;-1.431172830052674E-003;3.865170059725642E-003;-1.364523777738214E-003;
2.407000000000000E+009;1.801876425743103E-001;-1.727075432427228E-003;3.900638082996011E-003;-1.594897476024926E-003;
2.407166666666667E+009;1.802995502948761E-001;-2.095713047310710E-003;3.639359492808580E-003;-1.932565239258111E-003;
2.407333333333334E+009;1.800312250852585E-001;-2.622123574838042E-003;3.538606222718954E-003;-2.028747461736202E-003;
2.407500000000000E+009;1.798161268234253E-001;-2.952273702248931E-003;3.423508489504457E-003;-2.111012581735849E-003;
2.407666666666667E+009;1.796570569276810E-001;-3.267317079007626E-003;3.426323877647519E-003;-2.313261153176427E-003;
2.407833333333334E+009;1.792110651731491E-001;-3.912627231329680E-003;3.196822945028544E-003;-2.610260387882590E-003;
2.408000000000000E+009;1.788534671068192E-001;-4.443865269422531E-003;3.038817550987005E-003;-2.550069708377123E-003;
2.408166666666667E+009;1.784918010234833E-001;-4.975379444658756E-003;2.862859284505248E-003;-2.630637725815177E-003;
2.408333333333334E+009;1.781184673309326E-001;-5.611681845039129E-003;2.646645996719599E-003;-2.837381558492780E-003;
2.408500000000000E+009;1.775789260864258E-001;-6.360348779708147E-003;2.523631323128939E-003;-2.877632854506373E-003;
2.408666666666667E+009;1.769715547561646E-001;-7.142987567931414E-003;2.310768235474825E-003;-2.916577970609069E-003;
2.408833333333334E+009;1.761822104454041E-001;-7.995520718395710E-003;2.274226862937212E-003;-3.073652973398566E-003;
2.409000000000000E+009;1.754843592643738E-001;-8.884612470865250E-003;2.205558586865664E-003;-3.054992994293571E-003;
2.409166666666667E+009;1.748970150947571E-001;-1.000769063830376E-002;1.976194558665156E-003;-3.088314551860094E-003;
2.409333333333334E+009;1.744228154420853E-001;-1.094768848270178E-002;1.867995597422123E-003;-3.087229095399380E-003;
2.409500000000000E+009;1.734858900308609E-001;-1.233895029872656E-002;1.706398557871580E-003;-3.119479864835739E-003;
2.409666666666667E+009;1.728660017251968E-001;-1.344285253435373E-002;1.505652675405145E-003;-3.026363672688603E-003;
2.409833333333334E+009;1.721054315567017E-001;-1.473329495638609E-002;1.483348780311644E-003;-3.163771936669946E-003;
2.410000000000000E+009;1.714824885129929E-001;-1.620595157146454E-002;1.143856905400753E-003;-3.179995575919747E-003;
2.410166666666667E+009;1.707233786582947E-001;-1.758709177374840E-002;9.398479014635086E-004;-3.081298200413585E-003;
2.410333333333334E+009;1.702156364917755E-001;-1.892991550266743E-002;9.758594096638262E-004;-3.200475359335542E-003;
2.410500000000000E+009;1.695383638143539E-001;-2.062131464481354E-002;7.627644808962941E-004;-3.051807172596455E-003;
2.410666666666667E+009;1.689952015876770E-001;-2.246793359518051E-002;6.452886736951768E-004;-3.078490728512406E-003;
2.410833333333334E+009;1.685543507337570E-001;-2.387975342571735E-002;5.335589521564543E-004;-3.192388685420156E-003;
2.411000000000000E+009;1.679953932762146E-001;-2.559206634759903E-002;6.098508602008224E-004;-2.951442962512374E-003;
2.411166666666667E+009;1.675125658512116E-001;-2.766346186399460E-002;2.569251228123903E-004;-3.073391737416387E-003;
2.411333333333334E+009;1.671383529901505E-001;-2.929962240159512E-002;3.419661952648312E-004;-2.845659852027893E-003;
2.411500000000000E+009;1.667225956916809E-001;-3.129215165972710E-002;2.371808368479833E-004;-2.935649128630757E-003;
2.411666666666667E+009;1.666532158851624E-001;-3.300577029585838E-002;2.531598438508809E-004;-2.778144553303719E-003;
2.411833333333334E+009;1.664943248033524E-001;-3.489308431744576E-002;1.703199668554589E-004;-3.016742644831538E-003;
2.412000000000000E+009;1.662754118442535E-001;-3.696556761860848E-002;-5.284885992296040E-005;-2.901457250118256E-003;
2.412166666666667E+009;1.661057770252228E-001;-3.880439326167107E-002;-5.786621477454901E-005;-2.979872282594442E-003;
2.412333333333334E+009;1.663853377103806E-001;-4.051785916090012E-002;-1.469670824008063E-004;-2.945511136204004E-003;
2.412500000000000E+009;1.663316935300827E-001;-4.243138432502747E-002;-2.091061178361997E-004;-3.059726441279054E-003;
2.412666666666667E+009;1.664256304502487E-001;-4.437633231282234E-002;-3.590154810808599E-004;-3.006224054843187E-003;
2.412833333333334E+009;1.668200641870499E-001;-4.638303816318512E-002;-3.801725106313825E-004;-2.979243174195290E-003;
2.413000000000000E+009;1.669227927923203E-001;-4.812156409025192E-002;-3.744309360627085E-004;-3.027852391824126E-003;
2.413166666666667E+009;1.672055423259735E-001;-4.980884864926338E-002;-6.244870019145310E-004;-3.086680080741644E-003;
2.413333333333334E+009;1.673077344894409E-001;-5.138989165425301E-002;-8.575620595365763E-004;-3.132223617285490E-003;
2.413500000000000E+009;1.676624268293381E-001;-5.315078049898148E-002;-9.890808723866940E-004;-3.157169325277209E-003;
2.413666666666667E+009;1.681655049324036E-001;-5.477516353130341E-002;-1.002226606942713E-003;-3.016505390405655E-003;
2.413833333333334E+009;1.685009896755219E-001;-5.627410113811493E-002;-1.209306763485074E-003;-2.914264099672437E-003;
2.414000000000000E+009;1.688790917396545E-001;-5.763094872236252E-002;-1.408650772646070E-003;-3.100081579759717E-003;
2.414166666666667E+009;1.694725006818771E-001;-5.905647575855255E-002;-1.586413010954857E-003;-2.873923163861036E-003;
2.414333333333334E+009;1.697513163089752E-001;-6.029302999377251E-002;-1.530971960164607E-003;-2.771298633888364E-003;
2.414500000000000E+009;1.703839004039764E-001;-6.140358373522759E-002;-1.811945228837431E-003;-2.742663724347949E-003;
2.414666666666667E+009;1.707720011472702E-001;-6.256145238876343E-002;-1.948749413713813E-003;-2.689489861950278E-003;
2.414833333333334E+009;1.711542904376984E-001;-6.355267018079758E-002;-2.131848363205791E-003;-2.593465847894549E-003;
2.415000000000000E+009;1.715393960475922E-001;-6.446889787912369E-002;-2.207996556535363E-003;-2.304154681041837E-003;
2.415166666666667E+009;1.717299222946167E-001;-6.543556600809097E-002;-2.336842473596335E-003;-2.387567423284054E-003;
2.415333333333334E+009;1.723703593015671E-001;-6.626819074153900E-002;-2.518785651773214E-003;-1.992653124034405E-003;
2.415500000000000E+009;1.725914776325226E-001;-6.676904857158661E-002;-2.603181637823582E-003;-2.096661366522312E-003;
2.415666666666667E+009;1.729578822851181E-001;-6.732834130525589E-002;-2.658204175531864E-003;-1.908070407807827E-003;
2.415833333333334E+009;1.730134189128876E-001;-6.806631386280060E-002;-2.743822056800127E-003;-1.831304747611284E-003;
2.416000000000000E+009;1.732033193111420E-001;-6.845963001251221E-002;-2.897511934861541E-003;-1.604834804311395E-003;
2.416166666666667E+009;1.734056174755096E-001;-6.887182593345642E-002;-2.834628103300929E-003;-1.609156723134220E-003;
2.416333333333334E+009;1.732804775238037E-001;-6.917649507522583E-002;-2.923134947195649E-003;-1.224097446538508E-003;
2.416500000000000E+009;1.732131689786911E-001;-6.959535926580429E-002;-3.068601246923208E-003;-1.277077593840659E-003;
2.416666666666667E+009;1.729822307825089E-001;-6.987419724464417E-002;-3.026818856596947E-003;-9.686974808573723E-004;
2.416833333333334E+009;1.728753745555878E-001;-7.020286470651627E-002;-3.150230506435037E-003;-8.152191876433790E-004;
2.417000000000000E+009;1.723784506320953E-001;-7.053484767675400E-002;-3.023688215762377E-003;-4.781494790222496E-004;
2.417166666666667E+009;1.719793528318405E-001;-7.056009024381638E-002;-3.272570436820388E-003;-5.901201511733234E-004;
2.417333333333334E+009;1.716616302728653E-001;-7.088332623243332E-002;-3.156041959300637E-003;-3.224479150958359E-004;
2.417500000000000E+009;1.711261868476868E-001;-7.112152874469757E-002;-3.237449331209064E-003;-1.070522557711229E-004;
2.417666666666667E+009;1.704836338758469E-001;-7.128614932298660E-002;-3.011296968907118E-003;1.065733886207454E-005;
2.417833333333334E+009;1.697539240121841E-001;-7.152016460895538E-002;-3.123890608549118E-003;2.127516345353797E-004;
2.418000000000000E+009;1.688408553600311E-001;-7.175719738006592E-002;-2.951562171801925E-003;4.412725102156401E-004;
2.418166666666667E+009;1.679572612047195E-001;-7.199491560459137E-002;-2.792158862575889E-003;5.406740237958729E-004;
2.418333333333334E+009;1.672738492488861E-001;-7.250956445932388E-002;-2.920010127127171E-003;6.911766831763089E-004;
2.418500000000000E+009;1.661101877689362E-001;-7.271533459424973E-002;-2.643676940351725E-003;9.198401821777225E-004;
2.418666666666667E+009;1.651807427406311E-001;-7.315780967473984E-002;-2.642765408381820E-003;9.090247331187129E-004;
2.418833333333334E+009;1.639569103717804E-001;-7.371796667575836E-002;-2.566294744610786E-003;1.247532316483557E-003;
2.419000000000000E+009;1.627663671970367E-001;-7.422229647636414E-002;-2.473613014444709E-003;1.178931794129312E-003;
2.419166666666667E+009;1.615404039621353E-001;-7.463206350803375E-002;-2.334277844056487E-003;1.325656310655177E-003;
2.419333333333334E+009;1.602718383073807E-001;-7.527203857898712E-002;-2.415280556306243E-003;1.549412496387959E-003;
2.419500000000000E+009;1.589993387460709E-001;-7.617389410734177E-002;-2.202177885919809E-003;1.618076930753887E-003;
2.419666666666667E+009;1.580313891172409E-001;-7.692716270685196E-002;-2.106206491589546E-003;1.739355968311429E-003;
2.419833333333334E+009;1.566540002822876E-001;-7.763512432575226E-002;-2.055295510217547E-003;1.889346051029861E-003;
2.420000000000000E+009;1.554945558309555E-001;-7.852829247713089E-002;-1.943617593497038E-003;1.769627444446087E-003;
2.420166666666667E+009;1.543264538049698E-001;-7.947313040494919E-002;-1.857076655142009E-003;2.071397146210074E-003;
2.420333333333334E+009;1.532311886548996E-001;-8.072099834680557E-002;-1.763191423378885E-003;2.128240186721087E-003;
2.420500000000000E+009;1.521402150392532E-001;-8.172942698001862E-002;-1.543072517961264E-003;2.183367731049657E-003;
2.420666666666667E+009;1.510663628578186E-001;-8.297964930534363E-002;-1.511321170255542E-003;2.377635100856423E-003;
2.420833333333334E+009;1.500476747751236E-001;-8.430334180593491E-002;-1.298982417210937E-003;2.386568812653422E-003;
2.421000000000000E+009;1.489863395690918E-001;-8.569455146789551E-002;-1.110847806558013E-003;2.544205635786057E-003;
2.421166666666667E+009;1.482983678579330E-001;-8.716700226068497E-002;-1.093221944756806E-003;2.546058502048254E-003;
2.421333333333334E+009;1.473286896944046E-001;-8.880370855331421E-002;-6.762307602912188E-004;2.708471147343516E-003;
2.421500000000000E+009;1.465076506137848E-001;-9.016774594783783E-002;-7.469634874723852E-004;2.632465912029147E-003;
2.421666666666667E+009;1.458594053983688E-001;-9.174071252346039E-002;-5.615034024231136E-004;2.647460438311100E-003;
2.421833333333334E+009;1.452219188213348E-001;-9.332926571369171E-002;-2.634118427522481E-004;2.655602991580963E-003;
2.422000000000000E+009;1.447116732597351E-001;-9.495536983013153E-002;-1.051965446094982E-004;2.569092204794288E-003;
2.422166666666667E+009;1.441217511892319E-001;-9.696475416421890E-002;2.047679590759799E-004;2.846263349056244E-003;
2.422333333333334E+009;1.437066495418549E-001;-9.852860122919083E-002;3.223421517759562E-004;2.436781767755747E-003;
2.422500000000000E+009;1.435533761978149E-001;-1.002669855952263E-001;4.859556793235242E-004;2.444087993353605E-003;
2.422666666666667E+009;1.431771218776703E-001;-1.018575727939606E-001;7.671603816561401E-004;2.395626623183489E-003;
2.422833333333334E+009;1.430791765451431E-001;-1.036766171455383E-001;9.379515540786088E-004;2.303399844095111E-003;
2.423000000000000E+009;1.429680734872818E-001;-1.053239852190018E-001;1.113891601562500E-003;2.108341548591852E-003;
2.423166666666667E+009;1.430332511663437E-001;-1.069926247000694E-001;1.342119299806655E-003;2.011559205129743E-003;
2.423333333333334E+009;1.431821435689926E-001;-1.083443760871887E-001;1.442775712348521E-003;1.869284082204104E-003;
2.423500000000000E+009;1.433704644441605E-001;-1.102274879813194E-001;1.430250587873161E-003;1.684276270680130E-003;
2.423666666666667E+009;1.433313041925430E-001;-1.118238270282745E-001;1.453218399547041E-003;1.446884823963046E-003;
2.423833333333334E+009;1.437114179134369E-001;-1.135248392820358E-001;1.598838600330055E-003;1.188171794638038E-003;
2.424000000000000E+009;1.437864452600479E-001;-1.146722659468651E-001;1.720396452583373E-003;1.074135419912636E-003;
2.424166666666667E+009;1.439990997314453E-001;-1.159612536430359E-001;1.647841068916023E-003;1.056088018231094E-003;
2.424333333333334E+009;1.445210725069046E-001;-1.173375546932221E-001;1.732933684252203E-003;6.986421067267656E-004;
2.424500000000000E+009;1.449356377124786E-001;-1.185661926865578E-001;1.897358335554600E-003;7.205142755992711E-004;
2.424666666666667E+009;1.453599035739899E-001;-1.195705309510231E-001;1.712952973321080E-003;4.191672487650067E-004;
2.424833333333334E+009;1.455677449703217E-001;-1.207618489861488E-001;1.652646809816361E-003;4.280449356883764E-004;
2.425000000000000E+009;1.460487097501755E-001;-1.217938661575317E-001;1.612987834960222E-003;1.960895024240017E-004;
2.425166666666667E+009;1.460894048213959E-001;-1.225987598299980E-001;1.532026450149715E-003;7.938638191262726E-006;
2.425333333333334E+009;1.465984582901001E-001;-1.234091594815254E-001;1.590263447724283E-003;-1.987979194382206E-004;
2.425500000000000E+009;1.469768285751343E-001;-1.242172420024872E-001;1.483123982325196E-003;-1.341017195954919E-004;
2.425666666666667E+009;1.470918208360672E-001;-1.249073296785355E-001;1.590585219673812E-003;-1.769947120919824E-004;
2.425833333333334E+009;1.474165022373200E-001;-1.254287660121918E-001;1.489449874497950E-003;-2.843737311195582E-004;
2.426000000000000E+009;1.475956887006760E-001;-1.259536743164063E-001;1.441692351363599E-003;-3.617494658101350E-004;
2.426166666666667E+009;1.478153765201569E-001;-1.264046281576157E-001;1.325184130109847E-003;-4.203604476060718E-004;
2.426333333333334E+009;1.477941274642944E-001;-1.266588121652603E-001;1.224377192556858E-003;-4.269089549779892E-004;
2.426500000000000E+009;1.478614956140518E-001;-1.268192827701569E-001;1.296914997510612E-003;-5.749478586949408E-004;
2.426666666666667E+009;1.479340940713882E-001;-1.269561350345612E-001;1.131995813921094E-003;-5.472349002957344E-004;
2.426833333333334E+009;1.475851088762283E-001;-1.272038370370865E-001;1.187143148854375E-003;-6.104290951043367E-004;
2.427000000000000E+009;1.473714858293533E-001;-1.273511499166489E-001;1.021110685542226E-003;-5.725191440433264E-004;
2.427166666666667E+009;1.471326649188995E-001;-1.272595524787903E-001;9.803051361814141E-004;-7.527333800680935E-004;
2.427333333333334E+009;1.466111391782761E-001;-1.273003965616226E-001;1.031327410601080E-003;-8.933357312344015E-004;
2.427500000000000E+009;1.462364196777344E-001;-1.273215562105179E-001;8.431226597167552E-004;-6.699327495880425E-004;
2.427666666666667E+009;1.455774605274200E-001;-1.272315382957459E-001;8.991474751383066E-004;-9.013021481223404E-004;
