# Hz S RI R 
2400000000.0000000000 0.167835667729377802093182481258 0.040932737290859222412109375000 -0.002505649114027618928196572412 -0.002889940515160561041591025244 0 0 0 0 
2400166666.6666665077 0.168498501181602505782919365629 0.040383543819189071655273437500 -0.002524658339098095893859863281 -0.003108115633949636979344033350 0 0 0 0 
2400333333.3333334923 0.168965786695480402190838731258 0.039085913449525833129882812500 -0.002960861427709459824803017725 -0.002903264248743652863743447412 0 0 0 0 
2400500000.0000000000 0.169526472687721307952557481258 0.038421213626861572265625000000 -0.002911270130425692038295126807 -0.002901753177866340117213583838 0 0 0 0 
2400666666.6666665077 0.169734522700309808929119981258 0.037455923855304718017578125000 -0.003082271665334701971766806494 -0.002677181269973516897914267432 0 0 0 0 
2400833333.3333334923 0.170256093144416809082031250000 0.036594081670045852661132812500 -0.003255481831729412078857421875 -0.002750667510554194884059286963 0 0 0 0 
2401000000.0000000000 0.170475438237190302093182481258 0.035761862993240363384206403907 -0.003463281784206628799438476562 -0.002699451753869653181788779150 0 0 0 0 
2401166666.6666665077 0.170838207006454495529013115629 0.034787915647029876708984375000 -0.003617268754169344902038574219 -0.002309768693521618843078613281 0 0 0 0 
2401333333.3333334923 0.170683816075325012207031250000 0.033959493041038513183593750000 -0.003897062269970775084254599463 -0.002089916262775659994838095557 0 0 0 0 
2401500000.0000000000 0.171187356114387512207031250000 0.033154122531414031982421875000 -0.003966847434639930725097656250 -0.001858343603089452006696391528 0 0 0 0 
2401666666.6666665077 0.171361148357391412933026231258 0.032391749322414398193359375000 -0.004109601955860853195190429688 -0.001532748923636972904205322266 0 0 0 0 
2401833333.3333334923 0.171352982521057101150674384371 0.031424023211002349853515625000 -0.004144615028053522109985351562 -0.001108081080019474029541015625 0 0 0 0 
2402000000.0000000000 0.171264573931694003006143134371 0.030505359172821048391321951954 -0.004303491208702325820922851562 -0.000985649763606488704681396484 0 0 0 0 
2402166666.6666665077 0.171146005392074612716513115629 0.029507149010896679269810860546 -0.004209318663924933347220136426 -0.000893997261300683021545410156 0 0 0 0 
2402333333.3333334923 0.171288356184959411621093750000 0.028562340885400768625279610546 -0.004219770431518554687500000000 -0.000531073601450771093368530273 0 0 0 0 
2402500000.0000000000 0.171545073390006991287393134371 0.027477329596877101552943045704 -0.004103599116206169128417968750 -0.000277292245300486683845520020 0 0 0 0 
2402666666.6666665077 0.171249493956565912444744981258 0.026607731357216838491419608204 -0.003980647306889295578002929688 0.000058924491895595572214534147 0 0 0 0 
2402833333.3333334923 0.171434178948402404785156250000 0.025774013251066211355189139454 -0.003832403803244233131408691406 0.000221178735955618294790545053 0 0 0 0 
2403000000.0000000000 0.171352684497833307464276231258 0.024458888918161388742467110546 -0.003736683167517185211181640625 0.000440362666267901713221949445 0 0 0 0 
2403166666.6666665077 0.171276167035102788727130018742 0.023362897336483001708984375000 -0.003498546313494443893432617188 0.000494610983878374099731445312 0 0 0 0 
2403333333.3333334923 0.171073660254478510100994981258 0.022426195442676540720006173046 -0.003132803132757544951197958838 0.000664298248011618852615356445 0 0 0 0 
2403500000.0000000000 0.170882567763328607757244981258 0.021322770044207569467564766796 -0.003330593463033438162562704932 0.000862809363752603530883789062 0 0 0 0 
2403666666.6666665077 0.170838534832000704666299384371 0.019913628697395331645925153907 -0.002858029212802648977992392432 0.000793314364273101091384887695 0 0 0 0 
2403833333.3333334923 0.170782521367073086837606865629 0.018576692789793021465261091407 -0.002857241779565811157226562500 0.000712930865120142698287963867 0 0 0 0 
2404000000.0000000000 0.170572742819786099532919365629 0.017464805394411090505579764454 -0.002479674527421594099757529150 0.000934823881834745407104492188 0 0 0 0 
2404166666.6666665077 0.170516327023506192306356865629 0.015995945781469348562220389454 -0.002644021296873689131495810400 0.000876518432050943374633789062 0 0 0 0 
2404333333.3333334923 0.170316174626350402832031250000 0.014787603169679639988909336523 -0.002293073572218418121337890625 0.000867875758558511734008789062 0 0 0 0 
2404500000.0000000000 0.170080423355102511306924384371 0.013373557478189470118512538477 -0.002288743387907743887660361182 0.000885737943463027477264404297 0 0 0 0 
2404666666.6666665077 0.170229852199554387848223768742 0.011986091732978820800781250000 -0.002244753530249000029322958838 0.000809154997114092111587524414 0 0 0 0 
2404833333.3333334923 0.170112758874893188476562500000 0.010679597966372970235804373829 -0.002043402986600995063781738281 0.000852580647915601730346679688 0 0 0 0 
2405000000.0000000000 0.170010969042777987381143134371 0.009158001281321048736572265625 -0.001985140377655624909641884912 0.000813603925053030252456665039 0 0 0 0 
2405166666.6666665077 0.170168697834014892578125000000 0.007564593106508255004882812500 -0.002084745559841393990757607568 0.000762401206884533166885375977 0 0 0 0 
2405333333.3333334923 0.170165643095970209319744981258 0.005995046813040971755981445312 -0.001904694712720810933354043115 0.000757069734390825033187866211 0 0 0 0 
2405500000.0000000000 0.169990018010139493087606865629 0.004508215002715587615966796875 -0.001950293080881237983703613281 0.000723549572285264730453491211 0 0 0 0 
2405666666.6666665077 0.170131400227546691894531250000 0.003080231603235005898716591943 -0.001900065923109651045558310400 0.000870082760229706764221191406 0 0 0 0 
2405833333.3333334923 0.169922277331352206131143134371 0.001363142509944736957550048828 -0.001888773869723082022425986182 0.000665324216242879629135131836 0 0 0 0 
2406000000.0000000000 0.169983103871345492263955634371 -0.000305788998957723379135131836 -0.001818136777728796005249023438 0.000596476544160395860671997070 0 0 0 0 
2406166666.6666665077 0.169709146022796603103799384371 -0.001818991848267615058301616138 -0.001743714208714663982391357422 0.000571039912756532430648803711 0 0 0 0 
2406333333.3333334923 0.169808536767959594726562500000 -0.003396036569029092788696289062 -0.001891875057481229088426899487 0.000545026210602372884750366211 0 0 0 0 
2406500000.0000000000 0.169620692729950006683026231258 -0.005027075298130512237548828125 -0.001878380775451659939409565503 0.000712568406015634536743164062 0 0 0 0 
2406666666.6666665077 0.169460371136665288727130018742 -0.006457133684307336807250976562 -0.001870592124760150909423828125 0.000604530621785670518875122070 0 0 0 0 
2406833333.3333334923 0.169297695159912109375000000000 -0.008142714388668537139892578125 -0.001788244582712650082231831128 0.000731917563825845718383789062 0 0 0 0 
2407000000.0000000000 0.169111877679824801345986884371 -0.009505554102361202239990234375 -0.001824968727305531935450888525 0.000554509169887751340866088867 0 0 0 0 
2407166666.6666665077 0.169185534119605990310830634371 -0.010816398076713090378730974805 -0.001626320066861808083177876050 0.000637926976196467876434326172 0 0 0 0 
2407333333.3333334923 0.168893128633499201018963731258 -0.012434510514140130824078944727 -0.001689911121502519087550497900 0.000470317754661664420932215558 0 0 0 0 
2407500000.0000000000 0.168817564845085088531817518742 -0.013615516014397140848180001171 -0.001654804334975779056549072266 0.000581647909712046384811401367 0 0 0 0 
2407666666.6666665077 0.168597683310508700271768134371 -0.014699873514473439997662929102 -0.001634988351725042083142924731 0.000431949185440316796302795410 0 0 0 0 
2407833333.3333334923 0.168359935283660888671875000000 -0.015898574143648151052454764454 -0.001595729030668735937831259619 0.000335869699483737403720301495 0 0 0 0 
2408000000.0000000000 0.168226048350334195236044365629 -0.017094366252422329294224923046 -0.001747428555972873947740864331 0.000243882226641289889812469482 0 0 0 0 
2408166666.6666665077 0.168240144848823602874432481258 -0.017955482006073001516321951954 -0.001652782666496932940242148291 0.000222642571316100711196345197 0 0 0 0 
2408333333.3333334923 0.168324366211891202071981865629 -0.018853312358260161663014997657 -0.001787031418643892028211284106 0.000327148736687377095222473145 0 0 0 0 
2408500000.0000000000 0.168306469917297391036825615629 -0.019962234422564510000208670704 -0.001896717469207942919490195166 0.000253853824688121676445007324 0 0 0 0 
2408666666.6666665077 0.168370917439460809905682481258 -0.020837839692831039428710937500 -0.002066877670586109161376953125 0.000171207953826524290159502573 0 0 0 0 
2408833333.3333334923 0.168197453022003201583700615629 -0.021727891638875011098841483204 -0.002176644280552864074707031250 0.000219177614781074198797503061 0 0 0 0 
2409000000.0000000000 0.168407827615737887283486884371 -0.022571846842765811574915701954 -0.002331308322027326063868857275 0.000278661173069849610328674316 0 0 0 0 
2409166666.6666665077 0.168622434139251708984375000000 -0.023361241444945338857630545704 -0.002381750149652361869812011719 0.000170962346601299887329655780 0 0 0 0 
2409333333.3333334923 0.168824508786201504806356865629 -0.024378331378102299081822579296 -0.002631489885970950126647949219 0.000316400604788214022487086163 0 0 0 0 
2409500000.0000000000 0.168778404593467712402343750000 -0.025353170931339260446568673046 -0.002627531532198191122767783057 0.000578676816076040267944335938 0 0 0 0 
2409666666.6666665077 0.168913707137107904632244981258 -0.026153970509767528879185860546 -0.002874986035749316215515136719 0.000526789284776896238327026367 0 0 0 0 
2409833333.3333334923 0.169002309441566495040731865629 -0.027039265260100371623952497657 -0.002901236992329359054565429688 0.000792051898315548896789550781 0 0 0 0 
2410000000.0000000000 0.169251576066017206390057481258 -0.027908956632018089294433593750 -0.002937902463600039915797568213 0.000970444933045655488967895508 0 0 0 0 
2410166666.6666665077 0.169233113527298001388388115629 -0.028855374082922938955286795704 -0.003100577043369411988499306787 0.000938202603720128536224365234 0 0 0 0 
2410333333.3333334923 0.169123664498329190353231865629 -0.029833072796463969839075858204 -0.003076091641560196876525878906 0.001290715066716074943542480469 0 0 0 0 
2410500000.0000000000 0.169216886162757901290731865629 -0.030729452148079868661900704296 -0.003070127917453647093531943213 0.001559085096232593059539794922 0 0 0 0 
2410666666.6666665077 0.169026985764503506759481865629 -0.031700320541858673095703125000 -0.003034541616216301918029785156 0.001662293798290193080902099609 0 0 0 0 
2410833333.3333334923 0.168894886970519991775674384371 -0.032463960349559776996652971093 -0.003247571177780628204345703125 0.001882542739622294902801513672 0 0 0 0 
2411000000.0000000000 0.168765783309936495681924384371 -0.033354632556438452983815778907 -0.003080595983192325072047568213 0.002094203373417257828953408350 0 0 0 0 
2411166666.6666665077 0.168626546859741210937500000000 -0.034316778182983398437500000000 -0.003049616469070314927342080225 0.002178847091272472901585244287 0 0 0 0 
2411333333.3333334923 0.168434932827949496170205634371 -0.035091657191514968872070312500 -0.002859667176380753950831747900 0.002383351558819413185119628906 0 0 0 0 
2411500000.0000000000 0.168101131916046087066973768742 -0.036041248589754111553151716407 -0.002918804995715618133544921875 0.002395350718870759010314941406 0 0 0 0 
2411666666.6666665077 0.167884424328803988357705634371 -0.036928661167621612548828125000 -0.002671410329639912085292197119 0.002761213807389140129089355469 0 0 0 0 
2411833333.3333334923 0.167742878198623712737713731258 -0.037585247308015823364257812500 -0.002697014482691884040832519531 0.002945242216810584068298339844 0 0 0 0 
2412000000.0000000000 0.167476281523704501053018134371 -0.038744922727346420288085937500 -0.002553215483203529877903603662 0.003143902635201811790466308594 0 0 0 0 
2412166666.6666665077 0.167268827557563809493856865629 -0.039660040289163589477539062500 -0.002300433116033672852757119287 0.003158680163323878808262490381 0 0 0 0 
2412333333.3333334923 0.167125225067138699630575615629 -0.040455620735883712768554687500 -0.002200776245445013046264648438 0.003364387666806579069850302588 0 0 0 0 
2412500000.0000000000 0.166723847389221191406250000000 -0.041320335119962692260742187500 -0.002002184512093663215637207031 0.003316602203994988961460732568 0 0 0 0 
2412666666.6666665077 0.166311904788017300704794365629 -0.042529221624135971069335937500 -0.001872826716862618923187255859 0.003472544485703111128566122900 0 0 0 0 
2412833333.3333334923 0.165948331356048611739950615629 -0.043492730706930160522460937500 -0.001546596642583609061000204932 0.003538560355082153840305947412 0 0 0 0 
2413000000.0000000000 0.165601000189781188964843750000 -0.044468943029642112041432966407 -0.001382126938551663918736123193 0.003448335221037269072291708838 0 0 0 0 
2413166666.6666665077 0.165140375494956997970419365629 -0.045456461608409881591796875000 -0.001395291532389820055720663916 0.003486575325950980186462402344 0 0 0 0 
2413333333.3333334923 0.164461717009544400314169365629 -0.046494718641042709350585937500 -0.001239440403878689029096293872 0.003613985609263182120082236182 0 0 0 0 
2413500000.0000000000 0.164146661758422907073651231258 -0.047681853175163269042968750000 -0.001114223618060349984409951318 0.003683689748868346214294433594 0 0 0 0 
2413666666.6666665077 0.163715869188308688064736884371 -0.048461221158504493022878278907 -0.000914436357561498880386352539 0.003548000240698457197902060400 0 0 0 0 
2413833333.3333334923 0.163275554776191711425781250000 -0.049519095569849007343332658593 -0.000860118190757930278778076172 0.003505563130602240996119833838 0 0 0 0 
2414000000.0000000000 0.162720203399658203125000000000 -0.050591997802257537841796875000 -0.000745847588405013084411621094 0.003593372181057929992675781250 0 0 0 0 
2414166666.6666665077 0.162551969289779690841513115629 -0.051592223346233367919921875000 -0.000653812370728701353073120117 0.003764043562114239172694540869 0 0 0 0 
2414333333.3333334923 0.161887183785438509842080634371 -0.052572835236787802959401716407 -0.000453862448921427076489049091 0.003753813449293375015258789062 0 0 0 0 
2414500000.0000000000 0.161734566092491205413494981258 -0.053436160087585449218750000000 -0.000413022848078980987698155536 0.003675853833556174798252724756 0 0 0 0 
2414666666.6666665077 0.161292985081672696212606865629 -0.054374009370803833007812500000 -0.000274017191259190385967808856 0.003637749236077069802525185693 0 0 0 0 
2414833333.3333334923 0.161078557372093200683593750000 -0.055546224117279052734375000000 -0.000165903707966208512156885968 0.003720232518389821052551269531 0 0 0 0 
2415000000.0000000000 0.160796165466308593750000000000 -0.056500781327486038208007812500 -0.000014180705875332929531132051 0.003742914879694581031799316406 0 0 0 0 
2415166666.6666665077 0.160620197653770502288494981258 -0.057623542845249182964284528907 0.000026140460249735039064680406 0.003706219140440226034877158057 0 0 0 0 
2415333333.3333334923 0.160467296838760403732138115629 -0.058945566415786743164062500000 0.000210385900572873706191462384 0.003780089318752288818359375000 0 0 0 0 
2415500000.0000000000 0.160384193062782287597656250000 -0.059827055782079696655273437500 0.000215436200960539308473309927 0.003590070409700274901149130713 0 0 0 0 
2415666666.6666665077 0.160180360078811701018963731258 -0.060925081372261047363281250000 0.000322410633089020902484339581 0.003637270536273717880249023438 0 0 0 0 
2415833333.3333334923 0.159918248653411892989950615629 -0.062146957963705062866210937500 0.000288716953946277499198913574 0.003681060159578918977024697412 0 0 0 0 
2416000000.0000000000 0.159662857651710510253906250000 -0.063330948352813720703125000000 0.000536797277163714170455932617 0.003606203477829695181605673682 0 0 0 0 
2416166666.6666665077 0.159601092338562011718750000000 -0.064572654664516448974609375000 0.000398713251342997009128016339 0.003749912604689598083496093750 0 0 0 0 
2416333333.3333334923 0.159366577863693209549111884371 -0.065790012478828430175781250000 0.000633473624475300312042236328 0.003572486340999602837803506006 0 0 0 0 
2416500000.0000000000 0.159167453646659906585369981258 -0.067071735858917236328125000000 0.000839081360027194023132324219 0.003872904460877180099487304688 0 0 0 0 
2416666666.6666665077 0.158819451928138705154580634371 -0.068131245672702789306640625000 0.000967006722930818796157836914 0.003705319250002502961399697412 0 0 0 0 
2416833333.3333334923 0.158630475401878412444744981258 -0.069377787411212921142578125000 0.000772079452872276306152343750 0.003827925305813550949096679688 0 0 0 0 
2417000000.0000000000 0.158060550689697293380575615629 -0.070575192570686340332031250000 0.001116379629820585034014057690 0.003896307433024048805236816406 0 0 0 0 
2417166666.6666665077 0.157841965556144686599893134371 -0.071417607367038726806640625000 0.001275747083127499060389853369 0.003789586015045642852783203125 0 0 0 0 
2417333333.3333334923 0.157574564218521090408486884371 -0.072481393814086914062500000000 0.001619215938262640996220254053 0.003770618699491024017333984375 0 0 0 0 
2417500000.0000000000 0.157195538282394409179687500000 -0.073571488261222839355468750000 0.001764488872140645980834960938 0.003891296451911329789402627100 0 0 0 0 
2417666666.6666665077 0.157015040516853304763955634371 -0.074434570968151092529296875000 0.001889021252281964042066264575 0.003804459236562252044677734375 0 0 0 0 
2417833333.3333334923 0.156575784087181091308593750000 -0.075164787471294403076171875000 0.002058797283098102049586630713 0.003661172697320580916163779150 0 0 0 0 
2418000000.0000000000 0.156314849853515597244424384371 -0.076259210705757141113281250000 0.002164413686841725869419716943 0.003582773730158805847167968750 0 0 0 0 
2418166666.6666665077 0.156008362770080594161825615629 -0.076903082430362701416015625000 0.002395680872723460197448730469 0.003619729541242123083827353369 0 0 0 0 
2418333333.3333334923 0.156108468770980807205361884371 -0.077799066901206970214843750000 0.002644049469381570816040039062 0.003564308630302547974827431787 0 0 0 0 
2418500000.0000000000 0.155576080083847101409588731258 -0.078559912741184234619140625000 0.002754643326625227928161621094 0.003427484771236776871922158350 0 0 0 0 
2418666666.6666665077 0.155397996306419400314169365629 -0.079369843006134033203125000000 0.003109853016212583021876669775 0.003345147008076310157775878906 0 0 0 0 
2418833333.3333334923 0.154811337590217590332031250000 -0.080203160643577575683593750000 0.003124176524579524993896484375 0.003301288932561873955967568506 0 0 0 0 
2419000000.0000000000 0.154458492994308499435263115629 -0.080715931951999664306640625000 0.003275943454355001015904091943 0.003189161419868468804600381006 0 0 0 0 
2419166666.6666665077 0.154202550649642888824786268742 -0.081419311463832855224609375000 0.003529358655214310126063681494 0.002876196289435029029846191406 0 0 0 0 
2419333333.3333334923 0.153850510716438293457031250000 -0.081877380609512329101562500000 0.003848000895231962203979492188 0.002642311621457337899449013818 0 0 0 0 
2419500000.0000000000 0.153543114662170410156250000000 -0.082790419459342956542968750000 0.003879946656525135040283203125 0.002581903710961341857910156250 0 0 0 0 
2419666666.6666665077 0.153188452124595586578692518742 -0.083411931991577148437500000000 0.004098733887076377868652343750 0.002122680190950632095336914062 0 0 0 0 
2419833333.3333334923 0.152769774198532104492187500000 -0.083829887211322784423828125000 0.004041990265250205993652343750 0.001969944685697555975673056494 0 0 0 0 
