# Hz S RI R 
2400000000.0000000000 0.171174451708793612381143134371 0.039983499795198440551757812500 -0.002303291810676455931422568213 -0.001644793315790594057795859229 0 0 0 0 
2400166666.6666665077 0.171704635024070711990518134371 0.039390865713357932353932966407 -0.002363903447985649108886718750 -0.001648781937547028064727783203 0 0 0 0 
2400333333.3333334923 0.172311514616012600997763115629 0.038744088262319571758229841407 -0.002536117564886807961704873193 -0.001429959200322628021240234375 0 0 0 0 
2400500000.0000000000 0.172775715589523287674111884371 0.038114350289106369018554687500 -0.002562959212809801101684570312 -0.001179560786113142967224121094 0 0 0 0 
2400666666.6666665077 0.172990307211875887771768134371 0.037246309220790863037109375000 -0.002453904133290051980259560693 -0.001291932188905775980708456885 0 0 0 0 
2400833333.3333334923 0.173249199986457796951455634371 0.036672789603471762920339216407 -0.002566472627222537994384765625 -0.001103246817365288951276469653 0 0 0 0 
2401000000.0000000000 0.173461362719535799881143134371 0.036072105169296271587331403907 -0.002576249884441494941711425781 -0.000984201557002961635589599609 0 0 0 0 
2401166666.6666665077 0.173468470573425292968750000000 0.035416726022958762432057966407 -0.002538667293265461921691894531 -0.000920218415558338165283203125 0 0 0 0 
2401333333.3333334923 0.173463270068168612381143134371 0.034780867397785186767578125000 -0.002706257859244943098780966650 -0.000746713601984083652496337891 0 0 0 0 
2401500000.0000000000 0.173635378479957608321981865629 0.034151256084442138671875000000 -0.002637719735503197149989462744 -0.000372406357200816273689270020 0 0 0 0 
2401666666.6666665077 0.173549354076385498046875000000 0.033449452370405197143554687500 -0.002571980236098169846775673975 -0.000320688239298760890960693359 0 0 0 0 
2401833333.3333334923 0.173250466585159301757812500000 0.032811537384986877441406250000 -0.002572887577116488976719521631 -0.000277281651506200378567296161 0 0 0 0 
2402000000.0000000000 0.172993272542953491210937500000 0.032156992703676216815988908593 -0.002483682474121450944187783350 -0.000068804285547230392694473267 0 0 0 0 
2402166666.6666665077 0.172818571329116793533486884371 0.031038640066981319082239920704 -0.002340169157832860946655273438 0.000127534949569962891653338022 0 0 0 0 
2402333333.3333334923 0.172545775771141107757244981258 0.030345436185598369943638985546 -0.002154051791876554922816611182 0.000153358050738461288526812143 0 0 0 0 
2402500000.0000000000 0.172482535243034390548544365629 0.029514599591493610036829764454 -0.002103751059621572928187704932 0.000246150681050494313240051270 0 0 0 0 
2402666666.6666665077 0.172177165746688787262286268742 0.028621979057788848876953125000 -0.001997910207137465910670615088 0.000468233600258827209472656250 0 0 0 0 
2402833333.3333334923 0.171736657619476290603799384371 0.027692813426256179809570312500 -0.001819968805648386912104941260 0.000545433373190462589263916016 0 0 0 0 
2403000000.0000000000 0.171495586633682306487713731258 0.026666529476642608642578125000 -0.001651484635658561966539692456 0.000459696544567123109668177472 0 0 0 0 
2403166666.6666665077 0.171201884746551513671875000000 0.025524912402033809316614920704 -0.001596322632394731044769287109 0.000418722891481593305438441144 0 0 0 0 
2403333333.3333334923 0.170867666602134704589843750000 0.024394484236836429941197579296 -0.001443053013645112948176718604 0.000379431090550497174263000488 0 0 0 0 
2403500000.0000000000 0.170489758253097506424111884371 0.023191334679722789419153983204 -0.001157920458354056098340678638 0.000345861742971464991569519043 0 0 0 0 
2403666666.6666665077 0.170246109366416903396768134371 0.021724577993154529226282889454 -0.001150767086073756001116108472 0.000069707864895462989807128906 0 0 0 0 
2403833333.3333334923 0.169861137866973904708700615629 0.020297864452004429208775704296 -0.001165936584584414958953857422 -0.000019717808754649009892736741 0 0 0 0 
2404000000.0000000000 0.169591277837753295898437500000 0.019079905003309249877929687500 -0.001125877606682478947880410303 -0.000273241836111992597579956055 0 0 0 0 
2404166666.6666665077 0.169159114360809298416299384371 0.017457546666264530527135079296 -0.001076726010069251060485839844 -0.000366771855624392574459630145 0 0 0 0 
2404333333.3333334923 0.168954715132713290115518134371 0.016197524964809421194056326954 -0.000863177760038524866104125977 -0.000490923586767166852951049805 0 0 0 0 
2404500000.0000000000 0.168652012944221496582031250000 0.014319914393126969773262224805 -0.001030760467983782074571919019 -0.000714799447450786828994750977 0 0 0 0 
2404666666.6666665077 0.168379887938499506194744981258 0.012791162356734279287318045704 -0.001215729513205588080762553638 -0.000741255003958940505981445312 0 0 0 0 
2404833333.3333334923 0.168356835842132596114950615629 0.011121616698801519221295741602 -0.001274143345654010989545512622 -0.000904051878023892641067504883 0 0 0 0 
2405000000.0000000000 0.168202519416809109786825615629 0.009370784275233745574951171875 -0.001438920968212187073351215894 -0.000934394192881882190704345703 0 0 0 0 
2405166666.6666665077 0.168100029230117797851562500000 0.007634719368070363998413085938 -0.001692095771431922912597656250 -0.001095102983526885943171835791 0 0 0 0 
2405333333.3333334923 0.168085187673568697830361884371 0.005740975495427846908569335938 -0.001985381124541163010838173975 -0.001182246021926403045654296875 0 0 0 0 
2405500000.0000000000 0.167990505695342989822549384371 0.004038478713482618331909179688 -0.001920519280247390053392719800 -0.001254498842172325091121054541 0 0 0 0 
2405666666.6666665077 0.167931988835334805587606865629 0.002115064067766069932224892725 -0.002338510705158113999607705225 -0.001188604743219912052154541016 0 0 0 0 
2405833333.3333334923 0.167852208018302889724893134371 0.000386151426937431097030639648 -0.002496800385415554046630859375 -0.001007948303595185063005756909 0 0 0 0 
2406000000.0000000000 0.167898342013359097579794365629 -0.001614798093214631080627441406 -0.002908256137743591828587197412 -0.000999215408228337764739990234 0 0 0 0 
2406166666.6666665077 0.167791575193405206878338731258 -0.003398406784981489181518554688 -0.003042794298380612893345498193 -0.000788882607594132423400878906 0 0 0 0 
2406333333.3333334923 0.167950972914695711990518134371 -0.005281036719679833325857831738 -0.003177055390551685853245400537 -0.000583021959755569696426391602 0 0 0 0 
2406500000.0000000000 0.167803898453712491134481865629 -0.007139176595956087112426757812 -0.003395915031433105902430868994 -0.000331289600580930709838867188 0 0 0 0 
2406666666.6666665077 0.167612880468368502517861884371 -0.008732959628105163574218750000 -0.003691030666232109069824218750 -0.000213422405067831304952344351 0 0 0 0 
2406833333.3333334923 0.167752638459205599685830634371 -0.010551016777753829956054687500 -0.003714924445375800132751464844 -0.000202865019673481610700330191 0 0 0 0 
2407000000.0000000000 0.167818233370780889313067518742 -0.012043450959026810037633126171 -0.003818412311375141143798828125 0.000157594520715065300464630127 0 0 0 0 
2407166666.6666665077 0.167993053793907193282919365629 -0.013480200432240959512730782421 -0.003747643437236547903773642432 0.000577124126721173524856567383 0 0 0 0 
2407333333.3333334923 0.167839542031288202483807481258 -0.015145885758101940155029296875 -0.003891915781423449949977255713 0.000842568406369537115097045898 0 0 0 0 
2407500000.0000000000 0.167934149503707913497763115629 -0.016408257186412811279296875000 -0.003914458677172660827636718750 0.001207465422339736981632851709 0 0 0 0 
2407666666.6666665077 0.168003275990486200530682481258 -0.017696799710392948495885079296 -0.003955001942813397321219159863 0.001468617236241698048235249097 0 0 0 0 
2407833333.3333334923 0.167951956391334505935830634371 -0.019075045362114909780482108204 -0.003863174933940172195434570312 0.001742872060276567935943603516 0 0 0 0 
2408000000.0000000000 0.168237790465354891678018134371 -0.020049329847097400320032889454 -0.003821793012320994897129677881 0.002068591071292757987976074219 0 0 0 0 
2408166666.6666665077 0.168242812156677301604901231258 -0.020932335406541820871373360546 -0.003501419909298419952392578125 0.002263388130813837051391601562 0 0 0 0 
2408333333.3333334923 0.168739616870880099197549384371 -0.021822491660714149475097656250 -0.003345157951116561889648437500 0.002560461172834039168116904150 0 0 0 0 
2408500000.0000000000 0.168905228376388605315838731258 -0.022849779576063159597376639454 -0.003168625524267553849461220850 0.002696494571864604949951171875 0 0 0 0 
2408666666.6666665077 0.169122844934463500976562500000 -0.023795727640390399587611014454 -0.003128883661702274842503213037 0.002898673526942729949951171875 0 0 0 0 
2408833333.3333334923 0.169396743178367586990518134371 -0.024435287341475490224818045704 -0.002828893251717091040370322119 0.003132976358756422996520996094 0 0 0 0 
2409000000.0000000000 0.169695630669593811035156250000 -0.025104405358433719980260079296 -0.002632592571899294853210449219 0.003208057954907416863682412256 0 0 0 0 
2409166666.6666665077 0.170198068022727994064169365629 -0.025909822434186938894251639454 -0.002515450119972229003906250000 0.003387050004675983948948525537 0 0 0 0 
2409333333.3333334923 0.170595705509185791015625000000 -0.026860384270548820495605468750 -0.002244636416435242132899618994 0.003412092337384819984436035156 0 0 0 0 
2409500000.0000000000 0.170752733945846613128338731258 -0.027483722195029258728027343750 -0.002008873037993907928466796875 0.003440717002376914024353027344 0 0 0 0 
2409666666.6666665077 0.171004384756088312347088731258 -0.028216365724802020681361014454 -0.001737584359943866946576762622 0.003615914145484567122218466650 0 0 0 0 
2409833333.3333334923 0.171301439404487609863281250000 -0.028775537386536601675013358204 -0.001597152790054678916931152344 0.003599425312131642861607216943 0 0 0 0 
2410000000.0000000000 0.171466201543808011154013115629 -0.029557140544056888925572579296 -0.001430601696483791091321635669 0.003691404825076460838317871094 0 0 0 0 
2410166666.6666665077 0.171673476696014404296875000000 -0.030194062739610668527623360546 -0.001142143737524748065351176685 0.003566198749467730955836630713 0 0 0 0 
2410333333.3333334923 0.171540677547454806228799384371 -0.030951475724577900278111641796 -0.000920525053516030311584472656 0.003587628947570919990539550781 0 0 0 0 
2410500000.0000000000 0.171638086438178988357705634371 -0.031732402741909027099609375000 -0.000849006755743175853430593225 0.003631523111835122108459472656 0 0 0 0 
2410666666.6666665077 0.171593472361564608474893134371 -0.032383725047111511230468750000 -0.000743068580050021409988403320 0.003480154788121581077575683594 0 0 0 0 
2410833333.3333334923 0.171609327197074890136718750000 -0.032875932753086090087890625000 -0.000559959036763757467269897461 0.003504809923470019860508584131 0 0 0 0 
2411000000.0000000000 0.171332612633705111404580634371 -0.033598586916923522949218750000 -0.000426057202275842373997288837 0.003498550038784741921665810693 0 0 0 0 
2411166666.6666665077 0.170969396829605102539062500000 -0.034308277070522308349609375000 -0.000492116319946944713592529297 0.003521546488627790971043252100 0 0 0 0 
2411333333.3333334923 0.170816212892532404143963731258 -0.034762602299451828002929687500 -0.000397101015551015680462437762 0.003510887967422604994532919775 0 0 0 0 
2411500000.0000000000 0.170445933938026400467080634371 -0.035573642700910568237304687500 -0.000187438912689685794428148813 0.003753426950424910025355673682 0 0 0 0 
2411666666.6666665077 0.170116215944290188888388115629 -0.036229729652404792095143903907 -0.000051111102948198101740290983 0.003740133950486779212951660156 0 0 0 0 
2411833333.3333334923 0.169715523719787597656250000000 -0.036669757217168807983398437500 -0.000000070811523755764937959611 0.003689580364152789115905761719 0 0 0 0 
2412000000.0000000000 0.169405728578567504882812500000 -0.037554800510406487201731096093 0.000107088715594727600186747418 0.003642863128334283828735351562 0 0 0 0 
2412166666.6666665077 0.168884649872779901702557481258 -0.038340289145708077167551408593 0.000409179017879068905681055890 0.003573716152459383010864257812 0 0 0 0 
2412333333.3333334923 0.168709501624107388595419365629 -0.039029289036989212036132812500 0.000438186340034008026123046875 0.003865938633680344061610556494 0 0 0 0 
2412500000.0000000000 0.167921736836433410644531250000 -0.039797309786081307148020158593 0.000804354494903236627578735352 0.003737507620826363997218466650 0 0 0 0 
2412666666.6666665077 0.167382702231407193282919365629 -0.040879618376493447040598283593 0.001056895358487963893293071216 0.003757192753255366845371865381 0 0 0 0 
2412833333.3333334923 0.166808262467384310623330634371 -0.041645493358373641967773437500 0.001241341698914766094805073315 0.003725929884240030808689736475 0 0 0 0 
2413000000.0000000000 0.166155517101287786285723768742 -0.042604278773069381713867187500 0.001583629637025296904920268481 0.003478698898106812997105263818 0 0 0 0 
2413166666.6666665077 0.165498003363609286209268134371 -0.043495140969753272319753278907 0.001748522045090794996974326025 0.003480227198451756997349404443 0 0 0 0 
2413333333.3333334923 0.164687603712081909179687500000 -0.044681873172521591186523437500 0.001957047265022993087768554688 0.003261135891079903082606650244 0 0 0 0 
2413500000.0000000000 0.164033502340316800216513115629 -0.045789584517478942871093750000 0.002118287142366170883178710938 0.003141129622235894203186035156 0 0 0 0 
2413666666.6666665077 0.163397654891014099121093750000 -0.046840250492095947265625000000 0.002184915589168667793273925781 0.002779008820652962164637900244 0 0 0 0 
2413833333.3333334923 0.162770807743072509765625000000 -0.047812737524509429931640625000 0.002379014622420072989222861182 0.002562330802902578873875283350 0 0 0 0 
2414000000.0000000000 0.161982208490371704101562500000 -0.049004100263118736957590471093 0.002525541931390761895420693506 0.002303594257682561874389648438 0 0 0 0 
2414166666.6666665077 0.161341801285743713378906250000 -0.049933139234781272197682966407 0.002392092952504754066467285156 0.002329961396753787994384765625 0 0 0 0 
2414333333.3333334923 0.160893499851226806640625000000 -0.051258254796266562725026716407 0.002463310724124311967137002100 0.002083058468997478918788290869 0 0 0 0 
2414500000.0000000000 0.160406634211540194412393134371 -0.052145566791296012187917341407 0.002370502101257442994358681787 0.001835206290706991932512592847 0 0 0 0 
2414666666.6666665077 0.159890666604042108733807481258 -0.053313009440898902202565778907 0.002320289146155118942260742188 0.001735910656861961104749370044 0 0 0 0 
2414833333.3333334923 0.159457027912139892578125000000 -0.054631091654300689697265625000 0.002254464197903871969935751807 0.001760867424309253909467387622 0 0 0 0 
2415000000.0000000000 0.159133583307266207595986884371 -0.055874399840831756591796875000 0.002378791105002164840698242188 0.001536697382107377052307128906 0 0 0 0 
2415166666.6666665077 0.158684983849525507171307481258 -0.057121045887470252300222028907 0.002259095432236791090724326025 0.001504906103946268992183066260 0 0 0 0 
2415333333.3333334923 0.158569306135177612304687500000 -0.058495268225669860839843750000 0.002309120725840330123901367188 0.001414318103343247933628701318 0 0 0 0 
2415500000.0000000000 0.158252805471420288085937500000 -0.059906683862209320068359375000 0.002204853342846035957336425781 0.001288658124394715049146342700 0 0 0 0 
2415666666.6666665077 0.158113852143287686446981865629 -0.061181217432022101665456403907 0.002264803275465964837315224756 0.001178269507363439039943076025 0 0 0 0 
2415833333.3333334923 0.157908111810684204101562500000 -0.062751881778240203857421875000 0.002196473767980933189392089844 0.001192186959087849097010947119 0 0 0 0 
2416000000.0000000000 0.157485067844390896896200615629 -0.064207695424556732177734375000 0.002184097887948154969456338037 0.001113036414608358903172158350 0 0 0 0 
2416166666.6666665077 0.157504931092262295821981865629 -0.065507799386978149414062500000 0.002115801209583878950831747900 0.001032891799695790030835795825 0 0 0 0 
2416333333.3333334923 0.157257094979286193847656250000 -0.067090004682540893554687500000 0.002271253149956465201136923682 0.000943737803027033805847167969 0 0 0 0 
2416500000.0000000000 0.157177790999412508865518134371 -0.068503282964229583740234375000 0.002299460116773844198939658057 0.000912026967853307723999023438 0 0 0 0 
2416666666.6666665077 0.156852990388870211502236884371 -0.069803155958652496337890625000 0.002302630338817834854125976562 0.000839982181787490844726562500 0 0 0 0 
2416833333.3333334923 0.156720668077468899825888115629 -0.071334205567836761474609375000 0.002175900153815745873692177881 0.000688843138050287961959838867 0 0 0 0 
2417000000.0000000000 0.156370520591735812088174384371 -0.072608649730682373046875000000 0.002168275183066726164576865088 0.000703911588061600923538208008 0 0 0 0 
2417166666.6666665077 0.156232163310050992111044365629 -0.073714986443519592285156250000 0.002279277425259352164027548682 0.000702145858667790889739990234 0 0 0 0 
2417333333.3333334923 0.156012222170829800704794365629 -0.074790462851524353027343750000 0.002239758614450693130493164062 0.000534193764906376600265502930 0 0 0 0 
2417500000.0000000000 0.155908137559890802581463731258 -0.076121658086776733398437500000 0.002131519606336950822117470850 0.000443529657786712104648035870 0 0 0 0 
2417666666.6666665077 0.155888870358467102050781250000 -0.077051483094692230224609375000 0.002102505648508667945861816406 0.000393864960642531514167785645 0 0 0 0 
2417833333.3333334923 0.155780121684074401855468750000 -0.077947147190570831298828125000 0.002028398681432009176967001807 0.000411818327847868204116821289 0 0 0 0 
2418000000.0000000000 0.155498564243316705901776231258 -0.079003714025020599365234375000 0.002099186182022095160243368994 0.000464232260128483176231384277 0 0 0 0 
2418166666.6666665077 0.155429124832153292556924384371 -0.079769060015678405761718750000 0.002065177075564860863926552881 0.000305034162010997479588109149 0 0 0 0 
2418333333.3333334923 0.155665948987007113357705634371 -0.080726027488708496093750000000 0.001983941299840807914733886719 0.000243572969338856610372820444 0 0 0 0 
2418500000.0000000000 0.155537590384483309646768134371 -0.081434361636638641357421875000 0.001968037104234098954441689600 0.000422972021624445915222167969 0 0 0 0 
2418666666.6666665077 0.155498355627059908767861884371 -0.082253202795982360839843750000 0.002008194802328944206237792969 0.000128814222989603904172620230 0 0 0 0 
2418833333.3333334923 0.155247271060943603515625000000 -0.082857355475425720214843750000 0.002048289170488715171813964844 0.000172162224771454903200426645 0 0 0 0 
2419000000.0000000000 0.155119046568870488922442518742 -0.083612807095050811767578125000 0.002108733868226408958435058594 0.000226583113544620600625714713 0 0 0 0 
2419166666.6666665077 0.155057564377784701248330634371 -0.084221184253692626953125000000 0.001975328195840119881870888818 0.000169713370269164388805943622 0 0 0 0 
2419333333.3333334923 0.154824763536453302581463731258 -0.084546193480491638183593750000 0.001955554122105240821838378906 0.000154621520778164294645032339 0 0 0 0 
2419500000.0000000000 0.154756531119346590896768134371 -0.085230335593223571777343750000 0.001973975682631134986877441406 0.000173845721292309490129193716 0 0 0 0 
2419666666.6666665077 0.154583662748336791992187500000 -0.085892520844936370849609375000 0.001976762898266315893885947119 -0.000031700517865829169750213623 0 0 0 0 
2419833333.3333334923 0.154126912355423001388388115629 -0.085961282253265380859375000000 0.002019920619204639954807900537 -0.000014356922292790839617150460 0 0 0 0 
