# Hz S RI R 50
2400000000.0000000000 0.168879434466361999511718750000 0.045888718217611312866210937500 -0.005123957991600036621093750000 0.001016147783957421996473002856 0 0 0 0 
2400166666.6666665077 0.169889658689498901367187500000 0.044791158288717269897460937500 -0.005059889052063226699829101562 0.001062263501808047077776264722 0 0 0 0 
2400333333.3333334923 0.170765176415443392654580634371 0.043774899095296859741210937500 -0.004924025852233172330374433301 0.001238672179169953086255717700 0 0 0 0 
2400500000.0000000000 0.171920761466026306152343750000 0.042601052671670906757395158593 -0.004865330178290606412405683301 0.001255148206837475082994770581 0 0 0 0 
2400666666.6666665077 0.172719389200210599044638115629 0.041724566370248801494557966407 -0.004635895602405071258544921875 0.001358424895443022034288715894 0 0 0 0 
2400833333.3333334923 0.173542454838752802093182481258 0.041116215288639068603515625000 -0.004660174716264010343069745801 0.001293330104090272946598672021 0 0 0 0 
2401000000.0000000000 0.174407452344894409179687500000 0.040189579129219062114675153907 -0.004411396104842424392700195312 0.001475378056056797938105917822 0 0 0 0 
2401166666.6666665077 0.175268396735191400725994981258 0.039447259157896041870117187500 -0.004427548963576555252075195312 0.001563044381327926895738911206 0 0 0 0 
2401333333.3333334923 0.176052749156951904296875000000 0.038862146437168121337890625000 -0.004242520313709974288940429688 0.001563175464980304024339985425 0 0 0 0 
2401500000.0000000000 0.176770135760307312011718750000 0.038183420896530151367187500000 -0.004188589286059141159057617188 0.001659502158872782967211079175 0 0 0 0 
2401666666.6666665077 0.177431881427764892578125000000 0.037549473345279686664621721093 -0.004081406164914369583129882812 0.001665901276282965920091938550 0 0 0 0 
2401833333.3333334923 0.177960783243179293533486884371 0.036894515156745910644531250000 -0.004061520099639892578125000000 0.001686049159616231918334960938 0 0 0 0 
2402000000.0000000000 0.178248390555381802657919365629 0.036326110363006591796875000000 -0.004004586022347211837768554688 0.001959090819582343101501464844 0 0 0 0 
2402166666.6666665077 0.178811877965927096267861884371 0.035561885684728622436523437500 -0.004013570956885814666748046875 0.001962586306035519079921103369 0 0 0 0 
2402333333.3333334923 0.179082825779914911468182481258 0.034882232546806342388112653907 -0.003735986771062016920802451025 0.002005772897973657088038779150 0 0 0 0 
2402500000.0000000000 0.179774671792984008789062500000 0.034584693610668182373046875000 -0.003674356732517480850219726562 0.002170845633372664885279990088 0 0 0 0 
2402666666.6666665077 0.179748639464378412444744981258 0.033796280622482299804687500000 -0.003772773547098041014430380713 0.002202905248850584030151367188 0 0 0 0 
2402833333.3333334923 0.180035904049873407561932481258 0.033255569636821746826171875000 -0.003614470362663269042968750000 0.002369850873947143988368368994 0 0 0 0 
2403000000.0000000000 0.179941475391387911697549384371 0.032326929271221160888671875000 -0.003651779377833009199855185400 0.002328979084268211884739541162 0 0 0 0 
2403166666.6666665077 0.179975643754005404373330634371 0.031564109027385711669921875000 -0.003506966168060899214503622900 0.002350072609260677857639931787 0 0 0 0 
2403333333.3333334923 0.179857254028320312500000000000 0.030977802351117130624791329296 -0.003474276047199964956996298682 0.002381913829594850973842001807 0 0 0 0 
2403500000.0000000000 0.179496482014656094650106865629 0.029951086267828941345214843750 -0.003281465265899897055384970557 0.002640456194058061079737997900 0 0 0 0 
2403666666.6666665077 0.179243147373199490646200615629 0.028797775506973270071009451954 -0.003165377536788582801818847656 0.002661862177774310111999511719 0 0 0 0 
2403833333.3333334923 0.178982436656951904296875000000 0.027913225814700130117396170704 -0.003141997149214148955104208838 0.002717544790357350869419716943 0 0 0 0 
2404000000.0000000000 0.178692713379859896560830634371 0.026858732104301449167271798046 -0.003316936315968633131739951025 0.002881464315578341917750693213 0 0 0 0 
2404166666.6666665077 0.178179070353507995605468750000 0.025644669309258460998535156250 -0.002900993917137383980991982568 0.002936126664280890984776162256 0 0 0 0 
2404333333.3333334923 0.177772626280784606933593750000 0.024453740566968921316126639454 -0.002938608173280953927281045068 0.002811725949868559837341308594 0 0 0 0 
2404500000.0000000000 0.177303314208984402755575615629 0.023022107779979709279993826954 -0.002931691939011216163635253906 0.002992560854181646867039345850 0 0 0 0 
2404666666.6666665077 0.176873266696929903885049384371 0.021654419600963589059849923046 -0.002735247369855641885044716943 0.003013615496456623077392578125 0 0 0 0 
2404833333.3333334923 0.176323086023330688476562500000 0.020380983129143718374232108204 -0.002641995437443255944492959131 0.003084509633481502966639853369 0 0 0 0 
2405000000.0000000000 0.175787329673767089843750000000 0.018854497000575069082239920704 -0.002489007310941814942600869287 0.003106739139184356169459677588 0 0 0 0 
2405166666.6666665077 0.175312340259552001953125000000 0.017205925658345219003697579296 -0.002429258543998003005981445312 0.003254004754126071929931640625 0 0 0 0 
2405333333.3333334923 0.174921378493308993240518134371 0.015643831342458728445032889454 -0.002293324563652276992797851562 0.003255312331020832061767578125 0 0 0 0 
2405500000.0000000000 0.174360901117324801345986884371 0.014118284918367859231969063671 -0.002252001082524656815769814600 0.003215976525098084969761513818 0 0 0 0 
2405666666.6666665077 0.174063548445701599121093750000 0.012383677065372470510462576954 -0.002253207843750714822056435693 0.003303919686004519896266318213 0 0 0 0 
2405833333.3333334923 0.173530817031860407073651231258 0.010668115690350530797014805273 -0.002221747301518917083740234375 0.003338050795719027952906943213 0 0 0 0 
2406000000.0000000000 0.173478052020072909256143134371 0.008672569878399372100830078125 -0.001986017683520913124084472656 0.003349140286445618109462118994 0 0 0 0 
2406166666.6666665077 0.172877654433250399490518134371 0.006950181443244218826293945312 -0.001944037619978189902064658057 0.003503457410261034965515136719 0 0 0 0 
2406333333.3333334923 0.172969132661819513518963731258 0.004928013309836387634277343750 -0.001777846366167068915126181494 0.003428580705076456069946289062 0 0 0 0 
2406500000.0000000000 0.172551527619361905196981865629 0.002936436561867595152613974463 -0.001855779788456856987596821362 0.003604999044910072846653603662 0 0 0 0 
2406666666.6666665077 0.172605827450752313811932481258 0.001041258918121457099914550781 -0.001729992451146245002746582031 0.003460651962086557908299111475 0 0 0 0 
2406833333.3333334923 0.172530636191368103027343750000 -0.001029816456139087893842387622 -0.001603657496161758899688720703 0.003439388470724225044250488281 0 0 0 0 
2407000000.0000000000 0.172695994377136202713174384371 -0.003200669540092349052429199219 -0.001507638371549546935437846606 0.003685486270114779906031943213 0 0 0 0 
2407166666.6666665077 0.172849535942077608963174384371 -0.005154196638613939285278320312 -0.001360140624456108050105429541 0.003740072716027497811558388818 0 0 0 0 
2407333333.3333334923 0.172942772507667513748330634371 -0.007444524206221103668212890625 -0.001347343437373637936235737378 0.003634884022176266150233603369 0 0 0 0 
2407500000.0000000000 0.173095583915710504729901231258 -0.009376971982419490814208984375 -0.001332900952547789053675986182 0.003787464229390025138854980469 0 0 0 0 
2407666666.6666665077 0.173399925231933593750000000000 -0.011473059654235839843750000000 -0.001311573782004415988922119141 0.003823971375823020935058593750 0 0 0 0 
2407833333.3333334923 0.173628136515617398361044365629 -0.013754052110016349447230155079 -0.001054267631843686103820800781 0.003939543385058640566354082324 0 0 0 0 
2408000000.0000000000 0.173960626125335693359375000000 -0.015715630725026130676269531250 -0.001008534803986548943760537256 0.003898235270753502845764160156 0 0 0 0 
2408166666.6666665077 0.174428150057792691329794365629 -0.017708040773868560791015625000 -0.000906321394722908735275268555 0.003953516948968172073364257812 0 0 0 0 
2408333333.3333334923 0.174893841147422790527343750000 -0.019749311730265620840052420704 -0.000644376676063984632492065430 0.003880114061757922172546386719 0 0 0 0 
2408500000.0000000000 0.175206542015075711349325615629 -0.021740306168794628488560860546 -0.000592365860939025878906250000 0.004016804508864879608154296875 0 0 0 0 
2408666666.6666665077 0.175545394420623807052450615629 -0.023592939600348469125767891796 -0.000366238964488729780346470966 0.003992267884314060211181640625 0 0 0 0 
2408833333.3333334923 0.175913900136947604080361884371 -0.025307547301054000854492187500 -0.000390535395126789808273315430 0.004079247359186410903930664062 0 0 0 0 
2409000000.0000000000 0.176333770155906705001669365629 -0.026981724426150318491002266796 -0.000218378816498443511411389761 0.004016230814158917340750409863 0 0 0 0 
2409166666.6666665077 0.176782846450805691818075615629 -0.028625907376408580434778983204 -0.000148518345667980611324310303 0.004014924634248018264770507812 0 0 0 0 
2409333333.3333334923 0.177298828959464999099893134371 -0.030071036890149119985560233204 -0.000019410357708693478593622514 0.004007693845778703689575195312 0 0 0 0 
2409500000.0000000000 0.177829399704933194259481865629 -0.031591087579727172851562500000 0.000127143852296285304144182748 0.003960264381021261215209960938 0 0 0 0 
2409666666.6666665077 0.178006902337074307540731865629 -0.032636392861604690551757812500 0.000270470191026106476783752441 0.003952967468649148941040039062 0 0 0 0 
2409833333.3333334923 0.178344443440437289138955634371 -0.033827096223831176757812500000 0.000358079269062727689743041992 0.003875062335282564163208007812 0 0 0 0 
2410000000.0000000000 0.178968131542205810546875000000 -0.034768912941217422485351562500 0.000310560484649613499641418457 0.003917329479008913040161132812 0 0 0 0 
2410166666.6666665077 0.179441839456558199783486884371 -0.035695109516382217407226562500 0.000354146352037787383228856219 0.003935363143682479858398437500 0 0 0 0 
2410333333.3333334923 0.179828315973281888107138115629 -0.036659341305494308471679687500 0.000695990107487887144088745117 0.003886238671839237213134765625 0 0 0 0 
2410500000.0000000000 0.180263027548790005782919365629 -0.037260357290506362915039062500 0.000727433362044394016265869141 0.004029651638120412826538085938 0 0 0 0 
2410666666.6666665077 0.180576488375663812835369981258 -0.038176670670509338378906250000 0.000806205614935606718063354492 0.003862148150801659064051962744 0 0 0 0 
2410833333.3333334923 0.181101918220519991775674384371 -0.038624282926321029663085937500 0.000962524325586855411529541016 0.003981920890510082244873046875 0 0 0 0 
2411000000.0000000000 0.181292951107025201995526231258 -0.039356637746095657348632812500 0.001197729026898741938947368091 0.003881765529513359069824218750 0 0 0 0 
2411166666.6666665077 0.181621566414833096603231865629 -0.039765048772096626972238908593 0.001267154701054096005083393628 0.003932585474103689193725585938 0 0 0 0 
2411333333.3333334923 0.181738823652267511565838731258 -0.040241695940494537353515625000 0.001420226646587253050563193213 0.003856518305838108062744140625 0 0 0 0 
2411500000.0000000000 0.181833252310752896407919365629 -0.041017178446054458618164062500 0.001584948040544986941693950122 0.003815348958596587181091308594 0 0 0 0 
2411666666.6666665077 0.182108312845230102539062500000 -0.041372109204530722881276716407 0.001555354916490613980534218896 0.003794503631070255799534463037 0 0 0 0 
2411833333.3333334923 0.181631594896316500564736884371 -0.041505806148052222515065778907 0.001723048393614589951158833081 0.003777470905333756966831826318 0 0 0 0 
2412000000.0000000000 0.181747242808342007736044365629 -0.042083382606506347656250000000 0.001839135307818650982500385815 0.003691317979246377944946289062 0 0 0 0 
2412166666.6666665077 0.181328207254409790039062500000 -0.042442623525857932353932966407 0.002017089864239097075221396338 0.003514762502163649039027548682 0 0 0 0 
2412333333.3333334923 0.181221589446067810058593750000 -0.042659632861614227294921875000 0.002231919206678866906407021631 0.003491953480988740921020507812 0 0 0 0 
2412500000.0000000000 0.180598482489585904220419365629 -0.043061062693595893169362653907 0.002123052719980477853062295068 0.003374270861968398094177246094 0 0 0 0 
2412666666.6666665077 0.179935544729232788085937500000 -0.043700207024812698364257812500 0.002502811374142765998840332031 0.003394451923668384985682822119 0 0 0 0 
2412833333.3333334923 0.179391086101532010177450615629 -0.043905224651098251342773437500 0.002555920043960214094874716650 0.003301902208477259115931845557 0 0 0 0 
2413000000.0000000000 0.178691178560257013518963731258 -0.044385824352502822875976562500 0.002837381558492780165431357275 0.003255060873925685882568359375 0 0 0 0 
2413166666.6666665077 0.177933230996131896972656250000 -0.044777873903512961650807966407 0.002709299093112349943873740088 0.003016480477526783943176269531 0 0 0 0 
2413333333.3333334923 0.176994845271110506912393134371 -0.045101068913936621929128278907 0.002752781147137283845188759912 0.002995349932461977005004882812 0 0 0 0 
2413500000.0000000000 0.176109895110130310058593750000 -0.045615755021572113037109375000 0.002919515594840050177333212744 0.002867481671273707909824990381 0 0 0 0 
2413666666.6666665077 0.174972712993621798416299384371 -0.046279121190309531475026716407 0.003000885946676135063171386719 0.002718325005844234986546181787 0 0 0 0 
2413833333.3333334923 0.174035519361495999435263115629 -0.046817794442176818847656250000 0.002939356258139013810398720850 0.002650486771017313003540039062 0 0 0 0 
2414000000.0000000000 0.172711238265037508865518134371 -0.047435153275728232646901716407 0.003131926059722899956944131006 0.002471925457939506010768271338 0 0 0 0 
2414166666.6666665077 0.171477809548377990722656250000 -0.048035234212875373149831403907 0.003220602637156844139099121094 0.002477729227393866019008017432 0 0 0 0 
2414333333.3333334923 0.170323774218559292892294365629 -0.048871442675590522075612653907 0.003197035985067487196681357275 0.002431188011541963057277060400 0 0 0 0 
2414500000.0000000000 0.169445216655731201171875000000 -0.049705568701028816913645158593 0.002993968315422534942626953125 0.002059261314570904211757040869 0 0 0 0 
2414666666.6666665077 0.168088451027870205978231865629 -0.050668038427829742431640625000 0.003010892076417804198024130713 0.002070311922580004172084189307 0 0 0 0 
2414833333.3333334923 0.166642099618911687652911268742 -0.051762837916612632060964216407 0.003261754056438804106471396338 0.002028751885518432097194052588 0 0 0 0 
2415000000.0000000000 0.165541082620620699783486884371 -0.052833471447229392314870466407 0.003177935257554053826573037256 0.001980663975700736045837402344 0 0 0 0 
2415166666.6666665077 0.164334386587142888824786268742 -0.053925201296806342388112653907 0.003214666619896889166591025244 0.001779906102456152005436562646 0 0 0 0 
2415333333.3333334923 0.163363218307495089431924384371 -0.055397611111402511596679687500 0.003227850887924433188197470557 0.001587910344824194908142089844 0 0 0 0 
2415500000.0000000000 0.162060678005218505859375000000 -0.056773830205202102661132812500 0.003262958489358425140380859375 0.001641719136387109973310161060 0 0 0 0 
2415666666.6666665077 0.160866439342498807052450615629 -0.058162763714790337299387346093 0.003357060020789504051208496094 0.001592259272001683928846049731 0 0 0 0 
2415833333.3333334923 0.159894049167633112151776231258 -0.059715617448091506958007812500 0.003330820938572287993190146338 0.001685072551481425979016948169 0 0 0 0 
2416000000.0000000000 0.158600270748138399978799384371 -0.061438340693712227558176408593 0.003288961248472332954406738281 0.001638057292439043955561972510 0 0 0 0 
2416166666.6666665077 0.157862693071365411956463731258 -0.063135951757431030273437500000 0.003374363528564571900608681787 0.001475319033488631031633686597 0 0 0 0 
2416333333.3333334923 0.156775310635566711425781250000 -0.064841859042644500732421875000 0.003470246447250247001647949219 0.001325165736488997936248779297 0 0 0 0 
2416500000.0000000000 0.155852258205413790603799384371 -0.066737331449985504150390625000 0.003466526744887233214137411963 0.001370834303088485977770161206 0 0 0 0 
2416666666.6666665077 0.154831096529960604568643134371 -0.068384617567062377929687500000 0.003429231466725469069239951025 0.001120009925216435952427529443 0 0 0 0 
2416833333.3333334923 0.154063165187835693359375000000 -0.070468679070472717285156250000 0.003548355540260673002955771338 0.001254813629202544906018901294 0 0 0 0 
2417000000.0000000000 0.153236225247383089920205634371 -0.072500444948673248291015625000 0.003476628568023442788365029443 0.001106792944483458995819091797 0 0 0 0 
2417166666.6666665077 0.152528941631317110916299384371 -0.074188478291034698486328125000 0.003618171438574790954589843750 0.001167401089332998015760112231 0 0 0 0 
2417333333.3333334923 0.151905983686447088043536268742 -0.076076589524745941162109375000 0.003614389570429921150207519531 0.000940070603974163532257080078 0 0 0 0 
2417500000.0000000000 0.151274472475051907638388115629 -0.078232370316982269287109375000 0.003701991867274045944213867188 0.000962611695285886526107788086 0 0 0 0 
2417666666.6666665077 0.150851726531982394119424384371 -0.079902648925781250000000000000 0.003805720247328280968907021631 0.000793813727796077728271484375 0 0 0 0 
2417833333.3333334923 0.150414556264877291580361884371 -0.081686086952686309814453125000 0.003792097559198737144470214844 0.000714785244781523942947387695 0 0 0 0 
2418000000.0000000000 0.150026261806488009353799384371 -0.083589874207973480224609375000 0.003876592498272656960728310693 0.000671155226882547140121459961 0 0 0 0 
2418166666.6666665077 0.149687215685844393631143134371 -0.085077770054340362548828125000 0.003926936537027359008789062500 0.000547891366295516490936279297 0 0 0 0 
2418333333.3333334923 0.149675384163856506347656250000 -0.086964353919029235839843750000 0.004154531750828027725219726562 0.000479791837278753519058227539 0 0 0 0 
2418500000.0000000000 0.149370849132537786285723768742 -0.088382668793201446533203125000 0.004044020082801580429077148438 0.000411223008995875716209411621 0 0 0 0 
2418666666.6666665077 0.149384722113609286209268134371 -0.090060308575630187988281250000 0.004175539128482341766357421875 0.000323305896017700379520970477 0 0 0 0 
2418833333.3333334923 0.149179637432098388671875000000 -0.091530129313468933105468750000 0.004217091482132673263549804688 0.000150154490256682011202135629 0 0 0 0 
2419000000.0000000000 0.149140715599060086349325615629 -0.092745877802371978759765625000 0.004337858874350786209106445312 -0.000007052705313981277868151665 0 0 0 0 
2419166666.6666665077 0.149294078350067110916299384371 -0.093985341489315032958984375000 0.004256935324519872665405273438 -0.000225753043196164098664960318 0 0 0 0 
2419333333.3333334923 0.149253055453300503829794365629 -0.094950884580612182617187500000 0.004176767542958259582519531250 -0.000345413835020735914081019269 0 0 0 0 
2419500000.0000000000 0.149440363049507113357705634371 -0.096213512122631072998046875000 0.004317404236644507321829511426 -0.000460882001789286678463536395 0 0 0 0 
2419666666.6666665077 0.149752646684646606445312500000 -0.097102425992488861083984375000 0.004353840369731187820434570312 -0.000643879582639783620834350586 0 0 0 0 
2419833333.3333334923 0.149802803993225097656250000000 -0.097818747162818908691406250000 0.004409917164593935012817382812 -0.000767833553254604339599609375 0 0 0 0 
