# Hz S RI R 50
2400000000.0000000000 0.171027898788452203948651231258 0.040057390928268432617187500000 -0.001579115167260169982910156250 0.002385699655860662894008017432 0 0 0 0 
2400166666.6666665077 0.171574249863624600509481865629 0.039721000939607620239257812500 -0.001656880252994596958160400391 0.002529703080654143853428506006 0 0 0 0 
2400333333.3333334923 0.172115758061408996582031250000 0.038758639246225357055664062500 -0.001301322015933693105813051538 0.002643094630911945863011025537 0 0 0 0 
2400500000.0000000000 0.172553747892379788497763115629 0.038307804614305503154714216407 -0.001172215910628437995910644531 0.002747733145952225165126181494 0 0 0 0 
2400666666.6666665077 0.172765478491783086578692518742 0.037879019975662231445312500000 -0.001343497657217084927799843896 0.002778085879981517791748046875 0 0 0 0 
2400833333.3333334923 0.173327714204788208007812500000 0.037138231098651892925222028907 -0.001152541488409041924717568506 0.002896635793149470849278115381 0 0 0 0 
2401000000.0000000000 0.173352599143981905838174384371 0.036599110811948783184011091407 -0.000947644759435206651687622070 0.003073371015489100976231240381 0 0 0 0 
2401166666.6666665077 0.173575922846794100662393134371 0.035968344658613211894948591407 -0.000702663324773311614990234375 0.003008133266121149063110351562 0 0 0 0 
2401333333.3333334923 0.173443704843521090408486884371 0.035248365253210067749023437500 -0.000526606861967593431472778320 0.003217685036361217932460165869 0 0 0 0 
2401500000.0000000000 0.173756107687950106521768134371 0.034624654799699783325195312500 -0.000491329759825021028518676758 0.003144178539514542059657431494 0 0 0 0 
2401666666.6666665077 0.173567831516265896896200615629 0.033871278166770941997487653907 -0.000114913047582376802533549176 0.003159635234624146981480263818 0 0 0 0 
2401833333.3333334923 0.173699960112571688553018134371 0.033231716603040702129323591407 0.000074668474553618580102920532 0.003071813844144343896153115381 0 0 0 0 
2402000000.0000000000 0.173186138272285489181356865629 0.032485689967870712280273437500 0.000270525837549939805835169659 0.003075616667047142982482910156 0 0 0 0 
2402166666.6666665077 0.172874391078949002364950615629 0.031442902982234961772878278907 0.000431240245234221220016479492 0.002971046604216098785400390625 0 0 0 0 
2402333333.3333334923 0.172709286212921087066973768742 0.030645638704299930227259451954 0.000641153892502188682556152344 0.002889578463509678840637207031 0 0 0 0 
2402500000.0000000000 0.172602742910385104080361884371 0.029870990663766860961914062500 0.000658250937703996896743774414 0.002858136780560017065760947119 0 0 0 0 
2402666666.6666665077 0.172203153371810913085937500000 0.029025198891758918762207031250 0.000919832382351160049438476562 0.002541230525821446938755654443 0 0 0 0 
2402833333.3333334923 0.172123223543167086502236884371 0.027906831353902820241907889454 0.000924646446947008371353149414 0.002382963197305798964259482275 0 0 0 0 
2403000000.0000000000 0.171564936637878390213174384371 0.026846397668123248708704764454 0.001034289365634321949602436597 0.002293444704264401955845498193 0 0 0 0 
2403166666.6666665077 0.171421110630035400390625000000 0.025775676593184471130371093750 0.001054077525623142936109233325 0.002067214576527475877049111475 0 0 0 0 
2403333333.3333334923 0.171113431453704806228799384371 0.024551752954721450805664062500 0.001061988295987247987034463037 0.001977257197722793059108115088 0 0 0 0 
2403500000.0000000000 0.170466914772987393478231865629 0.023171264678239818918248360546 0.000873623881489038467407226562 0.001777973957359791018842387622 0 0 0 0 
2403666666.6666665077 0.170051574707031305511151231258 0.021858079358935359609583670704 0.000972437905147671699523925781 0.001611594227142632007598876953 0 0 0 0 
2403833333.3333334923 0.169985249638557406326455634371 0.020380757749080661428431326954 0.000969084794633090496063232422 0.001556630712002516009687114185 0 0 0 0 
2404000000.0000000000 0.169344648718833895584268134371 0.018992466852068901062011718750 0.000855766935274004936218261719 0.001616267603822052912471152197 0 0 0 0 
2404166666.6666665077 0.169221743941307095626669365629 0.017468223348259929311732108204 0.000725380436051636934280395508 0.001565067563205956979038857568 0 0 0 0 
2404333333.3333334923 0.168843656778335599044638115629 0.016050776466727260244349295704 0.000552891462575644254684448242 0.001559461466968059973475790869 0 0 0 0 
2404500000.0000000000 0.168444544076919611175213731258 0.014279250986874100076695626171 0.000391272886190563386112767352 0.001549063250422477939008403247 0 0 0 0 
2404666666.6666665077 0.168536901473998995681924384371 0.012800476513803010422676287305 0.000615911732893437147140502930 0.001396979321725666956660605322 0 0 0 0 
2404833333.3333334923 0.168158531188964788238848768742 0.011102468706667419778844063671 0.000475606590043753385543823242 0.001374993124045432047602988135 0 0 0 0 
2405000000.0000000000 0.168053299188613891601562500000 0.009285114705562591552734375000 0.000425877224188297986984252930 0.001471730181947350935695029150 0 0 0 0 
2405166666.6666665077 0.168052181601524408538494981258 0.007534747943282127380371093750 0.000369118090020492672920227051 0.001642241491936146996141743237 0 0 0 0 
2405333333.3333334923 0.168034866452217102050781250000 0.005693237297236919403076171875 0.000418843206716701388359069824 0.001898585585877299091936420972 0 0 0 0 
2405500000.0000000000 0.167828887701034601409588731258 0.003865520702674984931945800781 0.000321384926792234182357788086 0.001844073529355227947235107422 0 0 0 0 
2405666666.6666665077 0.167916327714919988434161268742 0.002078079385682940916774130713 0.000381329329684376716613769531 0.001949457800947129943250346606 0 0 0 0 
2405833333.3333334923 0.167824611067771911621093750000 0.000386974163120612502098083496 0.000298423372441902810901087628 0.002049548551440238952636718750 0 0 0 0 
2406000000.0000000000 0.167951241135597201248330634371 -0.001665488583967090086696005713 0.000503612856846302747726440430 0.002162936842069029808044433594 0 0 0 0 
2406166666.6666665077 0.167691275477409390548544365629 -0.003352538682520389990565634619 0.000653080642223358154296875000 0.002302829176187514825108193506 0 0 0 0 
2406333333.3333334923 0.167959481477737399002236884371 -0.005274391733109951019287109375 0.000858453277032822370529174805 0.002364086918532847924473427881 0 0 0 0 
2406500000.0000000000 0.167834237217903109451455634371 -0.007079533301293849945068359375 0.000870219664648175239562988281 0.002439946169033647017237997900 0 0 0 0 
2406666666.6666665077 0.167811661958694513518963731258 -0.008652326650917530059814453125 0.001170993549749254963518452222 0.002586472313851118087768554688 0 0 0 0 
2406833333.3333334923 0.167741954326629610916299384371 -0.010485171340405939274798008398 0.001269816188141704039332724463 0.002430316293612122969386435400 0 0 0 0 
2407000000.0000000000 0.167748957872390802581463731258 -0.012045324780046939849853515625 0.001524064806289971091626811450 0.002441665157675743103027343750 0 0 0 0 
2407166666.6666665077 0.167949497699737604339276231258 -0.013542742468416690826416015625 0.001679446548223495917079306494 0.002365151653066277937648154150 0 0 0 0 
2407333333.3333334923 0.167985454201698303222656250000 -0.015185973607003690546979335352 0.001840383512899280028102255713 0.002123428508639336066005087744 0 0 0 0 
2407500000.0000000000 0.167944356799125699142294365629 -0.016486253589391708374023437500 0.002110965782776474952697753906 0.002114985836669803099391318213 0 0 0 0 
2407666666.6666665077 0.168169766664505004882812500000 -0.017623797059059139596959298046 0.002200558315962553024291992188 0.002002157736569643020629882812 0 0 0 0 
2407833333.3333334923 0.168113231658935602386151231258 -0.018843419849872589111328125000 0.002194853965193032784702920068 0.001784702413715421936632465894 0 0 0 0 
2408000000.0000000000 0.168295472860336303710937500000 -0.020101802423596378671666329296 0.002439686562865972952601767432 0.001699609914794564030290913159 0 0 0 0 
2408166666.6666665077 0.168408051133155794998330634371 -0.020991986617445949209193045704 0.002393299946561456160304404150 0.001593096763826906897901225513 0 0 0 0 
2408333333.3333334923 0.168865546584129305740518134371 -0.021874984726309779775599295704 0.002450348110869526863098144531 0.001475892146117985031725239331 0 0 0 0 
2408500000.0000000000 0.169070512056350708007812500000 -0.022835288196802139282226562500 0.002585050882771611213684082031 0.001196849276311696009394980322 0 0 0 0 
2408666666.6666665077 0.169318705797195406814736884371 -0.023671032860875129699707031250 0.002452658489346504211425781250 0.001460932311601937034009623950 0 0 0 0 
2408833333.3333334923 0.169505238533019991775674384371 -0.024416351690888408315638358204 0.002685777144506574110743857275 0.001008800114504992961883544922 0 0 0 0 
2409000000.0000000000 0.169833287596702603439169365629 -0.025156928226351741445521170704 0.002588064409792422814610146631 0.000999987241812050342559814453 0 0 0 0 
2409166666.6666665077 0.170281350612640408614950615629 -0.025897020474076271057128906250 0.002643979154527186913731240381 0.000752306368667632341384887695 0 0 0 0 
2409333333.3333334923 0.170766711235046386718750000000 -0.026634499430656429636021798046 0.002589711919426918029785156250 0.000641241262201219797134399414 0 0 0 0 
2409500000.0000000000 0.171027675271034212967080634371 -0.027527639642357829702357108204 0.002586577320471405982971191406 0.000415995338698849081993103027 0 0 0 0 
2409666666.6666665077 0.171218067407608004470986884371 -0.028185619041323658334752266796 0.002617204096168280081508017432 0.000195102868019603192806243896 0 0 0 0 
2409833333.3333334923 0.171490237116813687423544365629 -0.028708398342132568359375000000 0.002654114272445439858677529443 0.000316186662530526518821716309 0 0 0 0 
2410000000.0000000000 0.171712964773178100585937500000 -0.029551455751061439514160156250 0.002549252239987254142761230469 0.000085295003373175859451293945 0 0 0 0 
2410166666.6666665077 0.171985059976577786544638115629 -0.030198846012353900564173514454 0.002678905613720417022705078125 0.000101261612144298905700129376 0 0 0 0 
2410333333.3333334923 0.171938657760620089431924384371 -0.030900275334715839731236641796 0.002524844836443663077113486182 -0.000071968883275985717773437500 0 0 0 0 
2410500000.0000000000 0.171936213970184298416299384371 -0.031675588339567177509348283593 0.002528390148654580116271972656 -0.000346530083334073424339294434 0 0 0 0 
2410666666.6666665077 0.171923026442527798751669365629 -0.032401107251644141460378278907 0.002237949753180145783665322412 -0.000210971265914849909857073373 0 0 0 0 
2410833333.3333334923 0.171748325228691101074218750000 -0.033012278378009803081472028907 0.002329264534637331962585449219 -0.000390163273550570011138916016 0 0 0 0 
2411000000.0000000000 0.171437054872512789627236884371 -0.033546708524227142333984375000 0.002105992054566740989685058594 -0.000359001773176714777946472168 0 0 0 0 
2411166666.6666665077 0.171180412173271206954794365629 -0.034153793007135391235351562500 0.001902961404994129917742085034 -0.000499020738061517477035522461 0 0 0 0 
2411333333.3333334923 0.170878499746322604080361884371 -0.034791931509971618652343750000 0.001860299613326787948608398438 -0.000441598676843568682670593262 0 0 0 0 
2411500000.0000000000 0.170575752854347201248330634371 -0.035572599619626998901367187500 0.001960604684427380995509482275 -0.000512930680997669696807861328 0 0 0 0 
2411666666.6666665077 0.170328661799430902679119981258 -0.036166172474622733379323591407 0.001740199862979352907893515479 -0.000469707563752308487892150879 0 0 0 0 
2411833333.3333334923 0.169854715466499300857705634371 -0.036657303571701049804687500000 0.001888244878500699996948242188 -0.000410341366659849882125854492 0 0 0 0 
2412000000.0000000000 0.169457390904426602462606865629 -0.037770371884107589721679687500 0.001788249239325522942783974756 -0.000399148033466190099716186523 0 0 0 0 
2412166666.6666665077 0.168962344527244595626669365629 -0.038319624960422522808034528907 0.001829731045290827968000102466 -0.000287849281448870897293090820 0 0 0 0 
2412333333.3333334923 0.168651685118675204178018134371 -0.039039835333824157714843750000 0.001747924601659178950666118091 -0.000460947048850357478291112079 0 0 0 0 
2412500000.0000000000 0.167882010340690612792968750000 -0.039885196834802627563476562500 0.001764116226695477962493896484 -0.000361648533726111108630579816 0 0 0 0 
2412666666.6666665077 0.167378261685371398925781250000 -0.040963701903820037841796875000 0.001819353201426566080806113135 -0.000386614119634032303660792218 0 0 0 0 
2412833333.3333334923 0.166804462671279907226562500000 -0.041673261672258377075195312500 0.001768077141605318026301718604 -0.000399884040234610384136754169 0 0 0 0 
2413000000.0000000000 0.166219025850295992752236884371 -0.042662028223276138305664062500 0.001959062181413174109217978369 -0.000351366907125338912010192871 0 0 0 0 
2413166666.6666665077 0.165429905056953402420205634371 -0.043505050241947167133371721093 0.001829824410378932952880859375 -0.000636069860775023698806762695 0 0 0 0 
2413333333.3333334923 0.164816305041313199142294365629 -0.044654648751020431518554687500 0.001864442718215286948560405200 -0.000612573989201337099075317383 0 0 0 0 
2413500000.0000000000 0.163782626390457208831463731258 -0.045655567198991782451589216407 0.001949721015989779992344521631 -0.000636710086837410926818847656 0 0 0 0 
2413666666.6666665077 0.163336947560310391525106865629 -0.046875167638063430786132812500 0.001810073619708419062970805591 -0.000667065149173140525817871094 0 0 0 0 
2413833333.3333334923 0.162629723548889187911825615629 -0.047819860279560089111328125000 0.001768241403624414963963173975 -0.000686590967234224081039428711 0 0 0 0 
2414000000.0000000000 0.161794587969779996017294365629 -0.048894152045249938964843750000 0.001854141242802143096923828125 -0.000801993242930620908737182617 0 0 0 0 
2414166666.6666665077 0.161391347646713312347088731258 -0.049985434859991066669504533593 0.001960576046258211135864257812 -0.000913001713342964649200439453 0 0 0 0 
2414333333.3333334923 0.160715550184249905685263115629 -0.051075965166091918945312500000 0.001851424924097955010057758862 -0.000830126693472266197204589844 0 0 0 0 
2414500000.0000000000 0.160292446613311795333700615629 -0.052198559045791632915456403907 0.001892691827379167079925537109 -0.000821194262243807315826416016 0 0 0 0 
2414666666.6666665077 0.159721419215202303787393134371 -0.053262367844581597065012346093 0.001760854618623852946637797778 -0.000898281054105609655380249023 0 0 0 0 
2414833333.3333334923 0.159369066357612609863281250000 -0.054665658622980117797851562500 0.001768546178936958096147846753 -0.001150734722614287896397256006 0 0 0 0 
2415000000.0000000000 0.158894211053848294357138115629 -0.055835463106632232666015625000 0.001970368437469006018397665869 -0.001133927609771490097045898438 0 0 0 0 
2415166666.6666665077 0.158608436584472711761151231258 -0.057182956486940376972238908593 0.001777993049472569985630654443 -0.001034782966598867936375283350 0 0 0 0 
2415333333.3333334923 0.158392131328582791427450615629 -0.058509785681962966918945312500 0.001655259402468800978419638525 -0.001274775131605565981623984229 0 0 0 0 
2415500000.0000000000 0.158214911818504305740518134371 -0.059878129512071609497070312500 0.001683098147623240947723388672 -0.001225779298692942099330283057 0 0 0 0 
2415666666.6666665077 0.157877162098884610275106865629 -0.061306267976760857318918596093 0.001720509026199579022051167065 -0.001274559763260185935376811450 0 0 0 0 
2415833333.3333334923 0.157833620905876187423544365629 -0.062723845243453979492187500000 0.001532641472294927077052451025 -0.001399180269800126986262656104 0 0 0 0 
2416000000.0000000000 0.157339602708816500564736884371 -0.064209222793579101562500000000 0.001615732209756969971897744287 -0.001338266534730792045593261719 0 0 0 0 
2416166666.6666665077 0.157448008656501797775106865629 -0.065620958805084228515625000000 0.001500524231232702948926616138 -0.001423759269528090953826904297 0 0 0 0 
2416333333.3333334923 0.157132253050804110428018134371 -0.066921390593051910400390625000 0.001472264528274535915972065503 -0.001306398073211312077165913159 0 0 0 0 
2416500000.0000000000 0.156901359558105496505575615629 -0.068469680845737457275390625000 0.001505817752331495068193745190 -0.001181756961159408092498779297 0 0 0 0 
2416666666.6666665077 0.156816378235817011077557481258 -0.069705717265605926513671875000 0.001426820410415529987932514722 -0.001219191355630754990818642725 0 0 0 0 
2416833333.3333334923 0.156694576144218389313067518742 -0.071277379989624023437500000000 0.001612716703675687096239399487 -0.001318537280894815921783447266 0 0 0 0 
2417000000.0000000000 0.156290307641029413421307481258 -0.072524897754192352294921875000 0.001706195995211601040483784253 -0.001188508118502795913098979419 0 0 0 0 
2417166666.6666665077 0.156187772750854492187500000000 -0.073601529002189636230468750000 0.001696650753729044957401894678 -0.001314120483584702014923095703 0 0 0 0 
2417333333.3333334923 0.156067714095115689376669365629 -0.074772261083126068115234375000 0.001726556685753166892408061450 -0.001257316209375858090044331128 0 0 0 0 
2417500000.0000000000 0.155872166156768798828125000000 -0.076058566570281982421875000000 0.001901531708426773981807089697 -0.001481795683503150939941406250 0 0 0 0 
2417666666.6666665077 0.155793532729148892501669365629 -0.076868727803230285644531250000 0.001931072212755680084228515625 -0.001570231630466877980473183740 0 0 0 0 
2417833333.3333334923 0.155754268169403103927450615629 -0.077888809144496917724609375000 0.001965331612154840989353798975 -0.001810991670936346054077148438 0 0 0 0 
2418000000.0000000000 0.155554816126823397537393134371 -0.078970909118652343750000000000 0.002085642190650105910060263525 -0.001908356323838233947753906250 0 0 0 0 
2418166666.6666665077 0.155544087290763910491619981258 -0.079640693962574005126953125000 0.002002583583816885948181152344 -0.002129998989403247833251953125 0 0 0 0 
2418333333.3333334923 0.155746102333068903167401231258 -0.080622054636478424072265625000 0.002077330369502305984497070312 -0.002388212131336330933811806787 0 0 0 0 
2418500000.0000000000 0.155515626072883605957031250000 -0.081376492977142333984375000000 0.001872567227110266902326274341 -0.002380407415330410003662109375 0 0 0 0 
2418666666.6666665077 0.155508741736412103850994981258 -0.082263506948947906494140625000 0.001768570975400508100625063257 -0.002640094375237822966334677588 0 0 0 0 
2418833333.3333334923 0.155263736844062805175781250000 -0.082873843610286712646484375000 0.001628375495783985094783163916 -0.002913902979344129996058798682 0 0 0 0 
2419000000.0000000000 0.155154138803482111175213731258 -0.083485633134841918945312500000 0.001451929565519094900843954932 -0.003063335083425045013427734375 0 0 0 0 
2419166666.6666665077 0.155200585722923306564169365629 -0.084071360528469085693359375000 0.001351585844531655094744038159 -0.003232604591175913810729980469 0 0 0 0 
2419333333.3333334923 0.154827296733856201171875000000 -0.084454774856567382812500000000 0.001123292022384702942491840894 -0.003241868689656258063075400244 0 0 0 0 
2419500000.0000000000 0.154687806963920593261718750000 -0.085228912532329559326171875000 0.000991594279184937477111816406 -0.003373024519532918930053710938 0 0 0 0 
2419666666.6666665077 0.154795899987220791915731865629 -0.085673764348030090332031250000 0.000748049002140760421752929688 -0.003434758866205811934230185400 0 0 0 0 
2419833333.3333334923 0.154350981116294888595419365629 -0.086056865751743316650390625000 0.000542049529030919075012207031 -0.003417063271626830101013183594 0 0 0 0 
