# Hz S RI R 
2400000000.0000000000 0.173681929707527188400106865629 0.049111880362033837055246721093 0.004710962995886802673339843750 0.005441124550998210906982421875 0 0 0 0 
2400166666.6666665077 0.174209281802177401443643134371 0.048402070999145507812500000000 0.004759569652378559112548828125 0.005201075691729784011840820312 0 0 0 0 
2400333333.3333334923 0.174424305558204706390057481258 0.047611121088266372680664062500 0.004784294869750738143920898438 0.005116537678986787796020507812 0 0 0 0 
2400500000.0000000000 0.174920082092285211761151231258 0.046964418143033981323242187500 0.004875326063483954343313886426 0.004912129137665033340454101562 0 0 0 0 
2400666666.6666665077 0.175064861774444607833700615629 0.046239253133535392070729841407 0.004709710367023944854736328125 0.004835392814129590988159179688 0 0 0 0 
2400833333.3333334923 0.175514146685600308517294365629 0.045642770826816558837890625000 0.004968421999365091323852539062 0.004721488803625106811523437500 0 0 0 0 
2401000000.0000000000 0.175563484430313110351562500000 0.045160219073295593261718750000 0.004994940012693405151367187500 0.004801551345735788345336914062 0 0 0 0 
2401166666.6666665077 0.175785332918167086502236884371 0.044354692101478576660156250000 0.004929542541503906250000000000 0.004738382529467344284057617188 0 0 0 0 
2401333333.3333334923 0.175739228725433405120526231258 0.043570816516876220703125000000 0.005230236332863569259643554688 0.004647257272154092788696289062 0 0 0 0 
2401500000.0000000000 0.176000654697418212890625000000 0.043052006512880332256276716407 0.005131271202117204666137695312 0.004764201585203409194946289062 0 0 0 0 
2401666666.6666665077 0.175887748599052401443643134371 0.042440306395292282104492187500 0.005263689905405045423025800488 0.004710108973085880279541015625 0 0 0 0 
2401833333.3333334923 0.175840839743614196777343750000 0.041467428207397460937500000000 0.005642316304147244367117597363 0.004674358293414115905761718750 0 0 0 0 
2402000000.0000000000 0.175569981336593600174111884371 0.040639448910951607440988908593 0.005684742704033851623535156250 0.004526845645159482955932617188 0 0 0 0 
2402166666.6666665077 0.175508499145507812500000000000 0.039847280830144882202148437500 0.005904311314225196838378906250 0.004372853320091962814331054688 0 0 0 0 
2402333333.3333334923 0.175388455390930203536825615629 0.038637518882751471782643903907 0.005987166892737150192260742188 0.004505854565650224685668945312 0 0 0 0 
2402500000.0000000000 0.175352528691291809082031250000 0.037554960697889328002929687500 0.005987267475575208663940429688 0.004232247360050678253173828125 0 0 0 0 
2402666666.6666665077 0.174885436892509488204794365629 0.036582019180059432983398437500 0.006522039882838726043701171875 0.004250518511980772018432617188 0 0 0 0 
2402833333.3333334923 0.174637556076049804687500000000 0.035313770174980156635324846093 0.006574683357030153274536132812 0.003986260388046503067016601562 0 0 0 0 
2403000000.0000000000 0.174244686961174011230468750000 0.033908143639564507221262346093 0.006733375601470470428466796875 0.003872975939884781837463378906 0 0 0 0 
2403166666.6666665077 0.173994123935699490646200615629 0.032555792480707168579101562500 0.006996846757829189300537109375 0.003637016518041491942164755713 0 0 0 0 
2403333333.3333334923 0.173549458384513910491619981258 0.031365178525447852397878278907 0.007151952013373374938964843750 0.003332328051328659057617187500 0 0 0 0 
2403500000.0000000000 0.173238605260848999023437500000 0.029763974249362949026087576954 0.007370362523943185806274414062 0.003271796973422170119044638525 0 0 0 0 
2403666666.6666665077 0.172652855515480013748330634371 0.027984686195850368845006173046 0.007409718353301286697387695312 0.003063233569264411926269531250 0 0 0 0 
2403833333.3333334923 0.172531634569168090820312500000 0.026231428608298301696777343750 0.007616297341883183392996503613 0.002833273494616150856018066406 0 0 0 0 
2404000000.0000000000 0.172003030776977511306924384371 0.024593044072389599191685860546 0.007805766072124242782592773438 0.002517390297725797133204794775 0 0 0 0 
2404166666.6666665077 0.171682491898536709884481865629 0.022675983607769008981724923046 0.007695167791098356246948242188 0.002339708851650356812718056787 0 0 0 0 
2404333333.3333334923 0.171201497316360501388388115629 0.020852236077189448965052420704 0.007889100350439548492431640625 0.002142875688150525093078613281 0 0 0 0 
2404500000.0000000000 0.170841813087463406661825615629 0.018893400207161899911900704296 0.008082104846835136413574218750 0.001625989447347820021985698169 0 0 0 0 
2404666666.6666665077 0.170690774917602511306924384371 0.016959888860583308828333670704 0.007949383929371833801269531250 0.001471119816415012099622416919 0 0 0 0 
2404833333.3333334923 0.170435518026351900955361884371 0.015169780701398849487304687500 0.008100550621747970581054687500 0.001190902083180845000623393481 0 0 0 0 
2405000000.0000000000 0.170181557536125210861044365629 0.013006035238504409790039062500 0.007995558902621269226074218750 0.001247982145287096934077597510 0 0 0 0 
2405166666.6666665077 0.170011937618255587478799384371 0.011078155599534509831438633398 0.008057491853833198547363281250 0.000844498164951801300048828125 0 0 0 0 
2405333333.3333334923 0.170113772153854397872763115629 0.008880885317921638488769531250 0.008175548166036605834960937500 0.000741886207833886146545410156 0 0 0 0 
2405500000.0000000000 0.170099750161170987228231865629 0.006996036972850561141967773438 0.008266307413578033447265625000 0.000578248582314699888229370117 0 0 0 0 
2405666666.6666665077 0.170125082135200500488281250000 0.005094559863209724426269531250 0.008259397931396961212158203125 0.000407379877287894487380981445 0 0 0 0 
2405833333.3333334923 0.170132547616958590408486884371 0.002908959286287426948547363281 0.008318786509335041046142578125 0.000157958696945570409297943115 0 0 0 0 
2406000000.0000000000 0.170529231429100008865518134371 0.000927773828152567148208618164 0.008280168287456035614013671875 -0.000113798800157383097849707332 0 0 0 0 
2406166666.6666665077 0.170581370592117309570312500000 -0.001040486851707101085065532153 0.008534678258001804351806640625 -0.000183735057362355291843414307 0 0 0 0 
2406333333.3333334923 0.171067535877227810958700615629 -0.002920728176832199096679687500 0.008520388044416904449462890625 -0.000411422370234504287869053973 0 0 0 0 
2406500000.0000000000 0.171348333358764703948651231258 -0.004996474366635084152221679688 0.008527584373950958251953125000 -0.000771498307585716247558593750 0 0 0 0 
2406666666.6666665077 0.171771734952926607986611884371 -0.006875376217067241668701171875 0.008882476016879081726074218750 -0.001025250297971070029615092700 0 0 0 0 
2406833333.3333334923 0.172387450933456393142861884371 -0.008816799148917198181152343750 0.008856225758790969848632812500 -0.001400121371261775927302695166 0 0 0 0 
2407000000.0000000000 0.173136055469512911697549384371 -0.010598998516798019409179687500 0.008915560320019721984863281250 -0.001613324391655623912811279297 0 0 0 0 
2407166666.6666665077 0.173706844449043301681356865629 -0.012319026514887809753417968750 0.009080794639885425567626953125 -0.001905270153656601905822753906 0 0 0 0 
2407333333.3333334923 0.174317821860313387771768134371 -0.014227197505533700425117693555 0.009216345846652984619140625000 -0.002474289154633880095240927588 0 0 0 0 
2407500000.0000000000 0.175006628036498995681924384371 -0.015837727114558219909667968750 0.009287427179515361785888671875 -0.002713971771299839019775390625 0 0 0 0 
2407666666.6666665077 0.175839215517044095138388115629 -0.017415603622794151306152343750 0.009292839094996452331542968750 -0.003158659907057880921604775537 0 0 0 0 
2407833333.3333334923 0.176377668976783807952557481258 -0.019051162526011470449427420704 0.009321930818259716033935546875 -0.003549123182892798943760537256 0 0 0 0 
2408000000.0000000000 0.177399992942810086349325615629 -0.020396912470459941518763358204 0.009066531434655189514160156250 -0.003931495826691389083862304688 0 0 0 0 
2408166666.6666665077 0.177732467651367187500000000000 -0.021863590925931930541992187500 0.009145822376012802124023437500 -0.004559275228530169400686933301 0 0 0 0 
2408333333.3333334923 0.178696438670158386230468750000 -0.023292031139135360717773437500 0.009126321412622928619384765625 -0.004895646590739488601684570312 0 0 0 0 
2408500000.0000000000 0.179361790418624905685263115629 -0.024430733174085620534876639454 0.008888135664165019989013671875 -0.005519470199942588806152343750 0 0 0 0 
2408666666.6666665077 0.179998114705085809905682481258 -0.025586117058992389333704764454 0.008620452135801315307617187500 -0.006008133292198181152343750000 0 0 0 0 
2408833333.3333334923 0.180669873952865600585937500000 -0.026918750256299969064732735546 0.008294139988720417022705078125 -0.006456671282649040222167968750 0 0 0 0 
2409000000.0000000000 0.181230172514915494064169365629 -0.027676021680235859262486641796 0.008197735063731670379638671875 -0.006956876255571842193603515625 0 0 0 0 
2409166666.6666665077 0.181663379073143005371093750000 -0.028710441663861281658132185157 0.007700050715357065200805664062 -0.007160918787121772766113281250 0 0 0 0 
2409333333.3333334923 0.182038173079490689376669365629 -0.029570395126938819885253906250 0.007353364955633878707885742188 -0.007565758656710386276245117188 0 0 0 0 
2409500000.0000000000 0.182558208703994806487713731258 -0.030407339334487918508509451954 0.007066618185490369796752929688 -0.007889472879469394683837890625 0 0 0 0 
2409666666.6666665077 0.182950556278228787521200615629 -0.030882425606250759470006173046 0.006726048421114683151245117188 -0.008176261559128761291503906250 0 0 0 0 
2409833333.3333334923 0.183228999376296997070312500000 -0.031338188797235488891601562500 0.006297572515904903411865234375 -0.008517051115632057189941406250 0 0 0 0 
2410000000.0000000000 0.183558627963066101074218750000 -0.032093312591314322734792341407 0.005771898198872804641723632812 -0.008795979432761669158935546875 0 0 0 0 
2410166666.6666665077 0.183718740940093994140625000000 -0.032592333853244781494140625000 0.005300456658005714416503906250 -0.009019900113344192504882812500 0 0 0 0 
2410333333.3333334923 0.183830484747886713225994981258 -0.032930608838796622539479841407 0.004893221892416477203369140625 -0.009203863330185413360595703125 0 0 0 0 
2410500000.0000000000 0.183998391032218905349893134371 -0.033178288489580147480051408593 0.004521038848906754580025957324 -0.009362548589706420898437500000 0 0 0 0 
2410666666.6666665077 0.183881238102912902832031250000 -0.033691994845867156982421875000 0.004128241911530494689941406250 -0.009456505067646503448486328125 0 0 0 0 
2410833333.3333334923 0.183818891644477788727130018742 -0.033928196877241141582448591407 0.003633948275819420814514160156 -0.009567762725055217742919921875 0 0 0 0 
2411000000.0000000000 0.183612257242202786544638115629 -0.034169234335422522808034528907 0.003315850859507917924168252100 -0.009680850431323051452636718750 0 0 0 0 
2411166666.6666665077 0.183328703045845003982705634371 -0.034497957676649086689035783593 0.002894838107749820189235068213 -0.009686167351901531219482421875 0 0 0 0 
2411333333.3333334923 0.182766929268837002853231865629 -0.034847881644964218139648437500 0.002406445331871509985682822119 -0.009698901325464248657226562500 0 0 0 0 
2411500000.0000000000 0.182357609272003201583700615629 -0.035590890794992446899414062500 0.001980146160349249839782714844 -0.009730227291584014892578125000 0 0 0 0 
2411666666.6666665077 0.181780517101287786285723768742 -0.035715214908123023296315778907 0.001470866845920681953430175781 -0.009661488234996795654296875000 0 0 0 0 
2411833333.3333334923 0.181287527084350613693075615629 -0.036126412451267242431640625000 0.001052447594702244021772075122 -0.009451047517359256744384765625 0 0 0 0 
2412000000.0000000000 0.180685177445411709884481865629 -0.036673508584499359130859375000 0.000699974945746362209320068359 -0.009437103755772113800048828125 0 0 0 0 
2412166666.6666665077 0.179633274674415588378906250000 -0.037174113094806671142578125000 0.000307185080600902383953648700 -0.009226910769939422607421875000 0 0 0 0 
2412333333.3333334923 0.178940698504447909256143134371 -0.037604168057441711425781250000 -0.000017627524357521909883226088 -0.009051937609910964965820312500 0 0 0 0 
2412500000.0000000000 0.177640885114669799804687500000 -0.038129419088363647460937500000 -0.000331301765982061624526977539 -0.009060991927981376647949218750 0 0 0 0 
2412666666.6666665077 0.176622346043586703201455634371 -0.039099164307117462158203125000 -0.000548337469808757305145263672 -0.008689139038324356079101562500 0 0 0 0 
2412833333.3333334923 0.175483435392379788497763115629 -0.039817165583372123027761091407 -0.000998745090328156948089599609 -0.008666493929922580718994140625 0 0 0 0 
2413000000.0000000000 0.174132019281387301345986884371 -0.040606845170259482646901716407 -0.001021460397168993949890136719 -0.008639162406325340270996093750 0 0 0 0 
2413166666.6666665077 0.173000842332839993575888115629 -0.041468106210231781005859375000 -0.001368653262034059004542685400 -0.008261611685156822204589843750 0 0 0 0 
2413333333.3333334923 0.171709164977073697189169365629 -0.042367525398731231689453125000 -0.001506677945144474940059042822 -0.008035076782107353210449218750 0 0 0 0 
2413500000.0000000000 0.170572891831398010253906250000 -0.043407287448644638061523437500 -0.001787274377420545058009482275 -0.007838700897991657257080078125 0 0 0 0 
2413666666.6666665077 0.169107571244239807128906250000 -0.044541355222463607788085937500 -0.001834811642765999057172465747 -0.007701924070715904235839843750 0 0 0 0 
2413833333.3333334923 0.167841196060180691818075615629 -0.045562300831079483032226562500 -0.001980131724849342866184853662 -0.007563843391835690412039472363 0 0 0 0 
2414000000.0000000000 0.166448846459388705154580634371 -0.046980809420347206806223283593 -0.002165241399779915809631347656 -0.007593562360852956771850585938 0 0 0 0 
2414166666.6666665077 0.165330812335014287750567518742 -0.048088118433952331542968750000 -0.002233743667602539062500000000 -0.007411179598420858383178710938 0 0 0 0 
2414333333.3333334923 0.164141952991485595703125000000 -0.049798619002103812480886091407 -0.002335394965484737916233681787 -0.007307135034352540969848632812 0 0 0 0 
2414500000.0000000000 0.163100704550743103027343750000 -0.051046062260866172100026716407 -0.002549384254962205886840820312 -0.007217152044177055358886718750 0 0 0 0 
2414666666.6666665077 0.161817923188209505935830634371 -0.052502520382404327392578125000 -0.002629945287480949921848916162 -0.007079129572957754135131835938 0 0 0 0 
2414833333.3333334923 0.160759285092353793045205634371 -0.054251823574304580688476562500 -0.002712835790589451789855957031 -0.006832121871411800384521484375 0 0 0 0 
2415000000.0000000000 0.159768968820571899414062500000 -0.055901177227497100830078125000 -0.003122532740235329107997275244 -0.006858310662209987640380859375 0 0 0 0 
2415166666.6666665077 0.158797532320022610763388115629 -0.057632833719253540039062500000 -0.003039575880393385887145996094 -0.006771396379917860031127929688 0 0 0 0 
2415333333.3333334923 0.158003062009811401367187500000 -0.059542920440435409545898437500 -0.003167269984260201887843466650 -0.006779524032026529312133789062 0 0 0 0 
2415500000.0000000000 0.157193422317504910568075615629 -0.061379518359899520874023437500 -0.003544653765857220129725790869 -0.006593997590243816375732421875 0 0 0 0 
2415666666.6666665077 0.156380623579025296310263115629 -0.063117824494838714599609375000 -0.003652488579973578886744833838 -0.006417336873710156354422284863 0 0 0 0 
2415833333.3333334923 0.155799418687820406814736884371 -0.065131396055221557617187500000 -0.003727280534803866906407021631 -0.006490699015557765960693359375 0 0 0 0 
2416000000.0000000000 0.155006572604179410079794365629 -0.067144930362701416015625000000 -0.003865504404529929161071777344 -0.006287638098001480102539062500 0 0 0 0 
2416166666.6666665077 0.154786050319671603103799384371 -0.069164648652076721191406250000 -0.004050230607390403747558593750 -0.006179171614348888397216796875 0 0 0 0 
2416333333.3333334923 0.154279753565788296798544365629 -0.071061059832572937011718750000 -0.004151878878474236402029706738 -0.005983275827020406723022460938 0 0 0 0 
2416500000.0000000000 0.153803616762161310393963731258 -0.073272027075290679931640625000 -0.004225544165819883346557617188 -0.005732909776270390424246503613 0 0 0 0 
2416666666.6666665077 0.153350889682769803146200615629 -0.075115904211997985839843750000 -0.004537436645478010177612304688 -0.005506204906851053237915039062 0 0 0 0 
2416833333.3333334923 0.153073057532310513595419365629 -0.077139236032962799072265625000 -0.004619240760803222656250000000 -0.005416588392108678817749023438 0 0 0 0 
2417000000.0000000000 0.152768120169639587402343750000 -0.079135388135910034179687500000 -0.004843336530029773712158203125 -0.005259370896965265274047851562 0 0 0 0 
2417166666.6666665077 0.152544125914573697189169365629 -0.080750010907649993896484375000 -0.004784176126122474670410156250 -0.005090042948722839355468750000 0 0 0 0 
2417333333.3333334923 0.152502924203872708419638115629 -0.082516722381114959716796875000 -0.004755216650664806365966796875 -0.004933309741318225860595703125 0 0 0 0 
2417500000.0000000000 0.152391955256462097167968750000 -0.084592282772064208984375000000 -0.004939932376146317395682050488 -0.004886232782155275344848632812 0 0 0 0 
2417666666.6666665077 0.152410849928855895996093750000 -0.085903905332088470458984375000 -0.004918883088976144790649414062 -0.004722341895103454589843750000 0 0 0 0 
2417833333.3333334923 0.152516409754753112792968750000 -0.087428443133831024169921875000 -0.004944207612425088882446289062 -0.004488685633987188339233398438 0 0 0 0 
2418000000.0000000000 0.152401149272918701171875000000 -0.089116401970386505126953125000 -0.004958277568221092224121093750 -0.004503992851823568344116210938 0 0 0 0 
2418166666.6666665077 0.152488127350807189941406250000 -0.090336658060550689697265625000 -0.005112490151077508926391601562 -0.004326946102082729339599609375 0 0 0 0 
2418333333.3333334923 0.152795806527137811858807481258 -0.091570295393466949462890625000 -0.005110766272991895675659179688 -0.004379525780677795410156250000 0 0 0 0 
2418500000.0000000000 0.153021529316902188400106865629 -0.092717662453651428222656250000 -0.005238801240921021375174237988 -0.004224743694067001342773437500 0 0 0 0 
2418666666.6666665077 0.153060674667358398437500000000 -0.093779176473617553710937500000 -0.005277682095766068372244550488 -0.004291334189474582672119140625 0 0 0 0 
2418833333.3333334923 0.153115823864936800857705634371 -0.094821333885192871093750000000 -0.005394754465669394406790448926 -0.004297134466469287872314453125 0 0 0 0 
2419000000.0000000000 0.153328374028205899337606865629 -0.095544680953025817871093750000 -0.005496557801961898803710937500 -0.004095898009836673736572265625 0 0 0 0 
2419166666.6666665077 0.153414845466613797286825615629 -0.096335060894489288330078125000 -0.005910616833716630935668945312 -0.004015984479337930679321289062 0 0 0 0 
2419333333.3333334923 0.153361693024635287185830634371 -0.096648827195167541503906250000 -0.005974550731480121612548828125 -0.004077532794326543807983398438 0 0 0 0 
2419500000.0000000000 0.153604984283447293380575615629 -0.097419492900371551513671875000 -0.006223175674676895141601562500 -0.003884290112182497978210449219 0 0 0 0 
2419666666.6666665077 0.153843700885772705078125000000 -0.097795434296131134033203125000 -0.006429517641663551330566406250 -0.003883129684254527091979980469 0 0 0 0 
2419833333.3333334923 0.153781697154045104980468750000 -0.097786515951156616210937500000 -0.006656609009951353073120117188 -0.003656737739220262007472372900 0 0 0 0 
