# Version 1.00
#
freq[Hz];re:Trc1_S11;im:Trc1_S11;re:Trc2_S21;im:Trc2_S21;
2.400000000000000E+009;1.604886204004288E-001;5.695389583706856E-002;3.618753515183926E-003;3.948809579014778E-003;
2.400166666666667E+009;1.605724096298218E-001;5.539011582732201E-002;3.758426057174802E-003;3.962782677263022E-003;
2.400333333333334E+009;1.605148613452911E-001;5.360290035605431E-002;3.914822824299336E-003;3.836609655991197E-003;
2.400500000000000E+009;1.607048660516739E-001;5.185627192258835E-002;4.011846147477627E-003;3.803938161581755E-003;
2.400666666666667E+009;1.607462763786316E-001;5.007817596197128E-002;4.135933704674244E-003;3.594673704355955E-003;
2.400833333333334E+009;1.610176414251328E-001;4.823978245258331E-002;4.289264325052500E-003;3.725001588463783E-003;
2.401000000000000E+009;1.612031906843185E-001;4.625201597809792E-002;4.685223568230867E-003;3.645941382274032E-003;
2.401166666666667E+009;1.614464968442917E-001;4.452999681234360E-002;4.747146274894476E-003;3.713079262524843E-003;
2.401333333333334E+009;1.617501378059387E-001;4.244978725910187E-002;4.922715015709400E-003;3.564026672393084E-003;
2.401500000000000E+009;1.622328609228134E-001;4.081189632415772E-002;5.118087399750948E-003;3.504244377836585E-003;
2.401666666666667E+009;1.626108586788178E-001;3.905372321605682E-002;5.422492045909166E-003;3.357158042490482E-003;
2.401833333333334E+009;1.629317253828049E-001;3.727239370346069E-002;5.663145799189806E-003;3.291741013526917E-003;
2.402000000000000E+009;1.633610129356384E-001;3.542212396860123E-002;5.853033158928156E-003;3.216787707060576E-003;
2.402166666666667E+009;1.637468785047531E-001;3.354488685727119E-002;6.056033540517092E-003;3.031383967027068E-003;
2.402333333333334E+009;1.642678231000900E-001;3.215155005455017E-002;6.235929206013680E-003;2.880578860640526E-003;
2.402500000000000E+009;1.650041639804840E-001;3.037038072943687E-002;6.569728720933199E-003;2.678206423297525E-003;
2.402666666666667E+009;1.657004952430725E-001;2.885713055729866E-002;6.915660109370947E-003;2.195650245994330E-003;
2.402833333333334E+009;1.663260906934738E-001;2.735055238008499E-002;7.113409694284201E-003;2.103475155308843E-003;
2.403000000000000E+009;1.670402586460114E-001;2.578434720635414E-002;7.284786552190781E-003;1.881540985777974E-003;
2.403166666666667E+009;1.676973998546600E-001;2.445185370743275E-002;7.518857717514038E-003;1.430515083484352E-003;
2.403333333333334E+009;1.686526685953140E-001;2.313767559826374E-002;7.662561722099781E-003;1.135944738052785E-003;
2.403500000000000E+009;1.691330522298813E-001;2.212828770279884E-002;7.677942048758268E-003;9.074446279555559E-004;
2.403666666666667E+009;1.699256747961044E-001;2.067771181464195E-002;8.097847923636437E-003;4.948295536451042E-004;
2.403833333333334E+009;1.708164662122726E-001;1.942427083849907E-002;8.142412640154362E-003;1.614938664715737E-004;
2.404000000000000E+009;1.716452538967133E-001;1.846087165176868E-002;8.065376430749893E-003;-2.935447846539319E-004;
2.404166666666667E+009;1.723232567310333E-001;1.740586385130882E-002;8.124068379402161E-003;-7.389953243546188E-004;
2.404333333333334E+009;1.730322241783142E-001;1.649002917110920E-002;8.144540712237358E-003;-1.044827862642705E-003;
2.404500000000000E+009;1.737517118453980E-001;1.554583571851254E-002;8.133403956890106E-003;-1.723886467516422E-003;
2.404666666666667E+009;1.744764745235443E-001;1.486172620207071E-002;8.205307647585869E-003;-1.821163110435009E-003;
2.404833333333334E+009;1.750714033842087E-001;1.408886536955833E-002;7.989751175045967E-003;-2.218887209892273E-003;
2.405000000000000E+009;1.755985766649246E-001;1.330332551151514E-002;8.111455477774143E-003;-2.710149157792330E-003;
2.405166666666667E+009;1.762059479951859E-001;1.271764282137156E-002;7.876829244196415E-003;-3.240730613470078E-003;
2.405333333333334E+009;1.769166737794876E-001;1.194522995501757E-002;7.743141613900662E-003;-3.623557509854436E-003;
2.405500000000000E+009;1.773113906383514E-001;1.143597718328238E-002;7.503779139369726E-003;-3.996982704848051E-003;
2.405666666666667E+009;1.777563393115997E-001;1.106707472354174E-002;7.503032218664885E-003;-4.363879095762968E-003;
2.405833333333334E+009;1.780418455600739E-001;1.066610589623451E-002;7.185775320976973E-003;-4.495159722864628E-003;
2.406000000000000E+009;1.784519702196121E-001;1.004075538367033E-002;6.977947428822517E-003;-4.763391800224781E-003;
2.406166666666667E+009;1.785726398229599E-001;9.708181954920292E-003;6.699469406157732E-003;-5.172964185476303E-003;
2.406333333333334E+009;1.789029538631439E-001;9.348441846668720E-003;6.399910897016525E-003;-5.470139440149069E-003;
2.406500000000000E+009;1.790233552455902E-001;9.039296768605709E-003;6.161922588944435E-003;-5.670174956321716E-003;
2.406666666666667E+009;1.788803040981293E-001;8.395212702453136E-003;5.884928163141012E-003;-5.912730004638434E-003;
2.406833333333334E+009;1.790062785148621E-001;8.010856807231903E-003;5.679080262780190E-003;-6.070814095437527E-003;
2.407000000000000E+009;1.789681762456894E-001;7.582336664199829E-003;5.274736322462559E-003;-6.416497286409140E-003;
2.407166666666667E+009;1.788522899150848E-001;7.065147161483765E-003;4.954627249389887E-003;-6.680514197796583E-003;
2.407333333333334E+009;1.785371154546738E-001;6.503778975456953E-003;4.750204272568226E-003;-6.771892309188843E-003;
2.407500000000000E+009;1.784887164831162E-001;5.943304393440485E-003;4.470922518521547E-003;-6.920501124113798E-003;
2.407666666666667E+009;1.780424118041992E-001;5.433427169919014E-003;4.069827962666750E-003;-6.981458514928818E-003;
2.407833333333334E+009;1.774996221065521E-001;4.615818616002798E-003;3.632951993495226E-003;-7.142016198486090E-003;
2.408000000000000E+009;1.772530972957611E-001;3.724242327734828E-003;3.357677953317761E-003;-7.151497062295675E-003;
2.408166666666667E+009;1.768330186605454E-001;3.120262408629060E-003;3.155867336317897E-003;-7.236219942569733E-003;
2.408333333333334E+009;1.764459460973740E-001;2.147610997781158E-003;2.806500066071749E-003;-7.396073546260595E-003;
2.408500000000000E+009;1.757895350456238E-001;1.249205670319498E-003;2.431145636364818E-003;-7.440755609422922E-003;
2.408666666666667E+009;1.754594892263413E-001;1.924822281580418E-004;2.211811719462276E-003;-7.327579427510500E-003;
2.408833333333334E+009;1.746084988117218E-001;-9.526463109068573E-004;1.888233819045126E-003;-7.354788482189179E-003;
2.409000000000000E+009;1.739121526479721E-001;-2.211779821664095E-003;1.588251092471182E-003;-7.227136287838221E-003;
2.409166666666667E+009;1.733903139829636E-001;-3.307277103886008E-003;1.449331291951239E-003;-7.339969743043184E-003;
2.409333333333334E+009;1.729076057672501E-001;-4.676953423768282E-003;1.085811411030591E-003;-7.293772883713245E-003;
2.409500000000000E+009;1.722841858863831E-001;-6.141318008303642E-003;8.636464481242001E-004;-6.981760263442993E-003;
2.409666666666667E+009;1.716564893722534E-001;-7.489163428544998E-003;6.521061877720058E-004;-7.056226953864098E-003;
2.409833333333334E+009;1.709259301424027E-001;-9.029367007315159E-003;5.509640905074775E-004;-6.819465197622776E-003;
2.410000000000000E+009;1.705442965030670E-001;-1.036237552762032E-002;3.537381417118013E-004;-7.125391159206629E-003;
2.410166666666667E+009;1.699678003787994E-001;-1.232346426695585E-002;9.903181489789859E-005;-6.892524193972349E-003;
2.410333333333334E+009;1.696134656667709E-001;-1.399624068289995E-002;-9.396968380315229E-005;-6.749100517481566E-003;
2.410500000000000E+009;1.692407727241516E-001;-1.570054516196251E-002;-1.621298724785447E-004;-6.776096299290657E-003;
2.410666666666667E+009;1.686518043279648E-001;-1.759670116007328E-002;-3.082934708800167E-004;-6.663540378212929E-003;
2.410833333333334E+009;1.684822440147400E-001;-1.925285160541534E-002;-3.432898665778339E-004;-6.686153355985880E-003;
2.411000000000000E+009;1.682534217834473E-001;-2.101583220064640E-002;-5.862537072971463E-004;-6.586760748177767E-003;
2.411166666666667E+009;1.679028272628784E-001;-2.289608679711819E-002;-8.010719902813435E-004;-6.679175887256861E-003;
2.411333333333334E+009;1.678106784820557E-001;-2.479601092636585E-002;-8.441637619398534E-004;-6.360464263707399E-003;
2.411500000000000E+009;1.676407158374786E-001;-2.678617462515831E-002;-1.052107196301222E-003;-6.575808394700289E-003;
2.411666666666667E+009;1.677432358264923E-001;-2.865204960107803E-002;-1.204097643494606E-003;-6.463910918682814E-003;
2.411833333333334E+009;1.678893268108368E-001;-3.031276538968086E-002;-1.321705058217049E-003;-6.539578549563885E-003;
2.412000000000000E+009;1.678518503904343E-001;-3.246077895164490E-002;-1.481650979258120E-003;-6.549609825015068E-003;
2.412166666666667E+009;1.679884791374207E-001;-3.436747938394547E-002;-1.691395416855812E-003;-6.597663275897503E-003;
2.412333333333334E+009;1.683652698993683E-001;-3.589958697557449E-002;-1.860540593042970E-003;-6.625937763601542E-003;
2.412500000000000E+009;1.686511784791946E-001;-3.773967176675797E-002;-1.956456573680043E-003;-6.510996259748936E-003;
2.412666666666667E+009;1.688849627971649E-001;-3.951009735465050E-002;-2.441796241328120E-003;-6.518191657960415E-003;
2.412833333333334E+009;1.692882180213928E-001;-4.125040397047997E-002;-2.654554322361946E-003;-6.569505203515291E-003;
2.413000000000000E+009;1.697349697351456E-001;-4.294731467962265E-002;-2.785920398309827E-003;-6.586675997823477E-003;
2.413166666666667E+009;1.700983941555023E-001;-4.445938766002655E-002;-3.037746064364910E-003;-6.354805082082748E-003;
2.413333333333334E+009;1.704467982053757E-001;-4.611291363835335E-002;-3.254476701840758E-003;-6.363788153976202E-003;
2.413500000000000E+009;1.709264367818832E-001;-4.759120568633080E-002;-3.545394167304039E-003;-6.331687327474356E-003;
2.413666666666667E+009;1.715404987335205E-001;-4.924387484788895E-002;-3.842978272587061E-003;-6.382745690643787E-003;
2.413833333333334E+009;1.719924062490463E-001;-5.026285722851753E-002;-4.009811673313379E-003;-6.254082545638084E-003;
2.414000000000000E+009;1.722128242254257E-001;-5.162828043103218E-002;-4.232649691402912E-003;-6.068989634513855E-003;
2.414166666666667E+009;1.730171740055084E-001;-5.274213477969170E-002;-4.578712396323681E-003;-5.698685068637133E-003;
2.414333333333334E+009;1.733721941709518E-001;-5.387658625841141E-002;-4.788533318787813E-003;-5.595508497208357E-003;
2.414500000000000E+009;1.739575266838074E-001;-5.487125739455223E-002;-4.909880459308624E-003;-5.355229135602713E-003;
2.414666666666667E+009;1.744292825460434E-001;-5.573220551013947E-002;-5.162511952221394E-003;-5.250635556876659E-003;
2.414833333333334E+009;1.748002469539642E-001;-5.665997415781021E-002;-5.534396041184664E-003;-5.049653351306915E-003;
2.415000000000000E+009;1.750130504369736E-001;-5.731440708041191E-002;-5.576177500188351E-003;-4.951911512762308E-003;
2.415166666666667E+009;1.754328459501267E-001;-5.796617269515991E-002;-5.703392904251814E-003;-4.618698731064796E-003;
2.415333333333334E+009;1.758701354265213E-001;-5.859146267175674E-002;-6.008495576679707E-003;-4.399630241096020E-003;
2.415500000000000E+009;1.759750992059708E-001;-5.919406190514565E-002;-6.075936835259199E-003;-4.105290863662958E-003;
2.415666666666667E+009;1.761856079101563E-001;-5.954691767692566E-002;-6.337362807244062E-003;-3.816177602857351E-003;
2.415833333333334E+009;1.764363497495651E-001;-5.999788641929627E-002;-6.419346667826176E-003;-3.658455563709140E-003;
2.416000000000000E+009;1.762693673372269E-001;-6.039344519376755E-002;-6.471158005297184E-003;-3.449464682489634E-003;
2.416166666666667E+009;1.765716075897217E-001;-6.073331460356712E-002;-6.637866608798504E-003;-3.082239534705877E-003;
2.416333333333334E+009;1.763040423393250E-001;-6.092519313097000E-002;-6.739989388734102E-003;-2.781587187200785E-003;
2.416500000000000E+009;1.761728227138519E-001;-6.128042563796043E-002;-6.882726214826107E-003;-2.472694963216782E-003;
2.416666666666667E+009;1.759277135133743E-001;-6.131096929311752E-002;-6.783300079405308E-003;-2.221919363364577E-003;
2.416833333333334E+009;1.755994558334351E-001;-6.173097342252731E-002;-6.860139779746532E-003;-2.039919141680002E-003;
2.417000000000000E+009;1.750231683254242E-001;-6.182964891195297E-002;-6.940492428839207E-003;-1.744170906022191E-003;
2.417166666666667E+009;1.746563911437988E-001;-6.195016577839851E-002;-6.961813662201166E-003;-1.330835395492613E-003;
2.417333333333334E+009;1.740290373563767E-001;-6.209699437022209E-002;-6.907729897648096E-003;-1.181695144623518E-003;
2.417500000000000E+009;1.733156293630600E-001;-6.258005648851395E-002;-6.827432196587324E-003;-1.015050453133881E-003;
2.417666666666667E+009;1.726372838020325E-001;-6.263550370931625E-002;-6.722515914589167E-003;-5.601876764558256E-004;
2.417833333333334E+009;1.718493103981018E-001;-6.299366801977158E-002;-6.611938588321209E-003;-5.840776138938963E-004;
2.418000000000000E+009;1.707830727100372E-001;-6.335067003965378E-002;-6.680298130959272E-003;-2.441510441713035E-004;
2.418166666666667E+009;1.698842495679855E-001;-6.342615187168121E-002;-6.585970986634493E-003;-9.771338227437809E-005;
2.418333333333334E+009;1.691049188375473E-001;-6.390821188688278E-002;-6.718334276229143E-003;2.626830828376114E-004;
2.418500000000000E+009;1.679535508155823E-001;-6.435182690620422E-002;-6.387222558259964E-003;2.998340060003102E-004;
2.418666666666667E+009;1.669194698333740E-001;-6.493593007326126E-002;-6.485605146735907E-003;6.870045908726752E-004;
2.418833333333334E+009;1.656709760427475E-001;-6.559303402900696E-002;-6.186580285429955E-003;6.719116354361177E-004;
2.419000000000000E+009;1.643329560756683E-001;-6.607485562562943E-002;-6.351402495056391E-003;8.168195490725339E-004;
2.419166666666667E+009;1.633563637733460E-001;-6.682886183261871E-002;-6.221360061317682E-003;1.036992296576500E-003;
2.419333333333334E+009;1.619925796985626E-001;-6.741026788949966E-002;-5.954012274742127E-003;1.186781679280102E-003;
2.419500000000000E+009;1.607685387134552E-001;-6.845628470182419E-002;-6.065831054002047E-003;1.304192352108657E-003;
2.419666666666667E+009;1.597375124692917E-001;-6.946680694818497E-002;-5.972343496978283E-003;1.427141018211842E-003;
2.419833333333334E+009;1.584862470626831E-001;-7.017866522073746E-002;-5.704347044229507E-003;1.656970824114978E-003;
2.420000000000000E+009;1.574844717979431E-001;-7.127503305673599E-002;-5.692671984434128E-003;1.809556037187576E-003;
2.420166666666667E+009;1.563182622194290E-001;-7.238947600126267E-002;-5.738879088312388E-003;1.878255046904087E-003;
2.420333333333334E+009;1.552989035844803E-001;-7.378465682268143E-002;-5.498755257576704E-003;2.181296935304999E-003;
2.420500000000000E+009;1.542205512523651E-001;-7.492023706436157E-002;-5.782686173915863E-003;2.292792079970241E-003;
2.420666666666667E+009;1.531401276588440E-001;-7.622641324996948E-002;-5.539500154554844E-003;2.427270403131843E-003;
2.420833333333334E+009;1.522615402936935E-001;-7.763946801424027E-002;-5.337293725460768E-003;2.535064006224275E-003;
2.421000000000000E+009;1.513843536376953E-001;-7.931301742792130E-002;-5.326762795448303E-003;2.719513140618801E-003;
2.421166666666667E+009;1.505102068185806E-001;-8.068033307790756E-002;-5.174836609512568E-003;2.703746547922492E-003;
2.421333333333334E+009;1.500083506107330E-001;-8.241268247365952E-002;-5.105697084218264E-003;2.905572764575481E-003;
2.421500000000000E+009;1.490672081708908E-001;-8.385042101144791E-002;-4.964034538716078E-003;3.176564583554864E-003;
2.421666666666667E+009;1.486530154943466E-001;-8.557756990194321E-002;-4.728976171463728E-003;3.315014531835914E-003;
2.421833333333334E+009;1.482319831848145E-001;-8.706367760896683E-002;-4.757042042911053E-003;3.360224422067404E-003;
2.422000000000000E+009;1.476686447858810E-001;-8.892304450273514E-002;-4.659928381443024E-003;3.479218343272805E-003;
2.422166666666667E+009;1.474786251783371E-001;-9.070304781198502E-002;-4.300700034946203E-003;3.661283291876316E-003;
2.422333333333334E+009;1.472181230783463E-001;-9.228760004043579E-002;-4.329949617385864E-003;3.729613032191992E-003;
2.422500000000000E+009;1.468513011932373E-001;-9.391929954290390E-002;-4.193789791315794E-003;3.853278700262308E-003;
2.422666666666667E+009;1.466904878616333E-001;-9.568978101015091E-002;-3.933892119675875E-003;3.899920266121626E-003;
2.422833333333334E+009;1.467018574476242E-001;-9.759681671857834E-002;-3.752400632947683E-003;3.997758030891419E-003;
2.423000000000000E+009;1.466577649116516E-001;-9.910938888788223E-002;-3.599034622311592E-003;4.094873089343309E-003;
2.423166666666667E+009;1.469994187355042E-001;-1.006318479776382E-001;-3.568106098100543E-003;4.167665261775255E-003;
2.423333333333334E+009;1.471498906612396E-001;-1.023236140608788E-001;-3.444256028160453E-003;4.154256545007229E-003;
2.423500000000000E+009;1.472095698118210E-001;-1.038201600313187E-001;-3.289569169282913E-003;4.330161958932877E-003;
2.423666666666667E+009;1.474917531013489E-001;-1.055106669664383E-001;-3.088651224970818E-003;4.354767501354218E-003;
2.423833333333334E+009;1.478345841169357E-001;-1.069794371724129E-001;-3.047923091799021E-003;4.438076168298721E-003;
2.424000000000000E+009;1.480400860309601E-001;-1.082080975174904E-001;-2.941976767033339E-003;4.455797839909792E-003;
2.424166666666667E+009;1.483346223831177E-001;-1.095025464892387E-001;-2.555062761530280E-003;4.507188685238361E-003;
2.424333333333334E+009;1.488243192434311E-001;-1.108591929078102E-001;-2.529438817873597E-003;4.652914125472307E-003;
2.424500000000000E+009;1.492466926574707E-001;-1.119602173566818E-001;-2.330194227397442E-003;4.524334333837032E-003;
2.424666666666667E+009;1.497117578983307E-001;-1.130109354853630E-001;-2.205157186836004E-003;4.483138211071491E-003;
2.424833333333334E+009;1.499257385730743E-001;-1.140084117650986E-001;-2.114050323143601E-003;4.673832561820746E-003;
2.425000000000000E+009;1.503199189901352E-001;-1.150463372468948E-001;-1.877521863207221E-003;4.666171036660671E-003;
2.425166666666667E+009;1.505021303892136E-001;-1.158920526504517E-001;-1.839298172853887E-003;4.864065907895565E-003;
2.425333333333334E+009;1.509246975183487E-001;-1.166962981224060E-001;-1.547061139717698E-003;4.699013661593199E-003;
2.425500000000000E+009;1.513249129056931E-001;-1.174521818757057E-001;-1.507300999946892E-003;4.706652835011482E-003;
2.425666666666667E+009;1.513704955577850E-001;-1.180433332920075E-001;-1.466931542381644E-003;4.727758001536131E-003;
2.425833333333334E+009;1.516296714544296E-001;-1.185809597373009E-001;-1.334376749582589E-003;4.631188698112965E-003;
2.426000000000000E+009;1.517025828361511E-001;-1.191058605909348E-001;-1.233041752129793E-003;4.707774147391319E-003;
2.426166666666667E+009;1.520101875066757E-001;-1.195173189043999E-001;-9.357188828289509E-004;4.791899118572474E-003;
2.426333333333334E+009;1.519808322191238E-001;-1.199264228343964E-001;-8.205297635868192E-004;4.826058633625507E-003;
2.426500000000000E+009;1.518083810806274E-001;-1.202011778950691E-001;-8.233418921008706E-004;4.710672423243523E-003;
2.426666666666667E+009;1.518386751413345E-001;-1.203288286924362E-001;-6.353461649268866E-004;4.740579053759575E-003;
2.426833333333334E+009;1.515602171421051E-001;-1.206407472491264E-001;-4.170621396042407E-004;4.795769229531288E-003;
2.427000000000000E+009;1.512536108493805E-001;-1.209420487284660E-001;-3.634171735029668E-004;4.745817277580500E-003;
2.427166666666667E+009;1.509324312210083E-001;-1.208943650126457E-001;-1.872998691396788E-004;4.557821899652481E-003;
2.427333333333334E+009;1.504829227924347E-001;-1.211556866765022E-001;-5.903527562622912E-005;4.721540957689285E-003;
2.427500000000000E+009;1.499780714511871E-001;-1.212294027209282E-001;-4.899207851849496E-005;4.816753789782524E-003;
2.427666666666667E+009;1.493768990039825E-001;-1.214337870478630E-001;2.105919702444226E-005;4.663959145545960E-003;
