# Version 1.00
#
freq[Hz];re:Trc1_S11;im:Trc1_S11;re:Trc2_S21;im:Trc2_S21;
2.400000000000000E+009;1.581720113754273E-001;6.273744255304337E-002;2.389590954408050E-003;-1.338720758212730E-004;
2.400166666666667E+009;1.579348891973496E-001;6.104278191924095E-002;2.381515456363559E-003;-1.358778681606054E-004;
2.400333333333334E+009;1.577457636594772E-001;5.904993042349815E-002;2.432122360914946E-003;-2.601450833026320E-004;
2.400500000000000E+009;1.577138304710388E-001;5.719944834709168E-002;2.331777941435576E-003;-3.938198788091540E-004;
2.400666666666667E+009;1.575353592634201E-001;5.523217469453812E-002;2.212182618677616E-003;-4.994283663108945E-004;
2.400833333333334E+009;1.578536778688431E-001;5.331039056181908E-002;2.184393117204309E-003;-6.708439905196428E-004;
2.401000000000000E+009;1.579081118106842E-001;5.114551633596420E-002;2.238786313682795E-003;-7.145684212446213E-004;
2.401166666666667E+009;1.578172743320465E-001;4.926002770662308E-002;2.052830066531897E-003;-8.381880470551550E-004;
2.401333333333334E+009;1.580432802438736E-001;4.701473563909531E-002;2.001529559493065E-003;-8.572885999456048E-004;
2.401500000000000E+009;1.584093719720841E-001;4.504698142409325E-002;2.010300988331437E-003;-1.120298984460533E-003;
2.401666666666667E+009;1.586326360702515E-001;4.294248670339584E-002;1.858723466284573E-003;-1.208461239002645E-003;
2.401833333333334E+009;1.589658409357071E-001;4.084599018096924E-002;1.720763393677771E-003;-1.280926750041544E-003;
2.402000000000000E+009;1.593207865953445E-001;3.898025676608086E-002;1.619574730284512E-003;-1.411639619618654E-003;
2.402166666666667E+009;1.600087732076645E-001;3.683978319168091E-002;1.459407038055360E-003;-1.447901013307273E-003;
2.402333333333334E+009;1.604839563369751E-001;3.504408150911331E-002;1.345179742202163E-003;-1.447314512915909E-003;
2.402500000000000E+009;1.613215357065201E-001;3.323049470782280E-002;1.277907518669963E-003;-1.573910354636610E-003;
2.402666666666667E+009;1.617664098739624E-001;3.156920522451401E-002;1.078726840205491E-003;-1.583633245900273E-003;
2.402833333333334E+009;1.626053601503372E-001;2.969144843518734E-002;1.047372352331877E-003;-1.584344427101314E-003;
2.403000000000000E+009;1.634769290685654E-001;2.819993346929550E-002;8.184713078662753E-004;-1.614118227735162E-003;
2.403166666666667E+009;1.643776893615723E-001;2.659654431045055E-002;6.782484124414623E-004;-1.652656123042107E-003;
2.403333333333334E+009;1.652007102966309E-001;2.507478184998035E-002;5.155442049726844E-004;-1.481474610045552E-003;
2.403500000000000E+009;1.661514639854431E-001;2.373378910124302E-002;4.448137478902936E-004;-1.567659899592400E-003;
2.403666666666667E+009;1.671555489301682E-001;2.232329733669758E-002;3.430906508583576E-004;-1.464379020035267E-003;
2.403833333333334E+009;1.682877242565155E-001;2.089802362024784E-002;3.302341792732477E-004;-1.354528241790831E-003;
2.404000000000000E+009;1.691449135541916E-001;1.979357004165649E-002;-3.176234531565569E-005;-1.219657016918063E-003;
2.404166666666667E+009;1.702084988355637E-001;1.861594803631306E-002;6.124983337940648E-005;-1.237325253896415E-003;
2.404333333333334E+009;1.711967289447784E-001;1.753872446715832E-002;-2.343102678423747E-004;-1.197855686768889E-003;
2.404500000000000E+009;1.719318032264710E-001;1.648952625691891E-002;-8.933549543144181E-005;-1.190643175505102E-003;
2.404666666666667E+009;1.730335205793381E-001;1.576546765863895E-002;-3.415404644329101E-004;-9.450746001675725E-004;
2.404833333333334E+009;1.739984750747681E-001;1.492506824433804E-002;-5.022705299779773E-004;-8.131997892633081E-004;
2.405000000000000E+009;1.749860197305679E-001;1.417766418308020E-002;-3.518900484777987E-004;-6.770098116248846E-004;
2.405166666666667E+009;1.757852584123612E-001;1.333733554929495E-002;-4.537593922577798E-004;-7.285063038580120E-004;
2.405333333333334E+009;1.764937192201614E-001;1.290561258792877E-002;-5.659278831444681E-004;-5.228169029578567E-004;
2.405500000000000E+009;1.773214191198349E-001;1.242514513432980E-002;-6.207115948200226E-004;-5.369590362533927E-004;
2.405666666666667E+009;1.780256778001785E-001;1.204668544232845E-002;-6.660135113634169E-004;-3.497094148769975E-004;
2.405833333333334E+009;1.784389615058899E-001;1.151475217193365E-002;-5.019800737500191E-004;-2.328440750716254E-004;
2.406000000000000E+009;1.791952550411224E-001;1.112005766481161E-002;-4.149752785451710E-004;-4.454554982658010E-006;
2.406166666666667E+009;1.795531809329987E-001;1.091966405510902E-002;-6.475780974142253E-004;5.825917469337583E-005;
2.406333333333334E+009;1.801759600639343E-001;1.061685197055340E-002;-4.021229106001556E-004;1.614919310668483E-004;
2.406500000000000E+009;1.804531961679459E-001;1.018459163606167E-002;-4.021587665192783E-004;2.567533520050347E-004;
2.406666666666667E+009;1.805366277694702E-001;9.891212917864323E-003;-3.962730115745217E-004;1.636668457649648E-004;
2.406833333333334E+009;1.808657646179199E-001;9.578363038599491E-003;-1.601810217835009E-004;3.538487362675369E-004;
2.407000000000000E+009;1.809089779853821E-001;9.246525354683399E-003;-7.561435631942004E-005;4.675651143770665E-004;
2.407166666666667E+009;1.810828149318695E-001;9.052866138517857E-003;-1.622498093638569E-004;3.510545648168773E-004;
2.407333333333334E+009;1.809170097112656E-001;8.487203158438206E-003;8.165006147464737E-005;3.870743967127055E-004;
2.407500000000000E+009;1.806888729333878E-001;8.185531012713909E-003;1.043608281179331E-004;5.252299015410245E-004;
2.407666666666667E+009;1.806161552667618E-001;7.689029909670353E-003;4.274688399164006E-005;4.482953809201717E-004;
2.407833333333334E+009;1.801855564117432E-001;7.167811971157789E-003;1.997465005842969E-004;5.835355841554701E-004;
2.408000000000000E+009;1.798698157072067E-001;6.484295707195997E-003;3.295585338491947E-004;7.431530393660069E-004;
2.408166666666667E+009;1.794034689664841E-001;6.103470455855131E-003;3.947835066355765E-004;6.272672908380628E-004;
2.408333333333334E+009;1.789716184139252E-001;5.287764593958855E-003;4.610783071257174E-004;5.285611841827631E-004;
2.408500000000000E+009;1.784240901470184E-001;4.576072096824646E-003;5.722537171095610E-004;6.702395039610565E-004;
2.408666666666667E+009;1.778745949268341E-001;3.625153563916683E-003;5.894492496736348E-004;5.606961203739047E-004;
2.408833333333334E+009;1.770974695682526E-001;2.524626674130559E-003;5.942127318121493E-004;5.081005510874093E-004;
2.409000000000000E+009;1.764329373836517E-001;1.718312152661383E-003;9.751514880917966E-004;5.841175443492830E-004;
2.409166666666667E+009;1.758288890123367E-001;5.331928841769695E-004;8.710034308023751E-004;6.181713542900980E-004;
2.409333333333334E+009;1.752047538757324E-001;-5.823056562803686E-004;9.178080363199115E-004;5.624504992738366E-004;
2.409500000000000E+009;1.744566410779953E-001;-2.125084400177002E-003;9.991225088015199E-004;4.617338418029249E-004;
2.409666666666667E+009;1.737406998872757E-001;-3.257434349507093E-003;1.040926319546998E-003;4.132778849452734E-004;
2.409833333333334E+009;1.728195399045944E-001;-4.709804430603981E-003;1.271062530577183E-003;4.240128619130701E-004;
2.410000000000000E+009;1.723750680685043E-001;-6.205073092132807E-003;1.283284160308540E-003;2.437622897559777E-004;
2.410166666666667E+009;1.716184020042419E-001;-7.757409010082483E-003;1.255230396054685E-003;2.770515857264400E-004;
2.410333333333334E+009;1.711009144783020E-001;-9.428812190890312E-003;1.238700002431870E-003;1.738388527883217E-004;
2.410500000000000E+009;1.705070883035660E-001;-1.110185496509075E-002;1.424702466465533E-003;6.499144365079701E-005;
2.410666666666667E+009;1.699204742908478E-001;-1.295584905892611E-002;1.283092307858169E-003;6.748151645297185E-005;
2.410833333333334E+009;1.696799546480179E-001;-1.472691632807255E-002;1.406512456014752E-003;-1.048996055033058E-004;
2.411000000000000E+009;1.690921783447266E-001;-1.643305085599423E-002;1.222620368935168E-003;-1.571139728184789E-004;
2.411166666666667E+009;1.686809808015823E-001;-1.838293299078941E-002;1.207883935421705E-003;-1.180420222226530E-004;
2.411333333333334E+009;1.684850752353668E-001;-2.052101679146290E-002;1.259057899005711E-003;-2.367089473409578E-004;
2.411500000000000E+009;1.681356281042099E-001;-2.257168106734753E-002;1.418340369127691E-003;-3.175412712153047E-004;
2.411666666666667E+009;1.681083589792252E-001;-2.436649799346924E-002;1.312379376031458E-003;-5.084831500425935E-004;
2.411833333333334E+009;1.681729704141617E-001;-2.629397436976433E-002;1.364010618999600E-003;-3.781844279728830E-004;
2.412000000000000E+009;1.681537032127380E-001;-2.823537588119507E-002;1.190105918794870E-003;-4.896179307252169E-004;
2.412166666666667E+009;1.679754853248596E-001;-3.043574839830399E-002;1.206514891237021E-003;-5.115077365189791E-004;
2.412333333333334E+009;1.684411019086838E-001;-3.207831829786301E-002;1.284862286411226E-003;-6.792168715037406E-004;
2.412500000000000E+009;1.684655994176865E-001;-3.409168124198914E-002;1.117287087254226E-003;-6.567094824276865E-004;
2.412666666666667E+009;1.687172055244446E-001;-3.607175871729851E-002;1.106539973989129E-003;-6.037147250026465E-004;
2.412833333333334E+009;1.691981554031372E-001;-3.789902105927467E-002;1.090039033442736E-003;-5.442668334580958E-004;
2.413000000000000E+009;1.695127934217453E-001;-3.984132409095764E-002;1.119416439905763E-003;-7.796211866661906E-004;
2.413166666666667E+009;1.699823439121246E-001;-4.142017289996147E-002;1.045410055667162E-003;-8.175594848580658E-004;
2.413333333333334E+009;1.703387647867203E-001;-4.323733597993851E-002;1.140889013186097E-003;-6.951441173441708E-004;
2.413500000000000E+009;1.708329916000366E-001;-4.478842020034790E-002;1.195978838950396E-003;-8.876850479282439E-004;
2.413666666666667E+009;1.713959425687790E-001;-4.647326469421387E-002;1.182853127829731E-003;-9.116157889366150E-004;
2.413833333333334E+009;1.719186455011368E-001;-4.782218858599663E-002;1.188980881124735E-003;-8.520743576809764E-004;
2.414000000000000E+009;1.722994744777679E-001;-4.944425448775291E-002;1.138863037340343E-003;-8.154927636496723E-004;
2.414166666666667E+009;1.730854660272598E-001;-5.061921477317810E-002;9.638629271648824E-004;-1.004317193292081E-003;
2.414333333333334E+009;1.734516471624374E-001;-5.178949609398842E-002;1.131650060415268E-003;-1.108434051275253E-003;
2.414500000000000E+009;1.741419583559036E-001;-5.299033597111702E-002;9.819461265578866E-004;-9.516695863567293E-004;
2.414666666666667E+009;1.746501922607422E-001;-5.397481471300125E-002;9.614606969989836E-004;-9.449177887290716E-004;
2.414833333333334E+009;1.751711666584015E-001;-5.496904626488686E-002;1.019772375002503E-003;-1.108434516936541E-003;
2.415000000000000E+009;1.754803210496903E-001;-5.581961199641228E-002;9.911735542118549E-004;-1.095343381166458E-003;
2.415166666666667E+009;1.760414987802506E-001;-5.656066164374352E-002;8.951128111220896E-004;-1.062628813087940E-003;
2.415333333333334E+009;1.765279322862625E-001;-5.736182257533073E-002;1.013950444757938E-003;-1.151750795543194E-003;
2.415500000000000E+009;1.768232882022858E-001;-5.801425874233246E-002;9.197753388434649E-004;-1.210047514177859E-003;
2.415666666666667E+009;1.771610975265503E-001;-5.847535654902458E-002;8.450198802165687E-004;-1.265337341465056E-003;
2.415833333333334E+009;1.773159652948380E-001;-5.903473868966103E-002;9.156397427432239E-004;-1.305243000388145E-003;
2.416000000000000E+009;1.773743629455566E-001;-5.943801254034042E-002;1.002330100163817E-003;-1.349407481029630E-003;
2.416166666666667E+009;1.776917725801468E-001;-5.979083105921745E-002;8.110455819405615E-004;-1.524293562397361E-003;
2.416333333333334E+009;1.776196062564850E-001;-5.998316779732704E-002;8.328208932653070E-004;-1.421597320586443E-003;
2.416500000000000E+009;1.774885207414627E-001;-6.044053658843041E-002;8.203274337574840E-004;-1.413074438460171E-003;
2.416666666666667E+009;1.772298067808151E-001;-6.061960384249687E-002;8.412203751504421E-004;-1.552114263176918E-003;
2.416833333333334E+009;1.771215349435806E-001;-6.098236888647080E-002;7.522315136156976E-004;-1.601918949745596E-003;
2.417000000000000E+009;1.765531152486801E-001;-6.112865731120110E-002;6.141251651570201E-004;-1.685450435616076E-003;
2.417166666666667E+009;1.762252897024155E-001;-6.114539131522179E-002;6.561700720340014E-004;-1.733814133331180E-003;
2.417333333333334E+009;1.757141202688217E-001;-6.141111254692078E-002;4.150748427491635E-004;-1.768728834576905E-003;
2.417500000000000E+009;1.750991195440292E-001;-6.172702088952065E-002;4.697985132224858E-004;-1.769877620972693E-003;
2.417666666666667E+009;1.744202971458435E-001;-6.182469055056572E-002;4.853884456679225E-004;-1.842835918068886E-003;
2.417833333333334E+009;1.736695319414139E-001;-6.209540739655495E-002;4.940201179124415E-004;-1.803477876819670E-003;
2.418000000000000E+009;1.727930307388306E-001;-6.234479323029518E-002;4.399264580570161E-004;-1.988195115700364E-003;
2.418166666666667E+009;1.718536913394928E-001;-6.264958530664444E-002;3.399878332857043E-004;-1.821245532482863E-003;
2.418333333333334E+009;1.710485368967056E-001;-6.306797266006470E-002;2.414309710729867E-004;-1.840214361436665E-003;
2.418500000000000E+009;1.700203865766525E-001;-6.352606415748596E-002;1.689904311206192E-004;-1.985237700864673E-003;
2.418666666666667E+009;1.690865606069565E-001;-6.397952139377594E-002;1.241711433976889E-004;-2.156699774786830E-003;
2.418833333333334E+009;1.677016019821167E-001;-6.445170193910599E-002;-5.071693158242852E-005;-1.894845045171678E-003;
2.419000000000000E+009;1.664417386054993E-001;-6.499198079109192E-002;3.860036667902023E-005;-2.083310624584556E-003;
2.419166666666667E+009;1.654124557971954E-001;-6.571596115827560E-002;3.802769469984924E-006;-2.007259754464030E-003;
2.419333333333334E+009;1.641171872615814E-001;-6.614363193511963E-002;-1.847962557803839E-004;-2.120464807376266E-003;
2.419500000000000E+009;1.629627645015717E-001;-6.728430092334747E-002;-1.226203894475475E-004;-2.090474357828498E-003;
2.419666666666667E+009;1.618205159902573E-001;-6.819929927587509E-002;-3.488433139864355E-004;-2.191752893850207E-003;
2.419833333333334E+009;1.605115830898285E-001;-6.908106058835983E-002;-3.685030678752810E-004;-2.077870070934296E-003;
2.420000000000000E+009;1.594963967800140E-001;-7.006526738405228E-002;-5.674251588061452E-004;-2.177845453843474E-003;
2.420166666666667E+009;1.583376526832581E-001;-7.117322087287903E-002;-4.989409353584051E-004;-2.211897168308497E-003;
2.420333333333334E+009;1.573073267936707E-001;-7.247029244899750E-002;-5.096326349303126E-004;-2.139963908120990E-003;
2.420500000000000E+009;1.562753021717072E-001;-7.344462722539902E-002;-6.468995125032961E-004;-2.153947483748198E-003;
2.420666666666667E+009;1.552942991256714E-001;-7.481577247381210E-002;-8.084460860118270E-004;-2.325240755453706E-003;
2.420833333333334E+009;1.543374955654144E-001;-7.634531706571579E-002;-7.663671858608723E-004;-2.172383945435286E-003;
2.421000000000000E+009;1.534967422485352E-001;-7.777960598468781E-002;-1.030070241540670E-003;-2.157945651561022E-003;
2.421166666666667E+009;1.526571512222290E-001;-7.931281626224518E-002;-8.941562264226377E-004;-2.186542376875877E-003;
2.421333333333334E+009;1.521127074956894E-001;-8.097878843545914E-002;-1.284123398363590E-003;-2.303944202139974E-003;
2.421500000000000E+009;1.513002067804337E-001;-8.242816478013992E-002;-1.189191709272564E-003;-2.165679587051272E-003;
2.421666666666667E+009;1.508183628320694E-001;-8.405882865190506E-002;-1.374379964545369E-003;-2.106545493006706E-003;
2.421833333333334E+009;1.504563540220261E-001;-8.576979488134384E-002;-1.346520264633000E-003;-2.133654896169901E-003;
2.422000000000000E+009;1.501052379608154E-001;-8.735657483339310E-002;-1.451750518754125E-003;-2.131458371877670E-003;
2.422166666666667E+009;1.497257798910141E-001;-8.929204940795898E-002;-1.679598237387836E-003;-1.873716129921377E-003;
2.422333333333334E+009;1.495315432548523E-001;-9.097971022129059E-002;-1.758404425345361E-003;-1.837572897784412E-003;
2.422500000000000E+009;1.494002193212509E-001;-9.250164031982422E-002;-2.013813937082887E-003;-1.852131914347410E-003;
2.422666666666667E+009;1.492416560649872E-001;-9.414829313755035E-002;-1.888698432594538E-003;-1.773021998815239E-003;
2.422833333333334E+009;1.494309902191162E-001;-9.616275876760483E-002;-2.153541194275022E-003;-1.690694713033736E-003;
2.423000000000000E+009;1.495782583951950E-001;-9.757760912179947E-002;-2.189486753195524E-003;-1.559758209623396E-003;
2.423166666666667E+009;1.497786492109299E-001;-9.938816726207733E-002;-2.401965204626322E-003;-1.479160739108920E-003;
2.423333333333334E+009;1.500281840562820E-001;-1.007953137159348E-001;-2.160842297598720E-003;-1.214344054460526E-003;
2.423500000000000E+009;1.502808928489685E-001;-1.023446843028069E-001;-2.299791667610407E-003;-1.175211276859045E-003;
2.423666666666667E+009;1.505571454763413E-001;-1.039789468050003E-001;-2.393884817138314E-003;-9.860234567895532E-004;
2.423833333333334E+009;1.510770171880722E-001;-1.054427474737167E-001;-2.647104207426310E-003;-9.855249663814902E-004;
2.424000000000000E+009;1.513992846012116E-001;-1.066238284111023E-001;-2.560435561463237E-003;-7.394324056804180E-004;
2.424166666666667E+009;1.517999023199081E-001;-1.080873236060143E-001;-2.537366701290011E-003;-5.498587852343917E-004;
2.424333333333334E+009;1.524638980627060E-001;-1.092061623930931E-001;-2.458062488585711E-003;-6.568355602212250E-004;
2.424500000000000E+009;1.530279070138931E-001;-1.105454862117767E-001;-2.388908993452787E-003;-3.770556650124490E-004;
2.424666666666667E+009;1.535358875989914E-001;-1.115554124116898E-001;-2.456956077367067E-003;-1.707264163997024E-004;
2.424833333333334E+009;1.538289785385132E-001;-1.124942153692246E-001;-2.442207885906100E-003;-6.784120341762900E-005;
2.425000000000000E+009;1.543617993593216E-001;-1.134133785963059E-001;-2.434081630781293E-003;2.449785642966162E-005;
2.425166666666667E+009;1.546887606382370E-001;-1.143863052129746E-001;-2.340047154575586E-003;2.577041741460562E-004;
2.425333333333334E+009;1.551834046840668E-001;-1.150834336876869E-001;-2.244985429570079E-003;1.272533845622093E-004;
2.425500000000000E+009;1.556267142295837E-001;-1.157431751489639E-001;-2.130672801285982E-003;3.718139196280390E-004;
2.425666666666667E+009;1.556215435266495E-001;-1.164100319147110E-001;-2.269038930535317E-003;4.585087008308619E-004;
2.425833333333334E+009;1.560808867216110E-001;-1.169092655181885E-001;-1.940732356160879E-003;6.078428123146296E-004;
2.426000000000000E+009;1.562471240758896E-001;-1.174188479781151E-001;-1.903962343931198E-003;6.599517655558884E-004;
2.426166666666667E+009;1.566150635480881E-001;-1.177831366658211E-001;-1.789597445167601E-003;6.301483954302967E-004;
2.426333333333334E+009;1.565102934837341E-001;-1.181783229112625E-001;-1.833341433666647E-003;8.787135011516511E-004;
2.426500000000000E+009;1.564837843179703E-001;-1.183957606554031E-001;-1.796530210413039E-003;7.807872607372701E-004;
2.426666666666667E+009;1.565643697977066E-001;-1.184412539005280E-001;-1.647445606067777E-003;7.047235849313438E-004;
2.426833333333334E+009;1.563791185617447E-001;-1.187484636902809E-001;-1.664329902268946E-003;8.799317874945700E-004;
2.427000000000000E+009;1.559957712888718E-001;-1.190512180328369E-001;-1.658631605096161E-003;9.578384342603385E-004;
2.427166666666667E+009;1.555526107549667E-001;-1.189909651875496E-001;-1.372461323626339E-003;9.504078770987690E-004;
2.427333333333334E+009;1.551112979650497E-001;-1.189582496881485E-001;-1.417336985468864E-003;9.964220225811005E-004;
2.427500000000000E+009;1.546886712312698E-001;-1.192131787538528E-001;-1.264852471649647E-003;9.772290941327810E-004;
2.427666666666667E+009;1.540116965770721E-001;-1.193120777606964E-001;-1.230760361067951E-003;7.089101127348840E-004;
