# Hz S RI R 50
2400000000.0000000000 0.168798610568046597579794365629 0.040353942662477493286132812500 -0.001308821374550461985944438403 -0.002544579794630407853367470850 0 0 0 0 
2400166666.6666665077 0.169455647468566894531250000000 0.039872653782367713237722028907 -0.000990713713690638542175292969 -0.002503742463886737823486328125 0 0 0 0 
2400333333.3333334923 0.170114904642105102539062500000 0.038999132812023162841796875000 -0.001202568178996443965314555591 -0.002570961369201540946960449219 0 0 0 0 
2400500000.0000000000 0.170547455549240112304687500000 0.038071386516094207763671875000 -0.001255532028153538920758891528 -0.002543396549299358887913369287 0 0 0 0 
2400666666.6666665077 0.171081632375717190841513115629 0.037409994751214981079101562500 -0.001448611961677670912501669775 -0.002428966341540216965916298975 0 0 0 0 
2400833333.3333334923 0.171503022313118008712606865629 0.036807954311370849609375000000 -0.001511123264208436012268066406 -0.002574628219008446173426962744 0 0 0 0 
2401000000.0000000000 0.171632811427116394042968750000 0.035990897566080093383789062500 -0.001494137221015989997266459888 -0.002405314473435283140895224463 0 0 0 0 
2401166666.6666665077 0.172069042921066311935263115629 0.035044461488723761821706403907 -0.001811254536733031056047749097 -0.002326685003936291174647665869 0 0 0 0 
2401333333.3333334923 0.172095775604248102386151231258 0.034239463508129119873046875000 -0.001895005931146443107007670825 -0.002313564531505107879638671875 0 0 0 0 
2401500000.0000000000 0.172214135527610806564169365629 0.033524796366691589355468750000 -0.002171443775296210808994912256 -0.002306785900145769119262695312 0 0 0 0 
2401666666.6666665077 0.172336816787719698806924384371 0.032840482890605933452565778907 -0.002243641763925551934483193506 -0.002178718335926533179042197119 0 0 0 0 
2401833333.3333334923 0.172315552830696105957031250000 0.031917516142129898071289062500 -0.002468819031491876082179404150 -0.001887511112727225043653178638 0 0 0 0 
2402000000.0000000000 0.172303661704063387771768134371 0.031147662550210949289342110546 -0.002536492655053735213038779150 -0.001788935158401727893232036060 0 0 0 0 
2402166666.6666665077 0.172301337122917203048544365629 0.030237924307584759103795235546 -0.002619786420837045149562216650 -0.001566148479469120936152792822 0 0 0 0 
2402333333.3333334923 0.172047123312950106521768134371 0.029454221948981288564661795704 -0.002455486217513680891749716650 -0.001336136367172003009198832935 0 0 0 0 
2402500000.0000000000 0.172160789370536804199218750000 0.028551589697599411010742187500 -0.002592269564047455787658691406 -0.001111214281991123936296772534 0 0 0 0 
2402666666.6666665077 0.172240227460861206054687500000 0.027813686057925220834752266796 -0.002457493217661976814270019531 -0.000982060329988598823547363281 0 0 0 0 
2402833333.3333334923 0.171957850456237792968750000000 0.026845259591937068593958670704 -0.002396143972873688177821493994 -0.000887033063918352127075195312 0 0 0 0 
2403000000.0000000000 0.171741425991058405120526231258 0.025614045560359958303431326954 -0.002179376780986785888671875000 -0.000617206154856830835342407227 0 0 0 0 
2403166666.6666665077 0.171547845005989102462606865629 0.024537695571780211711843122657 -0.002256224164739251136779785156 -0.000790670339483767747879028320 0 0 0 0 
2403333333.3333334923 0.171503543853759793380575615629 0.023418974131345748901367187500 -0.002139017451554536819458007812 -0.000548074545804411172866821289 0 0 0 0 
2403500000.0000000000 0.171250775456428500076455634371 0.022538416087627410888671875000 -0.001923934440128505013109516675 -0.000553371151909232139587402344 0 0 0 0 
2403666666.6666665077 0.171105444431304903885049384371 0.021128835156559940683385079296 -0.001940346206538378975511860425 -0.000581579341087490320205688477 0 0 0 0 
2403833333.3333334923 0.170715913176536587814169365629 0.019789079204201698303222656250 -0.001754400669597089073778461987 -0.000636813289020210504531860352 0 0 0 0 
2404000000.0000000000 0.170723274350166293045205634371 0.018499571830034259450892264454 -0.001813618349842726967455219800 -0.000748582358937710523605346680 0 0 0 0 
2404166666.6666665077 0.170386165380477905273437500000 0.017210131511092189443568045704 -0.001772122806869447014452290112 -0.000805389136075973510742187500 0 0 0 0 
2404333333.3333334923 0.170252040028572110275106865629 0.015694409608840938913365548046 -0.001695446437224745967267680591 -0.000969886779785156250000000000 0 0 0 0 
2404500000.0000000000 0.169836655259132413009481865629 0.014336029998958110809326171875 -0.001978640677407383918762207031 -0.001047659781761468107338930444 0 0 0 0 
2404666666.6666665077 0.169909998774528503417968750000 0.012861809693276880436907383398 -0.001899199560284614996669150244 -0.001251550740562378926518105615 0 0 0 0 
2404833333.3333334923 0.169791683554649408538494981258 0.011360237374901769810686680273 -0.002120083663612604141235351562 -0.001071816659532486958744668115 0 0 0 0 
2405000000.0000000000 0.169585451483726501464843750000 0.009851704351603984832763671875 -0.002087363973259925842285156250 -0.001161656575277447917340922778 0 0 0 0 
2405166666.6666665077 0.169431865215301513671875000000 0.008273070678114891052246093750 -0.002247423399239778952357626807 -0.000958088319748640060424804688 0 0 0 0 
2405333333.3333334923 0.169508144259452792068643134371 0.006270862650126218795776367188 -0.002339014783501625061035156250 -0.000984142418019473552703857422 0 0 0 0 
2405500000.0000000000 0.169466838240623501876669365629 0.004802884068340063095092773438 -0.002406963380053638978245400537 -0.000880508159752935171127319336 0 0 0 0 
2405666666.6666665077 0.169302120804786709884481865629 0.003126760246232151985168457031 -0.002512574428692460060119628906 -0.000799537287093698978424072266 0 0 0 0 
2405833333.3333334923 0.169165268540382413009481865629 0.001611242769286036925074911963 -0.002722157631069422201869345557 -0.000757035217247903347015380859 0 0 0 0 
2406000000.0000000000 0.169300049543380709549111884371 -0.000230838864808902090221959247 -0.002674316521733998818638466943 -0.000499603687785565853118896484 0 0 0 0 
2406166666.6666665077 0.168929547071456909179687500000 -0.001897126203402877070783305591 -0.002829202683642507033107138525 -0.000344994070474058389663696289 0 0 0 0 
2406333333.3333334923 0.169042840600013705154580634371 -0.003556932089850306944606161963 -0.002634393982589244842529296875 -0.000237148458836600211545667105 0 0 0 0 
2406500000.0000000000 0.168867766857147189041299384371 -0.005374877247959375381469726562 -0.002490194048732519149780273438 -0.000243080605287104899257105695 0 0 0 0 
2406666666.6666665077 0.168651401996612604339276231258 -0.006844121497124434384817792676 -0.002634725533425807952880859375 -0.000077649645390920341014862061 0 0 0 0 
2406833333.3333334923 0.168633252382278386871661268742 -0.008516602218151092529296875000 -0.002582463202998042106628417969 0.000007484008165192790329456329 0 0 0 0 
2407000000.0000000000 0.168549001216888399978799384371 -0.010167824104428289586077305273 -0.002551416866481304168701171875 0.000132294953800737912028712140 0 0 0 0 
2407166666.6666665077 0.168513402342796297928018134371 -0.011381478048861030233362967579 -0.002574237994849681854248046875 0.000098941287433262914419174194 0 0 0 0 
2407333333.3333334923 0.168435350060463007171307481258 -0.013100516982376580674141131055 -0.002587375696748495101928710938 0.000035705801565200090408325195 0 0 0 0 
2407500000.0000000000 0.168272778391838101486044365629 -0.014349538832902910059918788477 -0.002553142840042709870579384912 0.000178626636625267592355451041 0 0 0 0 
2407666666.6666665077 0.168256595730781610686932481258 -0.015620156191289430100410662305 -0.002506642602384089989903115381 0.000014816540897299999539750252 0 0 0 0 
2407833333.3333334923 0.167988672852516202071981865629 -0.016996664926409721374511718750 -0.002436427632346748872044228662 0.000008182494639186188578605652 0 0 0 0 
2408000000.0000000000 0.168059155344963101486044365629 -0.018086461350321769714355468750 -0.002616493497043848037719726562 0.000031737559766042977571487427 0 0 0 0 
2408166666.6666665077 0.168106406927108792404013115629 -0.018955210223793979990025704296 -0.002709485823288559913635253906 0.000140752876177430207103175031 0 0 0 0 
2408333333.3333334923 0.168256074190139798263388115629 -0.020089164376258850097656250000 -0.002707249484956264929530478369 0.000203604620764963301733294077 0 0 0 0 
2408500000.0000000000 0.168255284428596496582031250000 -0.020944267511367801321009451954 -0.002835702616721392111537314307 0.000229514043894596397876739502 0 0 0 0 
2408666666.6666665077 0.168418779969215393066406250000 -0.021991634741425510751744454296 -0.002871111501008272171020507812 0.000424380530603229999542236328 0 0 0 0 
2408833333.3333334923 0.168439447879791287521200615629 -0.022774962708353999746302420704 -0.002956087235361338095424033057 0.000246669922489672899246215820 0 0 0 0 
2409000000.0000000000 0.168608397245407104492187500000 -0.023781100288033488882044608204 -0.003122622147202492193934775244 0.000546679191756993532180786133 0 0 0 0 
2409166666.6666665077 0.168941527605056790450888115629 -0.024599438533186909067174141796 -0.003089060308411716981175088037 0.000717581307981163263320922852 0 0 0 0 
2409333333.3333334923 0.169249281287193298339843750000 -0.025429835543036460876464843750 -0.003314944682642817930934286963 0.000900263315998017787933349609 0 0 0 0 
2409500000.0000000000 0.169540539383888189117755018742 -0.026365583762526508676549141796 -0.003194239456206560134887695312 0.000998169416561722755432128906 0 0 0 0 
2409666666.6666665077 0.169595077633857699295205634371 -0.027107303962111469614049141796 -0.003176667494699358940124511719 0.001306044869124888940098427881 0 0 0 0 
2409833333.3333334923 0.169739335775375393966513115629 -0.027776330709457400930384451954 -0.003235833253711462020874023438 0.001236010459251702048658061450 0 0 0 0 
2410000000.0000000000 0.169962540268898010253906250000 -0.028583493083715438842773437500 -0.003143399022519588904139853369 0.001491454080678523020503378760 0 0 0 0 
2410166666.6666665077 0.170169904828071594238281250000 -0.029444320127367969858189766796 -0.003198486054316163063049316406 0.001659114263020456054090190356 0 0 0 0 
2410333333.3333334923 0.170187190175056513030682481258 -0.030237955972552299499511718750 -0.003158775856718420982360839844 0.002055336721241474151611328125 0 0 0 0 
2410500000.0000000000 0.170400440692901611328125000000 -0.031028097495436668395996093750 -0.003064886666834353966953896631 0.002014827448874711990356445312 0 0 0 0 
2410666666.6666665077 0.170145690441131591796875000000 -0.032026756554842002178151716407 -0.002940782345831394195556640625 0.002198006492108107046840048682 0 0 0 0 
2410833333.3333334923 0.170034363865852411468182481258 -0.032657425850629813457448591407 -0.002894293051213026046752929688 0.002333591226488351821899414062 0 0 0 0 
2411000000.0000000000 0.170166030526161193847656250000 -0.033356256783008582378347028907 -0.002715637441724538803100585938 0.002608439186587930159327841650 0 0 0 0 
2411166666.6666665077 0.169798105955123901367187500000 -0.034324429929256439208984375000 -0.002743234159424901008605957031 0.002597061917185782952549599756 0 0 0 0 
2411333333.3333334923 0.169700816273689297775106865629 -0.035001501441001892089843750000 -0.002564450958743691010716103662 0.002632821910083293914794921875 0 0 0 0 
2411500000.0000000000 0.169512271881103487869424384371 -0.035828147083520889282226562500 -0.002426719060167669816258095850 0.002887081354856491088867187500 0 0 0 0 
2411666666.6666665077 0.169386908411979703048544365629 -0.036627452820539467548410783593 -0.002382517559453845024108886719 0.002917926758527756170985556494 0 0 0 0 
2411833333.3333334923 0.169101968407630892654580634371 -0.037309292703866958618164062500 -0.002285431837663054899928427588 0.003108735429123044013977050781 0 0 0 0 
2412000000.0000000000 0.168828070163726806640625000000 -0.038295228034257888793945312500 -0.001940380199812353090998984229 0.003194003133103251890895224463 0 0 0 0 
2412166666.6666665077 0.168342396616935702224893134371 -0.039035901427268981933593750000 -0.002085959305986762046813964844 0.003266840707510710196254111182 0 0 0 0 
2412333333.3333334923 0.168303146958351107498330634371 -0.039761126041412346576731096093 -0.001625536824576556899427104419 0.003452735254541039900538779150 0 0 0 0 
2412500000.0000000000 0.167656332254409790039062500000 -0.040839638561010360717773437500 -0.001529983477666974067687988281 0.003496618242934346199035644531 0 0 0 0 
2412666666.6666665077 0.167429938912391690353231865629 -0.041923731565475456928293596093 -0.001412459183484316089032817310 0.003561781486496328873875283350 0 0 0 0 
2412833333.3333334923 0.166907548904419000823651231258 -0.042788896709680557250976562500 -0.001337036956101655960083007812 0.003722700057551265196559286963 0 0 0 0 
2413000000.0000000000 0.166329622268676813323651231258 -0.043611463159322738647460937500 -0.001253130496479571082471538013 0.003550614928826690153834677588 0 0 0 0 
2413166666.6666665077 0.165752530097961398025674384371 -0.044651493430137627338449846093 -0.000746813893783837556838989258 0.003801227081567049026489257812 0 0 0 0 
2413333333.3333334923 0.165202006697654696365518134371 -0.045587576925754547119140625000 -0.000592621567193418741226196289 0.003650710219517350196838378906 0 0 0 0 
2413500000.0000000000 0.164546191692352294921875000000 -0.046705368906259536743164062500 -0.000424083060352131724357604980 0.003571488428860902786254882812 0 0 0 0 
2413666666.6666665077 0.164036184549331692794638115629 -0.047726802527904510498046875000 -0.000198618901777081191539764404 0.003666125703603028817417763818 0 0 0 0 
2413833333.3333334923 0.163386628031730707366619981258 -0.048557911068201072002370466407 0.000014803030353505159302644235 0.003539579920470715002772665869 0 0 0 0 
2414000000.0000000000 0.162758275866508511642294365629 -0.049614734947681427001953125000 0.000025060560801648541610648496 0.003432788653299212889430380713 0 0 0 0 
2414166666.6666665077 0.162585303187370300292968750000 -0.050576414912939071655273437500 0.000215703665162436691209515982 0.003509536152705550193786621094 0 0 0 0 
2414333333.3333334923 0.161803647875785799881143134371 -0.051567286252975456928293596093 0.000549433811102062463760375977 0.003403205890208483175990439307 0 0 0 0 
2414500000.0000000000 0.161825835704803494552450615629 -0.052559539675712592388112653907 0.000648194400127977132797241211 0.003261632286012173132655478369 0 0 0 0 
2414666666.6666665077 0.161096498370170593261718750000 -0.053622778505086898803710937500 0.000640736834611743688583374023 0.003195150755345820946934365381 0 0 0 0 
2414833333.3333334923 0.160828202962875393966513115629 -0.054760187864303588867187500000 0.000826375966425985097885131836 0.003032722743228077888488769531 0 0 0 0 
2415000000.0000000000 0.160326421260833712478799384371 -0.055769562721252441406250000000 0.000868541479576379060745239258 0.002844125498086214065551757812 0 0 0 0 
2415166666.6666665077 0.160171777009963989257812500000 -0.057072605937719352031667341407 0.000923768559005111455917358398 0.002867457224056125120875693213 0 0 0 0 
2415333333.3333334923 0.160074234008789090255575615629 -0.058118890970945358276367187500 0.000899798877071589231491088867 0.002743498189374804930446005713 0 0 0 0 
2415500000.0000000000 0.159861341118812588790731865629 -0.059494182467460632324218750000 0.000884648761712014675140380859 0.002583735156804323196411132812 0 0 0 0 
2415666666.6666665077 0.159560933709144592285156250000 -0.060607708990573883056640625000 0.000885554531123489141464233398 0.002470129635185002846958779443 0 0 0 0 
2415833333.3333334923 0.159390524029731805999432481258 -0.061933141201734542846679687500 0.000928227673284709453582763672 0.002288048155605792999267578125 0 0 0 0 
2416000000.0000000000 0.158919662237167386154013115629 -0.063185885548591613769531250000 0.001142688561230897903442382812 0.002245441311970353126525878906 0 0 0 0 
2416166666.6666665077 0.158972144126892089843750000000 -0.064566947519779205322265625000 0.000974188849795609712600708008 0.002218667417764664129969931494 0 0 0 0 
2416333333.3333334923 0.158574655652046203613281250000 -0.065698705613613128662109375000 0.001063792733475565910339355469 0.002191974781453609900233603369 0 0 0 0 
2416500000.0000000000 0.158363774418830899337606865629 -0.067229390144348144531250000000 0.001022756681777537085889506763 0.002063225023448466820957802881 0 0 0 0 
2416666666.6666665077 0.158027648925781305511151231258 -0.068377681076526641845703125000 0.000942782091442495584487915039 0.002126968931406735940220498193 0 0 0 0 
2416833333.3333334923 0.157850131392478887359942518742 -0.069835722446441650390625000000 0.001143428264185786030412983472 0.001964024035260080857517861475 0 0 0 0 
2417000000.0000000000 0.157402232289314297775106865629 -0.070964641869068145751953125000 0.001046787248924375014064169775 0.001928230165503918907762836987 0 0 0 0 
2417166666.6666665077 0.157126054167747497558593750000 -0.071973606944084167480468750000 0.001039920141920446915867470850 0.001870337291620671965955424731 0 0 0 0 
2417333333.3333334923 0.156889587640762301345986884371 -0.073050439357757568359375000000 0.000987127772532403469085693359 0.001809127395972609953639365088 0 0 0 0 
2417500000.0000000000 0.156548619270324707031250000000 -0.074406459927558898925781250000 0.001011285465210675976396870190 0.001779554528184235095977783203 0 0 0 0 
2417666666.6666665077 0.156300246715545709808026231258 -0.075097829103469848632812500000 0.000991308945231139659881591797 0.001844784826971590952632285010 0 0 0 0 
2417833333.3333334923 0.156112655997276306152343750000 -0.076021395623683929443359375000 0.000815477571450173854827880859 0.002024690853431820869445800781 0 0 0 0 
2418000000.0000000000 0.155790671706199701507244981258 -0.077021531760692596435546875000 0.000979335163719952106475830078 0.001987311290577054023742675781 0 0 0 0 
2418166666.6666665077 0.155648797750472994705361884371 -0.077830664813518524169921875000 0.000701493583619594573974609375 0.001964616123586893081665039062 0 0 0 0 
2418333333.3333334923 0.155774235725402804275674384371 -0.078696191310882568359375000000 0.000793520594015717506408691406 0.002095577074214816093444824219 0 0 0 0 
2418500000.0000000000 0.155447006225585909744424384371 -0.079640574753284454345703125000 0.000837553176097571849822998047 0.002157277427613735198974609375 0 0 0 0 
2418666666.6666665077 0.155336320400238009353799384371 -0.080459460616111755371093750000 0.000693104753736406564712524414 0.002091636881232262091395712744 0 0 0 0 
2418833333.3333334923 0.155030310153961209396200615629 -0.081285335123538970947265625000 0.000880349369253963232040405273 0.002246327931061387062072753906 0 0 0 0 
2419000000.0000000000 0.154723584651946993728799384371 -0.081951998174190521240234375000 0.001053883344866334958317422021 0.002383372979238628907444619287 0 0 0 0 
2419166666.6666665077 0.154628947377204895019531250000 -0.082754567265510559082031250000 0.001014259527437388896942138672 0.002366906264796853065490722656 0 0 0 0 
2419333333.3333334923 0.154231220483779907226562500000 -0.083207391202449798583984375000 0.001147401868365705013275146484 0.002616513054817914962768554688 0 0 0 0 
2419500000.0000000000 0.154054850339889498611611884371 -0.084015697240829467773437500000 0.001231087488122283978703164209 0.002660249127075076103210449219 0 0 0 0 
2419666666.6666665077 0.153937876224517794510049384371 -0.084596045315265655517578125000 0.001517209690064192035077739185 0.002773164073005319075343466650 0 0 0 0 
2419833333.3333334923 0.153518021106719998458700615629 -0.084828011691570281982421875000 0.001731676748022437095642089844 0.002876962302252649827244423975 0 0 0 0 
