# Version 1.00
#
freq[Hz];re:Trc1_S11;im:Trc1_S11;re:Trc2_S21;im:Trc2_S21;
2.400000000000000E+009;1.555690318346024E-001;1.110879555344582E-001;-3.174829762428999E-003;-1.085666823200882E-003;
2.400166666666667E+009;1.549783349037170E-001;1.087791398167610E-001;-3.345088334754109E-003;-1.103550894185901E-003;
2.400333333333334E+009;1.549181938171387E-001;1.065783873200417E-001;-3.413652768358588E-003;-9.876490803435445E-004;
2.400500000000000E+009;1.544925421476364E-001;1.039914116263390E-001;-3.370133228600025E-003;-7.966250996105373E-004;
2.400666666666667E+009;1.545068919658661E-001;1.015201285481453E-001;-3.414946608245373E-003;-7.631841581314802E-004;
2.400833333333334E+009;1.540163606405258E-001;9.861607849597931E-002;-3.492592833936214E-003;-5.641350871883333E-004;
2.401000000000000E+009;1.540165543556213E-001;9.563463926315308E-002;-3.487511537969112E-003;-3.968842502217740E-004;
2.401166666666667E+009;1.539094150066376E-001;9.279058128595352E-002;-3.438556334003806E-003;-3.967234515585005E-004;
2.401333333333334E+009;1.540597528219223E-001;8.978255838155747E-002;-3.499001264572144E-003;-3.302727418486029E-004;
2.401500000000000E+009;1.542085409164429E-001;8.695074170827866E-002;-3.431513905525208E-003;-1.674631639616564E-004;
2.401666666666667E+009;1.543577611446381E-001;8.377390354871750E-002;-3.430904122069478E-003;2.483233402017504E-004;
2.401833333333334E+009;1.546046584844589E-001;8.090143650770187E-002;-3.590653184801340E-003;2.387593558523804E-004;
2.402000000000000E+009;1.552473157644272E-001;7.777613401412964E-002;-3.073770785704255E-003;6.963780033402145E-004;
2.402166666666667E+009;1.558506488800049E-001;7.515632361173630E-002;-3.367333440110087E-003;1.031496096402407E-003;
2.402333333333334E+009;1.566538065671921E-001;7.212579250335693E-002;-3.386443946510553E-003;2.774308959487826E-004;
2.402500000000000E+009;1.577440500259399E-001;6.930694729089737E-002;-3.729046089574695E-003;5.967101315036416E-004;
2.402666666666667E+009;1.587836593389511E-001;6.700833886861801E-002;-2.579814288765192E-003;2.129565982613713E-004;
2.402833333333334E+009;1.600563973188400E-001;6.398493051528931E-002;-3.562346799299121E-003;1.407976727932692E-003;
2.403000000000000E+009;1.612159162759781E-001;6.150368228554726E-002;-1.766665955074132E-003;1.126224757172167E-003;
2.403166666666667E+009;1.632207930088043E-001;5.889208242297173E-002;-3.238760633394122E-003;1.272982102818787E-003;
2.403333333333334E+009;1.644387245178223E-001;5.651914700865746E-002;-2.500658622011542E-003;7.406648946925998E-004;
2.403500000000000E+009;1.663281023502350E-001;5.410188063979149E-002;-2.498986665159464E-003;7.815264980308712E-004;
2.403666666666667E+009;1.680782735347748E-001;5.200921744108200E-002;-2.365646651014686E-003;7.786560454405844E-004;
2.403833333333334E+009;1.697604060173035E-001;4.999190568923950E-002;-2.463565208017826E-003;6.496317801065743E-004;
2.404000000000000E+009;1.714527457952499E-001;4.782872274518013E-002;-2.485205885022879E-003;5.391549784690142E-004;
2.404166666666667E+009;1.733133196830750E-001;4.627369716763496E-002;-2.669140929356217E-003;4.890970885753632E-004;
2.404333333333334E+009;1.750186830759049E-001;4.446729272603989E-002;-2.693412359803915E-003;5.456072976812720E-004;
2.404500000000000E+009;1.767549067735672E-001;4.285502061247826E-002;-3.058469621464610E-003;5.902954726479948E-004;
2.404666666666667E+009;1.786144226789475E-001;4.156517609953880E-002;-3.083927324041724E-003;5.427203141152859E-004;
2.404833333333334E+009;1.805572509765625E-001;4.040220752358437E-002;-3.185888752341270E-003;6.373534561134875E-004;
2.405000000000000E+009;1.820797324180603E-001;3.954292461276054E-002;-3.169304691255093E-003;1.018834649585187E-003;
2.405166666666667E+009;1.837904155254364E-001;3.880332037806511E-002;-3.311186796054244E-003;1.022112439386547E-003;
2.405333333333334E+009;1.854148507118225E-001;3.827239945530891E-002;-3.385628107935190E-003;1.203643623739481E-003;
2.405500000000000E+009;1.871084272861481E-001;3.781327977776527E-002;-3.369879676029086E-003;1.434981008060277E-003;
2.405666666666667E+009;1.884941160678864E-001;3.729240596294403E-002;-3.359324531629682E-003;1.708286814391613E-003;
2.405833333333334E+009;1.900562942028046E-001;3.717836365103722E-002;-3.337635891512036E-003;1.610284205526114E-003;
2.406000000000000E+009;1.913456618785858E-001;3.695339336991310E-002;-3.217787481844425E-003;2.007427159696817E-003;
2.406166666666667E+009;1.926474273204804E-001;3.705617040395737E-002;-3.095679450780153E-003;2.133857691660523E-003;
2.406333333333334E+009;1.937624812126160E-001;3.707015141844750E-002;-2.992280526086688E-003;2.072799718007445E-003;
2.406500000000000E+009;1.947813183069229E-001;3.732811659574509E-002;-3.015333553776145E-003;2.116143703460693E-003;
2.406666666666667E+009;1.956808269023895E-001;3.756107762455940E-002;-3.056469606235623E-003;2.280574059113860E-003;
2.406833333333334E+009;1.964897066354752E-001;3.770048916339874E-002;-2.735092537477613E-003;2.347303321585059E-003;
2.407000000000000E+009;1.969565749168396E-001;3.819780051708221E-002;-2.918757963925600E-003;2.446205355226994E-003;
2.407166666666667E+009;1.976088583469391E-001;3.822353109717369E-002;-2.811756683513522E-003;2.632722491398454E-003;
2.407333333333334E+009;1.976065784692764E-001;3.870642557740212E-002;-2.873168326914311E-003;2.661218866705895E-003;
2.407500000000000E+009;1.978430896997452E-001;3.904450684785843E-002;-2.928722649812698E-003;2.667240565642715E-003;
2.407666666666667E+009;1.978925764560700E-001;3.921612724661827E-002;-2.789106918498874E-003;2.784954383969307E-003;
2.407833333333334E+009;1.977076828479767E-001;3.941919654607773E-002;-2.731817075982690E-003;2.886379137635231E-003;
2.408000000000000E+009;1.977353990077972E-001;3.969188407063484E-002;-2.817410742864013E-003;3.294362686574459E-003;
2.408166666666667E+009;1.970417946577072E-001;3.966544941067696E-002;-2.905589994043112E-003;3.341486910358071E-003;
2.408333333333334E+009;1.968425065279007E-001;3.955950960516930E-002;-2.826908370479941E-003;3.648112528026104E-003;
2.408500000000000E+009;1.961083561182022E-001;3.965134918689728E-002;-2.694340422749519E-003;3.877055598422885E-003;
2.408666666666667E+009;1.955924481153488E-001;3.934698179364204E-002;-2.894392004236579E-003;3.985179588198662E-003;
2.408833333333334E+009;1.948389112949371E-001;3.896404057741165E-002;-2.552267629653215E-003;4.061592277139425E-003;
2.409000000000000E+009;1.937663257122040E-001;3.849052637815476E-002;-2.329261275008321E-003;4.252008162438870E-003;
2.409166666666667E+009;1.927239447832108E-001;3.778426721692085E-002;-2.145656384527683E-003;4.533149767667055E-003;
2.409333333333334E+009;1.918304562568665E-001;3.716087713837624E-002;-2.018255414441228E-003;4.723167046904564E-003;
2.409500000000000E+009;1.905790567398071E-001;3.624895215034485E-002;-1.806959859095514E-003;4.895433783531189E-003;
2.409666666666667E+009;1.894479840993881E-001;3.497225046157837E-002;-1.473815296776593E-003;4.936550278216600E-003;
2.409833333333334E+009;1.882226467132568E-001;3.363763540983200E-002;-1.130018616095185E-003;5.173892248421907E-003;
2.410000000000000E+009;1.870240569114685E-001;3.240058198571205E-002;-9.862830629572272E-004;5.048198159784079E-003;
2.410166666666667E+009;1.859006732702255E-001;3.064224682748318E-002;-7.510160212405026E-004;5.258192308247089E-003;
2.410333333333334E+009;1.847049593925476E-001;2.901149354875088E-002;-3.983665083069354E-004;5.259247496724129E-003;
2.410500000000000E+009;1.834812611341476E-001;2.723431587219238E-002;-2.798406931106001E-004;5.328583996742964E-003;
2.410666666666667E+009;1.824295967817307E-001;2.527188695967197E-002;-4.589591117110103E-005;5.363727454096079E-003;
2.410833333333334E+009;1.814623624086380E-001;2.306648716330528E-002;2.578624116722494E-004;5.272315349429846E-003;
2.411000000000000E+009;1.805573254823685E-001;2.093595825135708E-002;4.272595106158406E-004;5.232816096395254E-003;
2.411166666666667E+009;1.796664148569107E-001;1.875024102628231E-002;7.751596276648343E-004;5.234833806753159E-003;
2.411333333333334E+009;1.788530945777893E-001;1.621511392295361E-002;9.502111934125423E-004;5.199756938964129E-003;
2.411500000000000E+009;1.780811101198196E-001;1.408098638057709E-002;1.228794455528259E-003;5.073057953268290E-003;
2.411666666666667E+009;1.778178066015244E-001;1.145374123007059E-002;1.389214652590454E-003;5.052959080785513E-003;
2.411833333333334E+009;1.771668493747711E-001;8.841058239340782E-003;1.623279182240367E-003;4.958753008395433E-003;
2.412000000000000E+009;1.771546006202698E-001;6.280998699367046E-003;1.854110276326537E-003;5.010739434510469E-003;
2.412166666666667E+009;1.771178096532822E-001;3.853174624964595E-003;2.179106464609504E-003;4.943264182657003E-003;
2.412333333333334E+009;1.771342009305954E-001;1.161635387688875E-003;2.186173573136330E-003;4.985756706446409E-003;
2.412500000000000E+009;1.775325089693070E-001;-1.496241078712046E-003;2.480523893609643E-003;4.635366611182690E-003;
2.412666666666667E+009;1.779077500104904E-001;-4.251262638717890E-003;2.759952563792467E-003;4.701947327703238E-003;
2.412833333333334E+009;1.784802377223969E-001;-6.785129196941853E-003;3.086947370320559E-003;4.432183690369129E-003;
2.413000000000000E+009;1.790605187416077E-001;-9.389711543917656E-003;3.377129556611180E-003;4.356717690825462E-003;
2.413166666666667E+009;1.798821240663528E-001;-1.182804442942143E-002;3.596988506615162E-003;4.168786108493805E-003;
2.413333333333334E+009;1.809122413396835E-001;-1.437355391681194E-002;3.801615210250020E-003;3.871205961331725E-003;
2.413500000000000E+009;1.816772371530533E-001;-1.693713665008545E-002;3.945668693631887E-003;3.536570351570845E-003;
2.413666666666667E+009;1.830464005470276E-001;-1.941858977079392E-002;4.190406296402216E-003;3.487917827442288E-003;
2.413833333333334E+009;1.841864436864853E-001;-2.160948328673840E-002;4.227776080369949E-003;3.079548943787813E-003;
2.414000000000000E+009;1.853738725185394E-001;-2.373270504176617E-002;4.513425286859274E-003;2.551899524405599E-003;
2.414166666666667E+009;1.867049783468247E-001;-2.578396722674370E-002;4.470873624086380E-003;2.314104465767741E-003;
2.414333333333334E+009;1.879329532384872E-001;-2.797138504683971E-002;4.423874896019697E-003;1.979570370167494E-003;
2.414500000000000E+009;1.894146949052811E-001;-2.982162125408649E-002;4.261155147105455E-003;1.659774105064571E-003;
2.414666666666667E+009;1.907771080732346E-001;-3.140242397785187E-002;4.206957761198282E-003;1.611957559362054E-003;
2.414833333333334E+009;1.921814084053040E-001;-3.309815004467964E-002;4.224352072924376E-003;1.222418737597764E-003;
2.415000000000000E+009;1.936376839876175E-001;-3.450099751353264E-002;4.149916581809521E-003;1.005196478217840E-003;
2.415166666666667E+009;1.950075328350067E-001;-3.567365929484367E-002;3.925107885152102E-003;7.945524994283915E-004;
2.415333333333334E+009;1.964865326881409E-001;-3.688935190439224E-002;3.923502750694752E-003;6.370375631377101E-004;
2.415500000000000E+009;1.979743093252182E-001;-3.757335990667343E-002;3.728378564119339E-003;4.033448349218816E-004;
2.415666666666667E+009;1.992382258176804E-001;-3.881265968084335E-002;3.569439286366105E-003;4.874732694588602E-004;
2.415833333333334E+009;2.002946138381958E-001;-3.937395289540291E-002;3.606271231546998E-003;2.816591877490282E-004;
2.416000000000000E+009;2.013529688119888E-001;-4.014308378100395E-002;3.432017052546144E-003;1.722519227769226E-004;
2.416166666666667E+009;2.025021165609360E-001;-4.078056663274765E-002;3.365479642525315E-003;-1.505200998508371E-005;
2.416333333333334E+009;2.034091800451279E-001;-4.100126400589943E-002;3.201268380507827E-003;-6.858718552393839E-005;
2.416500000000000E+009;2.042882442474365E-001;-4.132197052240372E-002;3.136953338980675E-003;-3.066144126933068E-004;
2.416666666666667E+009;2.048494070768356E-001;-4.162681847810745E-002;2.878070808947086E-003;-2.891546464525163E-004;
2.416833333333334E+009;2.053267359733582E-001;-4.167587682604790E-002;2.886115806177259E-003;-3.557052114047110E-004;
2.417000000000000E+009;2.058756947517395E-001;-4.174411669373512E-002;2.550450153648853E-003;-3.230838628951460E-004;
2.417166666666667E+009;2.057784944772720E-001;-4.165536910295487E-002;2.425406128168106E-003;-2.078162797261030E-004;
2.417333333333334E+009;2.058832794427872E-001;-4.132332280278206E-002;2.329285256564617E-003;-2.027269219979644E-004;
2.417500000000000E+009;2.058195173740387E-001;-4.126276075839996E-002;2.195926615968347E-003;-2.295412559760734E-004;
2.417666666666667E+009;2.055318504571915E-001;-4.107928648591042E-002;2.108728513121605E-003;-5.292333662509918E-005;
2.417833333333334E+009;2.053529024124146E-001;-4.076225310564041E-002;2.096827141940594E-003;6.739240689057624E-006;
2.418000000000000E+009;2.049140334129334E-001;-4.029342904686928E-002;2.084731590002775E-003;7.858571916585788E-005;
2.418166666666667E+009;2.043694108724594E-001;-3.996649757027626E-002;2.131035318598151E-003;1.780266320565715E-004;
2.418333333333334E+009;2.035394161939621E-001;-3.965255245566368E-002;2.070242306217551E-003;2.114064991474152E-004;
2.418500000000000E+009;2.026125043630600E-001;-3.959841281175613E-002;2.170352730900049E-003;3.239099751226604E-004;
2.418666666666667E+009;2.018424123525620E-001;-3.933586552739143E-002;2.332180505618453E-003;3.262872633058578E-004;
2.418833333333334E+009;2.006431818008423E-001;-3.933391347527504E-002;2.263528062030673E-003;3.638057387433946E-004;
2.419000000000000E+009;1.993543058633804E-001;-3.937566652894020E-002;2.428492065519095E-003;4.494326421990991E-004;
2.419166666666667E+009;1.981587558984757E-001;-3.953413665294647E-002;2.545722061768174E-003;5.086181336082518E-004;
2.419333333333334E+009;1.967880725860596E-001;-3.964031487703323E-002;2.520789857953787E-003;3.382907889317721E-004;
2.419500000000000E+009;1.952143460512161E-001;-4.003479704260826E-002;2.639825223013759E-003;4.280633875168860E-004;
2.419666666666667E+009;1.934628188610077E-001;-4.065277799963951E-002;2.881474792957306E-003;3.963241179008037E-004;
2.419833333333334E+009;1.918270885944367E-001;-4.105209559202194E-002;2.951256465166807E-003;3.584898367989808E-004;
2.420000000000000E+009;1.901275813579559E-001;-4.190624877810478E-002;3.099662950262427E-003;4.373750125523657E-004;
2.420166666666667E+009;1.882658898830414E-001;-4.270757362246513E-002;3.101921174675226E-003;3.801675047725439E-004;
2.420333333333334E+009;1.865644752979279E-001;-4.365111887454987E-002;3.411620622500777E-003;2.293898287462071E-004;
2.420500000000000E+009;1.845472753047943E-001;-4.511586576700211E-002;3.437574021518230E-003;-1.080473248293856E-005;
2.420666666666667E+009;1.828886121511459E-001;-4.604635760188103E-002;3.578703850507736E-003;-1.020853815134615E-004;
2.420833333333334E+009;1.809035092592239E-001;-4.744345694780350E-002;3.727570176124573E-003;-2.553903323132545E-004;
2.421000000000000E+009;1.792255640029907E-001;-4.893498122692108E-002;3.743181005120277E-003;-1.327620266238228E-004;
2.421166666666667E+009;1.776593923568726E-001;-5.066727846860886E-002;3.654287662357092E-003;-5.371195729821920E-004;
2.421333333333334E+009;1.757751852273941E-001;-5.210912600159645E-002;3.855358576402068E-003;-6.716084899380803E-004;
2.421500000000000E+009;1.741891354322434E-001;-5.415471643209457E-002;3.861328121274710E-003;-8.133124792948365E-004;
2.421666666666667E+009;1.726681441068649E-001;-5.607818812131882E-002;3.923719283193350E-003;-9.782036067917943E-004;
2.421833333333334E+009;1.713273972272873E-001;-5.789139121770859E-002;4.112845752388239E-003;-1.324616721831262E-003;
2.422000000000000E+009;1.697607189416885E-001;-5.999188497662544E-002;3.945138305425644E-003;-1.520941499620676E-003;
2.422166666666667E+009;1.687799096107483E-001;-6.238390132784843E-002;4.003306850790978E-003;-1.673231949098408E-003;
2.422333333333334E+009;1.675928533077240E-001;-6.449954956769943E-002;3.862817538902164E-003;-1.823085593059659E-003;
2.422500000000000E+009;1.667478978633881E-001;-6.644372642040253E-002;3.749117022380233E-003;-1.909121405333281E-003;
2.422666666666667E+009;1.657679080963135E-001;-6.877470016479492E-002;3.720963140949607E-003;-1.999718369916081E-003;
2.422833333333334E+009;1.651883423328400E-001;-7.119297981262207E-002;3.525411942973733E-003;-2.241272712126374E-003;
2.423000000000000E+009;1.645123511552811E-001;-7.333107292652130E-002;3.664235351607204E-003;-2.489487174898386E-003;
2.423166666666667E+009;1.640513837337494E-001;-7.549016922712326E-002;3.601578995585442E-003;-2.596352715045214E-003;
2.423333333333334E+009;1.636393815279007E-001;-7.769830524921417E-002;3.537360345944762E-003;-2.715710317716003E-003;
2.423500000000000E+009;1.634326428174973E-001;-7.988929003477097E-002;3.483576467260718E-003;-2.847210504114628E-003;
2.423666666666667E+009;1.634998470544815E-001;-8.199732750654221E-002;3.358272602781653E-003;-3.126735566183925E-003;
2.423833333333334E+009;1.634857058525085E-001;-8.396751433610916E-002;3.437398700043559E-003;-3.308765357360244E-003;
2.424000000000000E+009;1.634414494037628E-001;-8.612730354070664E-002;3.182501066476107E-003;-3.537619952112436E-003;
2.424166666666667E+009;1.634458303451538E-001;-8.788345009088516E-002;3.190464107319713E-003;-3.742086933925748E-003;
2.424333333333334E+009;1.638063341379166E-001;-8.987020701169968E-002;3.100027563050389E-003;-3.910908009856939E-003;
2.424500000000000E+009;1.642583608627319E-001;-9.182281047105789E-002;2.870991127565503E-003;-4.021508153527975E-003;
2.424666666666667E+009;1.644557267427445E-001;-9.330742806196213E-002;2.773123094812036E-003;-4.162489436566830E-003;
2.424833333333334E+009;1.651930212974548E-001;-9.481430053710938E-002;2.493763808161020E-003;-4.453432746231556E-003;
2.425000000000000E+009;1.656294614076614E-001;-9.628281742334366E-002;2.223200863227248E-003;-4.707943182438612E-003;
2.425166666666667E+009;1.661286354064941E-001;-9.757579863071442E-002;1.815477269701660E-003;-4.824847448617220E-003;
2.425333333333334E+009;1.665866672992706E-001;-9.869237989187241E-002;1.556946546770632E-003;-4.951384849846363E-003;
2.425500000000000E+009;1.671366095542908E-001;-9.988622367382050E-002;1.310085877776146E-003;-5.181134678423405E-003;
2.425666666666667E+009;1.678374856710434E-001;-1.008564606308937E-001;9.181606001220644E-004;-4.984362516552210E-003;
2.425833333333334E+009;1.682825982570648E-001;-1.017624512314796E-001;6.989546818658710E-004;-4.931950010359287E-003;
2.426000000000000E+009;1.688132733106613E-001;-1.023263856768608E-001;3.708884760271758E-004;-5.037743132561445E-003;
2.426166666666667E+009;1.695072203874588E-001;-1.028716117143631E-001;1.599534152774140E-004;-4.854663275182247E-003;
2.426333333333334E+009;1.698071360588074E-001;-1.035061478614807E-001;-1.487974514020607E-004;-4.838373977690935E-003;
2.426500000000000E+009;1.704122424125671E-001;-1.038220375776291E-001;-3.714401973411441E-004;-4.582991357892752E-003;
2.426666666666667E+009;1.708596348762512E-001;-1.041547656059265E-001;-6.721292156726122E-004;-4.541806410998106E-003;
2.426833333333334E+009;1.713616549968720E-001;-1.045292913913727E-001;-9.427430341020227E-004;-4.457953386008740E-003;
2.427000000000000E+009;1.715811938047409E-001;-1.047254949808121E-001;-8.569630444981158E-004;-4.228522535413504E-003;
2.427166666666667E+009;1.718162745237351E-001;-1.046387553215027E-001;-1.198334153741598E-003;-4.094455856829882E-003;
2.427333333333334E+009;1.720138192176819E-001;-1.048645153641701E-001;-1.370354555547237E-003;-3.994701430201531E-003;
2.427500000000000E+009;1.719756424427033E-001;-1.050468310713768E-001;-1.471993746235967E-003;-3.870958928018808E-003;
2.427666666666667E+009;1.718984097242355E-001;-1.049880832433701E-001;-1.326494384557009E-003;-3.715140512213111E-003;
2.427833333333334E+009;1.716346740722656E-001;-1.050557196140289E-001;-1.482118736021221E-003;-3.749318653717637E-003;
