# Hz S RI R 50
2400000000.0000000000 0.157466396689415005782919365629 0.062831267714500427246093750000 -0.002102510072290896935703896631 -0.000515566149260848760604858398 0 0 0 0 
2400166666.6666665077 0.157362416386604309082031250000 0.061341743916273117065429687500 -0.002116620540618896918055868994 -0.000530224817339330911636352539 0 0 0 0 
2400333333.3333334923 0.157230228185653686523437500000 0.059314902871847152709960937500 -0.002070024609565734863281250000 -0.000264626694843173027038574219 0 0 0 0 
2400500000.0000000000 0.157093867659568786621093750000 0.057467278093099587177317033593 -0.001986346906051040129420615088 -0.000283113244222477078437805176 0 0 0 0 
2400666666.6666665077 0.157078102231025695800781250000 0.055347714573144912719726562500 -0.002084268722683190865757607568 -0.000255597144132480025291442871 0 0 0 0 
2400833333.3333334923 0.157129228115081787109375000000 0.053577784448862082744557966407 -0.002073341747745871977565146338 -0.000149677929584868306487482892 0 0 0 0 
2401000000.0000000000 0.157261148095130892654580634371 0.051379308104515082622487653907 -0.001982025336474179787876748193 -0.000127121995319612297132769174 0 0 0 0 
2401166666.6666665077 0.157569319009780911544638115629 0.049402929842472083354909528907 -0.002062624087557197050807333838 -0.000062099068600218743085861206 0 0 0 0 
2401333333.3333334923 0.157551258802413912674111884371 0.047265373170375817035715471093 -0.001922582508996129035949707031 -0.000076666270615532994270324707 0 0 0 0 
2401500000.0000000000 0.157990261912345886230468750000 0.045062098652124411846120466407 -0.001808775821700691959978413159 -0.000045357392082223668694496155 0 0 0 0 
2401666666.6666665077 0.158433407545089693924111884371 0.043168045580387122417409528907 -0.001832114183343946933746337891 -0.000078246455814223736524581909 0 0 0 0 
2401833333.3333334923 0.158729463815689086914062500000 0.041164372116327292705495466407 -0.001963469432666898207423544775 0.000124110738397575887754717416 0 0 0 0 
2402000000.0000000000 0.159006834030151394943075615629 0.038985878229141242290456403907 -0.001806471147574483914616250146 0.000048486213927390047092030184 0 0 0 0 
2402166666.6666665077 0.159597903490066500564736884371 0.037049233913421630859375000000 -0.001915441825985908941981650244 0.000048740501370048150420188904 0 0 0 0 
2402333333.3333334923 0.160374641418457003494424384371 0.035161819308996200561523437500 -0.001799023826606572108027792822 0.000116480623546522097148080144 0 0 0 0 
2402500000.0000000000 0.161102563142776489257812500000 0.033394064754247672344167341407 -0.001811382011510431983350444263 0.000103513935755472603157320566 0 0 0 0 
2402666666.6666665077 0.161683604121208190917968750000 0.031689677387475967407226562500 -0.001887437188997864940046000903 0.000052397561375983059406280518 0 0 0 0 
2402833333.3333334923 0.162603795528411892989950615629 0.029926953837275508535364920704 -0.001697444240562617995618510669 0.000267063820501789504855555402 0 0 0 0 
2403000000.0000000000 0.163478717207908602615518134371 0.028241820633411410940150076954 -0.001692998223006725094438862378 0.000204619034775532809182843619 0 0 0 0 
2403166666.6666665077 0.164687469601631192306356865629 0.026762990280985828744908516796 -0.001801963546313344998600625146 0.000350030022673308903544825421 0 0 0 0 
2403333333.3333334923 0.165459588170051602462606865629 0.025300910696387290954589843750 -0.001688458374701439900639199365 0.000211047532502561807632446289 0 0 0 0 
2403500000.0000000000 0.166132494807243402679119981258 0.023840824142098430288294608204 -0.001700198045000433921813964844 0.000413946487242355888516026630 0 0 0 0 
2403666666.6666665077 0.167232096195221002776776231258 0.022500950843095779418945312500 -0.001760255312547088103053427588 0.000187387006008066209867754526 0 0 0 0 
2403833333.3333334923 0.168488413095474187652911268742 0.021256668493151671672780622657 -0.001702977693639696078059531104 0.000344339467119425480991917743 0 0 0 0 
2404000000.0000000000 0.169432789087295504470986884371 0.020198909565806388854980468750 -0.001598401693627238056780170972 0.000347418652381748015254420148 0 0 0 0 
2404166666.6666665077 0.170519053936004610916299384371 0.019053788855671879159947579296 -0.001724963658489286899566650391 0.000498255016282200813293457031 0 0 0 0 
2404333333.3333334923 0.171427026391029413421307481258 0.017895018681883808481236641796 -0.001734577468596399047254252856 0.000514941872097551822662353516 0 0 0 0 
2404500000.0000000000 0.172204613685607910156250000000 0.016953229904174811626393903907 -0.001793544506654142899754189600 0.000486183475004509091377258301 0 0 0 0 
2404666666.6666665077 0.173343330621719388107138115629 0.016194039955735210073450858204 -0.001702874200418591933009482275 0.000691876281052827835083007812 0 0 0 0 
2404833333.3333334923 0.174221187829971313476562500000 0.015359794721007350576380545704 -0.001726586255244910933850932544 0.000658459146507084369659423828 0 0 0 0 
2405000000.0000000000 0.175131380558013888260049384371 0.014662308618426319467564766796 -0.001760224229656160094617534106 0.000776142813265323638916015625 0 0 0 0 
2405166666.6666665077 0.176001444458961486816406250000 0.014043529517948629206647304102 -0.001691834884695708968518901294 0.000823059177491813898086547852 0 0 0 0 
2405333333.3333334923 0.176732957363128689864950615629 0.013365145772695539647112461523 -0.001761290594004095034358359229 0.000976443116087466478347778320 0 0 0 0 
2405500000.0000000000 0.177545398473739596267861884371 0.012990895658731460571289062500 -0.001653451123274862983106303638 0.000860878324601799249649047852 0 0 0 0 
2405666666.6666665077 0.178104057908058194259481865629 0.012577427551150320225725742773 -0.001594113069586456038831401294 0.001056334469467401938197470557 0 0 0 0 
2405833333.3333334923 0.178765445947647094726562500000 0.012285730801522730046282383398 -0.001515104784630239009857177734 0.001188430353067815086962055737 0 0 0 0 
2406000000.0000000000 0.179357707500457791427450615629 0.011689624749124050140380859375 -0.001417875057086348967311240088 0.001270200358703732924220419775 0 0 0 0 
2406166666.6666665077 0.179765433073043795486611884371 0.011636981740593910217285156250 -0.001386777730658649964573525537 0.001223368220962584018707275391 0 0 0 0 
2406333333.3333334923 0.180147036910057095626669365629 0.011267841793596749741523943555 -0.001421729684807359955431294019 0.001301358104683459021924663013 0 0 0 0 
2406500000.0000000000 0.180373057723045404632244981258 0.010933786630630489694615548046 -0.001222666818648576953290629810 0.001236718031577765941619873047 0 0 0 0 
2406666666.6666665077 0.180593892931938199142294365629 0.010726595297455789393414882227 -0.001183981890790164904353476416 0.001376482774503529071807861328 0 0 0 0 
2406833333.3333334923 0.180685147643089294433593750000 0.010459120385348800313929373829 -0.000957316486164927482604980469 0.001431868760846555016161274487 0 0 0 0 
2407000000.0000000000 0.180948153138160705566406250000 0.010000882670283319300641444727 -0.001093329628929496028302836841 0.001389515469782053990605019678 0 0 0 0 
2407166666.6666665077 0.180858805775642395019531250000 0.009868293069303035736083984375 -0.000849085103254765272140502930 0.001345961354672908999799418872 0 0 0 0 
2407333333.3333334923 0.180633738636970492263955634371 0.009325159713625907897949218750 -0.000799328379798680543899536133 0.001363964402116834900499653394 0 0 0 0 
2407500000.0000000000 0.180560961365699795821981865629 0.008911043405532836914062500000 -0.000784194853622466325759887695 0.001442710170522331974626850659 0 0 0 0 
2407666666.6666665077 0.180242672562599209884481865629 0.008689951151609420776367187500 -0.000575835292693227529525756836 0.001326740020886064009425497900 0 0 0 0 
2407833333.3333334923 0.179791167378425598144531250000 0.007907700724899768829345703125 -0.000806025869678705930709838867 0.001221498241648077964782714844 0 0 0 0 
2408000000.0000000000 0.179538354277610806564169365629 0.007378593552857637405395507812 -0.000635032018180936574935913086 0.001295568305067718029022216797 0 0 0 0 
2408166666.6666665077 0.179125875234603909591513115629 0.006688151974231004714965820312 -0.000540285371243953704833984375 0.001142941182479261918308877100 0 0 0 0 
2408333333.3333334923 0.178727403283119201660156250000 0.006056215148419141769409179688 -0.000549418386071920394897460938 0.001173814758658408901811909253 0 0 0 0 
2408500000.0000000000 0.177998706698417691329794365629 0.005154823884367942810058593750 -0.000566995295230299234390258789 0.001241827732883393981336284106 0 0 0 0 
2408666666.6666665077 0.177377521991729708572549384371 0.004281104076653718948364257812 -0.000371630740119144320487976074 0.001236880896613002040265727466 0 0 0 0 
2408833333.3333334923 0.176676601171493502517861884371 0.003410696750506759123561240088 -0.000281420157989487106173914777 0.001101378584280610084533691406 0 0 0 0 
2409000000.0000000000 0.176022022962570190429687500000 0.002402207348495721817016601562 -0.000417984963860362822383326398 0.001022924203425646045087504810 0 0 0 0 
2409166666.6666665077 0.175389856100082397460937500000 0.001276317285373806953430175781 -0.000418909621657803708880823956 0.001053968677297234968898154150 0 0 0 0 
2409333333.3333334923 0.174745112657546997070312500000 -0.000102800200693309293545861516 -0.000440418865764513611793518066 0.001240090699866414070129394531 0 0 0 0 
2409500000.0000000000 0.174049511551856994628906250000 -0.001347884186543524048448872144 -0.000378531723981723189353942871 0.000962378864642232656478881836 0 0 0 0 
2409666666.6666665077 0.173104405403137207031250000000 -0.002878272673115133805515908350 -0.000474167958600446581840515137 0.001026009907945990996119833838 0 0 0 0 
2409833333.3333334923 0.172396466135978698730468750000 -0.004182557109743356704711914062 -0.000325419823639094775349217548 0.001026773126795887947082519531 0 0 0 0 
2410000000.0000000000 0.172041997313499506194744981258 -0.005742775276303291320800781250 -0.000461172399809584021568298340 0.000949043314903974533081054688 0 0 0 0 
2410166666.6666665077 0.171209752559661892989950615629 -0.007363193668425083160400390625 -0.000491364218760281801223754883 0.001087418757379055023193359375 0 0 0 0 
2410333333.3333334923 0.170580759644508389571981865629 -0.009075392037630081176757812500 -0.000455200672149658203125000000 0.001058192225173115947126079028 0 0 0 0 
2410500000.0000000000 0.170058682560920687576455634371 -0.010712314397096630441685860546 -0.000353643932612612789303380145 0.000943775929044932126998901367 0 0 0 0 
2410666666.6666665077 0.169452771544456509689169365629 -0.012680047191679479426373866602 -0.000307366834022104685932713641 0.001161284628324211077449179541 0 0 0 0 
2410833333.3333334923 0.169076338410377502441406250000 -0.014372522011399270838727382227 -0.000525418785400688648223876953 0.000971492554526776075363159180 0 0 0 0 
2411000000.0000000000 0.168731898069381713867187500000 -0.016274238005280501628835310157 -0.000377555115846916978985386981 0.001041077310219407081604003906 0 0 0 0 
2411166666.6666665077 0.168361350893974304199218750000 -0.018167201429605480539342110546 -0.000411734072258696014254969464 0.001220145146362483935115195166 0 0 0 0 
2411333333.3333334923 0.168147295713424710372763115629 -0.020001620054244998586634451954 -0.000406817067414522225230616437 0.000956180039793252944946289062 0 0 0 0 
2411500000.0000000000 0.167802229523658807952557481258 -0.022237883880734440195103829296 -0.000329195143422111923068446027 0.001077940571121871905085898291 0 0 0 0 
2411666666.6666665077 0.167920768260955810546875000000 -0.024213535711169239389439766796 -0.000350773276295512914657592773 0.001158980885520576997044228662 0 0 0 0 
2411833333.3333334923 0.167796060442924499511718750000 -0.025953397154808040964146798046 -0.000411142682423815076977330341 0.001072641578502953052520751953 0 0 0 0 
2412000000.0000000000 0.167950093746185302734375000000 -0.028017411008477210998535156250 -0.000267136085312813520431518555 0.001187608228065073923823691260 0 0 0 0 
2412166666.6666665077 0.167932018637657193282919365629 -0.029952539131045341491699218750 -0.000318947510095313191413879395 0.001189976115711032910587929834 0 0 0 0 
2412333333.3333334923 0.168389573693275507171307481258 -0.031793244183063507080078125000 -0.000275739672360941821902674542 0.001152148004621267101885151440 0 0 0 0 
2412500000.0000000000 0.168495237827300997635049384371 -0.033860653638839721679687500000 -0.000169743274454958709791460580 0.001167103298939764933345175635 0 0 0 0 
2412666666.6666665077 0.168610379099845886230468750000 -0.035887524485588066791574846093 -0.000264632108155637979507446289 0.001134911086410284042358398438 0 0 0 0 
2412833333.3333334923 0.169296547770500210861044365629 -0.037663679569959640502929687500 -0.000223534443648532005861559457 0.001034009503200649998308491284 0 0 0 0 
2413000000.0000000000 0.169684380292892511565838731258 -0.039328366518020629882812500000 -0.000135795125970616909578600473 0.001118729007430375056025839697 0 0 0 0 
2413166666.6666665077 0.169855460524558993240518134371 -0.041118521243333823467214216407 -0.000055841614084783941507339478 0.001254056813195348002790141528 0 0 0 0 
2413333333.3333334923 0.170550063252449007888955634371 -0.042823728173971183086354841407 -0.000122481651487760300010126935 0.001072667888365685939788818359 0 0 0 0 
2413500000.0000000000 0.171083360910415704925213731258 -0.044504992663860321044921875000 -0.000009558474630466662347316742 0.001202668412588536956189799731 0 0 0 0 
2413666666.6666665077 0.171563595533370999435263115629 -0.045987986028194427490234375000 -0.000172873114934191107749938965 0.001304071978665888092638325269 0 0 0 0 
2413833333.3333334923 0.172240659594535799881143134371 -0.047392897307872772216796875000 0.000009599475561117287725210190 0.001182374660857022025464702075 0 0 0 0 
2414000000.0000000000 0.172748699784278897384481865629 -0.048979781568050391460378278907 0.000108655905933119397289814134 0.001093920087441802024841308594 0 0 0 0 
2414166666.6666665077 0.173322051763534601409588731258 -0.050240576267242431640625000000 0.000040196086047217249870300293 0.001147342729382216930389404297 0 0 0 0 
2414333333.3333334923 0.174041226506233187576455634371 -0.051488056778907782817800153907 0.000077188145951367914676666260 0.001204179949127138094661093604 0 0 0 0 
2414500000.0000000000 0.174699768424034090896768134371 -0.052486427128314971923828125000 0.000059665228036465123295783997 0.001045520184561610005022358472 0 0 0 0 
2414666666.6666665077 0.175226688385009793380575615629 -0.053552288562059402465820312500 0.000163540462381206507056635724 0.001090547768399118943455361475 0 0 0 0 
2414833333.3333334923 0.175664573907852200607138115629 -0.054629482328891747211496721093 -0.000027931302611250430345535278 0.001169966650195420005201030200 0 0 0 0 
2415000000.0000000000 0.176003128290176391601562500000 -0.055397219955921173095703125000 0.000103678590676281601190567017 0.001062634983099997043609619141 0 0 0 0 
2415166666.6666665077 0.176546186208725003341513115629 -0.056221701204776756977121721093 0.000101497615105472505092620850 0.001036520116031170108197856372 0 0 0 0 
2415333333.3333334923 0.176920965313911410232705634371 -0.056862022727727890014648437500 0.000040752154745860032062938078 0.001194096053950489001033163916 0 0 0 0 
2415500000.0000000000 0.177313908934593200683593750000 -0.057507261633872992778737653907 -0.000000141789556096227897796780 0.001150391646660863919499062646 0 0 0 0 
2415666666.6666665077 0.177496105432510403732138115629 -0.057884592562913901592214216407 -0.000000884618089003197383135557 0.001009345520287751934648823315 0 0 0 0 
2415833333.3333334923 0.177787020802497891525106865629 -0.058533705770969390869140625000 0.000251802324783056974411010742 0.001082712202332914092420268481 0 0 0 0 
2416000000.0000000000 0.177839994430541992187500000000 -0.058870039880275733257253278907 0.000207237069844268289491376334 0.001005311496555804989458393628 0 0 0 0 
2416166666.6666665077 0.178145632147789001464843750000 -0.059302520006895072246511091407 0.000225106356083415502875727521 0.001086064963601530031916952979 0 0 0 0 
2416333333.3333334923 0.178113505244255093673544365629 -0.059549525380134582519531250000 0.000198796304175630211830139160 0.000994159025140106678009033203 0 0 0 0 
2416500000.0000000000 0.177979156374931307693643134371 -0.059872888028621666645090471093 0.000070489302743226289749145508 0.001075471984222531101824116284 0 0 0 0 
2416666666.6666665077 0.177750006318092401702557481258 -0.060031536966562271118164062500 0.000041831361158983781933784485 0.001148645533248781941057514722 0 0 0 0 
2416833333.3333334923 0.177525833249092102050781250000 -0.060229241847991943359375000000 0.000310666509903967380523681641 0.001008027815259993076324462891 0 0 0 0 
2417000000.0000000000 0.177010580897331210037393134371 -0.060599382966756820678710937500 0.000206881450139917406156817026 0.001158761675469577095629047925 0 0 0 0 
2417166666.6666665077 0.176603555679321289062500000000 -0.060607619583606719970703125000 0.000335566612193360924720764160 0.000977481016889214515686035156 0 0 0 0 
2417333333.3333334923 0.176012590527534512618856865629 -0.060772050172090530395507812500 0.000282364169834181720584315167 0.000973735761363059282302856445 0 0 0 0 
2417500000.0000000000 0.175340503454208401779013115629 -0.061163563281297676776926408593 0.000169757782714441391542711801 0.001122050103731452985050820459 0 0 0 0 
2417666666.6666665077 0.174779266119003295898437500000 -0.061333335936069488525390625000 0.000321163097396493012278956281 0.001059774309396743991254496997 0 0 0 0 
2417833333.3333334923 0.173883154988288907150106865629 -0.061492420732975013042409528907 0.000227181444643065306261339731 0.001073304680176079056383442456 0 0 0 0 
2418000000.0000000000 0.172898739576339693924111884371 -0.061856783926486968994140625000 0.000107736705103889094151635442 0.001132973353378474929212260669 0 0 0 0 
2418166666.6666665077 0.172114104032516507247763115629 -0.062070425599813461303710937500 0.000258068204857409000396728516 0.001065347110852598927141499097 0 0 0 0 
2418333333.3333334923 0.171203538775444003006143134371 -0.062631338834762573242187500000 0.000126130616990849402829846793 0.001052803825587034008623432690 0 0 0 0 
2418500000.0000000000 0.170144006609916687011718750000 -0.062864385545253753662109375000 0.000142785065690986812114715576 0.001044230419211090044734335791 0 0 0 0 
2418666666.6666665077 0.169121399521827697753906250000 -0.063302516937255859375000000000 0.000250362179940566420555114746 0.001069653895683587031123495947 0 0 0 0 
2418833333.3333334923 0.167742609977722195724325615629 -0.063990511000156402587890625000 0.000292810844257473999827784406 0.001017031958326696915867470850 0 0 0 0 
2419000000.0000000000 0.166566967964172391036825615629 -0.064563237130641937255859375000 0.000291993084829300587803441180 0.001295330701395869038225483472 0 0 0 0 
2419166666.6666665077 0.165543481707572909256143134371 -0.065190441906452178955078125000 0.000270069402176886796951293945 0.001197370234876870892168354565 0 0 0 0 
2419333333.3333334923 0.164048373699188204666299384371 -0.065759867429733276367187500000 0.000082024656876455992460250854 0.001265250612050295092939067310 0 0 0 0 
2419500000.0000000000 0.163029104471206692794638115629 -0.066796801984310150146484375000 0.000288620125502348000377100812 0.001323023810982703945757221753 0 0 0 0 
2419666666.6666665077 0.161860749125480707366619981258 -0.067685648798942565917968750000 0.000270378513960167819827479230 0.001246118452399969100952148438 0 0 0 0 
2419833333.3333334923 0.160596594214439392089843750000 -0.068601615726947784423828125000 0.000362505583325401002734583722 0.001280158641748130104662251050 0 0 0 0 
