# Hz S RI R 50
2400000000.0000000000 0.171026125550270108321981865629 0.040007211267948150634765625000 -0.000483988609630614519119262695 0.001918532070703804926631308447 0 0 0 0 
2400166666.6666665077 0.171708986163139287750567518742 0.039423745125532150268554687500 -0.000616976059973239898681640625 0.001968474360182880921604775537 0 0 0 0 
2400333333.3333334923 0.172141209244728088378906250000 0.038836739957332611083984375000 -0.000608882925007492303848266602 0.002176314359530806975123740088 0 0 0 0 
2400500000.0000000000 0.172771856188774108886718750000 0.038166027516126632690429687500 -0.000598902290221303701400756836 0.002175596076995133919956826318 0 0 0 0 
2400666666.6666665077 0.172877311706542996505575615629 0.037546101957559592510182966407 -0.000535917177330702543258666992 0.002170338295400143103358603369 0 0 0 0 
2400833333.3333334923 0.173276722431182889083700615629 0.036851823329925537109375000000 -0.000472571235150098800659179688 0.002231011632829904989955283057 0 0 0 0 
2401000000.0000000000 0.173403814435005187988281250000 0.036361131817102432250976562500 -0.000477885187137871980667114258 0.002504693344235419793369912256 0 0 0 0 
2401166666.6666665077 0.173452839255333002288494981258 0.035557318478822708129882812500 -0.000345531007042154723971766339 0.002651159418746829032897949219 0 0 0 0 
2401333333.3333334923 0.173326566815376309493856865629 0.035067774355411529541015625000 -0.000199895701371133300379076547 0.002645547501742839813232421875 0 0 0 0 
2401500000.0000000000 0.173513934016227694412393134371 0.034405495971441268920898437500 -0.000331411632942035794258117676 0.002714459784328937964198447119 0 0 0 0 
2401666666.6666665077 0.173430860042571993728799384371 0.033731907606124877929687500000 -0.000148343329783528988987523212 0.002724482212215662002563476562 0 0 0 0 
2401833333.3333334923 0.173236116766929598709268134371 0.033091630786657333374023437500 0.000011180031833646349946056672 0.002904003020375967025756835938 0 0 0 0 
2402000000.0000000000 0.173088416457176208496093750000 0.032377284020185470581054687500 0.000384775921702385002940577374 0.002723651705309749083278036963 0 0 0 0 
2402166666.6666665077 0.172753065824508694747763115629 0.031508639454841606830637346093 0.000507602409925311803817749023 0.002853441517800093130824423682 0 0 0 0 
2402333333.3333334923 0.172397643327713012695312500000 0.030592840164899829519251639454 0.000595509132836014032363891602 0.002807921962812542915344238281 0 0 0 0 
2402500000.0000000000 0.172439396381378201583700615629 0.029828922823071479797363281250 0.000777533277869224548339843750 0.002817896893247961997985839844 0 0 0 0 
2402666666.6666665077 0.172085091471672113616619981258 0.028984377160668369638463204296 0.000783626921474933624267578125 0.002728740451857448057887411963 0 0 0 0 
2402833333.3333334923 0.171773865818977411468182481258 0.027983818203210830688476562500 0.000882668944541364908218383789 0.002777850488200784163234091650 0 0 0 0 
2403000000.0000000000 0.171441063284873990157919365629 0.026786485686898231506347656250 0.001086953328922390937805175781 0.002560693072155117988586425781 0 0 0 0 
2403166666.6666665077 0.171211645007133511642294365629 0.025564068928360939025878906250 0.001253325026482344107386923682 0.002623002743348478837254189600 0 0 0 0 
2403333333.3333334923 0.170964539051055908203125000000 0.024616116657853129995325858204 0.001239791046828031973597861182 0.002576113212853670120239257812 0 0 0 0 
2403500000.0000000000 0.170329272747039794921875000000 0.023415604606270790100097656250 0.001239184872247278907178569263 0.002454303437843918800354003906 0 0 0 0 
2403666666.6666665077 0.170073762536048889160156250000 0.021938355639576908456822579296 0.001329372986219822926762246240 0.002521121175959705872776650537 0 0 0 0 
2403833333.3333334923 0.169721320271492004394531250000 0.020697720348834991455078125000 0.001425523310899734930751181494 0.002526402706280351118800497900 0 0 0 0 
2404000000.0000000000 0.169398128986358587066973768742 0.019079366698861118661900704296 0.001527623855508863925933837891 0.002497029257938265800476074219 0 0 0 0 
2404166666.6666665077 0.169128492474555996993856865629 0.017565580084919929504394531250 0.001642835442908108017565083081 0.002591433236375451087951660156 0 0 0 0 
2404333333.3333334923 0.168872535228729303558026231258 0.016137307509779930114746093750 0.001706975046545267105102539062 0.002369075082242488861083984375 0 0 0 0 
2404500000.0000000000 0.168586313724517794510049384371 0.014524606056511400395403477148 0.001995112514123321013209677588 0.002467587124556303024291992188 0 0 0 0 
2404666666.6666665077 0.168427407741546603103799384371 0.013031866401433949906318865430 0.002040494000539184050319052588 0.002279812935739756064174033057 0 0 0 0 
2404833333.3333334923 0.168220221996307400802450615629 0.011238816194236280268659022852 0.002386865438893436951878213037 0.002036840189248323006870888818 0 0 0 0 
2405000000.0000000000 0.168217912316322298904580634371 0.009346677921712398529052734375 0.002373020397499204115626669775 0.002048588590696454048156738281 0 0 0 0 
2405166666.6666665077 0.167943432927131708343182481258 0.007706640753895044326782226562 0.002477713627740741209742880713 0.001830130582675338008283305591 0 0 0 0 
2405333333.3333334923 0.168185979127883911132812500000 0.005715016741305589675903320312 0.002583300694823265075683593750 0.001749492716044187979457236182 0 0 0 0 
2405500000.0000000000 0.167936861515045193771200615629 0.004022646229714155197143554688 0.002497301204130053953883505713 0.001550108660012484030482626807 0 0 0 0 
2405666666.6666665077 0.168011367321014404296875000000 0.002150942804291843934300088037 0.002609351417049766020533896338 0.001475292956456542015075683594 0 0 0 0 
2405833333.3333334923 0.167814195156097412109375000000 0.000382217811420559883117675781 0.002633834956213831901550292969 0.001218475517816842036006308447 0 0 0 0 
2406000000.0000000000 0.167885407805442810058593750000 -0.001587321516126394055010151440 0.002543773269280790848972939600 0.001287567312829197103615785913 0 0 0 0 
2406166666.6666665077 0.167775884270668002029580634371 -0.003325917525216937065124511719 0.002407243940979241891148232568 0.001082299277186393954633403247 0 0 0 0 
2406333333.3333334923 0.168030232191085787674111884371 -0.005133984610438346862792968750 0.002413661917671560807469033350 0.001047088182531296990038227612 0 0 0 0 
2406500000.0000000000 0.167946547269821194747763115629 -0.007085851859301328659057617188 0.002389105735346674919128417969 0.001109272940084337971330952222 0 0 0 0 
2406666666.6666665077 0.167703658342361505706463731258 -0.008761327713727951049804687500 0.002495213178917766051051474463 0.000953470589593052864074707031 0 0 0 0 
2406833333.3333334923 0.167879268527030889313067518742 -0.010524529963731769216517264454 0.002408882603049277825596474756 0.000978544238023459911346435547 0 0 0 0 
2407000000.0000000000 0.167874515056610107421875000000 -0.012143904343247410165806954296 0.002392881084233521981480263818 0.000761264003813266754150390625 0 0 0 0 
2407166666.6666665077 0.168123558163642911056356865629 -0.013553814962506290781041329296 0.002526007592678070068359375000 0.000918584584724158048629760742 0 0 0 0 
2407333333.3333334923 0.168088287115097101409588731258 -0.015302093699574470520019531250 0.002522236667573451995849609375 0.000779220019467175006866455078 0 0 0 0 
2407500000.0000000000 0.168050304055213900467080634371 -0.016513191163539889944056326954 0.002636228455230594115016318213 0.000770112441387027502059936523 0 0 0 0 
2407666666.6666665077 0.168212905526161193847656250000 -0.017792856320738788949986641796 0.002811450045555830001831054688 0.000706422724761068820953369141 0 0 0 0 
2407833333.3333334923 0.168207690119743402679119981258 -0.019082834944128990173339843750 0.002714376430958509011509560693 0.000864885339979082345962524414 0 0 0 0 
2408000000.0000000000 0.168404445052146911621093750000 -0.020200924947857860219935233204 0.002839166671037673950195312500 0.000616796372924000024795532227 0 0 0 0 
2408166666.6666665077 0.168526053428649902343750000000 -0.020964825525879859924316406250 0.002910547191277145905735634912 0.000653883384075015783309936523 0 0 0 0 
2408333333.3333334923 0.168869629502296503265057481258 -0.022030452266335490835169608204 0.003064808435738087134120322119 0.000405575847253203392028808594 0 0 0 0 
2408500000.0000000000 0.169001832604408291915731865629 -0.023021664470434188842773437500 0.003106221556663513183593750000 0.000348766247043386101722717285 0 0 0 0 
2408666666.6666665077 0.169312015175819396972656250000 -0.023742588236927989614466483204 0.003140558721497654914855957031 0.000021553396436502229085172347 0 0 0 0 
2408833333.3333334923 0.169587150216102600097656250000 -0.024541223421692851675013358204 0.003226963803172111944911337744 -0.000144974386785179403707227164 0 0 0 0 
2409000000.0000000000 0.169820219278335599044638115629 -0.025396663695573810232142264454 0.003112419275566935972926474463 -0.000211287420825101408079424448 0 0 0 0 
2409166666.6666665077 0.170287668704986600021200615629 -0.026167161762714389455775076954 0.003064162330701947212219238281 -0.000255589839071035385131835938 0 0 0 0 
2409333333.3333334923 0.170705229043960599044638115629 -0.026844881474971771240234375000 0.003154936013743280930760048975 -0.000495032581966370344161987305 0 0 0 0 
2409500000.0000000000 0.170964419841766412933026231258 -0.027566490694880489004114920704 0.003142674453556538061854697119 -0.000639080244582146406173706055 0 0 0 0 
2409666666.6666665077 0.171150282025337191482705634371 -0.028284808620810508728027343750 0.003227876964956521987915039062 -0.000743515091016888618469238281 0 0 0 0 
2409833333.3333334923 0.171338468790054293533486884371 -0.028846435248851779592493826954 0.003056152956560254096984863281 -0.000971891451627016067504882812 0 0 0 0 
2410000000.0000000000 0.171805605292320306975994981258 -0.029659388586878780019739920704 0.003012523520737885995152138818 -0.001064757816493510983110737378 0 0 0 0 
2410166666.6666665077 0.171893671154975891113281250000 -0.030258554965257651592214216407 0.003045954508706926865818642725 -0.001217951299622654914855957031 0 0 0 0 
2410333333.3333334923 0.171737864613532992263955634371 -0.031110838055610660207728201954 0.002952136099338531927821493994 -0.001517039840109646103502583081 0 0 0 0 
2410500000.0000000000 0.171739578247070312500000000000 -0.031682167202234268188476562500 0.002856662496924399895908974756 -0.001543567865155637047411274487 0 0 0 0 
2410666666.6666665077 0.171614021062851007659588731258 -0.032582458108663558959960937500 0.002679262310266495184657431494 -0.001634559012018143913866352612 0 0 0 0 
2410833333.3333334923 0.171629995107650812347088731258 -0.032930541783571243286132812500 0.002605555113404988808872841943 -0.001905544544570147991180419922 0 0 0 0 
2411000000.0000000000 0.171447202563285799881143134371 -0.033569656312465667724609375000 0.002468328224495052857639931787 -0.001870457781478763060328818213 0 0 0 0 
2411166666.6666665077 0.171201378107070895095986884371 -0.034175492823123931884765625000 0.002140830038115382194519042969 -0.002021702006459236145019531250 0 0 0 0 
2411333333.3333334923 0.170884683728218106368856865629 -0.034735258668661117553710937500 0.002211253857240080833435058594 -0.002089621499180794195887900244 0 0 0 0 
2411500000.0000000000 0.170462936162948608398437500000 -0.035614419728517532348632812500 0.002053652191534637971165322412 -0.001912317238748074011561728369 0 0 0 0 
2411666666.6666665077 0.170252457261085510253906250000 -0.036321051418781280517578125000 0.001919931266456841988804482568 -0.001870637061074376106262207031 0 0 0 0 
2411833333.3333334923 0.169751286506652804275674384371 -0.036855343729257576679270158593 0.001813013106584548950195312500 -0.001852966728620230934740376050 0 0 0 0 
2412000000.0000000000 0.169434592127799987792968750000 -0.037578377872705459594726562500 0.001827213214710355021833110278 -0.001890228944830596013310097803 0 0 0 0 
2412166666.6666665077 0.168783649802208002288494981258 -0.038207072764635092998464216407 0.001794520765542984008789062500 -0.001918010297231375954271626050 0 0 0 0 
2412333333.3333334923 0.168496683239936800857705634371 -0.039123833179473876953125000000 0.001684562885202467007877968896 -0.001969206845387815995457314600 0 0 0 0 
2412500000.0000000000 0.167814016342163113693075615629 -0.039839114993810646747629533593 0.001714498037472367069841694409 -0.001807023072615266063092875903 0 0 0 0 
2412666666.6666665077 0.167504608631134005447549384371 -0.040841657668352127075195312500 0.001598185510374606089351035010 -0.001980049069970846176147460938 0 0 0 0 
2412833333.3333334923 0.166821941733360290527343750000 -0.041564591228961951518972028907 0.001751511939801275946973491138 -0.002131977817043662071228027344 0 0 0 0 
2413000000.0000000000 0.165909141302108792404013115629 -0.042511831969022750854492187500 0.001492535462602972984313964844 -0.002248799195513128800633095850 0 0 0 0 
2413166666.6666665077 0.165339305996894808670205634371 -0.043549794703722000122070312500 0.001592054381035268089891743237 -0.002098660450428723855259560693 0 0 0 0 
2413333333.3333334923 0.164714276790618896484375000000 -0.044537004083394997333567033593 0.001359813730232418017146445166 -0.002228776924312115149257040869 0 0 0 0 
2413500000.0000000000 0.163970589637756403167401231258 -0.045751787722110748291015625000 0.001366334850899874947191547925 -0.002489628735929727988002158057 0 0 0 0 
2413666666.6666665077 0.163485199213028009612713731258 -0.046690698713064186786692033593 0.001266367384232581095454550635 -0.002491596387699245972874306787 0 0 0 0 
2413833333.3333334923 0.162613943219184903243856865629 -0.047794785350561141967773437500 0.001154330093413590951206826318 -0.002553551923483610153198242188 0 0 0 0 
2414000000.0000000000 0.161841452121734591385049384371 -0.048836722970008850097656250000 0.000994981732219457626342773438 -0.002504578093066811995265341650 0 0 0 0 
2414166666.6666665077 0.161271840333938598632812500000 -0.049867518246173858642578125000 0.000746852369047701358795166016 -0.002509329700842500166652060400 0 0 0 0 
2414333333.3333334923 0.160626336932182312011718750000 -0.051104728132486343383789062500 0.000705878424923866987228393555 -0.002693758346140385107753134619 0 0 0 0 
2414500000.0000000000 0.160411059856414794921875000000 -0.052278149873018271709401716407 0.000739592243917286396026611328 -0.002723237499594687981846474756 0 0 0 0 
2414666666.6666665077 0.159899100661277798751669365629 -0.053418673574924468994140625000 0.000568233605008572340011596680 -0.002456454560160636901855468750 0 0 0 0 
2414833333.3333334923 0.159501969814300509353799384371 -0.054721854627132422710378278907 0.000277413928415626287460327148 -0.002516948385164142088649130713 0 0 0 0 
2415000000.0000000000 0.159083455801010104080361884371 -0.055873014032840728759765625000 0.000245697796344757080078125000 -0.002355117117986083030700683594 0 0 0 0 
2415166666.6666665077 0.158688440918922396560830634371 -0.057169929146766662597656250000 -0.000011668018487398509273325273 -0.002371639478951693014857626807 0 0 0 0 
2415333333.3333334923 0.158505722880363492111044365629 -0.058604363352060317993164062500 -0.000135864640469662899344843732 -0.002122007776051760153529501807 0 0 0 0 
2415500000.0000000000 0.158261150121688787262286268742 -0.059924390166997909545898437500 -0.000060287358792265877127647400 -0.002251271624118090109584189307 0 0 0 0 
2415666666.6666665077 0.157908022403717013260049384371 -0.061317931860685348510742187500 -0.000269745360128581523895263672 -0.002027496229857205910923623193 0 0 0 0 
2415833333.3333334923 0.157863646745681790450888115629 -0.062770470976829528808593750000 -0.000247493735514581203460693359 -0.001978941028937696976902627100 0 0 0 0 
2416000000.0000000000 0.157448157668113708496093750000 -0.064347073435783386230468750000 -0.000205432705115526887491503305 -0.002017339924350380897521972656 0 0 0 0 
2416166666.6666665077 0.157411262392997686188067518742 -0.065678842365741729736328125000 -0.000245416827965527772903442383 -0.001707327552139759063720703125 0 0 0 0 
2416333333.3333334923 0.157234564423561096191406250000 -0.067115463316440582275390625000 -0.000190205872058868408203125000 -0.001737338257953525023219443213 0 0 0 0 
2416500000.0000000000 0.156929209828376797775106865629 -0.068681716918945312500000000000 -0.000128922882140614092350006104 -0.001725462032482028007507324219 0 0 0 0 
2416666666.6666665077 0.156706884503364590743856865629 -0.070009946823120117187500000000 -0.000160112540470436188295641489 -0.001650283462367952086805034106 0 0 0 0 
2416833333.3333334923 0.156548619270324707031250000000 -0.071388877928256988525390625000 -0.000134157511638477390438634052 -0.001622426440007985071894980322 0 0 0 0 
2417000000.0000000000 0.156126797199249295333700615629 -0.072700820863246917724609375000 0.000007827644367353059351444244 -0.001642455928958951993229531396 0 0 0 0 
2417166666.6666665077 0.156035378575325012207031250000 -0.073780335485935211181640625000 0.000181878014700487310260218488 -0.001670624362304806926129985278 0 0 0 0 
2417333333.3333334923 0.155898079276084899902343750000 -0.074901103973388671875000000000 0.000101791803899686797104696956 -0.001718124374747276089311909253 0 0 0 0 
2417500000.0000000000 0.155753880739212008377236884371 -0.076213546097278594970703125000 0.000110314613266382393523892813 -0.001897257636301219897029257666 0 0 0 0 
2417666666.6666665077 0.155793875455856295486611884371 -0.077139526605606079101562500000 0.000102995836641639498159131461 -0.001809188863262533924700092847 0 0 0 0 
2417833333.3333334923 0.155720934271812411209268134371 -0.078189648687839508056640625000 0.000139421099447645301192683087 -0.001946398755535482926609658350 0 0 0 0 
2418000000.0000000000 0.155556872487068204025106865629 -0.079088926315307617187500000000 0.000018779548554448410868644714 -0.002063086256384849982020712744 0 0 0 0 
2418166666.6666665077 0.155395433306694003006143134371 -0.079775087535381317138671875000 -0.000116338967927731600686749869 -0.002085223328322172164916992188 0 0 0 0 
2418333333.3333334923 0.155538484454154996017294365629 -0.080723263323307037353515625000 -0.000158897455548867610379895621 -0.002079948550090194182154990088 0 0 0 0 
2418500000.0000000000 0.155392512679100008865518134371 -0.081461556255817413330078125000 -0.000016125593901961110532283783 -0.002204139018431305885314941406 0 0 0 0 
2418666666.6666665077 0.155399769544601412674111884371 -0.082287147641181945800781250000 -0.000215118343476206091329297476 -0.002260871930047870115992880713 0 0 0 0 
2418833333.3333334923 0.155147090554237393478231865629 -0.082979805767536163330078125000 -0.000426626793341711217730921613 -0.002150978194549680189845419775 0 0 0 0 
2419000000.0000000000 0.155118569731712313553018134371 -0.083590783178806304931640625000 -0.000425881356932222788960057391 -0.002211339306086301803588867188 0 0 0 0 
2419166666.6666665077 0.154954805970192011077557481258 -0.084207907319068908691406250000 -0.000402800709707662517398280011 -0.002203598851338028907775878906 0 0 0 0 
2419333333.3333334923 0.154746025800705011565838731258 -0.084627196192741394042968750000 -0.000598137266933917999267578125 -0.002283575013279914855957031250 0 0 0 0 
2419500000.0000000000 0.154698193073272705078125000000 -0.085183635354042053222656250000 -0.000738979957532137632369995117 -0.002219686517491937117335654150 0 0 0 0 
2419666666.6666665077 0.154534220695495605468750000000 -0.085794843733310699462890625000 -0.000791474070865660905838012695 -0.002194157103076577186584472656 0 0 0 0 
2419833333.3333334923 0.154199421405792208572549384371 -0.085848100483417510986328125000 -0.000559987325686961412429809570 -0.002049042377620935006382607568 0 0 0 0 
