# Hz S RI R 50
2400000000.0000000000 0.171471133828163202483807481258 0.040139872580766677856445312500 0.002843318739905952973606728662 0.001690360018983483097673725659 0 0 0 0 
2400166666.6666665077 0.172057077288627596756143134371 0.039724197238683700561523437500 0.003083749441429973082301474463 0.001322246855124830982805561597 0 0 0 0 
2400333333.3333334923 0.172519788146019009689169365629 0.039018128067255020141601562500 0.003042328404262661933898925781 0.001215646858327090957044291919 0 0 0 0 
2400500000.0000000000 0.172985807061195401290731865629 0.038580559194087982177734375000 0.003240406280383468107936240088 0.001017788192257284901262592847 0 0 0 0 
2400666666.6666665077 0.173255532979965209960937500000 0.037782892584800720214843750000 0.003059280570596456961390829932 0.000866460148245096206665039062 0 0 0 0 
2400833333.3333334923 0.173661023378372192382812500000 0.037381041795015342021901716407 0.003248567925766109986546181787 0.000718538474757224321365356445 0 0 0 0 
2401000000.0000000000 0.173772856593131991287393134371 0.036702267825603492046315778907 0.003104581031948328018188476562 0.000598276208620518445968627930 0 0 0 0 
2401166666.6666665077 0.173928782343864413162393134371 0.036316297948360443115234375000 0.002996275899931788010838173975 0.000244211754761636311381739484 0 0 0 0 
2401333333.3333334923 0.173833012580871609786825615629 0.035361640155315399169921875000 0.003057212103158235983607626807 0.000307226961012929677963256836 0 0 0 0 
2401500000.0000000000 0.173955753445625305175781250000 0.034759789705276489257812500000 0.002984628546983004050013876807 0.000017141575881396420300006866 0 0 0 0 
2401666666.6666665077 0.173827245831489590743856865629 0.034134384244680411601979841407 0.002855147700756787820103310693 0.000034830714866984642367770536 0 0 0 0 
2401833333.3333334923 0.173643484711647005935830634371 0.033340200781822211528737653907 0.002678443677723408179042197119 -0.000092860645963810384273529053 0 0 0 0 
2402000000.0000000000 0.173135071992874201018963731258 0.032634709030389792705495466407 0.002704887883737682862522744287 -0.000113708345452323596603931566 0 0 0 0 
2402166666.6666665077 0.173245236277580288986044365629 0.031749717891216278076171875000 0.002563418587669730186462402344 -0.000276868348009884411662501202 0 0 0 0 
2402333333.3333334923 0.172777965664863586425781250000 0.030882891267538070678710937500 0.002368690446019173102137900244 -0.000221821013838052803843897687 0 0 0 0 
2402500000.0000000000 0.172721415758132906814736884371 0.030050724744796749460240548046 0.002266806783154606819152832031 -0.000255900988122448325157165527 0 0 0 0 
2402666666.6666665077 0.172423794865608187576455634371 0.029095888137817379343053048046 0.002032374730333685874938964844 -0.000166351906955242211192530499 0 0 0 0 
2402833333.3333334923 0.172040909528732299804687500000 0.028087047860026359558105468750 0.002154459478333591981175088037 -0.000163015298312529894426622934 0 0 0 0 
2403000000.0000000000 0.171644434332847595214843750000 0.027015360072255141521413435157 0.002069942653179169134852743994 -0.000121834396850317703045983586 0 0 0 0 
2403166666.6666665077 0.171428442001342801193075615629 0.025902666151523590087890625000 0.002079474274069070816040039062 -0.000011751352758437860757112503 0 0 0 0 
2403333333.3333334923 0.171163633465766906738281250000 0.024572284892201420175572579296 0.001808207598514854907989501953 0.000029483124308171678671633073 0 0 0 0 
2403500000.0000000000 0.170537203550338800628338731258 0.023384241387248039245605468750 0.002057841746136546134948730469 0.000054942320275586098432540894 0 0 0 0 
2403666666.6666665077 0.170395314693450899978799384371 0.021981433033943179738978201954 0.002010075142607092857360839844 0.000067404624132905155420303345 0 0 0 0 
2403833333.3333334923 0.169986546039581298828125000000 0.020519014447927478445032889454 0.002177006332203745841979980469 0.000248135562287643606036585675 0 0 0 0 
2404000000.0000000000 0.169575572013855008224325615629 0.019083855673670768737792968750 0.002112295012921094894409179688 0.000216715445276349810048779898 0 0 0 0 
2404166666.6666665077 0.169249832630157498458700615629 0.017506889998912811279296875000 0.002333754673600196838378906250 0.000262901943642646074295043945 0 0 0 0 
2404333333.3333334923 0.168975248932838412185830634371 0.015930183231830600393275076954 0.002370025031268597082850790869 0.000385568680940195918083190918 0 0 0 0 
2404500000.0000000000 0.168450981378555297851562500000 0.014241940341889859980573085352 0.002498033922165631814243935693 0.000410051346989348476559239520 0 0 0 0 
2404666666.6666665077 0.168309256434440612792968750000 0.012699555605649949854840663477 0.002556651132181286811828613281 0.000266525108600035309791564941 0 0 0 0 
2404833333.3333334923 0.168119668960571289062500000000 0.011015473864972589665423008398 0.002820499939844011826756142725 0.000249970529694110209315699445 0 0 0 0 
2405000000.0000000000 0.168097019195556612869424384371 0.009143892675638198852539062500 0.002736508613452314896824502100 0.000255791877862065976292210712 0 0 0 0 
2405166666.6666665077 0.167836308479309109786825615629 0.007417805492877960205078125000 0.003113809507340192794799804688 0.000134225585497915690571385516 0 0 0 0 
2405333333.3333334923 0.167900651693344088455361884371 0.005529326852411031723022460938 0.003202300053089857101440429688 0.000125187463709153207853594370 0 0 0 0 
2405500000.0000000000 0.167828485369682312011718750000 0.003709261771291493935825966943 0.003436687169596552848815917969 -0.000116566166980192105896534105 0 0 0 0 
2405666666.6666665077 0.167796358466148404220419365629 0.001975933089852333068847656250 0.003440964268520474000218056787 -0.000374330498743802309036254883 0 0 0 0 
2405833333.3333334923 0.167643472552299499511718750000 0.000103458922239951802931647029 0.003455141559243202209472656250 -0.000620281381998211253821218225 0 0 0 0 
2406000000.0000000000 0.167669713497161892989950615629 -0.001806132728233933015110634912 0.003382897935807704925537109375 -0.000632279843557626008987426758 0 0 0 0 
2406166666.6666665077 0.167644992470741299728231865629 -0.003489747177809476852416992188 0.003489674534648656845092773438 -0.000796941865701228380203247070 0 0 0 0 
2406333333.3333334923 0.167733326554298400878906250000 -0.005449653603136540326590253613 0.003588430350646377043483115088 -0.001099811168387532017351460034 0 0 0 0 
2406500000.0000000000 0.167681187391281100174111884371 -0.007215168792754411697387695312 0.003612707369029521942138671875 -0.001286999671719968102098774487 0 0 0 0 
2406666666.6666665077 0.167582198977470397949218750000 -0.008970402181148529052734375000 0.003454155055806041197535849463 -0.001429630443453788974164653247 0 0 0 0 
2406833333.3333334923 0.167816698551178006271200615629 -0.010650787502527240407923514454 0.003493723226711153984069824219 -0.001658454188145696900011372144 0 0 0 0 
2407000000.0000000000 0.167822226881980895996093750000 -0.012198762968182560312291329296 0.003574113594368100166320800781 -0.001668937969952821948407817310 0 0 0 0 
2407166666.6666665077 0.167917430400848388671875000000 -0.013668162748217579233189766796 0.003522909944877028898951865088 -0.001983119640499352975132607568 0 0 0 0 
2407333333.3333334923 0.167906656861305209060830634371 -0.015362774021923540287981602148 0.003365323413163423971888876807 -0.002187384525313972993137978662 0 0 0 0 
2407500000.0000000000 0.168089866638183593750000000000 -0.016629729419946670532226562500 0.003399233100935817198512411963 -0.002298946725204586982727050781 0 0 0 0 
2407666666.6666665077 0.168038383126258905608807481258 -0.017752207815647128713587576954 0.003210852621123195128199911963 -0.002482844982296227975132607568 0 0 0 0 
2407833333.3333334923 0.168055862188339205642861884371 -0.019149912521243098867396170704 0.003077639266848564147949218750 -0.002555826678872108893153525244 0 0 0 0 
2408000000.0000000000 0.168330714106559808929119981258 -0.020230321213603019714355468750 0.003108672332018613815307617188 -0.002702628029510378837585449219 0 0 0 0 
2408166666.6666665077 0.168385505676269503494424384371 -0.021048828959465030324915701954 0.003044395241886376900913857568 -0.002980524441227316856384277344 0 0 0 0 
2408333333.3333334923 0.168888211250305203536825615629 -0.022032514214515689504603201954 0.002925622742623091177699423682 -0.003154386300593615011927939307 0 0 0 0 
2408500000.0000000000 0.169085264205932589431924384371 -0.022911084815859801555593122657 0.002784287789836525917053222656 -0.003375531639903783798217773438 0 0 0 0 
2408666666.6666665077 0.169336840510368402679119981258 -0.023835439234972000122070312500 0.002652389928698540167567587744 -0.003468271577730774879455566406 0 0 0 0 
2408833333.3333334923 0.169675588607788113693075615629 -0.024538224563002589834193045704 0.002410516841337085203883505713 -0.003481198567897080941441201318 0 0 0 0 
2409000000.0000000000 0.169938012957572909256143134371 -0.025163423269987109792689139454 0.002360335551202297210693359375 -0.003641519229859114126918173682 0 0 0 0 
2409166666.6666665077 0.170250400900840787032919365629 -0.025888428092002868652343750000 0.002246368909254670143127441406 -0.003772589843720198111293173682 0 0 0 0 
2409333333.3333334923 0.170871391892433194259481865629 -0.026675157248973849904993826954 0.002044698689132928848266601562 -0.003967163618654012680053710938 0 0 0 0 
2409500000.0000000000 0.171140372753143310546875000000 -0.027349052950739860534667968750 0.001703403191640973091125488281 -0.004065988119691610336303710938 0 0 0 0 
2409666666.6666665077 0.171241670846939086914062500000 -0.028071574866771701467493826954 0.001649248413741589026210165869 -0.004153717309236527356619550488 0 0 0 0 
2409833333.3333334923 0.171563178300857488434161268742 -0.028623729944229129446009451954 0.001371525228023529052734375000 -0.004345367196947336196899414062 0 0 0 0 
2410000000.0000000000 0.171862497925758389571981865629 -0.029302202165126800537109375000 0.001149610267020761966705322266 -0.004362179432064294815063476562 0 0 0 0 
2410166666.6666665077 0.172015234827995300292968750000 -0.029936268925666809082031250000 0.001008827006444334983825683594 -0.004395220428705216321463300488 0 0 0 0 
2410333333.3333334923 0.172099530696868896484375000000 -0.030652048066258430480957031250 0.000635841919574886560440063477 -0.004401661455631256103515625000 0 0 0 0 
2410500000.0000000000 0.171976372599601801116619981258 -0.031336031854152679443359375000 0.000321661122143268585205078125 -0.004452598746865987777709960938 0 0 0 0 
2410666666.6666665077 0.171970874071121188064736884371 -0.032302372157573699951171875000 0.000237173473578877801268977032 -0.004346340429037809371948242188 0 0 0 0 
2410833333.3333334923 0.171847894787788391113281250000 -0.032723668962717063213307966407 0.000054858293879078701138496399 -0.004384862259030342102050781250 0 0 0 0 
2411000000.0000000000 0.171759307384490994552450615629 -0.033292278647422790527343750000 -0.000331611896399408578872680664 -0.004202875308692455291748046875 0 0 0 0 
2411166666.6666665077 0.171345636248588589767294365629 -0.034020688384771347045898437500 -0.000557511288207024335861206055 -0.004142212215811014175415039062 0 0 0 0 
2411333333.3333334923 0.171147957444191006759481865629 -0.034693296998739242553710937500 -0.000738179311156272888183593750 -0.003971065394580364227294921875 0 0 0 0 
2411500000.0000000000 0.170728430151939392089843750000 -0.035363443195819861675222028907 -0.000951224414166063070297241211 -0.003904753131791948838474892725 0 0 0 0 
2411666666.6666665077 0.170464724302291897872763115629 -0.035814691334962851787526716407 -0.001002611359581351063371967847 -0.003719838568940759138820029150 0 0 0 0 
2411833333.3333334923 0.170149132609367398361044365629 -0.036575682461261749267578125000 -0.001203980413265526077867817456 -0.003505921689793467955348349463 0 0 0 0 
2412000000.0000000000 0.169657364487648010253906250000 -0.037496794015169136737863908593 -0.001272976747713983058929443359 -0.003375111846253275871276855469 0 0 0 0 
2412166666.6666665077 0.169075623154640197753906250000 -0.038093261420726783061940778907 -0.001473204931244253895403217847 -0.003317577531561255888697958838 0 0 0 0 
2412333333.3333334923 0.168563053011894198318643134371 -0.038728430867195129394531250000 -0.001495642587542534091352153247 -0.003205822780728340148925781250 0 0 0 0 
2412500000.0000000000 0.167941242456436212737713731258 -0.039639197289943702007253278907 -0.001588331651873887018916464697 -0.003135482780635356903076171875 0 0 0 0 
2412666666.6666665077 0.167276158928871210296307481258 -0.040632300078868872905690778907 -0.001575066242367028973223042065 -0.002941863378509879112243652344 0 0 0 0 
2412833333.3333334923 0.166796356439590509612713731258 -0.041534245014190666889231096093 -0.001731710275635123036028217847 -0.002687054686248302893397665869 0 0 0 0 
2413000000.0000000000 0.166101247072219904143963731258 -0.042348038405179977416992187500 -0.001728672650642693042755126953 -0.002576321596279739899876259912 0 0 0 0 
2413166666.6666665077 0.165360540151596097091513115629 -0.043373014777898788452148437500 -0.001560649834573269107221293872 -0.002459591254591941833496093750 0 0 0 0 
2413333333.3333334923 0.164572834968566894531250000000 -0.044380370527505881572682966407 -0.001754748984239995913264609229 -0.002366808010265231132507324219 0 0 0 0 
2413500000.0000000000 0.163884922862052889724893134371 -0.045368511229753487323801408593 -0.001634023967199027971980429541 -0.002255510305985807938816689600 0 0 0 0 
2413666666.6666665077 0.163304626941680908203125000000 -0.046555567532777793193776716407 -0.001511388341896235942840576172 -0.002093051793053745789768838037 0 0 0 0 
2413833333.3333334923 0.162560328841209411621093750000 -0.047529481351375579833984375000 -0.001572406617924571037292480469 -0.002018791856244205994846963037 0 0 0 0 
2414000000.0000000000 0.161680623888969393631143134371 -0.048518367111682891845703125000 -0.001528760767541825988172221606 -0.001929259393364191055297851562 0 0 0 0 
2414166666.6666665077 0.161219567060470608810263115629 -0.049704942852258682250976562500 -0.001540401601232588074327778394 -0.002039920073002576828002929688 0 0 0 0 
2414333333.3333334923 0.160576567053794888595419365629 -0.050850819796323783184011091407 -0.001496865064837038950679160010 -0.001998577965423465208766318213 0 0 0 0 
2414500000.0000000000 0.160238564014434786697549384371 -0.052018154412508010864257812500 -0.001533832401037215969683003003 -0.001880987198092042966129922021 0 0 0 0 
2414666666.6666665077 0.159682303667068509200888115629 -0.053140398114919662475585937500 -0.001461349427700042941449809497 -0.001960816327482461929321289062 0 0 0 0 
2414833333.3333334923 0.159393936395645113845986884371 -0.054382868111133582378347028907 -0.001530771260149776935577392578 -0.001810848363675177097320556641 0 0 0 0 
2415000000.0000000000 0.158925443887710599044638115629 -0.055705405771732330322265625000 -0.001500378712080419063568115234 -0.001795426942408085086225200122 0 0 0 0 
2415166666.6666665077 0.158521860837936401367187500000 -0.056860130280256271362304687500 -0.001564063131809235052821493994 -0.001895446213893591923954629053 0 0 0 0 
2415333333.3333334923 0.158391296863555908203125000000 -0.058432906866073608398437500000 -0.001520683290436863899230957031 -0.001983366208150982856750488281 0 0 0 0 
2415500000.0000000000 0.158213615417480496505575615629 -0.059620898216962807392160783593 -0.001606229576282202980638813550 -0.001992375822737812995910644531 0 0 0 0 
2415666666.6666665077 0.157968267798423794845419365629 -0.060997787863016128540039062500 -0.001583224628120660998700786060 -0.001979131717234849929809570312 0 0 0 0 
2415833333.3333334923 0.157766982913017300704794365629 -0.062581196427345275878906250000 -0.001847832347266376018524169922 -0.001840545097365974946262978662 0 0 0 0 
2416000000.0000000000 0.157619655132293701171875000000 -0.064105547964572906494140625000 -0.001712417812086642005323100513 -0.001873992849141358895542763818 0 0 0 0 
2416166666.6666665077 0.157513678073883112151776231258 -0.065517246723175048828125000000 -0.001878051203675568103790283203 -0.001670625060796738104579306494 0 0 0 0 
2416333333.3333334923 0.157320916652679387848223768742 -0.066862851381301879882812500000 -0.001927879871800542094587016528 -0.001822009333409368991851806641 0 0 0 0 
2416500000.0000000000 0.157129377126693697830361884371 -0.068395487964153289794921875000 -0.001943620853126049041748046875 -0.001624421798624098084093403394 0 0 0 0 
2416666666.6666665077 0.156828373670578002929687500000 -0.069831229746341705322265625000 -0.001988397678360342979431152344 -0.001597799127921462059020996094 0 0 0 0 
2416833333.3333334923 0.156833678483963012695312500000 -0.071348473429679870605468750000 -0.001907962374389172034022665869 -0.001515879295766354040858603369 0 0 0 0 
2417000000.0000000000 0.156506776809692410568075615629 -0.072649516165256500244140625000 -0.002128413412719964981079101562 -0.001399598200805485031725239331 0 0 0 0 
2417166666.6666665077 0.156338229775428799728231865629 -0.073725774884223937988281250000 -0.001991593511775135993957519531 -0.001350262435153126933454204028 0 0 0 0 
2417333333.3333334923 0.156223654747009305099325615629 -0.074833557009696960449218750000 -0.002043588319793343977687216650 -0.001178470905870198986650776440 0 0 0 0 
2417500000.0000000000 0.155973538756370488922442518742 -0.076203458011150360107421875000 -0.002039226936176418824436806787 -0.001226585707627237059949565356 0 0 0 0 
2417666666.6666665077 0.155994072556495694259481865629 -0.077036619186401367187500000000 -0.001880987314507365009905170972 -0.001148093026131391958949423682 0 0 0 0 
2417833333.3333334923 0.155915081501007107833700615629 -0.078055486083030700683593750000 -0.001839219359681010029436420972 -0.001043070806190371947047568213 0 0 0 0 
2418000000.0000000000 0.155846834182739313323651231258 -0.079183273017406463623046875000 -0.001742677530273794911028217847 -0.001050273305736481926561665112 0 0 0 0 
2418166666.6666665077 0.155682936310768099685830634371 -0.079675793647766113281250000000 -0.001669326797127723910688090747 -0.000960714241955429315567016602 0 0 0 0 
2418333333.3333334923 0.155990794301032992263955634371 -0.080670945346355438232421875000 -0.001734530320391058921813964844 -0.000973900954704731702804565430 0 0 0 0 
2418500000.0000000000 0.155785992741584805587606865629 -0.081572920083999633789062500000 -0.001546180923469365076777792822 -0.001128444913774728991864848560 0 0 0 0 
2418666666.6666665077 0.155818387866020202636718750000 -0.082248315215110778808593750000 -0.001676495652645825906040810693 -0.001169838011264801025390625000 0 0 0 0 
2418833333.3333334923 0.155718281865119906326455634371 -0.082952916622161865234375000000 -0.001766421832144259972813271631 -0.001357507077045738913892436450 0 0 0 0 
2419000000.0000000000 0.155325651168823186676348768742 -0.083650283515453338623046875000 -0.001477770856581628105760883862 -0.001410447061061858914018940503 0 0 0 0 
2419166666.6666665077 0.155540227890014703948651231258 -0.084259860217571258544921875000 -0.001781390048563479943516396631 -0.001643639290705323002458881909 0 0 0 0 
2419333333.3333334923 0.155087992548942593673544365629 -0.084633708000183105468750000000 -0.001761569408699869892717670972 -0.001668316661380230946781777490 0 0 0 0 
2419500000.0000000000 0.155107304453849792480468750000 -0.085276901721954345703125000000 -0.001964521128684281869175576318 -0.001760269631631671948673867334 0 0 0 0 
2419666666.6666665077 0.155024349689483587066973768742 -0.085832439363002777099609375000 -0.002155147725716232819798134912 -0.001760575221851468086242675781 0 0 0 0 
2419833333.3333334923 0.154615148901939392089843750000 -0.086087293922901153564453125000 -0.002193717984482645988464355469 -0.001810672925785183906555175781 0 0 0 0 
