# Hz S RI R 
2400000000.0000000000 0.162262186408042907714843750000 0.052246090024709701538085937500 0.001906366203911602930781699072 0.003703905502334237098693847656 0 0 0 0 
2400166666.6666665077 0.162311270833015386383380018742 0.050799623131752007221262346093 0.002050521317869424819946289062 0.003524160478264092965366982568 0 0 0 0 
2400333333.3333334923 0.162065193057060186188067518742 0.048908401280641562725026716407 0.001963175600394607023951865088 0.003453446086496115164515829932 0 0 0 0 
2400500000.0000000000 0.162129759788513211349325615629 0.047144781798124313354492187500 0.002000717446208000183105468750 0.003349652979522943930384970557 0 0 0 0 
2400666666.6666665077 0.161904141306877108474893134371 0.045120775699615478515625000000 0.002109523862600326971766806494 0.003210247028619050979614257812 0 0 0 0 
2400833333.3333334923 0.161950111389160211761151231258 0.043314795941114432598073591407 0.002089951653033494949340820312 0.003169127739965916113612509619 0 0 0 0 
2401000000.0000000000 0.162190929055213900467080634371 0.041106496006250381469726562500 0.002161278389394282860996865381 0.003103914903476833863499306787 0 0 0 0 
2401166666.6666665077 0.162173077464103698730468750000 0.039111837744712829589843750000 0.002177428686991333961486816406 0.002887104870751500129699707031 0 0 0 0 
2401333333.3333334923 0.162213861942291287521200615629 0.037035897374153137207031250000 0.002302819862961769104003906250 0.002765935612842441038844443213 0 0 0 0 
2401500000.0000000000 0.162596374750137301345986884371 0.034986749291419982910156250000 0.002348658628761767907383584131 0.002708675339818000793457031250 0 0 0 0 
2401666666.6666665077 0.162781059741973904708700615629 0.033076312392950057983398437500 0.002267569070681930021998740088 0.002621200866997241973876953125 0 0 0 0 
2401833333.3333334923 0.163103774189949007888955634371 0.030995341017842289316197579296 0.002558232285082339806797646631 0.002427950501441956000087118994 0 0 0 0 
2402000000.0000000000 0.163156762719154413421307481258 0.029008192941546440124511718750 0.002511948812752962112426757812 0.002354051684960722923278808594 0 0 0 0 
2402166666.6666665077 0.163724690675735501388388115629 0.026910070329904559743861014454 0.002451313892379403114318847656 0.002312382683157920837402343750 0 0 0 0 
2402333333.3333334923 0.164250597357749911209268134371 0.025007363408803939819335937500 0.002540859859436749978306435693 0.002282246947288513183593750000 0 0 0 0 
2402500000.0000000000 0.164785832166671808440838731258 0.023498298600316051137903983204 0.002768801059573889212367392432 0.002000810112804173989536904443 0 0 0 0 
2402666666.6666665077 0.165334671735763605315838731258 0.021734122186899188650111014454 0.002802772214636207060572958838 0.002141986740753055052516318213 0 0 0 0 
2402833333.3333334923 0.165999487042427090743856865629 0.019740642979741099966028983204 0.002739478135481476783752441406 0.001871318556368350982666015625 0 0 0 0 
2403000000.0000000000 0.166588395833969088455361884371 0.018197758123278621328333670704 0.002725122729316353797912597656 0.001913266838528216102002788013 0 0 0 0 
2403166666.6666665077 0.167316392064094487945880018742 0.016613587737083438528040701954 0.002882341854274272918701171875 0.001709283096715807914733886719 0 0 0 0 
2403333333.3333334923 0.168133467435836791992187500000 0.015191361308097839355468750000 0.002987464889883995056152343750 0.001544365892186760902404785156 0 0 0 0 
2403500000.0000000000 0.168807476758956909179687500000 0.013659508898854259145716483204 0.002999458461999893188476562500 0.001504727755673229911206889575 0 0 0 0 
2403666666.6666665077 0.169709905982017489334268134371 0.012161559425294399261474609375 0.003068072721362113952636718750 0.001404128852300345897674560547 0 0 0 0 
2403833333.3333334923 0.170601218938827486892861884371 0.010995645076036449777623360546 0.003104482078924775123596191406 0.001199737307615577957750629956 0 0 0 0 
2404000000.0000000000 0.171267271041870089431924384371 0.009682694450020790100097656250 0.003171239979565144018885947119 0.001020922791212796948076557690 0 0 0 0 
2404166666.6666665077 0.172103822231292696853799384371 0.008569549769163131713867187500 0.003147459356114267869236611475 0.000977098126895725727081298828 0 0 0 0 
2404333333.3333334923 0.172995582222938509842080634371 0.007541212718933820724487304688 0.003260493045672773881199502100 0.000701405049767345190048217773 0 0 0 0 
2404500000.0000000000 0.173578828573226900955361884371 0.006416390649974346160888671875 0.003208738984540104866027832031 0.000361542712198570424884241925 0 0 0 0 
2404666666.6666665077 0.174551054835319491287393134371 0.005711520090699195861816406250 0.003124794457107781930210732568 0.000335763994371518492698669434 0 0 0 0 
2404833333.3333334923 0.175266996026039095779580634371 0.004808187019079923629760742188 0.003260720754042267799377441406 -0.000016178872101590968668460846 0 0 0 0 
2405000000.0000000000 0.175926014780998202224893134371 0.004020131658762693405151367188 0.003243301762267947196960449219 -0.000214182815398089587688446045 0 0 0 0 
2405166666.6666665077 0.176695138216018704513388115629 0.003460912033915520148036337744 0.003168868366628884835484170068 -0.000231286816415376988336286002 0 0 0 0 
2405333333.3333334923 0.177287206053733797928018134371 0.002745683304965496063232421875 0.003016886999830604033229208838 -0.000387242384022101814120692120 0 0 0 0 
2405500000.0000000000 0.177958339452743502517861884371 0.002276837592944502830505371094 0.002955926116555929183959960938 -0.000618029152974486351013183594 0 0 0 0 
2405666666.6666665077 0.178533717989921597579794365629 0.001867623301222919984104775537 0.002921710954979062080383300781 -0.000646225293166935443878173828 0 0 0 0 
2405833333.3333334923 0.178910940885543795486611884371 0.001578037277795373959782265771 0.002778303110972046852111816406 -0.000915253360290080308914184570 0 0 0 0 
2406000000.0000000000 0.179492652416229303558026231258 0.001066772616468369960784912109 0.002640665974467993216273642432 -0.001140878186561167023302387769 0 0 0 0 
2406166666.6666665077 0.179652646183967590332031250000 0.001020207419060171084163046729 0.002463051117956637902500771631 -0.001093208906240761063219379956 0 0 0 0 
2406333333.3333334923 0.180177867412567110916299384371 0.000623804691713303327560424805 0.002258492633700370788574218750 -0.001179281971417367892024374854 0 0 0 0 
2406500000.0000000000 0.180373296141624506194744981258 0.000193397034308873089865007944 0.002259553177282214164733886719 -0.001352785038761795000789023291 0 0 0 0 
2406666666.6666665077 0.180340528488159207443075615629 0.000148646402521990212515154428 0.002078961580991744995117187500 -0.001376008032821119048474955981 0 0 0 0 
2406833333.3333334923 0.180658802390098599532919365629 -0.000296824378892779404490870343 0.002074870979413390159606933594 -0.001427605282515286965611123193 0 0 0 0 
2407000000.0000000000 0.180618599057197598556356865629 -0.000466520257759839296340942383 0.001863952609710394902470254053 -0.001483715139329433007481240381 0 0 0 0 
2407166666.6666665077 0.180741518735885592361611884371 -0.000645802530925720930099487305 0.001722345361486077091814350659 -0.001470716088078916072845458984 0 0 0 0 
2407333333.3333334923 0.180391624569892911056356865629 -0.001153694000095129013061523438 0.001556352246552705981610942310 -0.001321963500231504006626748193 0 0 0 0 
2407500000.0000000000 0.180234730243682889083700615629 -0.001349528785794972939732216943 0.001390821184031665108324360425 -0.001612907275557518005371093750 0 0 0 0 
2407666666.6666665077 0.179996758699417086502236884371 -0.001643119845539331002476357568 0.001238272991031408093096088940 -0.001571920583955944018123007666 0 0 0 0 
2407833333.3333334923 0.179399967193603487869424384371 -0.002360743004828691916224814307 0.001182774896733463027356791919 -0.001509413006715476946589804541 0 0 0 0 
2408000000.0000000000 0.179083779454231289962606865629 -0.002705215243622661070582724463 0.000992225832305848598480224609 -0.001619917224161327102063823169 0 0 0 0 
2408166666.6666665077 0.178607344627380398849325615629 -0.003252489957958459854125976562 0.001008250517770648002624511719 -0.001631759223528205914738320459 0 0 0 0 
2408333333.3333334923 0.178196564316749600509481865629 -0.003953005187213420867919921875 0.000773485691752284765243530273 -0.001543162972666322968126606519 0 0 0 0 
2408500000.0000000000 0.177631556987762506683026231258 -0.004621848929673433303833007812 0.000822556088678538799285888672 -0.001573719200678169944165873950 0 0 0 0 
2408666666.6666665077 0.176955908536911010742187500000 -0.005410266108810901641845703125 0.000545859104022383689880371094 -0.001665374147705733992932963794 0 0 0 0 
2408833333.3333334923 0.176143661141395596603231865629 -0.006288766395300626754760742188 0.000407882413128390908241271973 -0.001543026417493819973589253003 0 0 0 0 
2409000000.0000000000 0.175491660833358792404013115629 -0.007155685219913721084594726562 0.000393313617678359205096644269 -0.001455131801776587963104248047 0 0 0 0 
2409166666.6666665077 0.174707710742950411697549384371 -0.008302951231598854064941406250 0.000400216493289917707443237305 -0.001444623223505913994432758862 0 0 0 0 
2409333333.3333334923 0.174014478921890286544638115629 -0.009492032229900360107421875000 0.000053571002354146912693977356 -0.001427432871423661925672221606 0 0 0 0 
2409500000.0000000000 0.173181384801864596267861884371 -0.010706923902034759521484375000 -0.000079067627666518092155456543 -0.001362922950647770924809121240 0 0 0 0 
2409666666.6666665077 0.172474101185798700530682481258 -0.011913349851965900766392891796 -0.000066415399487596005201339722 -0.001356567372567951896070170825 0 0 0 0 
2409833333.3333334923 0.171595439314842196365518134371 -0.013189839199185369664202305273 -0.000223961964366026195600786752 -0.001327161211520432992222451318 0 0 0 0 
2410000000.0000000000 0.170986443758010892013388115629 -0.014688816852867599832555001171 -0.000216302767512388500288286752 -0.001335796550847589969635009766 0 0 0 0 
2410166666.6666665077 0.170375049114227294921875000000 -0.016102740541100498544713204296 -0.000557757623028010129928588867 -0.001132800127379596016527485425 0 0 0 0 
2410333333.3333334923 0.169532403349876403808593750000 -0.017761316150426871562917341407 -0.000500448630191385746002197266 -0.001033303444273770072339702075 0 0 0 0 
2410500000.0000000000 0.168992564082145690917968750000 -0.019287170842289931560475935157 -0.000531765224877744913101196289 -0.000940263620577752590179443359 0 0 0 0 
2410666666.6666665077 0.168392270803451510330361884371 -0.021210407838225371623952497657 -0.000636682554613798856735229492 -0.000735354202333837747573852539 0 0 0 0 
2410833333.3333334923 0.167934432625770596603231865629 -0.022868188098073009145716483204 -0.000761711155064404010772705078 -0.000704526144545525312423706055 0 0 0 0 
2411000000.0000000000 0.167245760560035705566406250000 -0.024748509749770161020299141796 -0.000634832016658037900924682617 -0.000477188703371211886405944824 0 0 0 0 
2411166666.6666665077 0.166762635111808804611044365629 -0.026712359860539439809778983204 -0.000730534433387219905853271484 -0.000295291130896657705307006836 0 0 0 0 
2411333333.3333334923 0.166394382715225191970986884371 -0.028525944799184799194335937500 -0.000710883643478155136108398438 -0.000364566833013668710559290753 0 0 0 0 
2411500000.0000000000 0.166026160120964105804119981258 -0.030709935352206230163574218750 -0.000730074767488986253738403320 -0.000123618767247535288333892822 0 0 0 0 
2411666666.6666665077 0.165959939360618591308593750000 -0.032542020082473761821706403907 -0.000817453896161168813705444336 -0.000128517844132147702291765756 0 0 0 0 
2411833333.3333334923 0.165913715958595303634481865629 -0.034394815564155578613281250000 -0.000811065896414220333099365234 0.000227056050789542496204376221 0 0 0 0 
2412000000.0000000000 0.165901377797126797775106865629 -0.036540992558002471923828125000 -0.000865471898578107357025146484 0.000342057144735008478164672852 0 0 0 0 
2412166666.6666665077 0.165638521313667297363281250000 -0.038532271981239318847656250000 -0.000605448032729327678680419922 0.000425735750468447804450988770 0 0 0 0 
2412333333.3333334923 0.165916427969932611663494981258 -0.040415484458208077167551408593 -0.000720038369763642549514770508 0.000483864976558834314346313477 0 0 0 0 
2412500000.0000000000 0.166047275066375704666299384371 -0.042352966964244842529296875000 -0.000586798938456922769546508789 0.000632470240816473960876464844 0 0 0 0 
2412666666.6666665077 0.165987268090248107910156250000 -0.044430345296859741210937500000 -0.000437206996139138882786351337 0.000806894619017839431762695312 0 0 0 0 
2412833333.3333334923 0.166313439607620211502236884371 -0.046308781951665878295898437500 -0.000367840868420898914337158203 0.000793718092609196901321411133 0 0 0 0 
2413000000.0000000000 0.166577965021133395095986884371 -0.048057720065116882324218750000 -0.000186023127753287607997340070 0.000888247508555650711059570312 0 0 0 0 
2413166666.6666665077 0.166689246892929104904013115629 -0.049919366836547851562500000000 -0.000118408592243213206529617310 0.001004439662210643074632954175 0 0 0 0 
2413333333.3333334923 0.167137786746025113204794365629 -0.051649082452058792114257812500 -0.000055124575737863779067993164 0.001026774873025714917423867334 0 0 0 0 
2413500000.0000000000 0.167658925056457491775674384371 -0.053375072777271270751953125000 0.000100236204161774394199094229 0.001058439258486032919642783057 0 0 0 0 
2413666666.6666665077 0.168142274022102411468182481258 -0.054883196949958801269531250000 0.000046182889491319663148333891 0.001170175499282777092577290112 0 0 0 0 
2413833333.3333334923 0.168562129139900207519531250000 -0.056453622877597808837890625000 0.000361856160452589392662048340 0.001175818266347051100489951025 0 0 0 0 
2414000000.0000000000 0.168776243925094604492187500000 -0.057961590588092797016184221093 0.000289476971374824588924962177 0.001104110386222600936889648438 0 0 0 0 
2414166666.6666665077 0.169673427939415005782919365629 -0.059203159064054489135742187500 0.000611721829045563936233520508 0.001235217903740704059600830078 0 0 0 0 
2414333333.3333334923 0.169911086559295709808026231258 -0.060627222061157226562500000000 0.000693643291015177965164184570 0.001083682989701628901837993091 0 0 0 0 
2414500000.0000000000 0.170559450984001187423544365629 -0.061710916459560387348215471093 0.000825732713565230369567871094 0.001224810257554054043413471753 0 0 0 0 
2414666666.6666665077 0.171116068959236200530682481258 -0.062686800956726074218750000000 0.000863884692080318927764892578 0.001031739404425024986267089844 0 0 0 0 
2414833333.3333334923 0.171460032463073702713174384371 -0.063756935298442840576171875000 0.001101808971725404045702290112 0.001025037607178092002868652344 0 0 0 0 
2415000000.0000000000 0.172032728791236905196981865629 -0.064627096056938171386718750000 0.001080142450518905899645161206 0.000992948771454393863677978516 0 0 0 0 
2415166666.6666665077 0.172405421733856201171875000000 -0.065387330949306488037109375000 0.001307285623624921061872172778 0.000884931592736393213272094727 0 0 0 0 
2415333333.3333334923 0.172803461551666287521200615629 -0.066264100372791290283203125000 0.001324664917774498896357870947 0.000771152728702872991561889648 0 0 0 0 
2415500000.0000000000 0.173264831304550198654013115629 -0.066818527877330780029296875000 0.001357213826850057081935263525 0.000668692111503332853317260742 0 0 0 0 
2415666666.6666665077 0.173492163419723510742187500000 -0.067264594137668609619140625000 0.001383915892802179076551127856 0.000726258789654821157455444336 0 0 0 0 
2415833333.3333334923 0.173726394772529602050781250000 -0.067739248275756835937500000000 0.001571694156154989979387592847 0.000468144309706986004680079327 0 0 0 0 
2416000000.0000000000 0.173754304647445706466513115629 -0.068322643637657165527343750000 0.001555829541757703044294047778 0.000202418552362360087320050650 0 0 0 0 
2416166666.6666665077 0.173972085118293789962606865629 -0.068738155066967010498046875000 0.001635540858842432932612753760 0.000295510108117014223903101788 0 0 0 0 
2416333333.3333334923 0.173996120691299410720986884371 -0.068944700062274932861328125000 0.001641014590859412930132221753 0.000210482161492109298706054688 0 0 0 0 
2416500000.0000000000 0.173867419362068204025106865629 -0.069325029850006103515625000000 0.001678810571320354938507080078 0.000258394662523642182350158691 0 0 0 0 
2416666666.6666665077 0.173633903264999389648437500000 -0.069437928497791290283203125000 0.001628340920433402061462402344 0.000119708965939935296773910522 0 0 0 0 
2416833333.3333334923 0.173613056540489196777343750000 -0.069812223315238952636718750000 0.001827291795052587985992431641 0.000094698785687796771526336670 0 0 0 0 
2417000000.0000000000 0.173110246658325195312500000000 -0.070010058581829071044921875000 0.001801294856704771952388144385 -0.000009837039215199183672666550 0 0 0 0 
2417166666.6666665077 0.172743037343025207519531250000 -0.070046253502368927001953125000 0.001679172157309948964359902490 0.000039740323700243607163429260 0 0 0 0 
2417333333.3333334923 0.172290369868278503417968750000 -0.070128761231899261474609375000 0.001698747742921113967895507812 -0.000132046276121400296688079834 0 0 0 0 
2417500000.0000000000 0.171650961041450500488281250000 -0.070443727076053619384765625000 0.001657126820646225972416543115 -0.000307266454910859519809168683 0 0 0 0 
2417666666.6666665077 0.171045184135437011718750000000 -0.070483542978763580322265625000 0.001647183322347701029536581885 -0.000189168087672442197799682617 0 0 0 0 
2417833333.3333334923 0.170163199305534390548544365629 -0.070707485079765319824218750000 0.001702114357613027095794677734 -0.000317648489726707285076695575 0 0 0 0 
2418000000.0000000000 0.169197618961334200760049384371 -0.071068912744522094726562500000 0.001791250193491578102111816406 -0.000479551032185554504394531250 0 0 0 0 
2418166666.6666665077 0.168388277292251586914062500000 -0.071040287613868713378906250000 0.001757128746248781897901225513 -0.000422839046223089098930358887 0 0 0 0 
2418333333.3333334923 0.167606711387634305099325615629 -0.071390502154827117919921875000 0.001631979830563067956211709131 -0.000461075833300128579139709473 0 0 0 0 
2418500000.0000000000 0.166450500488281305511151231258 -0.071763187646865844726562500000 0.001738090417347847981693886865 -0.000604348548222333192825317383 0 0 0 0 
2418666666.6666665077 0.165406569838523892501669365629 -0.072210006415843963623046875000 0.001637237728573381900787353516 -0.000485497817862778902053833008 0 0 0 0 
2418833333.3333334923 0.163903445005416897872763115629 -0.072537653148174285888671875000 0.001799427089281379959703754956 -0.000542808847967535257339477539 0 0 0 0 
2419000000.0000000000 0.162788286805152893066406250000 -0.072998538613319396972656250000 0.001624211785383522944209433447 -0.000516354863066226243972778320 0 0 0 0 
2419166666.6666665077 0.161611288785934503753338731258 -0.073574483394622802734375000000 0.001719465246424078941345214844 -0.000627432076726108789443969727 0 0 0 0 
2419333333.3333334923 0.160288602113723810393963731258 -0.074093304574489593505859375000 0.001805947977118194103240966797 -0.000736396992579102516174316406 0 0 0 0 
2419500000.0000000000 0.158982172608375604827557481258 -0.075011380016803741455078125000 0.001656792475841939015629433740 -0.000804415612947195768356323242 0 0 0 0 
2419666666.6666665077 0.157645061612129211425781250000 -0.075869083404541015625000000000 0.001742621883749962069867778247 -0.000704344827681779861450195312 0 0 0 0 
2419833333.3333334923 0.156326040625572204589843750000 -0.076574385166168212890625000000 0.001765821129083632989170693506 -0.000816257088445127010345458984 0 0 0 0 
