# Hz S RI R 
2400000000.0000000000 0.155551031231880187988281250000 0.110475033521652193924111884371 -0.000277582294074818491935729980 -0.001625718432478606917737651294 0 0 0 0 
2400166666.6666665077 0.154749453067779513260049384371 0.108276195824146298507528740629 -0.000305427820421755313873291016 -0.001581828575581311962724995190 0 0 0 0 
2400333333.3333334923 0.154570177197456387618856865629 0.105926580727100400070028740629 -0.000300466257613152319758814679 -0.001446382491849363067029643481 0 0 0 0 
2400500000.0000000000 0.154333114624023409744424384371 0.103426761925220503379740932814 -0.000392977264709770679473876953 -0.001502116676419972939732216943 0 0 0 0 
2400666666.6666665077 0.154074281454086303710937500000 0.100808225572109194656533759371 -0.000289674295345321297645568848 -0.001328041777014731927158974756 0 0 0 0 
2400833333.3333334923 0.153627485036850003341513115629 0.097992494702339172363281250000 -0.000288075767457485198974609375 -0.001467814901843667030334472656 0 0 0 0 
2401000000.0000000000 0.153644233942031888107138115629 0.095018245279788970947265625000 -0.000312411400955170392990112305 -0.001708292169496417045593261719 0 0 0 0 
2401166666.6666665077 0.153303667902946499923544365629 0.092267386615276336669921875000 -0.000575944664888083934783935547 -0.001508627901785076098201132666 0 0 0 0 
2401333333.3333334923 0.153543010354042108733807481258 0.089295148849487304687500000000 -0.000601890031248331069946289062 -0.001706891111098230101941752856 0 0 0 0 
2401500000.0000000000 0.153666049242019708831463731258 0.086224637925624847412109375000 -0.000719031959306448698043823242 -0.001611208892427385070203471606 0 0 0 0 
2401666666.6666665077 0.153775647282600402832031250000 0.083314143121242523193359375000 -0.000736615853384137153625488281 -0.001722530694678426005719829028 0 0 0 0 
2401833333.3333334923 0.154099389910697909256143134371 0.080355554819107055664062500000 -0.000849134230520576238632202148 -0.001722035231068729920628213037 0 0 0 0 
2402000000.0000000000 0.154990717768669100662393134371 0.077382281422615051269531250000 -0.000996906892396509647369384766 -0.001783945132046937942504882812 0 0 0 0 
2402166666.6666665077 0.155263036489486694335937500000 0.074631005525588989257812500000 -0.001192317577078938917872763525 -0.001675863168202341036555624854 0 0 0 0 
2402333333.3333334923 0.156257703900337191482705634371 0.071812912821769714355468750000 -0.001399458153173327012303017725 -0.001524050487205385944963764722 0 0 0 0 
2402500000.0000000000 0.157277196645736694335937500000 0.068930163979530334472656250000 -0.001661149901337922053096152197 -0.001527390093542635007145547021 0 0 0 0 
2402666666.6666665077 0.158261477947235107421875000000 0.066557385027408599853515625000 -0.001751113333739340088487934644 -0.001289689796976744911791157300 0 0 0 0 
2402833333.3333334923 0.159457311034202603439169365629 0.063789837062358856201171875000 -0.001712845987640321037889790112 -0.001263704616576432964922260815 0 0 0 0 
2403000000.0000000000 0.160756558179855402190838731258 0.061172209680080406879465471093 -0.002018984640017151832580566406 -0.000951779831666499376296997070 0 0 0 0 
2403166666.6666665077 0.162466973066330011565838731258 0.058711051940917968750000000000 -0.002093984978273510932922363281 -0.000792598817497491836547851562 0 0 0 0 
2403333333.3333334923 0.164093047380447387695312500000 0.056255683302879326557199846093 -0.001984685193747282028198242188 -0.000751092156860977411270141602 0 0 0 0 
2403500000.0000000000 0.165580585598945589920205634371 0.054070629179477691650390625000 -0.002259653527289628982543945312 -0.000640615238808095455169677734 0 0 0 0 
2403666666.6666665077 0.167836442589759798904580634371 0.051818739622831351543386091407 -0.002054757904261351065394736182 -0.000334933865815401077270507812 0 0 0 0 
2403833333.3333334923 0.169330716133117703536825615629 0.049760110676288611675222028907 -0.002184196608141065077540732275 -0.000032809042750159278512001038 0 0 0 0 
2404000000.0000000000 0.170909360051155090332031250000 0.047750409692525856708567033593 -0.002104965038597584204432822119 0.000254957703873515074879246844 0 0 0 0 
2404166666.6666665077 0.172811448574066189864950615629 0.046206209808588027954101562500 -0.002037134254351257844212197412 0.000334856420522555708885192871 0 0 0 0 
2404333333.3333334923 0.174798339605331393142861884371 0.044274877756834030151367187500 -0.001805931911803781986236572266 0.000276239064987748915522974835 0 0 0 0 
2404500000.0000000000 0.176535561680793789962606865629 0.042859498411417007446289062500 -0.001754225115291774056078266675 0.000715342932380735874176025391 0 0 0 0 
2404666666.6666665077 0.178365305066108703613281250000 0.041549284011125571514089216407 -0.001640771166421473026275634766 0.000764640804845839738845825195 0 0 0 0 
2404833333.3333334923 0.180101960897445706466513115629 0.040140718221664428710937500000 -0.001620038063265383026720356519 0.000795770843978971242904663086 0 0 0 0 
2405000000.0000000000 0.181714251637458801269531250000 0.039577666670083999633789062500 -0.001503335428424179987666464697 0.000865440058987587690353393555 0 0 0 0 
2405166666.6666665077 0.183390587568283108810263115629 0.038676880300045013427734375000 -0.001291671418584882996202778394 0.000845339440274983644485473633 0 0 0 0 
2405333333.3333334923 0.185067027807235690017861884371 0.038168046623468399047851562500 -0.000947063788771629333496093750 0.000894356402568519115447998047 0 0 0 0 
2405500000.0000000000 0.186873510479927090743856865629 0.037743072956800460815429687500 -0.000888349022716283798217773438 0.001025265315547585921046591650 0 0 0 0 
2405666666.6666665077 0.188222751021385192871093750000 0.037370484322309487079660783593 -0.000703375728335231542587280273 0.000963955128099769353866577148 0 0 0 0 
2405833333.3333334923 0.189693436026573208907919365629 0.037247315049171447753906250000 -0.000628662062808871269226074219 0.000902193307410925626754760742 0 0 0 0 
2406000000.0000000000 0.191092908382415799239950615629 0.037014685571193702007253278907 -0.000701085722539573907852172852 0.000841223634779453277587890625 0 0 0 0 
2406166666.6666665077 0.192307412624359103103799384371 0.036812614649534232402761091407 -0.000439013674622401595115661621 0.000878303835634142160415649414 0 0 0 0 
2406333333.3333334923 0.193483293056488009353799384371 0.037173144519329071044921875000 -0.000315130397211760282516479492 0.000848079274874180555343627930 0 0 0 0 
2406500000.0000000000 0.194406598806381197830361884371 0.037323232740163803100585937500 -0.000394551228964701294898986816 0.000726665137335658073425292969 0 0 0 0 
2406666666.6666665077 0.195367977023124694824218750000 0.037460826337337486957590471093 -0.000331538816681131720542907715 0.000753796193748712539672851562 0 0 0 0 
2406833333.3333334923 0.196035578846931513030682481258 0.037707950919866561889648437500 -0.000224682225962169495507916861 0.000591054849792271852493286133 0 0 0 0 
2407000000.0000000000 0.196540370583534212967080634371 0.038081649690866470336914062500 -0.000139671436045318787724095477 0.000520896981470286846160888672 0 0 0 0 
2407166666.6666665077 0.197147473692894009689169365629 0.038227640092372887348215471093 -0.000288580573396757299273890363 0.000569924595765769481658935547 0 0 0 0 
2407333333.3333334923 0.197255581617355402190838731258 0.038777224719524376606027971093 -0.000123039673781022402361193246 0.000497579458169639110565185547 0 0 0 0 
2407500000.0000000000 0.197389304637908907791299384371 0.039158925414085388183593750000 -0.000142574761412106508582514630 0.000549882242921739816665649414 0 0 0 0 
2407666666.6666665077 0.197588175535201998611611884371 0.039423894137144088745117187500 0.000003209018814231967977012834 0.000488149904413148815005701886 0 0 0 0 
2407833333.3333334923 0.197250068187713595291299384371 0.039555795490741729736328125000 -0.000116609888209495693445205688 0.000348797038896009325981140137 0 0 0 0 
2408000000.0000000000 0.197293221950531005859375000000 0.039777167141437530517578125000 0.000134727102704346207067212515 0.000215420091990381506368359976 0 0 0 0 
2408166666.6666665077 0.196722149848937988281250000000 0.039896663278341293334960937500 0.000155832924065180095747271127 0.000207417135243304100915631705 0 0 0 0 
2408333333.3333334923 0.196333795785903902908486884371 0.039769046008586876606027971093 -0.000049418231355957686901092529 0.000184836593689397004529675894 0 0 0 0 
2408500000.0000000000 0.195644199848175104339276231258 0.039817955344915390014648437500 0.000125761434901505708694458008 0.000158037131768651306629180908 0 0 0 0 
2408666666.6666665077 0.195078641176223810393963731258 0.039754651486873626708984375000 0.000174437256646342602655133658 -0.000007402151823043823242187500 0 0 0 0 
2408833333.3333334923 0.194463446736335809905682481258 0.039304040372371666645090471093 0.000121278084407094906694950243 -0.000094223833002615720033645630 0 0 0 0 
2409000000.0000000000 0.193496406078338595291299384371 0.038815949112176902080495466407 -0.000021642203137162141501903534 -0.000330687791574746424525660382 0 0 0 0 
2409166666.6666665077 0.192429512739181490799111884371 0.038193106651306152343750000000 -0.000087226981122512370347976685 -0.000275290687568485682636815204 0 0 0 0 
2409333333.3333334923 0.191410467028617886642294365629 0.037484325468540191650390625000 -0.000204933734494261389404851093 -0.000550831202417612075805664062 0 0 0 0 
2409500000.0000000000 0.190177902579307611663494981258 0.036527227610349662090261091407 -0.000268550473265349919169825421 -0.000506451528053730726242065430 0 0 0 0 
2409666666.6666665077 0.188987210392951993087606865629 0.035434883087873458862304687500 -0.000446629303041845614283961163 -0.000544341630302369594573974609 0 0 0 0 
2409833333.3333334923 0.187892809510230990310830634371 0.034286070615053176879882812500 -0.000489898025989532470703125000 -0.000600757775828242301940917969 0 0 0 0 
2410000000.0000000000 0.186743870377540588378906250000 0.032789561897516250610351562500 -0.000731372507289052009582519531 -0.000402486301027238423198145734 0 0 0 0 
2410166666.6666665077 0.185601115226745605468750000000 0.031105758622288700449010079296 -0.000699541065841913223266601562 -0.000261748733464628512233179913 0 0 0 0 
2410333333.3333334923 0.184368625283241299728231865629 0.029616745188832279550572579296 -0.000841418979689478874206542969 -0.000322789739584550315707606183 0 0 0 0 
2410500000.0000000000 0.183134809136390713790731865629 0.027737487107515338552454764454 -0.000935184885747730731964111328 -0.000286717142444104010432642804 0 0 0 0 
2410666666.6666665077 0.182141646742820711990518134371 0.025695620104670531536061872657 -0.001059982459992169900181435693 -0.000204237265279516604825696402 0 0 0 0 
2410833333.3333334923 0.181324392557144192794638115629 0.023573840036988258361816406250 -0.000929981761146336793899536133 -0.000324197812005877494812011719 0 0 0 0 
2411000000.0000000000 0.180236235260963412185830634371 0.021552469581365588796595389454 -0.001127299270592629909515380859 -0.000088596316345501691102981567 0 0 0 0 
2411166666.6666665077 0.179633915424346896072549384371 0.019277010113000869750976562500 -0.001015965011902153925654745947 -0.000090760586317628622055053711 0 0 0 0 
2411333333.3333334923 0.178822815418243408203125000000 0.016839541494846340524693673046 -0.001116197556257247924804687500 -0.000051206283387728042226245267 0 0 0 0 
2411500000.0000000000 0.178121775388717706878338731258 0.014318141154944900167444998829 -0.001191349001601337952854775537 0.000108053376607131199397225652 0 0 0 0 
2411666666.6666665077 0.177699491381645202636718750000 0.011983798816800119227399257227 -0.001260893768630922057508159106 0.000004836517291550990194082260 0 0 0 0 
2411833333.3333334923 0.177350193262100191970986884371 0.009431911632418632507324218750 -0.001276621944271028041839599609 0.000143457233207300305366516113 0 0 0 0 
2412000000.0000000000 0.177131906151771600921307481258 0.006818771362304688367361737988 -0.001361296046525239944458007812 0.000265383074292913079261779785 0 0 0 0 
2412166666.6666665077 0.177194148302078302581463731258 0.004339920822530984878540039062 -0.001370341633446515040156699072 0.000277710612863302176624852313 0 0 0 0 
2412333333.3333334923 0.177252784371376009842080634371 0.001596309361048042991040873950 -0.001264606253243983008741069263 0.000451076484750956296920776367 0 0 0 0 
2412500000.0000000000 0.177699923515319796463174384371 -0.001016549183987081050872802734 -0.001495775883086025931714702075 0.000464293232653289979130345477 0 0 0 0 
2412666666.6666665077 0.178087562322616604904013115629 -0.003582836594432591958286904443 -0.001344212447293102958081889575 0.000544860027730464935302734375 0 0 0 0 
2412833333.3333334923 0.178717792034149197677450615629 -0.006399833597242832183837890625 -0.001521691447123884937883686597 0.000581606000196188688278198242 0 0 0 0 
2413000000.0000000000 0.179294049739837701995526231258 -0.008931143209338188171386718750 -0.001384052564390003898023295825 0.000754922220949083566665649414 0 0 0 0 
2413166666.6666665077 0.180149361491203308105468750000 -0.011456986889243129384974295704 -0.001475026831030846075770712744 0.000861340609844774007797241211 0 0 0 0 
2413333333.3333334923 0.181218206882476806640625000000 -0.014082066714763639622698399023 -0.001278007053770124912261962891 0.001270071254111825986149453271 0 0 0 0 
2413500000.0000000000 0.182069838047027587890625000000 -0.016680816188454631460169608204 -0.001291989115998148918151855469 0.001021515578031539916992187500 0 0 0 0 
2413666666.6666665077 0.183354899287223788162393134371 -0.018975272774696350097656250000 -0.001228262670338154055951762622 0.001175200915895401997807168115 0 0 0 0 
2413833333.3333334923 0.184508040547370910644531250000 -0.021359205245971679687500000000 -0.001224942039698361916782998193 0.001349236234091222069383930737 0 0 0 0 
2414000000.0000000000 0.185667991638183593750000000000 -0.023658793419599529611607735546 -0.001082798815332352898241352612 0.001404084381647408008575439453 0 0 0 0 
2414166666.6666665077 0.187180161476135309417401231258 -0.025681691244244578969935233204 -0.000953679322265088558197021484 0.001446082722395658926722861182 0 0 0 0 
2414333333.3333334923 0.188446626067161587814169365629 -0.027959899976849559438685233204 -0.001007044804282486005070351709 0.001393801998347043991088867188 0 0 0 0 
2414500000.0000000000 0.189901337027549688141192518742 -0.029734648764133449899693673046 -0.000895304663572460412979125977 0.001622925512492656924604106372 0 0 0 0 
2414666666.6666665077 0.191155508160591097732705634371 -0.031437963247299187397043596093 -0.000657885160762816667556762695 0.001599083305336534976959228516 0 0 0 0 
2414833333.3333334923 0.192469984292984008789062500000 -0.033014755696058273315429687500 -0.000725166173651814460754394531 0.001653705839999020099639892578 0 0 0 0 
2415000000.0000000000 0.193907484412193298339843750000 -0.034543592482805252075195312500 -0.000435054855188354904025477277 0.001685123657807708003400493091 0 0 0 0 
2415166666.6666665077 0.195544153451919611175213731258 -0.035800654441118240356445312500 -0.000390197819797322208255213605 0.001694615813903511004206992041 0 0 0 0 
2415333333.3333334923 0.196917578577995300292968750000 -0.037022795528173446655273437500 -0.000329335336573422009318751202 0.001680127112194895961164164966 0 0 0 0 
2415500000.0000000000 0.198115736246109008789062500000 -0.037886999547481536865234375000 -0.000296063313726335818141383038 0.001763972337357700087903666919 0 0 0 0 
2415666666.6666665077 0.199650079011917086502236884371 -0.038808681070804602886159528907 -0.000019584796973504129460061721 0.001786817912943660996080708081 0 0 0 0 
2415833333.3333334923 0.200667381286621093750000000000 -0.039648622274398796772043596093 -0.000100091165222693194024501662 0.001808158820495008988621377100 0 0 0 0 
2416000000.0000000000 0.201859921216964693924111884371 -0.040299754589796073223073591407 0.000047335455747088417410850525 0.001579274074174463965772319263 0 0 0 0 
2416166666.6666665077 0.202690944075584411621093750000 -0.040972743183374411846120466407 -0.000067142769694328308105468750 0.001624656259082257964490580981 0 0 0 0 
2416333333.3333334923 0.203704863786697387695312500000 -0.041337277740240097045898437500 0.000007364803877862868830561638 0.001656568259932100989698100513 0 0 0 0 
2416500000.0000000000 0.204578593373298700530682481258 -0.041645463556051247333567033593 0.000155325367813929888323107309 0.001455038203857839107513427734 0 0 0 0 
2416666666.6666665077 0.205081805586814908126669365629 -0.041789926588535308837890625000 0.000207806660910136997699737549 0.001436517923139035918592143481 0 0 0 0 
2416833333.3333334923 0.205489978194236810882244981258 -0.041804969310760498046875000000 0.000155229892698116600513458252 0.001509724068455398082733154297 0 0 0 0 
2417000000.0000000000 0.205917924642562893966513115629 -0.042027968913316726684570312500 0.000241031710174865993574419565 0.001418317668139934973475790869 0 0 0 0 
2417166666.6666665077 0.205935031175613403320312500000 -0.041922610253095626831054687500 0.000218260349356569403975886212 0.001547300256788731055018759619 0 0 0 0 
2417333333.3333334923 0.205941736698150607010049384371 -0.041561428457498550415039062500 0.000217175329453311887666425162 0.001554661546833812973619770581 0 0 0 0 
2417500000.0000000000 0.205891713500022888183593750000 -0.041411343961954116821289062500 0.000402697740355506485134678973 0.001782756648026406981824565356 0 0 0 0 
2417666666.6666665077 0.205611705780029296875000000000 -0.041125964373350143432617187500 0.000270365242613479495048522949 0.001798451296053827025769877856 0 0 0 0 
2417833333.3333334923 0.205457612872123690506143134371 -0.040694009512662887573242187500 0.000475815759273245876461583270 0.001808798289857804992078471606 0 0 0 0 
2418000000.0000000000 0.204869776964187594314736884371 -0.040362253785133361816406250000 0.000452911743195727521747034894 0.001787477056495845101000141675 0 0 0 0 
2418166666.6666665077 0.204272910952568109710369981258 -0.040177736431360251689870466407 0.000645511492621153593063354492 0.001749117975123227076289511572 0 0 0 0 
2418333333.3333334923 0.203521102666854886154013115629 -0.039792060852050781250000000000 0.000830140954349189996719360352 0.001750854542478919029235839844 0 0 0 0 
2418500000.0000000000 0.202628135681152288238848768742 -0.039575498551130301738698591407 0.000908888410776853561401367188 0.001787843066267668984056782300 0 0 0 0 
2418666666.6666665077 0.201828226447105407714843750000 -0.039368618279695510864257812500 0.001207414316013454957249306787 0.001757886609993875026702880859 0 0 0 0 
2418833333.3333334923 0.200531870126724187652911268742 -0.039264179766178131103515625000 0.001338948728516698100446391528 0.001649484154768287918688129956 0 0 0 0 
2419000000.0000000000 0.199284270405769403655682481258 -0.039352882653474807739257812500 0.001428544055670500018476176685 0.001532476977445184967638325269 0 0 0 0 
2419166666.6666665077 0.198214158415794400314169365629 -0.039458148181438452983815778907 0.001532175228931009986280131763 0.001375517575070261955261230469 0 0 0 0 
2419333333.3333334923 0.196640402078628512283486884371 -0.039633441716432571411132812500 0.001595285139046608968022011865 0.001134227495640516064287495190 0 0 0 0 
2419500000.0000000000 0.195074334740638705154580634371 -0.039768587797880172729492187500 0.001572915702126920006395649487 0.001148932264186441898345947266 0 0 0 0 
2419666666.6666665077 0.193528145551681490799111884371 -0.040587235242128372192382812500 0.001600160263478755950927734375 0.000931532471440732479095458984 0 0 0 0 
2419833333.3333334923 0.191775113344192504882812500000 -0.041071608662605292583425153907 0.001577948103658854961395263672 0.000976859009824693202972412109 0 0 0 0 
