# Hz S RI R 50
2400000000.0000000000 0.168752327561378506759481865629 0.047032866626977920532226562500 -0.004817243665456771850585937500 -0.000125444552395492792129516602 0 0 0 0 
2400166666.6666665077 0.169863775372505187988281250000 0.046030346304178237915039062500 -0.004921040963381528854370117188 0.000071915754233486950397491455 0 0 0 0 
2400333333.3333334923 0.170565649867057800292968750000 0.044922150671482093120534528907 -0.004961605649441480636596679688 -0.000050148617447121068835258484 0 0 0 0 
2400500000.0000000000 0.171536684036254910568075615629 0.044028189033269882202148437500 -0.004791671410202980041503906250 0.000123294303193688392639160156 0 0 0 0 
2400666666.6666665077 0.172290846705436706542968750000 0.043079327791929251934011091407 -0.004936300218105316162109375000 0.000163035845616832402631482535 0 0 0 0 
2400833333.3333334923 0.173301383852958706954794365629 0.042300872504711151123046875000 -0.005013952031731606397146894238 0.000276958598988130688667297363 0 0 0 0 
2401000000.0000000000 0.173993304371833801269531250000 0.041649274528026580810546875000 -0.005174678750336170196533203125 0.000501035538036376237869262695 0 0 0 0 
2401166666.6666665077 0.174702927470207186599893134371 0.040938895195722579956054687500 -0.005201932508498430252075195312 0.000583894201554358005523681641 0 0 0 0 
2401333333.3333334923 0.175501555204391507247763115629 0.040146235376596450805664062500 -0.005216413177549839019775390625 0.000668184540700167417526245117 0 0 0 0 
2401500000.0000000000 0.176139578223228510100994981258 0.039403386414051062847097028907 -0.005415203981101512908935546875 0.000978342373855412006378173828 0 0 0 0 
2401666666.6666665077 0.176854804158210809905682481258 0.039051212370395660400390625000 -0.005544617306441068649291992188 0.001132517121732234954833984375 0 0 0 0 
2401833333.3333334923 0.177289411425590487381143134371 0.038305424153804779052734375000 -0.005493778735399246215820312500 0.001229407964274287006975483472 0 0 0 0 
2402000000.0000000000 0.177862241864204406738281250000 0.037699092179536819458007812500 -0.005472446791827678680419921875 0.001702594337984919981715536963 0 0 0 0 
2402166666.6666665077 0.178096190094947787185830634371 0.036873441189527511596679687500 -0.005552295595407485961914062500 0.001772162155248224952100444263 0 0 0 0 
2402333333.3333334923 0.178547844290733309646768134371 0.036312524229288101196289062500 -0.005428198259323835372924804688 0.002051382325589656829833984375 0 0 0 0 
2402500000.0000000000 0.178929165005683898925781250000 0.035744991153478622436523437500 -0.005595734808593988418579101562 0.002504934789612888856175088037 0 0 0 0 
2402666666.6666665077 0.179033607244491604904013115629 0.035117037594318389892578125000 -0.005301943980157375335693359375 0.002518654102459549903869628906 0 0 0 0 
2402833333.3333334923 0.179161235690116910079794365629 0.034421660006046302104909528907 -0.005358544178307056427001953125 0.002946481574326754050013876807 0 0 0 0 
2403000000.0000000000 0.179447263479232788085937500000 0.033574223518371582031250000000 -0.005165294278413057327270507812 0.003144383430480957031250000000 0 0 0 0 
2403166666.6666665077 0.179508969187736511230468750000 0.032566308975219726562500000000 -0.005008659791201353073120117188 0.003283050609752535820007324219 0 0 0 0 
2403333333.3333334923 0.179289221763610812088174384371 0.031698353588581092143972028907 -0.005035053938627243041992187500 0.003520333440974355177638388525 0 0 0 0 
2403500000.0000000000 0.179099410772323608398437500000 0.030697828158736228942871093750 -0.004730994813144207000732421875 0.003917961381375789642333984375 0 0 0 0 
2403666666.6666665077 0.178833976387977600097656250000 0.029650175943970680236816406250 -0.004701392725110054016113281250 0.003915098030120134353637695312 0 0 0 0 
2403833333.3333334923 0.178797245025634793380575615629 0.028733300045132640493372733204 -0.004361136816442012786865234375 0.004011742770671845349783612988 0 0 0 0 
2404000000.0000000000 0.178282633423805209060830634371 0.027444345876574519765833670704 -0.004018831066787242889404296875 0.004374113399535418424124433301 0 0 0 0 
2404166666.6666665077 0.177867174148559598068075615629 0.026208246126770969736119454296 -0.003901951480656861825230263818 0.004386513493955135345458984375 0 0 0 0 
2404333333.3333334923 0.177527606487274197677450615629 0.024886479601263999938964843750 -0.003647270379588007926940917969 0.004561005160212516784667968750 0 0 0 0 
2404500000.0000000000 0.176931932568550109863281250000 0.023281805217266079294224923046 -0.003480719868093729019165039062 0.004630412440747022628784179688 0 0 0 0 
2404666666.6666665077 0.176405370235443087478799384371 0.022168450057506561279296875000 -0.003330622799694538116455078125 0.004751279484480619430541992188 0 0 0 0 
2404833333.3333334923 0.176153615117073086837606865629 0.020498754456639289855957031250 -0.002900631399825214905979775537 0.004762386437505483627319335938 0 0 0 0 
2405000000.0000000000 0.175564423203468294998330634371 0.019071476534008979797363281250 -0.002741145901381969885585165869 0.004732310306280851364135742188 0 0 0 0 
2405166666.6666665077 0.175114840269088800628338731258 0.017282690852880481374720389454 -0.002476892434060574011561728369 0.004829368088394404325003339551 0 0 0 0 
2405333333.3333334923 0.174707308411598205566406250000 0.015500036068260669708251953125 -0.002451884560286999182460165869 0.004891340155154466629028320312 0 0 0 0 
2405500000.0000000000 0.174420610070228604415731865629 0.013881077989935880143135271680 -0.002074650023132563071009970557 0.004819386173039674758911132812 0 0 0 0 
2405666666.6666665077 0.173886939883232088943643134371 0.012146536260843280446986014454 -0.001834466704167426066157675635 0.004614724777638912200927734375 0 0 0 0 
2405833333.3333334923 0.173502668738365201095419365629 0.010501981712877750396728515625 -0.001596453250385821082471538013 0.004573464859277009963989257812 0 0 0 0 
2406000000.0000000000 0.173310667276382501800213731258 0.008329969830811023712158203125 -0.001591611537151039080378867041 0.004483249969780445098876953125 0 0 0 0 
2406166666.6666665077 0.172994151711463900467080634371 0.006642258726060391339773847363 -0.001476296689361334063886332935 0.004545994568616151809692382812 0 0 0 0 
2406333333.3333334923 0.172976478934287997146768134371 0.004717242904007434844970703125 -0.001403758767992258071899414062 0.004411005880683661374563886426 0 0 0 0 
2406500000.0000000000 0.172789871692657498458700615629 0.002694710157811642126796103369 -0.001279550720937550067901611328 0.004256973508745431900024414062 0 0 0 0 
2406666666.6666665077 0.172582298517227200607138115629 0.000629131798632442951202392578 -0.001292518107220530943629599463 0.004344091285020112991333007812 0 0 0 0 
2406833333.3333334923 0.172830656170845003982705634371 -0.001403924659825862104531313257 -0.001280756783671676895738911206 0.004156483802944421768188476562 0 0 0 0 
2407000000.0000000000 0.172841072082519503494424384371 -0.003452808130532503128051757812 -0.001181777683086693070055317456 0.004209943581372500333304120801 0 0 0 0 
2407166666.6666665077 0.173187613487243707854901231258 -0.005320712458342313766479492188 -0.001198812504298985004425048828 0.004199700430035591125488281250 0 0 0 0 
2407333333.3333334923 0.173240363597869900802450615629 -0.007664437405765056610107421875 -0.001179602579213679053662944263 0.004138299264013767242431640625 0 0 0 0 
2407500000.0000000000 0.173552170395851107498330634371 -0.009644218720495700836181640625 -0.001071220380254090049146342700 0.004182856529951095581054687500 0 0 0 0 
2407666666.6666665077 0.173821687698364313323651231258 -0.011597184464335439854631992773 -0.001075364416465163014055561597 0.004234433639794588088989257812 0 0 0 0 
2407833333.3333334923 0.174098446965217590332031250000 -0.013803887180984020233154296875 -0.000985192018561065196990966797 0.004167996812611818313598632812 0 0 0 0 
2408000000.0000000000 0.174607872962951687911825615629 -0.015845254063606258737584298046 -0.001071438309736550071118998950 0.004255180247128009796142578125 0 0 0 0 
2408166666.6666665077 0.175060927867889404296875000000 -0.017673270776867869985560233204 -0.000899412436410784721374511719 0.004482875112444162368774414062 0 0 0 0 
2408333333.3333334923 0.175641775131225613693075615629 -0.019701732322573658334752266796 -0.000966521271038800477981567383 0.004387208260595799359793378613 0 0 0 0 
2408500000.0000000000 0.175960496068000793457031250000 -0.021707693114876750600794608204 -0.000664404476992785930633544922 0.004509333055466414365286542676 0 0 0 0 
2408666666.6666665077 0.176352173089981106857138115629 -0.023405704647302631032923514454 -0.000902138941455632448196411133 0.004646352026611567410940839551 0 0 0 0 
2408833333.3333334923 0.176663428544998196700888115629 -0.025091046467423439025878906250 -0.000675187096931040287017822266 0.004649032838642597198486328125 0 0 0 0 
2409000000.0000000000 0.177090197801589993575888115629 -0.026697143912315368652343750000 -0.000510146026499569416046142578 0.004554835613816977414602948926 0 0 0 0 
2409166666.6666665077 0.177742868661880493164062500000 -0.028304332867264751089075858204 -0.000438860646681860089302062988 0.004691112786531448364257812500 0 0 0 0 
2409333333.3333334923 0.178176268935203607757244981258 -0.029688660055398941040039062500 -0.000259732682025060111850184308 0.004760101903229951858520507812 0 0 0 0 
2409500000.0000000000 0.178524032235145596603231865629 -0.031080933287739750253697579296 -0.000182073301402851912096300668 0.004991242662072181701660156250 0 0 0 0 
2409666666.6666665077 0.178897127509117098709268134371 -0.032185543328523642803151716407 0.000058147015806753188371658325 0.005044891498982906341552734375 0 0 0 0 
2409833333.3333334923 0.179206088185310391525106865629 -0.033090647310018539428710937500 0.000142426943057216703891754150 0.004936892539262771606445312500 0 0 0 0 
2410000000.0000000000 0.179801002144813509842080634371 -0.034043151885271072387695312500 0.000261800800217315608828944073 0.005093256477266550064086914062 0 0 0 0 
2410166666.6666665077 0.180264517664909390548544365629 -0.034976247698068618774414062500 0.000353650510078296119540613995 0.005121188703924418363089277051 0 0 0 0 
2410333333.3333334923 0.180765882134437588790731865629 -0.035816121846437447284738908593 0.000616430130321532487869262695 0.005164638627320528030395507812 0 0 0 0 
2410500000.0000000000 0.181095242500305203536825615629 -0.036531597375869750976562500000 0.000672511232551187276840209961 0.005130885634571313858032226562 0 0 0 0 
2410666666.6666665077 0.181328207254409790039062500000 -0.037351563572883612895925153907 0.000723749340977519750595092773 0.005315050948411226272583007812 0 0 0 0 
2410833333.3333334923 0.181709572672843905349893134371 -0.037678465247154242778737653907 0.001003610668703913905500102466 0.005319604650139808654785156250 0 0 0 0 
2411000000.0000000000 0.181918337941169711013955634371 -0.038203623145818710327148437500 0.001167624606750905947444296729 0.005247486755251885327810956738 0 0 0 0 
2411166666.6666665077 0.182105034589767511565838731258 -0.038921736180782318115234375000 0.001480978447943926074384379810 0.005179611500352621078491210938 0 0 0 0 
2411333333.3333334923 0.182311296463012695312500000000 -0.039132144302129752422292341407 0.001466883230023086071014404297 0.005433432292193174362182617188 0 0 0 0 
2411500000.0000000000 0.182188004255294799804687500000 -0.039957158267498023296315778907 0.001691419514827430031420063550 0.005403666291385889053344726562 0 0 0 0 
2411666666.6666665077 0.182399094104766901214276231258 -0.040170647203922271728515625000 0.001973062986508011817932128906 0.005345239304006099700927734375 0 0 0 0 
2411833333.3333334923 0.182170704007148687164630018742 -0.040471572428941726684570312500 0.002178080612793564796447753906 0.005427282303571701049804687500 0 0 0 0 
2412000000.0000000000 0.181855157017707796951455634371 -0.040899213403463356708567033593 0.002290609525516628785374306787 0.005228859838098287582397460938 0 0 0 0 
2412166666.6666665077 0.181416139006614712814169365629 -0.041206810623407356952707658593 0.002541476860642433166503906250 0.005314866080880165100097656250 0 0 0 0 
2412333333.3333334923 0.181356519460678100585937500000 -0.041433114558458328247070312500 0.002743157325312494797947548975 0.005167211871594190597534179688 0 0 0 0 
2412500000.0000000000 0.180606320500373812576455634371 -0.041755054146051406860351562500 0.003012034809216856956481933594 0.005198498256504535675048828125 0 0 0 0 
2412666666.6666665077 0.179936438798904391189736884371 -0.042366463690996170043945312500 0.003230092348530888991114951025 0.004939049482345581054687500000 0 0 0 0 
2412833333.3333334923 0.179232329130172701736611884371 -0.042731586843729019165039062500 0.003463603788986802101135253906 0.005043272860348224639892578125 0 0 0 0 
2413000000.0000000000 0.178473353385925292968750000000 -0.043041665107011801982839216407 0.003737687366083263917210244287 0.004858015570789575576782226562 0 0 0 0 
2413166666.6666665077 0.177591085433959988693075615629 -0.043414220213890082622487653907 0.003927984740585088729858398438 0.004672604147344827651977539062 0 0 0 0 
2413333333.3333334923 0.176636010408401489257812500000 -0.044096294790506362915039062500 0.004111479502171277999877929688 0.004473407287150621414184570312 0 0 0 0 
2413500000.0000000000 0.175539866089820889571981865629 -0.044473163783550262451171875000 0.004265351686626672744750976562 0.004450260661542415618896484375 0 0 0 0 
2413666666.6666665077 0.174662426114082308670205634371 -0.045017350465059280395507812500 0.004544422961771488189697265625 0.004144060425460338592529296875 0 0 0 0 
2413833333.3333334923 0.173312962055206298828125000000 -0.045680172741413123393972028907 0.004704457707703114423269941113 0.004114837385714054107666015625 0 0 0 0 
2414000000.0000000000 0.172091141343116788009481865629 -0.046298261731863021850585937500 0.004861586261540651321411132812 0.004018227569758892059326171875 0 0 0 0 
2414166666.6666665077 0.171095028519630404373330634371 -0.047107588499784469604492187500 0.004891371354460716247558593750 0.003867250401526689963099814307 0 0 0 0 
2414333333.3333334923 0.169662892818450899978799384371 -0.047893036156892783428151716407 0.005045284051448106765747070312 0.003631324972957373099086142432 0 0 0 0 
2414500000.0000000000 0.168734103441238403320312500000 -0.048806108534336090087890625000 0.005155739840120077133178710938 0.003391847712919116020202636719 0 0 0 0 
2414666666.6666665077 0.167487815022468594650106865629 -0.049636103212833411479909528907 0.005363638512790203094482421875 0.003167357528582214875462197412 0 0 0 0 
2414833333.3333334923 0.166104540228843688964843750000 -0.050864130258560180664062500000 0.005494172684848309430594159863 0.003097394714131950898411416162 0 0 0 0 
2415000000.0000000000 0.164946332573890713790731865629 -0.052069969475269317626953125000 0.005485735367983579635620117188 0.002993551315739750862121582031 0 0 0 0 
2415166666.6666665077 0.163783147931098910232705634371 -0.053282316774129867553710937500 0.005564465187489986419677734375 0.002556931693106890158412314307 0 0 0 0 
2415333333.3333334923 0.162749290466308593750000000000 -0.054582141339778900146484375000 0.005740297492593526840209960938 0.002355880802497268156764365088 0 0 0 0 
2415500000.0000000000 0.161480829119682312011718750000 -0.055996920913457870483398437500 0.005844007711857557296752929688 0.002207286423072218894958496094 0 0 0 0 
2415666666.6666665077 0.160440370440483093261718750000 -0.057472903281450271606445312500 0.005805932451039552688598632812 0.001980296103283762931823730469 0 0 0 0 
2415833333.3333334923 0.159375682473182705978231865629 -0.059102792292833328247070312500 0.005959607660770416259765625000 0.001787459477782250101204897241 0 0 0 0 
2416000000.0000000000 0.158183827996253995040731865629 -0.060919776558876037597656250000 0.006080386228859424591064453125 0.001438451814465224959729838794 0 0 0 0 
2416166666.6666665077 0.157517999410629300216513115629 -0.062612727284431457519531250000 0.006076178979128599166870117188 0.001509000430814922072766948169 0 0 0 0 
2416333333.3333334923 0.156383946537971496582031250000 -0.064460329711437225341796875000 0.006353142671287059783935546875 0.001129491021856666044947958838 0 0 0 0 
2416500000.0000000000 0.155552506446838406661825615629 -0.066250815987586975097656250000 0.006065110210329294204711914062 0.000930847018025815486907958984 0 0 0 0 
2416666666.6666665077 0.154615893959999112228231865629 -0.068141877651214599609375000000 0.006292160600423812866210937500 0.000705447164364159107208251953 0 0 0 0 
2416833333.3333334923 0.153966516256332397460937500000 -0.070195399224758148193359375000 0.006310448981821537017822265625 0.000387365522328764200210571289 0 0 0 0 
2417000000.0000000000 0.153158888220787103850994981258 -0.072123013436794281005859375000 0.006160847377032042417044355176 0.000306835892843082601397913800 0 0 0 0 
2417166666.6666665077 0.152491927146911593338174384371 -0.074038907885551452636718750000 0.006342373322695493698120117188 -0.000073260154749732464551925659 0 0 0 0 
2417333333.3333334923 0.151999145746231106857138115629 -0.075866438448429107666015625000 0.006167900282889604568481445312 -0.000309667724650353193283081055 0 0 0 0 
2417500000.0000000000 0.151413619518280001541299384371 -0.078021220862865447998046875000 0.006278674118220806121826171875 -0.000510744692292064428329467773 0 0 0 0 
2417666666.6666665077 0.151045396924018887618856865629 -0.079877257347106933593750000000 0.006127732805907726287841796875 -0.000659903103951364755630493164 0 0 0 0 
2417833333.3333334923 0.150774270296096801757812500000 -0.081562899053096771240234375000 0.006104743573814631375784589551 -0.000912356132175773382186889648 0 0 0 0 
2418000000.0000000000 0.150399386882782010177450615629 -0.083526298403739929199218750000 0.006011975929141044616699218750 -0.001196917030028999068616557544 0 0 0 0 
2418166666.6666665077 0.150165706872940091232138115629 -0.085047326982021331787109375000 0.005918021779507398605346679688 -0.001573967863805592060089111328 0 0 0 0 
2418333333.3333334923 0.150060370564460809905682481258 -0.086872994899749755859375000000 0.005934908520430327329153730176 -0.001776452059857547066332172925 0 0 0 0 
2418500000.0000000000 0.149957433342933710296307481258 -0.088510006666183471679687500000 0.005777135491371154785156250000 -0.002001189161092042922973632812 0 0 0 0 
2418666666.6666665077 0.149939373135566711425781250000 -0.089903384447097778320312500000 0.005633489228785037994384765625 -0.002035005250945686860325478662 0 0 0 0 
2418833333.3333334923 0.149917840957641601562500000000 -0.091530479490756988525390625000 0.005576689261943101882934570312 -0.002490718616172670884373330225 0 0 0 0 
2419000000.0000000000 0.149934306740760803222656250000 -0.092762917280197143554687500000 0.005338944494724273681640625000 -0.002693074988201261000392294775 0 0 0 0 
2419166666.6666665077 0.150094747543334988693075615629 -0.093901112675666809082031250000 0.005216467194259166717529296875 -0.002812265418469905853271484375 0 0 0 0 
2419333333.3333334923 0.149994984269142206390057481258 -0.094894163310527801513671875000 0.004963092040270566940307617188 -0.002995804650709033012390136719 0 0 0 0 
2419500000.0000000000 0.150251522660255404373330634371 -0.096118018031120300292968750000 0.004844396840780972567086504199 -0.003234961070120335058925009619 0 0 0 0 
2419666666.6666665077 0.150658354163169888595419365629 -0.097014300525188446044921875000 0.004571521654725074768066406250 -0.003276427742093801932093954932 0 0 0 0 
2419833333.3333334923 0.150831609964370699783486884371 -0.097511045634746551513671875000 0.004445502534508705139160156250 -0.003553977003321052031276083838 0 0 0 0 
