# Version 1.00
#
freq[Hz];re:Trc1_S11;im:Trc1_S11;re:Trc2_S21;im:Trc2_S21;
2.400000000000000E+009;1.730003058910370E-001;4.880021139979363E-002;5.750362761318684E-003;2.726835431531072E-003;
2.400166666666667E+009;1.734058260917664E-001;4.808669537305832E-002;5.723177455365658E-003;2.783336676657200E-003;
2.400333333333334E+009;1.738093942403793E-001;4.738865047693253E-002;5.842030048370361E-003;2.534077037125826E-003;
2.400500000000000E+009;1.743654608726502E-001;4.681454226374626E-002;5.865999497473240E-003;2.386388834565878E-003;
2.400666666666667E+009;1.746765971183777E-001;4.591066762804985E-002;5.799119826406241E-003;2.245939103886485E-003;
2.400833333333334E+009;1.751672476530075E-001;4.536479339003563E-002;5.803339648991823E-003;2.140294294804335E-003;
2.401000000000000E+009;1.751434206962585E-001;4.473672062158585E-002;5.851709283888340E-003;2.042048610746861E-003;
2.401166666666667E+009;1.754238009452820E-001;4.403718560934067E-002;5.950877908617258E-003;1.845092629082501E-003;
2.401333333333334E+009;1.755543053150177E-001;4.329936578869820E-002;6.060297600924969E-003;1.891582505777478E-003;
2.401500000000000E+009;1.755866855382919E-001;4.282493516802788E-002;6.086535286158323E-003;1.745641697198153E-003;
2.401666666666667E+009;1.757033467292786E-001;4.222753643989563E-002;6.213153246790171E-003;1.530045527033508E-003;
2.401833333333334E+009;1.757202595472336E-001;4.108742251992226E-002;6.271489895880222E-003;1.508832909166813E-003;
2.402000000000000E+009;1.753403842449188E-001;4.047170653939247E-002;6.474898196756840E-003;1.333855325356126E-003;
2.402166666666667E+009;1.751478165388107E-001;3.934802114963532E-002;6.356984376907349E-003;1.167399343103170E-003;
2.402333333333334E+009;1.751262396574020E-001;3.866640478372574E-002;6.472506560385227E-003;1.053824787959456E-003;
2.402500000000000E+009;1.751577407121658E-001;3.768015280365944E-002;6.693218369036913E-003;8.683468913659453E-004;
2.402666666666667E+009;1.747987419366837E-001;3.657592087984085E-002;6.785706616938114E-003;5.995242390781641E-004;
2.402833333333334E+009;1.745536774396896E-001;3.555691242218018E-002;6.730020046234131E-003;4.303656460251659E-004;
2.403000000000000E+009;1.742741763591766E-001;3.421312570571899E-002;6.931729614734650E-003;9.906295599648729E-005;
2.403166666666667E+009;1.740300357341766E-001;3.277339413762093E-002;6.826770491898060E-003;-6.735775241395459E-005;
2.403333333333334E+009;1.735942214727402E-001;3.160277381539345E-002;6.911647040396929E-003;-3.019274154212326E-004;
2.403500000000000E+009;1.731077581644058E-001;3.008066676557064E-002;6.977506447583437E-003;-6.404877058230341E-004;
2.403666666666667E+009;1.728727966547012E-001;2.834403142333031E-002;7.050212938338518E-003;-9.503782493993640E-004;
2.403833333333334E+009;1.725508272647858E-001;2.691980823874474E-002;7.004717830568552E-003;-1.183007843792439E-003;
2.404000000000000E+009;1.721123605966568E-001;2.525344677269459E-002;7.034883368760347E-003;-1.446052687242627E-003;
2.404166666666667E+009;1.716681420803070E-001;2.344337664544582E-002;6.848074030131102E-003;-1.768684829585254E-003;
2.404333333333334E+009;1.714490652084351E-001;2.160983346402645E-002;7.017274852842093E-003;-2.005710499361157E-003;
2.404500000000000E+009;1.709951758384705E-001;1.965245418250561E-002;6.806941237300634E-003;-2.290771342813969E-003;
2.404666666666667E+009;1.707150489091873E-001;1.801504381000996E-002;6.755892187356949E-003;-2.715011127293110E-003;
2.404833333333334E+009;1.705487370491028E-001;1.596903800964356E-002;6.538024637848139E-003;-2.814899897202849E-003;
2.405000000000000E+009;1.704111993312836E-001;1.412098854780197E-002;6.339775398373604E-003;-3.140578046441078E-003;
2.405166666666667E+009;1.702572554349899E-001;1.202462892979384E-002;6.164325401186943E-003;-3.346340032294393E-003;
2.405333333333334E+009;1.702684611082077E-001;9.891490451991558E-003;5.923795979470015E-003;-3.546261228621006E-003;
2.405500000000000E+009;1.702258735895157E-001;8.021986111998558E-003;5.742969457060099E-003;-3.597014350816608E-003;
2.405666666666667E+009;1.702266484498978E-001;6.123297847807407E-003;5.486902780830860E-003;-4.022871609777212E-003;
2.405833333333334E+009;1.703067123889923E-001;4.104792606085539E-003;5.337288137525320E-003;-4.236892797052860E-003;
2.406000000000000E+009;1.706578135490418E-001;1.980430446565151E-003;5.040446296334267E-003;-4.370575305074453E-003;
2.406166666666667E+009;1.707322150468826E-001;2.099390439980198E-005;4.710878711193800E-003;-4.276601132005453E-003;
2.406333333333334E+009;1.713225692510605E-001;-1.883010379970074E-003;4.586248658597469E-003;-4.502792377024889E-003;
2.406500000000000E+009;1.717374026775360E-001;-3.901080228388310E-003;4.391001071780920E-003;-4.666442517191172E-003;
2.406666666666667E+009;1.719944626092911E-001;-5.883649922907352E-003;4.245161544531584E-003;-4.610178526490927E-003;
2.406833333333334E+009;1.725188940763474E-001;-7.904240861535072E-003;4.061252344399691E-003;-4.805804695934057E-003;
2.407000000000000E+009;1.732361465692520E-001;-9.707797318696976E-003;3.824648680165410E-003;-4.875549580901861E-003;
2.407166666666667E+009;1.740302294492722E-001;-1.162671297788620E-002;3.649399615824223E-003;-4.893286153674126E-003;
2.407333333333334E+009;1.745916157960892E-001;-1.357826590538025E-002;3.529002657160163E-003;-4.933767486363649E-003;
2.407500000000000E+009;1.752782315015793E-001;-1.533254608511925E-002;3.228729823604226E-003;-4.947567824274302E-003;
2.407666666666667E+009;1.760966181755066E-001;-1.689718291163445E-002;3.231973852962256E-003;-5.099217407405376E-003;
2.407833333333334E+009;1.766257733106613E-001;-1.875101961195469E-002;3.039367962628603E-003;-5.090993363410235E-003;
2.408000000000000E+009;1.774059832096100E-001;-2.046762779355049E-002;2.744277240708470E-003;-5.192173179239035E-003;
2.408166666666667E+009;1.781679689884186E-001;-2.177492529153824E-002;2.484108554199338E-003;-5.096765235066414E-003;
2.408333333333334E+009;1.791423857212067E-001;-2.323055081069470E-002;2.536051440984011E-003;-5.327905993908644E-003;
2.408500000000000E+009;1.794995814561844E-001;-2.482994645833969E-002;2.290693810209632E-003;-5.414339248090982E-003;
2.408666666666667E+009;1.801587939262390E-001;-2.621112018823624E-002;2.028347924351692E-003;-5.387695971876383E-003;
2.408833333333334E+009;1.807557940483093E-001;-2.733260951936245E-002;1.722961431369185E-003;-5.447593051940203E-003;
2.409000000000000E+009;1.811181604862213E-001;-2.855646796524525E-002;1.486962195485830E-003;-5.229361820966005E-003;
2.409166666666667E+009;1.816138923168182E-001;-2.957390621304512E-002;1.471507595852017E-003;-5.408069118857384E-003;
2.409333333333334E+009;1.819950044155121E-001;-3.042947687208653E-002;1.287470571696758E-003;-5.457052960991859E-003;
2.409500000000000E+009;1.822723895311356E-001;-3.146085888147354E-002;1.180937513709068E-003;-5.323081742972136E-003;
2.409666666666667E+009;1.827043890953064E-001;-3.202817589044571E-002;9.554683929309249E-004;-5.323066841810942E-003;
2.409833333333334E+009;1.826973110437393E-001;-3.242705762386322E-002;7.478288025595248E-004;-5.229434929788113E-003;
2.410000000000000E+009;1.831714212894440E-001;-3.315671905875206E-002;6.053894758224487E-004;-5.229419097304344E-003;
2.410166666666667E+009;1.833676248788834E-001;-3.359324485063553E-002;5.704590003006160E-004;-5.197821184992790E-003;
2.410333333333334E+009;1.833388954401016E-001;-3.395973891019821E-002;4.467128892429173E-004;-5.203476641327143E-003;
2.410500000000000E+009;1.833339780569077E-001;-3.426969796419144E-002;2.060934930341318E-004;-5.139937624335289E-003;
2.410666666666667E+009;1.833848655223846E-001;-3.478147462010384E-002;1.486609544372186E-004;-5.117698572576046E-003;
2.410833333333334E+009;1.833191812038422E-001;-3.497997671365738E-002;6.076864883652888E-005;-5.036956630647183E-003;
2.411000000000000E+009;1.828764379024506E-001;-3.522580862045288E-002;-9.417168621439487E-005;-5.066335201263428E-003;
2.411166666666667E+009;1.827940344810486E-001;-3.562214970588684E-002;-2.201238385168836E-004;-5.078176502138376E-003;
2.411333333333334E+009;1.822266578674316E-001;-3.582418337464333E-002;-2.641578903421760E-004;-5.013021174818277E-003;
2.411500000000000E+009;1.818464398384094E-001;-3.620282933115959E-002;-4.633124335668981E-004;-5.004579667001963E-003;
2.411666666666667E+009;1.813949197530747E-001;-3.648136928677559E-002;-5.119224078953266E-004;-4.903864581137896E-003;
2.411833333333334E+009;1.808010786771774E-001;-3.686019405722618E-002;-7.669213227927685E-004;-5.003800150007010E-003;
2.412000000000000E+009;1.800121068954468E-001;-3.741963207721710E-002;-8.888106094673276E-004;-5.032930988818407E-003;
2.412166666666667E+009;1.791112571954727E-001;-3.781772777438164E-002;-8.308621472679079E-004;-4.920008126646280E-003;
2.412333333333334E+009;1.785333156585693E-001;-3.816316649317741E-002;-1.217119395732880E-003;-4.769088700413704E-003;
2.412500000000000E+009;1.772926300764084E-001;-3.880904614925385E-002;-1.314482884481549E-003;-4.839926492422819E-003;
2.412666666666667E+009;1.762920171022415E-001;-3.944017365574837E-002;-1.320789684541524E-003;-4.799593705683947E-003;
2.412833333333334E+009;1.752789020538330E-001;-4.021422192454338E-002;-1.721055363304913E-003;-4.623069893568754E-003;
2.413000000000000E+009;1.738922744989395E-001;-4.078731313347817E-002;-1.919002039358020E-003;-4.650918766856194E-003;
2.413166666666667E+009;1.728193759918213E-001;-4.160036891698837E-002;-2.072490053251386E-003;-4.337884485721588E-003;
2.413333333333334E+009;1.714370250701904E-001;-4.247018322348595E-002;-2.251467434689403E-003;-4.315351136028767E-003;
2.413500000000000E+009;1.702714264392853E-001;-4.356343299150467E-002;-2.391530200839043E-003;-4.158167168498039E-003;
2.413666666666667E+009;1.689661890268326E-001;-4.459742456674576E-002;-2.421384211629629E-003;-4.030125681310892E-003;
2.413833333333334E+009;1.675857007503510E-001;-4.550379142165184E-002;-2.583601046353579E-003;-3.873598063364625E-003;
2.414000000000000E+009;1.662610620260239E-001;-4.676037654280663E-002;-2.497147535905242E-003;-3.658213419839740E-003;
2.414166666666667E+009;1.652325391769409E-001;-4.790987446904182E-002;-2.590737771242857E-003;-3.470499534159899E-003;
2.414333333333334E+009;1.638491600751877E-001;-4.929155483841896E-002;-2.784134354442358E-003;-3.321607131510973E-003;
2.414500000000000E+009;1.628225743770599E-001;-5.071521550416946E-002;-2.709785476326942E-003;-3.111040918156505E-003;
2.414666666666667E+009;1.616075038909912E-001;-5.205931887030602E-002;-2.566226525232196E-003;-3.065220313146710E-003;
2.414833333333334E+009;1.605660468339920E-001;-5.381517484784126E-002;-2.709234133362770E-003;-2.948224544525147E-003;
2.415000000000000E+009;1.595209985971451E-001;-5.521424859762192E-002;-2.557519124820828E-003;-2.699466655030847E-003;
2.415166666666667E+009;1.584690809249878E-001;-5.692302063107491E-002;-2.627512207254767E-003;-2.438497031107545E-003;
2.415333333333334E+009;1.577832549810410E-001;-5.887684598565102E-002;-2.508715260773897E-003;-2.442924305796623E-003;
2.415500000000000E+009;1.569078862667084E-001;-6.059366837143898E-002;-2.355539705604315E-003;-2.355879871174693E-003;
2.415666666666667E+009;1.561200022697449E-001;-6.232770532369614E-002;-2.242981921881437E-003;-2.294610952958465E-003;
2.415833333333334E+009;1.554727703332901E-001;-6.426559388637543E-002;-2.308119554072619E-003;-2.345464425161481E-003;
2.416000000000000E+009;1.546904742717743E-001;-6.619553267955780E-002;-2.376886317506433E-003;-2.326958347111940E-003;
2.416166666666667E+009;1.543345898389816E-001;-6.823399662971497E-002;-2.230803715065122E-003;-2.430810825899243E-003;
2.416333333333334E+009;1.537777632474899E-001;-7.010657340288162E-002;-2.177109010517597E-003;-2.372339600697160E-003;
2.416500000000000E+009;1.532788574695587E-001;-7.220600545406342E-002;-2.217733301222324E-003;-2.432340756058693E-003;
2.416666666666667E+009;1.529421359300613E-001;-7.407709956169128E-002;-2.208236139267683E-003;-2.446270780637860E-003;
2.416833333333334E+009;1.527834236621857E-001;-7.619065046310425E-002;-2.231747377663851E-003;-2.497444394975901E-003;
2.417000000000000E+009;1.522349715232849E-001;-7.811465114355087E-002;-2.100333105772734E-003;-2.289269817993045E-003;
2.417166666666667E+009;1.520828604698181E-001;-7.987475395202637E-002;-2.233508508652449E-003;-2.432743320241571E-003;
2.417333333333334E+009;1.518846154212952E-001;-8.157990127801895E-002;-2.108208369463682E-003;-2.461555413901806E-003;
2.417500000000000E+009;1.519566029310226E-001;-8.359113335609436E-002;-2.383457263931632E-003;-2.417924813926220E-003;
2.417666666666667E+009;1.519893258810043E-001;-8.488623797893524E-002;-2.402117708697915E-003;-2.576853614300489E-003;
2.417833333333334E+009;1.518927365541458E-001;-8.666786551475525E-002;-2.474931534379721E-003;-2.785486169159412E-003;
2.418000000000000E+009;1.518775969743729E-001;-8.817717432975769E-002;-2.535937353968620E-003;-2.602365566417575E-003;
2.418166666666667E+009;1.519675701856613E-001;-8.934520930051804E-002;-2.689730608835816E-003;-2.455164911225438E-003;
2.418333333333334E+009;1.523399800062180E-001;-9.073486179113388E-002;-2.734765643253923E-003;-2.606134163215756E-003;
2.418500000000000E+009;1.523486375808716E-001;-9.202217310667038E-002;-2.814510138705373E-003;-2.862355671823025E-003;
2.418666666666667E+009;1.526194363832474E-001;-9.312617778778076E-002;-3.066428238525987E-003;-2.499378519132733E-003;
2.418833333333334E+009;1.525793969631195E-001;-9.405516833066940E-002;-3.308986313641071E-003;-2.481112955138087E-003;
2.419000000000000E+009;1.528470218181610E-001;-9.489682316780090E-002;-3.312075510621071E-003;-2.443825826048851E-003;
2.419166666666667E+009;1.531197428703308E-001;-9.572748839855194E-002;-3.313051071017981E-003;-2.451758133247495E-003;
2.419333333333334E+009;1.532178670167923E-001;-9.598842263221741E-002;-3.656259737908840E-003;-2.300762105733156E-003;
2.419500000000000E+009;1.534724384546280E-001;-9.676574170589447E-002;-3.631817642599344E-003;-2.293450757861137E-003;
2.419666666666667E+009;1.536609381437302E-001;-9.718349575996399E-002;-3.864858532324433E-003;-2.183823147788644E-003;
2.419833333333334E+009;1.537380218505859E-001;-9.735022485256195E-002;-3.896936774253845E-003;-2.115901093930006E-003;
2.420000000000000E+009;1.538414508104324E-001;-9.756793081760407E-002;-4.007034935057163E-003;-2.016553655266762E-003;
2.420166666666667E+009;1.540041118860245E-001;-9.770411252975464E-002;-4.034715704619885E-003;-1.920584589242935E-003;
2.420333333333334E+009;1.542210727930069E-001;-9.766605496406555E-002;-4.258968401700258E-003;-1.761613064445555E-003;
2.420500000000000E+009;1.542276740074158E-001;-9.745383262634277E-002;-4.330523777753115E-003;-1.741634216159582E-003;
2.420666666666667E+009;1.541699767112732E-001;-9.730832278728485E-002;-4.411368630826473E-003;-1.730374991893768E-003;
2.420833333333334E+009;1.541090458631516E-001;-9.719931334257126E-002;-4.521905444562435E-003;-1.517435885034502E-003;
2.421000000000000E+009;1.538199335336685E-001;-9.704084694385529E-002;-4.687612876296043E-003;-1.399784698151052E-003;
2.421166666666667E+009;1.537759006023407E-001;-9.650526940822601E-002;-4.694493953138590E-003;-1.169736729934812E-003;
2.421333333333334E+009;1.536249518394470E-001;-9.638399630784988E-002;-4.916811827570200E-003;-1.069851568900049E-003;
2.421500000000000E+009;1.530644446611404E-001;-9.610238671302795E-002;-4.886940587311983E-003;-9.565004729665816E-004;
2.421666666666667E+009;1.526551693677902E-001;-9.574652463197708E-002;-5.035975482314825E-003;-5.449857562780380E-004;
2.421833333333334E+009;1.521897464990616E-001;-9.556203335523605E-002;-5.285708233714104E-003;-3.370945632923394E-004;
2.422000000000000E+009;1.514830440282822E-001;-9.510328620672226E-002;-5.331552587449551E-003;-2.570970682427287E-004;
2.422166666666667E+009;1.507680565118790E-001;-9.517336636781693E-002;-5.259553901851177E-003;7.811568502802402E-005;
2.422333333333334E+009;1.499795019626617E-001;-9.469984471797943E-002;-5.293237511068583E-003;2.820991794578731E-004;
2.422500000000000E+009;1.489441245794296E-001;-9.434715658426285E-002;-5.347285885363817E-003;5.401574890129268E-004;
2.422666666666667E+009;1.478346437215805E-001;-9.429899603128433E-002;-5.201507825404406E-003;9.316767100244761E-004;
2.422833333333334E+009;1.466907709836960E-001;-9.433779865503311E-002;-5.318074487149715E-003;1.254731090739369E-003;
2.423000000000000E+009;1.453701108694077E-001;-9.417456388473511E-002;-5.076006986200810E-003;1.546824467368424E-003;
2.423166666666667E+009;1.441967189311981E-001;-9.400340914726257E-002;-5.009656306356192E-003;1.703654881566763E-003;
2.423333333333334E+009;1.428235769271851E-001;-9.394514560699463E-002;-4.842512775212526E-003;1.893851323984563E-003;
2.423500000000000E+009;1.414783447980881E-001;-9.419793635606766E-002;-4.714227747172117E-003;2.000473672524095E-003;
2.423666666666667E+009;1.397686749696732E-001;-9.435271471738815E-002;-4.505136050283909E-003;2.222463488578796E-003;
2.423833333333334E+009;1.384849995374680E-001;-9.465353190898895E-002;-4.385964479297400E-003;2.449824474751949E-003;
2.424000000000000E+009;1.368149816989899E-001;-9.453622996807098E-002;-3.850347595289350E-003;2.554933773353696E-003;
2.424166666666667E+009;1.352787315845490E-001;-9.489350020885468E-002;-3.871906548738480E-003;2.544522285461426E-003;
2.424333333333334E+009;1.339469403028488E-001;-9.546493738889694E-002;-3.725296817719936E-003;2.746228827163577E-003;
2.424500000000000E+009;1.324218064546585E-001;-9.594155848026276E-002;-3.635651431977749E-003;2.609093207865953E-003;
2.424666666666667E+009;1.311199814081192E-001;-9.634843468666077E-002;-3.369654063135386E-003;2.751846332103014E-003;
2.424833333333334E+009;1.294900923967362E-001;-9.707895666360855E-002;-3.272910835221410E-003;2.759937196969986E-003;
2.425000000000000E+009;1.281594485044479E-001;-9.801479429006577E-002;-3.175709629431367E-003;2.787964651361108E-003;
2.425166666666667E+009;1.265909373760223E-001;-9.888625890016556E-002;-2.968884306028485E-003;2.686366206035018E-003;
2.425333333333334E+009;1.253871917724609E-001;-9.980026632547379E-002;-2.962677972391248E-003;2.719196723774076E-003;
2.425500000000000E+009;1.242661923170090E-001;-1.009025126695633E-001;-2.885454334318638E-003;2.670314395800233E-003;
2.425666666666667E+009;1.228787899017334E-001;-1.021486371755600E-001;-2.804691204801202E-003;2.868520561605692E-003;
2.425833333333334E+009;1.218400448560715E-001;-1.033688187599182E-001;-2.852923469617963E-003;2.809738507494330E-003;
2.426000000000000E+009;1.207666248083115E-001;-1.048405468463898E-001;-2.594434656202793E-003;2.874198369681835E-003;
2.426166666666667E+009;1.199830248951912E-001;-1.061304807662964E-001;-2.610143041238189E-003;2.925267908722162E-003;
2.426333333333334E+009;1.190372630953789E-001;-1.075835302472115E-001;-2.423644531518221E-003;2.897251863032579E-003;
2.426500000000000E+009;1.181523576378822E-001;-1.090714633464813E-001;-2.310798037797213E-003;2.866168739274144E-003;
2.426666666666667E+009;1.175086125731468E-001;-1.105474233627319E-001;-2.412099624052644E-003;2.833962673321366E-003;
2.426833333333334E+009;1.168131306767464E-001;-1.121687293052673E-001;-2.116222167387605E-003;2.973534166812897E-003;
2.427000000000000E+009;1.161545440554619E-001;-1.138548627495766E-001;-1.934882719069719E-003;2.916421741247177E-003;
2.427166666666667E+009;1.156272739171982E-001;-1.153271123766899E-001;-1.939220703206956E-003;2.897610422223806E-003;
2.427333333333334E+009;1.152167841792107E-001;-1.170033663511276E-001;-2.037978731095791E-003;2.928886795416474E-003;
2.427500000000000E+009;1.150239929556847E-001;-1.184842586517334E-001;-1.771793584339321E-003;3.035880858078599E-003;
2.427666666666667E+009;1.146912351250649E-001;-1.202771365642548E-001;-1.715739956125617E-003;2.863883506506681E-003;
