# Hz S RI R 50
2400000000.0000000000 0.169218093156814602950888115629 0.045892458409070968627929687500 -0.004051264841109514236450195312 -0.003022714052349328994750976562 0 0 0 0 
2400166666.6666665077 0.170378670096397399902343750000 0.045135539025068283081054687500 -0.003846145700663328170776367188 -0.002910039154812694029567099463 0 0 0 0 
2400333333.3333334923 0.171241506934166010100994981258 0.043939471244812011718750000000 -0.003930455073714256286621093750 -0.002773132408037782149073935400 0 0 0 0 
2400500000.0000000000 0.172383725643157986739950615629 0.042983096092939376831054687500 -0.003973617684096097946166992188 -0.002618153812363744215724326025 0 0 0 0 
2400666666.6666665077 0.173311620950698908050213731258 0.042055428028106689453125000000 -0.004090427421033382415771484375 -0.002477300819009542898890829932 0 0 0 0 
2400833333.3333334923 0.174114212393760708907919365629 0.041245914995670318603515625000 -0.003907038364559412002563476562 -0.002300804713740944862365722656 0 0 0 0 
2401000000.0000000000 0.174952730536460904220419365629 0.040464520454406738281250000000 -0.003987442702054977416992187500 -0.002181178657338023185729980469 0 0 0 0 
2401166666.6666665077 0.175916284322738702972088731258 0.039685651659965522075612653907 -0.003866918152198195891139365088 -0.002047965070232748985290527344 0 0 0 0 
2401333333.3333334923 0.176393643021583612640057481258 0.039127685129642486572265625000 -0.004042171407490968704223632812 -0.001860436401329935030696249854 0 0 0 0 
2401500000.0000000000 0.177392959594726590255575615629 0.038408890366554260253906250000 -0.004020132124423980712890625000 -0.001843985170125961086870503003 0 0 0 0 
2401666666.6666665077 0.177749529480934087555255018742 0.037874318659305572509765625000 -0.004145498387515544891357421875 -0.001689243479631840965868305737 0 0 0 0 
2401833333.3333334923 0.178344860672950689117755018742 0.037236109375953667377512346093 -0.004172016866505146026611328125 -0.001509369933046400980708456885 0 0 0 0 
2402000000.0000000000 0.178713724017143305022869981258 0.036794152110815048217773437500 -0.004157759714871644973754882812 -0.001409813179634511904475546729 0 0 0 0 
2402166666.6666665077 0.179125696420669611175213731258 0.035951212048530578613281250000 -0.004122945014387369155883789062 -0.001317599089816213087794638525 0 0 0 0 
2402333333.3333334923 0.179448381066322298904580634371 0.035425458103418350219726562500 -0.004043958149850369367117597363 -0.001124274451285601095912314307 0 0 0 0 
2402500000.0000000000 0.179923400282859802246093750000 0.034934375435113906860351562500 -0.004236866254359483718872070312 -0.001147067756392061927198100513 0 0 0 0 
2402666666.6666665077 0.180046528577804593185263115629 0.034460105001926422119140625000 -0.004215875174850224581246660449 -0.000905230001080781221389770508 0 0 0 0 
2402833333.3333334923 0.180045247077941894531250000000 0.033859081566333770751953125000 -0.004215538501739501953125000000 -0.000798613938968628644943237305 0 0 0 0 
2403000000.0000000000 0.179965257644653292556924384371 0.033051449805498123168945312500 -0.004259354434907436370849609375 -0.000732138112653046846389770508 0 0 0 0 
2403166666.6666665077 0.180128663778305109222088731258 0.032355677336454391479492187500 -0.004253354854881764325613691113 -0.000516721222084015607833862305 0 0 0 0 
2403333333.3333334923 0.179882213473320007324218750000 0.031454440206289291381835937500 -0.004362150561064481735229492188 -0.000461590767372399622767847882 0 0 0 0 
2403500000.0000000000 0.179680749773979187011718750000 0.030436560511589050292968750000 -0.004255125764757394790649414062 -0.000358169112587347626686096191 0 0 0 0 
2403666666.6666665077 0.179476603865623501876669365629 0.029580175876617431640625000000 -0.004197318106889724731445312500 -0.000031730844057165093045642240 0 0 0 0 
2403833333.3333334923 0.179322719573974609375000000000 0.028416261076927188528040701954 -0.004113835282623767852783203125 0.000080911333498079329729080200 0 0 0 0 
2404000000.0000000000 0.178724333643913296798544365629 0.027436433359980579721471016796 -0.004238485358655452728271484375 0.000095060750027187168598175049 0 0 0 0 
2404166666.6666665077 0.178345873951911898513955634371 0.026125989854335788381556326954 -0.004120053257793188095092773438 0.000303550186799839084774571552 0 0 0 0 
2404333333.3333334923 0.177875190973281888107138115629 0.024965733289718631399134451954 -0.004173429217189550399780273438 0.000360274658305570483207702637 0 0 0 0 
2404500000.0000000000 0.177263885736465509612713731258 0.023665966466069221496582031250 -0.004028368741273880004882812500 0.000470239378046244382858276367 0 0 0 0 
2404666666.6666665077 0.176707625389099093338174384371 0.022228831425309181213378906250 -0.003977997694164515408987714551 0.000392174144508317112922668457 0 0 0 0 
2404833333.3333334923 0.176057443022727994064169365629 0.020854283124208450317382812500 -0.003900194773450493812561035156 0.000537746003828942775726318359 0 0 0 0 
2405000000.0000000000 0.175664260983467102050781250000 0.019297443330287929880162423046 -0.003941808361560106277465820312 0.000646007771138101816177368164 0 0 0 0 
2405166666.6666665077 0.175104096531868008712606865629 0.017773807048797610891321951954 -0.003764508524909615950343466650 0.000585249741561710834503173828 0 0 0 0 
2405333333.3333334923 0.174661502242088290115518134371 0.015958016738295558584193045704 -0.003877027425915002822875976562 0.000830723613034933805465698242 0 0 0 0 
2405500000.0000000000 0.174181580543518094161825615629 0.014359146356582639866839024023 -0.003894335823133587837219238281 0.000704851467162370681762695312 0 0 0 0 
2405666666.6666665077 0.173786967992782592773437500000 0.012693413533270360774030116602 -0.003813087940216064886805868994 0.000847398652695119380950927734 0 0 0 0 
2405833333.3333334923 0.173250868916511507888955634371 0.010987916029989719390869140625 -0.003829133464023470878601074219 0.001094537554308772087097167969 0 0 0 0 
2406000000.0000000000 0.173030957579612704178018134371 0.008933183737099170684814453125 -0.003720921231433749198913574219 0.001060438808053731918334960938 0 0 0 0 
2406166666.6666665077 0.172661349177360506912393134371 0.007008185610175132751464843750 -0.003737534396350384192225790869 0.001033892971463502103920961694 0 0 0 0 
2406333333.3333334923 0.172684073448181207854901231258 0.005170258227735757827758789062 -0.003603132674470543861389160156 0.001231803093105555014369345557 0 0 0 0 
2406500000.0000000000 0.172339573502540588378906250000 0.002974515547975897789001464844 -0.003842416452243924140930175781 0.001361406291835010051727294922 0 0 0 0 
2406666666.6666665077 0.172168448567390386383380018742 0.001156148617155849933624267578 -0.003838478820398449897766113281 0.001264609862118958993199013818 0 0 0 0 
2406833333.3333334923 0.172275349497795104980468750000 -0.001071864040568470954895019531 -0.003777923528105020956752158057 0.001579456613399087949040078271 0 0 0 0 
2407000000.0000000000 0.172347649931907709319744981258 -0.003289417363703250885009765625 -0.004042433574795722961425781250 0.001567147439345716996433877100 0 0 0 0 
2407166666.6666665077 0.172551810741424588302450615629 -0.005250705871731042861938476562 -0.003854163223877549171447753906 0.001779223675839602947235107422 0 0 0 0 
2407333333.3333334923 0.172644138336181612869424384371 -0.007610712200403214368338300488 -0.003901151474565267996547079932 0.001877148984931408925297402490 0 0 0 0 
2407500000.0000000000 0.172805279493331909179687500000 -0.009506359696388244628906250000 -0.003950701095163822174072265625 0.002062920480966567993164062500 0 0 0 0 
2407666666.6666665077 0.173175856471061706542968750000 -0.011632939800620080775250819727 -0.003921005874872207641601562500 0.002238540677353740172145224463 0 0 0 0 
2407833333.3333334923 0.173181623220443697830361884371 -0.013851271942257879429827305273 -0.004170157015323638916015625000 0.002373634371906518936157226562 0 0 0 0 
2408000000.0000000000 0.173837721347808810135049384371 -0.015961309894919398916224295704 -0.003951812162995337572579668262 0.002567875664681196212768554688 0 0 0 0 
2408166666.6666665077 0.174161002039909390548544365629 -0.017859436571598049509068673046 -0.003865132108330727057216025244 0.002915377030149102210998535156 0 0 0 0 
2408333333.3333334923 0.174776092171669006347656250000 -0.019846292212605479848841483204 -0.003781257895752788023707724463 0.003218281548470259146449423682 0 0 0 0 
2408500000.0000000000 0.175133734941482488434161268742 -0.021795682609081268310546875000 -0.003610977670177816910984658350 0.003329364350065588951110839844 0 0 0 0 
2408666666.6666665077 0.175587460398674011230468750000 -0.023803699761629111553151716407 -0.003455466590821743011474609375 0.003506826702505350112915039062 0 0 0 0 
2408833333.3333334923 0.175853356719017001053018134371 -0.025442836806178089487096016796 -0.003346615703776479201075888525 0.003730171592906117005589150537 0 0 0 0 
2409000000.0000000000 0.176160514354705810546875000000 -0.027063254266977310180664062500 -0.003133938647806644006016396631 0.003884805599227548079249716650 0 0 0 0 
2409166666.6666665077 0.176898658275604303558026231258 -0.028810193762183189392089843750 -0.002918345155194402174708701025 0.004010464996099472045898437500 0 0 0 0 
2409333333.3333334923 0.177333086729049710372763115629 -0.030108505859971049917200858204 -0.002658247714862227006199502100 0.004230280406773090362548828125 0 0 0 0 
2409500000.0000000000 0.177710235118865994552450615629 -0.031575053930282592773437500000 -0.002491869963705540137050009619 0.004282722249627113342285156250 0 0 0 0 
2409666666.6666665077 0.178079813718795804122763115629 -0.032707575708627700805664062500 -0.002205091528594493865966796875 0.004497924819588661193847656250 0 0 0 0 
2409833333.3333334923 0.178595885634422302246093750000 -0.033629957586526870727539062500 -0.002062249230220913887023925781 0.004539507906883955001831054688 0 0 0 0 
2410000000.0000000000 0.179172530770301791092080634371 -0.034640904515981667255442033593 -0.001727260416373610930201865088 0.004632142838090658187866210938 0 0 0 0 
2410166666.6666665077 0.179683938622474698165731865629 -0.035468019545078277587890625000 -0.001550598302856087901471782153 0.004733365494757890701293945312 0 0 0 0 
2410333333.3333334923 0.180108636617660494705361884371 -0.036374934017658226703684221093 -0.001399745233356953100917197119 0.004590296652168036374563886426 0 0 0 0 
2410500000.0000000000 0.180702626705169705489950615629 -0.037047628313302986835520158593 -0.001131033990532160022138286060 0.004496350418776273727416992188 0 0 0 0 
2410666666.6666665077 0.180957451462745694259481865629 -0.037850409746170037006418596093 -0.000725523568689823150634765625 0.004640224855393171310424804688 0 0 0 0 
2410833333.3333334923 0.181421563029289301116619981258 -0.038352951407432563091237653907 -0.000732933694962412118911743164 0.004464471247047185897827148438 0 0 0 0 
2411000000.0000000000 0.181789353489875793457031250000 -0.038807630538940429687500000000 -0.000534413091372698653876149866 0.004563722293823956575875566699 0 0 0 0 
2411166666.6666665077 0.182010531425476101974325615629 -0.039478234946727752685546875000 -0.000217781154788099202230730600 0.004452972207218408584594726562 0 0 0 0 
2411333333.3333334923 0.182103857398033086578692518742 -0.039751019328832633281667341407 -0.000201156610273756086826324463 0.004313632845878601074218750000 0 0 0 0 
2411500000.0000000000 0.182133972644805908203125000000 -0.040464218705892562866210937500 -0.000073308787250425666570663452 0.004253217484802007675170898438 0 0 0 0 
2411666666.6666665077 0.182367026805877713302450615629 -0.040421415120363242412526716407 0.000129812789964489611700335092 0.004070837050676345825195312500 0 0 0 0 
2411833333.3333334923 0.182330727577209500411825615629 -0.041036855429410927509348283593 0.000211472113733179894372662955 0.004251092672348023328299237988 0 0 0 0 
2412000000.0000000000 0.182184487581253107268963731258 -0.041295874863862991333007812500 0.000228038246859796399444025861 0.004068619571626186370849609375 0 0 0 0 
2412166666.6666665077 0.181761205196380587478799384371 -0.041673600673675537109375000000 0.000419995660195127075344639911 0.003990579396486282348632812500 0 0 0 0 
2412333333.3333334923 0.181707501411437988281250000000 -0.041874490678310387348215471093 0.000481315189972519874572753906 0.003984196111559867858886718750 0 0 0 0 
2412500000.0000000000 0.180985912680625887771768134371 -0.042233437299728386615793596093 0.000508634839206933975219726562 0.004047291353344917297363281250 0 0 0 0 
2412666666.6666665077 0.180539220571517888824786268742 -0.042683545500040047382395158593 0.000727316131815314292907714844 0.003822700353339314894435263525 0 0 0 0 
2412833333.3333334923 0.179892793297767611404580634371 -0.042962804436683661724050153907 0.000642054597847163677215576172 0.003906574100255966186523437500 0 0 0 0 
2413000000.0000000000 0.179280132055282592773437500000 -0.043230675160884857177734375000 0.000781884184107184410095214844 0.003866864368319510979893349756 0 0 0 0 
2413166666.6666665077 0.178353741765022305587606865629 -0.043658353388309478759765625000 0.000992107437923550605773925781 0.003735402831807733015773154150 0 0 0 0 
2413333333.3333334923 0.177319407463073702713174384371 -0.044203307479619979858398437500 0.001175231882371007962467812646 0.003688717493787407875061035156 0 0 0 0 
2413500000.0000000000 0.176450610160827608963174384371 -0.044585380703210830688476562500 0.001076796208508312919019389575 0.003688144497573376135585165869 0 0 0 0 
2413666666.6666665077 0.175355851650238009353799384371 -0.045114524662494659423828125000 0.001255406765267252922058105469 0.003688396653160452842712402344 0 0 0 0 
2413833333.3333334923 0.174274638295173700530682481258 -0.045733224600553512573242187500 0.001181948930025100924848246997 0.003565644845366477966308593750 0 0 0 0 
2414000000.0000000000 0.173012480139732388595419365629 -0.046515602618455886840820312500 0.001516963704489171938655234229 0.003677242202684282822849892725 0 0 0 0 
2414166666.6666665077 0.171981558203697204589843750000 -0.047115419059991836547851562500 0.001423421083018183925031352466 0.003575902897864580154418945312 0 0 0 0 
2414333333.3333334923 0.170703202486038208007812500000 -0.047953974455595023418386091407 0.001491535920649766921997070312 0.003577684052288531823399209131 0 0 0 0 
2414500000.0000000000 0.169666051864623995681924384371 -0.048849064856767647480051408593 0.001694511272944509983062744141 0.003450894495472311973571777344 0 0 0 0 
2414666666.6666665077 0.168404012918472290039062500000 -0.049863487482070922851562500000 0.001937381573952734904048300635 0.003258999204263091087341308594 0 0 0 0 
2414833333.3333334923 0.166988119482994107345419365629 -0.050976645201444632793386091407 0.001835420378483832099317241138 0.003472051816061139106750488281 0 0 0 0 
2415000000.0000000000 0.165863275527954101562500000000 -0.051926251500844962383229841407 0.001900445437058805985691689600 0.003303187200799583955052041162 0 0 0 0 
2415166666.6666665077 0.164536282420158386230468750000 -0.053351067006587982177734375000 0.002109636086970568136927939307 0.003238710807636380195617675781 0 0 0 0 
2415333333.3333334923 0.163394495844841003417968750000 -0.054624103009700782085378278907 0.002188864396885036988499306787 0.003226218745112419128417968750 0 0 0 0 
2415500000.0000000000 0.162345483899116488357705634371 -0.055955886840820312500000000000 0.002122461562976241111755371094 0.003137556836009026007411337744 0 0 0 0 
2415666666.6666665077 0.161014437675476101974325615629 -0.057527881115674972534179687500 0.002234260551631451086757040869 0.003106401767581700845005654443 0 0 0 0 
2415833333.3333334923 0.160079777240753201583700615629 -0.059219289571046829223632812500 0.002481916686519979996922158350 0.003082595998421310944798134912 0 0 0 0 
2416000000.0000000000 0.158750429749488802810830634371 -0.060878176242113113403320312500 0.002471284475177526907679892432 0.003144694259390234947204589844 0 0 0 0 
2416166666.6666665077 0.157980158925056513030682481258 -0.062456946820020682598073591407 0.002533775521442294120788574219 0.002896842546761035919189453125 0 0 0 0 
2416333333.3333334923 0.156905114650726290603799384371 -0.064387910068035125732421875000 0.002621568972244859175441122900 0.002918962389230728149414062500 0 0 0 0 
2416500000.0000000000 0.155844822525978088378906250000 -0.066383041441440582275390625000 0.002628509188070892853977822412 0.002771732630208135084864951025 0 0 0 0 
2416666666.6666665077 0.154947578907012911697549384371 -0.068218633532524108886718750000 0.002851811470463871955871582031 0.002881377469748259024379111182 0 0 0 0 
2416833333.3333334923 0.154206871986389187911825615629 -0.070297442376613616943359375000 0.002901822328567504882812500000 0.002753442386165260834934853662 0 0 0 0 
2417000000.0000000000 0.153161764144897488693075615629 -0.072282291948795318603515625000 0.003050130093470215797424316406 0.002615981735289096832275390625 0 0 0 0 
2417166666.6666665077 0.152672514319419888595419365629 -0.074117645621299743652343750000 0.003100543515756725831272744287 0.002674484159797430038452148438 0 0 0 0 
2417333333.3333334923 0.151962578296661404708700615629 -0.076039679348468780517578125000 0.003124567680060863928553915869 0.002730649430304766134974814307 0 0 0 0 
2417500000.0000000000 0.151329457759857205489950615629 -0.078218184411525726318359375000 0.003228991292417048974278115381 0.002589121926575899124145507812 0 0 0 0 
2417666666.6666665077 0.150886356830596896072549384371 -0.079853348433971405029296875000 0.003377729095518589019775390625 0.002536448184400796890258789062 0 0 0 0 
2417833333.3333334923 0.150487303733825711349325615629 -0.081796415150165557861328125000 0.003503207815811038017272949219 0.002513117622584104971644736182 0 0 0 0 
2418000000.0000000000 0.150045275688171386718750000000 -0.083714693784713745117187500000 0.003628948936238884925842285156 0.002471932675689458847045898438 0 0 0 0 
2418166666.6666665077 0.149832040071487399002236884371 -0.085359290242195129394531250000 0.003837238764390348954441689600 0.002236708533018827004673623193 0 0 0 0 
2418333333.3333334923 0.149845138192176791092080634371 -0.087109550833702087402343750000 0.003921045921742916107177734375 0.002168646315112709999084472656 0 0 0 0 
2418500000.0000000000 0.149698078632354708572549384371 -0.088729426264762878417968750000 0.004051547963172197341918945312 0.002034975914284586906433105469 0 0 0 0 
2418666666.6666665077 0.149684622883796691894531250000 -0.090331859886646270751953125000 0.004304117057472467422485351562 0.001843899488449096896527934497 0 0 0 0 
2418833333.3333334923 0.149482563138008089920205634371 -0.091782413423061370849609375000 0.004587564617395401000976562500 0.001578006544150412082672119141 0 0 0 0 
2419000000.0000000000 0.149452760815620394607705634371 -0.093169346451759338378906250000 0.004560604225844144821166992188 0.001317612826824188015581440503 0 0 0 0 
2419166666.6666665077 0.149629667401313809493856865629 -0.094380475580692291259765625000 0.004661542829126119613647460938 0.001323129748925567106959677588 0 0 0 0 
2419333333.3333334923 0.149738818407058688064736884371 -0.095097720623016357421875000000 0.004897527862340211868286132812 0.001000428339466453032252646338 0 0 0 0 
2419500000.0000000000 0.149892121553420992752236884371 -0.096496216952800750732421875000 0.004788008518517017364501953125 0.000865442096255719661712646484 0 0 0 0 
2419666666.6666665077 0.150231018662452697753906250000 -0.097296446561813354492187500000 0.004783480893820524215698242188 0.000506927259266376495361328125 0 0 0 0 
2419833333.3333334923 0.150456532835960388183593750000 -0.097948603332042694091796875000 0.004940335638821125030517578125 0.000162551834364421692773541861 0 0 0 0 
