# Hz S RI R 
2400000000.0000000000 0.155918493866920498946981865629 0.111303597688674899002236884371 -0.004188362509012222290039062500 0.002031063660979270935058593750 0 0 0 0 
2400166666.6666665077 0.155296623706817599197549384371 0.109150730073451995849609375000 -0.004104059189558029174804687500 0.002229691483080387115478515625 0 0 0 0 
2400333333.3333334923 0.155017852783203097244424384371 0.106857396662235301643129048443 -0.004131888970732688903808593750 0.002460486255586146874668740381 0 0 0 0 
2400500000.0000000000 0.154615163803100613693075615629 0.104233525693416595458984375000 -0.003915316890925168991088867188 0.002567335963249206976649618994 0 0 0 0 
2400666666.6666665077 0.154559910297393798828125000000 0.101551204919815105109925923443 -0.003843602491542696952819824219 0.002723002340644598007202148438 0 0 0 0 
2400833333.3333334923 0.154288724064826993087606865629 0.099014304578304290771484375000 -0.003663401585072278976440429688 0.002783323870971798896789550781 0 0 0 0 
2401000000.0000000000 0.154225409030914306640625000000 0.095960073173046112060546875000 -0.003676454303786158995387411963 0.002864811569452286200282431494 0 0 0 0 
2401166666.6666665077 0.153970554471015902420205634371 0.093289740383625030517578125000 -0.003433127887547016143798828125 0.003071307903155684904811240088 0 0 0 0 
2401333333.3333334923 0.154085248708725003341513115629 0.090250089764595031738281250000 -0.003344395430758595900294638525 0.003189525334164499802830361475 0 0 0 0 
2401500000.0000000000 0.154465094208717401702557481258 0.087265431880950927734375000000 -0.003194879740476607842686318506 0.003218597965314983887913369287 0 0 0 0 
2401666666.6666665077 0.154505103826522799392861884371 0.084120601415634155273437500000 -0.003148827701807022094726562500 0.003320940770208836035487509619 0 0 0 0 
2401833333.3333334923 0.154907539486885098556356865629 0.081310413777828216552734375000 -0.003068728139624000029322958838 0.003455088241025805907008505713 0 0 0 0 
2402000000.0000000000 0.155441999435424804687500000000 0.078443907201290130615234375000 -0.002718241186812520027160644531 0.003550209337845445112941122900 0 0 0 0 
2402166666.6666665077 0.156064674258232088943643134371 0.075739167630672454833984375000 -0.002665926236659287972691201318 0.003600031137466431097743368994 0 0 0 0 
2402333333.3333334923 0.156987473368644686599893134371 0.072661831974983215332031250000 -0.002506748540326952934265136719 0.003607306396588683128356933594 0 0 0 0 
2402500000.0000000000 0.158112525939941406250000000000 0.070035509765148162841796875000 -0.002469282830134034156799316406 0.003721874905750155015232705225 0 0 0 0 
2402666666.6666665077 0.159041836857795687576455634371 0.067250654101371765136718750000 -0.002117526950314640998840332031 0.003891740692779421806335449219 0 0 0 0 
2402833333.3333334923 0.160280808806419400314169365629 0.064582996070384979248046875000 -0.001841744058765470981597900391 0.003804055508226155801060341943 0 0 0 0 
2403000000.0000000000 0.161798134446144104003906250000 0.061812020838260650634765625000 -0.001690072822384536049486469800 0.003853339934721589088439941406 0 0 0 0 
2403166666.6666665077 0.163367837667465209960937500000 0.059329230338335037231445312500 -0.001512938644737005016924213940 0.003718765452504158020019531250 0 0 0 0 
2403333333.3333334923 0.164761945605277987381143134371 0.057066399604082107543945312500 -0.001362110488116740963579487378 0.003726803930476307868957519531 0 0 0 0 
2403500000.0000000000 0.166634753346443204025106865629 0.054776694625616066669504533593 -0.001150816562585533098933554541 0.003634003689512610001804970850 0 0 0 0 
2403666666.6666665077 0.168436557054519708831463731258 0.052610225975513458251953125000 -0.001171574345789849974988627856 0.003375126514583826065063476562 0 0 0 0 
2403833333.3333334923 0.170066282153129605392294365629 0.050505846738815307617187500000 -0.000871654716320335865020751953 0.003404063871130346818211220850 0 0 0 0 
2404000000.0000000000 0.171835497021675109863281250000 0.048311688005924231792409528907 -0.000851082964800298213958740234 0.003229984780773520903346396338 0 0 0 0 
2404166666.6666665077 0.173767045140266390701455634371 0.046539366245269782329518903907 -0.000902746629435569047927856445 0.003283912315964698791503906250 0 0 0 0 
2404333333.3333334923 0.175436481833458002288494981258 0.045035742223262786865234375000 -0.000885246496181935071945190430 0.003159942803904414176940917969 0 0 0 0 
2404500000.0000000000 0.177238658070564297775106865629 0.043430250138044357299804687500 -0.000813533784821629524230957031 0.003079498652368783950805664062 0 0 0 0 
2404666666.6666665077 0.179136604070663507659588731258 0.041987247765064239501953125000 -0.000964256993029266595840454102 0.003016805509105325178859091650 0 0 0 0 
2404833333.3333334923 0.181071579456329401214276231258 0.040843904018402099609375000000 -0.001070405123755336024640727466 0.003119095461443067030665732275 0 0 0 0 
2405000000.0000000000 0.182545229792594909667968750000 0.040165752172470092773437500000 -0.000988833140581846237182617188 0.003005361650139092965366982568 0 0 0 0 
2405166666.6666665077 0.184190422296524103362713731258 0.039283316582441329956054687500 -0.001012178836390376091003417969 0.003180625848472117944004677881 0 0 0 0 
2405333333.3333334923 0.185925439000129699707031250000 0.038687411695718772197682966407 -0.000966727267950773239135742188 0.003202669089660048918483115088 0 0 0 0 
2405500000.0000000000 0.187687322497367886642294365629 0.038100879639387130737304687500 -0.000750065199099481105804443359 0.003212402109056711196899414062 0 0 0 0 
2405666666.6666665077 0.189189985394477788727130018742 0.037791755050420761108398437500 -0.000604076543822884559631347656 0.003295195754617453055140829932 0 0 0 0 
2405833333.3333334923 0.190668940544128390213174384371 0.037430461496114730834960937500 -0.000681970443110913038253784180 0.003332518041133881048915243994 0 0 0 0 
2406000000.0000000000 0.192076474428176907638388115629 0.037237402051687240600585937500 -0.000382693950086832100718897687 0.003327154088765383200404501807 0 0 0 0 
2406166666.6666665077 0.193267092108726501464843750000 0.037215061485767371440847028907 -0.000399844953790306990772801532 0.003190542804077268080470419775 0 0 0 0 
2406333333.3333334923 0.194613367319107111175213731258 0.037301875650882720947265625000 -0.000312454561935737674862462177 0.003261225996538997130153036963 0 0 0 0 
2406500000.0000000000 0.195623427629470797439736884371 0.037401959300041198730468750000 -0.000150140607729554203435620718 0.003246316919103264808654785156 0 0 0 0 
2406666666.6666665077 0.196571215987205505371093750000 0.037487734109163277362863908593 -0.000250424578553065711825770245 0.003215561155229806900024414062 0 0 0 0 
2406833333.3333334923 0.197256550192833002288494981258 0.037724711000919342041015625000 -0.000127656472614035010337829590 0.003118240507319570021388388525 0 0 0 0 
2407000000.0000000000 0.197879418730735806564169365629 0.038176644593477249145507812500 -0.000210517056984826895311632700 0.003000291297212243080139160156 0 0 0 0 
2407166666.6666665077 0.198384404182434109786825615629 0.038153201341629028320312500000 -0.000244958559051155989796239032 0.003018817165866494178771972656 0 0 0 0 
2407333333.3333334923 0.198596030473709106445312500000 0.038512237370014190673828125000 -0.000347118504578247720569056378 0.003049712628126143975498818506 0 0 0 0 
2407500000.0000000000 0.198567509651184109786825615629 0.038825493305921561504323591407 -0.000241822286625392707899370737 0.003123549045994877815246582031 0 0 0 0 
2407666666.6666665077 0.198934718966484097579794365629 0.039086587727069861675222028907 -0.000241938498220406499788007193 0.003157309489324688911437988281 0 0 0 0 
2407833333.3333334923 0.198404237627983093261718750000 0.039236031472682952880859375000 -0.000216990185435861403315943585 0.003057739930227398872375488281 0 0 0 0 
2408000000.0000000000 0.198505386710166903396768134371 0.039263337850570678710937500000 -0.000238588923821225789472302847 0.003252885304391384124755859375 0 0 0 0 
2408166666.6666665077 0.197991654276847811599893134371 0.039357546716928482055664062500 -0.000304767221678048426478785382 0.003254330717027186913731240381 0 0 0 0 
2408333333.3333334923 0.197632938623428289215411268742 0.039197448641061782836914062500 -0.000262328889220952987670898438 0.003412858583033084869384765625 0 0 0 0 
2408500000.0000000000 0.196990907192230196853799384371 0.039113491773605346679687500000 -0.000137364331749267903253278189 0.003375248285010457038879394531 0 0 0 0 
2408666666.6666665077 0.196282938122749300857705634371 0.038781810551881790161132812500 -0.000223137787543237209320068359 0.003505649510771036148071289062 0 0 0 0 
2408833333.3333334923 0.195614039897918701171875000000 0.038473907858133322978932966407 0.000032841777283465489745140076 0.003642868250608444213867187500 0 0 0 0 
2409000000.0000000000 0.194579184055328396896200615629 0.037815034389495849609375000000 0.000123565987451002001762390137 0.003845115890726447105407714844 0 0 0 0 
2409166666.6666665077 0.193534135818481500823651231258 0.037318374961614608764648437500 0.000041928211430786177515983582 0.003826821455731987953186035156 0 0 0 0 
2409333333.3333334923 0.192426994442939813811932481258 0.036529667675495147705078125000 0.000174639135366305708885192871 0.003864859929308294816258095850 0 0 0 0 
2409500000.0000000000 0.191155299544334411621093750000 0.035375937819480902934987653907 0.000247485673753544688224792480 0.004063588567078114423269941113 0 0 0 0 
2409666666.6666665077 0.190149918198585510253906250000 0.034289691597223281860351562500 0.000615247059613466262817382812 0.004031502176076173782348632812 0 0 0 0 
2409833333.3333334923 0.188791126012802096267861884371 0.033061049878597259521484375000 0.000687540217768400907516479492 0.004271572921425104141235351562 0 0 0 0 
2410000000.0000000000 0.187751501798629788497763115629 0.031716618686914437030832658593 0.000868158414959907531738281250 0.004164563491940498352050781250 0 0 0 0 
2410166666.6666665077 0.186308220028877313811932481258 0.030051238834857940673828125000 0.001125574461184442043304443359 0.004298130981624125566964433887 0 0 0 0 
2410333333.3333334923 0.185222923755645807464276231258 0.028522618114948269235631173046 0.001233770046383142904994345557 0.004407854285091161727905273438 0 0 0 0 
2410500000.0000000000 0.183854132890701293945312500000 0.026790253818035129201868826954 0.001420746673829853968379355322 0.004375611897557973861694335938 0 0 0 0 
2410666666.6666665077 0.182811662554740905761718750000 0.024495640769600871694544608204 0.001631426042877138094661093604 0.004307692870497704419607831738 0 0 0 0 
2410833333.3333334923 0.181844204664230402190838731258 0.022423561662435531616210937500 0.001751054078340529961826943506 0.004231858998537063598632812500 0 0 0 0 
2411000000.0000000000 0.180863618850708007812500000000 0.020240696147084239614466483204 0.002035020850598812103271484375 0.004122998565435410413260175488 0 0 0 0 
2411166666.6666665077 0.179857492446899386306924384371 0.018039332702755931508997733204 0.002170792547985910935642861475 0.004104454535990952578072832324 0 0 0 0 
2411333333.3333334923 0.179036334156990106780682481258 0.015476472675800320016881173046 0.002202622359618545012233115088 0.004088581074029207229614257812 0 0 0 0 
2411500000.0000000000 0.178468242287635803222656250000 0.013179650530219079798688319727 0.002411307068541646003723144531 0.003945981618016958236694335938 0 0 0 0 
2411666666.6666665077 0.178078711032867403885049384371 0.010699095204472540074358555273 0.002659223973751068115234375000 0.003948025405406951904296875000 0 0 0 0 
2411833333.3333334923 0.177338659763336209396200615629 0.008231013081967830657958984375 0.002877791877835988998413085938 0.003895299276337027983424521338 0 0 0 0 
2412000000.0000000000 0.177320688962936401367187500000 0.005421219393610954284667968750 0.003034193767234683036804199219 0.003717454150319098992588662256 0 0 0 0 
2412166666.6666665077 0.177168682217597989181356865629 0.003023138036951423125026083838 0.003152939723804593086242675781 0.003621950978413223786595009912 0 0 0 0 
2412333333.3333334923 0.177244409918785095214843750000 0.000378318945877254009246826172 0.003279321361333131790161132812 0.003598321927711368040797568213 0 0 0 0 
2412500000.0000000000 0.177476465702056912521200615629 -0.002167191589251161055323935400 0.003541781334206461906433105469 0.003418914740905166105983115088 0 0 0 0 
2412666666.6666665077 0.177675008773803710937500000000 -0.004847062751650810241699218750 0.003657622030004858970642089844 0.003321324707940220832824707031 0 0 0 0 
2412833333.3333334923 0.178293347358703613281250000000 -0.007495291065424680709838867188 0.003828095272183417840244912256 0.003086949000135064125061035156 0 0 0 0 
2413000000.0000000000 0.179026603698730496505575615629 -0.010041437111794950312604335352 0.004136953502893447875976562500 0.003011763794347643852233886719 0 0 0 0 
2413166666.6666665077 0.179534107446670504470986884371 -0.012565626762807369232177734375 0.004244576673954725265502929688 0.002919023856520653204676962744 0 0 0 0 
2413333333.3333334923 0.180579364299774197677450615629 -0.015019274316728120285957537305 0.004514520987868309020996093750 0.002585316076874732971191406250 0 0 0 0 
2413500000.0000000000 0.181469127535820007324218750000 -0.017496747896075248718261718750 0.004523977171629667282104492188 0.002352384151890873908996582031 0 0 0 0 
2413666666.6666665077 0.182500734925270108321981865629 -0.019824611023068431508997733204 0.004573132842779160413260175488 0.001990417949855328039882040869 0 0 0 0 
2413833333.3333334923 0.183743163943290710449218750000 -0.021919446066021919250488281250 0.004872346296906471252441406250 0.001714808517135679938672709888 0 0 0 0 
2414000000.0000000000 0.184763059020042391678018134371 -0.024221016094088550912877266796 0.004868589807301759719848632812 0.001421846798621118068695068359 0 0 0 0 
2414166666.6666665077 0.186236664652824401855468750000 -0.026172464713454249990443045704 0.004733808338642120361328125000 0.001324741402640938975690532153 0 0 0 0 
2414333333.3333334923 0.187521457672119112869424384371 -0.028452888131141659128209298046 0.004758040420711041364187909863 0.001010076492093503908870077979 0 0 0 0 
2414500000.0000000000 0.188915669918060302734375000000 -0.029941981658339500427246093750 0.004577976185828447341918945312 0.000597041507717221975326538086 0 0 0 0 
2414666666.6666665077 0.190301656723022488693075615629 -0.031702075153589248657226562500 0.004401067271828651428222656250 0.000395202921936288475990295410 0 0 0 0 
2414833333.3333334923 0.191679880023002596756143134371 -0.033338781446218490600585937500 0.004412182141095399856567382812 0.000183994823601096895620068961 0 0 0 0 
2415000000.0000000000 0.192996263504028292556924384371 -0.034838523715734481811523437500 0.004284507129341363906860351562 0.000086970358097460120916366577 0 0 0 0 
2415166666.6666665077 0.194424629211425809005575615629 -0.036011278629302978515625000000 0.004261042922735214233398437500 -0.000128029219922609600141802377 0 0 0 0 
2415333333.3333334923 0.195909917354583712478799384371 -0.037118751555681228637695312500 0.004051695577800273895263671875 -0.000228389122639782699659624643 0 0 0 0 
2415500000.0000000000 0.197278812527656610686932481258 -0.038052853196859359741210937500 0.004081707913428544998168945312 -0.000382303755031898617744445801 0 0 0 0 
2415666666.6666665077 0.198565438389778109451455634371 -0.039022833108901977539062500000 0.003845077706500887870788574219 -0.000475792970973998308181762695 0 0 0 0 
2415833333.3333334923 0.199687451124191311935263115629 -0.039657562971115112304687500000 0.003760090563446282906773232568 -0.000608688045758754014968872070 0 0 0 0 
2416000000.0000000000 0.200817823410034207443075615629 -0.040444500744342797016184221093 0.003645924385637044906616210938 -0.000727010483387857675552368164 0 0 0 0 
2416166666.6666665077 0.201866060495376586914062500000 -0.041020072996616356586496721093 0.003630540566518903212306357275 -0.000822040252387523651123046875 0 0 0 0 
2416333333.3333334923 0.202632471919059808929119981258 -0.041363634169101722026784528907 0.003429111791774630980250693213 -0.000821225345134735107421875000 0 0 0 0 
2416500000.0000000000 0.203467160463333102127236884371 -0.041558459401130683208425153907 0.003284704172983766035792685400 -0.000987068517133593559265136719 0 0 0 0 
2416666666.6666665077 0.204037249088287409026776231258 -0.041846316307783126831054687500 0.003036346752196549935581826318 -0.001108455355279148058650351416 0 0 0 0 
2416833333.3333334923 0.204585731029510498046875000000 -0.041864763945341110229492187500 0.002890948904678225950953818213 -0.001054141204804182052612304688 0 0 0 0 
2417000000.0000000000 0.204997852444648687164630018742 -0.041882570832967758178710937500 0.002739530289545654816868447412 -0.001062775845639408068415976416 0 0 0 0 
2417166666.6666665077 0.204973265528678894042968750000 -0.041781578212976462627370466407 0.002687163418158888816833496094 -0.001091639511287211938145302881 0 0 0 0 
2417333333.3333334923 0.204967901110649108886718750000 -0.041414327919483191753347028907 0.002537383465096354918238974463 -0.001028752769343554973602294922 0 0 0 0 
2417500000.0000000000 0.205001041293144198318643134371 -0.041272085160017006610910783593 0.002290976932272315025329589844 -0.000873998622409999370574951172 0 0 0 0 
2417666666.6666665077 0.204770803451538113693075615629 -0.040967132896184921264648437500 0.002249182667583227157592773438 -0.000886421999894082546234130859 0 0 0 0 
2417833333.3333334923 0.204564005136489895919638115629 -0.040542185306549072265625000000 0.002313895383849740028381347656 -0.000739476294256746768951416016 0 0 0 0 
2418000000.0000000000 0.204023122787475613693075615629 -0.040116317570209503173828125000 0.002296761609613894982578896631 -0.000670294044539332389831542969 0 0 0 0 
2418166666.6666665077 0.203381136059761102874432481258 -0.039901081472635269165039062500 0.002359772566705942153930664062 -0.000599658116698265075683593750 0 0 0 0 
2418333333.3333334923 0.202679395675659207443075615629 -0.039534159004688262939453125000 0.002314242068678141073939658057 -0.000525567447766661643981933594 0 0 0 0 
2418500000.0000000000 0.201809704303741510589276231258 -0.039404023438692092895507812500 0.002361713442951440811157226562 -0.000433331908425316214561462402 0 0 0 0 
2418666666.6666665077 0.200942382216453607757244981258 -0.039133060723543167114257812500 0.002386898500844835801365517725 -0.000591724587138742208480834961 0 0 0 0 
2418833333.3333334923 0.199962943792343111892861884371 -0.039016149938106536865234375000 0.002515528816729784011840820312 -0.000479847978567704612582606183 0 0 0 0 
2419000000.0000000000 0.198647290468215886871661268742 -0.038986660540103912353515625000 0.002503851661458611922023154150 -0.000396542134694755077362060547 0 0 0 0 
2419166666.6666665077 0.197414055466651888748330634371 -0.038988038897514343261718750000 0.002526161493733524842503213037 -0.000481151655549183487892150879 0 0 0 0 
2419333333.3333334923 0.195994719862937899490518134371 -0.039376735687255859375000000000 0.002624011831358075141906738281 -0.000573603028897196054458618164 0 0 0 0 
2419500000.0000000000 0.194469451904296902755575615629 -0.039511565119028091430664062500 0.002646549604833126068115234375 -0.000374003517208620905876159668 0 0 0 0 
2419666666.6666665077 0.192771077156066894531250000000 -0.040123764425516128540039062500 0.002652369672432541847229003906 -0.000376676151063293218612670898 0 0 0 0 
2419833333.3333334923 0.191223159432411193847656250000 -0.040516622364521026611328125000 0.002743008546531199975254677881 -0.000463950796984136104583740234 0 0 0 0 
2420000000.0000000000 0.189556539058685302734375000000 -0.041288994252681732177734375000 0.002764622680842876000645302881 -0.000443042226834222674369812012 0 0 0 0 
