# Version 1.00
#
freq[Hz];re:Trc1_S11;im:Trc1_S11;re:Trc2_S21;im:Trc2_S21;
2.400000000000000E+009;1.608568280935288E-001;5.725680291652679E-002;1.113518606871367E-003;3.152208169922233E-003;
2.400166666666667E+009;1.609973907470703E-001;5.541588738560677E-002;1.358955516479909E-003;3.267745953053236E-003;
2.400333333333334E+009;1.609730720520020E-001;5.364182963967323E-002;1.433514757081866E-003;3.384472336620092E-003;
2.400500000000000E+009;1.612029373645783E-001;5.192421376705170E-002;1.605078112334013E-003;3.355495398864150E-003;
2.400666666666667E+009;1.612291485071182E-001;5.000631511211395E-002;1.733313896693289E-003;3.315906738862395E-003;
2.400833333333334E+009;1.615213751792908E-001;4.822611808776856E-002;1.945946947671473E-003;3.449335228651762E-003;
2.401000000000000E+009;1.616616696119309E-001;4.614339023828507E-002;2.065728884190321E-003;3.478304250165820E-003;
2.401166666666667E+009;1.618139594793320E-001;4.425059258937836E-002;2.423790050670505E-003;3.363102441653609E-003;
2.401333333333334E+009;1.621979922056198E-001;4.239357262849808E-002;2.303318120539188E-003;3.445503069087863E-003;
2.401500000000000E+009;1.625432223081589E-001;4.049079865217209E-002;2.635492477566004E-003;3.447509836405516E-003;
2.401666666666667E+009;1.629383265972138E-001;3.896029293537140E-002;2.794811269268394E-003;3.430271986871958E-003;
2.401833333333334E+009;1.633257567882538E-001;3.683902695775032E-002;2.997945295646787E-003;3.311869921162725E-003;
2.402000000000000E+009;1.634963154792786E-001;3.505509346723557E-002;3.095478750765324E-003;3.305732738226652E-003;
2.402166666666667E+009;1.640139520168304E-001;3.321399167180061E-002;3.353782230988145E-003;3.224005922675133E-003;
2.402333333333334E+009;1.644843518733978E-001;3.169131278991699E-002;3.413504455238581E-003;3.113361075520515E-003;
2.402500000000000E+009;1.653359383344650E-001;2.991641126573086E-002;3.939450252801180E-003;2.990670269355178E-003;
2.402666666666667E+009;1.659052670001984E-001;2.856791391968727E-002;3.798267804086208E-003;2.858392195776105E-003;
2.402833333333334E+009;1.664796620607376E-001;2.700665406882763E-002;4.102617967873812E-003;2.563775517046452E-003;
2.403000000000000E+009;1.671770811080933E-001;2.547599747776985E-002;4.425218328833580E-003;2.477168804034591E-003;
2.403166666666667E+009;1.680396795272827E-001;2.401033602654934E-002;4.446526058018208E-003;2.454684348776937E-003;
2.403333333333334E+009;1.685010343790054E-001;2.275533974170685E-002;4.484221339225769E-003;2.093724673613906E-003;
2.403500000000000E+009;1.693477183580399E-001;2.153677493333817E-002;4.763481672853231E-003;2.063375199213624E-003;
2.403666666666667E+009;1.699925065040588E-001;2.022175490856171E-002;4.594291094690561E-003;1.692456426098943E-003;
2.403833333333334E+009;1.707652956247330E-001;1.900559477508068E-002;4.890968557447195E-003;1.499703037552536E-003;
2.404000000000000E+009;1.715327203273773E-001;1.799782551825047E-002;4.817577078938484E-003;1.355515327304602E-003;
2.404166666666667E+009;1.722212582826614E-001;1.703927665948868E-002;4.764043260365725E-003;1.072899438440800E-003;
2.404333333333334E+009;1.728407889604569E-001;1.599991694092751E-002;5.012305919080973E-003;7.381533505395055E-004;
2.404500000000000E+009;1.734507530927658E-001;1.514677796512842E-002;5.009910091757774E-003;7.220873376354575E-004;
2.404666666666667E+009;1.741692423820496E-001;1.441839709877968E-002;5.054038949310780E-003;4.310453077778220E-004;
2.404833333333334E+009;1.749104261398315E-001;1.366785820573568E-002;5.029790103435516E-003;1.544607657706365E-004;
2.405000000000000E+009;1.754932850599289E-001;1.293986104428768E-002;4.901725333184004E-003;4.532187085715123E-005;
2.405166666666667E+009;1.759684383869171E-001;1.234082970768213E-002;4.845648072659969E-003;-1.369053497910500E-004;
2.405333333333334E+009;1.765978336334229E-001;1.162162888795137E-002;4.979569464921951E-003;-3.220464277546853E-004;
2.405500000000000E+009;1.769458949565888E-001;1.127956714481115E-002;4.796774592250586E-003;-6.410573842003942E-004;
2.405666666666667E+009;1.773697882890701E-001;1.075657457113266E-002;4.756989423185587E-003;-6.589312688447535E-004;
2.405833333333334E+009;1.776006668806076E-001;1.050186995416880E-002;4.867402836680412E-003;-6.918683066032827E-004;
2.406000000000000E+009;1.779950112104416E-001;9.782345965504646E-003;4.682094790041447E-003;-1.087000942789018E-003;
2.406166666666667E+009;1.781390160322189E-001;9.604847989976406E-003;4.519713576883078E-003;-1.134859281592071E-003;
2.406333333333334E+009;1.783402264118195E-001;9.093699045479298E-003;4.397673532366753E-003;-1.295229885727167E-003;
2.406500000000000E+009;1.782996803522110E-001;8.763195946812630E-003;4.443452227860689E-003;-1.495146658271551E-003;
2.406666666666667E+009;1.783906370401382E-001;8.309750817716122E-003;4.418169613927603E-003;-1.385393436066806E-003;
2.406833333333334E+009;1.785386800765991E-001;7.866153493523598E-003;4.307471215724945E-003;-1.580453361384571E-003;
2.407000000000000E+009;1.784236431121826E-001;7.498354185372591E-003;4.144325852394104E-003;-1.657464425079525E-003;
2.407166666666667E+009;1.783704310655594E-001;7.055168040096760E-003;4.245775751769543E-003;-1.713123638182879E-003;
2.407333333333334E+009;1.781304627656937E-001;6.366266869008541E-003;4.155373666435480E-003;-1.861506258137524E-003;
2.407500000000000E+009;1.778444796800613E-001;5.879980046302080E-003;3.968128934502602E-003;-1.921699848026037E-003;
2.407666666666667E+009;1.776406615972519E-001;5.377195309847593E-003;3.952148370444775E-003;-2.144136698916555E-003;
2.407833333333334E+009;1.771079450845718E-001;4.685476887971163E-003;3.882759949192405E-003;-2.208237303420901E-003;
2.408000000000000E+009;1.766501367092133E-001;3.898919094353914E-003;3.966848365962505E-003;-2.199068898335099E-003;
2.408166666666667E+009;1.762553453445435E-001;3.203095402568579E-003;3.790593007579446E-003;-2.485708333551884E-003;
2.408333333333334E+009;1.758653372526169E-001;2.364190062507987E-003;3.710064105689526E-003;-2.450619824230671E-003;
2.408500000000000E+009;1.752685010433197E-001;1.356846420094371E-003;3.683870425447822E-003;-2.528827171772718E-003;
2.408666666666667E+009;1.748151332139969E-001;3.433138481341302E-004;3.431177930906415E-003;-2.628676360473037E-003;
2.408833333333334E+009;1.741124540567398E-001;-7.901272037997842E-004;3.429379547014833E-003;-2.721085911616683E-003;
2.409000000000000E+009;1.735277324914932E-001;-1.819955301471055E-003;3.265822306275368E-003;-2.800775226205587E-003;
2.409166666666667E+009;1.729653775691986E-001;-3.066833829507232E-003;3.338215639814735E-003;-2.892121206969023E-003;
2.409333333333334E+009;1.725180149078369E-001;-4.398128017783165E-003;3.154131816700101E-003;-2.782356459647417E-003;
2.409500000000000E+009;1.718352138996124E-001;-5.736520513892174E-003;3.108433447778225E-003;-3.061961382627487E-003;
2.409666666666667E+009;1.711164712905884E-001;-7.241645362228155E-003;3.044837620109320E-003;-2.982086967676878E-003;
2.409833333333334E+009;1.707824021577835E-001;-8.560655638575554E-003;2.982978010550141E-003;-2.978790784254670E-003;
2.410000000000000E+009;1.703002154827118E-001;-1.007640641182661E-002;3.026514546945691E-003;-3.087471239268780E-003;
2.410166666666667E+009;1.698577553033829E-001;-1.191430352628231E-002;2.918554702773690E-003;-3.203505882993341E-003;
2.410333333333334E+009;1.693731546401978E-001;-1.340584270656109E-002;2.690805355086923E-003;-3.255486255511642E-003;
2.410500000000000E+009;1.689607053995132E-001;-1.510996744036675E-002;2.823199145495892E-003;-3.352142637595534E-003;
2.410666666666667E+009;1.685279160737991E-001;-1.682412438094616E-002;2.771729370579124E-003;-3.230531932786107E-003;
2.410833333333334E+009;1.683006882667542E-001;-1.868040487170219E-002;2.803319832310081E-003;-3.390641417354345E-003;
2.411000000000000E+009;1.680028885602951E-001;-2.035826817154884E-002;2.680060220882297E-003;-3.474718891084194E-003;
2.411166666666667E+009;1.677250266075134E-001;-2.241696789860725E-002;2.648536115884781E-003;-3.432140918448567E-003;
2.411333333333334E+009;1.676535010337830E-001;-2.422090619802475E-002;2.706638071686029E-003;-3.740580752491951E-003;
2.411500000000000E+009;1.676126420497894E-001;-2.624716795980930E-002;2.607086440548301E-003;-3.739274805411696E-003;
2.411666666666667E+009;1.677126139402390E-001;-2.798928134143353E-002;2.583332825452089E-003;-3.872057888656855E-003;
2.411833333333334E+009;1.677195876836777E-001;-2.972210198640823E-002;2.503201365470886E-003;-3.998086787760258E-003;
2.412000000000000E+009;1.678912490606308E-001;-3.177023679018021E-002;2.400092547759414E-003;-4.211972933262587E-003;
2.412166666666667E+009;1.679438203573227E-001;-3.359572216868401E-002;2.226660028100014E-003;-4.226138815283775E-003;
2.412333333333334E+009;1.684621125459671E-001;-3.524353727698326E-002;2.277126768603921E-003;-4.289800766855478E-003;
2.412500000000000E+009;1.686549335718155E-001;-3.718244284391403E-002;2.085095038637519E-003;-4.588374402374029E-003;
2.412666666666667E+009;1.689126938581467E-001;-3.902110829949379E-002;1.933682011440396E-003;-4.686015192419291E-003;
2.412833333333334E+009;1.694883406162262E-001;-4.070811718702316E-002;2.005074638873339E-003;-4.877151921391487E-003;
2.413000000000000E+009;1.696653068065643E-001;-4.236910492181778E-002;1.779536250978708E-003;-4.989375360310078E-003;
2.413166666666667E+009;1.702791750431061E-001;-4.393114149570465E-002;1.603419776074588E-003;-5.128792952746153E-003;
2.413333333333334E+009;1.706650108098984E-001;-4.554614052176476E-002;1.437520375475287E-003;-5.123377311974764E-003;
2.413500000000000E+009;1.710733026266098E-001;-4.708328470587730E-002;1.252658315934241E-003;-5.531012546271086E-003;
2.413666666666667E+009;1.716458946466446E-001;-4.857005551457405E-002;1.039507100358605E-003;-5.456739105284214E-003;
2.413833333333334E+009;1.722114980220795E-001;-4.972203075885773E-002;6.488156504929066E-004;-5.623925477266312E-003;
2.414000000000000E+009;1.726033985614777E-001;-5.109659209847450E-002;4.899075720459223E-004;-5.595284048467875E-003;
2.414166666666667E+009;1.732540875673294E-001;-5.237980931997299E-002;4.596182552631944E-004;-5.820807535201311E-003;
2.414333333333334E+009;1.736717969179153E-001;-5.360044166445732E-002;-3.423667294555344E-005;-5.563443060964346E-003;
2.414500000000000E+009;1.743992567062378E-001;-5.447541549801827E-002;-2.202831819886342E-004;-5.694977473467588E-003;
2.414666666666667E+009;1.748600751161575E-001;-5.528626590967178E-002;-5.219169543124735E-004;-5.698304623365402E-003;
2.414833333333334E+009;1.751136183738709E-001;-5.634458735585213E-002;-6.409127381630242E-004;-5.786175373941660E-003;
2.415000000000000E+009;1.757010668516159E-001;-5.696379020810127E-002;-1.037637819536030E-003;-5.727793555706739E-003;
2.415166666666667E+009;1.759259700775147E-001;-5.783108621835709E-002;-1.235387753695250E-003;-5.651480518281460E-003;
2.415333333333334E+009;1.763215661048889E-001;-5.847396329045296E-002;-1.489469781517983E-003;-5.779527127742767E-003;
2.415500000000000E+009;1.766016334295273E-001;-5.899339541792870E-002;-1.714036567136645E-003;-5.476424470543861E-003;
2.415666666666667E+009;1.766392588615418E-001;-5.924771353602409E-002;-1.996794715523720E-003;-5.422079004347324E-003;
2.415833333333334E+009;1.768717467784882E-001;-5.988948047161102E-002;-2.198201837018132E-003;-5.312155932188034E-003;
2.416000000000000E+009;1.766364276409149E-001;-6.035573035478592E-002;-2.429332816973329E-003;-5.140151828527451E-003;
2.416166666666667E+009;1.770074963569641E-001;-6.070209667086601E-002;-2.521762158721685E-003;-5.041335243731737E-003;
2.416333333333334E+009;1.767688095569611E-001;-6.102940067648888E-002;-2.782012103125453E-003;-5.116755608469248E-003;
2.416500000000000E+009;1.766584217548370E-001;-6.134514510631561E-002;-2.921703038737178E-003;-5.066361278295517E-003;
2.416666666666667E+009;1.763112396001816E-001;-6.150724366307259E-002;-3.052435582503676E-003;-4.917583428323269E-003;
2.416833333333334E+009;1.760540157556534E-001;-6.189541891217232E-002;-3.338992362841964E-003;-4.638967104256153E-003;
2.417000000000000E+009;1.754275709390640E-001;-6.211731210350990E-002;-3.436811733990908E-003;-4.437437281012535E-003;
2.417166666666667E+009;1.749889105558395E-001;-6.221351027488709E-002;-3.638990689069033E-003;-4.296042956411839E-003;
2.417333333333334E+009;1.744272261857987E-001;-6.240358576178551E-002;-3.652412211522460E-003;-4.126560874283314E-003;
2.417500000000000E+009;1.737611889839172E-001;-6.275694072246552E-002;-3.821905702352524E-003;-3.853896632790566E-003;
2.417666666666667E+009;1.731190979480743E-001;-6.285016238689423E-002;-4.050836432725191E-003;-3.690475830808282E-003;
2.417833333333334E+009;1.721126288175583E-001;-6.322359293699265E-002;-4.016986582428217E-003;-3.543316619470716E-003;
2.418000000000000E+009;1.712258160114288E-001;-6.364408880472183E-002;-4.280081018805504E-003;-3.395243082195520E-003;
2.418166666666667E+009;1.702179163694382E-001;-6.385254859924316E-002;-4.312800709158182E-003;-3.220995655283332E-003;
2.418333333333334E+009;1.693913787603378E-001;-6.428234279155731E-002;-4.224316217005253E-003;-3.018766874447465E-003;
2.418500000000000E+009;1.681904643774033E-001;-6.474781781435013E-002;-4.415710456669331E-003;-2.892064629122615E-003;
2.418666666666667E+009;1.671362817287445E-001;-6.524214893579483E-002;-4.412115551531315E-003;-2.579307183623314E-003;
2.418833333333334E+009;1.658919751644135E-001;-6.599865853786469E-002;-4.514627158641815E-003;-2.456178190186620E-003;
2.419000000000000E+009;1.646154373884201E-001;-6.650462746620178E-002;-4.525464959442616E-003;-2.431878820061684E-003;
2.419166666666667E+009;1.635059565305710E-001;-6.721992790699005E-002;-4.638543352484703E-003;-2.002071123570204E-003;
2.419333333333334E+009;1.621161997318268E-001;-6.781870871782303E-002;-4.602795001119375E-003;-2.112299203872681E-003;
2.419500000000000E+009;1.609966009855270E-001;-6.881466507911682E-002;-4.664609208703041E-003;-1.784162363037467E-003;
2.419666666666667E+009;1.599032282829285E-001;-6.968630105257034E-002;-4.595032427459955E-003;-1.539176446385682E-003;
2.419833333333334E+009;1.583519130945206E-001;-7.059597223997116E-002;-4.632427822798491E-003;-1.477052574045956E-003;
2.420000000000000E+009;1.574264019727707E-001;-7.163295149803162E-002;-4.664728883653879E-003;-1.379076857119799E-003;
2.420166666666667E+009;1.562239229679108E-001;-7.276935130357742E-002;-4.796485882252455E-003;-1.005462720058858E-003;
2.420333333333334E+009;1.551779210567474E-001;-7.418541610240936E-002;-4.779759328812361E-003;-9.350005420856178E-004;
2.420500000000000E+009;1.543004214763641E-001;-7.517403364181519E-002;-4.777434747666121E-003;-7.392588304355741E-004;
2.420666666666667E+009;1.530762463808060E-001;-7.647956162691116E-002;-4.686037078499794E-003;-5.929046892561019E-004;
2.420833333333334E+009;1.522696167230606E-001;-7.781819999217987E-002;-4.626048728823662E-003;-4.780142335221171E-004;
2.421000000000000E+009;1.513398289680481E-001;-7.960569113492966E-002;-4.599853884428740E-003;-2.226067299488932E-004;
2.421166666666667E+009;1.505028307437897E-001;-8.097379654645920E-002;-4.670650698244572E-003;5.124053859617561E-005;
2.421333333333334E+009;1.497859209775925E-001;-8.267122507095337E-002;-4.531366750597954E-003;1.303037133766338E-004;
2.421500000000000E+009;1.490513682365418E-001;-8.398373425006867E-002;-4.312986973673105E-003;2.670826797839254E-004;
2.421666666666667E+009;1.485055834054947E-001;-8.564271032810211E-002;-4.285158123821020E-003;4.982156096957624E-004;
2.421833333333334E+009;1.481183767318726E-001;-8.737777918577194E-002;-4.301893990486860E-003;6.089724483899772E-004;
2.422000000000000E+009;1.476773768663406E-001;-8.907134830951691E-002;-4.068781156092882E-003;7.325321785174310E-004;
2.422166666666667E+009;1.471750736236572E-001;-9.079314768314362E-002;-3.904567798599601E-003;9.043909958563745E-004;
2.422333333333334E+009;1.470358818769455E-001;-9.233534336090088E-002;-3.893136279657483E-003;9.519889135845006E-004;
2.422500000000000E+009;1.468054056167603E-001;-9.409271925687790E-002;-3.819364821538329E-003;1.211786293424666E-003;
2.422666666666667E+009;1.465861797332764E-001;-9.577018767595291E-002;-3.580656135454774E-003;1.108024735003710E-003;
2.422833333333334E+009;1.465928256511688E-001;-9.752081334590912E-002;-3.592209890484810E-003;1.161396387033165E-003;
2.423000000000000E+009;1.466613709926605E-001;-9.918043762445450E-002;-3.335906425490975E-003;1.331602921709418E-003;
2.423166666666667E+009;1.469096243381500E-001;-1.008482947945595E-001;-3.206371795386076E-003;1.268587657250464E-003;
2.423333333333334E+009;1.469152122735977E-001;-1.021572276949883E-001;-3.203817410394549E-003;1.310336636379361E-003;
2.423500000000000E+009;1.472285687923431E-001;-1.038150712847710E-001;-3.190482268109918E-003;1.283388352021575E-003;
2.423666666666667E+009;1.474650353193283E-001;-1.055065467953682E-001;-3.038583090528846E-003;1.335805398412049E-003;
2.423833333333334E+009;1.477920711040497E-001;-1.069813668727875E-001;-2.938338089734316E-003;1.431751763448119E-003;
2.424000000000000E+009;1.480729132890701E-001;-1.080251187086105E-001;-2.913968404754996E-003;1.436741091310978E-003;
2.424166666666667E+009;1.482805907726288E-001;-1.094966679811478E-001;-2.844047965481877E-003;1.351146725937724E-003;
2.424333333333334E+009;1.488877832889557E-001;-1.107042282819748E-001;-2.826250623911619E-003;1.375533174723387E-003;
2.424500000000000E+009;1.492511928081513E-001;-1.118692755699158E-001;-2.668292261660099E-003;1.453945646062493E-003;
2.424666666666667E+009;1.497276425361633E-001;-1.128205358982086E-001;-2.607754664495587E-003;1.416408806107938E-003;
2.424833333333334E+009;1.499208360910416E-001;-1.140208691358566E-001;-2.831589896231890E-003;1.478408696129918E-003;
2.425000000000000E+009;1.503328830003738E-001;-1.149924397468567E-001;-2.545039867982268E-003;1.485082553699613E-003;
2.425166666666667E+009;1.504209488630295E-001;-1.157084032893181E-001;-2.645346568897367E-003;1.474372227676213E-003;
2.425333333333334E+009;1.508456617593765E-001;-1.164564117789269E-001;-2.624779473990202E-003;1.448566094040871E-003;
2.425500000000000E+009;1.512670665979385E-001;-1.172880828380585E-001;-2.635120181366801E-003;1.517201308161020E-003;
2.425666666666667E+009;1.513453423976898E-001;-1.178884655237198E-001;-2.490733051672578E-003;1.610075822100043E-003;
2.425833333333334E+009;1.515876799821854E-001;-1.184806749224663E-001;-2.321253996342421E-003;1.485132728703320E-003;
2.426000000000000E+009;1.517723351716995E-001;-1.191250607371330E-001;-2.445920370519161E-003;1.551126129925251E-003;
2.426166666666667E+009;1.519702374935150E-001;-1.195409968495369E-001;-2.240891801193357E-003;1.651420723646879E-003;
2.426333333333334E+009;1.518885642290115E-001;-1.199746355414391E-001;-2.447504550218582E-003;1.681562978774309E-003;
2.426500000000000E+009;1.518803834915161E-001;-1.202224418520927E-001;-2.184149343520403E-003;1.857873168773949E-003;
2.426666666666667E+009;1.518826782703400E-001;-1.202817335724831E-001;-2.275024773553014E-003;1.830803579650819E-003;
2.426833333333334E+009;1.516439318656921E-001;-1.206486076116562E-001;-2.183418255299330E-003;1.732361619360745E-003;
2.427000000000000E+009;1.512168496847153E-001;-1.209150925278664E-001;-2.017866820096970E-003;1.783498795703054E-003;
2.427166666666667E+009;1.509190350770950E-001;-1.210346743464470E-001;-2.098633674904704E-003;1.955659361556172E-003;
2.427333333333334E+009;1.504032760858536E-001;-1.210672184824944E-001;-1.982530113309622E-003;1.946754055097699E-003;
2.427500000000000E+009;1.499452739953995E-001;-1.212507262825966E-001;-2.051591174677014E-003;1.886790967546403E-003;
2.427666666666667E+009;1.492306441068649E-001;-1.213260442018509E-001;-2.073793904855847E-003;1.964186318218708E-003;
