# Hz S RI R 
2400000000.0000000000 0.173141717910766601562500000000 0.048925627022981636737863908593 0.005467404145747423171997070312 -0.002360898070037364959716796875 0 0 0 0 
2400166666.6666665077 0.173950582742691012283486884371 0.048352245241403579711914062500 0.005568579770624637603759765625 -0.002612262731418014006373740088 0 0 0 0 
2400333333.3333334923 0.174221009016036987304687500000 0.047725033015012741088867187500 0.005584138445556163787841796875 -0.002708492334932088851928710938 0 0 0 0 
2400500000.0000000000 0.174605950713157709319744981258 0.046895328909158706665039062500 0.005750687792897224426269531250 -0.002868354553356767134425497900 0 0 0 0 
2400666666.6666665077 0.174895316362381009200888115629 0.046296462416648871684987653907 0.005511574447154998779296875000 -0.003176122670993208885192871094 0 0 0 0 
2400833333.3333334923 0.175393387675285311599893134371 0.045778136700391769409179687500 0.005742459092289209365844726562 -0.003198778256773949103114462744 0 0 0 0 
2401000000.0000000000 0.175526812672615106780682481258 0.045018836855888366699218750000 0.005682101938873528566842363574 -0.003543162485584617094752646338 0 0 0 0 
2401166666.6666665077 0.175794914364814813811932481258 0.044350307434797286987304687500 0.005565141327679157257080078125 -0.003749864175915718078613281250 0 0 0 0 
2401333333.3333334923 0.175942435860633905608807481258 0.043812155723571777343750000000 0.005594211164861918363089277051 -0.003906056983396410942077636719 0 0 0 0 
2401500000.0000000000 0.176063299179077203948651231258 0.043112501502037048339843750000 0.005421300418674945831298828125 -0.004258962813764811429495527051 0 0 0 0 
2401666666.6666665077 0.176038056612014798263388115629 0.042562581598758697509765625000 0.005566361825913190841674804688 -0.004335606005042791366577148438 0 0 0 0 
2401833333.3333334923 0.176154732704162597656250000000 0.041615415364503860473632812500 0.005384208168834447860717773438 -0.004718356300145387649536132812 0 0 0 0 
2402000000.0000000000 0.176012411713600186446981865629 0.040892530232667922973632812500 0.005382856819778680801391601562 -0.004772295244038105010986328125 0 0 0 0 
2402166666.6666665077 0.175948888063430786132812500000 0.039841417223215103149414062500 0.005252276081591845426077558301 -0.005001354031264781951904296875 0 0 0 0 
2402333333.3333334923 0.175550520420074490646200615629 0.039043620228767401958425153907 0.005085172131657600402832031250 -0.005186760798096656799316406250 0 0 0 0 
2402500000.0000000000 0.175566792488098089020098768742 0.037942331284284591674804687500 0.005152626428753137588500976562 -0.005357407033443450927734375000 0 0 0 0 
2402666666.6666665077 0.175171852111816406250000000000 0.037039868533611297607421875000 0.004909445066004992398733808301 -0.005639838520437479019165039062 0 0 0 0 
2402833333.3333334923 0.175021469593048095703125000000 0.035844501107931137084960937500 0.004797557834535837173461914062 -0.005788404028862714767456054688 0 0 0 0 
2403000000.0000000000 0.174832701683044405838174384371 0.034791905432939529418945312500 0.004604218527674674987792968750 -0.006103274878114461898803710938 0 0 0 0 
2403166666.6666665077 0.174355268478393610198651231258 0.033248137682676322246511091407 0.004465345293283463391775800488 -0.006265498697757720947265625000 0 0 0 0 
2403333333.3333334923 0.173869878053665188888388115629 0.032099075615406043315847028907 0.004204813856631517410278320312 -0.006445163860917091369628906250 0 0 0 0 
2403500000.0000000000 0.173725560307502802093182481258 0.030555659905076030385950858204 0.004098942968994379043579101562 -0.006690355017781257629394531250 0 0 0 0 
2403666666.6666665077 0.173230737447738702972088731258 0.028870692476630210876464843750 0.003727480303496121926548623193 -0.006682593841105700406546308301 0 0 0 0 
2403833333.3333334923 0.173158824443817110916299384371 0.027213089168071750295618826954 0.003677668748423457145690917969 -0.007017293479293584823608398438 0 0 0 0 
2404000000.0000000000 0.172576993703842190841513115629 0.025589272379875179636021798046 0.003456924809142947196960449219 -0.007156587671488524350638105176 0 0 0 0 
2404166666.6666665077 0.172161087393760708907919365629 0.023673303425312038766881173046 0.003061671042814850807189941406 -0.007215837016701698303222656250 0 0 0 0 
2404333333.3333334923 0.171843022108078002929687500000 0.022040821611881259572962576954 0.002878109226003288789036416162 -0.007293379399925470352172851562 0 0 0 0 
2404500000.0000000000 0.171449288725852994064169365629 0.019995480775833129882812500000 0.002592203905805944962742470850 -0.007611941080540418624877929688 0 0 0 0 
2404666666.6666665077 0.171314954757690401931924384371 0.018094521015882488595982735546 0.002314055571332573890686035156 -0.007586922962218523025512695312 0 0 0 0 
2404833333.3333334923 0.171032726764679010589276231258 0.016115937381982799875279610546 0.002084437757730484008789062500 -0.007913704030215740203857421875 0 0 0 0 
2405000000.0000000000 0.170826956629753112792968750000 0.014148001559078689920445626171 0.001703206216916441917419433594 -0.007739600259810686111450195312 0 0 0 0 
2405166666.6666665077 0.170764043927192687988281250000 0.012070213444530960428258126171 0.001453796983696519894840859521 -0.007952577434480190277099609375 0 0 0 0 
2405333333.3333334923 0.170827940106391906738281250000 0.010011935606598850595494454296 0.001257032388821244022966694409 -0.007965113036334514617919921875 0 0 0 0 
2405500000.0000000000 0.170760482549667386154013115629 0.008216900750994682312011718750 0.001062634051777421994450234521 -0.007857694290578365325927734375 0 0 0 0 
2405666666.6666665077 0.170928969979286193847656250000 0.006144107785075902938842773438 0.000632234034128487110137939453 -0.007775167934596539411062909863 0 0 0 0 
2405833333.3333334923 0.171008720993995694259481865629 0.004082265775650739669799804688 0.000376722891815006678730565204 -0.007868086919188499450683593750 0 0 0 0 
2406000000.0000000000 0.171144336462020901779013115629 0.001865696278400718948961567456 0.000121017568744719001367846078 -0.007912945002317428588867187500 0 0 0 0 
2406166666.6666665077 0.171446785330772399902343750000 -0.000040334456571144983172416687 -0.000192748775589279803350725717 -0.007719601504504680633544921875 0 0 0 0 
2406333333.3333334923 0.171880438923835809905682481258 -0.002145180711522697968723916162 -0.000379216042347252423137110577 -0.007798484992235898971557617188 0 0 0 0 
2406500000.0000000000 0.172246187925338800628338731258 -0.004251074045896530151367187500 -0.000521384296007454395294189453 -0.007898198440670967102050781250 0 0 0 0 
2406666666.6666665077 0.172573089599609402755575615629 -0.006107903551310300827026367188 -0.000746063247788697481155395508 -0.007783057633787393569946289062 0 0 0 0 
2406833333.3333334923 0.173271104693412808517294365629 -0.008193315006792545318603515625 -0.001122831949032842896105122144 -0.007814368233084678649902343750 0 0 0 0 
2407000000.0000000000 0.173976451158523587325888115629 -0.010162902064621450251569179102 -0.001360972295515239021898579175 -0.007741754408925771713256835938 0 0 0 0 
2407166666.6666665077 0.174706637859344510177450615629 -0.012039062567055230576484881055 -0.001502185827121139006373740088 -0.007528684567660093307495117188 0 0 0 0 
2407333333.3333334923 0.175209864974021911621093750000 -0.014037107117474080866803554102 -0.001708154217340051910997700269 -0.007592243608087301254272460938 0 0 0 0 
2407500000.0000000000 0.175909981131553705413494981258 -0.015746841207146651531179060157 -0.002071924507617950005772256006 -0.007427735254168509569649980762 0 0 0 0 
2407666666.6666665077 0.176642224192619295974893134371 -0.017543435096740719186803048046 -0.002109048655256628990173339844 -0.007516100071370601654052734375 0 0 0 0 
2407833333.3333334923 0.177219852805137606521768134371 -0.019198436290025711059570312500 -0.002396563533693552017211914062 -0.007386733777821063995361328125 0 0 0 0 
2408000000.0000000000 0.178052067756652804275674384371 -0.021048123016953468322753906250 -0.002579454332590103149414062500 -0.007490656804293394088745117188 0 0 0 0 
2408166666.6666665077 0.178601309657096890548544365629 -0.022337367758154869079589843750 -0.002732643391937017007115029443 -0.007338015828281641006469726562 0 0 0 0 
2408333333.3333334923 0.179486453533172607421875000000 -0.024016153067350391042689139454 -0.002933274023234844207763671875 -0.007211645599454641342163085938 0 0 0 0 
2408500000.0000000000 0.180135518312454195877236884371 -0.025414923205971721303919608204 -0.003155634272843598885777138818 -0.007112125866115093231201171875 0 0 0 0 
2408666666.6666665077 0.180729135870933504959268134371 -0.026804538443684581411341483204 -0.003508736379444599151611328125 -0.007034933194518089294433593750 0 0 0 0 
2408833333.3333334923 0.181032419204711886306924384371 -0.027995590120553970336914062500 -0.003616269445046782927272177588 -0.006993100978434085845947265625 0 0 0 0 
2409000000.0000000000 0.181529909372329711914062500000 -0.029036836698651310312291329296 -0.003903079545125364823582314600 -0.006866872776299715042114257812 0 0 0 0 
2409166666.6666665077 0.181993111968040494064169365629 -0.030075090005993839609166329296 -0.004129910841584205627441406250 -0.006847628857940435409545898438 0 0 0 0 
2409333333.3333334923 0.182373359799385098556356865629 -0.030995910987257960927943045704 -0.004295787308365106582641601562 -0.006726887542754411697387695312 0 0 0 0 
2409500000.0000000000 0.182631626725196810623330634371 -0.031883031129837043071706403907 -0.004491426981985569000244140625 -0.006472829263657332334036542676 0 0 0 0 
2409666666.6666665077 0.182936668395996093750000000000 -0.032583173364400856708567033593 -0.004648070316761732101440429688 -0.006549032870680093765258789062 0 0 0 0 
2409833333.3333334923 0.183099091053009005447549384371 -0.032917130738496780395507812500 -0.004913367331027984619140625000 -0.006408242508769035339355468750 0 0 0 0 
2410000000.0000000000 0.183423668146133395095986884371 -0.033446408808231346820871721093 -0.005006275605410336580758379199 -0.006225061137229204177856445312 0 0 0 0 
2410166666.6666665077 0.183718457818031311035156250000 -0.033957775682210922241210937500 -0.005203184206038714322561933301 -0.006082138046622276306152343750 0 0 0 0 
2410333333.3333334923 0.183633029460907010177450615629 -0.034440308809280402446706403907 -0.005498667713254690170288085938 -0.005960962735116481781005859375 0 0 0 0 
2410500000.0000000000 0.183682158589363098144531250000 -0.034717068076133728027343750000 -0.005736850667744874954223632812 -0.005888714920729398727416992188 0 0 0 0 
2410666666.6666665077 0.183512791991233797928018134371 -0.035125620663166053081472028907 -0.005825536325573921203613281250 -0.005760962143540382385253906250 0 0 0 0 
2410833333.3333334923 0.183600693941116305252236884371 -0.035281978547573089599609375000 -0.006039189174771308898925781250 -0.005649048369377852353567792676 0 0 0 0 
2411000000.0000000000 0.183277189731597900390625000000 -0.035561006516218192363698591407 -0.006349503528326749801635742188 -0.005453970748931170377249433301 0 0 0 0 
2411166666.6666665077 0.183267399668693486969317518742 -0.035991225391626358032226562500 -0.006491587962955235567574785449 -0.005232458002865315351004316113 0 0 0 0 
2411333333.3333334923 0.182632148265838595291299384371 -0.036276772618293762207031250000 -0.006728040054440498352050781250 -0.005182618275284767150878906250 0 0 0 0 
2411500000.0000000000 0.182014927268028287032919365629 -0.036842156201601028442382812500 -0.006940763443708419799804687500 -0.004813828039914369583129882812 0 0 0 0 
2411666666.6666665077 0.181722119450569208343182481258 -0.037013195455074310302734375000 -0.007137925829738379392142011426 -0.004741046577692031860351562500 0 0 0 0 
2411833333.3333334923 0.180990546941757202148437500000 -0.037252869457006447528879533593 -0.007348512765020132064819335938 -0.004441037308424711227416992188 0 0 0 0 
2412000000.0000000000 0.180247366428375188629473768742 -0.037784099578857421875000000000 -0.007546325214207172393798828125 -0.004315559752285481366629316113 0 0 0 0 
2412166666.6666665077 0.179230093955993707854901231258 -0.038299139589071266864817033593 -0.008025602437555789947509765625 -0.004006027244031429290771484375 0 0 0 0 
2412333333.3333334923 0.178629145026206997970419365629 -0.038604397326707839965820312500 -0.008035717532038688659667968750 -0.003809178248047829107997275244 0 0 0 0 
2412500000.0000000000 0.177411988377571105957031250000 -0.039163783192634582519531250000 -0.008192358538508415222167968750 -0.003532867645844817161560058594 0 0 0 0 
2412666666.6666665077 0.176292121410369900802450615629 -0.039876945316791527484934221093 -0.008357766084372997283935546875 -0.003017324954271316962001181494 0 0 0 0 
2412833333.3333334923 0.175208702683448791503906250000 -0.040564913302659988403320312500 -0.008454252034425735473632812500 -0.002742310287430882887599326025 0 0 0 0 
2413000000.0000000000 0.174022212624549893478231865629 -0.041246786713600158691406250000 -0.008590477518737316131591796875 -0.002430120483040810065028525244 0 0 0 0 
2413166666.6666665077 0.172852456569671603103799384371 -0.042016867548227310180664062500 -0.008750849403440952301025390625 -0.002203751821070909933802939307 0 0 0 0 
2413333333.3333334923 0.171526089310646112640057481258 -0.042909726500511169433593750000 -0.008875833824276924133300781250 -0.001695865299552679061889648438 0 0 0 0 
2413500000.0000000000 0.170075058937072809417401231258 -0.043773893266916281963307966407 -0.008883459493517875671386718750 -0.001252873218618332906010293115 0 0 0 0 
2413666666.6666665077 0.169035494327545193771200615629 -0.044906057417392730712890625000 -0.008905421011149883270263671875 -0.001008385326713324026820517432 0 0 0 0 
2413833333.3333334923 0.167586028575897189041299384371 -0.045950908213853842998464216407 -0.009047600440680980682373046875 -0.000613769749179482460021972656 0 0 0 0 
2414000000.0000000000 0.166162118315696688553018134371 -0.047186326235532760620117187500 -0.008951921947300434112548828125 -0.000283956527709960883289891376 0 0 0 0 
2414166666.6666665077 0.165062010288238497635049384371 -0.048427570611238479614257812500 -0.008784692734479904174804687500 0.000103159538412000997506003108 0 0 0 0 
2414333333.3333334923 0.163821756839752197265625000000 -0.049774900078773498535156250000 -0.008676349185407161712646484375 0.000495269312523305416107177734 0 0 0 0 
2414500000.0000000000 0.162883058190345791915731865629 -0.051201116293668746948242187500 -0.008795558474957942962646484375 0.000658656761515885591506958008 0 0 0 0 
2414666666.6666665077 0.161582782864570589920205634371 -0.052539400756359100341796875000 -0.008557457476854324340820312500 0.001043156138621271090266562354 0 0 0 0 
2414833333.3333334923 0.160297423601150512695312500000 -0.054093345999717712402343750000 -0.008543565869331359863281250000 0.001398365944623946926714253003 0 0 0 0 
2415000000.0000000000 0.159236729145050104339276231258 -0.055620025843381881713867187500 -0.008374277502298355102539062500 0.001630047452636063098907470703 0 0 0 0 
2415166666.6666665077 0.158337756991386413574218750000 -0.057490900158882141113281250000 -0.008487305603921413421630859375 0.001788464491255580945255898584 0 0 0 0 
2415333333.3333334923 0.157530993223190307617187500000 -0.059142313897609710693359375000 -0.008201937191188335418701171875 0.002145036822184919877293252100 0 0 0 0 
2415500000.0000000000 0.156692609190940912444744981258 -0.060875046998262412334401716407 -0.008159514516592025756835937500 0.002267211908474564985987997900 0 0 0 0 
2415666666.6666665077 0.155829906463623102386151231258 -0.062699608504772186279296875000 -0.007982154376804828643798828125 0.002618387574329971833470009912 0 0 0 0 
2415833333.3333334923 0.155266389250755310058593750000 -0.064725279808044433593750000000 -0.007776050362735986709594726562 0.003064235439524054960963583838 0 0 0 0 
2416000000.0000000000 0.154489919543266296386718750000 -0.066556386649608612060546875000 -0.007645306177437306317801191113 0.003316411748528480963466025244 0 0 0 0 
2416166666.6666665077 0.154110983014106805999432481258 -0.068512104451656341552734375000 -0.007634719833731651306152343750 0.003504764288663864135742187500 0 0 0 0 
2416333333.3333334923 0.153447434306144686599893134371 -0.070443935692310333251953125000 -0.007437475025653839111328125000 0.003810306312516332106349326025 0 0 0 0 
2416500000.0000000000 0.153009384870529202560263115629 -0.072556488215923309326171875000 -0.007197611965239048004150390625 0.003986523486673831939697265625 0 0 0 0 
2416666666.6666665077 0.152602940797805786132812500000 -0.074397698044776916503906250000 -0.007056350819766522321219159863 0.004384920932352542877197265625 0 0 0 0 
2416833333.3333334923 0.152379661798477200607138115629 -0.076431035995483398437500000000 -0.006813218351453542709350585938 0.004572051111608743667602539062 0 0 0 0 
2417000000.0000000000 0.151907056570053100585937500000 -0.078389897942543029785156250000 -0.006745197810232639312744140625 0.004631587769836187362670898438 0 0 0 0 
2417166666.6666665077 0.151810109615325899978799384371 -0.080026015639305114746093750000 -0.006522624753415585431570722363 0.004900594707578420639038085938 0 0 0 0 
2417333333.3333334923 0.151809424161911010742187500000 -0.081709176301956176757812500000 -0.006389842368662357330322265625 0.005190989933907985687255859375 0 0 0 0 
2417500000.0000000000 0.151593774557113702972088731258 -0.083681434392929077148437500000 -0.005986124742776156339163495801 0.005219573155045509338378906250 0 0 0 0 
2417666666.6666665077 0.151724189519882202148437500000 -0.085092671215534210205078125000 -0.005797591060400009155273437500 0.005440272856503725051879882812 0 0 0 0 
2417833333.3333334923 0.151708826422691400725994981258 -0.086753360927104949951171875000 -0.005758362356573343276977539062 0.005587514955550432205200195312 0 0 0 0 
2418000000.0000000000 0.151743054389953613281250000000 -0.088172577321529388427734375000 -0.005277136806398630142211914062 0.005741715431213378906250000000 0 0 0 0 
2418166666.6666665077 0.151735961437225286285723768742 -0.089413657784461975097656250000 -0.005114145111292600631713867188 0.006008386611938477429861737988 0 0 0 0 
2418333333.3333334923 0.152179375290870694259481865629 -0.090852305293083190917968750000 -0.004959476180374622344970703125 0.006177720148116350173950195312 0 0 0 0 
2418500000.0000000000 0.152346774935722406585369981258 -0.092016026377677917480468750000 -0.004607487935572862625122070312 0.006334288977086544036865234375 0 0 0 0 
2418666666.6666665077 0.152676075696945190429687500000 -0.093068063259124755859375000000 -0.004256397020071744918823242188 0.006397606804966926574707031250 0 0 0 0 
2418833333.3333334923 0.152659744024276705642861884371 -0.093971118330955505371093750000 -0.004173826426267623901367187500 0.006549084093421697616577148438 0 0 0 0 
2419000000.0000000000 0.152625471353530911544638115629 -0.094832606613636016845703125000 -0.003937901929020881652832031250 0.006608312018215656280517578125 0 0 0 0 
2419166666.6666665077 0.153046578168868990799111884371 -0.095495074987411499023437500000 -0.003518282668665051893946982275 0.006778309587389230728149414062 0 0 0 0 
2419333333.3333334923 0.153156563639640808105468750000 -0.095956549048423767089843750000 -0.003342080628499389128444052588 0.006914352998137474060058593750 0 0 0 0 
2419500000.0000000000 0.153430357575416592696981865629 -0.096699066460132598876953125000 -0.002842218615114688873291015625 0.006906408816576004028320312500 0 0 0 0 
2419666666.6666665077 0.153780594468116788009481865629 -0.097046829760074615478515625000 -0.002675539581105113029479980469 0.007015458773821592330932617188 0 0 0 0 
2419833333.3333334923 0.153886914253234891036825615629 -0.097152635455131530761718750000 -0.002512964652851223945617675781 0.007035462651401758193969726562 0 0 0 0 
