# Version 1.00
#
freq[Hz];re:Trc1_S11;im:Trc1_S11;re:Trc2_S21;im:Trc2_S21;
2.400000000000000E+009;1.559970527887344E-001;6.018141284584999E-002;-4.106105770915747E-003;1.990149612538517E-004;
2.400166666666667E+009;1.560763716697693E-001;5.840693041682243E-002;-4.177634138613939E-003;4.150929453317076E-004;
2.400333333333334E+009;1.560679823160172E-001;5.637972056865692E-002;-4.185227211564779E-003;4.632656928151846E-004;
2.400500000000000E+009;1.565483510494232E-001;5.434525758028030E-002;-4.010286182165146E-003;7.213981007225812E-004;
2.400666666666667E+009;1.566549390554428E-001;5.221624299883843E-002;-3.811689326539636E-003;7.646049489267170E-004;
2.400833333333334E+009;1.571259647607803E-001;5.022739991545677E-002;-3.864973085001111E-003;9.975215652957559E-004;
2.401000000000000E+009;1.574452370405197E-001;4.809850826859474E-002;-3.935718443244696E-003;1.165644149295986E-003;
2.401166666666667E+009;1.579344719648361E-001;4.590260609984398E-002;-3.716218750923872E-003;1.226613414473832E-003;
2.401333333333334E+009;1.581756919622421E-001;4.398163408041000E-002;-3.741774475201964E-003;1.164595130831003E-003;
2.401500000000000E+009;1.590726673603058E-001;4.195082932710648E-002;-3.629662096500397E-003;1.544433296658099E-003;
2.401666666666667E+009;1.595781445503235E-001;4.002878442406654E-002;-3.605995327234268E-003;1.547256368212402E-003;
2.401833333333334E+009;1.601828038692474E-001;3.794644773006439E-002;-3.336562775075436E-003;1.795165706425905E-003;
2.402000000000000E+009;1.609176248311997E-001;3.621345013380051E-002;-3.288996173068881E-003;1.863198820501566E-003;
2.402166666666667E+009;1.614937484264374E-001;3.407435491681099E-002;-3.189958399161696E-003;2.111920388415456E-003;
2.402333333333334E+009;1.623959243297577E-001;3.244119882583618E-002;-3.149294527247548E-003;2.102181315422058E-003;
2.402500000000000E+009;1.634838134050369E-001;3.082002140581608E-002;-2.935691503807902E-003;2.221955219283700E-003;
2.402666666666667E+009;1.642067581415176E-001;2.929871343076229E-002;-2.692827722057700E-003;2.236076863482595E-003;
2.402833333333334E+009;1.650518774986267E-001;2.786862850189209E-002;-2.548513002693653E-003;2.256331499665976E-003;
2.403000000000000E+009;1.661045253276825E-001;2.645436860620976E-002;-2.505613025277853E-003;2.334408229216933E-003;
2.403166666666667E+009;1.670954376459122E-001;2.498610503971577E-002;-2.307387534528971E-003;2.435740781947970E-003;
2.403333333333334E+009;1.681119799613953E-001;2.377404645085335E-002;-2.225281903520227E-003;2.302829874679446E-003;
2.403500000000000E+009;1.689026653766632E-001;2.265524491667748E-002;-1.976392930373550E-003;2.465952420607209E-003;
2.403666666666667E+009;1.697133034467697E-001;2.132620476186276E-002;-2.052552299574018E-003;2.556569641456008E-003;
2.403833333333334E+009;1.709508746862412E-001;2.049170248210430E-002;-1.792183611541987E-003;2.629157621413469E-003;
2.404000000000000E+009;1.718200445175171E-001;1.938829757273197E-002;-1.810172223486006E-003;2.533761318773031E-003;
2.404166666666667E+009;1.727223843336105E-001;1.855561695992947E-002;-1.802211278118193E-003;2.474698936566711E-003;
2.404333333333334E+009;1.736138910055161E-001;1.797681674361229E-002;-1.582961063832045E-003;2.447670325636864E-003;
2.404500000000000E+009;1.743567138910294E-001;1.710546761751175E-002;-1.509739318862557E-003;2.640410559251905E-003;
2.404666666666667E+009;1.753582507371903E-001;1.643678359687328E-002;-1.342307776212692E-003;2.490150742232800E-003;
2.404833333333334E+009;1.759289056062698E-001;1.597754284739494E-002;-1.276005990803242E-003;2.716271439567208E-003;
2.405000000000000E+009;1.767005324363709E-001;1.538591459393501E-002;-1.199150690808892E-003;2.650037407875061E-003;
2.405166666666667E+009;1.773022413253784E-001;1.506541483104229E-002;-9.134689462371171E-004;2.443140139803290E-003;
2.405333333333334E+009;1.779334396123886E-001;1.450134254992008E-002;-1.001592376269400E-003;2.393834292888641E-003;
2.405500000000000E+009;1.784635484218597E-001;1.422875653952360E-002;-8.607440395280719E-004;2.423246158286929E-003;
2.405666666666667E+009;1.789003163576126E-001;1.412006467580795E-002;-7.032783469185233E-004;2.198714530095458E-003;
2.405833333333334E+009;1.790942996740341E-001;1.386248320341110E-002;-7.400113972835243E-004;2.465081633999944E-003;
2.406000000000000E+009;1.793770790100098E-001;1.351886801421642E-002;-4.550864105112851E-004;2.341523766517639E-003;
2.406166666666667E+009;1.795044839382172E-001;1.337599381804466E-002;-4.971222369931638E-004;2.174683380872011E-003;
2.406333333333334E+009;1.798846721649170E-001;1.305819582194090E-002;-4.251438076607883E-004;2.333713462576270E-003;
2.406500000000000E+009;1.797591447830200E-001;1.285181753337383E-002;-2.530374331399798E-004;2.249401761218905E-003;
2.406666666666667E+009;1.795412302017212E-001;1.256577204912901E-002;-2.545663737691939E-004;2.111480804160237E-003;
2.406833333333334E+009;1.795415580272675E-001;1.209630444645882E-002;-2.213664993178099E-004;2.124713733792305E-003;
2.407000000000000E+009;1.793834269046783E-001;1.176253613084555E-002;-2.437063085380942E-004;2.213096711784601E-003;
2.407166666666667E+009;1.791692674160004E-001;1.134466007351875E-002;-2.182643802370876E-004;1.979712629690766E-003;
2.407333333333334E+009;1.787713468074799E-001;1.088904123753309E-002;-9.142678436546703E-007;1.955621875822544E-003;
2.407500000000000E+009;1.784126013517380E-001;1.038786396384239E-002;-1.061377188307233E-004;1.946573494933546E-003;
2.407666666666667E+009;1.780219227075577E-001;9.683267213404179E-003;-6.487146310973913E-005;2.003972418606281E-003;
2.407833333333334E+009;1.772881746292114E-001;8.978008292615414E-003;4.023541987407953E-005;1.912880572490394E-003;
2.408000000000000E+009;1.767592132091522E-001;8.286166936159134E-003;-1.503164530731738E-004;1.993884798139334E-003;
2.408166666666667E+009;1.761565059423447E-001;7.490034215152264E-003;6.399205449270085E-005;1.778165111318231E-003;
2.408333333333334E+009;1.756446510553360E-001;6.568617187440395E-003;1.448334660381079E-004;1.606828300282359E-003;
2.408500000000000E+009;1.750470995903015E-001;5.427906289696693E-003;1.363743358524516E-004;1.598249888047576E-003;
2.408666666666667E+009;1.743227392435074E-001;4.317864309996367E-003;6.814514927100390E-005;1.730095129460096E-003;
2.408833333333334E+009;1.736116558313370E-001;3.148125717416406E-003;2.358865913265618E-006;1.757564139552414E-003;
2.409000000000000E+009;1.727401316165924E-001;1.744437729939818E-003;1.389185345033184E-004;1.567083527334034E-003;
2.409166666666667E+009;1.723714768886566E-001;3.522293118294329E-004;1.390044635627419E-004;1.624536002054811E-003;
2.409333333333334E+009;1.716354936361313E-001;-1.025346689857543E-003;6.876658881083131E-005;1.446640002541244E-003;
2.409500000000000E+009;1.709596514701843E-001;-2.656944328919053E-003;1.171551339211874E-004;1.461603213101625E-003;
2.409666666666667E+009;1.702873855829239E-001;-4.321862477809191E-003;1.593809720361605E-004;1.493203220888972E-003;
2.409833333333334E+009;1.696423143148422E-001;-5.825755186378956E-003;2.113427617587149E-004;1.511149690486491E-003;
2.410000000000000E+009;1.692150682210922E-001;-7.651963736861944E-003;1.347270736005157E-004;1.534952200017870E-003;
2.410166666666667E+009;1.687815785408020E-001;-9.384707547724247E-003;6.564743671333417E-005;1.389308599755168E-003;
2.410333333333334E+009;1.681458353996277E-001;-1.116681471467018E-002;1.003555153147318E-004;1.406782888807356E-003;
2.410500000000000E+009;1.678497195243835E-001;-1.307581551373005E-002;3.095780557487160E-004;1.490979921072722E-003;
2.410666666666667E+009;1.675854921340942E-001;-1.514616142958403E-002;2.949990448541939E-004;1.303719473071396E-003;
2.410833333333334E+009;1.673521846532822E-001;-1.683101430535317E-002;3.986389128840528E-005;1.569929649122059E-003;
2.411000000000000E+009;1.672619581222534E-001;-1.887144707143307E-002;3.050985687877983E-004;1.278261421248317E-003;
2.411166666666667E+009;1.671702265739441E-001;-2.086158841848373E-002;1.740410370985046E-004;1.340440358035266E-003;
2.411333333333334E+009;1.671666353940964E-001;-2.279780060052872E-002;1.383077324135229E-004;1.452099182642996E-003;
2.411500000000000E+009;1.670296937227249E-001;-2.495757676661015E-002;1.717690465738997E-004;1.525020110420883E-003;
2.411666666666667E+009;1.673300117254257E-001;-2.680173888802528E-002;6.664707325398922E-005;1.415347564034164E-003;
2.411833333333334E+009;1.677052527666092E-001;-2.878942713141441E-002;1.018532711896114E-004;1.323170377872884E-003;
2.412000000000000E+009;1.680367290973663E-001;-3.061720170080662E-002;2.184982440667227E-004;1.339051639661193E-003;
2.412166666666667E+009;1.682276427745819E-001;-3.242934867739677E-002;2.713693829718977E-004;1.552893198095262E-003;
2.412333333333334E+009;1.690019667148590E-001;-3.434485569596291E-002;2.159080031560734E-004;1.586193218827248E-003;
2.412500000000000E+009;1.691243201494217E-001;-3.607445582747459E-002;3.582472272682935E-004;1.531453453935683E-003;
2.412666666666667E+009;1.698133647441864E-001;-3.794680163264275E-002;3.576687013264746E-004;1.611051033250988E-003;
2.412833333333334E+009;1.704170107841492E-001;-3.960731998085976E-002;4.281041619833559E-004;1.491256640292704E-003;
2.413000000000000E+009;1.707782447338104E-001;-4.118455573916435E-002;4.098838544450700E-004;1.459440565668047E-003;
2.413166666666667E+009;1.715746670961380E-001;-4.276534169912338E-002;4.385152715258300E-004;1.473470474593341E-003;
2.413333333333334E+009;1.722057163715363E-001;-4.437205940485001E-002;4.327538190409541E-004;1.476957462728024E-003;
2.413500000000000E+009;1.727907210588455E-001;-4.580130428075790E-002;5.042448174208403E-004;1.395576400682330E-003;
2.413666666666667E+009;1.735033094882965E-001;-4.718657955527306E-002;6.326873553916812E-004;1.458734972402453E-003;
2.413833333333334E+009;1.740914285182953E-001;-4.835015162825584E-002;6.804605945944786E-004;1.629898673854768E-003;
2.414000000000000E+009;1.747360229492188E-001;-4.966161772608757E-002;8.381094667129219E-004;1.474751974456012E-003;
2.414166666666667E+009;1.753837913274765E-001;-5.070027336478233E-002;6.688430439680815E-004;1.410830765962601E-003;
2.414333333333334E+009;1.759285777807236E-001;-5.168101564049721E-002;6.193786393851042E-004;1.427276525646448E-003;
2.414500000000000E+009;1.766557991504669E-001;-5.266882479190826E-002;9.236603509634733E-004;1.291712862439454E-003;
2.414666666666667E+009;1.770022958517075E-001;-5.339554324746132E-002;9.333958732895553E-004;1.402630703523755E-003;
2.414833333333334E+009;1.775089055299759E-001;-5.419943481683731E-002;8.721902268007398E-004;1.362528768368065E-003;
2.415000000000000E+009;1.779071986675263E-001;-5.476644262671471E-002;9.897805284708738E-004;1.211613300256431E-003;
2.415166666666667E+009;1.782116442918778E-001;-5.538922548294067E-002;9.861488360911608E-004;1.117578824050725E-003;
2.415333333333334E+009;1.785777211189270E-001;-5.593099072575569E-002;1.024231663905084E-003;1.131973345763981E-003;
2.415500000000000E+009;1.787072271108627E-001;-5.622803047299385E-002;1.094050589017570E-003;1.061392948031426E-003;
2.415666666666667E+009;1.788108348846436E-001;-5.665522813796997E-002;1.050053513608873E-003;1.002834294922650E-003;
2.415833333333334E+009;1.789347678422928E-001;-5.702260509133339E-002;1.264410326257348E-003;1.021627220325172E-003;
2.416000000000000E+009;1.786087006330490E-001;-5.719030275940895E-002;1.281531760469079E-003;9.839963167905808E-004;
2.416166666666667E+009;1.787983477115631E-001;-5.755817890167236E-002;1.208403729833663E-003;9.322002879343927E-004;
2.416333333333334E+009;1.785275936126709E-001;-5.771100148558617E-002;1.037457608617842E-003;7.518561324104667E-004;
2.416500000000000E+009;1.781597137451172E-001;-5.796562135219574E-002;1.140152104198933E-003;9.571129339747131E-004;
2.416666666666667E+009;1.777059882879257E-001;-5.795958638191223E-002;1.192520605400205E-003;8.083778084255755E-004;
2.416833333333334E+009;1.773557811975479E-001;-5.837826803326607E-002;1.092670718207955E-003;6.560291512869299E-004;
2.417000000000000E+009;1.765968501567841E-001;-5.856142193078995E-002;1.058181747794151E-003;5.212518153712153E-004;
2.417166666666667E+009;1.759900599718094E-001;-5.866769701242447E-002;1.048044417984784E-003;6.610269192606211E-004;
2.417333333333334E+009;1.751749813556671E-001;-5.891412869095802E-002;9.936264250427485E-004;6.150226108729839E-004;
2.417500000000000E+009;1.742027103900909E-001;-5.926451459527016E-002;1.084763440303505E-003;4.301152948755771E-004;
2.417666666666667E+009;1.735113114118576E-001;-5.951582267880440E-002;9.887188207358122E-004;4.976142081432045E-004;
2.417833333333334E+009;1.724551320075989E-001;-5.988986417651177E-002;8.777604671195149E-004;5.660370807163417E-004;
2.418000000000000E+009;1.712954193353653E-001;-6.042777001857758E-002;9.832112118601799E-004;2.526694443076849E-004;
2.418166666666667E+009;1.702385693788528E-001;-6.064409017562866E-002;9.028091444633901E-004;3.648918354883790E-004;
2.418333333333334E+009;1.693092435598373E-001;-6.126876175403595E-002;6.779424147680402E-004;5.998459528200328E-004;
2.418500000000000E+009;1.679104417562485E-001;-6.181420385837555E-002;6.863902090117335E-004;3.879841824527830E-004;
2.418666666666667E+009;1.668057143688202E-001;-6.253192573785782E-002;7.420866168104112E-004;3.972491249442101E-004;
2.418833333333334E+009;1.654693633317947E-001;-6.320519000291824E-002;6.192850414663553E-004;3.118277236353606E-004;
2.419000000000000E+009;1.641096025705338E-001;-6.403396278619766E-002;6.492710090242326E-004;4.267108743079007E-004;
2.419166666666667E+009;1.629109382629395E-001;-6.488882750272751E-002;6.761871045455337E-004;4.269037162885070E-004;
2.419333333333334E+009;1.615508794784546E-001;-6.567789614200592E-002;5.623600445687771E-004;3.987783857155591E-004;
2.419500000000000E+009;1.605292111635208E-001;-6.696613132953644E-002;5.157603882253170E-004;4.656711826100946E-004;
2.419666666666667E+009;1.593423038721085E-001;-6.819654256105423E-002;4.771657404489815E-004;6.272505852393806E-004;
2.419833333333334E+009;1.579864621162415E-001;-6.910213828086853E-002;6.562525522895157E-004;5.882768891751766E-004;
2.420000000000000E+009;1.571468710899353E-001;-7.050304114818573E-002;5.402304232120514E-004;6.112762494012713E-004;
2.420166666666667E+009;1.559577882289887E-001;-7.178653776645660E-002;4.857115854974836E-004;5.551491631194949E-004;
2.420333333333334E+009;1.549391448497772E-001;-7.329048216342926E-002;5.507025634869933E-004;6.568041862919927E-004;
2.420500000000000E+009;1.541997343301773E-001;-7.460272312164307E-002;6.971387774683535E-004;6.326602888293564E-004;
2.420666666666667E+009;1.532142311334610E-001;-7.611530274152756E-002;5.180566222406924E-004;7.285947795026004E-004;
2.420833333333334E+009;1.523689776659012E-001;-7.773697376251221E-002;5.425236886367202E-004;8.742533973418176E-004;
2.421000000000000E+009;1.517512500286102E-001;-7.930471003055573E-002;6.990453694015741E-004;9.183459915220738E-004;
2.421166666666667E+009;1.512428671121597E-001;-8.095890283584595E-002;7.023905054666102E-004;1.209648442454636E-003;
2.421333333333334E+009;1.506990045309067E-001;-8.283359557390213E-002;5.546241882257164E-004;8.954051882028580E-004;
2.421500000000000E+009;1.500544250011444E-001;-8.442393690347672E-002;7.404419593513012E-004;9.816661477088928E-004;
2.421666666666667E+009;1.499021351337433E-001;-8.616301417350769E-002;8.036239305511117E-004;9.934759000316262E-004;
2.421833333333334E+009;1.497044116258621E-001;-8.788394927978516E-002;8.096407982520759E-004;8.765046950429678E-004;
2.422000000000000E+009;1.495315134525299E-001;-8.959525823593140E-002;1.039110240526497E-003;9.828213369473815E-004;
2.422166666666667E+009;1.492252498865128E-001;-9.148539602756500E-002;8.348532137461007E-004;9.610759443603456E-004;
2.422333333333334E+009;1.492597907781601E-001;-9.302260726690292E-002;1.070591039024293E-003;1.056248205713928E-003;
2.422500000000000E+009;1.494789719581604E-001;-9.446569532155991E-002;9.413035004399717E-004;9.483796311542392E-004;
2.422666666666667E+009;1.494867950677872E-001;-9.645910561084747E-002;1.106858835555613E-003;1.005924772471190E-003;
2.422833333333334E+009;1.497979909181595E-001;-9.782063215970993E-002;1.144798821769655E-003;1.007587881758809E-003;
2.423000000000000E+009;1.499923616647720E-001;-9.959662705659866E-002;1.244640559889376E-003;9.369195322506130E-004;
2.423166666666667E+009;1.505921930074692E-001;-1.010075360536575E-001;1.163526787422597E-003;9.100683382712305E-004;
2.423333333333334E+009;1.509478688240051E-001;-1.024389788508415E-001;1.375647843815386E-003;9.895568946376443E-004;
2.423500000000000E+009;1.513856649398804E-001;-1.039585769176483E-001;1.407998963259161E-003;9.132567793130875E-004;
2.423666666666667E+009;1.517457067966461E-001;-1.051994189620018E-001;1.473752083256841E-003;8.045617723837495E-004;
2.423833333333334E+009;1.523965597152710E-001;-1.065334603190422E-001;1.484346576035023E-003;9.302587131969631E-004;
2.424000000000000E+009;1.527464091777802E-001;-1.075698360800743E-001;1.464035012759268E-003;8.628827636130154E-004;
2.424166666666667E+009;1.531681865453720E-001;-1.087400615215302E-001;1.802198356017470E-003;7.116224733181298E-004;
2.424333333333334E+009;1.537785977125168E-001;-1.097133085131645E-001;1.851359964348376E-003;7.394111598841846E-004;
2.424500000000000E+009;1.544536501169205E-001;-1.106713339686394E-001;1.868558581918478E-003;6.754366331733763E-004;
2.424666666666667E+009;1.549423336982727E-001;-1.114959940314293E-001;1.838996540755034E-003;5.930623738095164E-004;
2.424833333333334E+009;1.551542729139328E-001;-1.121949031949043E-001;1.785390777513385E-003;6.141624762676656E-004;
2.425000000000000E+009;1.556955277919769E-001;-1.129876747727394E-001;1.868281280621886E-003;4.393391427583993E-004;
2.425166666666667E+009;1.559107154607773E-001;-1.136278063058853E-001;1.748716691508889E-003;3.916119749192148E-004;
2.425333333333334E+009;1.564007848501205E-001;-1.141949295997620E-001;1.918777939863503E-003;2.153265813831240E-004;
2.425500000000000E+009;1.568430364131928E-001;-1.147786900401115E-001;1.920162816531956E-003;1.822629565140232E-004;
2.425666666666667E+009;1.567285507917404E-001;-1.151264980435371E-001;1.830537919886410E-003;1.882365613710135E-004;
2.425833333333334E+009;1.569316685199738E-001;-1.154153570532799E-001;1.932481420226395E-003;-1.130815780925332E-005;
2.426000000000000E+009;1.569581925868988E-001;-1.158832088112831E-001;1.847957493737340E-003;3.354145883349702E-005;
2.426166666666667E+009;1.571863740682602E-001;-1.160683184862137E-001;1.950248260982335E-003;-1.706849288893864E-004;
2.426333333333334E+009;1.569775789976120E-001;-1.161784380674362E-001;1.786692533642054E-003;-2.810024307109416E-004;
2.426500000000000E+009;1.568950116634369E-001;-1.164107322692871E-001;2.007958944886923E-003;-2.756509056780487E-004;
2.426666666666667E+009;1.567723006010056E-001;-1.163680925965309E-001;1.838490949012339E-003;-4.032141587231308E-004;
2.426833333333334E+009;1.563121974468231E-001;-1.166264042258263E-001;1.762097585014999E-003;-3.180521016474813E-004;
2.427000000000000E+009;1.558469831943512E-001;-1.166797280311585E-001;1.794021809473634E-003;-3.465338959358633E-004;
2.427166666666667E+009;1.552085578441620E-001;-1.167032346129417E-001;1.837350777350366E-003;-3.274861664976925E-004;
2.427333333333334E+009;1.545393913984299E-001;-1.168680489063263E-001;1.761475577950478E-003;-4.077127669006586E-004;
2.427500000000000E+009;1.539021879434586E-001;-1.169553175568581E-001;1.541326404549182E-003;-4.661710991058499E-004;
2.427666666666667E+009;1.530548334121704E-001;-1.171667650341988E-001;1.626539509743452E-003;-3.657233319245279E-004;
2.427833333333334E+009;1.519626528024674E-001;-1.172687560319901E-001;1.744826091453433E-003;-4.089364665560424E-004;
