# Hz S RI R 
2400000000.0000000000 0.158971667289733886718750000000 0.062916614115238189697265625000 -0.004945508204400539398193359375 0.000966555729974061250686645508 0 0 0 0 
2400166666.6666665077 0.158923208713531494140625000000 0.061316791921854019165039062500 -0.004935803357511758804321289062 0.000997197814285755157470703125 0 0 0 0 
2400333333.3333334923 0.158627524971962002853231865629 0.059572018682956702495534528907 -0.004961993079632520675659179688 0.001193071715533732934239052881 0 0 0 0 
2400500000.0000000000 0.158555343747139004806356865629 0.057619094848632812500000000000 -0.004911534953862428665161132812 0.001299480674788356044171977466 0 0 0 0 
2400666666.6666665077 0.158569395542144803146200615629 0.055813767015933990478515625000 -0.004677375778555870056152343750 0.001491519738920032978057861328 0 0 0 0 
2400833333.3333334923 0.158622503280639703948651231258 0.053896218538284301757812500000 -0.004673101939260959625244140625 0.001752158510498702959773398291 0 0 0 0 
2401000000.0000000000 0.158443331718444796463174384371 0.051901672035455696796457658593 -0.004692540504038333892822265625 0.001929734833538532040239643628 0 0 0 0 
2401166666.6666665077 0.158802524209022494217080634371 0.049791052937507629394531250000 -0.004548948723822832107543945312 0.001903805299662054018733359229 0 0 0 0 
2401333333.3333334923 0.158874407410621587555255018742 0.047813117504119873046875000000 -0.004413830582052469253540039062 0.001767237321473658084869384766 0 0 0 0 
2401500000.0000000000 0.159011915326118496993856865629 0.045569226145744316791574846093 -0.004452988505363464355468750000 0.002296177670359611944911337744 0 0 0 0 
2401666666.6666665077 0.159473285079002408126669365629 0.043571606278419501567800153907 -0.004456884227693080902099609375 0.002388560213148593902587890625 0 0 0 0 
2401833333.3333334923 0.159631475806236294845419365629 0.041490569710731513286550153907 -0.004212018102407454576974199512 0.002396122319623827934265136719 0 0 0 0 
2402000000.0000000000 0.159931510686874389648437500000 0.039622973650693893432617187500 -0.003992902580648660659790039062 0.002604373497888445854187011719 0 0 0 0 
2402166666.6666665077 0.160452201962471008300781250000 0.037423465400934219360351562500 -0.003900068812072277069091796875 0.002720284974202514128444052588 0 0 0 0 
2402333333.3333334923 0.160934418439865112304687500000 0.035639178007841110229492187500 -0.003990390338003635406494140625 0.002800569171085954146144247900 0 0 0 0 
2402500000.0000000000 0.161681234836578396896200615629 0.033838439732789993286132812500 -0.003658210858702660040614462744 0.002813205355778336958644247900 0 0 0 0 
2402666666.6666665077 0.162208750844001797775106865629 0.032005961984395980834960937500 -0.003744620131328701972961425781 0.003014121903106569810154580225 0 0 0 0 
2402833333.3333334923 0.163043558597564697265625000000 0.030327128246426578866978829296 -0.003464348381385207176208496094 0.003036474576219915910008095850 0 0 0 0 
2403000000.0000000000 0.163818195462226895431356865629 0.028439374640583988534947579296 -0.003392809303477406935450888525 0.003157914150506258010864257812 0 0 0 0 
2403166666.6666665077 0.164486825466156005859375000000 0.026999030262231830251673514454 -0.003293195506557821793797158350 0.003235527081415057182312011719 0 0 0 0 
2403333333.3333334923 0.165371313691139193435830634371 0.025449529290199279785156250000 -0.003297926392406225204467773438 0.003343991935253142876866006006 0 0 0 0 
2403500000.0000000000 0.166183426976203890701455634371 0.023825680837035179138183593750 -0.003015480004251002831699990381 0.003355761524289845986607216943 0 0 0 0 
2403666666.6666665077 0.167258933186531094650106865629 0.022262418642640110361119454296 -0.002873702207580209212062216650 0.003480389015749096870422363281 0 0 0 0 
2403833333.3333334923 0.168027371168136596679687500000 0.021030742675065990793248360546 -0.002947764471173286004307412256 0.003641506191343069076538085938 0 0 0 0 
2404000000.0000000000 0.169021949172019986251669365629 0.019859621301293369638463204296 -0.002786121098324656920192099463 0.003588770050555468039271689307 0 0 0 0 
2404166666.6666665077 0.170045137405395507812500000000 0.018570132553577419626256173046 -0.002633591881021856827976845850 0.003713472513481975035426474463 0 0 0 0 
2404333333.3333334923 0.170886069536209106445312500000 0.017576692625880241394042968750 -0.002400264376774429841282509912 0.003877938492223619981053017725 0 0 0 0 
2404500000.0000000000 0.171735510230064392089843750000 0.016406269744038578378697579296 -0.002391412155702710151672363281 0.003799473866820334954502724756 0 0 0 0 
2404666666.6666665077 0.172813937067985506912393134371 0.015461589209735390054722969921 -0.002344947075471282005310058594 0.003987719770520926389212323926 0 0 0 0 
2404833333.3333334923 0.173731043934822110275106865629 0.014639098197221759450892264454 -0.002142487326636910004856728662 0.004154619295150041580200195312 0 0 0 0 
2405000000.0000000000 0.174581781029701205154580634371 0.013866806402802470815638358204 -0.001909705577418207905412983472 0.004009482450783252716064453125 0 0 0 0 
2405166666.6666665077 0.175442174077033996582031250000 0.013139260932803150522252266796 -0.001897359848953783945796347510 0.004144126549363136291503906250 0 0 0 0 
2405333333.3333334923 0.176276668906211908538494981258 0.012419427745044229680071445898 -0.001661227201111614920972514575 0.004296951461583375930786132812 0 0 0 0 
2405500000.0000000000 0.177113115787506103515625000000 0.012013192288577560079554373829 -0.001562027493491769053815532153 0.004606161732226610183715820312 0 0 0 0 
2405666666.6666665077 0.177825763821601895431356865629 0.011446321383118629455566406250 -0.001153663615696131966234516675 0.004370650742202997207641601562 0 0 0 0 
2405833333.3333334923 0.178338140249252291580361884371 0.011030040681362150364885899023 -0.001181136583909391923191689600 0.004567622207105159759521484375 0 0 0 0 
2406000000.0000000000 0.178992494940757806975994981258 0.010633312165737150364885899023 -0.000825419672764837741851806641 0.004586537368595600128173828125 0 0 0 0 
2406166666.6666665077 0.179309383034706087967080634371 0.010231460444629190617571445898 -0.000829613942187279462814331055 0.004644542466849088668823242188 0 0 0 0 
2406333333.3333334923 0.179968461394309997558593750000 0.009981097653508186340332031250 -0.000602972635533660650253295898 0.004590813070535659790039062500 0 0 0 0 
2406500000.0000000000 0.180254936218261690994424384371 0.009531854651868343353271484375 -0.000377853430109098607867640363 0.004641295410692691802978515625 0 0 0 0 
2406666666.6666665077 0.180365279316902188400106865629 0.009298795834183692932128906250 -0.000151705491589382290840148926 0.004710124805569648742675781250 0 0 0 0 
2406833333.3333334923 0.180729255080223111251669365629 0.008921350352466106414794921875 -0.000002823725935741094872355461 0.004610079340636730194091796875 0 0 0 0 
2407000000.0000000000 0.180822372436523409744424384371 0.008580226451158523559570312500 0.000289765885099768584400731219 0.004504963755607604980468750000 0 0 0 0 
2407166666.6666665077 0.181072622537612887283486884371 0.008195348083972930908203125000 0.000423258577939122915267944336 0.004568111151456832885742187500 0 0 0 0 
2407333333.3333334923 0.180857926607132013518963731258 0.007798020262271165847778320312 0.000668154796585440635681152344 0.004420247394591569900512695312 0 0 0 0 
2407500000.0000000000 0.180772036314010592361611884371 0.007368566468358039855957031250 0.000786172167863696813583374023 0.004363536369055509567260742188 0 0 0 0 
2407666666.6666665077 0.180689036846160888671875000000 0.007141423877328634262084960938 0.000922834966331720352172851562 0.004236368928104639053344726562 0 0 0 0 
2407833333.3333334923 0.180212706327438410003338731258 0.006450276356190443038940429688 0.001142481807619333050371479565 0.004109415691345930099487304688 0 0 0 0 
2408000000.0000000000 0.179981946945190401931924384371 0.005802029743790627393240644238 0.001236535492353141090990376050 0.004190258681774139404296875000 0 0 0 0 
2408166666.6666665077 0.179542645812034606933593750000 0.005300080403685569763183593750 0.001404243870638310909271240234 0.003963796887546777725219726562 0 0 0 0 
2408333333.3333334923 0.179356977343559292892294365629 0.004604218993335962295532226562 0.001504372572526335933087993091 0.003863345831632614135742187500 0 0 0 0 
2408500000.0000000000 0.178588554263114901443643134371 0.003741284366697072982788085938 0.001788583234883845069287944263 0.003809626214206219153163290869 0 0 0 0 
2408666666.6666665077 0.178138479590416010100994981258 0.002906048437580465836765908350 0.001722822082228959040400839697 0.003526316257193685011622763525 0 0 0 0 
2408833333.3333334923 0.177362278103828402420205634371 0.002000735839828848838806152344 0.002066386165097355842590332031 0.003416801802814006805419921875 0 0 0 0 
2409000000.0000000000 0.176763042807579012771768134371 0.001021328731440007903455424731 0.002090284833684564070460654150 0.003411027137190103964564658057 0 0 0 0 
2409166666.6666665077 0.176266059279441805740518134371 0.000066010747104883193969726562 0.002008329378440976142883300781 0.003272358095273375944850302588 0 0 0 0 
2409333333.3333334923 0.175508886575698908050213731258 -0.001208018511533736965776753003 0.002116855001077055931091308594 0.003083006246015429930446005713 0 0 0 0 
2409500000.0000000000 0.174788624048233004470986884371 -0.002553241327404975891113281250 0.002230261685326695008518838037 0.002939086174592376188990927588 0 0 0 0 
2409666666.6666665077 0.174019128084182711502236884371 -0.003819601144641637802124023438 0.002190619939938188032862997900 0.002983326092362403869628906250 0 0 0 0 
2409833333.3333334923 0.173244670033454895019531250000 -0.005065427627414464950561523438 0.002324632368981837792637490381 0.002847989322617650032043457031 0 0 0 0 
2410000000.0000000000 0.172630339860916109939736884371 -0.006343938875943422317504882812 0.002293017227202653884887695312 0.002863739151507616043090820312 0 0 0 0 
2410166666.6666665077 0.172006756067276000976562500000 -0.007905672304332256317138671875 0.002323849825188518004176474463 0.002639974001795053915736533057 0 0 0 0 
2410333333.3333334923 0.171321123838424710372763115629 -0.009603252634406089782714843750 0.002535498468205333189723349463 0.002415364608168601989746093750 0 0 0 0 
2410500000.0000000000 0.170840278267860412597656250000 -0.011090774089097980154017264454 0.002474551321938633918762207031 0.002410460496321320967433310400 0 0 0 0 
2410666666.6666665077 0.170085579156875610351562500000 -0.013006662018597129476527030079 0.002492947503924369812011718750 0.002314206445589662031886435400 0 0 0 0 
2410833333.3333334923 0.169715702533721896072549384371 -0.014646068215370179957379725977 0.002704500919207930998561240088 0.002184561686590313911437988281 0 0 0 0 
2411000000.0000000000 0.169258967041969299316406250000 -0.016439646482467651367187500000 0.002544590272009373144862509619 0.001999072730541228814366006006 0 0 0 0 
2411166666.6666665077 0.168798714876174899002236884371 -0.018204540014266971242884451954 0.002665544860064982934239052881 0.002002472290769218964817666162 0 0 0 0 
2411333333.3333334923 0.168565094470977810958700615629 -0.020080817863345149648646170704 0.002648439258337020874023437500 0.001831951085478066964390420068 0 0 0 0 
2411500000.0000000000 0.168219372630119295974893134371 -0.022207628935575488698939139454 0.002786111552268267111537314307 0.001752374228090048053144145435 0 0 0 0 
2411666666.6666665077 0.168431580066680908203125000000 -0.024057161062955859792689139454 0.002883443143218756155726767432 0.001709816395305097103118896484 0 0 0 0 
2411833333.3333334923 0.168132349848747308929119981258 -0.025814874097704890859583670704 0.002696557901799678802490234375 0.001489414600655436949488974463 0 0 0 0 
2412000000.0000000000 0.168222546577453613281250000000 -0.027797097340226169931431954296 0.002794818487018346786499023438 0.001433984376490115902544331128 0 0 0 0 
2412166666.6666665077 0.168195426464080810546875000000 -0.029799614101648330688476562500 0.002909513190388679938075400244 0.001417303923517466025111533057 0 0 0 0 
2412333333.3333334923 0.168441534042358398437500000000 -0.031493652611970901489257812500 0.002699437085539102988002158057 0.001223003375343977971317910303 0 0 0 0 
2412500000.0000000000 0.168484166264533996582031250000 -0.033304713666439063335378278907 0.002858278341591358184814453125 0.001178111764602362892748188550 0 0 0 0 
2412666666.6666665077 0.168824061751365689376669365629 -0.035440750420093543315847028907 0.002722400240600109100341796875 0.001155690173618495898005820166 0 0 0 0 
2412833333.3333334923 0.169189289212226895431356865629 -0.037215005606412887573242187500 0.002907752059400082068202353369 0.000838155334349721670150756836 0 0 0 0 
2413000000.0000000000 0.169490963220596313476562500000 -0.039018139243125922466237653907 0.002752756467089056968688964844 0.000900123501196503639221191406 0 0 0 0 
2413166666.6666665077 0.169778436422347994705361884371 -0.040795516222715377807617187500 0.002843255875632166862487792969 0.000857305945828557014465332031 0 0 0 0 
2413333333.3333334923 0.170091629028320312500000000000 -0.042492024600505828857421875000 0.002911775140091776847839355469 0.000518384564202278852462768555 0 0 0 0 
2413500000.0000000000 0.170696169137954711914062500000 -0.044252000749111182476003278907 0.002861831570044159889221191406 0.000572974968235939741134643555 0 0 0 0 
2413666666.6666665077 0.171293094754219110686932481258 -0.045912154018878936767578125000 0.002778943162411450906040810693 0.000448014965513721108436584473 0 0 0 0 
2413833333.3333334923 0.171579003334045410156250000000 -0.047248300164937973022460937500 0.002731133718043566183802939307 0.000322148407576605677604675293 0 0 0 0 
2414000000.0000000000 0.172228530049324007888955634371 -0.048677328974008560180664062500 0.002756035886704922156092978369 0.000226715172175318002700805664 0 0 0 0 
2414166666.6666665077 0.172794803977012606521768134371 -0.050174251198768622661550153907 0.002725993050262331962585449219 0.000154839799506589797422131949 0 0 0 0 
2414333333.3333334923 0.173331916332244900802450615629 -0.051314666867256171489675153907 0.002734822919592260880711220850 0.000011956735761486930266924399 0 0 0 0 
2414500000.0000000000 0.174123793840408297439736884371 -0.052469465881586081767995466407 0.002627259586006402969360351562 -0.000005111728569318074733018875 0 0 0 0 
2414666666.6666665077 0.174652561545372009277343750000 -0.053539350628852837299387346093 0.002653348026797174973728798975 -0.000063947038142941892147064209 0 0 0 0 
2414833333.3333334923 0.174894213676452608963174384371 -0.054599769413471221923828125000 0.002602759050205349922180175781 -0.000126938597531989189699450082 0 0 0 0 
2415000000.0000000000 0.175322160124778803069744981258 -0.055554781109094619750976562500 0.002495254157111049132106161963 -0.000345493113854900002479553223 0 0 0 0 
2415166666.6666665077 0.175782844424247686188067518742 -0.056294750422239296649973283593 0.002476530149579048156738281250 -0.000421216565882787108421325684 0 0 0 0 
2415333333.3333334923 0.176304519176483209808026231258 -0.057163078337907791137695312500 0.002354043535888195037841796875 -0.000482460833154618685871678485 0 0 0 0 
2415500000.0000000000 0.176631644368171691894531250000 -0.057811073958873748779296875000 0.002402770100161432786228798975 -0.000570568779949098825454711914 0 0 0 0 
2415666666.6666665077 0.177010416984558105468750000000 -0.058304365724325180053710937500 0.002339008031412959098815917969 -0.000638548808638006448745727539 0 0 0 0 
2415833333.3333334923 0.177247643470764187911825615629 -0.059026762843132019042968750000 0.002487836405634880065917968750 -0.000721991411410272121429443359 0 0 0 0 
2416000000.0000000000 0.177290260791778592208700615629 -0.059404402971267700195312500000 0.002267819596454501152038574219 -0.000664347200654447078704833984 0 0 0 0 
2416166666.6666665077 0.177625522017478887359942518742 -0.059829361736774451518972028907 0.002112353919073938889744423975 -0.000741033232770860195159912109 0 0 0 0 
2416333333.3333334923 0.177594542503356905838174384371 -0.060114543884992599487304687500 0.002261013723909854888916015625 -0.000973896589130163192749023438 0 0 0 0 
2416500000.0000000000 0.177638769149780301193075615629 -0.060672160238027572631835937500 0.002028007758781313896179199219 -0.001153791439719497940660786206 0 0 0 0 
2416666666.6666665077 0.177474215626716613769531250000 -0.060870070010423660278320312500 0.002024497138336300849914550781 -0.000909985508769750595092773438 0 0 0 0 
2416833333.3333334923 0.177303045988082913497763115629 -0.061253283172845840454101562500 0.001899922033771872954127646338 -0.001122177112847567038295126807 0 0 0 0 
2417000000.0000000000 0.176725372672080993652343750000 -0.061326526105403900146484375000 0.001825504470616579055786132812 -0.001036727335304022052167582935 0 0 0 0 
2417166666.6666665077 0.176542848348617609222088731258 -0.061641387641429901123046875000 0.001741710002534091906306601416 -0.001303022145293653011322021484 0 0 0 0 
2417333333.3333334923 0.176037907600402804275674384371 -0.061715018004179000854492187500 0.001796852331608534076093364185 -0.001287522027269005992292094653 0 0 0 0 
2417500000.0000000000 0.175395026803016690353231865629 -0.062230408191680908203125000000 0.001702738110907376029370952075 -0.001284242840483784892438579028 0 0 0 0 
2417666666.6666665077 0.174891889095306396484375000000 -0.062429390847682952880859375000 0.001593094319105148098589253003 -0.001287926454097032980677939307 0 0 0 0 
2417833333.3333334923 0.174102231860160799881143134371 -0.062686845660209655761718750000 0.001409433782100677923915243994 -0.001189108006656170108197856372 0 0 0 0 
2418000000.0000000000 0.173114463686943109710369981258 -0.063033334910869598388671875000 0.001414206577464937946916889722 -0.001345582772046328024623251807 0 0 0 0 
2418166666.6666665077 0.172306969761848505218182481258 -0.063235320150852203369140625000 0.001335218199528753974317241138 -0.001315695699304342053057026440 0 0 0 0 
2418333333.3333334923 0.171556875109672601897869981258 -0.063705265522003173828125000000 0.001110460725612937970402382959 -0.001240474288351834037183452075 0 0 0 0 
2418500000.0000000000 0.170398309826850891113281250000 -0.063987776637077331542968750000 0.000951071677263826131820678711 -0.001329537713900208906886435400 0 0 0 0 
2418666666.6666665077 0.169617727398872403243856865629 -0.064557299017906188964843750000 0.000951230351347476243972778320 -0.001381358713842927975895547021 0 0 0 0 
2418833333.3333334923 0.168342918157577486892861884371 -0.065200313925743103027343750000 0.000861755863297730684280395508 -0.001347879297100007967707968604 0 0 0 0 
2419000000.0000000000 0.167142808437347412109375000000 -0.065749816596508026123046875000 0.000837036932352930307388305664 -0.001198959653265774033190083081 0 0 0 0 
2419166666.6666665077 0.166032165288925198654013115629 -0.066353522241115570068359375000 0.000840329856146126985549926758 -0.001230614143423736095428466797 0 0 0 0 
2419333333.3333334923 0.164582729339599609375000000000 -0.066878944635391235351562500000 0.000728973420336842536926269531 -0.001120333443395793004276894678 0 0 0 0 
2419500000.0000000000 0.163567513227462796310263115629 -0.067874945700168609619140625000 0.000814910163171589374542236328 -0.001259328797459601922276162256 0 0 0 0 
2419666666.6666665077 0.162484243512153597732705634371 -0.068830102682113647460937500000 0.000631842936854809522628784180 -0.001132528530433773994445800781 0 0 0 0 
2419833333.3333334923 0.161209583282470703125000000000 -0.069659210741519927978515625000 0.000568745832424610853195190430 -0.001174068427644670009613037109 0 0 0 0 
2420000000.0000000000 0.160058498382568387130575615629 -0.070522293448448181152343750000 0.000582173990551382303237915039 -0.001060715643689035935642861475 0 0 0 0 
