# Hz S RI R 
2400000000.0000000000 0.158811390399932889083700615629 0.062702439725399017333984375000 -0.005221076775342226028442382812 0.001077641034498810984967875903 0 0 0 0 
2400166666.6666665077 0.159000903367996188064736884371 0.061290159821510321880300153907 -0.005022660363465548429007245801 0.001341146416962146975873637622 0 0 0 0 
2400333333.3333334923 0.158681944012641906738281250000 0.059277214109897606586496721093 -0.005109041929244995117187500000 0.001445718691684306101558066260 0 0 0 0 
2400500000.0000000000 0.158644124865531893631143134371 0.057404849678277969360351562500 -0.004867949988692998886108398438 0.001604848657734692096710205078 0 0 0 0 
2400666666.6666665077 0.158537447452545193771200615629 0.055577777326107032085378278907 -0.004725384060293436050415039062 0.001665553543716669082641601562 0 0 0 0 
2400833333.3333334923 0.158563286066055297851562500000 0.053662925958633422851562500000 -0.004766005091369152069091796875 0.001718597370199858925463032300 0 0 0 0 
2401000000.0000000000 0.158662110567092895507812500000 0.051706939935684197162668596093 -0.004501143936067819595336914062 0.002021726686507463888881064307 0 0 0 0 
2401166666.6666665077 0.158713921904563903808593750000 0.049523435533046722412109375000 -0.004471173509955406188964843750 0.002150338143110274834873818506 0 0 0 0 
2401333333.3333334923 0.158718198537826510330361884371 0.047334548085927963256835937500 -0.004456571768969297409057617188 0.002269948367029428915736533057 0 0 0 0 
2401500000.0000000000 0.159069806337356595138388115629 0.045399434864521026611328125000 -0.004076014738529920578002929688 0.002476216759532690048217773438 0 0 0 0 
2401666666.6666665077 0.159249842166900607010049384371 0.043511308729648590087890625000 -0.004228829871863126754760742188 0.002598701510578393936157226562 0 0 0 0 
2401833333.3333334923 0.159435287117958096603231865629 0.041262611746788031841237653907 -0.004162605386227369308471679688 0.002747542224824428992030478369 0 0 0 0 
2402000000.0000000000 0.159902080893516512771768134371 0.039593666791915886615793596093 -0.004185385536402463912963867188 0.002788641490042210058925009619 0 0 0 0 
2402166666.6666665077 0.160368219017982510665731865629 0.037389326840639107440988908593 -0.003758986480534077124354697119 0.002952308859676123099086142432 0 0 0 0 
2402333333.3333334923 0.160811766982078607757244981258 0.035581115633249282836914062500 -0.003601120086386799812316894531 0.002992665162310003800633095850 0 0 0 0 
2402500000.0000000000 0.161554247140884399414062500000 0.033724926412105560302734375000 -0.003577343188226222991943359375 0.003147252835333346886875771631 0 0 0 0 
2402666666.6666665077 0.162098646163940401931924384371 0.031948510557413101196289062500 -0.003512161783874034881591796875 0.003141247434541583061218261719 0 0 0 0 
2402833333.3333334923 0.162658885121345492263955634371 0.030152209103107448923131173046 -0.003339390968903899192810058594 0.003163472749292850928065634619 0 0 0 0 
2403000000.0000000000 0.163484498858451787750567518742 0.028361242264509201049804687500 -0.003170755458995699882507324219 0.003452951321378349824192666162 0 0 0 0 
2403166666.6666665077 0.164382249116897610763388115629 0.026889452710747718811035156250 -0.003074049251154065132141113281 0.003519915975630282922032021631 0 0 0 0 
2403333333.3333334923 0.165373697876930209060830634371 0.025490948930382728576660156250 -0.002902935491874814033508300781 0.003617361653596162796020507812 0 0 0 0 
2403500000.0000000000 0.166047215461731012542401231258 0.024046290665864940988560860546 -0.002691113390028477148768759619 0.003515448654070496992823935400 0 0 0 0 
2403666666.6666665077 0.167030453681945800781250000000 0.022356525063514709472656250000 -0.002819106215611100196838378906 0.003828556276857852935791015625 0 0 0 0 
2403833333.3333334923 0.168091893196106012542401231258 0.021176245063543319702148437500 -0.002559114946052432060241699219 0.003893263172358274893519736182 0 0 0 0 
2404000000.0000000000 0.168913021683692904373330634371 0.019907006993889808654785156250 -0.002278251573443413214442587744 0.003868225729092956022975302588 0 0 0 0 
2404166666.6666665077 0.169795989990234402755575615629 0.018690908327698711050013358204 -0.002187056466937065124511718750 0.003951800987124443054199218750 0 0 0 0 
2404333333.3333334923 0.170841395854950006683026231258 0.017711855471134189260462576954 -0.002353542717173695997950888525 0.003902571974322199821472167969 0 0 0 0 
2404500000.0000000000 0.171657040715217590332031250000 0.016463823616504669189453125000 -0.002121557248756289915797568213 0.004141723271459341049194335938 0 0 0 0 
2404666666.6666665077 0.172728210687637301345986884371 0.015714736655354499816894531250 -0.001967119518667459921595908057 0.004079119302332401275634765625 0 0 0 0 
2404833333.3333334923 0.173682421445846613128338731258 0.014829462394118310755719569727 -0.001770946430042386054992675781 0.004137148614972829818725585938 0 0 0 0 
2405000000.0000000000 0.174526125192642211914062500000 0.013974997214972969400426094921 -0.001727681257762015082715678638 0.004219229798763990402221679688 0 0 0 0 
2405166666.6666665077 0.175335258245468111892861884371 0.013186687603592869150181954296 -0.001694285543635487990138388525 0.004474611952900887403006269238 0 0 0 0 
2405333333.3333334923 0.176239043474197387695312500000 0.012475028634071350097656250000 -0.001442234381102025942561484229 0.004437254741787911328787519238 0 0 0 0 
2405500000.0000000000 0.177027821540832491775674384371 0.012091109529137609654436680273 -0.001135018072091042995452880859 0.004415008239448071393484784863 0 0 0 0 
2405666666.6666665077 0.177696049213409396072549384371 0.011695466004312040156354335352 -0.001043837051838635964634560693 0.004546403884887695312500000000 0 0 0 0 
2405833333.3333334923 0.178181409835815401931924384371 0.011385865509510040283203125000 -0.000832913385238498449325561523 0.004640820436179637908935546875 0 0 0 0 
2406000000.0000000000 0.178815215826034601409588731258 0.010631009936332699167271798046 -0.000598585698753595352172851562 0.004674649797379971417898847363 0 0 0 0 
2406166666.6666665077 0.179222539067268399337606865629 0.010479871183633800851842110546 -0.000511640275362879037857055664 0.004615527577698230743408203125 0 0 0 0 
2406333333.3333334923 0.179731190204620389083700615629 0.010135825723409649240513985546 -0.000423021672759205102920532227 0.004764188546687364578247070312 0 0 0 0 
2406500000.0000000000 0.180039033293724087814169365629 0.009659693576395511627197265625 -0.000004421634457685286179184914 0.004625167697668076428885175488 0 0 0 0 
2406666666.6666665077 0.180267721414566012283486884371 0.009506404399871826171875000000 0.000136649512569420012548723764 0.004550200421363115310668945312 0 0 0 0 
2406833333.3333334923 0.180617094039916992187500000000 0.009076731279492378234863281250 0.000149549974594265195444384164 0.004576942883431912335867597363 0 0 0 0 
2407000000.0000000000 0.180797845125198392013388115629 0.008735739625990390777587890625 0.000625760527327656745910644531 0.004409775603562594327444745801 0 0 0 0 
2407166666.6666665077 0.180979594588279696365518134371 0.008498199284076690673828125000 0.000636173121165484189987182617 0.004449200350791215896606445312 0 0 0 0 
2407333333.3333334923 0.180840447545051602462606865629 0.007963432930409908294677734375 0.000972875161096453666687011719 0.004292087163776159286499023438 0 0 0 0 
2407500000.0000000000 0.180655106902122497558593750000 0.007615025620907545089721679688 0.001086043426766992048976279150 0.004207791294902563095092773438 0 0 0 0 
2407666666.6666665077 0.180652588605880709549111884371 0.007213717792183160781860351562 0.001309691811911761977552104419 0.004066023975610733032226562500 0 0 0 0 
2407833333.3333334923 0.180216237902641296386718750000 0.006642309948801994323730468750 0.001421257155016065077540732275 0.004252717830240727338309003613 0 0 0 0 
2408000000.0000000000 0.179940462112426813323651231258 0.005977385677397251129150390625 0.001564097357913851954816508716 0.004085442982614040374755859375 0 0 0 0 
2408166666.6666665077 0.179533779621124295333700615629 0.005601027049124240875244140625 0.001664040959440171935437846606 0.003810607129707932905909872900 0 0 0 0 
2408333333.3333334923 0.179219245910644503494424384371 0.004767297767102718353271484375 0.001695410232059658007380820166 0.003769502975046635107753134619 0 0 0 0 
2408500000.0000000000 0.178705453872680691818075615629 0.004011541139334440231323242188 0.001885269070044160106061625903 0.003660709364339708848240517725 0 0 0 0 
2408666666.6666665077 0.178168520331382806975994981258 0.003139007836580276922938681494 0.002039968036115169958827353369 0.003407438285648822784423828125 0 0 0 0 
2408833333.3333334923 0.177470207214355496505575615629 0.002244784031063317818882607568 0.002159500727429986000061035156 0.003181404666975141005275107275 0 0 0 0 
2409000000.0000000000 0.176707372069358797928018134371 0.001278549432754517035243368994 0.002023074543103576140162802588 0.003086067503318191008326865088 0 0 0 0 
2409166666.6666665077 0.176313906908035306075888115629 0.000100970464700367301702499390 0.002285112859681249098536826025 0.003148165997117757797241210938 0 0 0 0 
2409333333.3333334923 0.175666674971580505371093750000 -0.001004095189273356957676552881 0.002281481865793467001674033057 0.003029397455975412888767861475 0 0 0 0 
2409500000.0000000000 0.174760431051254300216513115629 -0.002261761110275983810424804688 0.002315927529707551002502441406 0.002826553536579012870788574219 0 0 0 0 
2409666666.6666665077 0.174014687538147000411825615629 -0.003615454072132707075831747900 0.002475856337696313858032226562 0.002806857461109756989720009912 0 0 0 0 
2409833333.3333334923 0.173305049538612393478231865629 -0.004823427181690931320190429688 0.002285865833982824845554970850 0.002649771748110651969909667969 0 0 0 0 
2410000000.0000000000 0.172862276434898404220419365629 -0.006116949487477540969848632812 0.002508077537640928788426064600 0.002504548756405711174011230469 0 0 0 0 
2410166666.6666665077 0.172155097126960809905682481258 -0.007835021242499351501464843750 0.002531047444790602164027548682 0.002445120830088853836059570312 0 0 0 0 
2410333333.3333334923 0.171488225460052490234375000000 -0.009402221068739891052246093750 0.002530068391934037208557128906 0.002338125603273510932922363281 0 0 0 0 
2410500000.0000000000 0.170976370573043795486611884371 -0.011059342883527280634869960352 0.002593582030385733084437704932 0.002142607700079679922816611182 0 0 0 0 
2410666666.6666665077 0.170316979289054898361044365629 -0.012912462465465070551862147852 0.002806545235216618017909384619 0.002062693703919649124145507812 0 0 0 0 
2410833333.3333334923 0.169925272464752197265625000000 -0.014576003886759279423723789648 0.002687468193471432165858603369 0.002013643505051732063293457031 0 0 0 0 
2411000000.0000000000 0.169584378600120488922442518742 -0.016157181933522220956822579296 0.002704720711335539817810058594 0.001915878267027437903760600513 0 0 0 0 
2411166666.6666665077 0.169143497943878201583700615629 -0.018245005980134010314941406250 0.002768076956272124810459756006 0.001804791623726486942888569409 0 0 0 0 
2411333333.3333334923 0.168727561831474304199218750000 -0.020014669746160510671595389454 0.002812114078551530838012695312 0.001613542088307440064073872144 0 0 0 0 
2411500000.0000000000 0.168559193611144991775674384371 -0.022074827924370769155482108204 0.002692385809496045112609863281 0.001583773177117109081865620190 0 0 0 0 
2411666666.6666665077 0.168438479304313687423544365629 -0.023945042863488200796107108204 0.002744976896792649789097451318 0.001524013117887079932569194263 0 0 0 0 
2411833333.3333334923 0.168330475687980707366619981258 -0.025885209441185001028040701954 0.002752154599875212149379111182 0.001497985096648336107369448023 0 0 0 0 
2412000000.0000000000 0.168465510010719299316406250000 -0.027785962447524070739746093750 0.002894636942073702812194824219 0.001189695438370109038112021338 0 0 0 0 
2412166666.6666665077 0.168307408690452603439169365629 -0.029746582731604579580286795704 0.002823392162099481062648154150 0.001308625913225113911869668115 0 0 0 0 
2412333333.3333334923 0.168625175952911404708700615629 -0.031621742993593222881276716407 0.002886274363845587210414267432 0.001236227690242230892181396484 0 0 0 0 
2412500000.0000000000 0.168760865926742609222088731258 -0.033584684133529663085937500000 0.002815217943862081007716513525 0.001002523815259336991551064600 0 0 0 0 
2412666666.6666665077 0.168962627649307306487713731258 -0.035622432827949516986887346093 0.002798923756927251815795898438 0.000897524354513734579086303711 0 0 0 0 
2412833333.3333334923 0.169166505336761502364950615629 -0.037312667816877372051198591407 0.002807156881317495866062783350 0.000872133881784975528717041016 0 0 0 0 
2413000000.0000000000 0.169635906815528897384481865629 -0.039155971258878707885742187500 0.002818834269419312910792685400 0.000706208113115280866622924805 0 0 0 0 
2413166666.6666665077 0.169814571738243103027343750000 -0.040835943073034293437917341407 0.002672036876901984214782714844 0.000698121089953929185867309570 0 0 0 0 
2413333333.3333334923 0.170384183526039095779580634371 -0.042697936296463012695312500000 0.002734563313424586816074990381 0.000436505972174927592277526855 0 0 0 0 
2413500000.0000000000 0.170955047011375399490518134371 -0.044382303953170783306081403907 0.002733890432864428000209189307 0.000263048306806012988090515137 0 0 0 0 
2413666666.6666665077 0.171469569206237792968750000000 -0.045889232307672500610351562500 0.002632190473377705054042197119 0.000395059178117662722438258038 0 0 0 0 
2413833333.3333334923 0.171793252229690607268963731258 -0.047341857105493552471120466407 0.002734318142756820158717490088 0.000039501293940702453255653381 0 0 0 0 
2414000000.0000000000 0.172192648053169305999432481258 -0.048870097845792770385742187500 0.002736440161243081092834472656 0.000145450379932299310534876691 0 0 0 0 
2414166666.6666665077 0.172958970069885309417401231258 -0.050172936171293258666992187500 0.002781076356768608093261718750 0.000043775882659247151832988126 0 0 0 0 
2414333333.3333334923 0.173310399055481012542401231258 -0.051467023789882659912109375000 0.002740791533142327828648232568 -0.000094854302005842328071594238 0 0 0 0 
2414500000.0000000000 0.174133136868476895431356865629 -0.052526008337736129760742187500 0.002739980816841125921962118994 -0.000186158140422776287228184833 0 0 0 0 
2414666666.6666665077 0.174594566226005609710369981258 -0.053775258362293243408203125000 0.002490845043212174935581826318 -0.000175748326000757488325396127 0 0 0 0 
2414833333.3333334923 0.174991354346275301834268134371 -0.054721709340810782695729841407 0.002485342789441347122192382812 -0.000297507649520412087440490723 0 0 0 0 
2415000000.0000000000 0.175371065735817011077557481258 -0.055491916835308081890065778907 0.002432008273899555206298828125 -0.000300873332889750599861145020 0 0 0 0 
2415166666.6666665077 0.175849869847297696212606865629 -0.056431610137224197387695312500 0.002527102129533886909484863281 -0.000452565698651596903800964355 0 0 0 0 
2415333333.3333334923 0.176437765359878512283486884371 -0.057259991765022277832031250000 0.002428250620141624970677041162 -0.000584447290748357772827148438 0 0 0 0 
2415500000.0000000000 0.176658689975738497635049384371 -0.057859450578689582134206403907 0.002392895985394715829136513818 -0.000609026115853339433670043945 0 0 0 0 
2415666666.6666665077 0.177026003599166897872763115629 -0.058416109532117836689035783593 0.002331061288714408874511718750 -0.000670426350552588701248168945 0 0 0 0 
2415833333.3333334923 0.177233263850212097167968750000 -0.059009358286857611919362653907 0.002154941670596600012538290869 -0.000723000091966241598129272461 0 0 0 0 
2416000000.0000000000 0.177248552441597012618856865629 -0.059477858245372772216796875000 0.002232744591310619874241494287 -0.000803594419267028570175170898 0 0 0 0 
2416166666.6666665077 0.177599728107452392578125000000 -0.059886015951633453369140625000 0.002086635911837220191955566406 -0.000880164385307580232620239258 0 0 0 0 
2416333333.3333334923 0.177539452910423306564169365629 -0.060266342014074332500417341407 0.002226661890745162963867187500 -0.001008121995255351066589355469 0 0 0 0 
2416500000.0000000000 0.177508965134620694259481865629 -0.060695417225360870361328125000 0.002036123070865869955775595557 -0.000983307952992618083953857422 0 0 0 0 
2416666666.6666665077 0.177246615290641812423544365629 -0.060851149260997772216796875000 0.002061340957880020141601562500 -0.001082098344340920014622353662 0 0 0 0 
2416833333.3333334923 0.177235767245292691329794365629 -0.061261933296918869018554687500 0.001841162447817624048945761572 -0.001134112826548516967176127856 0 0 0 0 
2417000000.0000000000 0.176762148737907409667968750000 -0.061377398669719702983815778907 0.001761420047841965935350727612 -0.001156153040938078923466347803 0 0 0 0 
2417166666.6666665077 0.176411420106887789627236884371 -0.061571709811687469482421875000 0.001723690773360430977464985425 -0.001179088372737169048906635815 0 0 0 0 
2417333333.3333334923 0.175897046923637390136718750000 -0.061861824244260787963867187500 0.001620477298274636051775288159 -0.001209466950967907905578613281 0 0 0 0 
2417500000.0000000000 0.175346970558166503906250000000 -0.062222946435213088989257812500 0.001543729566037655093549418872 -0.001260712975636125044581747900 0 0 0 0 
2417666666.6666665077 0.174891993403434808929119981258 -0.062278538942337043071706403907 0.001438871142454444928410195459 -0.001407288480550050952314067310 0 0 0 0 
2417833333.3333334923 0.173983484506607111175213731258 -0.062529779970645904541015625000 0.001305005163885653018951416016 -0.001460106461308896975276327979 0 0 0 0 
2418000000.0000000000 0.173132568597793606857138115629 -0.063025228679180145263671875000 0.001147879171185195012333535303 -0.001217098673805594010594033350 0 0 0 0 
2418166666.6666665077 0.172302514314651489257812500000 -0.063102304935455322265625000000 0.001139126950874925093409872900 -0.001226134016178547902348183740 0 0 0 0 
2418333333.3333334923 0.171527057886123712737713731258 -0.063641674816608428955078125000 0.000992441317066550254821777344 -0.001253587077371776103973388672 0 0 0 0 
2418500000.0000000000 0.170457720756530789474325615629 -0.064078509807586669921875000000 0.001067896024324000098584819263 -0.001291597145609558062312460791 0 0 0 0 
2418666666.6666665077 0.169480472803115789215411268742 -0.064552545547485351562500000000 0.000988247105851769447326660156 -0.001287583261728286960004496997 0 0 0 0 
2418833333.3333334923 0.168286785483360290527343750000 -0.065032467246055603027343750000 0.000846035429276525974273681641 -0.001223574858158827044843364185 0 0 0 0 
2419000000.0000000000 0.167072385549545288085937500000 -0.065615803003311157226562500000 0.000760154449380934238433837891 -0.001208969159051775932312011719 0 0 0 0 
2419166666.6666665077 0.165962308645248413085937500000 -0.066292338073253631591796875000 0.000658379110973328351974487305 -0.001239072531461715915082621997 0 0 0 0 
2419333333.3333334923 0.164630800485610989669638115629 -0.066749781370162963867187500000 0.000760987633839249610900878906 -0.001249228254891932010650634766 0 0 0 0 
2419500000.0000000000 0.163576647639274597167968750000 -0.067697390913963317871093750000 0.000611247436609119176864624023 -0.001166972098872065977809286963 0 0 0 0 
2419666666.6666665077 0.162607103586196899414062500000 -0.068606860935688018798828125000 0.000452716660220175981521606445 -0.000977882067672908306121826172 0 0 0 0 
2419833333.3333334923 0.161303639411926297286825615629 -0.069548629224300384521484375000 0.000493232335429638624191284180 -0.001229909015819429917576455225 0 0 0 0 
2420000000.0000000000 0.160007253289222689529580634371 -0.070532947778701782226562500000 0.000564369373023509979248046875 -0.001038219546899199919459677588 0 0 0 0 
