# Hz S RI R 50
2400000000.0000000000 0.157349556684493990799111884371 0.062799647450447082519531250000 -0.002592429518699645996093750000 0.006279363762587308883666992188 0 0 0 0 
2400166666.6666665077 0.157356441020965603927450615629 0.061134815216064453125000000000 -0.002412719884887338118312216650 0.006385077256709337234497070312 0 0 0 0 
2400333333.3333334923 0.157163009047508211990518134371 0.059337142854928970336914062500 -0.002055842196568847136256552588 0.006599183194339275360107421875 0 0 0 0 
2400500000.0000000000 0.157139822840690612792968750000 0.057234283536672592163085937500 -0.001970339799299836158752441406 0.006486227270215749740600585938 0 0 0 0 
2400666666.6666665077 0.156980827450752313811932481258 0.055118732154369347309152971093 -0.001710287411697209098218608325 0.006736900657415390014648437500 0 0 0 0 
2400833333.3333334923 0.157273754477500887771768134371 0.053443521261215209960937500000 -0.001295248162932693958282470703 0.006823096424341201782226562500 0 0 0 0 
2401000000.0000000000 0.157245069742202786544638115629 0.051286045461893081665039062500 -0.001220222329720854976056743091 0.006705768406391143798828125000 0 0 0 0 
2401166666.6666665077 0.157484665513038607498330634371 0.049066789448261260986328125000 -0.000940200465265661478042602539 0.006718305870890617370605468750 0 0 0 0 
2401333333.3333334923 0.157694369554519708831463731258 0.046805422753095626831054687500 -0.000615466269664466381072998047 0.006825381424278020858764648438 0 0 0 0 
2401500000.0000000000 0.158064603805541992187500000000 0.044819440692663192749023437500 -0.000268726551439613103866577148 0.006834304425865411758422851562 0 0 0 0 
2401666666.6666665077 0.158333569765090886871661268742 0.042753137648105621337890625000 0.000065685395384207367897033691 0.006681392434984445571899414062 0 0 0 0 
2401833333.3333334923 0.159028857946395901779013115629 0.040626574307680130004882812500 0.000323424028465524315834045410 0.006894931662827730178833007812 0 0 0 0 
2402000000.0000000000 0.159229174256324795821981865629 0.038745157420635223388671875000 0.000510954938363283872604370117 0.006718439050018787384033203125 0 0 0 0 
2402166666.6666665077 0.159965306520462008377236884371 0.036755818873643882060964216407 0.000821838330011814832687377930 0.006670210976153612136840820312 0 0 0 0 
2402333333.3333334923 0.160418659448623712737713731258 0.034932993352413177490234375000 0.001151059754192828915239643628 0.006753227673470973968505859375 0 0 0 0 
2402500000.0000000000 0.161333605647087097167968750000 0.032911375164985656738281250000 0.001151573145762085914611816406 0.006492073182016611099243164062 0 0 0 0 
2402666666.6666665077 0.161920145153999300857705634371 0.031300112605094909667968750000 0.001568271662108599922777485425 0.006599002052098512649536132812 0 0 0 0 
2402833333.3333334923 0.162835940718650790115518134371 0.029628636315464969980260079296 0.001788572291843592903734516675 0.006348406895995140075683593750 0 0 0 0 
2403000000.0000000000 0.163667872548103304763955634371 0.028070999309420589101771170704 0.002016534563153982162475585938 0.006298802793025971326346112988 0 0 0 0 
2403166666.6666665077 0.164544507861137390136718750000 0.026398362591862678527832031250 0.002248212695121765136718750000 0.006150847300887107849121093750 0 0 0 0 
2403333333.3333334923 0.165571525692939813811932481258 0.025036239996552470815638358204 0.002535453066229819817783974756 0.006037373561412096023559570312 0 0 0 0 
2403500000.0000000000 0.166457459330558804611044365629 0.023544380441308021545410156250 0.002718605799600481986999511719 0.005849920213222503662109375000 0 0 0 0 
2403666666.6666665077 0.167572960257530212402343750000 0.022193506360054019582728201954 0.002889949595555663108825683594 0.005802877712994813919067382812 0 0 0 0 
2403833333.3333334923 0.168690472841262789627236884371 0.021015740931034091604212576954 0.003206316148862243132350302588 0.005732757970690727233886718750 0 0 0 0 
2404000000.0000000000 0.169732242822647094726562500000 0.019836565479636188852330391796 0.003465453861281276182887411963 0.005407663993537425994873046875 0 0 0 0 
2404166666.6666665077 0.170474201440811212737713731258 0.018725598230957988393763358204 0.003681570058688520951512002100 0.005487046670168638229370117188 0 0 0 0 
2404333333.3333334923 0.171501249074935913085937500000 0.017702741548418998718261718750 0.003870756831020116806030273438 0.005132591351866722106933593750 0 0 0 0 
2404500000.0000000000 0.172416806221008300781250000000 0.016778746619820601726491560157 0.004229473881423473358154296875 0.004827862139791250228881835938 0 0 0 0 
2404666666.6666665077 0.173365846276283291915731865629 0.016014331951737400400181954296 0.004083931911736726760864257812 0.004869227763265371322631835938 0 0 0 0 
2404833333.3333334923 0.174273386597633389571981865629 0.015232552774250510824183280079 0.004435778595507144927978515625 0.004471359774470329284667968750 0 0 0 0 
2405000000.0000000000 0.175295859575271606445312500000 0.014654778875410560262659842579 0.004567096009850502014160156250 0.004224921576678752899169921875 0 0 0 0 
2405166666.6666665077 0.176148116588592501541299384371 0.013931032270193099975585937500 0.004635785706341266632080078125 0.004246046766638755798339843750 0 0 0 0 
2405333333.3333334923 0.176853820681571988204794365629 0.013311937451362609863281250000 0.004845353309065104398245527051 0.004078506492078304290771484375 0 0 0 0 
2405500000.0000000000 0.177577242255210904220419365629 0.012913991697132589167584804102 0.005036858376115561398977948926 0.003799907397478818893432617188 0 0 0 0 
2405666666.6666665077 0.178324922919273404220419365629 0.012594127096235750370989414648 0.005145775619894266128540039062 0.003784342668950558142421103369 0 0 0 0 
2405833333.3333334923 0.178825199604034396072549384371 0.012132041156291959935198399023 0.005267074331641197204589843750 0.003263324499130249023437500000 0 0 0 0 
2406000000.0000000000 0.179488405585289001464843750000 0.011799280531704429281214530079 0.005383668467402458190917968750 0.003192081814631820158717490088 0 0 0 0 
2406166666.6666665077 0.179735139012336703201455634371 0.011689086444675920659075352148 0.005491110030561686429495527051 0.002936280332505702972412109375 0 0 0 0 
2406333333.3333334923 0.180379226803779602050781250000 0.011206926777958869934082031250 0.005655567627400159835815429688 0.002797850640490651130676269531 0 0 0 0 
2406500000.0000000000 0.180562064051628112792968750000 0.011023161001503469294537929102 0.005688957870006561279296875000 0.002551311627030373053309775244 0 0 0 0 
2406666666.6666665077 0.180592253804206903655682481258 0.010869071818888189143170741602 0.005780304782092571258544921875 0.002250660210847855047938681494 0 0 0 0 
2406833333.3333334923 0.180757761001586886306924384371 0.010489610955119129526158516796 0.005846922285854815569405840137 0.001930681290104985020281147534 0 0 0 0 
2407000000.0000000000 0.180879324674606295486611884371 0.010183084756135940551757812500 0.005752700380980969342703534863 0.001628740807063878016230917822 0 0 0 0 
2407166666.6666665077 0.180846840143203707595986884371 0.009939078241586685180664062500 0.005828130524605512619018554688 0.001364439143799244923832558740 0 0 0 0 
2407333333.3333334923 0.180600911378860501388388115629 0.009453548118472099304199218750 0.005965710617601872357840253613 0.001328415935859083912493061597 0 0 0 0 
2407500000.0000000000 0.180501952767372103592080634371 0.009089522995054721832275390625 0.006101974751800298690795898438 0.000947397900745272636413574219 0 0 0 0 
2407666666.6666665077 0.180337354540824890136718750000 0.008882852271199226379394531250 0.006066346075385808944702148438 0.000703412282746285200119018555 0 0 0 0 
2407833333.3333334923 0.179820924997329711914062500000 0.008101026527583599090576171875 0.006073175463825464248657226562 0.000556139857508242130279541016 0 0 0 0 
2408000000.0000000000 0.179349526762962313553018134371 0.007479385007172822952270507812 0.006043909117579460144042968750 0.000158778580953367108672541486 0 0 0 0 
2408166666.6666665077 0.178991094231605502029580634371 0.006931401323527097702026367188 0.006130673922598361968994140625 -0.000041651514038676402788569791 0 0 0 0 
2408333333.3333334923 0.178655624389648409744424384371 0.006188424304127693176269531250 0.006006957497447729110717773438 -0.000340528931701555902331751691 0 0 0 0 
2408500000.0000000000 0.178051277995109613616619981258 0.005431899800896644592285156250 0.006098550744354724884033203125 -0.000552885932847857475280761719 0 0 0 0 
2408666666.6666665077 0.177352860569953890701455634371 0.004461612086743116378784179688 0.005684176459908485412597656250 -0.000815029372461140155792236328 0 0 0 0 
2408833333.3333334923 0.176601067185401888748330634371 0.003358958056196569962742470850 0.005687120370566844940185546875 -0.001034232322126626968383789062 0 0 0 0 
2409000000.0000000000 0.175949454307556207854901231258 0.002592812990769743919372558594 0.005775196012109518051147460938 -0.001316762529313564083696674878 0 0 0 0 
2409166666.6666665077 0.175315722823143005371093750000 0.001287181978113949082018208081 0.005643755663186311721801757812 -0.001629204140044748999952006763 0 0 0 0 
2409333333.3333334923 0.174612358212471008300781250000 -0.000042785217374330393295695646 0.005564646329730749130249023438 -0.001706533483229577975032187354 0 0 0 0 
2409500000.0000000000 0.173863753676414489746093750000 -0.001497030607424675984623574365 0.005498434416949748992919921875 -0.001942901988513767936109233325 0 0 0 0 
2409666666.6666665077 0.173090219497680691818075615629 -0.002694131806492805914637900244 0.005238738842308521270751953125 -0.001998420106247067885157919775 0 0 0 0 
2409833333.3333334923 0.172383844852447509765625000000 -0.004154778551310300827026367188 0.005208513233810663223266601562 -0.002319830702617764906642294775 0 0 0 0 
2410000000.0000000000 0.171897903084754888336505018742 -0.005744153633713722229003906250 0.005140934605151414871215820312 -0.002458006609231234030482626807 0 0 0 0 
2410166666.6666665077 0.171291500329971313476562500000 -0.007372889667749404907226562500 0.004944421350955963134765625000 -0.002760139293968677954432822119 0 0 0 0 
2410333333.3333334923 0.170407295227050809005575615629 -0.008987148292362689971923828125 0.004797655157744885358328534863 -0.002781575312837957902195595850 0 0 0 0 
2410500000.0000000000 0.169940024614334106445312500000 -0.010867423377931119746198085352 0.004719890654087066650390625000 -0.003091918537393211884739541162 0 0 0 0 
2410666666.6666665077 0.169552609324455288986044365629 -0.012716212309896949422816092579 0.004570655059069395065307617188 -0.003248596098273992972133017432 0 0 0 0 
2410833333.3333334923 0.169196635484695406814736884371 -0.014670231379568580282191092579 0.004384202416986227035522460938 -0.003259551478549838066101074219 0 0 0 0 
2411000000.0000000000 0.168702304363250704666299384371 -0.016393005847930911672571951954 0.004165531136095523834228515625 -0.003704930422827600999119423975 0 0 0 0 
2411166666.6666665077 0.168368324637412997146768134371 -0.018495198339223861694335937500 0.003964438103139401349539472363 -0.003619245719164609909057617188 0 0 0 0 
2411333333.3333334923 0.168237373232841491699218750000 -0.020457398146390918386439139454 0.003819848643615841865539550781 -0.003830306930467485947849892725 0 0 0 0 
2411500000.0000000000 0.167897999286651611328125000000 -0.022540761157870289194127266796 0.003536969423294066949131631006 -0.003962199669331312179565429688 0 0 0 0 
2411666666.6666665077 0.167961120605468805511151231258 -0.024404197931289669382115548046 0.003392228856682776971104287256 -0.004013069905340672406668378613 0 0 0 0 
2411833333.3333334923 0.167886525392532404143963731258 -0.026360144838690761220911795704 0.003252553753554821014404296875 -0.004282953683286905288696289062 0 0 0 0 
2412000000.0000000000 0.168093606829643305022869981258 -0.028337817639112469064732735546 0.002907817484810947938206338037 -0.004244991112500429153442382812 0 0 0 0 
2412166666.6666665077 0.168079942464828491210937500000 -0.030281176790595061565358747657 0.002806431148201227188110351562 -0.004440017975866794586181640625 0 0 0 0 
2412333333.3333334923 0.168483197689056396484375000000 -0.032357070595026023174245466407 0.002593475859612226919886923682 -0.004596374463289976119995117188 0 0 0 0 
2412500000.0000000000 0.168560832738876287262286268742 -0.034228459000587463378906250000 0.002470118692144751982447958838 -0.004589371383190155029296875000 0 0 0 0 
2412666666.6666665077 0.169100448489189203460369981258 -0.036036152392625808715820312500 0.002142161829397081895115517725 -0.004708045627921819686889648438 0 0 0 0 
2412833333.3333334923 0.169410780072212191482705634371 -0.038092643022537231445312500000 0.001910058548673986954929970850 -0.004920749459415674209594726562 0 0 0 0 
2413000000.0000000000 0.169655501842498807052450615629 -0.039832402020692832256276716407 0.001669852412305772087694477612 -0.004767218604683876037597656250 0 0 0 0 
2413166666.6666665077 0.170174106955528287032919365629 -0.041532583534717559814453125000 0.001368199824355543093440390479 -0.004872708581387996673583984375 0 0 0 0 
2413333333.3333334923 0.170723229646682711502236884371 -0.043243315070867538452148437500 0.001273678033612668947932577979 -0.004791867453604936599731445312 0 0 0 0 
2413500000.0000000000 0.171299889683723505218182481258 -0.044911734759807586669921875000 0.000934551877435296773910522461 -0.004760072100907564163208007812 0 0 0 0 
2413666666.6666665077 0.171769842505454989334268134371 -0.046588670462369918823242187500 0.000717631657607853412628173828 -0.004932937212288379669189453125 0 0 0 0 
2413833333.3333334923 0.172353878617286709884481865629 -0.047890886664390557025949846093 0.000342349900165572816699427472 -0.004850985016673803329467773438 0 0 0 0 
2414000000.0000000000 0.172838017344474792480468750000 -0.049480505287647247314453125000 0.000207369186682626605033874512 -0.004821637645363807678222656250 0 0 0 0 
2414166666.6666665077 0.173620134592056302169638115629 -0.050682883709669113159179687500 -0.000086419029685202986001968384 -0.004753344226628541946411132812 0 0 0 0 
2414333333.3333334923 0.174066096544265802581463731258 -0.051794853061437606811523437500 -0.000353864743374288082122802734 -0.004727762192487716674804687500 0 0 0 0 
2414500000.0000000000 0.174855813384056091308593750000 -0.053022190928459167480468750000 -0.000557634455617517232894897461 -0.004384848289191722869873046875 0 0 0 0 
2414666666.6666665077 0.175230398774147005935830634371 -0.053874406963586807250976562500 -0.000826733710709959268569946289 -0.004407249856740236282348632812 0 0 0 0 
2414833333.3333334923 0.175784394145011901855468750000 -0.055018436163663857196848283593 -0.000975298404227942228317260742 -0.004393266048282384872436523438 0 0 0 0 
2415000000.0000000000 0.176277503371238708496093750000 -0.055834863334894180297851562500 -0.001142916386015712998033833081 -0.004169404972344636917114257812 0 0 0 0 
2415166666.6666665077 0.176696628332138089279013115629 -0.056539494544267647480051408593 -0.001343289157375693104387592847 -0.004120975267142057418823242188 0 0 0 0 
2415333333.3333334923 0.177221223711967496017294365629 -0.057206399738788611675222028907 -0.001500372192822396972058940356 -0.003987539093941450119018554688 0 0 0 0 
2415500000.0000000000 0.177517488598823602874432481258 -0.057831533253192901611328125000 -0.001726918504573405005811381763 -0.003858528798446058793308877100 0 0 0 0 
2415666666.6666665077 0.177695214748382596114950615629 -0.058172680437564849853515625000 -0.001767672481946646950365376050 -0.003708762582391500906703329932 0 0 0 0 
2415833333.3333334923 0.177953481674194308181924384371 -0.058702882379293441772460937500 -0.001790358801372349045397114331 -0.003520345082506537003758095850 0 0 0 0 
2416000000.0000000000 0.178048044443130493164062500000 -0.059201117604970932006835937500 -0.002148180501535534858703613281 -0.003295877715572714805603027344 0 0 0 0 
2416166666.6666665077 0.178182885050773592849893134371 -0.059386625885963439941406250000 -0.002202354138717054887058877100 -0.003064969554543495178222656250 0 0 0 0 
2416333333.3333334923 0.178077057003974886795205634371 -0.059737130999565131450612653907 -0.002253958722576498985290527344 -0.002972822170704603195190429688 0 0 0 0 
2416500000.0000000000 0.178018212318420410156250000000 -0.059913605451583862304687500000 -0.002309208037331699891331338037 -0.002718158066272736029383993994 0 0 0 0 
2416666666.6666665077 0.177739322185516412933026231258 -0.060167673975229263305664062500 -0.002503943862393497987034463037 -0.002598138293251394791844033350 0 0 0 0 
2416833333.3333334923 0.177623614668846102615518134371 -0.060410514473915100097656250000 -0.002500314265489577813389443506 -0.002304380992427467866184853662 0 0 0 0 
2417000000.0000000000 0.176988378167152404785156250000 -0.060494825243949890136718750000 -0.002517533488571643829345703125 -0.002206739969551562829258584131 0 0 0 0 
2417166666.6666665077 0.176565140485763605315838731258 -0.060713235288858406757395158593 -0.002471431391313672065734863281 -0.002085847314447164969203329932 0 0 0 0 
2417333333.3333334923 0.176077574491500910003338731258 -0.060715451836585998535156250000 -0.002555621787905693054199218750 -0.001749183982610702948329306494 0 0 0 0 
2417500000.0000000000 0.175351828336715698242187500000 -0.061173088848590850830078125000 -0.002520487643778324127197265625 -0.001795046846382319927215576172 0 0 0 0 
2417666666.6666665077 0.174801662564277704436932481258 -0.061180293560028083110768903907 -0.002438209950923920111415243994 -0.001476645004004240036010742188 0 0 0 0 
2417833333.3333334923 0.173907995223998995681924384371 -0.061401311308145523071289062500 -0.002318526618182659149169921875 -0.001456655678339302973506308447 0 0 0 0 
2418000000.0000000000 0.172854289412498501876669365629 -0.061773326247930526733398437500 -0.002378312638029456138610839844 -0.001214037067256868102430034106 0 0 0 0 
2418166666.6666665077 0.172049000859260586837606865629 -0.061845205724239349365234375000 -0.002431013854220509962794638525 -0.001205838285386561913731240381 0 0 0 0 
2418333333.3333334923 0.171216920018196105957031250000 -0.062407281249761581420898437500 -0.002382104517892003059387207031 -0.001023430027998984076856303638 0 0 0 0 
2418500000.0000000000 0.170067444443702697753906250000 -0.062870480120182037353515625000 -0.002341724699363112015965127100 -0.000853776931762695312500000000 0 0 0 0 
2418666666.6666665077 0.169015914201736505706463731258 -0.063275955617427825927734375000 -0.002315231598913670019862509619 -0.000677236414048820734024047852 0 0 0 0 
2418833333.3333334923 0.167636260390281705001669365629 -0.063907712697982788085937500000 -0.002276286017149686813354492188 -0.000832110468763858079910278320 0 0 0 0 
2419000000.0000000000 0.166370853781700106521768134371 -0.064493879675865173339843750000 -0.002207925543189049200770712744 -0.000621531391516327857971191406 0 0 0 0 
2419166666.6666665077 0.165264144539833096603231865629 -0.065079018473625183105468750000 -0.002095670672133564949035644531 -0.000356811011442914605140686035 0 0 0 0 
2419333333.3333334923 0.163942739367485101897869981258 -0.065650910139083862304687500000 -0.002079396275803447203395224463 -0.000357536133378744125366210938 0 0 0 0 
2419500000.0000000000 0.162718936800956698318643134371 -0.066726669669151306152343750000 -0.002035058569163084030151367188 -0.000169442369951866594239911490 0 0 0 0 
2419666666.6666665077 0.161529019474983187576455634371 -0.067539595067501068115234375000 -0.001935268868692219040514301831 -0.000213419072679244008943280630 0 0 0 0 
2419833333.3333334923 0.160383790731430109222088731258 -0.068411655724048614501953125000 -0.001866349950432776971104287256 -0.000313732889480888789326268329 0 0 0 0 
