# Hz S RI R 
2400000000.0000000000 0.168360173702239990234375000000 0.040719062089920037006418596093 -0.001821576035581528923631977612 0.001687812036834656975389790112 0 0 0 0 
2400166666.6666665077 0.168917611241340609451455634371 0.039960447698831558227539062500 -0.001661472371779382012010883862 0.001614777254872024059295654297 0 0 0 0 
2400333333.3333334923 0.169353798031807001311932481258 0.039161853492259979248046875000 -0.001589499763213098049163818359 0.001466659829020499966265034253 0 0 0 0 
2400500000.0000000000 0.169941514730453491210937500000 0.038143705576658248901367187500 -0.001466259476728736920597695459 0.001428733463399112007738422925 0 0 0 0 
2400666666.6666665077 0.169992402195930508712606865629 0.037351589649915702129323591407 -0.001513036782853304906132363428 0.001454439945518970923182822119 0 0 0 0 
2400833333.3333334923 0.170448765158653287032919365629 0.036591075360774986957590471093 -0.001492985174991189999821328271 0.001303177676163614013074565356 0 0 0 0 
2401000000.0000000000 0.170844882726669311523437500000 0.035750553011894233013112653907 -0.001428004703484476046321249854 0.001280899508856236934661865234 0 0 0 0 
2401166666.6666665077 0.171105608344078091720419365629 0.034845639020204537128488908593 -0.001482916530221701102015829932 0.001386920106597244956372905200 0 0 0 0 
2401333333.3333334923 0.171158522367477389236611884371 0.034002941101789467548410783593 -0.001551580848172307014465332031 0.001467344700358808040618896484 0 0 0 0 
2401500000.0000000000 0.171503469347953796386718750000 0.033245805650949478149414062500 -0.001773652154952288107631064307 0.001384485280141233964207314600 0 0 0 0 
2401666666.6666665077 0.171472296118736294845419365629 0.032456573098897927021067033593 -0.001604425488039850971819233472 0.001346747274510561986210488428 0 0 0 0 
2401833333.3333334923 0.171610593795776394943075615629 0.031615670770406723022460937500 -0.001615166780538856983184814453 0.001520459540188312964198447119 0 0 0 0 
2402000000.0000000000 0.171585887670516995529013115629 0.030662829056382179260253906250 -0.001684491056948900005937885815 0.001540828612633049921748495947 0 0 0 0 
2402166666.6666665077 0.171546980738639803787393134371 0.029780240729451179504394531250 -0.001711605698801577091217041016 0.001657644053921103911158896338 0 0 0 0 
2402333333.3333334923 0.171406537294387789627236884371 0.028824672102928161621093750000 -0.001962311333045362992527627100 0.001792472554370760917663574219 0 0 0 0 
2402500000.0000000000 0.171746447682380704025106865629 0.028051570057868960988978201954 -0.001809033332392572922947548975 0.001847637817263602993608784253 0 0 0 0 
2402666666.6666665077 0.171594753861427307128906250000 0.027028942480683330190638358204 -0.001751138595864176967023539966 0.001886346726678312041639018481 0 0 0 0 
2402833333.3333334923 0.171613648533821105957031250000 0.026037050411105159414271170704 -0.001557623269036412022234272534 0.001968035008758306936976767432 0 0 0 0 
2403000000.0000000000 0.171377912163734408279580634371 0.024974096566438678396204764454 -0.001443952205590903975843120044 0.002063650405034422874450683594 0 0 0 0 
2403166666.6666665077 0.171345010399818392654580634371 0.023777801543474200857142264454 -0.001330721774138510010362934644 0.002227979479357600212097167969 0 0 0 0 
2403333333.3333334923 0.171349853277206393142861884371 0.022631458938121799123743826954 -0.001211912836879492022870707935 0.002184434328228234811070107568 0 0 0 0 
2403500000.0000000000 0.171014010906219510177450615629 0.021568655967712398874303048046 -0.001122201792895793914794921875 0.002183968434110283851623535156 0 0 0 0 
2403666666.6666665077 0.170831948518753107268963731258 0.020184021443128589284876639454 -0.001252329442650079944013286060 0.002125469036400318145751953125 0 0 0 0 
2403833333.3333334923 0.170798376202583312988281250000 0.018880836665630340576171875000 -0.001062415540218353054643940503 0.002417529234662652015686035156 0 0 0 0 
2404000000.0000000000 0.170712202787399291992187500000 0.017687797546386718750000000000 -0.000839330081362277269363403320 0.002142990939319134192225790869 0 0 0 0 
2404166666.6666665077 0.170693725347518893142861884371 0.016185553744435310363769531250 -0.001055611181072890975354838794 0.002337420359253882928135537256 0 0 0 0 
2404333333.3333334923 0.170365899801254300216513115629 0.015026907436549660074254219921 -0.000975318253040313720703125000 0.002325170207768679098842001807 0 0 0 0 
2404500000.0000000000 0.170045122504234286209268134371 0.013519745320081710815429687500 -0.000838653417304158210754394531 0.002289549214765429930446005713 0 0 0 0 
2404666666.6666665077 0.170149967074394198318643134371 0.012408621609210969752301600977 -0.000705419748555868864059448242 0.002185315359383821921107626807 0 0 0 0 
2404833333.3333334923 0.170172840356826809982138115629 0.010925465263426300394078438671 -0.000775301072280853986740112305 0.002280166605487465858459472656 0 0 0 0 
2405000000.0000000000 0.170035928487777709960937500000 0.009217434562742710113525390625 -0.000586216570809483528137207031 0.002225286560133099989650107275 0 0 0 0 
2405166666.6666665077 0.170043513178825406173544365629 0.007827914319932460784912109375 -0.000643178005702793598175048828 0.002138573443517088890075683594 0 0 0 0 
2405333333.3333334923 0.170044586062431307693643134371 0.006007742602378129959106445312 -0.000374126771930605173110961914 0.002273931633681058883666992188 0 0 0 0 
2405500000.0000000000 0.170007184147834805587606865629 0.004630567505955696105957031250 -0.000483916344819590503543299542 0.002232584403827786011936806787 0 0 0 0 
2405666666.6666665077 0.169864758849144009689169365629 0.002935839118435978889465332031 -0.000479837734019383788108825684 0.002294616773724555969238281250 0 0 0 0 
2405833333.3333334923 0.169732019305229187011718750000 0.001472814823500812053680419922 -0.000363386294338852221339625226 0.002230814890936017036437988281 0 0 0 0 
2406000000.0000000000 0.169816985726356506347656250000 -0.000349087495123967474133092059 -0.000345730659319087917178553448 0.002173641929402946992161416162 0 0 0 0 
2406166666.6666665077 0.169527545571327209472656250000 -0.001745463814586400985717773438 -0.000356239936081692576408386230 0.002157374517992138862609863281 0 0 0 0 
2406333333.3333334923 0.169623672962188692947549384371 -0.003422924550250173048732138525 -0.000199956251890398589059552603 0.002174598164856433868408203125 0 0 0 0 
2406500000.0000000000 0.169391885399818392654580634371 -0.005053398665040731430053710938 -0.000252480007475242018699645996 0.002316077006980776786804199219 0 0 0 0 
2406666666.6666665077 0.169338881969451904296875000000 -0.006635200697928667068481445312 -0.000254982558544725179672241211 0.002292204415425657792332314600 0 0 0 0 
2406833333.3333334923 0.169202581048011807540731865629 -0.008256927132606506347656250000 -0.000257007806794717907905578613 0.002238122280687094168422079932 0 0 0 0 
2407000000.0000000000 0.169148787856101989746093750000 -0.009726128540933132171630859375 -0.000196719018276780789524632587 0.002379459328949451012852334131 0 0 0 0 
2407166666.6666665077 0.169071123003959711272869981258 -0.011105174198746679478655430273 -0.000135198002681136104181566782 0.002349909860640763802769326318 0 0 0 0 
2407333333.3333334923 0.168726563453674288650674384371 -0.012636318802833560598353201954 -0.000039986527553992352705409391 0.002552883466705679893493652344 0 0 0 0 
2407500000.0000000000 0.168699160218238802810830634371 -0.013752145692706109827985194727 -0.000042489817133173353295733793 0.002373143564909697012660361182 0 0 0 0 
2407666666.6666665077 0.168597623705864008147869981258 -0.014958798885345460719098475977 0.000179618917172774699613294058 0.002628368092700839042663574219 0 0 0 0 
2407833333.3333334923 0.168288141489028902908486884371 -0.016396448016166690481165701954 0.000250659795710816979408264160 0.002641991944983602003810263525 0 0 0 0 
2408000000.0000000000 0.168192356824874905685263115629 -0.017508070915937420236607735546 0.000420885276980698108673095703 0.002587081398814917044398642432 0 0 0 0 
2408166666.6666665077 0.168113842606544494628906250000 -0.018313888460397720336914062500 0.000447452825028449296951293945 0.002582493005320429801940917969 0 0 0 0 
2408333333.3333334923 0.168453857302665710449218750000 -0.019309725612401958810826485546 0.000762419134844094514846801758 0.002645764732733368873596191406 0 0 0 0 
2408500000.0000000000 0.168236464262008694747763115629 -0.020299818366765979421595389454 0.000743423181120306253433227539 0.002542846370488404793980263818 0 0 0 0 
2408666666.6666665077 0.168262392282485989669638115629 -0.021248180419206619262695312500 0.000855844118632376194000244141 0.002274102531373500823974609375 0 0 0 0 
2408833333.3333334923 0.168264403939247103592080634371 -0.022034259513020518911341483204 0.000831115234177559614181518555 0.002379341283813118934631347656 0 0 0 0 
2409000000.0000000000 0.168373852968215886871661268742 -0.022808687761425968515416329296 0.000973811198491603136062622070 0.002381687518209218978881835938 0 0 0 0 
2409166666.6666665077 0.168577492237091092208700615629 -0.023778354749083518981933593750 0.001005045021884142918827675928 0.002042798092588781876804970850 0 0 0 0 
2409333333.3333334923 0.168760389089584406097088731258 -0.024561896920204159128209298046 0.001034873304888606071472167969 0.002156866015866398811340332031 0 0 0 0 
2409500000.0000000000 0.169113323092460604568643134371 -0.025662645697593688964843750000 0.001105486415326595089556049878 0.001920393086038530089734721606 0 0 0 0 
2409666666.6666665077 0.169114351272583007812500000000 -0.026480285450816151010533516796 0.001200811471790075085283588940 0.001862374716438353061676025391 0 0 0 0 
2409833333.3333334923 0.169102653861045809646768134371 -0.027216121554374698293665701954 0.000884553359355777502059936523 0.001818112097680568911908793872 0 0 0 0 
2410000000.0000000000 0.169547751545906094650106865629 -0.028023660182952880859375000000 0.000978614552877843379974365234 0.001871071872301399924634623950 0 0 0 0 
2410166666.6666665077 0.169416666030883789062500000000 -0.028890864923596378671666329296 0.000906175759155303239822387695 0.001810612156987190029741596753 0 0 0 0 
2410333333.3333334923 0.169515430927276611328125000000 -0.029864845797419551504114920704 0.000764834461733698844909667969 0.001924695563502609946607280200 0 0 0 0 
2410500000.0000000000 0.169418767094612093826455634371 -0.030638096854090690612792968750 0.000815541716292500495910644531 0.001721329404972494082209921729 0 0 0 0 
2410666666.6666665077 0.169484466314315795898437500000 -0.031655430793762207031250000000 0.000928710331209003925323486328 0.001835877774283289909362792969 0 0 0 0 
2410833333.3333334923 0.169453620910644503494424384371 -0.032498046755790710449218750000 0.000771839811932295560836791992 0.001967622200027108192443847656 0 0 0 0 
2411000000.0000000000 0.169206723570823697189169365629 -0.033305749297142028808593750000 0.000774743675719946622848510742 0.002114787930622696876525878906 0 0 0 0 
2411166666.6666665077 0.169125184416770907303018134371 -0.034374006092548370361328125000 0.000902393425349146127700805664 0.002220794558525085015537881006 0 0 0 0 
2411333333.3333334923 0.168868288397789001464843750000 -0.035164531320333480834960937500 0.000790461781434714794158935547 0.002180049195885657830479287256 0 0 0 0 
2411500000.0000000000 0.168511256575584411621093750000 -0.036164019256830222392995466407 0.000920710037462413311004638672 0.002205053810030221939086914062 0 0 0 0 
2411666666.6666665077 0.168491974472999600509481865629 -0.036793723702430732036550153907 0.000912887044250965118408203125 0.002430516527965664863586425781 0 0 0 0 
2411833333.3333334923 0.168364971876144409179687500000 -0.037471208721399307250976562500 0.001049309968948364040972065503 0.002337051089853047890904091943 0 0 0 0 
2412000000.0000000000 0.167873293161392211914062500000 -0.038498472422361366962473283593 0.001284948666580020947697304834 0.002461006864905356927158974756 0 0 0 0 
2412166666.6666665077 0.167658150196075411697549384371 -0.039622355252504348754882812500 0.001310215680859982967376708984 0.002500964328646659851074218750 0 0 0 0 
2412333333.3333334923 0.167468354105949401855468750000 -0.040392003953456878662109375000 0.001393692102283238930943154443 0.002510503167286514802220009912 0 0 0 0 
2412500000.0000000000 0.166930720210075406173544365629 -0.041251130402088172222097028907 0.001485551823861896991729736328 0.002681140555068850950953818213 0 0 0 0 
2412666666.6666665077 0.166501119732856805999432481258 -0.042329404503107070922851562500 0.001617002417333424091339111328 0.002666621701791882948634482275 0 0 0 0 
2412833333.3333334923 0.166250839829444913009481865629 -0.043323751538991928100585937500 0.001958942506462336020228720557 0.002667342079803348021266318213 0 0 0 0 
2413000000.0000000000 0.165609866380691500564736884371 -0.044244118034839630126953125000 0.001977540319785476164576865088 0.002545461757108569145202636719 0 0 0 0 
2413166666.6666665077 0.165288046002388000488281250000 -0.045312378555536270141601562500 0.002201703377068043188807822119 0.002564666327089070840122841943 0 0 0 0 
2413333333.3333334923 0.164655119180679293533486884371 -0.046054579317569732666015625000 0.002528062090277671813964843750 0.002570030279457569122314453125 0 0 0 0 
2413500000.0000000000 0.164159849286079406738281250000 -0.047258000820875167846679687500 0.002799448557198048071620322119 0.002393415197730063958408974756 0 0 0 0 
2413666666.6666665077 0.163837194442748995681924384371 -0.048314429819583892822265625000 0.002933611627668141885044716943 0.002358261961489915847778320312 0 0 0 0 
2413833333.3333334923 0.163119882345199612716513115629 -0.049215529114007949829101562500 0.003026491729542613029479980469 0.002058728132396935982945107568 0 0 0 0 
2414000000.0000000000 0.162661284208297701736611884371 -0.050274528563022606586496721093 0.003262737533077598051783896338 0.002085444983094931082484579932 0 0 0 0 
2414166666.6666665077 0.162402555346489008147869981258 -0.051275510340929031372070312500 0.003263294231146574020385742188 0.001924415235407650904414511572 0 0 0 0 
2414333333.3333334923 0.162064865231514004806356865629 -0.052294325083494193340261091407 0.003580553224310278892517089844 0.001600628253072500012041401440 0 0 0 0 
2414500000.0000000000 0.161845117807388305664062500000 -0.053289569914340972900390625000 0.003529137698933482170104980469 0.001421040506102144935010600513 0 0 0 0 
2414666666.6666665077 0.161327764391899108886718750000 -0.054240446537733078002929687500 0.003697011386975646018981933594 0.001323002041317522959468222510 0 0 0 0 
2414833333.3333334923 0.160939261317253112792968750000 -0.055269673466682427143137346093 0.003514888463541864915135048975 0.001093994709663093090057373047 0 0 0 0 
2415000000.0000000000 0.160700350999832208831463731258 -0.056264441460371017456054687500 0.003559655742719769911525107275 0.000957563577685505151748657227 0 0 0 0 
2415166666.6666665077 0.160429745912551907638388115629 -0.057436816394329071044921875000 0.003667666809633374214172363281 0.000576687045395374298095703125 0 0 0 0 
2415333333.3333334923 0.160349115729331997970419365629 -0.058643721044063568115234375000 0.003535877447575331167933798682 0.000368609704310074502795618878 0 0 0 0 
2415500000.0000000000 0.160254746675491305252236884371 -0.059604704380035400390625000000 0.003607250051572918891906738281 0.000293509365292266011238098145 0 0 0 0 
2415666666.6666665077 0.159996718168258694747763115629 -0.060827713459730148315429687500 0.003551611676812171936035156250 0.000196504915948025909349164420 0 0 0 0 
2415833333.3333334923 0.159876748919486999511718750000 -0.062110695987939841533620466407 0.003750561270862818197963095557 0.000054908163292566307563374178 0 0 0 0 
2416000000.0000000000 0.159548550844192504882812500000 -0.063337899744510650634765625000 0.003467264818027615980861044775 0.000012560067261802029201780626 0 0 0 0 
2416166666.6666665077 0.159521043300628689864950615629 -0.064586706459522247314453125000 0.003457641694694757895228720557 -0.000131271590362303013175410138 0 0 0 0 
2416333333.3333334923 0.159171149134635897537393134371 -0.065770499408245086669921875000 0.003456399776041508154628134619 -0.000344606552971526980400085449 0 0 0 0 
2416500000.0000000000 0.159040644764900207519531250000 -0.067072302103042602539062500000 0.003386248834431170983555459131 -0.000553811201825737953186035156 0 0 0 0 
2416666666.6666665077 0.158603996038436889648437500000 -0.068108223378658294677734375000 0.003334351349622011184692382812 -0.000626005989033728837966918945 0 0 0 0 
2416833333.3333334923 0.158454179763794000823651231258 -0.069493003189563751220703125000 0.003172700991854072050807333838 -0.000679258082527667284011840820 0 0 0 0 
2417000000.0000000000 0.157940089702606201171875000000 -0.070564925670623779296875000000 0.003233310999348760084864951025 -0.000786844000685960054397583008 0 0 0 0 
2417166666.6666665077 0.157674849033355712890625000000 -0.071574762463569641113281250000 0.003072193125262856917140341650 -0.000713422952685505151748657227 0 0 0 0 
2417333333.3333334923 0.157390654087066705901776231258 -0.072611823678016662597656250000 0.003155347192659974098205566406 -0.000944744038861244916915893555 0 0 0 0 
2417500000.0000000000 0.157061278820037786285723768742 -0.073796868324279785156250000000 0.003108604345470666885375976562 -0.001037577516399323940277099609 0 0 0 0 
2417666666.6666665077 0.156761690974235506912393134371 -0.074612461030483245849609375000 0.002932550152763723893406533350 -0.001115299179218709902522421729 0 0 0 0 
2417833333.3333334923 0.156462207436561612228231865629 -0.075501099228858947753906250000 0.002857647603377699851989746094 -0.001071752281859517097473144531 0 0 0 0 
2418000000.0000000000 0.156143084168434087555255018742 -0.076421320438385009765625000000 0.002848585601896048025843954932 -0.001261853380128741047502827222 0 0 0 0 
2418166666.6666665077 0.155885547399520901779013115629 -0.077042803168296813964843750000 0.002800774527713655991795205225 -0.001416275510564446015598916162 0 0 0 0 
2418333333.3333334923 0.155908763408660888671875000000 -0.078087233006954193115234375000 0.002716912189498544172999716650 -0.001487279892899096012115478516 0 0 0 0 
2418500000.0000000000 0.155550032854080200195312500000 -0.078786469995975494384765625000 0.002691062865778803825378417969 -0.001659675268456340052961039966 0 0 0 0 
2418666666.6666665077 0.155437439680099487304687500000 -0.079612784087657928466796875000 0.002506977645680307908299111475 -0.001696672057732939936994243091 0 0 0 0 
2418833333.3333334923 0.155038163065910311599893134371 -0.080454140901565551757812500000 0.002619402017444372177124023438 -0.001769925584085286097285605322 0 0 0 0 
2419000000.0000000000 0.154647901654243496993856865629 -0.081068426370620727539062500000 0.002381169470027089118957519531 -0.001768664689734577915788960034 0 0 0 0 
2419166666.6666665077 0.154466718435287503341513115629 -0.081879474222660064697265625000 0.002328829374164342880249023438 -0.001966773997992277145385742188 0 0 0 0 
2419333333.3333334923 0.153907120227813692947549384371 -0.082227244973182678222656250000 0.002071051159873605208155966650 -0.001898769172839819951298379053 0 0 0 0 
2419500000.0000000000 0.153666675090789794921875000000 -0.083167292177677154541015625000 0.002077654004096984863281250000 -0.002056552330031991004943847656 0 0 0 0 
2419666666.6666665077 0.153454110026359613616619981258 -0.083796553313732147216796875000 0.002107140375301241874694824219 -0.002020257757976651191711425781 0 0 0 0 
2419833333.3333334923 0.152971595525741604904013115629 -0.084143973886966705322265625000 0.001894359709694982008693076025 -0.002008571987971663908717490088 0 0 0 0 
