# Version 1.00
#
freq[Hz];re:Trc1_S11;im:Trc1_S11;re:Trc2_S21;im:Trc2_S21;
2.400000000000000E+009;1.676422804594040E-001;4.109588637948036E-002;-2.594128309283406E-004;-3.856065683066845E-003;
2.400166666666667E+009;1.683459579944611E-001;4.041792824864388E-002;-4.249097255524248E-004;-3.911168314516544E-003;
2.400333333333334E+009;1.687235385179520E-001;3.937980160117149E-002;-6.269794539548457E-004;-3.909934777766466E-003;
2.400500000000000E+009;1.692229807376862E-001;3.849627450108528E-002;-8.309161057695746E-004;-3.974701277911663E-003;
2.400666666666667E+009;1.696349233388901E-001;3.754150867462158E-002;-9.598783217370510E-004;-4.016550257802010E-003;
2.400833333333334E+009;1.700955331325531E-001;3.666884079575539E-002;-1.179179525934160E-003;-3.717286977916956E-003;
2.401000000000000E+009;1.703321188688278E-001;3.591766208410263E-002;-1.328596612438560E-003;-3.791365073993802E-003;
2.401166666666667E+009;1.705409735441208E-001;3.487255796790123E-002;-1.540770288556814E-003;-3.626907477155328E-003;
2.401333333333334E+009;1.707341074943543E-001;3.393274918198586E-002;-1.794883050024509E-003;-3.696905914694071E-003;
2.401500000000000E+009;1.709181964397430E-001;3.297005966305733E-002;-1.944640185683966E-003;-3.515880322083831E-003;
2.401666666666667E+009;1.708972603082657E-001;3.222925215959549E-002;-2.055019605904818E-003;-3.405197756364942E-003;
2.401833333333334E+009;1.709877252578735E-001;3.126703202724457E-002;-2.143599791452289E-003;-3.290418535470963E-003;
2.402000000000000E+009;1.709831953048706E-001;3.046139888465405E-002;-2.304446883499622E-003;-3.377732587978244E-003;
2.402166666666667E+009;1.712372750043869E-001;2.949281223118305E-002;-2.493707463145256E-003;-2.981877187266946E-003;
2.402333333333334E+009;1.711767613887787E-001;2.848588302731514E-002;-2.507078927010298E-003;-2.926057903096080E-003;
2.402500000000000E+009;1.711446344852448E-001;2.752188034355640E-002;-2.441346412524581E-003;-2.851537428796291E-003;
2.402666666666667E+009;1.712832301855087E-001;2.652147226035595E-002;-2.678791526705027E-003;-2.771690720692277E-003;
2.402833333333334E+009;1.711308360099793E-001;2.545156143605709E-002;-2.629051450639963E-003;-2.567698713392019E-003;
2.403000000000000E+009;1.709861010313034E-001;2.469163015484810E-002;-2.612343523651362E-003;-2.432960085570812E-003;
2.403166666666667E+009;1.712402999401093E-001;2.330487594008446E-002;-2.669733483344317E-003;-2.490512095391750E-003;
2.403333333333334E+009;1.711038053035736E-001;2.237994410097599E-002;-2.786952070891857E-003;-2.382550621405244E-003;
2.403500000000000E+009;1.707235276699066E-001;2.108812518417835E-002;-2.919647609815002E-003;-2.278838306665421E-003;
2.403666666666667E+009;1.706481724977493E-001;1.987311057746410E-002;-2.933112205937505E-003;-2.277461579069495E-003;
2.403833333333334E+009;1.706698089838028E-001;1.872040890157223E-002;-2.982439007610083E-003;-2.081388840451837E-003;
2.404000000000000E+009;1.706093996763229E-001;1.740854978561401E-002;-3.083799034357071E-003;-1.858755247667432E-003;
2.404166666666667E+009;1.704990416765213E-001;1.617204025387764E-002;-3.044426906853914E-003;-1.607413636520505E-003;
2.404333333333334E+009;1.704339981079102E-001;1.489889807999134E-002;-3.270562272518873E-003;-1.654190360568464E-003;
2.404500000000000E+009;1.702410429716110E-001;1.338000781834126E-002;-3.250947222113609E-003;-1.524783554486930E-003;
2.404666666666667E+009;1.702067404985428E-001;1.208947971463203E-002;-3.091776277869940E-003;-1.432159799151123E-003;
2.404833333333334E+009;1.701872795820236E-001;1.074175629764795E-002;-3.176407422870398E-003;-1.252206740900874E-003;
2.405000000000000E+009;1.702146381139755E-001;9.183677844703198E-003;-3.236121498048306E-003;-1.261408673599362E-003;
2.405166666666667E+009;1.702369302511215E-001;7.770859170705080E-003;-2.989216009154916E-003;-9.856151882559061E-004;
2.405333333333334E+009;1.703841537237167E-001;6.041555665433407E-003;-3.134621074423194E-003;-8.904255810193718E-004;
2.405500000000000E+009;1.703218668699265E-001;4.672876093536615E-003;-3.044824814423919E-003;-8.951766649261117E-004;
2.405666666666667E+009;1.703923940658569E-001;2.961877034977078E-003;-3.043015720322728E-003;-8.006005082279444E-004;
2.405833333333334E+009;1.701430380344391E-001;1.603610464371741E-003;-2.816679654642940E-003;-9.175239247269929E-004;
2.406000000000000E+009;1.701959669589996E-001;-2.089339541271329E-004;-3.059025853872299E-003;-9.300098172388971E-004;
2.406166666666667E+009;1.700727492570877E-001;-1.677981461398304E-003;-3.046596888452768E-003;-9.221482905559242E-004;
2.406333333333334E+009;1.701292544603348E-001;-3.317921888083220E-003;-3.113294951617718E-003;-8.150586509145796E-004;
2.406500000000000E+009;1.700018793344498E-001;-4.940588958561420E-003;-3.133040154352784E-003;-8.642977336421609E-004;
2.406666666666667E+009;1.696624904870987E-001;-6.310160737484694E-003;-3.171658376231790E-003;-7.259022095240653E-004;
2.406833333333334E+009;1.696503311395645E-001;-7.896085269749165E-003;-3.402896691113710E-003;-6.753677153028548E-004;
2.407000000000000E+009;1.695071607828140E-001;-9.564287029206753E-003;-3.336296416819096E-003;-6.346727022901177E-004;
2.407166666666667E+009;1.694803684949875E-001;-1.082883868366480E-002;-3.492299234494567E-003;-6.214749300852418E-004;
2.407333333333334E+009;1.691092103719711E-001;-1.233969908207655E-002;-3.615335328504443E-003;-6.062617758288980E-004;
2.407500000000000E+009;1.688871085643768E-001;-1.353663392364979E-002;-3.523395629599690E-003;-2.353960298933089E-004;
2.407666666666667E+009;1.688084155321121E-001;-1.470012404024601E-002;-3.536886768415570E-003;-2.111387766490225E-005;
2.407833333333334E+009;1.684253215789795E-001;-1.596846990287304E-002;-3.566466970369220E-003;1.953960309037939E-004;
2.408000000000000E+009;1.683999001979828E-001;-1.689798571169376E-002;-3.482958534732461E-003;3.621481591835618E-004;
2.408166666666667E+009;1.681786775588989E-001;-1.779361255466938E-002;-3.561939112842083E-003;4.200869880151004E-004;
2.408333333333334E+009;1.683838218450546E-001;-1.874646730720997E-002;-3.557739080861211E-003;6.124811479821801E-004;
2.408500000000000E+009;1.682868599891663E-001;-1.977069303393364E-002;-3.363096155226231E-003;7.507796399295330E-004;
2.408666666666667E+009;1.682590842247009E-001;-2.076349034905434E-002;-3.357944544404745E-003;8.642557659186423E-004;
2.408833333333334E+009;1.682405471801758E-001;-2.163055911660194E-002;-3.250888548791409E-003;8.234173292294145E-004;
2.409000000000000E+009;1.683336645364761E-001;-2.244346588850021E-002;-3.181905485689640E-003;8.573041995987296E-004;
2.409166666666667E+009;1.685171872377396E-001;-2.328733541071415E-002;-3.092971630394459E-003;1.069512567482889E-003;
2.409333333333334E+009;1.687212288379669E-001;-2.424115128815174E-002;-2.984865335747600E-003;1.114342361688614E-003;
2.409500000000000E+009;1.687554568052292E-001;-2.525139600038528E-002;-3.062258940190077E-003;1.262220670469105E-003;
2.409666666666667E+009;1.688117980957031E-001;-2.604546025395393E-002;-2.855885075405240E-003;1.232609385624528E-003;
2.409833333333334E+009;1.689663827419281E-001;-2.692800574004650E-002;-2.687126863747835E-003;1.389189274050295E-003;
2.410000000000000E+009;1.690685451030731E-001;-2.767813950777054E-002;-2.793997991830111E-003;1.220339909195900E-003;
2.410166666666667E+009;1.689934730529785E-001;-2.864074148237705E-002;-2.570379292592406E-003;1.307253725826740E-003;
2.410333333333334E+009;1.691099405288696E-001;-2.951945550739765E-002;-2.528752200305462E-003;1.296673784963787E-003;
2.410500000000000E+009;1.690985560417175E-001;-3.044316172599793E-002;-2.657299628481269E-003;1.316642505116761E-003;
2.410666666666667E+009;1.688594371080399E-001;-3.143119812011719E-002;-2.515787724405527E-003;1.343359937891364E-003;
2.410833333333334E+009;1.689172089099884E-001;-3.226542100310326E-002;-2.427948173135519E-003;1.384270843118429E-003;
2.411000000000000E+009;1.688078492879868E-001;-3.327126055955887E-002;-2.572242170572281E-003;1.269400934688747E-003;
2.411166666666667E+009;1.685156673192978E-001;-3.431158885359764E-002;-2.415092429146171E-003;1.330236787907779E-003;
2.411333333333334E+009;1.683528423309326E-001;-3.506245836615562E-002;-2.623750828206539E-003;1.194749027490616E-003;
2.411500000000000E+009;1.680516749620438E-001;-3.606278449296951E-002;-2.636907156556845E-003;1.408956246450543E-003;
2.411666666666667E+009;1.678390353918076E-001;-3.685470670461655E-002;-2.734468318521977E-003;1.305311569012702E-003;
2.411833333333334E+009;1.677077859640122E-001;-3.775030747056007E-002;-2.658756216987968E-003;1.537704258225858E-003;
2.412000000000000E+009;1.673709154129028E-001;-3.870368748903275E-002;-2.855042461305857E-003;1.684128772467375E-003;
2.412166666666667E+009;1.670573353767395E-001;-3.950443491339684E-002;-2.899582497775555E-003;1.666341675445437E-003;
2.412333333333334E+009;1.669699996709824E-001;-4.066559672355652E-002;-2.762335818260908E-003;1.751015195623040E-003;
2.412500000000000E+009;1.663523465394974E-001;-4.135608673095703E-002;-2.958315424621105E-003;1.956978347152472E-003;
2.412666666666667E+009;1.662396639585495E-001;-4.250174015760422E-002;-2.915407530963421E-003;2.193920081481338E-003;
2.412833333333334E+009;1.657862365245819E-001;-4.357833787798882E-002;-2.838548738509417E-003;2.303280634805560E-003;
2.413000000000000E+009;1.653205007314682E-001;-4.451206699013710E-002;-2.788913901895285E-003;2.555665560066700E-003;
2.413166666666667E+009;1.650069653987885E-001;-4.544754698872566E-002;-2.734521403908730E-003;2.718610456213355E-003;
2.413333333333334E+009;1.642556786537170E-001;-4.657189920544624E-002;-2.651731017976999E-003;2.876647980883718E-003;
2.413500000000000E+009;1.640633493661881E-001;-4.760297387838364E-002;-2.456900663673878E-003;2.963745268061757E-003;
2.413666666666667E+009;1.637130528688431E-001;-4.880239441990852E-002;-2.412207890301943E-003;3.132129553705454E-003;
2.413833333333334E+009;1.630810499191284E-001;-4.966820776462555E-002;-2.184929093346000E-003;3.133031539618969E-003;
2.414000000000000E+009;1.626653820276260E-001;-5.074424296617508E-002;-2.111697569489479E-003;3.295633941888809E-003;
2.414166666666667E+009;1.623491942882538E-001;-5.153169482946396E-002;-1.989844255149365E-003;3.456644481047988E-003;
2.414333333333334E+009;1.620080769062042E-001;-5.265189334750176E-002;-1.830648514442146E-003;3.523038933053613E-003;
2.414500000000000E+009;1.616653501987457E-001;-5.354803800582886E-002;-1.507223234511912E-003;3.462275257334113E-003;
2.414666666666667E+009;1.612996309995651E-001;-5.459729209542275E-002;-1.353281899355352E-003;3.348193131387234E-003;
2.414833333333334E+009;1.611351519823074E-001;-5.569872260093689E-002;-1.227367669343948E-003;3.514608601108193E-003;
2.415000000000000E+009;1.607182174921036E-001;-5.645517259836197E-002;-9.899162687361240E-004;3.588913241401315E-003;
2.415166666666667E+009;1.606534570455551E-001;-5.761205032467842E-002;-1.120532164350152E-003;3.643214236944914E-003;
2.415333333333334E+009;1.604672968387604E-001;-5.879398062825203E-002;-7.886113598942757E-004;3.672419348731637E-003;
2.415500000000000E+009;1.603570282459259E-001;-5.991746485233307E-002;-7.364721968770027E-004;3.676615655422211E-003;
2.415666666666667E+009;1.601259708404541E-001;-6.105276197195053E-002;-4.333821416366845E-004;3.571951994672418E-003;
2.415833333333334E+009;1.601060926914215E-001;-6.218567490577698E-002;-3.652555751614273E-004;3.370580729097128E-003;
2.416000000000000E+009;1.598300039768219E-001;-6.338835507631302E-002;-3.226786502636969E-004;3.407792653888464E-003;
2.416166666666667E+009;1.596810072660446E-001;-6.449650228023529E-002;-9.416884859092534E-005;3.379285801202059E-003;
2.416333333333334E+009;1.593917906284332E-001;-6.575277447700501E-002;-1.522292150184512E-004;3.326093545183539E-003;
2.416500000000000E+009;1.592498272657394E-001;-6.695159524679184E-002;-2.363426574447658E-005;3.355714259669185E-003;
2.416666666666667E+009;1.588203012943268E-001;-6.801550835371018E-002;1.098924039979465E-004;3.163902321830392E-003;
2.416833333333334E+009;1.586653739213944E-001;-6.941409409046173E-002;1.518938952358440E-004;3.162490436807275E-003;
2.417000000000000E+009;1.582758277654648E-001;-7.036204636096954E-002;2.646030625328422E-004;3.184215398505330E-003;
2.417166666666667E+009;1.578710079193115E-001;-7.134198397397995E-002;2.999307180289179E-004;3.034993307664990E-003;
2.417333333333334E+009;1.576355844736099E-001;-7.226175069808960E-002;1.952988386619836E-004;3.008803352713585E-003;
2.417500000000000E+009;1.573407649993897E-001;-7.345940172672272E-002;2.777465269900858E-004;2.892348449677229E-003;
2.417666666666667E+009;1.570862680673599E-001;-7.424829900264740E-002;4.348974616732448E-004;2.745641162618995E-003;
2.417833333333334E+009;1.567327380180359E-001;-7.508085668087006E-002;5.163500318303704E-004;2.850094810128212E-003;
2.418000000000000E+009;1.563532650470734E-001;-7.609130442142487E-002;4.102012608200312E-004;2.810190431773663E-003;
2.418166666666667E+009;1.560778915882111E-001;-7.673699408769608E-002;3.331992484163493E-004;2.651864895597100E-003;
2.418333333333334E+009;1.560301780700684E-001;-7.765931636095047E-002;5.261795013211668E-004;2.732494380325079E-003;
2.418500000000000E+009;1.556346565485001E-001;-7.844492793083191E-002;2.928655012510717E-004;2.683062339201570E-003;
2.418666666666667E+009;1.553117036819458E-001;-7.921333611011505E-002;4.083488602191210E-004;2.829883946105838E-003;
2.418833333333334E+009;1.548811495304108E-001;-7.998873293399811E-002;2.871018950827420E-004;2.702974947169423E-003;
2.419000000000000E+009;1.545671075582504E-001;-8.061882108449936E-002;5.202990141697228E-004;2.777428831905127E-003;
2.419166666666667E+009;1.541978269815445E-001;-8.124027401208878E-002;4.190466133877635E-004;2.920350059866905E-003;
2.419333333333334E+009;1.537017375230789E-001;-8.181481063365936E-002;3.730300813913345E-004;2.992052817717195E-003;
2.419500000000000E+009;1.533757150173187E-001;-8.264351636171341E-002;4.313149256631732E-004;2.949747722595930E-003;
2.419666666666667E+009;1.532047539949417E-001;-8.320081233978272E-002;4.408049862831831E-004;3.017568960785866E-003;
2.419833333333334E+009;1.526617705821991E-001;-8.363305032253265E-002;5.933418869972229E-004;3.112053964287043E-003;
2.420000000000000E+009;1.523850858211517E-001;-8.423429727554321E-002;5.897148512303829E-004;3.288611536845565E-003;
2.420166666666667E+009;1.518822312355042E-001;-8.479015529155731E-002;8.574624662287533E-004;3.359115449711680E-003;
2.420333333333334E+009;1.516553163528442E-001;-8.534849435091019E-002;8.571880171075463E-004;3.445430891588330E-003;
2.420500000000000E+009;1.513065993785858E-001;-8.575317263603210E-002;1.054065418429673E-003;3.688056487590075E-003;
2.420666666666667E+009;1.508407890796661E-001;-8.630184084177017E-002;1.214014017023146E-003;3.660107497125864E-003;
2.420833333333334E+009;1.505369246006012E-001;-8.700405806303024E-002;1.396385254338384E-003;3.612794214859605E-003;
2.421000000000000E+009;1.500633507966995E-001;-8.774576336145401E-002;1.445252448320389E-003;3.583228448405862E-003;
2.421166666666667E+009;1.496443748474121E-001;-8.841593563556671E-002;1.887233927845955E-003;3.548182779923081E-003;
2.421333333333334E+009;1.494521796703339E-001;-8.914595842361450E-002;2.102133817970753E-003;3.598782233893871E-003;
2.421500000000000E+009;1.487745493650436E-001;-8.968175202608109E-002;2.204798860475421E-003;3.519406775012612E-003;
2.421666666666667E+009;1.483386754989624E-001;-9.050018340349197E-002;2.486267592757940E-003;3.432824509218335E-003;
2.421833333333334E+009;1.476284265518189E-001;-9.129193425178528E-002;2.500452799722552E-003;3.392770653590560E-003;
2.422000000000000E+009;1.469908654689789E-001;-9.197437763214111E-002;2.669129753485322E-003;3.116280306130648E-003;
2.422166666666667E+009;1.464917808771133E-001;-9.280855953693390E-002;2.908928086981177E-003;3.088413504883647E-003;
2.422333333333334E+009;1.459096968173981E-001;-9.349949657917023E-002;2.983708633109927E-003;2.825241070240736E-003;
2.422500000000000E+009;1.451187431812286E-001;-9.419860690832138E-002;3.162205684930086E-003;2.704555867239833E-003;
2.422666666666667E+009;1.445521712303162E-001;-9.509885311126709E-002;3.256537951529026E-003;2.728490857407451E-003;
2.422833333333334E+009;1.441055238246918E-001;-9.608525782823563E-002;3.354419954121113E-003;2.517101587727666E-003;
2.423000000000000E+009;1.433219760656357E-001;-9.687040001153946E-002;3.400096902623773E-003;2.311468822881579E-003;
2.423166666666667E+009;1.428251415491104E-001;-9.767105430364609E-002;3.462943481281400E-003;2.157380804419518E-003;
2.423333333333334E+009;1.421142220497131E-001;-9.856422990560532E-002;3.488184651359916E-003;2.211177023127675E-003;
2.423500000000000E+009;1.414611786603928E-001;-9.954343736171722E-002;3.580774413421750E-003;1.904493081383407E-003;
2.423666666666667E+009;1.407729387283325E-001;-1.006327867507935E-001;3.673847299069166E-003;1.877570291981101E-003;
2.423833333333334E+009;1.401356458663940E-001;-1.015679165720940E-001;3.758582752197981E-003;1.689689001068473E-003;
2.424000000000000E+009;1.394070684909821E-001;-1.023494452238083E-001;3.799407044425607E-003;1.476692617870867E-003;
2.424166666666667E+009;1.387865245342255E-001;-1.034228056669235E-001;3.711629891768098E-003;1.458420185372233E-003;
2.424333333333334E+009;1.381733119487763E-001;-1.042026504874229E-001;3.815987845882773E-003;1.230769092217088E-003;
2.424500000000000E+009;1.375875025987625E-001;-1.053475737571716E-001;3.953841980546713E-003;1.265937113203108E-003;
2.424666666666667E+009;1.371729224920273E-001;-1.061768159270287E-001;3.988648299127817E-003;1.206986489705741E-003;
2.424833333333334E+009;1.363797485828400E-001;-1.070851758122444E-001;4.127282183617353E-003;9.410601924173534E-004;
2.425000000000000E+009;1.360359638929367E-001;-1.082872301340103E-001;4.248231183737516E-003;6.086357752792537E-004;
2.425166666666667E+009;1.352656632661820E-001;-1.092474982142448E-001;4.216553643345833E-003;6.486654747277498E-004;
2.425333333333334E+009;1.348388493061066E-001;-1.101923435926437E-001;4.091636277735233E-003;5.520923878066242E-004;
2.425500000000000E+009;1.343844830989838E-001;-1.111340001225472E-001;4.160641692578793E-003;1.995202183024958E-004;
2.425666666666667E+009;1.338747739791870E-001;-1.120589300990105E-001;4.124809987843037E-003;1.558457297505811E-004;
2.425833333333334E+009;1.333857029676437E-001;-1.130364239215851E-001;4.229526966810226E-003;-2.380074292887002E-004;
2.426000000000000E+009;1.329918503761292E-001;-1.140341982245445E-001;4.250567872077227E-003;-3.719440719578415E-004;
2.426166666666667E+009;1.326503157615662E-001;-1.151226535439491E-001;4.188269842416048E-003;-7.538981735706329E-004;
2.426333333333334E+009;1.321675628423691E-001;-1.159344837069511E-001;4.175759851932526E-003;-8.773544686846435E-004;
2.426500000000000E+009;1.317099779844284E-001;-1.168319061398506E-001;3.995789214968681E-003;-1.119322492741048E-003;
2.426666666666667E+009;1.314981579780579E-001;-1.176055818796158E-001;3.808120032772422E-003;-1.173543510958552E-003;
2.426833333333334E+009;1.309768855571747E-001;-1.185049116611481E-001;3.685130272060633E-003;-1.459829509258270E-003;
2.427000000000000E+009;1.306015700101852E-001;-1.193885803222656E-001;3.584154648706317E-003;-1.487584551796317E-003;
2.427166666666667E+009;1.302670389413834E-001;-1.200187727808952E-001;3.296631155535579E-003;-1.778078149072826E-003;
2.427333333333334E+009;1.299140304327011E-001;-1.207801401615143E-001;3.252902068197727E-003;-1.886319136247039E-003;
2.427500000000000E+009;1.296592354774475E-001;-1.214591860771179E-001;3.000021679326892E-003;-1.793713425286114E-003;
2.427666666666667E+009;1.294554024934769E-001;-1.222247704863548E-001;2.765428507700563E-003;-1.856804359704256E-003;
