# Hz S RI R 50
2400000000.0000000000 0.162950143218040494064169365629 0.059732340276241302490234375000 0.003069474129006267027613974463 0.001312776119448245005366660010 0 0 0 0 
2400166666.6666665077 0.163148090243339510818643134371 0.058480940759181983257253278907 0.003090032842010260061976767432 0.001206071232445538043975830078 0 0 0 0 
2400333333.3333334923 0.163036972284316988845986884371 0.057059612125158309936523437500 0.003281836397945880889892578125 0.001261788536794484095332480322 0 0 0 0 
2400500000.0000000000 0.163409188389778109451455634371 0.055633977055549621582031250000 0.003377644345164299011230468750 0.001261259661987423896789550781 0 0 0 0 
2400666666.6666665077 0.163279175758361788650674384371 0.053999412804842002178151716407 0.003486396744847298102137900244 0.001274990616366266987444233472 0 0 0 0 
2400833333.3333334923 0.163435071706771906097088731258 0.052570316940546042705495466407 0.003657144028693438009974814307 0.000848056690301746129989624023 0 0 0 0 
2401000000.0000000000 0.163500368595123291015625000000 0.050875835120677947998046875000 0.003870897926390171051025390625 0.000890186987817287553488576624 0 0 0 0 
2401166666.6666665077 0.163554906845092801193075615629 0.049184959381818771362304687500 0.003834129776805638833286904443 0.000799313595052808523178100586 0 0 0 0 
2401333333.3333334923 0.163652837276458712478799384371 0.047353465110063552856445312500 0.004022337030619382858276367188 0.000792225415352731943130493164 0 0 0 0 
2401500000.0000000000 0.164067357778549194335937500000 0.045884288847446441650390625000 0.004076547455042600631713867188 0.000777808832935988903045654297 0 0 0 0 
2401666666.6666665077 0.164004772901535006424111884371 0.044466067105531692504882812500 0.004272563382983207702636718750 0.000676421856041997671127319336 0 0 0 0 
2401833333.3333334923 0.164189606904983492752236884371 0.042622841894626617431640625000 0.004270184785127639770507812500 0.000351715745637193322181701660 0 0 0 0 
2402000000.0000000000 0.164161190390586908538494981258 0.041056308895349502563476562500 0.004411341622471809387207031250 0.000172992775333113995477399283 0 0 0 0 
2402166666.6666665077 0.164619147777557400802450615629 0.039286907762289047241210937500 0.004677401855587959289550781250 0.000103992169897537705585202628 0 0 0 0 
2402333333.3333334923 0.164788603782653808593750000000 0.037680726498365402221679687500 0.004822127055376768112182617188 -0.000044619093387154862284660339 0 0 0 0 
2402500000.0000000000 0.165209501981735201736611884371 0.036363992840051651000976562500 0.004956997931003571424002362988 -0.000298961880616843700408935547 0 0 0 0 
2402666666.6666665077 0.165347233414649991134481865629 0.034606002271175391460378278907 0.004935280419886112213134765625 -0.000403375044697895700305384503 0 0 0 0 
2402833333.3333334923 0.165892899036407498458700615629 0.033283833414316177368164062500 0.005110413301736116409301757812 -0.000655894458759576082229614258 0 0 0 0 
2403000000.0000000000 0.166226521134376498123330634371 0.031756807118654251098632812500 0.005089795682579278945922851562 -0.000914993637707084417343139648 0 0 0 0 
2403166666.6666665077 0.166715100407600402832031250000 0.030126482248306270944615548046 0.005261403042823076248168945312 -0.001239090110175311999080038916 0 0 0 0 
2403333333.3333334923 0.167005032300949096679687500000 0.029101131483912471425989920704 0.005042832344770432385916425488 -0.001502085244283080101013183594 0 0 0 0 
2403500000.0000000000 0.167413696646690396407919365629 0.027684422209858890878697579296 0.005137268919497728347778320312 -0.001737127662636340098140097510 0 0 0 0 
2403666666.6666665077 0.167795509099960299392861884371 0.026055475696921348571777343750 0.005135820247232913970947265625 -0.001901031588204205036163330078 0 0 0 0 
2403833333.3333334923 0.168552964925765991210937500000 0.024790773168206218374232108204 0.005299539305269718170166015625 -0.002450206782668828964233398438 0 0 0 0 
2404000000.0000000000 0.169060125946998596191406250000 0.023530375212430950510045235546 0.005226919427514076232910156250 -0.002481005620211362838745117188 0 0 0 0 
2404166666.6666665077 0.169514045119285611251669365629 0.022271748632192611694335937500 0.005139778833836317062377929688 -0.002798213390633463859558105469 0 0 0 0 
2404333333.3333334923 0.170107260346412686446981865629 0.021167669445276260375976562500 0.005153859499841929349417402051 -0.003074775682762265205383300781 0 0 0 0 
2404500000.0000000000 0.170406669378280611892861884371 0.019813021644949909555455391796 0.004917989484965801239013671875 -0.003313330234959721998927451025 0 0 0 0 
2404666666.6666665077 0.171021148562431307693643134371 0.018797665834426879882812500000 0.004814397078007459640502929688 -0.003644525771960616111755371094 0 0 0 0 
2404833333.3333334923 0.171585053205490112304687500000 0.017872912809252738952636718750 0.004702210426330566406250000000 -0.003770945826545358137843466650 0 0 0 0 
2405000000.0000000000 0.172094210982322692871093750000 0.016900680959224700927734375000 0.004385651089251041412353515625 -0.004064992535859346389770507812 0 0 0 0 
2405166666.6666665077 0.172681465744972201248330634371 0.015954714268445968627929687500 0.004331637639552354812622070312 -0.004264878109097480773925781250 0 0 0 0 
2405333333.3333334923 0.173160269856452886383380018742 0.014881539158523079263707344921 0.004094677511602640151977539062 -0.004494783002883195877075195312 0 0 0 0 
2405500000.0000000000 0.173698574304580688476562500000 0.014093744568526750046699724805 0.003870106535032391981837607275 -0.004588709678500890731811523438 0 0 0 0 
2405666666.6666665077 0.174080759286880493164062500000 0.013369856402277949941614920704 0.003670885227620602087733603369 -0.004858734086155891418457031250 0 0 0 0 
2405833333.3333334923 0.174539595842361505706463731258 0.012740599922835830343226248829 0.003360195085406302972080849756 -0.005015917122364044189453125000 0 0 0 0 
2406000000.0000000000 0.174946367740631103515625000000 0.011766064912080769974678240430 0.003119164844974875883815146338 -0.005176422186195850372314453125 0 0 0 0 
2406166666.6666665077 0.175338551402092007736044365629 0.011143391951918600255022617773 0.003073598258197308020350790869 -0.005333019886165857315063476562 0 0 0 0 
2406333333.3333334923 0.175866916775703402420205634371 0.010449145920574670273750506055 0.002780478680506349043605185400 -0.005398310720920562744140625000 0 0 0 0 
2406500000.0000000000 0.176145255565643310546875000000 0.009588100947439670562744140625 0.002479652641341090202331542969 -0.005466951988637447357177734375 0 0 0 0 
2406666666.6666665077 0.176258891820907592773437500000 0.009057128801941871643066406250 0.002253492828458548025843954932 -0.005510922987014055252075195312 0 0 0 0 
2406833333.3333334923 0.176677495241165188888388115629 0.008336747065186500549316406250 0.002087678527459501786472939600 -0.005607910454273223876953125000 0 0 0 0 
2407000000.0000000000 0.176909998059272793868856865629 0.007670139428228139877319335938 0.001850371947512031035182333838 -0.005643113516271114349365234375 0 0 0 0 
2407166666.6666665077 0.177264034748077392578125000000 0.007068579550832509994506835938 0.001602046890184283039690327222 -0.005756466183811426162719726562 0 0 0 0 
2407333333.3333334923 0.177358373999595586578692518742 0.006228966172784566879272460938 0.001390747725963592962977743994 -0.005892034154385328292846679688 0 0 0 0 
2407500000.0000000000 0.177409186959266690353231865629 0.005545529071241617202758789062 0.001262409496121108965632773291 -0.005562462378293275833129882812 0 0 0 0 
2407666666.6666665077 0.177596852183342007736044365629 0.004809543956071138381958007812 0.000891325296834111213684082031 -0.005700570996850728988647460938 0 0 0 0 
2407833333.3333334923 0.177438721060752896407919365629 0.004006894771009683609008789062 0.000691223831381648778915405273 -0.005696040578186511993408203125 0 0 0 0 
2408000000.0000000000 0.177492797374725286285723768742 0.003284621285274624824523925781 0.000545898801647126674652099609 -0.005817229393869637575631426074 0 0 0 0 
2408166666.6666665077 0.177488788962364196777343750000 0.002473508240655065016505576025 0.000333153875544667189747410907 -0.005802955478429794311523437500 0 0 0 0 
2408333333.3333334923 0.177603423595428494552450615629 0.001570720691233872933628701318 0.000153954941197298494264325552 -0.005776401143521071347708417676 0 0 0 0 
2408500000.0000000000 0.177376747131347711761151231258 0.000701305398251861333847045898 0.000071669885073788464069366455 -0.005730812437832356366629316113 0 0 0 0 
2408666666.6666665077 0.177127569913864107986611884371 -0.000221326903556473607390803204 -0.000212360566365532604142865591 -0.005873567424714565277099609375 0 0 0 0 
2408833333.3333334923 0.176942467689514187911825615629 -0.001281651086173952059504843604 -0.000469554477604106122821253644 -0.005533433519303798675537109375 0 0 0 0 
2409000000.0000000000 0.176760733127593994140625000000 -0.002154628047719597816467285156 -0.000554071622900664806365966797 -0.005602734629064798355102539062 0 0 0 0 
2409166666.6666665077 0.176535695791244506835937500000 -0.003365298500284553007838583838 -0.000656237301882356405258178711 -0.005632402841001749038696289062 0 0 0 0 
2409333333.3333334923 0.176345586776733398437500000000 -0.004388255067169666290283203125 -0.000973707647062838077545166016 -0.005580577999353408813476562500 0 0 0 0 
2409500000.0000000000 0.175926744937896700760049384371 -0.005672447383403778076171875000 -0.001005345489829779104945517432 -0.005446075927466154098510742188 0 0 0 0 
2409666666.6666665077 0.175587490200996398925781250000 -0.006679176352918148040771484375 -0.001264056190848350958583212744 -0.005532867740839719772338867188 0 0 0 0 
2409833333.3333334923 0.175406664609909113128338731258 -0.007856233976781368255615234375 -0.001429896568879484913469624097 -0.005552192684262990951538085938 0 0 0 0 
2410000000.0000000000 0.175103217363357488434161268742 -0.009068861603736877441406250000 -0.001542490674182773070094443213 -0.005299188196659088134765625000 0 0 0 0 
2410166666.6666665077 0.174780979752540588378906250000 -0.010351354256272319448450858204 -0.001727636903524399020551371997 -0.005307101178914309415335370801 0 0 0 0 
2410333333.3333334923 0.174590840935707092285156250000 -0.011634253896772859745989414648 -0.001784994383342564105987548828 -0.005327170249074698361868573926 0 0 0 0 
2410500000.0000000000 0.174260869622230502029580634371 -0.013272165320813659322718436329 -0.001789136091247200965881347656 -0.005214194301515817642211914062 0 0 0 0 
2410666666.6666665077 0.173889353871345492263955634371 -0.014797020703554149972935860546 -0.002014575060456991195678710938 -0.005175494123250246047973632812 0 0 0 0 
2410833333.3333334923 0.173734590411186190506143134371 -0.016197601333260539663294608204 -0.002299496438354254202601767432 -0.005009532906115055084228515625 0 0 0 0 
2411000000.0000000000 0.173418030142784090896768134371 -0.017620615661144260061243826954 -0.002247910946607590155360556494 -0.005016399081796407699584960938 0 0 0 0 
2411166666.6666665077 0.173106700181961087325888115629 -0.019119553267955780029296875000 -0.002498612040653824806213378906 -0.005069298204034566879272460938 0 0 0 0 
2411333333.3333334923 0.172829568386077908614950615629 -0.020706670358777049673060233204 -0.002573708770796657042262411963 -0.004840988200157880783081054688 0 0 0 0 
2411500000.0000000000 0.172725036740303011795205634371 -0.022358788177371028554896170704 -0.002629384864121675925013876807 -0.004780557006597518920898437500 0 0 0 0 
2411666666.6666665077 0.172634080052375793457031250000 -0.023846423253417018545130545704 -0.002848913893103599982020712744 -0.004988677334040403366088867188 0 0 0 0 
2411833333.3333334923 0.172432750463485690017861884371 -0.025314979255199428903599923046 -0.003075504675507545904872275244 -0.004804173484444618225097656250 0 0 0 0 
2412000000.0000000000 0.172408461570739801604901231258 -0.027040742337703708303431326954 -0.003118642605841159820556640625 -0.004688911605626344680786132812 0 0 0 0 
2412166666.6666665077 0.172201871871948186676348768742 -0.028563404455780979501744454296 -0.003446970134973526000976562500 -0.004727164283394814404959394238 0 0 0 0 
2412333333.3333334923 0.172213509678840609451455634371 -0.030229896306991580617884451954 -0.003548737149685620827915810693 -0.004600273910909891128540039062 0 0 0 0 
2412500000.0000000000 0.172125801444053705413494981258 -0.031874593347311019897460937500 -0.003712756559252738952636718750 -0.004632814787328243255615234375 0 0 0 0 
2412666666.6666665077 0.172090843319892911056356865629 -0.033399581909179687500000000000 -0.003931513521820306777954101562 -0.004459405783563852310180664062 0 0 0 0 
2412833333.3333334923 0.172250062227249201018963731258 -0.035103723406791687011718750000 -0.004125248640775681409353925488 -0.004568791948258876800537109375 0 0 0 0 
2413000000.0000000000 0.172042667865753201583700615629 -0.036510866135358810424804687500 -0.004422039259225130081176757812 -0.004276249092072249326224042676 0 0 0 0 
2413166666.6666665077 0.172157913446426391601562500000 -0.038087338209152221679687500000 -0.004464564379304646578316972949 -0.004087717738002538681030273438 0 0 0 0 
2413333333.3333334923 0.172229990363121004959268134371 -0.039447303861379623413085937500 -0.004705446306616067886352539062 -0.004155389033257961273193359375 0 0 0 0 
2413500000.0000000000 0.172237411141395596603231865629 -0.041126500815153121948242187500 -0.004916039295494556427001953125 -0.003912106622010468569283769824 0 0 0 0 
2413666666.6666665077 0.172401607036590603927450615629 -0.042532220482826232910156250000 -0.005135098472237586975097656250 -0.003822561586275697188136435400 0 0 0 0 
2413833333.3333334923 0.172454342246055603027343750000 -0.043852724134922027587890625000 -0.005304873455315828323364257812 -0.003675767453387380079982138525 0 0 0 0 
2414000000.0000000000 0.172712266445159912109375000000 -0.045129455626010901714284528907 -0.005436183884739875793457031250 -0.003346154233440756797790527344 0 0 0 0 
2414166666.6666665077 0.172805100679397610763388115629 -0.046348050236701972270925153907 -0.005545966327190399169921875000 -0.003141860943287611007690429688 0 0 0 0 
2414333333.3333334923 0.172924771904945401290731865629 -0.047680083662271499633789062500 -0.005774470046162605285644531250 -0.003040430834516882896423339844 0 0 0 0 
2414500000.0000000000 0.173413604497909601409588731258 -0.048829827457666397094726562500 -0.005978458095341920852661132812 -0.002638514852151275114772177588 0 0 0 0 
2414666666.6666665077 0.173285543918609591385049384371 -0.049942649900913238525390625000 -0.006157383788377046585083007812 -0.002471359912306069894077920068 0 0 0 0 
2414833333.3333334923 0.173453271389007596114950615629 -0.051008172333240509033203125000 -0.006116178818047046661376953125 -0.002303222892805933952331542969 0 0 0 0 
2415000000.0000000000 0.173681050539016695877236884371 -0.051945216953754431987722028907 -0.006321658380329608917236328125 -0.001969631994143127961399697412 0 0 0 0 
2415166666.6666665077 0.173714727163314791580361884371 -0.053016245365142822265625000000 -0.006315662991255521774291992188 -0.001748858718201518058776855469 0 0 0 0 
2415333333.3333334923 0.173870712518691988845986884371 -0.053866915404796600341796875000 -0.006472107954323291778564453125 -0.001530843204818665981292724609 0 0 0 0 
2415500000.0000000000 0.174017697572708102127236884371 -0.054806556552648537372629533593 -0.006682916544377803802490234375 -0.001059502828866242928745888818 0 0 0 0 
2415666666.6666665077 0.173963919281959505935830634371 -0.055597979575395577167551408593 -0.006657830905169248580932617188 -0.000664062157738953828811645508 0 0 0 0 
2415833333.3333334923 0.174066632986068697830361884371 -0.056346140801906592632253278907 -0.006646315101534128189086914062 -0.000456870620837435126304626465 0 0 0 0 
2416000000.0000000000 0.173933178186416598220986884371 -0.057096693664789199829101562500 -0.006680497433990240097045898438 -0.000205544041818939203589838849 0 0 0 0 
2416166666.6666665077 0.174119770526885986328125000000 -0.057739909738302230834960937500 -0.006722036283463239669799804688 0.000254330370808020179897862567 0 0 0 0 
2416333333.3333334923 0.173879057168960599044638115629 -0.058395270258188247680664062500 -0.006714700255542994412893964551 0.000298120372463017702102661133 0 0 0 0 
2416500000.0000000000 0.173868924379348810393963731258 -0.059051543474197387695312500000 -0.006599936168640851974487304688 0.000735321489628404378890991211 0 0 0 0 
2416666666.6666665077 0.173551186919212313553018134371 -0.059486396610736846923828125000 -0.006638871040195226669311523438 0.000897881865967065095901489258 0 0 0 0 
2416833333.3333334923 0.173429191112518310546875000000 -0.060415357351303100585937500000 -0.006393294781446456909179687500 0.001336505752988160090205527197 0 0 0 0 
2417000000.0000000000 0.173047661781311007400674384371 -0.060807406902313232421875000000 -0.006329725030809640884399414062 0.001631432096473873095271445166 0 0 0 0 
2417166666.6666665077 0.172704324126243591308593750000 -0.061298124492168433452565778907 -0.006093092262744904431814862988 0.001736194361001252911211323315 0 0 0 0 
2417333333.3333334923 0.172343686223030090332031250000 -0.061728183180093772197682966407 -0.006007663439959287643432617188 0.002231887774541974067687988281 0 0 0 0 
2417500000.0000000000 0.171982422471046503265057481258 -0.062472548335790627216379533593 -0.005973817780613899230957031250 0.002409785753116012053248740088 0 0 0 0 
2417666666.6666665077 0.171526759862899808029013115629 -0.062869496643543243408203125000 -0.005698399618268013000488281250 0.002588314469903707937953329932 0 0 0 0 
2417833333.3333334923 0.171041667461395291427450615629 -0.063436448574066162109375000000 -0.005477700382471084594726562500 0.002946968888863921165466308594 0 0 0 0 
2418000000.0000000000 0.170257180929183987716513115629 -0.064091108739376068115234375000 -0.005315752234309911727905273438 0.002950239460915327072143554688 0 0 0 0 
2418166666.6666665077 0.169765591621398898025674384371 -0.064430430531501770019531250000 -0.005110062658786773681640625000 0.003281379351392387910130166162 0 0 0 0 
2418333333.3333334923 0.169254407286644009689169365629 -0.065150320529937744140625000000 -0.005009039305150508880615234375 0.003430907614529132843017578125 0 0 0 0 
2418500000.0000000000 0.168515205383300809005575615629 -0.065558053553104400634765625000 -0.004639192949980497360229492188 0.003612977452576159997227334131 0 0 0 0 
2418666666.6666665077 0.167937219142913790603799384371 -0.066215984523296356201171875000 -0.004529827274382114410400390625 0.003816460259258747100830078125 0 0 0 0 
2418833333.3333334923 0.166925728321075411697549384371 -0.066924393177032470703125000000 -0.004204092081636190414428710938 0.003719191066920756860020302881 0 0 0 0 
2419000000.0000000000 0.166042536497116088867187500000 -0.067498140037059783935546875000 -0.003997125662863255414480878613 0.004002295434474945068359375000 0 0 0 0 
2419166666.6666665077 0.165341481566429110428018134371 -0.068237699568271636962890625000 -0.003887576283887029127833701025 0.003920928575098515424246503613 0 0 0 0 
2419333333.3333334923 0.164486527442932101150674384371 -0.068726599216461181640625000000 -0.003674493171274662017822265625 0.004151451401412487030029296875 0 0 0 0 
2419500000.0000000000 0.163616448640823392013388115629 -0.069886125624179840087890625000 -0.003489647991955279870274209131 0.004278953187167645368094159863 0 0 0 0 
2419666666.6666665077 0.162921026349067687988281250000 -0.070613466203212738037109375000 -0.003442705143243073983433388818 0.004217719193547964096069335938 0 0 0 0 
2419833333.3333334923 0.162040278315544100662393134371 -0.071287818253040313720703125000 -0.002968886401504278182983398438 0.004267521668225526809692382812 0 0 0 0 
