# Hz S RI R 50
2400000000.0000000000 0.155776992440223693847656250000 0.104633972048759502082582173443 0.001076160813681781075121235425 0.003677358152344822883605957031 0 0 0 0 
2400166666.6666665077 0.155672952532768305022869981258 0.102396279573440593391175923443 0.001216711010783910968183207935 0.003614105284214020209071493994 0 0 0 0 
2400333333.3333334923 0.155943825840950012207031250000 0.100121296942233997673277201557 0.001578942756168544075609516675 0.003679367946460843086242675781 0 0 0 0 
2400500000.0000000000 0.156139001250267001053018134371 0.097627960145473480224609375000 0.001845084712840616919873881763 0.003621088108047842979431152344 0 0 0 0 
2400666666.6666665077 0.156236320734024103362713731258 0.095075093209743499755859375000 0.002082074293866754011866904150 0.003551730653271079063415527344 0 0 0 0 
2400833333.3333334923 0.156367391347885104080361884371 0.092418469488620758056640625000 0.002236935775727034048793173682 0.003308590501546860174891806494 0 0 0 0 
2401000000.0000000000 0.156725153326988192459268134371 0.089680790901184082031250000000 0.002455551410093903975245810400 0.003165167057886720137355185400 0 0 0 0 
2401166666.6666665077 0.156716004014015197753906250000 0.087061785161495208740234375000 0.002629342721775174140930175781 0.002911348827183247046229697119 0 0 0 0 
2401333333.3333334923 0.157326400279998807052450615629 0.084224700927734375000000000000 0.002712665125727653937098837744 0.002898769220337272124049521338 0 0 0 0 
2401500000.0000000000 0.157830238342285211761151231258 0.081775709986686706542968750000 0.002713052090257405801060341943 0.002708771498873829841613769531 0 0 0 0 
2401666666.6666665077 0.158121362328529413421307481258 0.079252995550632476806640625000 0.002865077927708625793457031250 0.002466125646606088118312216650 0 0 0 0 
2401833333.3333334923 0.158684641122817993164062500000 0.076563425362110137939453125000 0.002902750624343752861022949219 0.002276920946314930915832519531 0 0 0 0 
2402000000.0000000000 0.159459799528122003753338731258 0.073978655040264129638671875000 0.002954937983304262161254882812 0.002273392397910356955287314307 0 0 0 0 
2402166666.6666665077 0.160435199737548800369424384371 0.071889437735080718994140625000 0.002840773202478886084315634619 0.001954193226993083953857421875 0 0 0 0 
2402333333.3333334923 0.161216184496879605392294365629 0.069258406758308410644531250000 0.002885057823732494874241494287 0.001962851034477353096008300781 0 0 0 0 
2402500000.0000000000 0.162411227822303799728231865629 0.066820874810218811035156250000 0.002817014930769801139831542969 0.001835050410591066100476909106 0 0 0 0 
2402666666.6666665077 0.163582295179367093185263115629 0.064853414893150329589843750000 0.002821220317855476899387978662 0.001634760759770869991899799878 0 0 0 0 
2402833333.3333334923 0.164731785655021695236044365629 0.062434248626232147216796875000 0.002889357972890139059779501807 0.001653763349168003039119101416 0 0 0 0 
2403000000.0000000000 0.166155993938445989410723768742 0.060107275843620300292968750000 0.002736682072281837897059775244 0.001761353458277880928636860425 0 0 0 0 
2403166666.6666665077 0.167709842324256896972656250000 0.058145921677350997924804687500 0.002827104646712542013881064307 0.001606626668944955088971782153 0 0 0 0 
2403333333.3333334923 0.168966636061668395996093750000 0.056094534695148468017578125000 0.002654863987118006186244345557 0.001623853459022938988329243237 0 0 0 0 
2403500000.0000000000 0.170603260397911099532919365629 0.054037939757108688354492187500 0.002897236030548810958862304688 0.001493986812420188946964882959 0 0 0 0 
2403666666.6666665077 0.172222375869751004318075615629 0.052420385181903839111328125000 0.002833350328728557066676474463 0.001474332646466792063472128760 0 0 0 0 
2403833333.3333334923 0.173746898770332308670205634371 0.050489280372858047485351562500 0.002751604421064258055446005713 0.001622612704522907950757670825 0 0 0 0 
2404000000.0000000000 0.175063326954841613769531250000 0.048849198967218399047851562500 0.002984037389978766007664345850 0.001546216197311877987505268628 0 0 0 0 
2404166666.6666665077 0.176864221692085293868856865629 0.047338422387838356708567033593 0.003002626588568090958836220850 0.001567977247759700038312602466 0 0 0 0 
2404333333.3333334923 0.178274914622306795974893134371 0.046084024012088782573659528907 0.003280604491010307832005166162 0.001486859284341335079790424878 0 0 0 0 
2404500000.0000000000 0.179636552929878207107705634371 0.044754005968570709228515625000 0.003440777771174908118007040869 0.001403764588758348984959267725 0 0 0 0 
2404666666.6666665077 0.181130245327949496170205634371 0.043485675007104866718332658593 0.003313035937026143074035644531 0.001563411904498934962629008716 0 0 0 0 
2404833333.3333334923 0.182476699352264404296875000000 0.042445778846740722656250000000 0.003601552452892065048217773438 0.001264856546185910918592143481 0 0 0 0 
2405000000.0000000000 0.183810874819755609710369981258 0.041816845536232001567800153907 0.003591234330087900161743164062 0.001128439093008636994602822412 0 0 0 0 
2405166666.6666665077 0.184944048523902893066406250000 0.041084744036197662353515625000 0.003849539672955871062037802588 0.000917126482818275690078735352 0 0 0 0 
2405333333.3333334923 0.186117321252822903732138115629 0.040592495352029800415039062500 0.003981625661253929138183593750 0.000794094521552324295043945312 0 0 0 0 
2405500000.0000000000 0.187490120530128506759481865629 0.039983119815587997436523437500 0.004063398577272891998291015625 0.000736583664547652006149291992 0 0 0 0 
2405666666.6666665077 0.188496068120002802093182481258 0.039678998291492462158203125000 0.004063527565449476242065429688 0.000430994085036218220561426984 0 0 0 0 
2405833333.3333334923 0.189802154898643493652343750000 0.039375264197587966918945312500 0.003961496520787478360647870801 0.000304869347019121105044764386 0 0 0 0 
2406000000.0000000000 0.190406784415245111663494981258 0.038959056138992309570312500000 0.004092164803296327590942382812 0.000082885293522849678993225098 0 0 0 0 
2406166666.6666665077 0.191467121243476895431356865629 0.038577124476432800292968750000 0.004138388670980930328369140625 -0.000112653448013588799677710262 0 0 0 0 
2406333333.3333334923 0.192182257771492004394531250000 0.038796897977590560913085937500 0.004038357641547918319702148438 -0.000203083778615109595373430795 0 0 0 0 
2406500000.0000000000 0.192961931228637695312500000000 0.038551710546016693115234375000 0.004063445609062910079956054688 -0.000395107374060899019241333008 0 0 0 0 
2406666666.6666665077 0.193498119711875887771768134371 0.038519341498613357543945312500 0.003972778096795082092285156250 -0.000635862525086849927902221680 0 0 0 0 
2406833333.3333334923 0.193845584988594110686932481258 0.038232710212469100952148437500 0.003939859569072723388671875000 -0.000737272319383919239044189453 0 0 0 0 
2407000000.0000000000 0.194246128201484707931356865629 0.038287244737148291851003278907 0.003816340118646622137782431494 -0.000906990666408091783523559570 0 0 0 0 
2407166666.6666665077 0.194569155573844909667968750000 0.037942685186862952495534528907 0.003867484861984848976135253906 -0.001017220434732734940172504956 0 0 0 0 
2407333333.3333334923 0.194494694471359308440838731258 0.037879269570112228393554687500 0.003742124652490019798278808594 -0.001081596361473202922223735278 0 0 0 0 
2407500000.0000000000 0.194359347224235506912393134371 0.037899807095527648925781250000 0.003761373925954103903529501807 -0.001275975257158278985264443506 0 0 0 0 
2407666666.6666665077 0.194420397281646700760049384371 0.037581495940685272216796875000 0.003799076890572905974147177588 -0.001320081297308206991908408057 0 0 0 0 
2407833333.3333334923 0.194024264812469510177450615629 0.037305034697055816650390625000 0.003606369020417333082911826025 -0.001405695802532136006596230615 0 0 0 0 
2408000000.0000000000 0.193931072950363186935263115629 0.037071742117404937744140625000 0.003575573442503809928894042969 -0.001560209086164831898332905347 0 0 0 0 
2408166666.6666665077 0.193516463041305486481036268742 0.036551281809806816791574846093 0.003483664942905306816101074219 -0.001466126996092498085619282300 0 0 0 0 
2408333333.3333334923 0.193060770630836486816406250000 0.035835836082696921611745466407 0.003518365556374191804173134912 -0.001822731108404695987701416016 0 0 0 0 
2408500000.0000000000 0.192476347088813809493856865629 0.035346087068319320678710937500 0.003405634313821793036219931494 -0.001655678614042698903324746240 0 0 0 0 
2408666666.6666665077 0.191946133971214294433593750000 0.034649547189474112773854841407 0.003383751260116695924046181787 -0.001851521548815072016475058447 0 0 0 0 
2408833333.3333334923 0.191415503621101407150106865629 0.033764988183975219726562500000 0.003367997938767075972316122900 -0.001937295426614582972285605322 0 0 0 0 
2409000000.0000000000 0.190600022673606900314169365629 0.032712753862142562866210937500 0.003384804818779230117797851562 -0.002025222871452569961547851562 0 0 0 0 
2409166666.6666665077 0.189762085676193209549111884371 0.031737837940454483032226562500 0.003191041992977261976954794775 -0.002221219241619110107421875000 0 0 0 0 
2409333333.3333334923 0.189049974083900507171307481258 0.030796408653259280813196951954 0.003136696526780724959132529150 -0.002233338309451938109156943213 0 0 0 0 
2409500000.0000000000 0.188029408454894991775674384371 0.029181793332099921489675153907 0.003123422153294086889979697119 -0.002350908005610107941868447412 0 0 0 0 
2409666666.6666665077 0.187218368053436307052450615629 0.027842506766319278371790701954 0.003013252047821878953220986475 -0.002428926527500153021571493994 0 0 0 0 
2409833333.3333334923 0.186318144202232388595419365629 0.026379704475402828561803048046 0.003116948530077933831455849756 -0.002471368759870529174804687500 0 0 0 0 
2410000000.0000000000 0.185566872358322088043536268742 0.024609021842479709279993826954 0.003015729133039712905883789062 -0.002481414936482905907871865381 0 0 0 0 
2410166666.6666665077 0.184646546840667696853799384371 0.022865546867251399648646170704 0.003030151594430208206176757812 -0.002805833704769610924961709131 0 0 0 0 
2410333333.3333334923 0.183950588107109097579794365629 0.021166929975152019155482108204 0.003013563808053731918334960938 -0.002652743132784963087794638525 0 0 0 0 
2410500000.0000000000 0.183113947510719299316406250000 0.019288206472992900503138358204 0.003202673746272921995875693213 -0.002894416218623518943786621094 0 0 0 0 
2410666666.6666665077 0.182242825627326993087606865629 0.017033427953720089303990548046 0.003148563206195830865147256006 -0.002937467303127049966099404443 0 0 0 0 
2410833333.3333334923 0.181775033473968505859375000000 0.014898825436830520629882812500 0.003116084495559335188624716650 -0.003051528008654714064357138525 0 0 0 0 
2411000000.0000000000 0.181398004293441800216513115629 0.012841652147471909958809099805 0.003022017423063517050502158057 -0.003262414829805492921116494287 0 0 0 0 
2411166666.6666665077 0.180762737989425686935263115629 0.010904514230787750589390938671 0.002985706320032476945164345850 -0.003487032838165760040283203125 0 0 0 0 
2411333333.3333334923 0.180294647812843294998330634371 0.008370411582291126251220703125 0.002855236176401377157924033057 -0.003732979996129869981053017725 0 0 0 0 
2411500000.0000000000 0.180077925324440002441406250000 0.006129667628556489944458007812 0.002760690404102205796482705225 -0.004036075901240110397338867188 0 0 0 0 
2411666666.6666665077 0.180092647671699496170205634371 0.003995756153017283353323652051 0.002599122468382120132446289062 -0.004086100496351718902587890625 0 0 0 0 
2411833333.3333334923 0.179708421230316189864950615629 0.001665025716647505977033305591 0.002427029190585017204284667969 -0.004336326383054255571847246387 0 0 0 0 
2412000000.0000000000 0.179974228143691988845986884371 -0.000805258692707866430282592773 0.002342207822948693795445107568 -0.004566546529531478881835937500 0 0 0 0 
2412166666.6666665077 0.180022060871124295333700615629 -0.003004210302606225013732910156 0.001970034325495361848118447412 -0.004795807879418134689331054688 0 0 0 0 
2412333333.3333334923 0.180233478546142605880575615629 -0.005313848145306110382080078125 0.001842706114985048987744975513 -0.004876201506704092025756835938 0 0 0 0 
2412500000.0000000000 0.180785790085792513748330634371 -0.007464249618351460370535566113 0.001557838753797113895416259766 -0.005081158131361007690429687500 0 0 0 0 
2412666666.6666665077 0.181185320019722012618856865629 -0.009847706183791160583496093750 0.001465775072574615912196493994 -0.005077283363789319992065429688 0 0 0 0 
2412833333.3333334923 0.181948065757751492599325615629 -0.012082950212061410386055193555 0.001066077966243029074427939307 -0.005145039409399032592773437500 0 0 0 0 
2413000000.0000000000 0.182525455951690701583700615629 -0.014450299553573129826555820898 0.000855070131365209817886352539 -0.005181998480111361417288495801 0 0 0 0 
2413166666.6666665077 0.183240905404090909103231865629 -0.016431936994194980966588204296 0.000440967705799266695976257324 -0.005165141541510820388793945312 0 0 0 0 
2413333333.3333334923 0.184143468737602206131143134371 -0.018665827810764309274693673046 0.000210900951060466495439252310 -0.005208675283938646316528320312 0 0 0 0 
2413500000.0000000000 0.185129076242446899414062500000 -0.020665775984525680541992187500 -0.000125571677926927804946899414 -0.005005703307688236236572265625 0 0 0 0 
2413666666.6666665077 0.185970947146415710449218750000 -0.022880308330059051513671875000 -0.000382621743483468890190124512 -0.005157431121915578842163085938 0 0 0 0 
2413833333.3333334923 0.187228381633758489410723768742 -0.024633537977933880197545235546 -0.000646781409159302711486816406 -0.005032947286963462829589843750 0 0 0 0 
2414000000.0000000000 0.188080340623855590820312500000 -0.026504706591367721557617187500 -0.000630771159194409847259521484 -0.004910937976092100143432617188 0 0 0 0 
2414166666.6666665077 0.189151123166084289550781250000 -0.028122182935476299631138985546 -0.000983684905804693698883056641 -0.004892851226031780242919921875 0 0 0 0 
2414333333.3333334923 0.190090700984001187423544365629 -0.030134849250316619873046875000 -0.001154678873717785098432231372 -0.004884231369942426681518554688 0 0 0 0 
2414500000.0000000000 0.191347494721412686446981865629 -0.031422380357980728149414062500 -0.001285403268411755995509482275 -0.004487350117415189743041992188 0 0 0 0 
2414666666.6666665077 0.192301183938980102539062500000 -0.032905824482440948486328125000 -0.001637591863982379002812050928 -0.004509075079113245010375976562 0 0 0 0 
2414833333.3333334923 0.193302571773529108245526231258 -0.034214675426483147357981096093 -0.001566817052662373022792197119 -0.004346949048340320587158203125 0 0 0 0 
2415000000.0000000000 0.194331541657447787185830634371 -0.035434000194072723388671875000 -0.001840879442170261903050088037 -0.004209079779684543609619140625 0 0 0 0 
2415166666.6666665077 0.195372834801673889160156250000 -0.036451313644647598266601562500 -0.001971516991034150123596191406 -0.004163801670074462890625000000 0 0 0 0 
2415333333.3333334923 0.196178004145622308929119981258 -0.037486322224140167236328125000 -0.002108665648847817940952920068 -0.004146238788962364196777343750 0 0 0 0 
2415500000.0000000000 0.197148367762565612792968750000 -0.038090363144874572753906250000 -0.002267383504658937887904501807 -0.004028318915516138076782226562 0 0 0 0 
2415666666.6666665077 0.198043942451477106292401231258 -0.039039015769958503032643903907 -0.002563793212175368829014443506 -0.003763246117159723801853798975 0 0 0 0 
2415833333.3333334923 0.198716223239898709396200615629 -0.039586782455444342876393903907 -0.002583849476650356812718056787 -0.003685846691951156096217490088 0 0 0 0 
2416000000.0000000000 0.199301764369010897537393134371 -0.040244448930025100708007812500 -0.002741033211350440979003906250 -0.003707494353875517845153808594 0 0 0 0 
2416166666.6666665077 0.200024321675300598144531250000 -0.040835734456777572631835937500 -0.002932696603238583044764853369 -0.003423910588026047186610556494 0 0 0 0 
2416333333.3333334923 0.200439870357513399978799384371 -0.041142705827951431274414062500 -0.003027288476005197005030966650 -0.003301324322819710211512900244 0 0 0 0 
2416500000.0000000000 0.200778916478156987945880018742 -0.041482798755168921733815778907 -0.003095526946708559989929199219 -0.003096100408583879904506064307 0 0 0 0 
2416666666.6666665077 0.201035618782043512542401231258 -0.042032845318317413330078125000 -0.003188156057149171829223632812 -0.002992823719978332953212118994 0 0 0 0 
2416833333.3333334923 0.200958117842674310882244981258 -0.042131964117288589477539062500 -0.003319144947454332871678017725 -0.002809427911415696144104003906 0 0 0 0 
2417000000.0000000000 0.201061412692070007324218750000 -0.042353376746177673339843750000 -0.003205976914614439010620117188 -0.002549139782786368890049599756 0 0 0 0 
2417166666.6666665077 0.200822055339813204666299384371 -0.042322602123022079467773437500 -0.003256124677136539979221963037 -0.002202750183641910986659384619 0 0 0 0 
2417333333.3333334923 0.200483888387680109222088731258 -0.042288679629564292217214216407 -0.003312437329441308975219726562 -0.002076062373816967010498046875 0 0 0 0 
2417500000.0000000000 0.200139373540878295898437500000 -0.042447075247764587402343750000 -0.003253314178436994986293173682 -0.001963679213076829910278320312 0 0 0 0 
2417666666.6666665077 0.199634984135627802093182481258 -0.042311619967222206806223283593 -0.003155259881168603897094726562 -0.001832889392971992926356650244 0 0 0 0 
2417833333.3333334923 0.199109196662902804275674384371 -0.042377118021249771118164062500 -0.003146042814478278160095214844 -0.001580858719535171985626220703 0 0 0 0 
2418000000.0000000000 0.198624625802040100097656250000 -0.042203903198242187500000000000 -0.003063185838982462882995605469 -0.001544381957501173019409179688 0 0 0 0 
2418166666.6666665077 0.197863548994064303299111884371 -0.042215216904878623271901716407 -0.003060148796066641807556152344 -0.001296791597269475893733359229 0 0 0 0 
2418333333.3333334923 0.196949675679206903655682481258 -0.042190957814455032348632812500 -0.002857770305126905007603310693 -0.001378367305733263926265097510 0 0 0 0 
2418500000.0000000000 0.195984214544296292404013115629 -0.042510502040386199951171875000 -0.003016100265085697174072265625 -0.001208709552884102084516215747 0 0 0 0 
2418666666.6666665077 0.195208713412284906585369981258 -0.042534027248620986938476562500 -0.002870834898203610940220498193 -0.001309371320530771992327045972 0 0 0 0 
2418833333.3333334923 0.193957000970840509612713731258 -0.042839195579290390014648437500 -0.002937759505584836006164550781 -0.001314252032898367101784731226 0 0 0 0 
2419000000.0000000000 0.192760482430458096603231865629 -0.043201372027397162700612653907 -0.002739055082201958136317587744 -0.001201064093038439967511821216 0 0 0 0 
2419166666.6666665077 0.191624701023101806640625000000 -0.043511159718036651611328125000 -0.002898727310821413993835449219 -0.001186420908197761015651083838 0 0 0 0 
2419333333.3333334923 0.190356656908989008147869981258 -0.044096358120441436767578125000 -0.002904745517298579216003417969 -0.001288343337364495017408061450 0 0 0 0 
2419500000.0000000000 0.189106434583663912674111884371 -0.044601473957300193096120466407 -0.002953902585431932969334267725 -0.001216888311319052956224751050 0 0 0 0 
2419666666.6666665077 0.187470912933349609375000000000 -0.045530706644058227539062500000 -0.003000766038894652886631631006 -0.001255844719707966067670512622 0 0 0 0 
2419833333.3333334923 0.186247050762176513671875000000 -0.046235404908657067035715471093 -0.003080564085394144058227539062 -0.001135097118094563917872763525 0 0 0 0 
