# Version 1.00
#
freq[Hz];re:Trc1_S11;im:Trc1_S11;re:Trc2_S21;im:Trc2_S21;
2.400000000000000E+009;1.514157801866531E-001;1.150214374065399E-001;1.540162716992199E-003;-4.923590924590826E-003;
2.400166666666667E+009;1.512864828109741E-001;1.129104867577553E-001;1.430740929208696E-003;-5.031698849052191E-003;
2.400333333333334E+009;1.509290039539337E-001;1.106054633855820E-001;1.366462907753885E-003;-5.023459903895855E-003;
2.400500000000000E+009;1.506860554218292E-001;1.080489084124565E-001;1.297100447118282E-003;-5.057123489677906E-003;
2.400666666666667E+009;1.510140746831894E-001;1.057326868176460E-001;1.203047926537693E-003;-5.375810898840427E-003;
2.400833333333334E+009;1.506526023149490E-001;1.029146984219551E-001;1.168551854789257E-003;-5.385846365243197E-003;
2.401000000000000E+009;1.509805172681809E-001;9.993887692689896E-002;8.855038322508335E-004;-5.493085831403732E-003;
2.401166666666667E+009;1.508840918540955E-001;9.731193631887436E-002;7.252089562825859E-004;-5.770087707787752E-003;
2.401333333333334E+009;1.511425822973251E-001;9.429574757814407E-002;6.129349931143224E-004;-5.895470734685659E-003;
2.401500000000000E+009;1.516059488058090E-001;9.143722802400589E-002;3.191474825143814E-004;-6.138092838227749E-003;
2.401666666666667E+009;1.519013494253159E-001;8.853019028902054E-002;2.660250902408734E-005;-6.200501229614019E-003;
2.401833333333334E+009;1.522856354713440E-001;8.567223697900772E-002;-3.107127849943936E-004;-6.347009912133217E-003;
2.402000000000000E+009;1.531488299369812E-001;8.285546302795410E-002;-7.138815126381815E-004;-6.327323149889708E-003;
2.402166666666667E+009;1.537404209375382E-001;8.015308529138565E-002;-1.021231641061604E-003;-6.132917478680611E-003;
2.402333333333334E+009;1.546750962734222E-001;7.723320275545120E-002;-1.368016353808343E-003;-6.170139182358980E-003;
2.402500000000000E+009;1.560384184122086E-001;7.477120310068131E-002;-1.672944985330105E-003;-6.151011213660240E-003;
2.402666666666667E+009;1.571015119552612E-001;7.214719802141190E-002;-2.054295735433698E-003;-6.014823447912931E-003;
2.402833333333334E+009;1.585464477539063E-001;6.953432410955429E-002;-2.383749233558774E-003;-5.921430885791779E-003;
2.403000000000000E+009;1.599212288856506E-001;6.724039465188980E-002;-2.527116332203150E-003;-5.451828241348267E-003;
2.403166666666667E+009;1.618922501802445E-001;6.470724940299988E-002;-2.793950727209449E-003;-5.349269602447748E-003;
2.403333333333334E+009;1.635299921035767E-001;6.235992163419724E-002;-2.978718141093850E-003;-5.154461134225130E-003;
2.403500000000000E+009;1.652376353740692E-001;6.024783477187157E-002;-3.062357893213630E-003;-4.898122511804104E-003;
2.403666666666667E+009;1.673217266798019E-001;5.809696018695831E-002;-3.256784286350012E-003;-4.716334864497185E-003;
2.403833333333334E+009;1.692312359809876E-001;5.611193925142288E-002;-3.384797135367990E-003;-4.372265189886093E-003;
2.404000000000000E+009;1.709493845701218E-001;5.405280366539955E-002;-3.527075052261353E-003;-4.257324151694775E-003;
2.404166666666667E+009;1.729303598403931E-001;5.246786400675774E-002;-3.455882193520665E-003;-4.183186218142510E-003;
2.404333333333334E+009;1.748871207237244E-001;5.083880946040154E-002;-3.539324272423983E-003;-4.060991108417511E-003;
2.404500000000000E+009;1.767637133598328E-001;4.922427609562874E-002;-3.609451930969954E-003;-3.900619223713875E-003;
2.404666666666667E+009;1.787750869989395E-001;4.805388674139977E-002;-3.813612274825573E-003;-3.742165630683303E-003;
2.404833333333334E+009;1.807167828083038E-001;4.671611264348030E-002;-3.943922463804483E-003;-3.555800300091505E-003;
2.405000000000000E+009;1.821883171796799E-001;4.600109532475472E-002;-3.989438526332378E-003;-3.409624332562089E-003;
2.405166666666667E+009;1.840940117835999E-001;4.513766244053841E-002;-4.032989032566547E-003;-3.288874402642250E-003;
2.405333333333334E+009;1.856603473424912E-001;4.436426982283592E-002;-4.144427832216024E-003;-3.219870151951909E-003;
2.405500000000000E+009;1.875079125165939E-001;4.386598244309425E-002;-4.129166249185801E-003;-3.043223638087511E-003;
2.405666666666667E+009;1.890418678522110E-001;4.340145364403725E-002;-4.382751416414976E-003;-2.871634438633919E-003;
2.405833333333334E+009;1.905444860458374E-001;4.302242025732994E-002;-4.363780375570059E-003;-2.753387205302715E-003;
2.406000000000000E+009;1.919850409030914E-001;4.286475479602814E-002;-4.488920792937279E-003;-2.590957097709179E-003;
2.406166666666667E+009;1.933631449937820E-001;4.258750006556511E-002;-4.418137483298779E-003;-2.419895958155394E-003;
2.406333333333334E+009;1.945216208696365E-001;4.258953034877777E-002;-4.614106845110655E-003;-2.120511839166284E-003;
2.406500000000000E+009;1.956142336130142E-001;4.269409179687500E-002;-4.786986391991377E-003;-1.905010547488928E-003;
2.406666666666667E+009;1.964574605226517E-001;4.258400201797485E-002;-4.669148940593004E-003;-1.903162919916213E-003;
2.406833333333334E+009;1.973359137773514E-001;4.262388497591019E-002;-4.923251923173666E-003;-1.620451570488513E-003;
2.407000000000000E+009;1.977318972349167E-001;4.288427159190178E-002;-4.776853136718273E-003;-1.281069591641426E-003;
2.407166666666667E+009;1.983955651521683E-001;4.269018769264221E-002;-4.703616257756949E-003;-1.224744017235935E-003;
2.407333333333334E+009;1.984377950429916E-001;4.290194809436798E-002;-4.631095100194216E-003;-1.088507822714746E-003;
2.407500000000000E+009;1.986543983221054E-001;4.311550036072731E-002;-4.811802413314581E-003;-1.028632163070142E-003;
2.407666666666667E+009;1.987529397010803E-001;4.309616610407829E-002;-4.843548405915499E-003;-8.412047754973173E-004;
2.407833333333334E+009;1.983447074890137E-001;4.309786483645439E-002;-4.607870709151030E-003;-6.451099761761725E-004;
2.408000000000000E+009;1.983075290918350E-001;4.306040704250336E-002;-4.761896096169949E-003;-4.205002333037555E-004;
2.408166666666667E+009;1.977507621049881E-001;4.298328608274460E-002;-4.654918331652880E-003;-1.661106216488406E-004;
2.408333333333334E+009;1.973023414611816E-001;4.251132905483246E-002;-4.543823655694723E-003;-1.472311123507097E-005;
2.408500000000000E+009;1.966219246387482E-001;4.239068180322647E-002;-4.677559714764357E-003;1.068585479515605E-004;
2.408666666666667E+009;1.960365921258926E-001;4.199035838246346E-002;-4.521483555436134E-003;2.451066975481808E-004;
2.408833333333334E+009;1.952837109565735E-001;4.143342375755310E-002;-4.472304601222277E-003;3.846445761155337E-004;
2.409000000000000E+009;1.942939609289169E-001;4.065070673823357E-002;-4.143215250223875E-003;6.073199911043048E-004;
2.409166666666667E+009;1.932135820388794E-001;3.984947130084038E-002;-4.185957368463278E-003;5.332292057573795E-004;
2.409333333333334E+009;1.921648085117340E-001;3.923803940415382E-002;-3.990057855844498E-003;5.396949127316475E-004;
2.409500000000000E+009;1.909697353839874E-001;3.804371878504753E-002;-3.928331192582846E-003;8.469923050142825E-004;
2.409666666666667E+009;1.898834854364395E-001;3.678520396351814E-002;-3.902085125446320E-003;7.978837238624692E-004;
2.409833333333334E+009;1.885131597518921E-001;3.535851836204529E-002;-3.749110037460923E-003;8.048316230997443E-004;
2.410000000000000E+009;1.874123662710190E-001;3.412487730383873E-002;-3.646778408437967E-003;7.677899557165802E-004;
2.410166666666667E+009;1.861931830644608E-001;3.231555595993996E-002;-3.522310405969620E-003;7.928651757538319E-004;
2.410333333333334E+009;1.850643903017044E-001;3.075358644127846E-002;-3.394484287127852E-003;7.411359692923725E-004;
2.410500000000000E+009;1.839127242565155E-001;2.876263856887817E-002;-3.384508192539215E-003;7.069713901728392E-004;
2.410666666666667E+009;1.828724443912506E-001;2.662946470081806E-002;-3.357210196554661E-003;8.372804732061923E-004;
2.410833333333334E+009;1.818321645259857E-001;2.463498152792454E-002;-3.215331584215164E-003;7.880303892306984E-004;
2.411000000000000E+009;1.809481382369995E-001;2.243518643081188E-002;-3.638714319095016E-003;5.608352366834879E-004;
2.411166666666667E+009;1.800479888916016E-001;2.035945840179920E-002;-3.464267589151859E-003;5.059471586719155E-004;
2.411333333333334E+009;1.794900298118591E-001;1.783445850014687E-002;-3.509044647216797E-003;4.240047128405422E-004;
2.411500000000000E+009;1.787482649087906E-001;1.534644234925509E-002;-3.676102962344885E-003;4.848816897720099E-004;
2.411666666666667E+009;1.783571541309357E-001;1.302647124975920E-002;-3.756694495677948E-003;6.212856969796121E-004;
2.411833333333334E+009;1.778508722782135E-001;1.059489604085684E-002;-3.910305444151163E-003;4.266221658326685E-004;
2.412000000000000E+009;1.780388504266739E-001;7.853234186768532E-003;-4.082200583070517E-003;8.441529935225844E-004;
2.412166666666667E+009;1.779181361198425E-001;5.462566390633583E-003;-4.261856433004141E-003;8.639746229164302E-004;
2.412333333333334E+009;1.779154241085053E-001;2.885565860196948E-003;-4.376242402940989E-003;9.870612993836403E-004;
2.412500000000000E+009;1.783885359764099E-001;4.786526551470161E-004;-4.464020952582359E-003;1.190786482766271E-003;
2.412666666666667E+009;1.785632073879242E-001;-2.149434760212898E-003;-4.546720068901777E-003;1.433273660950363E-003;
2.412833333333334E+009;1.792058497667313E-001;-4.818224348127842E-003;-4.598089493811131E-003;1.678863074630499E-003;
2.413000000000000E+009;1.797815412282944E-001;-7.264001294970512E-003;-4.740509670227766E-003;1.939124427735806E-003;
2.413166666666667E+009;1.805322915315628E-001;-9.650067426264286E-003;-4.647604655474424E-003;2.347428351640701E-003;
2.413333333333334E+009;1.815464645624161E-001;-1.217422261834145E-002;-4.629064351320267E-003;2.583984285593033E-003;
2.413500000000000E+009;1.823106408119202E-001;-1.456849183887243E-002;-4.555843304842711E-003;2.984350314363837E-003;
2.413666666666667E+009;1.833719015121460E-001;-1.684985123574734E-002;-4.697075113654137E-003;3.297631628811359E-003;
2.413833333333334E+009;1.845177561044693E-001;-1.915759406983852E-002;-4.422599449753761E-003;3.602836048230529E-003;
2.414000000000000E+009;1.856984198093414E-001;-2.133363299071789E-002;-4.191057290881872E-003;3.757388563826680E-003;
2.414166666666667E+009;1.869770735502243E-001;-2.322572842240334E-002;-4.043072462081909E-003;4.171933978796005E-003;
2.414333333333334E+009;1.881321668624878E-001;-2.544047124683857E-002;-3.746986621990800E-003;4.199536517262459E-003;
2.414500000000000E+009;1.894809305667877E-001;-2.707749605178833E-002;-3.356316126883030E-003;4.511972889304161E-003;
2.414666666666667E+009;1.907879561185837E-001;-2.888763695955277E-002;-3.190738614648581E-003;4.699036013334990E-003;
2.414833333333334E+009;1.920361965894699E-001;-3.036780655384064E-002;-2.789498772472143E-003;4.884124733507633E-003;
2.415000000000000E+009;1.934046745300293E-001;-3.163988888263702E-002;-2.646615495905280E-003;4.705918952822685E-003;
2.415166666666667E+009;1.946959793567658E-001;-3.292209655046463E-002;-2.355954842641950E-003;4.883445799350739E-003;
2.415333333333334E+009;1.958879679441452E-001;-3.388449922204018E-002;-2.029168186709285E-003;4.980856552720070E-003;
2.415500000000000E+009;1.972354054450989E-001;-3.479193896055222E-002;-1.938837813213468E-003;5.023406352847815E-003;
2.415666666666667E+009;1.986376345157623E-001;-3.569753468036652E-002;-1.671907724812627E-003;5.047272425144911E-003;
2.415833333333334E+009;1.993798911571503E-001;-3.631182014942169E-002;-1.515545765869319E-003;5.081954877823591E-003;
2.416000000000000E+009;2.003190517425537E-001;-3.703276440501213E-002;-1.285287085920572E-003;5.124399904161692E-003;
2.416166666666667E+009;2.014747262001038E-001;-3.767183423042297E-002;-1.151618547737598E-003;5.040611606091261E-003;
2.416333333333334E+009;2.022478282451630E-001;-3.785649314522743E-002;-1.005830708891153E-003;5.186278838664293E-003;
2.416500000000000E+009;2.027980089187622E-001;-3.815491497516632E-002;-7.769731455482543E-004;5.361905787140131E-003;
2.416666666666667E+009;2.033515870571137E-001;-3.833154216408730E-002;-4.891502903774381E-004;5.127483513206244E-003;
2.416833333333334E+009;2.038209289312363E-001;-3.840662166476250E-002;-2.619035658426583E-004;5.299688782542944E-003;
2.417000000000000E+009;2.041728049516678E-001;-3.843571618199348E-002;-2.121375837305095E-005;5.173068493604660E-003;
2.417166666666667E+009;2.041629403829575E-001;-3.822626173496246E-002;2.349985006731004E-004;5.133995320647955E-003;
2.417333333333334E+009;2.039979100227356E-001;-3.782971203327179E-002;5.035928334109485E-004;5.181055981665850E-003;
2.417500000000000E+009;2.039419561624527E-001;-3.778689727187157E-002;6.684728432446718E-004;5.062398035079241E-003;
2.417666666666667E+009;2.036806344985962E-001;-3.755598887801170E-002;9.518736624158919E-004;5.033435299992561E-003;
2.417833333333334E+009;2.034816890954971E-001;-3.717840835452080E-002;1.192093710415065E-003;4.882472567260265E-003;
2.418000000000000E+009;2.030406445264816E-001;-3.667028248310089E-002;1.243756501935422E-003;4.768397193402052E-003;
2.418166666666667E+009;2.024067491292954E-001;-3.646995127201080E-002;1.305264537222683E-003;4.629479255527258E-003;
2.418333333333334E+009;2.017173320055008E-001;-3.606112673878670E-002;1.692106365226209E-003;4.446256440132856E-003;
2.418500000000000E+009;2.008591294288635E-001;-3.606587648391724E-002;1.867132727056742E-003;4.426992498338223E-003;
2.418666666666667E+009;2.000101804733276E-001;-3.561758249998093E-002;2.041903091594577E-003;4.248692188411951E-003;
2.418833333333334E+009;1.989789903163910E-001;-3.572327271103859E-002;2.251762198284268E-003;4.062720574438572E-003;
2.419000000000000E+009;1.979183405637741E-001;-3.573967516422272E-002;2.442213241010904E-003;3.728375537320972E-003;
2.419166666666667E+009;1.967295855283737E-001;-3.600283339619637E-002;2.400799654424191E-003;3.643839154392481E-003;
2.419333333333334E+009;1.953696161508560E-001;-3.635758534073830E-002;2.479136688634753E-003;3.518540412187576E-003;
2.419500000000000E+009;1.939921975135803E-001;-3.662974014878273E-002;2.541057299822569E-003;3.318863222375512E-003;
2.419666666666667E+009;1.924986541271210E-001;-3.724833577871323E-002;2.548058284446597E-003;3.023100318387151E-003;
2.419833333333334E+009;1.908445060253143E-001;-3.784028068184853E-002;2.470037434250116E-003;2.995018614456058E-003;
2.420000000000000E+009;1.892271935939789E-001;-3.861202299594879E-002;2.489839214831591E-003;2.869028132408857E-003;
2.420166666666667E+009;1.876187473535538E-001;-3.939807787537575E-002;2.393649658188224E-003;2.644569147378206E-003;
2.420333333333334E+009;1.858536005020142E-001;-4.047013446688652E-002;2.444133628159761E-003;2.591887488961220E-003;
2.420500000000000E+009;1.840737015008926E-001;-4.175831750035286E-002;2.160033676773310E-003;2.519052010029554E-003;
2.420666666666667E+009;1.822983473539352E-001;-4.281220957636833E-002;2.406701911240816E-003;2.469273284077644E-003;
2.420833333333334E+009;1.805940270423889E-001;-4.428134113550186E-002;2.337471116334200E-003;2.496643224731088E-003;
2.421000000000000E+009;1.790217608213425E-001;-4.575121775269508E-002;2.375466050580144E-003;2.493756823241711E-003;
2.421166666666667E+009;1.772235929965973E-001;-4.748278483748436E-002;2.376603661105037E-003;2.445467514917254E-003;
2.421333333333334E+009;1.755163967609406E-001;-4.905971139669418E-002;2.383151091635227E-003;2.394803334027529E-003;
2.421500000000000E+009;1.741856783628464E-001;-5.082503706216812E-002;2.512945327907801E-003;2.559546381235123E-003;
2.421666666666667E+009;1.726454645395279E-001;-5.271425098180771E-002;2.389644738286734E-003;2.493879524990916E-003;
2.421833333333334E+009;1.711912006139755E-001;-5.449877306818962E-002;2.575748134404421E-003;2.326323185116053E-003;
2.422000000000000E+009;1.700707823038101E-001;-5.618324130773544E-002;2.558652777224779E-003;2.161671640351415E-003;
2.422166666666667E+009;1.692289412021637E-001;-5.848282948136330E-002;2.632438438013196E-003;2.334084361791611E-003;
2.422333333333334E+009;1.678484678268433E-001;-6.047184392809868E-002;2.654683776199818E-003;2.181025221943855E-003;
2.422500000000000E+009;1.669391393661499E-001;-6.249514594674110E-002;2.656032564118505E-003;2.045636530965567E-003;
2.422666666666667E+009;1.662189960479736E-001;-6.453504413366318E-002;2.931209979578853E-003;1.983078429475427E-003;
2.422833333333334E+009;1.655630022287369E-001;-6.659965962171555E-002;2.864706562831998E-003;2.002523280680180E-003;
2.423000000000000E+009;1.649457365274429E-001;-6.892330199480057E-002;2.887841779738665E-003;2.090518362820149E-003;
2.423166666666667E+009;1.646833866834641E-001;-7.083185762166977E-002;2.938024699687958E-003;1.804621424525976E-003;
2.423333333333334E+009;1.643636077642441E-001;-7.322324812412262E-002;2.955750329419971E-003;1.796747674234211E-003;
2.423500000000000E+009;1.642674952745438E-001;-7.498932629823685E-002;2.939409576356411E-003;1.740036997944117E-003;
2.423666666666667E+009;1.642075777053833E-001;-7.701974362134934E-002;3.117382526397705E-003;1.719388761557639E-003;
2.423833333333334E+009;1.641906648874283E-001;-7.912465929985046E-002;3.138637868687511E-003;1.544932718388736E-003;
2.424000000000000E+009;1.643269211053848E-001;-8.097992092370987E-002;3.301743883639574E-003;1.580912852659822E-003;
2.424166666666667E+009;1.644465029239655E-001;-8.261146396398544E-002;3.174631856381893E-003;1.496532582677901E-003;
2.424333333333334E+009;1.647792458534241E-001;-8.435238152742386E-002;3.200602950528264E-003;1.372148632071912E-003;
2.424500000000000E+009;1.650816798210144E-001;-8.625982701778412E-002;3.460285020992160E-003;1.162061817012727E-003;
2.424666666666667E+009;1.655510365962982E-001;-8.768792450428009E-002;3.375733271241188E-003;9.234530152752996E-004;
2.424833333333334E+009;1.660898625850678E-001;-8.918005228042603E-002;3.486455418169498E-003;1.016495632939041E-003;
2.425000000000000E+009;1.666820496320725E-001;-9.041131287813187E-002;3.357062116265297E-003;9.180926135741174E-004;
2.425166666666667E+009;1.671021878719330E-001;-9.175838530063629E-002;3.421120345592499E-003;6.973032141104341E-004;
2.425333333333334E+009;1.675516813993454E-001;-9.270600229501724E-002;3.547239815816283E-003;5.452846526168287E-004;
2.425500000000000E+009;1.682509183883667E-001;-9.385970234870911E-002;3.441540990024805E-003;5.260899197310209E-004;
2.425666666666667E+009;1.688539683818817E-001;-9.468208998441696E-002;3.607969498261809E-003;5.724420771002770E-004;
2.425833333333334E+009;1.694170683622360E-001;-9.566328674554825E-002;3.428926691412926E-003;1.806244545150548E-004;
2.426000000000000E+009;1.701632738113403E-001;-9.621492028236389E-002;3.344415687024593E-003;2.002999826800078E-004;
2.426166666666667E+009;1.707513183355331E-001;-9.686514735221863E-002;3.462901571765542E-003;1.615418441360816E-004;
2.426333333333334E+009;1.710946410894394E-001;-9.744921326637268E-002;3.305711084976792E-003;-6.557739834534004E-005;
2.426500000000000E+009;1.716721057891846E-001;-9.787045419216156E-002;3.391527105122805E-003;-8.139856618072372E-006;
2.426666666666667E+009;1.720774620771408E-001;-9.823083132505417E-002;3.469433868303895E-003;-1.303727913182229E-004;
2.426833333333334E+009;1.726839244365692E-001;-9.866899251937866E-002;3.550418186932802E-003;-1.749298535287380E-004;
2.427000000000000E+009;1.729101091623306E-001;-9.888236224651337E-002;3.449104493483901E-003;-1.963239919859916E-004;
2.427166666666667E+009;1.732452511787415E-001;-9.915290772914887E-002;3.511233720928431E-003;-4.168003797531128E-004;
2.427333333333334E+009;1.734042018651962E-001;-9.946060925722122E-002;3.410497447475791E-003;-4.438662726897746E-004;
2.427500000000000E+009;1.732694655656815E-001;-9.968797117471695E-002;3.569059539586306E-003;-5.465968279168010E-004;
2.427666666666667E+009;1.731876432895660E-001;-9.973932057619095E-002;3.601263742893934E-003;-7.526480476371944E-004;
2.427833333333334E+009;1.730905920267105E-001;-9.983766824007034E-002;3.567013889551163E-003;-1.004635007120669E-003;
