# Version 1.00
#
freq[Hz];re:Trc1_S11;im:Trc1_S11;re:Trc2_S21;im:Trc2_S21;
2.400000000000000E+009;1.560637503862381E-001;1.056819483637810E-001;-1.178722013719380E-003;-1.125469687394798E-003;
2.400166666666667E+009;1.560992747545242E-001;1.033571958541870E-001;-1.279801479540765E-003;-1.265914179384708E-003;
2.400333333333334E+009;1.564126163721085E-001;1.010978966951370E-001;-1.310612075030804E-003;-1.329138060100377E-003;
2.400500000000000E+009;1.564205437898636E-001;9.851261973381043E-002;-1.571933273226023E-003;-1.437098602764309E-003;
2.400666666666667E+009;1.568010896444321E-001;9.619988501071930E-002;-1.838768366724253E-003;-1.372479600831866E-003;
2.400833333333334E+009;1.568842530250549E-001;9.347827732563019E-002;-1.889925915747881E-003;-1.429807278327644E-003;
2.401000000000000E+009;1.572820693254471E-001;9.077059477567673E-002;-1.942892908118665E-003;-1.230813097208738E-003;
2.401166666666667E+009;1.574692875146866E-001;8.820430934429169E-002;-2.248182892799377E-003;-1.261736615560949E-003;
2.401333333333334E+009;1.579667031764984E-001;8.547208458185196E-002;-2.216292778030038E-003;-1.109169563278556E-003;
2.401500000000000E+009;1.584606915712357E-001;8.293658494949341E-002;-2.398944227024913E-003;-1.102990237995982E-003;
2.401666666666667E+009;1.588092297315598E-001;8.038128167390823E-002;-2.320826286450028E-003;-1.024908968247473E-003;
2.401833333333334E+009;1.594159901142120E-001;7.789333909749985E-002;-2.438012044876814E-003;-9.621507488191128E-004;
2.402000000000000E+009;1.602955460548401E-001;7.517451047897339E-002;-2.589760348200798E-003;-7.365487981587648E-004;
2.402166666666667E+009;1.612028330564499E-001;7.290411740541458E-002;-2.471443032845855E-003;-5.971039645373821E-004;
2.402333333333334E+009;1.619815379381180E-001;7.025011628866196E-002;-2.605630317702889E-003;-5.787532427348197E-004;
2.402500000000000E+009;1.632390320301056E-001;6.798216700553894E-002;-2.677715150639415E-003;-4.192143969703466E-004;
2.402666666666667E+009;1.642124205827713E-001;6.582715362310410E-002;-2.704627579078078E-003;-4.433694120962173E-004;
2.402833333333334E+009;1.655243486166000E-001;6.354283541440964E-002;-2.643038751557469E-003;-2.529787598177791E-004;
2.403000000000000E+009;1.668786108493805E-001;6.145169958472252E-002;-2.603229135274887E-003;-3.548738313838840E-004;
2.403166666666667E+009;1.686133742332459E-001;5.935429781675339E-002;-2.770864637568593E-003;-1.019233823171817E-004;
2.403333333333334E+009;1.698069721460342E-001;5.725090578198433E-002;-2.621633233502507E-003;-1.807207445381209E-004;
2.403500000000000E+009;1.713891476392746E-001;5.539272353053093E-002;-2.762825228273869E-003;-3.577490861061961E-005;
2.403666666666667E+009;1.730235517024994E-001;5.382208526134491E-002;-2.775234635919333E-003;1.691493234829977E-004;
2.403833333333334E+009;1.745051145553589E-001;5.184091627597809E-002;-2.884861314669251E-003;1.603870477993041E-004;
2.404000000000000E+009;1.758797466754913E-001;5.009044334292412E-002;-2.726337872445583E-003;3.065407508984208E-004;
2.404166666666667E+009;1.775590777397156E-001;4.858959093689919E-002;-2.597837941721082E-003;3.171242424286902E-004;
2.404333333333334E+009;1.789903044700623E-001;4.718019813299179E-002;-2.709200838580728E-003;4.271879442967475E-004;
2.404500000000000E+009;1.803547441959381E-001;4.576797038316727E-002;-2.733841538429260E-003;5.707698874175549E-004;
2.404666666666667E+009;1.817523688077927E-001;4.461238160729408E-002;-2.702408935874701E-003;6.078930455259979E-004;
2.404833333333334E+009;1.833373159170151E-001;4.364401474595070E-002;-2.695213537663221E-003;7.331943488679826E-004;
2.405000000000000E+009;1.844724714756012E-001;4.289976507425308E-002;-2.894677221775055E-003;8.702555205672979E-004;
2.405166666666667E+009;1.856964528560638E-001;4.224788397550583E-002;-2.870684023946524E-003;9.865585016086698E-004;
2.405333333333334E+009;1.869282126426697E-001;4.156940802931786E-002;-2.868588082492352E-003;8.066747686825693E-004;
2.405500000000000E+009;1.880857199430466E-001;4.103483259677887E-002;-2.994617680087686E-003;1.143772504292429E-003;
2.405666666666667E+009;1.890866011381149E-001;4.062326624989510E-002;-3.056478453800082E-003;1.298471121117473E-003;
2.405833333333334E+009;1.902454048395157E-001;4.026965424418449E-002;-2.952092560008168E-003;1.509711146354675E-003;
2.406000000000000E+009;1.910308599472046E-001;3.998246788978577E-002;-2.802175236865878E-003;1.690161880105734E-003;
2.406166666666667E+009;1.918956041336060E-001;3.969558700919151E-002;-2.761318115517497E-003;1.774344826117158E-003;
2.406333333333334E+009;1.927233785390854E-001;3.963481262326241E-002;-2.719922224059701E-003;2.073209499940276E-003;
2.406500000000000E+009;1.933444291353226E-001;3.950150310993195E-002;-2.645526314154267E-003;2.016565296798945E-003;
2.406666666666667E+009;1.938730180263519E-001;3.927968069911003E-002;-2.360735321417451E-003;2.184459939599037E-003;
2.406833333333334E+009;1.944470405578613E-001;3.926324844360352E-002;-2.441502409055829E-003;2.428078325465322E-003;
2.407000000000000E+009;1.941268146038055E-001;3.943607583642006E-002;-2.182603115215898E-003;2.501423237845302E-003;
2.407166666666667E+009;1.948840022087097E-001;3.884384036064148E-002;-1.942559028975666E-003;2.589977113530040E-003;
2.407333333333334E+009;1.951517760753632E-001;3.918839991092682E-002;-1.584572950378060E-003;2.281088149175048E-003;
2.407500000000000E+009;1.949064880609512E-001;3.887575492262840E-002;-1.836205949075520E-003;2.468525897711515E-003;
2.407666666666667E+009;1.950783729553223E-001;3.861432522535324E-002;-1.753688557073474E-003;2.414511749520898E-003;
2.407833333333334E+009;1.944148093461990E-001;3.797541186213493E-002;-1.921673887409270E-003;2.626844216138125E-003;
2.408000000000000E+009;1.942731589078903E-001;3.841571509838104E-002;-1.427770126610994E-003;3.021303098648787E-003;
2.408166666666667E+009;1.942058652639389E-001;3.776085004210472E-002;-1.223220722749829E-003;2.446209080517292E-003;
2.408333333333334E+009;1.939921677112579E-001;3.717350959777832E-002;-9.224493405781686E-004;2.815017011016607E-003;
2.408500000000000E+009;1.928258836269379E-001;3.679085150361061E-002;-1.070691738277674E-003;3.353835316374898E-003;
2.408666666666667E+009;1.924209296703339E-001;3.607674315571785E-002;-1.069287420250475E-003;3.327489132061601E-003;
2.408833333333334E+009;1.920683681964874E-001;3.513733670115471E-002;-8.752760477364063E-004;3.039512317627668E-003;
2.409000000000000E+009;1.912770718336105E-001;3.420103713870049E-002;-7.356354617513716E-004;3.172630211338401E-003;
2.409166666666667E+009;1.905270367860794E-001;3.308526799082756E-002;-6.136567099019885E-004;3.100869245827198E-003;
2.409333333333334E+009;1.898359656333923E-001;3.203850984573364E-002;-6.079138838686049E-004;3.009659936651588E-003;
2.409500000000000E+009;1.890656203031540E-001;3.075733594596386E-002;-1.633691863389686E-004;3.146931529045105E-003;
2.409666666666667E+009;1.883216053247452E-001;2.915939129889011E-002;1.236812568095047E-005;3.010205691680312E-003;
2.409833333333334E+009;1.873721927404404E-001;2.781654149293900E-002;1.593245979165658E-004;2.996718976646662E-003;
2.410000000000000E+009;1.865931451320648E-001;2.625168301165104E-002;1.724150934023783E-004;2.705958671867847E-003;
2.410166666666667E+009;1.859014481306076E-001;2.436349727213383E-002;4.467965336516500E-004;2.830917015671730E-003;
2.410333333333334E+009;1.851528882980347E-001;2.254877798259258E-002;3.814591618720442E-004;2.880391199141741E-003;
2.410500000000000E+009;1.842287033796310E-001;2.092431113123894E-002;4.251815844327211E-004;2.726865001022816E-003;
2.410666666666667E+009;1.837007105350494E-001;1.871120184659958E-002;7.636285154148936E-004;2.675734926015139E-003;
2.410833333333334E+009;1.831342875957489E-001;1.656088419258595E-002;7.565468549728394E-004;2.558672334998846E-003;
2.411000000000000E+009;1.826270371675491E-001;1.438203360885382E-002;5.767868133261800E-004;2.308172173798084E-003;
2.411166666666667E+009;1.820945739746094E-001;1.227217726409435E-002;7.423022761940956E-004;2.291817450895906E-003;
2.411333333333334E+009;1.817968785762787E-001;1.010270323604345E-002;8.835759363137186E-004;2.295144600793719E-003;
2.411500000000000E+009;1.814610809087753E-001;7.629487663507462E-003;9.845963213592768E-004;2.201571129262447E-003;
2.411666666666667E+009;1.814897507429123E-001;5.414357874542475E-003;9.541053441353142E-004;2.013676799833775E-003;
2.411833333333334E+009;1.813078522682190E-001;3.335607005283237E-003;1.000360585749149E-003;1.964476192370057E-003;
2.412000000000000E+009;1.813869029283524E-001;9.231767035089433E-004;9.598327451385558E-004;1.922501251101494E-003;
2.412166666666667E+009;1.815959066152573E-001;-1.278955489397049E-003;1.093849539756775E-003;1.802328624762595E-003;
2.412333333333334E+009;1.818816810846329E-001;-3.608956933021545E-003;1.043386175297201E-003;1.644623931497335E-003;
2.412500000000000E+009;1.823331117630005E-001;-5.820471793413162E-003;9.551375987939537E-004;1.598773291334510E-003;
2.412666666666667E+009;1.828901320695877E-001;-8.123809471726418E-003;1.046117860823870E-003;1.486287801526487E-003;
2.412833333333334E+009;1.834662109613419E-001;-1.034065242856741E-002;9.600164485163987E-004;1.508014975115657E-003;
2.413000000000000E+009;1.843333840370178E-001;-1.262877415865660E-002;1.012788154184818E-003;1.417840365320444E-003;
2.413166666666667E+009;1.849616318941116E-001;-1.467461697757244E-002;9.368853643536568E-004;1.346375211142004E-003;
2.413333333333334E+009;1.859690546989441E-001;-1.695511862635613E-002;9.363866411149502E-004;1.233873073942959E-003;
2.413500000000000E+009;1.867866069078445E-001;-1.901787333190441E-002;9.075290872715414E-004;1.296330941841006E-003;
2.413666666666667E+009;1.877279281616211E-001;-2.107934653759003E-002;7.878825999796391E-004;1.359741087071598E-003;
2.413833333333334E+009;1.889394074678421E-001;-2.293712832033634E-002;8.299673791043460E-004;1.199157792143524E-003;
2.414000000000000E+009;1.898836195468903E-001;-2.482165768742561E-002;6.370457122102380E-004;1.314288470894098E-003;
2.414166666666667E+009;1.908534765243530E-001;-2.650940418243408E-002;6.957301520742476E-004;1.096417428925633E-003;
2.414333333333334E+009;1.917953789234161E-001;-2.830766327679157E-002;7.456089952029288E-004;1.218069344758987E-003;
2.414500000000000E+009;1.930440515279770E-001;-2.973601780831814E-002;8.013519691303372E-004;1.268207677640021E-003;
2.414666666666667E+009;1.940120309591293E-001;-3.119537979364395E-002;7.100471411831677E-004;1.260123448446393E-003;
2.414833333333334E+009;1.950353682041168E-001;-3.258559107780457E-002;8.648865623399615E-004;1.369977951981127E-003;
2.415000000000000E+009;1.959511637687683E-001;-3.398770838975906E-002;7.211545598693192E-004;1.410560333169997E-003;
2.415166666666667E+009;1.970952600240707E-001;-3.491367027163506E-002;7.329307845793665E-004;1.340271090157330E-003;
2.415333333333334E+009;1.980517059564591E-001;-3.593793138861656E-002;6.205557147040963E-004;1.443512970581651E-003;
2.415500000000000E+009;1.990115195512772E-001;-3.664552420377731E-002;6.240733200684190E-004;1.467056456021965E-003;
2.415666666666667E+009;1.997874677181244E-001;-3.754032775759697E-002;6.411249050870538E-004;1.437308616004884E-003;
2.415833333333334E+009;2.004847675561905E-001;-3.831840306520462E-002;6.144687649793923E-004;1.659992965869606E-003;
2.416000000000000E+009;2.010731548070908E-001;-3.897190093994141E-002;6.328753079287708E-004;1.815863186493516E-003;
2.416166666666667E+009;2.016542404890060E-001;-3.967291116714478E-002;7.765868213027716E-004;1.549778622575104E-003;
2.416333333333334E+009;2.021474391222000E-001;-4.004584997892380E-002;9.459131397306919E-004;1.863962039351463E-003;
2.416500000000000E+009;2.025312781333923E-001;-4.046033695340157E-002;9.627038380131126E-004;1.908446312882006E-003;
2.416666666666667E+009;2.026260942220688E-001;-4.091435298323631E-002;1.145493355579674E-003;1.867750310339034E-003;
2.416833333333334E+009;2.026690095663071E-001;-4.112410172820091E-002;1.368827652186155E-003;1.929649617522955E-003;
2.417000000000000E+009;2.027365118265152E-001;-4.131135344505310E-002;1.421179971657693E-003;1.811802154406905E-003;
2.417166666666667E+009;2.024370282888413E-001;-4.150537401437759E-002;1.447302289307118E-003;1.778334612026811E-003;
2.417333333333334E+009;2.019766718149185E-001;-4.144938662648201E-002;1.470617367886007E-003;1.611590269021690E-003;
2.417500000000000E+009;2.017234116792679E-001;-4.160329699516296E-002;1.677489490248263E-003;1.715325284749270E-003;
2.417666666666667E+009;2.011978328227997E-001;-4.152755811810494E-002;1.646093558520079E-003;1.743514672853053E-003;
2.417833333333334E+009;2.006677687168121E-001;-4.151916131377220E-002;1.836150069721043E-003;1.492762006819248E-003;
2.418000000000000E+009;2.000682353973389E-001;-4.155399277806282E-002;1.997108804062009E-003;1.281289034523070E-003;
2.418166666666667E+009;1.991633474826813E-001;-4.167535901069641E-002;1.908009522594512E-003;1.216506585478783E-003;
2.418333333333334E+009;1.983167231082916E-001;-4.156957566738129E-002;2.014175523072481E-003;1.309730461798608E-003;
2.418500000000000E+009;1.973308771848679E-001;-4.181237146258354E-002;2.045727102085948E-003;1.359765301458538E-003;
2.418666666666667E+009;1.964189261198044E-001;-4.192871972918510E-002;1.950696110725403E-003;1.281186472624540E-003;
2.418833333333334E+009;1.952902078628540E-001;-4.221744835376740E-002;1.983376918360591E-003;1.230333466082811E-003;
2.419000000000000E+009;1.941051632165909E-001;-4.256314039230347E-002;2.142952522262931E-003;1.221533399075270E-003;
2.419166666666667E+009;1.928253322839737E-001;-4.307769611477852E-002;2.139355288818479E-003;1.203538151457906E-003;
2.419333333333334E+009;1.916241645812988E-001;-4.365843906998634E-002;2.121079247444868E-003;1.194514217786491E-003;
2.419500000000000E+009;1.903269588947296E-001;-4.428957030177116E-002;2.304328838363290E-003;1.277251867577434E-003;
2.419666666666667E+009;1.888438761234283E-001;-4.506804421544075E-002;2.274299506098032E-003;1.002743025310338E-003;
2.419833333333334E+009;1.872985810041428E-001;-4.593129083514214E-002;2.421700861304998E-003;1.157023711130023E-003;
2.420000000000000E+009;1.859147101640701E-001;-4.670142009854317E-002;2.600772306323052E-003;1.180419465526938E-003;
2.420166666666667E+009;1.844391226768494E-001;-4.781719297170639E-002;2.845570445060730E-003;8.851119200699031E-004;
2.420333333333334E+009;1.828993707895279E-001;-4.889941588044167E-002;2.803327515721321E-003;9.703488904051483E-004;
2.420500000000000E+009;1.814724206924439E-001;-5.017079040408135E-002;2.862099325284362E-003;6.861510337330401E-004;
2.420666666666667E+009;1.800056099891663E-001;-5.144255608320236E-002;2.916720928624272E-003;7.323302561417222E-004;
2.420833333333334E+009;1.785775721073151E-001;-5.292532593011856E-002;3.094122046604753E-003;5.648562218993902E-004;
2.421000000000000E+009;1.770578622817993E-001;-5.440176650881767E-002;3.217292716726661E-003;2.654341515153647E-004;
2.421166666666667E+009;1.759690642356873E-001;-5.595287680625916E-002;3.370291320607066E-003;1.691172947175801E-004;
2.421333333333334E+009;1.742928475141525E-001;-5.751619488000870E-002;3.280945122241974E-003;5.089957267045975E-005;
2.421500000000000E+009;1.731730103492737E-001;-5.932850018143654E-002;3.256389172747731E-003;-2.207467914558947E-004;
2.421666666666667E+009;1.721050590276718E-001;-6.112920865416527E-002;3.421161789447069E-003;-3.816528478637338E-004;
2.421833333333334E+009;1.711212098598480E-001;-6.293147057294846E-002;3.277375362813473E-003;-5.535215022973716E-004;
2.422000000000000E+009;1.700519919395447E-001;-6.465514749288559E-002;3.181401174515486E-003;-7.504905224777758E-004;
2.422166666666667E+009;1.692513972520828E-001;-6.655772030353546E-002;3.097049193456769E-003;-1.178073231130838E-003;
2.422333333333334E+009;1.683101207017899E-001;-6.839104741811752E-002;2.976541640236974E-003;-1.040668808855116E-003;
2.422500000000000E+009;1.674156486988068E-001;-7.024599611759186E-002;3.123120637610555E-003;-1.428789459168911E-003;
2.422666666666667E+009;1.669357568025589E-001;-7.224460691213608E-002;2.981578232720494E-003;-1.499493257142603E-003;
2.422833333333334E+009;1.664301902055740E-001;-7.414844632148743E-002;2.827009884640575E-003;-1.657312386669219E-003;
2.423000000000000E+009;1.658970266580582E-001;-7.601976394653320E-002;2.671549096703529E-003;-1.691570156253874E-003;
2.423166666666667E+009;1.655987650156021E-001;-7.788448780775070E-002;2.638143952935934E-003;-1.680553075857461E-003;
2.423333333333334E+009;1.654052138328552E-001;-7.967945933341980E-002;2.393578644841909E-003;-1.992342295125127E-003;
2.423500000000000E+009;1.652681231498718E-001;-8.137907832860947E-002;2.318045590072870E-003;-1.915011089295149E-003;
2.423666666666667E+009;1.651155203580856E-001;-8.327649533748627E-002;2.294563688337803E-003;-1.892836880870163E-003;
2.423833333333334E+009;1.650144904851914E-001;-8.483476191759110E-002;2.034808043390513E-003;-1.994997728615999E-003;
2.424000000000000E+009;1.652152240276337E-001;-8.654493093490601E-002;2.036856720224023E-003;-2.083965111523867E-003;
2.424166666666667E+009;1.651501357555389E-001;-8.801615983247757E-002;1.746687106788158E-003;-2.165189478546381E-003;
2.424333333333334E+009;1.653891801834106E-001;-8.952206373214722E-002;1.674829050898552E-003;-2.207001438364387E-003;
2.424500000000000E+009;1.656125336885452E-001;-9.100414067506790E-002;1.527098123915494E-003;-2.079931786283851E-003;
2.424666666666667E+009;1.657482981681824E-001;-9.237881004810333E-002;1.563353114761412E-003;-2.161671873182058E-003;
2.424833333333334E+009;1.662163883447647E-001;-9.358146041631699E-002;1.365560921840370E-003;-2.413360867649317E-003;
2.425000000000000E+009;1.664111465215683E-001;-9.479188174009323E-002;1.124729402363300E-003;-2.124968683347106E-003;
2.425166666666667E+009;1.666164249181747E-001;-9.584918618202210E-002;1.135705155320466E-003;-2.307537244632840E-003;
2.425333333333334E+009;1.669973134994507E-001;-9.681463241577148E-002;1.056569395586848E-003;-2.196593908593059E-003;
2.425500000000000E+009;1.672414243221283E-001;-9.773463010787964E-002;8.830214501358569E-004;-2.247855765745044E-003;
2.425666666666667E+009;1.676304489374161E-001;-9.845697134733200E-002;8.007378201000392E-004;-2.174577442929149E-003;
2.425833333333334E+009;1.677698940038681E-001;-9.927912801504135E-002;7.263919687829912E-004;-2.065863925963640E-003;
2.426000000000000E+009;1.679517179727554E-001;-9.982039779424667E-002;7.334183319471777E-004;-2.219308400526643E-003;
2.426166666666667E+009;1.683767288923264E-001;-1.004304662346840E-001;5.044828285463154E-004;-1.983032794669271E-003;
2.426333333333334E+009;1.682545244693756E-001;-1.009802222251892E-001;4.063403175678104E-004;-1.955000218003988E-003;
2.426500000000000E+009;1.687023043632507E-001;-1.012762039899826E-001;4.444258520379663E-004;-2.025816356763244E-003;
2.426666666666667E+009;1.688937693834305E-001;-1.016794666647911E-001;4.339069419074804E-004;-1.862021861597896E-003;
2.426833333333334E+009;1.690462827682495E-001;-1.020911931991577E-001;3.519078018143773E-004;-1.965367468073964E-003;
2.427000000000000E+009;1.689457744359970E-001;-1.024269163608551E-001;3.958449815399945E-004;-1.827719970606268E-003;
2.427166666666667E+009;1.689883172512054E-001;-1.026207953691483E-001;3.562096680980176E-004;-1.878384384326637E-003;
2.427333333333334E+009;1.688120514154434E-001;-1.030887737870216E-001;3.740560496225953E-004;-1.793826115317643E-003;
2.427500000000000E+009;1.685669720172882E-001;-1.032376736402512E-001;2.273506688652560E-004;-1.840362674556673E-003;
2.427666666666667E+009;1.683832406997681E-001;-1.034986302256584E-001;2.030100004049018E-004;-1.938927103765309E-003;
2.427833333333334E+009;1.679040640592575E-001;-1.037122830748558E-001;1.127053837990388E-004;-1.720561180263758E-003;
