# Hz S RI R 50
2400000000.0000000000 0.158080771565437289138955634371 0.061775576323270797729492187500 -0.003191296011209487915039062500 0.000770252721849828958511352539 0 0 0 0 
2400166666.6666665077 0.158105984330177307128906250000 0.060279488563537597656250000000 -0.003066385164856911139247275244 0.000897001475095748901367187500 0 0 0 0 
2400333333.3333334923 0.158002182841300992111044365629 0.058299541473388671875000000000 -0.002835709368810058073756552588 0.000935949676204472780227661133 0 0 0 0 
2400500000.0000000000 0.158022776246070889571981865629 0.056533459573984153057057966407 -0.002902483800426125960109091650 0.000917842902708798646926879883 0 0 0 0 
2400666666.6666665077 0.157875999808311490157919365629 0.054340280592441558837890625000 -0.002671543043106793923618935693 0.001098009524866939024684286963 0 0 0 0 
2400833333.3333334923 0.158208966255187988281250000000 0.052612386643886573101003278907 -0.002672502538189291954040527344 0.001140391337685286998748779297 0 0 0 0 
2401000000.0000000000 0.158102616667747497558593750000 0.050787448883056640625000000000 -0.002534218598157167001011513818 0.001089547993615270094630576025 0 0 0 0 
2401166666.6666665077 0.158405870199203491210937500000 0.048350818455219268798828125000 -0.002554673468694090843200683594 0.001188122667372226931928325122 0 0 0 0 
2401333333.3333334923 0.158589720726013211349325615629 0.046567033976316452026367187500 -0.002486812416464089913609170068 0.001394726568832993941066122900 0 0 0 0 
2401500000.0000000000 0.158948555588722201248330634371 0.044434756040573120117187500000 -0.002361738355830312208888388525 0.001278595300391315980198525537 0 0 0 0 
2401666666.6666665077 0.159199416637420709808026231258 0.042549282312393188476562500000 -0.002025662921369076208827353369 0.001175097771920263984082866138 0 0 0 0 
2401833333.3333334923 0.159638911485671997070312500000 0.040500354021787643432617187500 -0.002163749421015381813049316406 0.001314311753958464102504111182 0 0 0 0 
2402000000.0000000000 0.160022839903831509689169365629 0.038699246942996978759765625000 -0.002071188762784004211425781250 0.001321174437180161909816122900 0 0 0 0 
2402166666.6666665077 0.160496547818183898925781250000 0.036534741520881652832031250000 -0.002061371691524982886073447119 0.001400270964950323104858398438 0 0 0 0 
2402333333.3333334923 0.161069765686988802810830634371 0.034847866743803017353098283593 -0.001907728379592299895045615088 0.001434553647413850047467875903 0 0 0 0 
2402500000.0000000000 0.161743089556694003006143134371 0.033148676156997680664062500000 -0.001728834002278744957567524487 0.001357105677016078992130898584 0 0 0 0 
2402666666.6666665077 0.162413477897643987457598768742 0.031421560794115073467214216407 -0.001836589304730295918108295972 0.001259667566046118953107524341 0 0 0 0 
2402833333.3333334923 0.163250192999839810470419365629 0.029587583616375919687291329296 -0.001731953467242419936536479419 0.001361788366921246051788330078 0 0 0 0 
2403000000.0000000000 0.163899943232536288162393134371 0.028020067140460010873814766796 -0.001777332508936523957493447412 0.001206096727401017925859760815 0 0 0 0 
2403166666.6666665077 0.164850682020187405685263115629 0.026438504457473758352259451954 -0.001830729190260172107099223560 0.001373396487906574986101460034 0 0 0 0 
2403333333.3333334923 0.165804103016853304763955634371 0.025079127401113510131835937500 -0.001843018108047544956207275391 0.001390934223309159062029194409 0 0 0 0 
2403500000.0000000000 0.166715979576110812088174384371 0.023660885170102119445800781250 -0.001713104662485420920728373950 0.001334851607680320956586528247 0 0 0 0 
2403666666.6666665077 0.167626544833183288574218750000 0.022324511781334880483607108204 -0.001745239016599952957750629956 0.001388052129186690070508647388 0 0 0 0 
2403833333.3333334923 0.168407842516899108886718750000 0.020892594009637829172154610546 -0.001619866583496331951738667065 0.001371865859255195097682333838 0 0 0 0 
2404000000.0000000000 0.169643998146057101150674384371 0.019901964813470840454101562500 -0.001786278211511671976802206885 0.001356102875433861992479633862 0 0 0 0 
2404166666.6666665077 0.170376434922218294998330634371 0.018803853541612628591517264454 -0.001610731123946606896044086987 0.001507149427197874026057577979 0 0 0 0 
2404333333.3333334923 0.171355828642845209319744981258 0.017789054661989208566685860546 -0.001667892793193459944484091650 0.001492804614827037074445414966 0 0 0 0 
2404500000.0000000000 0.172275647521019009689169365629 0.016775032505393031728724295704 -0.001742493477649986960767436450 0.001397385844029485962511372144 0 0 0 0 
2404666666.6666665077 0.173185363411903409103231865629 0.015873488038778308523157889454 -0.001635779859498142979265522534 0.001399849425069987990735698169 0 0 0 0 
2404833333.3333334923 0.174063101410865811446981865629 0.015114963054656980687151524023 -0.001682436559349298910853720557 0.001714364276267587921739887769 0 0 0 0 
2405000000.0000000000 0.174804568290710504729901231258 0.014422339387238029134730155079 -0.001712283934466541030286479419 0.001548339147120713970781635815 0 0 0 0 
2405166666.6666665077 0.175614848732948303222656250000 0.013649561442434789484967616602 -0.001603634562343358993530273438 0.001839766628108919100520468604 0 0 0 0 
2405333333.3333334923 0.176530599594116210937500000000 0.012875054031610490626325038477 -0.001631730934605001969578408350 0.001671944628469645977020263672 0 0 0 0 
2405500000.0000000000 0.177063643932342501541299384371 0.012626213021576409775703631055 -0.001634682063013314983965229565 0.001856923568993807055829692310 0 0 0 0 
2405666666.6666665077 0.177767142653465298751669365629 0.012102507986128330230712890625 -0.001433151424862443967106484521 0.001985536655411123795750283350 0 0 0 0 
2405833333.3333334923 0.178205013275146512130575615629 0.011783204972743989771832850977 -0.001352966879494488022447895581 0.002025404246523975892307900537 0 0 0 0 
2406000000.0000000000 0.178784519433975191970986884371 0.011322433128952980041503906250 -0.001301385113038123087642050635 0.002055197954177856011631631006 0 0 0 0 
2406166666.6666665077 0.179030805826187106033486884371 0.011124383658170700073242187500 -0.001212634262628853104235004956 0.002055632648989557786228798975 0 0 0 0 
2406333333.3333334923 0.179697066545486505706463731258 0.010680355131626129150390625000 -0.001258511445485055012943886865 0.002361426828429102897644042969 0 0 0 0 
2406500000.0000000000 0.179941132664680508712606865629 0.010225312784314160782783709180 -0.001229493413120507977129292065 0.002402742160484195189235068213 0 0 0 0 
2406666666.6666665077 0.179908797144889803787393134371 0.009841080754995346069335937500 -0.000879276194609701633453369141 0.002401523990556598143336630713 0 0 0 0 
2406833333.3333334923 0.180214673280715886871661268742 0.009606951847672462463378906250 -0.000960923731327056884765625000 0.002261840505525470213649130713 0 0 0 0 
2407000000.0000000000 0.180200576782226590255575615629 0.009289930574595928192138671875 -0.000702544406522065401077270508 0.002240572823211551146266318213 0 0 0 0 
2407166666.6666665077 0.180420026183128412444744981258 0.008839042857289314270019531250 -0.000755606219172477722167968750 0.002398327458649874167201376807 0 0 0 0 
2407333333.3333334923 0.180224850773811312576455634371 0.008326531387865543365478515625 -0.000567166018299758434295654297 0.002319929189980030059814453125 0 0 0 0 
2407500000.0000000000 0.180071488022804288009481865629 0.007972292602062225341796875000 -0.000423141580540686899989527570 0.002411498688161373138427734375 0 0 0 0 
2407666666.6666665077 0.179879710078239413162393134371 0.007604667451232671737670898438 -0.000402827397920191287994384766 0.002351531526073813004734658350 0 0 0 0 
2407833333.3333334923 0.179403230547904996017294365629 0.006942630745470523834228515625 -0.000192737876204773810788831168 0.002332915784791111946105957031 0 0 0 0 
2408000000.0000000000 0.179120391607284601409588731258 0.006235397420823574066162109375 -0.000264863047050312215655726300 0.002234800485894083976745605469 0 0 0 0 
2408166666.6666665077 0.178715556859970092773437500000 0.005673310253769159317016601562 -0.000193322135601192712783813477 0.002327127149328589005711220850 0 0 0 0 
2408333333.3333334923 0.178406372666359003265057481258 0.004785535391420125961303710938 -0.000120037737360689802609305110 0.002179630333557724952697753906 0 0 0 0 
2408500000.0000000000 0.177807733416557312011718750000 0.003921689931303262710571289062 0.000001867209221018129028379917 0.001972145866602658791782998193 0 0 0 0 
2408666666.6666665077 0.177179425954818697830361884371 0.002952935639768838882446289062 -0.000157684800797142088413238525 0.002185520716011524200439453125 0 0 0 0 
2408833333.3333334923 0.176423415541648892501669365629 0.002022672444581985907313681494 -0.000059009751566918566823005676 0.002273555146530271010157919775 0 0 0 0 
2409000000.0000000000 0.175911635160446194747763115629 0.000997331226244568824768066406 0.000126864048070274293422698975 0.002121389610692859129664755713 0 0 0 0 
2409166666.6666665077 0.175317391753196688553018134371 -0.000077904405770823359489440918 0.000077146229159552603960037231 0.002117904601618648009059286963 0 0 0 0 
2409333333.3333334923 0.174590468406677301604901231258 -0.001254950999282300905940390479 0.000147734550409950288847246713 0.002093152608722447915318154443 0 0 0 0 
2409500000.0000000000 0.173996269702911404708700615629 -0.002828919095918536186218261719 0.000119436808745376806385578294 0.001928936108015478090998984229 0 0 0 0 
2409666666.6666665077 0.173067331314086886306924384371 -0.004078934434801340103149414062 0.000195535860257223302691859113 0.002040894469246267838719033350 0 0 0 0 
2409833333.3333334923 0.172524482011794988434161268742 -0.005405422300100327405447675488 0.000271680852165445685386657715 0.002071485389024018807652138818 0 0 0 0 
2410000000.0000000000 0.172047644853591891189736884371 -0.006947458256036043167114257812 0.000320798513712361509173792706 0.002036216901615262031555175781 0 0 0 0 
2410166666.6666665077 0.171587139368057306487713731258 -0.008499293588101863861083984375 0.000336012366460636312335413800 0.002091984497383236885070800781 0 0 0 0 
2410333333.3333334923 0.170900344848632812500000000000 -0.010241829790174959355364414648 0.000410348089644685387611389160 0.001982166199013590812683105469 0 0 0 0 
2410500000.0000000000 0.170493885874748202224893134371 -0.011877628974616529292096522852 0.000364895357051864320605677472 0.002058041980490088896510458838 0 0 0 0 
2410666666.6666665077 0.169843569397926302810830634371 -0.013791523873805999755859375000 0.000588448368944227695465087891 0.002049388829618691964390420068 0 0 0 0 
2410833333.3333334923 0.169425562024116488357705634371 -0.015418963506817819422711757227 0.000432435655966401100158691406 0.002073356183245778083801269531 0 0 0 0 
2411000000.0000000000 0.169060707092285211761151231258 -0.017235776409506801259974295704 0.000472552055725827813148498535 0.001889337552711368040797568213 0 0 0 0 
2411166666.6666665077 0.168757990002632113357705634371 -0.019110903143882751464843750000 0.000535989121999591588973999023 0.001870432985015213923213339697 0 0 0 0 
2411333333.3333334923 0.168647557497024508377236884371 -0.020977802574634548532506173046 0.000674814218655228614807128906 0.001979751745238900184631347656 0 0 0 0 
2411500000.0000000000 0.168308749794959994217080634371 -0.023053325712680820119837576954 0.000588364317081868648529052734 0.001959356712177395820617675781 0 0 0 0 
2411666666.6666665077 0.168360024690628107268963731258 -0.025041831657290458679199218750 0.000712018343620002269744873047 0.002048560185357927842381142725 0 0 0 0 
2411833333.3333334923 0.168341532349586486816406250000 -0.026700492948293689382532889454 0.000819080858491361141204833984 0.002108762273564935164210654150 0 0 0 0 
2412000000.0000000000 0.168434202671050997635049384371 -0.028728766366839408874511718750 0.000813503633253276348114013672 0.001975579420104622840881347656 0 0 0 0 
2412166666.6666665077 0.168409198522567804534588731258 -0.030771424993872639047642891796 0.000808550277724862098693847656 0.001823854865506290955784463037 0 0 0 0 
2412333333.3333334923 0.168778672814369201660156250000 -0.032573714852333068847656250000 0.000986527302302420139312744141 0.001972618279978632926940917969 0 0 0 0 
2412500000.0000000000 0.168764635920524597167968750000 -0.034304484724998467182199846093 0.001050839200615883090375590747 0.001953792292624711990356445312 0 0 0 0 
2412666666.6666665077 0.169096291065216092208700615629 -0.036433860659599297260324846093 0.001094297855161129994633339990 0.001892655738629400946973491138 0 0 0 0 
2412833333.3333334923 0.169515922665596008300781250000 -0.038279671221971511840820312500 0.001066614058800041892408061450 0.001901505514979362921473837744 0 0 0 0 
2413000000.0000000000 0.169932037591934204101562500000 -0.039782147854566567157785783593 0.001280940254218875928166054834 0.001802282757125795104383159106 0 0 0 0 
2413166666.6666665077 0.170325681567192105392294365629 -0.041574981063604361797292341407 0.001236061099916696982142783057 0.001761843217536807060241699219 0 0 0 0 
2413333333.3333334923 0.170733749866485595703125000000 -0.043373499065637588500976562500 0.001360281486995517990709614331 0.001858782954514027075526572119 0 0 0 0 
2413500000.0000000000 0.171219080686569213867187500000 -0.044911190867424011230468750000 0.001543165999464690902112651294 0.001674807863309979005100869287 0 0 0 0 
2413666666.6666665077 0.171795085072517395019531250000 -0.046402309089899063110351562500 0.001410324941389262893079448169 0.001713985693641006946563720703 0 0 0 0 
2413833333.3333334923 0.172105729579925509353799384371 -0.047802302986383438110351562500 0.001671004109084605953813862378 0.001733092823997139930725097656 0 0 0 0 
2414000000.0000000000 0.172546982765197809417401231258 -0.049268327653408050537109375000 0.001666353200562298081041645581 0.001701787812635302977321005713 0 0 0 0 
2414166666.6666665077 0.173309504985809298416299384371 -0.050470378249883651733398437500 0.001701472559943794987322163159 0.001561049022711813016178750146 0 0 0 0 
2414333333.3333334923 0.173696458339691189864950615629 -0.051774002611637122417409528907 0.001949247904121875979779887622 0.001334384898655116991755820166 0 0 0 0 
2414500000.0000000000 0.174486383795738192459268134371 -0.052604507654905319213867187500 0.001943294075317681052564311450 0.001224240055307745933532714844 0 0 0 0 
2414666666.6666665077 0.174883276224136408050213731258 -0.053730625659227371215820312500 0.001905175042338669083238911206 0.001248155836947262070299458081 0 0 0 0 
2414833333.3333334923 0.175324678421020507812500000000 -0.054779119789600372314453125000 0.001956098712980746789219521631 0.001135366619564593055127788013 0 0 0 0 
2415000000.0000000000 0.175637319684028597732705634371 -0.055525112897157669067382812500 0.002068302361294627189636230469 0.001053828746080398993251181494 0 0 0 0 
2415166666.6666665077 0.176110878586769104003906250000 -0.056426763534545898437500000000 0.002148755593225359916687011719 0.000952090893406420946121215820 0 0 0 0 
2415333333.3333334923 0.176545664668083190917968750000 -0.057183057069778442382812500000 0.002021491993218659920933388818 0.000838237931020557880401611328 0 0 0 0 
2415500000.0000000000 0.176882490515708895584268134371 -0.057733517140150070190429687500 0.002112295012921094894409179688 0.000719788076821714639663696289 0 0 0 0 
2415666666.6666665077 0.176925539970398004729901231258 -0.058156833052635192871093750000 0.002010220894590020179748535156 0.000560171261895447969436645508 0 0 0 0 
2415833333.3333334923 0.177313953638076809982138115629 -0.058699306100606918334960937500 0.002106633968651295141932822119 0.000472314306534826809733790265 0 0 0 0 
2416000000.0000000000 0.177225664258003207107705634371 -0.059270944446325302124023437500 0.001980931265279651121852255713 0.000402281031711027026176452637 0 0 0 0 
2416166666.6666665077 0.177397087216377313811932481258 -0.059583667665719992900807966407 0.002106622327119112014770507812 0.000227277749218046692296704703 0 0 0 0 
2416333333.3333334923 0.177417755126953097244424384371 -0.059844005852937698364257812500 0.002084740903228520913365029443 0.000034942895581480122428347929 0 0 0 0 
2416500000.0000000000 0.177248448133468600174111884371 -0.060248643159866333007812500000 0.002090241061523557142970419775 0.000086165608081500977277755737 0 0 0 0 
2416666666.6666665077 0.176981240510940607268963731258 -0.060574918985366821289062500000 0.001957421191036701202392578125 0.000125854247016832205370226450 0 0 0 0 
2416833333.3333334923 0.176811471581459100921307481258 -0.060983959585428237915039062500 0.001983392518013716177699423682 -0.000164498516824096387058812274 0 0 0 0 
2417000000.0000000000 0.176277935504913302322549384371 -0.061205368489027023315429687500 0.001888372586108743927599262769 -0.000234364240895956808894556866 0 0 0 0 
2417166666.6666665077 0.175824001431465204436932481258 -0.061336923390626907348632812500 0.001916613546200097040889120947 -0.000226729214773513403817853384 0 0 0 0 
2417333333.3333334923 0.175356239080429104904013115629 -0.061612930148839950561523437500 0.001799488672986627058741904150 -0.000215679945540614399030962534 0 0 0 0 
2417500000.0000000000 0.174530610442161587814169365629 -0.061949063092470169067382812500 0.001818043412640691020368266528 -0.000360698293661698698997497559 0 0 0 0 
2417666666.6666665077 0.174016416072845486739950615629 -0.062095455825328826904296875000 0.001771773444488645033595419775 -0.000335640448611229712336939679 0 0 0 0 
2417833333.3333334923 0.173258915543556213378906250000 -0.062426183372735977172851562500 0.001733260694891213937046670068 -0.000459637521998956799507141113 0 0 0 0 
2418000000.0000000000 0.172200724482536288162393134371 -0.062913239002227783203125000000 0.001564948121085762977600097656 -0.000531822734046727418899536133 0 0 0 0 
2418166666.6666665077 0.171342939138412503341513115629 -0.063197523355484008789062500000 0.001611838815733789963963173975 -0.000353063893271610086590367450 0 0 0 0 
2418333333.3333334923 0.170632749795913696289062500000 -0.063537970185279846191406250000 0.001488087349571288065669394385 -0.000530183897353708744049072266 0 0 0 0 
2418500000.0000000000 0.169429078698158291915731865629 -0.064036682248115539550781250000 0.001405997318215667984606098706 -0.000627756293397396802902221680 0 0 0 0 
2418666666.6666665077 0.168361812829971313476562500000 -0.064682014286518096923828125000 0.001389243756420909924748086084 -0.000548508192878216505050659180 0 0 0 0 
2418833333.3333334923 0.167074874043464688400106865629 -0.065179124474525451660156250000 0.001366130192764102978947304834 -0.000535067287273705005645751953 0 0 0 0 
2419000000.0000000000 0.165948420763015802581463731258 -0.065694235265254974365234375000 0.001324009266681968948961567456 -0.000580604188144207000732421875 0 0 0 0 
2419166666.6666665077 0.164827123284339904785156250000 -0.066477991640567779541015625000 0.001276445691473782062530517578 -0.000581491796765476465225219727 0 0 0 0 
2419333333.3333334923 0.163519918918609591385049384371 -0.067076772451400756835937500000 0.001232446404173970005632710034 -0.000599761609919369220733642578 0 0 0 0 
2419500000.0000000000 0.162284761667251586914062500000 -0.067936219274997711181640625000 0.001261377241462469100952148438 -0.000497545232065021991729736328 0 0 0 0 
2419666666.6666665077 0.161370426416397094726562500000 -0.069049537181854248046875000000 0.001146059599705041105385805444 -0.000574643723666667938232421875 0 0 0 0 
2419833333.3333334923 0.160023048520088195800781250000 -0.069819569587707519531250000000 0.001049195299856364943860698169 -0.000462680793134495615959167480 0 0 0 0 
2420000000.0000000000 0.159037068486213711837606865629 -0.070951476693153381347656250000 0.001172039890661836104152060400 -0.000452189095085486823886317120 0 0 0 0 
