# Hz S RI R 
2400000000.0000000000 0.173294410109519986251669365629 0.049239460378885269165039062500 0.000511365593411028385162353516 0.003493992378935217857360839844 0 0 0 0 
2400166666.6666665077 0.173848092555999811370526231258 0.048819266259670257568359375000 0.000461708172224461978108006610 0.003328208811581134796142578125 0 0 0 0 
2400333333.3333334923 0.174462541937828091720419365629 0.047868691384792327880859375000 0.000509124132804572582244873047 0.003447304712608457045314169775 0 0 0 0 
2400500000.0000000000 0.174657925963401794433593750000 0.047078296542167656635324846093 0.000697832030709832906723022461 0.003640733426436781883239746094 0 0 0 0 
2400666666.6666665077 0.174952119588851900955361884371 0.046641439199447631835937500000 0.000631044560577720403671264648 0.003605965757742524147033691406 0 0 0 0 
2400833333.3333334923 0.175318762660026605804119981258 0.045916184782981872558593750000 0.000581964617595076560974121094 0.003440557979047297997715615381 0 0 0 0 
2401000000.0000000000 0.175256133079528808593750000000 0.045338980853557586669921875000 0.000492770341224968433380126953 0.003469672286882996992823935400 0 0 0 0 
2401166666.6666665077 0.175526618957519503494424384371 0.044551853090524673461914062500 0.000631453644018620252609252930 0.003479430917650461196899414062 0 0 0 0 
2401333333.3333334923 0.175413534045219393631143134371 0.043974563479423522949218750000 0.000508744851686060428619384766 0.003664346644654870033264160156 0 0 0 0 
2401500000.0000000000 0.175537928938865689376669365629 0.043190658092498779296875000000 0.000729742518160492181777954102 0.003662266302853823141810751807 0 0 0 0 
2401666666.6666665077 0.175619617104530306717080634371 0.042862620204687118530273437500 0.000756556051783263683319091797 0.003698483109474182128906250000 0 0 0 0 
2401833333.3333334923 0.175616428256034906585369981258 0.041742712259292602539062500000 0.000873673649039119482040405273 0.003696471452713013128993368994 0 0 0 0 
2402000000.0000000000 0.175206884741783086578692518742 0.040787983685731887817382812500 0.001067559584043920040130615234 0.003758074482902884917018271338 0 0 0 0 
2402166666.6666665077 0.175345525145530700683593750000 0.039884373545646667480468750000 0.000936220749281346797943115234 0.003976332023739814758300781250 0 0 0 0 
2402333333.3333334923 0.175116121768951388260049384371 0.039176557213068008422851562500 0.001114016515202820084215473706 0.004128570668399333953857421875 0 0 0 0 
2402500000.0000000000 0.175084009766578702071981865629 0.038160961121320717548410783593 0.001341525581665337085723876953 0.004055575933307409286499023438 0 0 0 0 
2402666666.6666665077 0.174690365791320800781250000000 0.037159290164709091186523437500 0.001467619673348963043810200269 0.004089697729796171188354492188 0 0 0 0 
2402833333.3333334923 0.174288034439086886306924384371 0.035860747098922729492187500000 0.001645282376557589010951376807 0.004297259263694286346435546875 0 0 0 0 
2403000000.0000000000 0.174077838659286499023437500000 0.034463372081518173217773437500 0.001712542725726962089538574219 0.004208790604025126370901777051 0 0 0 0 
2403166666.6666665077 0.173751041293144198318643134371 0.033212594687938690185546875000 0.001948591321706772067426371997 0.004355617798864842328543378613 0 0 0 0 
2403333333.3333334923 0.173529326915740994552450615629 0.031816937029361731792409528907 0.002216797089204192161560058594 0.004226367454975843429565429688 0 0 0 0 
2403500000.0000000000 0.173176556825637789627236884371 0.030403206124901771545410156250 0.002404960570856928825378417969 0.004324268084019423398489667676 0 0 0 0 
2403666666.6666665077 0.172753423452377291580361884371 0.028550311923027038574218750000 0.002622545231133698983433388818 0.004400305915623903274536132812 0 0 0 0 
2403833333.3333334923 0.172559142112731905838174384371 0.026814956218004230154017264454 0.002891666255891323089599609375 0.004384383559226989746093750000 0 0 0 0 
2404000000.0000000000 0.172127425670623807052450615629 0.025059662759304050100306326954 0.003162578213959931893589638818 0.004489819984883069992065429688 0 0 0 0 
2404166666.6666665077 0.171701148152351407150106865629 0.023221531882882121694544608204 0.003358879359439014954807900537 0.004424313548952341079711914062 0 0 0 0 
2404333333.3333334923 0.171365007758140591720419365629 0.021450975909829139709472656250 0.003567293286323546929600381006 0.004242649767547845840454101562 0 0 0 0 
2404500000.0000000000 0.170940786600112887283486884371 0.019378872588276859628697579296 0.003764259163290261788609170068 0.004148537758737803372854902051 0 0 0 0 
2404666666.6666665077 0.170628994703292902190838731258 0.017437104135751720773717110546 0.004232037346810103330130292676 0.004030236043035984039306640625 0 0 0 0 
2404833333.3333334923 0.170481026172637911697549384371 0.015562383458018299448033516796 0.004394871648401021957397460938 0.003946689423173666000366210938 0 0 0 0 
2405000000.0000000000 0.170347765088081387618856865629 0.013555883429944520432441912305 0.004452100023627281188964843750 0.003916577901691198348999023438 0 0 0 0 
2405166666.6666665077 0.170300379395484896560830634371 0.011412245221436020242711251171 0.004674155265092849731445312500 0.003794670337811111970188759912 0 0 0 0 
2405333333.3333334923 0.170331180095672607421875000000 0.009359022602438926696777343750 0.005111883394420146942138671875 0.003543720580637454986572265625 0 0 0 0 
2405500000.0000000000 0.170253872871398898025674384371 0.007347818929702044400686933301 0.005206757690757513046264648438 0.003285423852503300146815634619 0 0 0 0 
2405666666.6666665077 0.170389786362648010253906250000 0.005494058597832918167114257812 0.005573248025029897689819335938 0.003199751954525709152221679688 0 0 0 0 
2405833333.3333334923 0.170375317335128811935263115629 0.003413006896153091950657509912 0.005800090264528989791870117188 0.002949139801785349845886230469 0 0 0 0 
2406000000.0000000000 0.170819178223609896560830634371 0.001286198385059833960292197119 0.006333419587463141355032636426 0.002733788685873150825500488281 0 0 0 0 
2406166666.6666665077 0.170861467719078091720419365629 -0.000628508802037686109542846680 0.006489704828709363937377929688 0.002594718942418694929835654150 0 0 0 0 
2406333333.3333334923 0.171493530273437500000000000000 -0.002626836532726883888244628906 0.006703278049826622009277343750 0.002255963394418358802795410156 0 0 0 0 
2406500000.0000000000 0.171739682555198697189169365629 -0.004675162490457296371459960938 0.006902926135808228579049394824 0.001727224909700453064562153394 0 0 0 0 
2406666666.6666665077 0.172147840261459406097088731258 -0.006554173305630683898925781250 0.007092713844031096372122480176 0.001503776642493904070613242041 0 0 0 0 
2406833333.3333334923 0.172880932688713101486044365629 -0.008477381430566310882568359375 0.007296364288777112960815429688 0.001080012065358459949493408203 0 0 0 0 
2407000000.0000000000 0.173590973019599886795205634371 -0.010378127917647360020647617773 0.007317892741411924362182617188 0.000695236667525023221969604492 0 0 0 0 
2407166666.6666665077 0.174185037612915011306924384371 -0.012153230607509609567662423046 0.007560265716165304183959960938 0.000169272694620303809642791748 0 0 0 0 
2407333333.3333334923 0.174833595752716092208700615629 -0.013925925828516479837437813671 0.007614112924784421920776367188 -0.000281038985121995210647583008 0 0 0 0 
2407500000.0000000000 0.175477132201194790939169365629 -0.015607980079948900395403477148 0.007659750990569592389578534863 -0.000771304417867213487625122070 0 0 0 0 
2407666666.6666665077 0.176279664039611788650674384371 -0.017238628119230270385742187500 0.007693078834563493728637695312 -0.001333873602561653094050742041 0 0 0 0 
2407833333.3333334923 0.176915422081947298904580634371 -0.019042532891035079956054687500 0.007658238522708415985107421875 -0.001915264059789478995679545825 0 0 0 0 
2408000000.0000000000 0.177645787596702603439169365629 -0.020641162991523739206334298046 0.007610466331243515014648437500 -0.002376709366217256026027060400 0 0 0 0 
2408166666.6666665077 0.178483098745346097091513115629 -0.021906200796365741384486014454 0.007326473947614431381225585938 -0.002832097234204411940333701025 0 0 0 0 
2408333333.3333334923 0.179270580410957308670205634371 -0.023306773975491520273228829296 0.007155939936637878417968750000 -0.003383624833077191872837685693 0 0 0 0 
2408500000.0000000000 0.179885894060134887695312500000 -0.024640655145049098623255545704 0.006935863755643367767333984375 -0.003778630169108510017395019531 0 0 0 0 
2408666666.6666665077 0.180419072508812006194744981258 -0.025946158915758129465123360546 0.006592610385268926620483398438 -0.004259247332811355590820312500 0 0 0 0 
2408833333.3333334923 0.181089326739311190506143134371 -0.027183687314391139638880545704 0.006187123246490955352783203125 -0.004743427969515323638916015625 0 0 0 0 
2409000000.0000000000 0.181400001049041803558026231258 -0.028241494670510288583775704296 0.005790115799754858016967773438 -0.004966799635440111160278320312 0 0 0 0 
2409166666.6666665077 0.182066276669502313811932481258 -0.029155598953366279602050781250 0.005325137171894311904907226562 -0.005294535774737597379202558301 0 0 0 0 
2409333333.3333334923 0.182494744658470209319744981258 -0.030066406354308128356933593750 0.004951830022037029266357421875 -0.005561823025345802307128906250 0 0 0 0 
2409500000.0000000000 0.182828560471534701248330634371 -0.030990617349743839609166329296 0.004462813958525657653808593750 -0.005688353907316923141479492188 0 0 0 0 
2409666666.6666665077 0.183046475052833612640057481258 -0.031514812260866172100026716407 0.003925480879843235015869140625 -0.005739947780966758728027343750 0 0 0 0 
2409833333.3333334923 0.183371543884277288238848768742 -0.031920261681079871440847028907 0.003641535062342882156372070312 -0.006048940122127532958984375000 0 0 0 0 
2410000000.0000000000 0.183723494410514803787393134371 -0.032430000603199012065847028907 0.003224802901968359947204589844 -0.006173840258270502090454101562 0 0 0 0 
2410166666.6666665077 0.183765277266502408126669365629 -0.032848302274942398071289062500 0.002867596689611672921421670068 -0.006178067531436681747436523438 0 0 0 0 
2410333333.3333334923 0.183775559067726107498330634371 -0.033403895795345313335378278907 0.002477340167388319969177246094 -0.006235239561647176742553710938 0 0 0 0 
2410500000.0000000000 0.183877110481262207031250000000 -0.033789195120334632183034528907 0.001922242227010428905487060547 -0.006188157014548779401297284863 0 0 0 0 
2410666666.6666665077 0.183757066726684598068075615629 -0.034186888486146926879882812500 0.001605570549145340919494628906 -0.006120579782873392105102539062 0 0 0 0 
2410833333.3333334923 0.183628171682357788085937500000 -0.034210301935672760009765625000 0.001083597424440086104749370044 -0.006072171963751316070556640625 0 0 0 0 
2411000000.0000000000 0.183450281620025607010049384371 -0.034532081335783011699636091407 0.000964857579674571752548217773 -0.006105681415647268295288085938 0 0 0 0 
2411166666.6666665077 0.183127880096435602386151231258 -0.034876327961683273315429687500 0.000559103442355990409851074219 -0.006003278307616710662841796875 0 0 0 0 
2411333333.3333334923 0.182600259780883789062500000000 -0.035306010395288467407226562500 0.000182383388164453208446502686 -0.005921725183725357055664062500 0 0 0 0 
2411500000.0000000000 0.182099387049674987792968750000 -0.035663008689880371093750000000 -0.000086790816567372530698776245 -0.005890225991606712341308593750 0 0 0 0 
2411666666.6666665077 0.181710153818130493164062500000 -0.036150213330984122539479841407 -0.000459554081317037289768773212 -0.005539683625102043151855468750 0 0 0 0 
2411833333.3333334923 0.180921182036399813553018134371 -0.036472436040639877319335937500 -0.000716202659532427787780761719 -0.005402490962296724319458007812 0 0 0 0 
2412000000.0000000000 0.180065765976905794998330634371 -0.037016425281763076782226562500 -0.000978906173259019851684570312 -0.005265725776553153991699218750 0 0 0 0 
2412166666.6666665077 0.179242268204688998123330634371 -0.037376917898654937744140625000 -0.001295605208724736950517963940 -0.005189641844481229782104492188 0 0 0 0 
2412333333.3333334923 0.178427636623382596114950615629 -0.037962641566991812969167341407 -0.001533540082164108970044780200 -0.004693009890615940093994140625 0 0 0 0 
2412500000.0000000000 0.177222326397895812988281250000 -0.038462039083242423320729841407 -0.001696952735073864893672324072 -0.004547438584268093109130859375 0 0 0 0 
2412666666.6666665077 0.176293298602104187011718750000 -0.039261482656002051616628278907 -0.001977893989533185958862304688 -0.004184795077890157699584960938 0 0 0 0 
2412833333.3333334923 0.175163418054580688476562500000 -0.039890918880701072002370466407 -0.002089950023218988938572548975 -0.004061569459736347198486328125 0 0 0 0 
2413000000.0000000000 0.173889085650444003006143134371 -0.040666081011295318603515625000 -0.002133135218173265890834189307 -0.003688859054818748994114541162 0 0 0 0 
2413166666.6666665077 0.172456637024879511077557481258 -0.041475988924503333354909528907 -0.002231484511867165999171591650 -0.003375714644789696173426962744 0 0 0 0 
2413333333.3333334923 0.171245455741882296463174384371 -0.042317245155572891235351562500 -0.002343542408198118209838867188 -0.003200723556801677183863974463 0 0 0 0 
2413500000.0000000000 0.169878065586090087890625000000 -0.043393842875957489013671875000 -0.002267708303406835036036826025 -0.002812650054693222045898437500 0 0 0 0 
2413666666.6666665077 0.168781876564025906661825615629 -0.044413842260837561870534528907 -0.002287888666614890098571777344 -0.002618176164105534987208701025 0 0 0 0 
2413833333.3333334923 0.167415559291839599609375000000 -0.045529365539550781250000000000 -0.002255922649055718941929482568 -0.002389688976109027862548828125 0 0 0 0 
2414000000.0000000000 0.166070148348808288574218750000 -0.046835355460643768310546875000 -0.002266808412969111962559365381 -0.002316622063517570929286337744 0 0 0 0 
2414166666.6666665077 0.165114015340805109222088731258 -0.048059705644845962524414062500 -0.002213844796642661094665527344 -0.002106568310409783883335732568 0 0 0 0 
2414333333.3333334923 0.163771167397499112228231865629 -0.049574147909879677509348283593 -0.002028740011155604882481240381 -0.001800670521333814100978232275 0 0 0 0 
2414500000.0000000000 0.162683755159378107268963731258 -0.050914678722620010375976562500 -0.002069134032353758811950683594 -0.001628389814868568940403603662 0 0 0 0 
2414666666.6666665077 0.161388605833053588867187500000 -0.052228335291147232055664062500 -0.001889131730422378020045615088 -0.001542450161650777079938579028 0 0 0 0 
2414833333.3333334923 0.160309657454490689376669365629 -0.054009500890970230102539062500 -0.001842064782977103970171284253 -0.001218489953316747925401997144 0 0 0 0 
2415000000.0000000000 0.159328788518905611892861884371 -0.055536333471536643291432966407 -0.001736311241984366936924599756 -0.001281120697967707893968891675 0 0 0 0 
2415166666.6666665077 0.158346503973007202148437500000 -0.057327922433614730834960937500 -0.001709050033241509957554482568 -0.001184231718070805072784423828 0 0 0 0 
2415333333.3333334923 0.157664835453033502776776231258 -0.059208281338214867328684221093 -0.001641621231101453087450336987 -0.001011016196571290926692343604 0 0 0 0 
2415500000.0000000000 0.156823664903640802581463731258 -0.061038561165332787250559221093 -0.001350877922959625937818217700 -0.000812169339042156934738159180 0 0 0 0 
2415666666.6666665077 0.156057745218277005294638115629 -0.062813580036163330078125000000 -0.001341919531114398999455117334 -0.000947010295931249856948852539 0 0 0 0 
2415833333.3333334923 0.155429959297180203536825615629 -0.064802013337612152099609375000 -0.001248923712410032966016459888 -0.001078484230674803040148090894 0 0 0 0 
2416000000.0000000000 0.154724255204200689117755018742 -0.066786378622055053710937500000 -0.001147019211202860095380473560 -0.000763493299018591642379760742 0 0 0 0 
2416166666.6666665077 0.154388844966888399978799384371 -0.068669594824314117431640625000 -0.001183279673568903966190957178 -0.000771708146203309297561645508 0 0 0 0 
2416333333.3333334923 0.153799697756767300704794365629 -0.070695899426937103271484375000 -0.000943683553487062454223632812 -0.000840984517708420753479003906 0 0 0 0 
2416500000.0000000000 0.153452038764953613281250000000 -0.072807565331459045410156250000 -0.000863810651935636997222900391 -0.000718332536052912473678588867 0 0 0 0 
2416666666.6666665077 0.153004527091980008224325615629 -0.074597030878067016601562500000 -0.000874364515766501426696777344 -0.000840409018564969301223754883 0 0 0 0 
2416833333.3333334923 0.152873650193214388748330634371 -0.076621010899543762207031250000 -0.000752907712012529373168945312 -0.000663530954625457525253295898 0 0 0 0 
2417000000.0000000000 0.152496427297592190841513115629 -0.078566111624240875244140625000 -0.000627376895863562822341918945 -0.000763199874199926853179931641 0 0 0 0 
2417166666.6666665077 0.152426287531852694412393134371 -0.080341413617134094238281250000 -0.000734649773221462965011596680 -0.000557769555598497390747070312 0 0 0 0 
2417333333.3333334923 0.152240663766860989669638115629 -0.081951066851615905761718750000 -0.000604051398113369941711425781 -0.000879757863003760576248168945 0 0 0 0 
2417500000.0000000000 0.152252003550529507736044365629 -0.083887577056884765625000000000 -0.000585211499128490686416625977 -0.000880783249158412218093872070 0 0 0 0 
2417666666.6666665077 0.152275651693344088455361884371 -0.085291661322116851806640625000 -0.000517195963766425848007202148 -0.000880191393662244081497192383 0 0 0 0 
2417833333.3333334923 0.152286335825920104980468750000 -0.086884267628192901611328125000 -0.000333319621859118288189488544 -0.000991739216260612010955810547 0 0 0 0 
2418000000.0000000000 0.152306675910949707031250000000 -0.088413245975971221923828125000 -0.000439982657553628087043762207 -0.001060502952896058993098593604 0 0 0 0 
2418166666.6666665077 0.152398496866226196289062500000 -0.089656360447406768798828125000 -0.000459809700259938781887608661 -0.001087700482457875988603901440 0 0 0 0 
2418333333.3333334923 0.152779415249824496170205634371 -0.091015718877315521240234375000 -0.000475015898700803518295288086 -0.001324123470112680955174111475 0 0 0 0 
2418500000.0000000000 0.152727499604225186446981865629 -0.092035628855228424072265625000 -0.000473146996228024417727869855 -0.001310982042923569896100688403 0 0 0 0 
2418666666.6666665077 0.153135538101196289062500000000 -0.093098565936088562011718750000 -0.000368116918252780979305821552 -0.001323177828453480980516743237 0 0 0 0 
2418833333.3333334923 0.153205543756485013107138115629 -0.094149537384510040283203125000 -0.000435111607657745480537414551 -0.001382334390655159950256347656 0 0 0 0 
2419000000.0000000000 0.153397694230079706390057481258 -0.094802811741828918457031250000 -0.000388202402973547577857971191 -0.001494531985372304916381835938 0 0 0 0 
2419166666.6666665077 0.153534516692161587814169365629 -0.095689751207828521728515625000 -0.000604694010689854621887207031 -0.001528132823295891068102192456 0 0 0 0 
2419333333.3333334923 0.153580605983734103103799384371 -0.096139185130596160888671875000 -0.000753597181756049394607543945 -0.001653441227972507910487509619 0 0 0 0 
2419500000.0000000000 0.153808683156967190841513115629 -0.096714638173580169677734375000 -0.000734106753952801227569580078 -0.001524799037724732918980263818 0 0 0 0 
2419666666.6666665077 0.154182344675064086914062500000 -0.097049757838249206542968750000 -0.000870156683959066867828369141 -0.001673097256571054892299033057 0 0 0 0 
2419833333.3333334923 0.154096841812133789062500000000 -0.097242549061775207519531250000 -0.000986469676718115806579589844 -0.001579184317961334965349506909 0 0 0 0 
