# Hz S RI R 50
2400000000.0000000000 0.155712530016899108886718750000 0.111718378961086300948934990629 0.000368435343261808211177271710 0.004083318635821343335623456738 0 0 0 0 
2400166666.6666665077 0.155241146683692904373330634371 0.109492078423500102668519673443 0.000501029484439641237258911133 0.004017143510282039642333984375 0 0 0 0 
2400333333.3333334923 0.154957070946693392654580634371 0.107183814048767103721537807814 0.000394040340324863791465759277 0.004022128880023956298828125000 0 0 0 0 
2400500000.0000000000 0.154542326927185086349325615629 0.104699090123176602462606865629 0.000656990567222237586975097656 0.004211583640426397323608398438 0 0 0 0 
2400666666.6666665077 0.154515624046325711349325615629 0.102108709514141096641459682814 0.000578752602450549602508544922 0.004177736584097146987915039062 0 0 0 0 
2400833333.3333334923 0.154257223010063199142294365629 0.099292181432247161865234375000 0.000915080134291201829910278320 0.003989497665315867337698652051 0 0 0 0 
2401000000.0000000000 0.154184997081756591796875000000 0.096485272049903869628906250000 0.000867056078277528285980224609 0.004130960907787084579467773438 0 0 0 0 
2401166666.6666665077 0.153898313641548212249432481258 0.093622691929340362548828125000 0.001082119531929492950439453125 0.004231208935379981994628906250 0 0 0 0 
2401333333.3333334923 0.154177755117416409591513115629 0.090818636119365692138671875000 0.001236429787240923101540590601 0.004219862632453441619873046875 0 0 0 0 
2401500000.0000000000 0.154437959194183405120526231258 0.087625503540039062500000000000 0.001395307132042943997624062646 0.004089139401912689208984375000 0 0 0 0 
2401666666.6666665077 0.154376462101936312576455634371 0.084671720862388610839843750000 0.001482038642279803969739604419 0.004161742515861988067626953125 0 0 0 0 
2401833333.3333334923 0.154787272214889498611611884371 0.081959329545497894287109375000 0.001571678090840578079223632812 0.004126523621380329132080078125 0 0 0 0 
2402000000.0000000000 0.155468672513961791992187500000 0.078806519508361816406250000000 0.001771479379385709979413676685 0.004126132931560277938842773438 0 0 0 0 
2402166666.6666665077 0.156116962432861300369424384371 0.076218895614147186279296875000 0.001876367488875984928728413159 0.004155291244387626647949218750 0 0 0 0 
2402333333.3333334923 0.156947806477546691894531250000 0.072979040443897247314453125000 0.002066412242129445075988769531 0.004188359249383211135864257812 0 0 0 0 
2402500000.0000000000 0.157982096076011713225994981258 0.070263922214508056640625000000 0.002261894056573510169982910156 0.004099074751138687133789062500 0 0 0 0 
2402666666.6666665077 0.159224063158035306075888115629 0.067631147801876068115234375000 0.002479830756783484978916787256 0.004018328152596951398367597363 0 0 0 0 
2402833333.3333334923 0.160244926810264587402343750000 0.064910925924777984619140625000 0.002500811824575067000148154150 0.003915676847100257873535156250 0 0 0 0 
2403000000.0000000000 0.161676377058029202560263115629 0.062336497008800506591796875000 0.002776835113763809204101562500 0.003752087708562612967250204932 0 0 0 0 
2403166666.6666665077 0.163464635610580388824786268742 0.059790674597024917602539062500 0.003056882880628108978271484375 0.003607608145102858977076865088 0 0 0 0 
2403333333.3333334923 0.164924129843711908538494981258 0.057197134941816329956054687500 0.003296658396720885796787881006 0.003590605454519391059875488281 0 0 0 0 
2403500000.0000000000 0.166611269116401700118856865629 0.054926432669162750244140625000 0.003382805269211531119105673682 0.003534149844199419021606445312 0 0 0 0 
2403666666.6666665077 0.168497249484062194824218750000 0.052739772945642471313476562500 0.003450495889410376982447958838 0.003207893576472998099086142432 0 0 0 0 
2403833333.3333334923 0.170228958129882812500000000000 0.050592448562383651733398437500 0.003640300361439586119410849463 0.002965972758829594092128134619 0 0 0 0 
2404000000.0000000000 0.171804338693618802169638115629 0.048555083572864532470703125000 0.003676610067486763000488281250 0.002774969674646853966953896631 0 0 0 0 
2404166666.6666665077 0.173826441168785095214843750000 0.046969238668680191040039062500 0.003785704495385289192199707031 0.002582114655524491830113076318 0 0 0 0 
2404333333.3333334923 0.175495624542236300369424384371 0.045194860547780990600585937500 0.003731103613972663879394531250 0.002411132678389548821690224756 0 0 0 0 
2404500000.0000000000 0.177487894892692593673544365629 0.043465945869684219360351562500 0.003914133645594120025634765625 0.002323899650946259932277060400 0 0 0 0 
2404666666.6666665077 0.179171681404113797286825615629 0.042161803692579269409179687500 0.003787529887631535963771201025 0.002132979221642016930821084131 0 0 0 0 
2404833333.3333334923 0.181115463376045199295205634371 0.040939960628747940063476562500 0.003918735310435295104980468750 0.001957244705408812002894736182 0 0 0 0 
2405000000.0000000000 0.182857424020767211914062500000 0.040099442005157470703125000000 0.003726236755028367042541503906 0.001886367215774952931645058740 0 0 0 0 
2405166666.6666665077 0.184386909008026095291299384371 0.039317876100540161132812500000 0.003861798439174890951869345557 0.001708665746264159896253276294 0 0 0 0 
2405333333.3333334923 0.185981526970863286774005018742 0.038616996258497238159179687500 0.004075753968209028244018554688 0.001613679225556551976444863428 0 0 0 0 
2405500000.0000000000 0.187677264213562011718750000000 0.038102548569440841674804687500 0.003978142514824867248535156250 0.001491708098910748958587646484 0 0 0 0 
2405666666.6666665077 0.189183861017227200607138115629 0.037733253091573722148854841407 0.004065956920385360717773437500 0.001395978615619241974474262769 0 0 0 0 
2405833333.3333334923 0.190750867128372192382812500000 0.037545900791883468627929687500 0.004111717455089092254638671875 0.001297632115893065929412841797 0 0 0 0 
2406000000.0000000000 0.191998496651649502853231865629 0.037349060177803039550781250000 0.004049802664667367935180664062 0.001191818038932979106903076172 0 0 0 0 
2406166666.6666665077 0.193358525633812006194744981258 0.037232756614685058593750000000 0.004180789459496737393850995801 0.001094532432034611918805766528 0 0 0 0 
2406333333.3333334923 0.194492191076278686523437500000 0.037342987954616546630859375000 0.004433490801602602005004882812 0.000772173283621668815612792969 0 0 0 0 
2406500000.0000000000 0.195523798465728787521200615629 0.037423510104417800903320312500 0.004178573843091726303100585938 0.000748087069950997829437255859 0 0 0 0 
2406666666.6666665077 0.196413427591323908050213731258 0.037655040621757507324218750000 0.004287662450224161148071289062 0.000611215597018599510192871094 0 0 0 0 
2406833333.3333334923 0.196926042437553405761718750000 0.037920329719781882549245466407 0.003273003967478870911839150537 -0.000777693348936736583709716797 0 0 0 0 
2407000000.0000000000 0.197612151503562899490518134371 0.038053084164857857440988908593 0.004371056333184242248535156250 -0.000185543976840563091352739877 0 0 0 0 
2407166666.6666665077 0.198306843638420104980468750000 0.038062673062086112285573591407 0.004426023922860622406005859375 -0.000226072137593291699886322021 0 0 0 0 
2407333333.3333334923 0.198280721902847290039062500000 0.038741249591112136840820312500 0.003926135133951902389526367188 -0.000020477455109357830474172898 0 0 0 0 
2407500000.0000000000 0.198466584086418207366619981258 0.038970001041889190673828125000 0.003751036245375872092006064307 0.000029646229450008828530107804 0 0 0 0 
2407666666.6666665077 0.198585599660873413085937500000 0.039126321673393249511718750000 0.003867834107950330214259482275 -0.000453476619441062211990356445 0 0 0 0 
2407833333.3333334923 0.198121637105941800216513115629 0.039398349821567542339284528907 0.002920569619163870811462402344 -0.000493898987770080566406250000 0 0 0 0 
2408000000.0000000000 0.198192089796066311935263115629 0.039392303675413131713867187500 0.003991346806287766370291425488 -0.001307451166212558963178325122 0 0 0 0 
2408166666.6666665077 0.197500333189964294433593750000 0.039735540747642517089843750000 0.002758655231446028189418173682 -0.000494705862365663051605224609 0 0 0 0 
2408333333.3333334923 0.197361528873443603515625000000 0.039282161742448806762695312500 0.003616096684709190888645791162 -0.000977518269792199134826660156 0 0 0 0 
2408500000.0000000000 0.196738079190254211425781250000 0.039503816515207290649414062500 0.003487509442493319945094443213 -0.000925098080188035964965820312 0 0 0 0 
2408666666.6666665077 0.196012467145919799804687500000 0.039337597787380218505859375000 0.003471787087619305090663290869 -0.000819432723801583051681518555 0 0 0 0 
2408833333.3333334923 0.195280253887176513671875000000 0.038855001330375671386718750000 0.003333634929731487794163369287 -0.000976191367954015731811523438 0 0 0 0 
2409000000.0000000000 0.194309532642364501953125000000 0.038173552602529532695729841407 0.003460289677605032920837402344 -0.001079655135981739001033163916 0 0 0 0 
2409166666.6666665077 0.193114697933196993728799384371 0.037714943289756781841237653907 0.003353729844093323187587118994 -0.001032173051498830101610493237 0 0 0 0 
2409333333.3333334923 0.192264199256897000411825615629 0.036829344928264617919921875000 0.003285351209342480139491415869 -0.001017060829326509995701455225 0 0 0 0 
2409500000.0000000000 0.191051229834556607345419365629 0.035901322960853576660156250000 0.003142546862363814873936318506 -0.001053469255566596984863281250 0 0 0 0 
2409666666.6666665077 0.189765691757202203948651231258 0.034756675362586982036550153907 0.002911430550739169120788574219 -0.001343128969892859892604208838 0 0 0 0 
2409833333.3333334923 0.188541188836097689529580634371 0.033630624413490302349050153907 0.002891348907724022865295410156 -0.001187235000543295903446816553 0 0 0 0 
2410000000.0000000000 0.187413066625595092773437500000 0.032229579985141747211496721093 0.003022947348654270172119140625 -0.001101001631468534903285361182 0 0 0 0 
2410166666.6666665077 0.186237901449203491210937500000 0.030584631487727168691614920704 0.003003590274602175192592001807 -0.001136486418545245907427143628 0 0 0 0 
2410333333.3333334923 0.184945970773696899414062500000 0.028896065428853038442591483204 0.002965949941426516012904501807 -0.001184917287901043891906738281 0 0 0 0 
2410500000.0000000000 0.183859303593635586837606865629 0.027274878695607188833216483204 0.002821619389578700065612792969 -0.001203814405016601085662841797 0 0 0 0 
2410666666.6666665077 0.182771325111389187911825615629 0.024975046515464779245396798046 0.002722720615565776824951171875 -0.001172432559542357921600341797 0 0 0 0 
2410833333.3333334923 0.181768804788589505294638115629 0.022961843758821490896204764454 0.002902209060266613960266113281 -0.001375782303512095971348427881 0 0 0 0 
2411000000.0000000000 0.180866226553916903396768134371 0.020852198824286460876464843750 0.002969399327412248091456747900 -0.001274591078981756947161030347 0 0 0 0 
2411166666.6666665077 0.179954022169113186935263115629 0.018693149089813228952428048046 0.002919462276622653007507324219 -0.001358873792923986911773681641 0 0 0 0 
2411333333.3333334923 0.179175943136215209960937500000 0.016293346881866458547571951954 0.002981461817398666901829384912 -0.001381850917823612906812358325 0 0 0 0 
2411500000.0000000000 0.178422525525093106368856865629 0.013803428970277309417724609375 0.003075359389185905890223837744 -0.001485029119066894054412841797 0 0 0 0 
2411666666.6666665077 0.178005144000053405761718750000 0.011427380144596099853515625000 0.002843305934220552010777138818 -0.001444090972654521898982382666 0 0 0 0 
2411833333.3333334923 0.177694708108902005294638115629 0.008847211487591266632080078125 0.003018266521394253210780478369 -0.001693047233857215101357485132 0 0 0 0 
2412000000.0000000000 0.177583485841751098632812500000 0.005957304965704680356497480176 0.002910035196691751913783408057 -0.001668522832915187098859477466 0 0 0 0 
2412166666.6666665077 0.177446201443672207931356865629 0.003875097492709755897521972656 0.003025372046977282004115439307 -0.001716337981633841991424560547 0 0 0 0 
2412333333.3333334923 0.177563577890396090408486884371 0.000964439474046230316162109375 0.002922235522419213814976357568 -0.001700405380688607909558940356 0 0 0 0 
2412500000.0000000000 0.177716538310050992111044365629 -0.001564850797876716093776083838 0.002913829172030090852024697412 -0.001806448912248014970066689600 0 0 0 0 
2412666666.6666665077 0.178130224347114590743856865629 -0.004197181202471256256103515625 0.003168692113831638856175088037 -0.001742233638651669025421142578 0 0 0 0 
2412833333.3333334923 0.178850024938583401779013115629 -0.006742936559021472930908203125 0.003137005725875496864318847656 -0.001939177280291914939880371094 0 0 0 0 
2413000000.0000000000 0.179479479789733886718750000000 -0.009458261542022228240966796875 0.003099401481449604034423828125 -0.002067493740469216866734170068 0 0 0 0 
2413166666.6666665077 0.180099725723266601562500000000 -0.011945930309593679255475429102 0.003096543019637465910670615088 -0.002103951061144471168518066406 0 0 0 0 
2413333333.3333334923 0.181194767355918912032919365629 -0.014474924653768539428710937500 0.003055145498365163803100585938 -0.002397150034084916114807128906 0 0 0 0 
2413500000.0000000000 0.181967034935951205154580634371 -0.017069844529032710683802420704 0.003009186126291751861572265625 -0.002557782921940087838413857568 0 0 0 0 
2413666666.6666665077 0.183138877153396606445312500000 -0.019386010244488719594935233204 0.003167488146573305130004882812 -0.002941588172689079804661416162 0 0 0 0 
2413833333.3333334923 0.184363082051277188400106865629 -0.021712498739361759531041329296 0.002985900966450572013854980469 -0.003096731612458825111389160156 0 0 0 0 
2414000000.0000000000 0.185595467686653109451455634371 -0.023970952257513999938964843750 0.002880737418308854103088378906 -0.003314965171739459037780761719 0 0 0 0 
2414166666.6666665077 0.186963781714439392089843750000 -0.025913523510098460805872733204 0.002845274517312645912170410156 -0.003419386222958565191981650244 0 0 0 0 
2414333333.3333334923 0.188062041997909601409588731258 -0.028170501813292499887486641796 0.002632819814607501029968261719 -0.003553568618372083143946982275 0 0 0 0 
2414500000.0000000000 0.189515441656112698654013115629 -0.029979137703776359558105468750 0.002492930740118027167079306494 -0.003643654054030776023864746094 0 0 0 0 
2414666666.6666665077 0.190892964601516695877236884371 -0.031639784574508666992187500000 0.002202403498813509941101074219 -0.003851987887173891067504882812 0 0 0 0 
2414833333.3333334923 0.192222908139228793045205634371 -0.033397305756807327270507812500 0.002116311108693480925319052588 -0.003924356773495674133300781250 0 0 0 0 
2415000000.0000000000 0.193540751934051513671875000000 -0.034818381071090698242187500000 0.001836274052038789012311625903 -0.003963923081755638122558593750 0 0 0 0 
2415166666.6666665077 0.194917961955070495605468750000 -0.036095313727855682373046875000 0.001621001050807536082026816260 -0.003971549682319164276123046875 0 0 0 0 
2415333333.3333334923 0.196328356862068204025106865629 -0.037129800766706466674804687500 0.001683980110101402022718120044 -0.004084158688783645629882812500 0 0 0 0 
2415500000.0000000000 0.197665885090827886383380018742 -0.038117729127407067035715471093 0.001378407934680581092834472656 -0.004137714393436908721923828125 0 0 0 0 
2415666666.6666665077 0.198933616280555697342080634371 -0.039143268018960952758789062500 0.001372647122479975006700825269 -0.004024053458124399185180664062 0 0 0 0 
2415833333.3333334923 0.200159415602683993240518134371 -0.039832927286624908447265625000 0.001054704538546503023860312354 -0.004252926446497440338134765625 0 0 0 0 
2416000000.0000000000 0.201235651969909695724325615629 -0.040398474782705307006835937500 0.000915859302040189504623413086 -0.004358319565653800964355468750 0 0 0 0 
2416166666.6666665077 0.202189043164253207107705634371 -0.041074898093938827514648437500 0.000768062367569655179977416992 -0.004187454935163260373587323926 0 0 0 0 
2416333333.3333334923 0.203148245811462402343750000000 -0.041462097316980361938476562500 0.000719488540198653936386108398 -0.004240368958562613400931073926 0 0 0 0 
2416500000.0000000000 0.203853115439415005782919365629 -0.041712146252393722534179687500 0.000518724671564996242523193359 -0.004236016422510147094726562500 0 0 0 0 
2416666666.6666665077 0.204406797885894803146200615629 -0.042080417275428771972656250000 0.000415509799495339393615722656 -0.004465417936444283399100019238 0 0 0 0 
2416833333.3333334923 0.204925715923309298416299384371 -0.041936688125133507465402971093 0.000084520135715138167142868042 -0.004564864095300436019897460938 0 0 0 0 
2417000000.0000000000 0.205339610576629610916299384371 -0.042137656360864639282226562500 -0.000038089870940893888473510742 -0.004365929402410984039306640625 0 0 0 0 
2417166666.6666665077 0.205409094691276605804119981258 -0.041910964995622641826589216407 -0.000313701631966978311538696289 -0.004476529080420733365530683301 0 0 0 0 
2417333333.3333334923 0.205294355750083895584268134371 -0.041578333824872970581054687500 -0.000580691732466220855712890625 -0.004481102805584669113159179688 0 0 0 0 
2417500000.0000000000 0.205294981598854092696981865629 -0.041568614542484283447265625000 -0.000599675055127590894699096680 -0.004438766743987798690795898438 0 0 0 0 
2417666666.6666665077 0.205002650618553189376669365629 -0.041180755943059921264648437500 -0.000750434002839028835296630859 -0.004318798426538705825805664062 0 0 0 0 
2417833333.3333334923 0.204752370715141296386718750000 -0.040879428386688232421875000000 -0.000985592370852828025817871094 -0.004312817007303237915039062500 0 0 0 0 
2418000000.0000000000 0.204370141029357910156250000000 -0.040429625660181052471120466407 -0.001256984658539294979692768628 -0.004082966595888137817382812500 0 0 0 0 
2418166666.6666665077 0.203578472137451199630575615629 -0.040089111775159842754323591407 -0.001236139447428286075592041016 -0.003854204667732119993922568213 0 0 0 0 
2418333333.3333334923 0.202901527285575894454794365629 -0.039753142744302749633789062500 -0.001232191803865134932874370044 -0.003979698754847049713134765625 0 0 0 0 
2418500000.0000000000 0.202063381671905489822549384371 -0.039669096469879150390625000000 -0.001615761197172105095506977612 -0.003858342999592423005345009912 0 0 0 0 
2418666666.6666665077 0.201166823506355313400106865629 -0.039424080401659011840820312500 -0.001750288181938230991363525391 -0.003772115102037787003758095850 0 0 0 0 
2418833333.3333334923 0.200085014104843111892861884371 -0.039350915700197219848632812500 -0.001884881989099084897282265771 -0.003707944182679057121276855469 0 0 0 0 
2419000000.0000000000 0.198820382356643704513388115629 -0.039104867726564407348632812500 -0.001844302401877939917920756763 -0.003651794977486134009120322119 0 0 0 0 
2419166666.6666665077 0.197525992989540100097656250000 -0.039255369454622268676757812500 -0.001930072205141186931012797778 -0.003525419160723685784580849756 0 0 0 0 
2419333333.3333334923 0.195962175726890591720419365629 -0.039500698447227478027343750000 -0.001993600046262145042419433594 -0.003318152856081724166870117188 0 0 0 0 
2419500000.0000000000 0.194532558321952792068643134371 -0.039753954857587807392160783593 -0.002064274391159414811375283350 -0.003185853129252790971043252100 0 0 0 0 
2419666666.6666665077 0.193024426698684692382812500000 -0.040359642356634140014648437500 -0.002328570466488600210902548682 -0.003187869209796189828159951318 0 0 0 0 
2419833333.3333334923 0.191272214055061312576455634371 -0.040942467749118811870534528907 -0.002237191889435052871704101562 -0.003148274961858987808227539062 0 0 0 0 
