# Version 1.00
#
freq[Hz];re:Trc1_S11;im:Trc1_S11;re:Trc2_S21;im:Trc2_S21;
2.400000000000000E+009;1.731417179107666E-001;4.892562702298164E-002;5.467404145747423E-003;-2.360898070037365E-003;
2.400166666666667E+009;1.739505827426910E-001;4.835224524140358E-002;5.568579770624638E-003;-2.612262731418014E-003;
2.400333333333334E+009;1.742210090160370E-001;4.772503301501274E-002;5.584138445556164E-003;-2.708492334932089E-003;
2.400500000000000E+009;1.746059507131577E-001;4.689532890915871E-002;5.750687792897224E-003;-2.868354553356767E-003;
2.400666666666667E+009;1.748953163623810E-001;4.629646241664887E-002;5.511574447154999E-003;-3.176122670993209E-003;
2.400833333333334E+009;1.753933876752853E-001;4.577813670039177E-002;5.742459092289209E-003;-3.198778256773949E-003;
2.401000000000000E+009;1.755268126726151E-001;4.501883685588837E-002;5.682101938873529E-003;-3.543162485584617E-003;
2.401166666666667E+009;1.757949143648148E-001;4.435030743479729E-002;5.565141327679157E-003;-3.749864175915718E-003;
2.401333333333334E+009;1.759424358606339E-001;4.381215572357178E-002;5.594211164861918E-003;-3.906056983396411E-003;
2.401500000000000E+009;1.760632991790772E-001;4.311250150203705E-002;5.421300418674946E-003;-4.258962813764811E-003;
2.401666666666667E+009;1.760380566120148E-001;4.256258159875870E-002;5.566361825913191E-003;-4.335606005042791E-003;
2.401833333333334E+009;1.761547327041626E-001;4.161541536450386E-002;5.384208168834448E-003;-4.718356300145388E-003;
2.402000000000000E+009;1.760124117136002E-001;4.089253023266792E-002;5.382856819778681E-003;-4.772295244038105E-003;
2.402166666666667E+009;1.759488880634308E-001;3.984141722321510E-002;5.252276081591845E-003;-5.001354031264782E-003;
2.402333333333334E+009;1.755505204200745E-001;3.904362022876740E-002;5.085172131657600E-003;-5.186760798096657E-003;
2.402500000000000E+009;1.755667924880981E-001;3.794233128428459E-002;5.152626428753138E-003;-5.357407033443451E-003;
2.402666666666667E+009;1.751718521118164E-001;3.703986853361130E-002;4.909445066004992E-003;-5.639838520437479E-003;
2.402833333333334E+009;1.750214695930481E-001;3.584450110793114E-002;4.797557834535837E-003;-5.788404028862715E-003;
2.403000000000000E+009;1.748327016830444E-001;3.479190543293953E-002;4.604218527674675E-003;-6.103274878114462E-003;
2.403166666666667E+009;1.743552684783936E-001;3.324813768267632E-002;4.465345293283463E-003;-6.265498697757721E-003;
2.403333333333334E+009;1.738698780536652E-001;3.209907561540604E-002;4.204813856631517E-003;-6.445163860917091E-003;
2.403500000000000E+009;1.737255603075028E-001;3.055565990507603E-002;4.098942968994379E-003;-6.690355017781258E-003;
2.403666666666667E+009;1.732307374477387E-001;2.887069247663021E-002;3.727480303496122E-003;-6.682593841105700E-003;
2.403833333333334E+009;1.731588244438171E-001;2.721308916807175E-002;3.677668748423457E-003;-7.017293479293585E-003;
2.404000000000000E+009;1.725769937038422E-001;2.558927237987518E-002;3.456924809142947E-003;-7.156587671488524E-003;
2.404166666666667E+009;1.721610873937607E-001;2.367330342531204E-002;3.061671042814851E-003;-7.215837016701698E-003;
2.404333333333334E+009;1.718430221080780E-001;2.204082161188126E-002;2.878109226003289E-003;-7.293379399925470E-003;
2.404500000000000E+009;1.714492887258530E-001;1.999548077583313E-002;2.592203905805945E-003;-7.611941080540419E-003;
2.404666666666667E+009;1.713149547576904E-001;1.809452101588249E-002;2.314055571332574E-003;-7.586922962218523E-003;
2.404833333333334E+009;1.710327267646790E-001;1.611593738198280E-002;2.084437757730484E-003;-7.913704030215740E-003;
2.405000000000000E+009;1.708269566297531E-001;1.414800155907869E-002;1.703206216916442E-003;-7.739600259810686E-003;
2.405166666666667E+009;1.707640439271927E-001;1.207021344453096E-002;1.453796983696520E-003;-7.952577434480190E-003;
2.405333333333334E+009;1.708279401063919E-001;1.001193560659885E-002;1.257032388821244E-003;-7.965113036334515E-003;
2.405500000000000E+009;1.707604825496674E-001;8.216900750994682E-003;1.062634051777422E-003;-7.857694290578365E-003;
2.405666666666667E+009;1.709289699792862E-001;6.144107785075903E-003;6.322340341284871E-004;-7.775167934596539E-003;
2.405833333333334E+009;1.710087209939957E-001;4.082265775650740E-003;3.767228918150067E-004;-7.868086919188500E-003;
2.406000000000000E+009;1.711443364620209E-001;1.865696278400719E-003;1.210175687447190E-004;-7.912945002317429E-003;
2.406166666666667E+009;1.714467853307724E-001;-4.033445657114498E-005;-1.927487755892798E-004;-7.719601504504681E-003;
2.406333333333334E+009;1.718804389238358E-001;-2.145180711522698E-003;-3.792160423472524E-004;-7.798484992235899E-003;
2.406500000000000E+009;1.722461879253388E-001;-4.251074045896530E-003;-5.213842960074544E-004;-7.898198440670967E-003;
2.406666666666667E+009;1.725730895996094E-001;-6.107903551310301E-003;-7.460632477886975E-004;-7.783057633787394E-003;
2.406833333333334E+009;1.732711046934128E-001;-8.193315006792545E-003;-1.122831949032843E-003;-7.814368233084679E-003;
2.407000000000000E+009;1.739764511585236E-001;-1.016290206462145E-002;-1.360972295515239E-003;-7.741754408925772E-003;
2.407166666666667E+009;1.747066378593445E-001;-1.203906256705523E-002;-1.502185827121139E-003;-7.528684567660093E-003;
2.407333333333334E+009;1.752098649740219E-001;-1.403710711747408E-002;-1.708154217340052E-003;-7.592243608087301E-003;
2.407500000000000E+009;1.759099811315537E-001;-1.574684120714665E-002;-2.071924507617950E-003;-7.427735254168510E-003;
2.407666666666667E+009;1.766422241926193E-001;-1.754343509674072E-002;-2.109048655256629E-003;-7.516100071370602E-003;
2.407833333333334E+009;1.772198528051376E-001;-1.919843629002571E-002;-2.396563533693552E-003;-7.386733777821064E-003;
2.408000000000000E+009;1.780520677566528E-001;-2.104812301695347E-002;-2.579454332590103E-003;-7.490656804293394E-003;
2.408166666666667E+009;1.786013096570969E-001;-2.233736775815487E-002;-2.732643391937017E-003;-7.338015828281641E-003;
2.408333333333334E+009;1.794864535331726E-001;-2.401615306735039E-002;-2.933274023234844E-003;-7.211645599454641E-003;
2.408500000000000E+009;1.801355183124542E-001;-2.541492320597172E-002;-3.155634272843599E-003;-7.112125866115093E-003;
2.408666666666667E+009;1.807291358709335E-001;-2.680453844368458E-002;-3.508736379444599E-003;-7.034933194518089E-003;
2.408833333333334E+009;1.810324192047119E-001;-2.799559012055397E-002;-3.616269445046783E-003;-6.993100978434086E-003;
2.409000000000000E+009;1.815299093723297E-001;-2.903683669865131E-002;-3.903079545125365E-003;-6.866872776299715E-003;
2.409166666666667E+009;1.819931119680405E-001;-3.007509000599384E-002;-4.129910841584206E-003;-6.847628857940435E-003;
2.409333333333334E+009;1.823733597993851E-001;-3.099591098725796E-002;-4.295787308365107E-003;-6.726887542754412E-003;
2.409500000000000E+009;1.826316267251968E-001;-3.188303112983704E-002;-4.491426981985569E-003;-6.472829263657332E-003;
2.409666666666667E+009;1.829366683959961E-001;-3.258317336440086E-002;-4.648070316761732E-003;-6.549032870680094E-003;
2.409833333333334E+009;1.830990910530090E-001;-3.291713073849678E-002;-4.913367331027985E-003;-6.408242508769035E-003;
2.410000000000000E+009;1.834236681461334E-001;-3.344640880823135E-002;-5.006275605410337E-003;-6.225061137229204E-003;
2.410166666666667E+009;1.837184578180313E-001;-3.395777568221092E-002;-5.203184206038714E-003;-6.082138046622276E-003;
2.410333333333334E+009;1.836330294609070E-001;-3.444030880928040E-002;-5.498667713254690E-003;-5.960962735116482E-003;
2.410500000000000E+009;1.836821585893631E-001;-3.471706807613373E-002;-5.736850667744875E-003;-5.888714920729399E-003;
2.410666666666667E+009;1.835127919912338E-001;-3.512562066316605E-002;-5.825536325573921E-003;-5.760962143540382E-003;
2.410833333333334E+009;1.836006939411163E-001;-3.528197854757309E-002;-6.039189174771309E-003;-5.649048369377852E-003;
2.411000000000000E+009;1.832771897315979E-001;-3.556100651621819E-002;-6.349503528326750E-003;-5.453970748931170E-003;
2.411166666666667E+009;1.832673996686935E-001;-3.599122539162636E-002;-6.491587962955236E-003;-5.232458002865315E-003;
2.411333333333334E+009;1.826321482658386E-001;-3.627677261829376E-002;-6.728040054440498E-003;-5.182618275284767E-003;
2.411500000000000E+009;1.820149272680283E-001;-3.684215620160103E-002;-6.940763443708420E-003;-4.813828039914370E-003;
2.411666666666667E+009;1.817221194505692E-001;-3.701319545507431E-002;-7.137925829738379E-003;-4.741046577692032E-003;
2.411833333333334E+009;1.809905469417572E-001;-3.725286945700645E-002;-7.348512765020132E-003;-4.441037308424711E-003;
2.412000000000000E+009;1.802473664283752E-001;-3.778409957885742E-002;-7.546325214207172E-003;-4.315559752285481E-003;
2.412166666666667E+009;1.792300939559937E-001;-3.829913958907127E-002;-8.025602437555790E-003;-4.006027244031429E-003;
2.412333333333334E+009;1.786291450262070E-001;-3.860439732670784E-002;-8.035717532038689E-003;-3.809178248047829E-003;
2.412500000000000E+009;1.774119883775711E-001;-3.916378319263458E-002;-8.192358538508415E-003;-3.532867645844817E-003;
2.412666666666667E+009;1.762921214103699E-001;-3.987694531679153E-002;-8.357766084372997E-003;-3.017324954271317E-003;
2.412833333333334E+009;1.752087026834488E-001;-4.056491330265999E-002;-8.454252034425736E-003;-2.742310287430883E-003;
2.413000000000000E+009;1.740222126245499E-001;-4.124678671360016E-002;-8.590477518737316E-003;-2.430120483040810E-003;
2.413166666666667E+009;1.728524565696716E-001;-4.201686754822731E-002;-8.750849403440952E-003;-2.203751821070910E-003;
2.413333333333334E+009;1.715260893106461E-001;-4.290972650051117E-002;-8.875833824276924E-003;-1.695865299552679E-003;
2.413500000000000E+009;1.700750589370728E-001;-4.377389326691628E-002;-8.883459493517876E-003;-1.252873218618333E-003;
2.413666666666667E+009;1.690354943275452E-001;-4.490605741739273E-002;-8.905421011149883E-003;-1.008385326713324E-003;
2.413833333333334E+009;1.675860285758972E-001;-4.595090821385384E-002;-9.047600440680981E-003;-6.137697491794825E-004;
2.414000000000000E+009;1.661621183156967E-001;-4.718632623553276E-002;-8.951921947300434E-003;-2.839565277099609E-004;
2.414166666666667E+009;1.650620102882385E-001;-4.842757061123848E-002;-8.784692734479904E-003;1.031595384120010E-004;
2.414333333333334E+009;1.638217568397522E-001;-4.977490007877350E-002;-8.676349185407162E-003;4.952693125233054E-004;
2.414500000000000E+009;1.628830581903458E-001;-5.120111629366875E-002;-8.795558474957943E-003;6.586567615158856E-004;
2.414666666666667E+009;1.615827828645706E-001;-5.253940075635910E-002;-8.557457476854324E-003;1.043156138621271E-003;
2.414833333333334E+009;1.602974236011505E-001;-5.409334599971771E-002;-8.543565869331360E-003;1.398365944623947E-003;
2.415000000000000E+009;1.592367291450501E-001;-5.562002584338188E-002;-8.374277502298355E-003;1.630047452636063E-003;
2.415166666666667E+009;1.583377569913864E-001;-5.749090015888214E-002;-8.487305603921413E-003;1.788464491255581E-003;
2.415333333333334E+009;1.575309932231903E-001;-5.914231389760971E-002;-8.201937191188335E-003;2.145036822184920E-003;
2.415500000000000E+009;1.566926091909409E-001;-6.087504699826241E-002;-8.159514516592026E-003;2.267211908474565E-003;
2.415666666666667E+009;1.558299064636231E-001;-6.269960850477219E-002;-7.982154376804829E-003;2.618387574329972E-003;
2.415833333333334E+009;1.552663892507553E-001;-6.472527980804443E-002;-7.776050362735987E-003;3.064235439524055E-003;
2.416000000000000E+009;1.544899195432663E-001;-6.655638664960861E-002;-7.645306177437306E-003;3.316411748528481E-003;
2.416166666666667E+009;1.541109830141068E-001;-6.851210445165634E-002;-7.634719833731651E-003;3.504764288663864E-003;
2.416333333333334E+009;1.534474343061447E-001;-7.044393569231033E-002;-7.437475025653839E-003;3.810306312516332E-003;
2.416500000000000E+009;1.530093848705292E-001;-7.255648821592331E-002;-7.197611965239048E-003;3.986523486673832E-003;
2.416666666666667E+009;1.526029407978058E-001;-7.439769804477692E-002;-7.056350819766522E-003;4.384920932352543E-003;
2.416833333333334E+009;1.523796617984772E-001;-7.643103599548340E-002;-6.813218351453543E-003;4.572051111608744E-003;
2.417000000000000E+009;1.519070565700531E-001;-7.838989794254303E-002;-6.745197810232639E-003;4.631587769836187E-003;
2.417166666666667E+009;1.518101096153259E-001;-8.002601563930512E-002;-6.522624753415585E-003;4.900594707578421E-003;
2.417333333333334E+009;1.518094241619110E-001;-8.170917630195618E-002;-6.389842368662357E-003;5.190989933907986E-003;
2.417500000000000E+009;1.515937745571137E-001;-8.368143439292908E-002;-5.986124742776156E-003;5.219573155045509E-003;
2.417666666666667E+009;1.517241895198822E-001;-8.509267121553421E-002;-5.797591060400009E-003;5.440272856503725E-003;
2.417833333333334E+009;1.517088264226914E-001;-8.675336092710495E-002;-5.758362356573343E-003;5.587514955550432E-003;
2.418000000000000E+009;1.517430543899536E-001;-8.817257732152939E-002;-5.277136806398630E-003;5.741715431213379E-003;
2.418166666666667E+009;1.517359614372253E-001;-8.941365778446198E-002;-5.114145111292601E-003;6.008386611938477E-003;
2.418333333333334E+009;1.521793752908707E-001;-9.085230529308319E-002;-4.959476180374622E-003;6.177720148116350E-003;
2.418500000000000E+009;1.523467749357224E-001;-9.201602637767792E-002;-4.607487935572863E-003;6.334288977086544E-003;
2.418666666666667E+009;1.526760756969452E-001;-9.306806325912476E-002;-4.256397020071745E-003;6.397606804966927E-003;
2.418833333333334E+009;1.526597440242767E-001;-9.397111833095551E-002;-4.173826426267624E-003;6.549084093421698E-003;
2.419000000000000E+009;1.526254713535309E-001;-9.483260661363602E-002;-3.937901929020882E-003;6.608312018215656E-003;
2.419166666666667E+009;1.530465781688690E-001;-9.549507498741150E-002;-3.518282668665052E-003;6.778309587389231E-003;
2.419333333333334E+009;1.531565636396408E-001;-9.595654904842377E-002;-3.342080628499389E-003;6.914352998137474E-003;
2.419500000000000E+009;1.534303575754166E-001;-9.669906646013260E-002;-2.842218615114689E-003;6.906408816576004E-003;
2.419666666666667E+009;1.537805944681168E-001;-9.704682976007462E-002;-2.675539581105113E-003;7.015458773821592E-003;
2.419833333333334E+009;1.538869142532349E-001;-9.715263545513153E-002;-2.512964652851224E-003;7.035462651401758E-003;
2.420000000000000E+009;1.541619598865509E-001;-9.740104526281357E-002;-2.106128726154566E-003;7.045790087431669E-003;
2.420166666666667E+009;1.542876809835434E-001;-9.760467708110809E-002;-1.892143860459328E-003;7.115729618817568E-003;
2.420333333333334E+009;1.544134020805359E-001;-9.746876358985901E-002;-1.696418737992644E-003;7.022523321211338E-003;
2.420500000000000E+009;1.545001566410065E-001;-9.737005829811096E-002;-1.384191331453621E-003;7.118289358913899E-003;
2.420666666666667E+009;1.543494910001755E-001;-9.718685597181320E-002;-1.098761102184653E-003;6.978911347687244E-003;
2.420833333333334E+009;1.544589847326279E-001;-9.711581468582153E-002;-8.363535744138062E-004;7.010645698755980E-003;
2.421000000000000E+009;1.541780084371567E-001;-9.681814908981323E-002;-7.496812613680959E-004;7.034825626760721E-003;
2.421166666666667E+009;1.539725214242935E-001;-9.668131917715073E-002;-3.712096950039268E-004;7.009481545537710E-003;
2.421333333333334E+009;1.538894772529602E-001;-9.626746922731400E-002;-1.726931368466467E-004;6.839436013251543E-003;
2.421500000000000E+009;1.533981114625931E-001;-9.603706747293472E-002;1.391242403769866E-004;6.866977084428072E-003;
2.421666666666667E+009;1.531347036361694E-001;-9.569949656724930E-002;1.014293520711362E-004;6.747765932232142E-003;
2.421833333333334E+009;1.525255888700485E-001;-9.552579373121262E-002;5.610546213574708E-004;6.720280740410090E-003;
2.422000000000000E+009;1.517934501171112E-001;-9.518124908208847E-002;7.771024829708040E-004;6.697804667055607E-003;
2.422166666666667E+009;1.509962528944016E-001;-9.515567868947983E-002;1.027185819111764E-003;6.682479288429022E-003;
2.422333333333334E+009;1.502663195133209E-001;-9.479789435863495E-002;1.256484654732049E-003;6.845525931566954E-003;
2.422500000000000E+009;1.492282450199127E-001;-9.453068673610687E-002;1.343344803899527E-003;6.568211130797863E-003;
2.422666666666667E+009;1.482275873422623E-001;-9.441369026899338E-002;1.704826368950307E-003;6.474900525063276E-003;
2.422833333333334E+009;1.470807641744614E-001;-9.443496167659760E-002;1.955582760274410E-003;6.460583303123713E-003;
2.423000000000000E+009;1.457825005054474E-001;-9.434877336025238E-002;2.117661293596029E-003;6.316346582025290E-003;
2.423166666666667E+009;1.445236206054688E-001;-9.440046548843384E-002;2.379883779212833E-003;6.210152059793472E-003;
2.423333333333334E+009;1.431863605976105E-001;-9.415861964225769E-002;2.718299627304077E-003;6.133993156254292E-003;
2.423500000000000E+009;1.416589170694351E-001;-9.447780996561050E-002;3.066077595576644E-003;6.038041319698095E-003;
2.423666666666667E+009;1.400298923254013E-001;-9.475890547037125E-002;3.341045696288347E-003;5.875039845705032E-003;
2.423833333333334E+009;1.387905925512314E-001;-9.469482302665710E-002;3.572430461645126E-003;5.567427724599838E-003;
2.424000000000000E+009;1.370327621698380E-001;-9.486827254295349E-002;3.869901411235333E-003;5.271109752357006E-003;
2.424166666666667E+009;1.354656070470810E-001;-9.521451592445374E-002;4.180485382676125E-003;5.189135670661926E-003;
2.424333333333334E+009;1.340890526771545E-001;-9.562659263610840E-002;4.248199984431267E-003;4.695511888712645E-003;
2.424500000000000E+009;1.324801445007324E-001;-9.626957774162293E-002;4.392832051962614E-003;4.540400113910437E-003;
2.424666666666667E+009;1.312162131071091E-001;-9.669516235589981E-002;4.622513893991709E-003;4.117323551326990E-003;
2.424833333333334E+009;1.294751018285751E-001;-9.736690670251846E-002;4.801028873771429E-003;3.915303386747837E-003;
2.425000000000000E+009;1.282365620136261E-001;-9.834399819374085E-002;4.754920955747366E-003;3.519895253702998E-003;
2.425166666666667E+009;1.265922039747238E-001;-9.929648041725159E-002;4.797874484211206E-003;3.243235871195793E-003;
2.425333333333334E+009;1.252847313880920E-001;-1.001778692007065E-001;4.889359697699547E-003;2.817769767716527E-003;
2.425500000000000E+009;1.242865398526192E-001;-1.013673916459084E-001;4.807125311344862E-003;2.737790346145630E-003;
2.425666666666667E+009;1.227960735559464E-001;-1.025256067514420E-001;4.927596077322960E-003;2.322785090655088E-003;
2.425833333333334E+009;1.218310296535492E-001;-1.036943867802620E-001;4.650339018553495E-003;2.034359611570835E-003;
2.426000000000000E+009;1.206659078598023E-001;-1.051929965615273E-001;4.716927185654640E-003;1.649399520829320E-003;
2.426166666666667E+009;1.200368404388428E-001;-1.065766811370850E-001;4.688703455030918E-003;1.294024172239006E-003;
2.426333333333334E+009;1.188774779438973E-001;-1.078843027353287E-001;4.464149475097656E-003;1.140843261964619E-003;
2.426500000000000E+009;1.182067766785622E-001;-1.093945354223251E-001;4.543566610664129E-003;8.165654726326466E-004;
2.426666666666667E+009;1.175529882311821E-001;-1.107556074857712E-001;4.149258602410555E-003;5.228258087299764E-004;
2.426833333333334E+009;1.168274730443955E-001;-1.124952286481857E-001;3.994539845734835E-003;3.218524798285216E-004;
2.427000000000000E+009;1.162120997905731E-001;-1.141336262226105E-001;3.909526392817497E-003;1.505557884229347E-004;
2.427166666666667E+009;1.156397983431816E-001;-1.155099123716354E-001;3.610289888456464E-003;2.062597377516795E-005;
2.427333333333334E+009;1.151707544922829E-001;-1.172318086028099E-001;3.657034598290920E-003;-2.346781402593479E-004;
2.427500000000000E+009;1.150355935096741E-001;-1.187794581055641E-001;3.215371863916516E-003;-3.604387165978551E-004;
2.427666666666667E+009;1.147969588637352E-001;-1.204704046249390E-001;2.965321065858007E-003;-4.501717630773783E-004;
