# Version 1.00
#
freq[Hz];re:Trc1_S11;im:Trc1_S11;re:Trc2_S21;im:Trc2_S21;
2.400000000000000E+009;1.731909364461899E-001;4.895170032978058E-002;5.640133284032345E-003;-2.479848917573690E-003;
2.400166666666667E+009;1.738554239273071E-001;4.834005981683731E-002;5.663718562573195E-003;-2.566137583926320E-003;
2.400333333333334E+009;1.742459237575531E-001;4.749318584799767E-002;5.657736212015152E-003;-2.693395130336285E-003;
2.400500000000000E+009;1.746018528938294E-001;4.708196967840195E-002;5.705784074962139E-003;-3.163388697430491E-003;
2.400666666666667E+009;1.749450117349625E-001;4.633058607578278E-002;5.680541973561049E-003;-3.080760594457388E-003;
2.400833333333334E+009;1.754835695028305E-001;4.579809308052063E-002;5.717047955840826E-003;-3.347515361383557E-003;
2.401000000000000E+009;1.756444275379181E-001;4.496123269200325E-002;5.678368266671896E-003;-3.505023429170251E-003;
2.401166666666667E+009;1.758277118206024E-001;4.441295936703682E-002;5.576658993959427E-003;-3.648414742201567E-003;
2.401333333333334E+009;1.758143603801727E-001;4.363267123699188E-002;5.454790778458118E-003;-3.876392263919115E-003;
2.401500000000000E+009;1.761450171470642E-001;4.309794306755066E-002;5.581711884588003E-003;-4.187920130789280E-003;
2.401666666666667E+009;1.760831475257874E-001;4.258682206273079E-002;5.440902896225452E-003;-4.443480633199215E-003;
2.401833333333334E+009;1.760539561510086E-001;4.159812629222870E-002;5.419544409960508E-003;-4.641417879611254E-003;
2.402000000000000E+009;1.757106333971024E-001;4.085738211870194E-002;5.288500804454088E-003;-4.810695070773363E-003;
2.402166666666667E+009;1.758585125207901E-001;3.985353931784630E-002;5.182692781090736E-003;-5.064107012003660E-003;
2.402333333333334E+009;1.756799072027206E-001;3.911774232983589E-002;5.234924145042896E-003;-5.196438170969486E-003;
2.402500000000000E+009;1.754629015922546E-001;3.805896267294884E-002;4.846434574574232E-003;-5.513107404112816E-003;
2.402666666666667E+009;1.753626465797424E-001;3.713552653789520E-002;4.788979422301054E-003;-5.543480627238751E-003;
2.402833333333334E+009;1.750041246414185E-001;3.598424792289734E-002;4.700688645243645E-003;-5.809860769659281E-003;
2.403000000000000E+009;1.746367961168289E-001;3.468774259090424E-002;4.489132668823004E-003;-6.055967416614294E-003;
2.403166666666667E+009;1.745150983333588E-001;3.340506926178932E-002;4.304772708564997E-003;-6.351958028972149E-003;
2.403333333333334E+009;1.743492335081101E-001;3.212214261293411E-002;4.204231780022383E-003;-6.401510443538427E-003;
2.403500000000000E+009;1.736407130956650E-001;3.056240081787109E-002;3.847798798233271E-003;-6.583092734217644E-003;
2.403666666666667E+009;1.733783483505249E-001;2.884888462722302E-002;3.691605757921934E-003;-6.710513494908810E-003;
2.403833333333334E+009;1.730565577745438E-001;2.723445743322372E-002;3.585853148251772E-003;-6.764452904462814E-003;
2.404000000000000E+009;1.726277768611908E-001;2.559308148920536E-002;3.287316299974918E-003;-7.069856394082308E-003;
2.404166666666667E+009;1.723245084285736E-001;2.382770180702210E-002;3.219095058739185E-003;-7.128623314201832E-003;
2.404333333333334E+009;1.719712316989899E-001;2.214336395263672E-002;2.809004159644246E-003;-7.338026538491249E-003;
2.404500000000000E+009;1.715492755174637E-001;2.008478902280331E-002;2.530966652557254E-003;-7.446157746016979E-003;
2.404666666666667E+009;1.713828593492508E-001;1.820950768887997E-002;2.370692091062665E-003;-7.567254360765219E-003;
2.404833333333334E+009;1.711153537034988E-001;1.613136753439903E-002;2.072025090456009E-003;-7.493232842534781E-003;
2.405000000000000E+009;1.709292382001877E-001;1.416831929236651E-002;1.848944695666432E-003;-7.622492965310812E-003;
2.405166666666667E+009;1.709187030792236E-001;1.213525608181953E-002;1.580545678734779E-003;-7.716334890574217E-003;
2.405333333333334E+009;1.708032637834549E-001;9.938316419720650E-003;1.404391485266388E-003;-7.771568372845650E-003;
2.405500000000000E+009;1.709211617708206E-001;8.107448928058147E-003;1.051983796060085E-003;-7.858245633542538E-003;
2.405666666666667E+009;1.709357053041458E-001;5.985885392874479E-003;8.010201854631305E-004;-7.979876361787319E-003;
2.405833333333334E+009;1.710357964038849E-001;3.978894557803869E-003;5.488012102432549E-004;-7.880343124270439E-003;
2.406000000000000E+009;1.712016463279724E-001;1.691866433247924E-003;4.387862281873822E-004;-7.866622880101204E-003;
2.406166666666667E+009;1.714362353086472E-001;-1.383821363560855E-004;7.838819874450564E-005;-7.878853008151054E-003;
2.406333333333334E+009;1.718975752592087E-001;-2.163796918466687E-003;-2.205552300438285E-004;-7.933313958346844E-003;
2.406500000000000E+009;1.722899377346039E-001;-4.334016237407923E-003;-3.517299774102867E-004;-7.846754044294357E-003;
2.406666666666667E+009;1.726340651512146E-001;-6.189168896526098E-003;-6.307772709988058E-004;-7.962010800838471E-003;
2.406833333333334E+009;1.731909215450287E-001;-8.238550275564194E-003;-9.944771882146597E-004;-7.861030288040638E-003;
2.407000000000000E+009;1.740008443593979E-001;-1.031119935214520E-002;-1.331480918452144E-003;-7.835403084754944E-003;
2.407166666666667E+009;1.746170073747635E-001;-1.210063789039850E-002;-1.505644060671330E-003;-7.776621729135513E-003;
2.407333333333334E+009;1.752479523420334E-001;-1.393399480730295E-002;-1.770682167261839E-003;-7.679307833313942E-003;
2.407500000000000E+009;1.759869456291199E-001;-1.581932790577412E-002;-1.778904581442475E-003;-7.627999875694513E-003;
2.407666666666667E+009;1.768103539943695E-001;-1.754835061728954E-002;-2.165424171835184E-003;-7.675973232835531E-003;
2.407833333333334E+009;1.772562712430954E-001;-1.937729120254517E-002;-2.286778762936592E-003;-7.433721330016851E-003;
2.408000000000000E+009;1.780549287796021E-001;-2.106301300227642E-002;-2.654965268447995E-003;-7.371295709162951E-003;
2.408166666666667E+009;1.787691265344620E-001;-2.250913530588150E-002;-2.709733555093408E-003;-7.239539176225662E-003;
2.408333333333334E+009;1.795448511838913E-001;-2.407879568636417E-002;-3.012447152286768E-003;-7.031712215393782E-003;
2.408500000000000E+009;1.801023930311203E-001;-2.556607313454151E-002;-3.373730927705765E-003;-7.063674740493298E-003;
2.408666666666667E+009;1.806446462869644E-001;-2.687552385032177E-002;-3.499180311337113E-003;-6.992539390921593E-003;
2.408833333333334E+009;1.810063570737839E-001;-2.822069637477398E-002;-3.677681088447571E-003;-6.837029010057449E-003;
2.409000000000000E+009;1.815113574266434E-001;-2.922501601278782E-002;-3.883676836267114E-003;-6.847485899925232E-003;
2.409166666666667E+009;1.819942593574524E-001;-3.021545521914959E-002;-4.008884541690350E-003;-6.670458707958460E-003;
2.409333333333334E+009;1.823496073484421E-001;-3.112043812870979E-002;-4.150684457272291E-003;-6.653321441262960E-003;
2.409500000000000E+009;1.826448887586594E-001;-3.206364437937737E-002;-4.391331691294909E-003;-6.499945186078548E-003;
2.409666666666667E+009;1.830284744501114E-001;-3.253509849309921E-002;-4.630084149539471E-003;-6.379766855388880E-003;
2.409833333333334E+009;1.832648366689682E-001;-3.317363560199738E-002;-4.945551976561546E-003;-6.311605684459209E-003;
2.410000000000000E+009;1.835470646619797E-001;-3.340493142604828E-002;-5.065343808382750E-003;-6.068909075111151E-003;
2.410166666666667E+009;1.836437731981278E-001;-3.402302041649818E-002;-5.309804808348417E-003;-6.098591722548008E-003;
2.410333333333334E+009;1.835500746965408E-001;-3.429856151342392E-002;-5.487535148859024E-003;-5.924035329371691E-003;
2.410500000000000E+009;1.837301701307297E-001;-3.480942919850349E-002;-5.727190990000963E-003;-5.900351330637932E-003;
2.410666666666667E+009;1.835035234689713E-001;-3.513820469379425E-002;-5.864223930984736E-003;-5.712196230888367E-003;
2.410833333333334E+009;1.835647374391556E-001;-3.530825302004814E-002;-6.043317262083292E-003;-5.551396403461695E-003;
2.411000000000000E+009;1.833894997835159E-001;-3.578254207968712E-002;-6.390274967998266E-003;-5.434520542621613E-003;
2.411166666666667E+009;1.831695139408112E-001;-3.609926998615265E-002;-6.600083317607641E-003;-5.186764057725668E-003;
2.411333333333334E+009;1.825512647628784E-001;-3.648289293050766E-002;-6.673912983387709E-003;-4.967156331986189E-003;
2.411500000000000E+009;1.820072233676910E-001;-3.689545020461083E-002;-6.918763276189566E-003;-4.847609903663397E-003;
2.411666666666667E+009;1.814802438020706E-001;-3.698549047112465E-002;-7.164113689213991E-003;-4.677111282944679E-003;
2.411833333333334E+009;1.809485554695129E-001;-3.745459392666817E-002;-7.422009948641062E-003;-4.499239847064018E-003;
2.412000000000000E+009;1.802734732627869E-001;-3.790659084916115E-002;-7.587851490825415E-003;-4.102762788534164E-003;
2.412166666666667E+009;1.795060187578201E-001;-3.837591409683228E-002;-7.808323483914137E-003;-4.031629301607609E-003;
2.412333333333334E+009;1.786174625158310E-001;-3.864127770066261E-002;-8.007510565221310E-003;-3.614895977079868E-003;
2.412500000000000E+009;1.774430721998215E-001;-3.923108056187630E-002;-8.114695549011231E-003;-3.361702198162675E-003;
2.412666666666667E+009;1.763708889484406E-001;-3.993867337703705E-002;-8.309426717460156E-003;-3.082480048760772E-003;
2.412833333333334E+009;1.751877516508102E-001;-4.062473773956299E-002;-8.388204500079155E-003;-2.603252884000540E-003;
2.413000000000000E+009;1.740636974573135E-001;-4.138324037194252E-002;-8.766548708081245E-003;-2.314673503860831E-003;
2.413166666666667E+009;1.727269738912582E-001;-4.202759265899658E-002;-8.617901243269444E-003;-1.992225879803300E-003;
2.413333333333334E+009;1.713930219411850E-001;-4.286657646298409E-002;-9.053825400769711E-003;-1.643670839257538E-003;
2.413500000000000E+009;1.701857596635819E-001;-4.395245388150215E-002;-8.948237635195255E-003;-1.271894434466958E-003;
2.413666666666667E+009;1.688660383224487E-001;-4.495264589786530E-002;-8.725570514798164E-003;-8.962316205725074E-004;
2.413833333333334E+009;1.676541715860367E-001;-4.591595008969307E-002;-8.908950723707676E-003;-7.191442418843508E-004;
2.414000000000000E+009;1.661979407072067E-001;-4.713571071624756E-002;-8.903528563678265E-003;-3.010428918059915E-004;
2.414166666666667E+009;1.651248335838318E-001;-4.832381755113602E-002;-8.876570500433445E-003;1.647709359531291E-005;
2.414333333333334E+009;1.637022346258164E-001;-4.963306710124016E-002;-8.616393432021141E-003;4.031257703900337E-004;
2.414500000000000E+009;1.626811027526856E-001;-5.101497843861580E-002;-8.596922270953655E-003;6.932745454832912E-004;
2.414666666666667E+009;1.614680737257004E-001;-5.244940519332886E-002;-8.476693183183670E-003;9.557331213727593E-004;
2.414833333333334E+009;1.604051142930985E-001;-5.400574579834938E-002;-8.547540754079819E-003;1.342285424470902E-003;
2.415000000000000E+009;1.593891382217407E-001;-5.557587742805481E-002;-8.409204892814159E-003;1.654261723160744E-003;
2.415166666666667E+009;1.582311838865280E-001;-5.736088007688522E-002;-8.150492794811726E-003;1.812455360777676E-003;
2.415333333333334E+009;1.574754416942596E-001;-5.913082510232925E-002;-8.148830384016037E-003;2.225969918072224E-003;
2.415500000000000E+009;1.566592603921890E-001;-6.085348129272461E-002;-8.056956343352795E-003;2.375123091042042E-003;
2.415666666666667E+009;1.558340340852737E-001;-6.267518550157547E-002;-7.890475913882256E-003;2.627209993079305E-003;
2.415833333333334E+009;1.551944315433502E-001;-6.457772105932236E-002;-7.906448096036911E-003;2.904376480728388E-003;
2.416000000000000E+009;1.544516086578369E-001;-6.660275161266327E-002;-7.671935949474573E-003;3.288018750026822E-003;
2.416166666666667E+009;1.540957540273666E-001;-6.854958832263947E-002;-7.448981516063213E-003;3.395729465410113E-003;
2.416333333333334E+009;1.535277515649796E-001;-7.043889909982681E-002;-7.371916435658932E-003;3.668250748887658E-003;
2.416500000000000E+009;1.530534625053406E-001;-7.252580672502518E-002;-7.268222980201244E-003;3.939932212233543E-003;
2.416666666666667E+009;1.525564342737198E-001;-7.436136901378632E-002;-7.151800673455000E-003;4.168144892901182E-003;
2.416833333333334E+009;1.525002419948578E-001;-7.647682726383209E-002;-6.889904849231243E-003;4.380129277706146E-003;
2.417000000000000E+009;1.520133912563324E-001;-7.827073335647583E-002;-6.601462606340647E-003;4.647064954042435E-003;
2.417166666666667E+009;1.517660319805145E-001;-8.003226667642593E-002;-6.469843443483114E-003;4.867531359195709E-003;
2.417333333333334E+009;1.517506986856461E-001;-8.175380527973175E-002;-6.275631021708250E-003;5.021221935749054E-003;
2.417500000000000E+009;1.515976041555405E-001;-8.369040489196777E-002;-6.148602813482285E-003;5.214600358158350E-003;
2.417666666666667E+009;1.517259180545807E-001;-8.512802422046661E-002;-5.961702205240727E-003;5.432805512100458E-003;
2.417833333333334E+009;1.518495231866837E-001;-8.657121658325195E-002;-5.636789370328188E-003;5.743966437876225E-003;
2.418000000000000E+009;1.516650468111038E-001;-8.825562149286270E-002;-5.409210454672575E-003;5.869564600288868E-003;
2.418166666666667E+009;1.518957316875458E-001;-8.945994824171066E-002;-5.082754883915186E-003;6.036047823727131E-003;
2.418333333333334E+009;1.521947085857391E-001;-9.084051102399826E-002;-4.872556310147047E-003;6.204968318343163E-003;
2.418500000000000E+009;1.523449420928955E-001;-9.196098148822784E-002;-4.694901872426271E-003;6.334078032523394E-003;
2.418666666666667E+009;1.526242792606354E-001;-9.299267828464508E-002;-4.316618200391531E-003;6.439058110117912E-003;
2.418833333333334E+009;1.525374352931976E-001;-9.404833614826202E-002;-4.201374016702175E-003;6.504413206130266E-003;
2.419000000000000E+009;1.527375578880310E-001;-9.488870203495026E-002;-3.928464837372303E-003;6.644110195338726E-003;
2.419166666666667E+009;1.530252099037170E-001;-9.549468755722046E-002;-3.543304745107889E-003;6.798039656132460E-003;
2.419333333333334E+009;1.532934010028839E-001;-9.601718187332153E-002;-3.225554712116718E-003;6.888676434755325E-003;
2.419500000000000E+009;1.534921824932098E-001;-9.656493365764618E-002;-3.025456331670284E-003;7.024388294667006E-003;
2.419666666666667E+009;1.538640558719635E-001;-9.703677147626877E-002;-2.629616297781467E-003;7.036818657070398E-003;
2.419833333333334E+009;1.538364440202713E-001;-9.719651937484741E-002;-2.393919276073575E-003;7.060936652123928E-003;
2.420000000000000E+009;1.541744172573090E-001;-9.746795892715454E-002;-2.156053204089403E-003;7.101418916136026E-003;
2.420166666666667E+009;1.541781574487686E-001;-9.746608138084412E-002;-1.814274699427187E-003;7.050672546029091E-003;
2.420333333333334E+009;1.543802917003632E-001;-9.774889051914215E-002;-1.695116749033332E-003;7.055816240608692E-003;
2.420500000000000E+009;1.546413898468018E-001;-9.736314415931702E-002;-1.378787448629737E-003;7.177467457950115E-003;
2.420666666666667E+009;1.544104069471359E-001;-9.725739061832428E-002;-1.074166037142277E-003;7.060335949063301E-003;
2.420833333333334E+009;1.542473286390305E-001;-9.709284454584122E-002;-7.106234552338719E-004;7.075927220284939E-003;
2.421000000000000E+009;1.542006134986877E-001;-9.677132964134216E-002;-5.357528571039438E-004;7.124172523617744E-003;
2.421166666666667E+009;1.542051434516907E-001;-9.668161720037460E-002;-2.748213300947100E-004;6.927557755261660E-003;
2.421333333333334E+009;1.537990868091583E-001;-9.638065099716187E-002;-1.362714101560414E-004;6.806860677897930E-003;
2.421500000000000E+009;1.533815562725067E-001;-9.596305340528488E-002;9.283619874622673E-006;6.844530347734690E-003;
2.421666666666667E+009;1.529931277036667E-001;-9.558286517858505E-002;3.939054440706968E-004;6.710455287247896E-003;
2.421833333333334E+009;1.524256318807602E-001;-9.547836333513260E-002;6.246547563932836E-004;6.810723803937435E-003;
2.422000000000000E+009;1.517971754074097E-001;-9.525069594383240E-002;7.312573143281043E-004;6.685264874249697E-003;
2.422166666666667E+009;1.511008739471436E-001;-9.514918178319931E-002;1.056303852237761E-003;6.758863572031260E-003;
2.422333333333334E+009;1.502385437488556E-001;-9.484841674566269E-002;1.235831296071410E-003;6.661364808678627E-003;
2.422500000000000E+009;1.493247151374817E-001;-9.449923038482666E-002;1.366639975458384E-003;6.422174163162708E-003;
2.422666666666667E+009;1.482238173484802E-001;-9.438668936491013E-002;1.697649131529033E-003;6.659012753516436E-003;
2.422833333333334E+009;1.471341699361801E-001;-9.448677301406860E-002;1.900659524835646E-003;6.464991252869368E-003;
2.423000000000000E+009;1.457749009132385E-001;-9.439837932586670E-002;2.152393804863095E-003;6.400979589670897E-003;
2.423166666666667E+009;1.444530785083771E-001;-9.422507882118225E-002;2.446124097332358E-003;6.331868935376406E-003;
2.423333333333334E+009;1.431990563869476E-001;-9.406832605600357E-002;2.648350549861789E-003;6.112977862358093E-003;
2.423500000000000E+009;1.416671872138977E-001;-9.441518038511276E-002;3.054232103750110E-003;5.977842956781387E-003;
2.423666666666667E+009;1.401186436414719E-001;-9.447868913412094E-002;3.290033200755715E-003;5.799749400466681E-003;
2.423833333333334E+009;1.385574787855148E-001;-9.480159729719162E-002;3.348485799506307E-003;5.559473764151335E-003;
2.424000000000000E+009;1.369108557701111E-001;-9.482350200414658E-002;3.736300859600306E-003;5.398395005613565E-003;
2.424166666666667E+009;1.355058401823044E-001;-9.527722746133804E-002;3.933045081794262E-003;4.993272479623556E-003;
2.424333333333334E+009;1.339978575706482E-001;-9.559990465641022E-002;4.080435726791620E-003;4.824001807719469E-003;
2.424500000000000E+009;1.324690878391266E-001;-9.626256674528122E-002;4.306689836084843E-003;4.538171458989382E-003;
2.424666666666667E+009;1.311595886945725E-001;-9.661712497472763E-002;4.543153103441000E-003;4.246799740940332E-003;
2.424833333333334E+009;1.295410245656967E-001;-9.752643853425980E-002;4.676116630434990E-003;3.793120384216309E-003;
2.425000000000000E+009;1.281964033842087E-001;-9.826946258544922E-002;4.810702987015247E-003;3.568207845091820E-003;
2.425166666666667E+009;1.267503798007965E-001;-9.909451752901077E-002;4.814708605408669E-003;3.198145423084498E-003;
2.425333333333334E+009;1.254204809665680E-001;-1.001539826393127E-001;4.901560954749584E-003;2.951000351458788E-003;
2.425500000000000E+009;1.243287101387978E-001;-1.013838648796082E-001;4.869037773460150E-003;2.550077158957720E-003;
2.425666666666667E+009;1.228382438421249E-001;-1.025617122650147E-001;4.715661983937025E-003;2.235862659290433E-003;
2.425833333333334E+009;1.218405589461327E-001;-1.036349758505821E-001;4.897591657936573E-003;1.909829326905310E-003;
2.426000000000000E+009;1.207010298967362E-001;-1.051277369260788E-001;4.791715648025274E-003;1.547853345982730E-003;
2.426166666666667E+009;1.198665201663971E-001;-1.065637022256851E-001;4.621963482350111E-003;1.277752802707255E-003;
2.426333333333334E+009;1.189101785421372E-001;-1.079724356532097E-001;4.577203188091517E-003;1.085438299924135E-003;
2.426500000000000E+009;1.181511059403420E-001;-1.094321534037590E-001;4.373050294816494E-003;8.835727931000292E-004;
2.426666666666667E+009;1.175205633044243E-001;-1.108824461698532E-001;4.057085141539574E-003;6.551977130584419E-004;
2.426833333333334E+009;1.168053373694420E-001;-1.125417351722717E-001;4.105848260223866E-003;4.346144851297140E-004;
2.427000000000000E+009;1.161901876330376E-001;-1.142015904188156E-001;3.839126322418451E-003;1.484160457039252E-004;
2.427166666666667E+009;1.156287193298340E-001;-1.155675649642944E-001;3.783037420362234E-003;6.031313205312472E-006;
2.427333333333334E+009;1.152914911508560E-001;-1.172885596752167E-001;3.484249813482165E-003;4.110122245037928E-005;
2.427500000000000E+009;1.150356233119965E-001;-1.187969371676445E-001;3.272398374974728E-003;-2.755767491180450E-004;
2.427666666666667E+009;1.148134991526604E-001;-1.203305423259735E-001;3.140598768368363E-003;-3.928143123630434E-004;
