# Version 1.00
#
freq[Hz];re:Trc1_S11;im:Trc1_S11;re:Trc2_S21;im:Trc2_S21;
2.400000000000000E+009;1.579243242740631E-001;1.120338961482048E-001;3.066023054998368E-004;-3.699625609442592E-003;
2.400166666666667E+009;1.571648120880127E-001;1.097477823495865E-001;5.521275452338159E-004;-3.813885618001223E-003;
2.400333333333334E+009;1.568068712949753E-001;1.076415106654167E-001;2.699498436413705E-004;-3.940497059375048E-003;
2.400500000000000E+009;1.564703732728958E-001;1.050170511007309E-001;2.494218351785094E-004;-4.031282849609852E-003;
2.400666666666667E+009;1.562593728303909E-001;1.026462689042091E-001;-9.863681043498218E-005;-3.978169523179531E-003;
2.400833333333334E+009;1.559944152832031E-001;9.972207993268967E-002;-9.525953646516427E-005;-4.071838222444058E-003;
2.401000000000000E+009;1.558538228273392E-001;9.685741364955902E-002;-2.291522250743583E-004;-4.177760332822800E-003;
2.401166666666667E+009;1.553087234497070E-001;9.429645538330078E-002;-4.107580170966685E-004;-4.189240280538797E-003;
2.401333333333334E+009;1.554231643676758E-001;9.109625220298767E-002;-4.821913025807589E-004;-4.089860245585442E-003;
2.401500000000000E+009;1.553891599178314E-001;8.820980042219162E-002;-4.740466247312725E-004;-4.116082098335028E-003;
2.401666666666667E+009;1.554521024227142E-001;8.506098389625549E-002;-5.509027978405356E-004;-4.155647475272417E-003;
2.401833333333334E+009;1.556401848793030E-001;8.223792910575867E-002;-5.752343568019569E-004;-4.057968035340309E-003;
2.402000000000000E+009;1.563663780689240E-001;7.928954809904099E-002;-5.637181457132101E-004;-4.169357009232044E-003;
2.402166666666667E+009;1.565026938915253E-001;7.638839632272720E-002;-7.899563061073422E-004;-4.256787709891796E-003;
2.402333333333334E+009;1.574888527393341E-001;7.347156107425690E-002;-7.788616348989308E-004;-4.511293955147266E-003;
2.402500000000000E+009;1.583728939294815E-001;7.058726251125336E-002;-9.251452283933759E-004;-4.456875380128622E-003;
2.402666666666667E+009;1.592709273099899E-001;6.784693151712418E-002;-1.092478167265654E-003;-4.590729717165232E-003;
2.402833333333334E+009;1.604036837816238E-001;6.509499251842499E-002;-1.128921634517610E-003;-4.618814680725336E-003;
2.403000000000000E+009;1.617888659238815E-001;6.232900545001030E-002;-1.381942303851247E-003;-4.836827050894499E-003;
2.403166666666667E+009;1.634768992662430E-001;5.983896553516388E-002;-1.652703387662768E-003;-5.013247486203909E-003;
2.403333333333334E+009;1.647438704967499E-001;5.720489099621773E-002;-1.867300132289529E-003;-5.115284118801355E-003;
2.403500000000000E+009;1.664120107889175E-001;5.465977266430855E-002;-2.131864894181490E-003;-5.141638219356537E-003;
2.403666666666667E+009;1.682913154363632E-001;5.266899242997170E-002;-2.461936790496111E-003;-5.231085699051619E-003;
2.403833333333334E+009;1.697860658168793E-001;5.016329884529114E-002;-2.865556627511978E-003;-5.221240688115358E-003;
2.404000000000000E+009;1.714205294847488E-001;4.803053289651871E-002;-2.986883511766791E-003;-5.115318577736616E-003;
2.404166666666667E+009;1.733071506023407E-001;4.623557999730110E-002;-3.518141573294997E-003;-5.090119782835245E-003;
2.404333333333334E+009;1.750393807888031E-001;4.438060522079468E-002;-3.800923470407724E-003;-5.008145235478878E-003;
2.404500000000000E+009;1.767273098230362E-001;4.254232347011566E-002;-4.229820333421230E-003;-4.770075902342796E-003;
2.404666666666667E+009;1.785985976457596E-001;4.112675040960312E-002;-4.547146614640951E-003;-4.533118568360806E-003;
2.404833333333334E+009;1.803991496562958E-001;3.964450955390930E-002;-4.681104794144630E-003;-4.378245677798986E-003;
2.405000000000000E+009;1.820016652345657E-001;3.886441886425018E-002;-5.015243310481310E-003;-4.041318316012621E-003;
2.405166666666667E+009;1.836566179990768E-001;3.783315792679787E-002;-5.197931081056595E-003;-3.753126598894596E-003;
2.405333333333334E+009;1.853015422821045E-001;3.702474012970924E-002;-5.304363556206226E-003;-3.373646410182118E-003;
2.405500000000000E+009;1.870125532150269E-001;3.634675964713097E-002;-5.361437797546387E-003;-3.108587116003037E-003;
2.405666666666667E+009;1.886055916547775E-001;3.598542511463165E-002;-5.734627135097981E-003;-2.865261398255825E-003;
2.405833333333334E+009;1.901424527168274E-001;3.555217385292053E-002;-5.594461690634489E-003;-2.529343822970986E-003;
2.406000000000000E+009;1.916682869195938E-001;3.545627370476723E-002;-5.870618391782045E-003;-2.238710178062320E-003;
2.406166666666667E+009;1.928717941045761E-001;3.527280315756798E-002;-5.819891113787890E-003;-1.946768141351640E-003;
2.406333333333334E+009;1.942308396100998E-001;3.530059382319450E-002;-5.944466218352318E-003;-1.621933071874082E-003;
2.406500000000000E+009;1.952804476022720E-001;3.532214090228081E-002;-5.893736612051725E-003;-1.369399833492935E-003;
2.406666666666667E+009;1.962556689977646E-001;3.550918400287628E-002;-5.757464561611414E-003;-1.070122350938618E-003;
2.406833333333334E+009;1.972166746854782E-001;3.554885089397430E-002;-6.019144318997860E-003;-8.824879187159240E-004;
2.407000000000000E+009;1.978508681058884E-001;3.597757220268250E-002;-5.865364801138640E-003;-7.569295121356845E-004;
2.407166666666667E+009;1.984982937574387E-001;3.604222834110260E-002;-5.868239793926477E-003;-2.412861940683797E-004;
2.407333333333334E+009;1.987696886062622E-001;3.641844913363457E-002;-5.883869715034962E-003;-1.690490462351590E-004;
2.407500000000000E+009;1.989684104919434E-001;3.672754392027855E-002;-5.946846678853035E-003;1.057457120623440E-004;
2.407666666666667E+009;1.993049234151840E-001;3.713241964578629E-002;-5.761743057519198E-003;3.393354418221861E-004;
2.407833333333334E+009;1.991236358880997E-001;3.715437278151512E-002;-5.740666296333075E-003;6.350200856104493E-004;
2.408000000000000E+009;1.992751061916351E-001;3.731864690780640E-002;-5.559266544878483E-003;9.077669237740338E-004;
2.408166666666667E+009;1.988630443811417E-001;3.751994296908379E-002;-5.589948035776615E-003;1.116244588047266E-003;
2.408333333333334E+009;1.986047923564911E-001;3.730573877692223E-002;-5.497697275131941E-003;1.401538727805018E-003;
2.408500000000000E+009;1.979629695415497E-001;3.751221671700478E-002;-5.115771666169167E-003;1.523387385532260E-003;
2.408666666666667E+009;1.974366754293442E-001;3.714530169963837E-002;-5.200110841542482E-003;1.831273082643747E-003;
2.408833333333334E+009;1.969487369060516E-001;3.690232336521149E-002;-4.944675602018833E-003;2.070592250674963E-003;
2.409000000000000E+009;1.957387179136276E-001;3.643275797367096E-002;-4.606375936418772E-003;2.209876896813512E-003;
2.409166666666667E+009;1.948782056570053E-001;3.590587899088860E-002;-4.577054642140865E-003;2.292417921125889E-003;
2.409333333333334E+009;1.939987093210220E-001;3.529996797442436E-002;-4.354248289018869E-003;2.428864128887653E-003;
2.409500000000000E+009;1.926982402801514E-001;3.456508368253708E-002;-4.183921031653881E-003;2.399209421128035E-003;
2.409666666666667E+009;1.915715783834457E-001;3.325635939836502E-002;-3.920659422874451E-003;2.663616789504886E-003;
2.409833333333334E+009;1.904245018959045E-001;3.211457654833794E-002;-3.883684752508998E-003;2.686226274818182E-003;
2.410000000000000E+009;1.892326921224594E-001;3.083587065339088E-002;-3.509112168103457E-003;2.483633579686284E-003;
2.410166666666667E+009;1.879243552684784E-001;2.938014827668667E-002;-3.274297341704369E-003;2.561148023232818E-003;
2.410333333333334E+009;1.866670697927475E-001;2.780185453593731E-002;-3.381373593583703E-003;2.515736268833280E-003;
2.410500000000000E+009;1.853742748498917E-001;2.624303102493286E-002;-3.280552802607417E-003;2.526953117921948E-003;
2.410666666666667E+009;1.841370761394501E-001;2.426112815737724E-002;-3.121201880276203E-003;2.572758123278618E-003;
2.410833333333334E+009;1.831682175397873E-001;2.219959907233715E-002;-3.118214895948768E-003;2.531323581933975E-003;
2.411000000000000E+009;1.820980012416840E-001;2.012451924383640E-002;-2.936471020802856E-003;2.635849872604013E-003;
2.411166666666667E+009;1.811091750860214E-001;1.810164935886860E-002;-3.052138257771730E-003;2.595617901533842E-003;
2.411333333333334E+009;1.802744418382645E-001;1.569379493594170E-002;-3.004185389727354E-003;2.760849893093109E-003;
2.411500000000000E+009;1.796107888221741E-001;1.333772018551827E-002;-2.864672569558024E-003;2.807935001328588E-003;
2.411666666666667E+009;1.790331155061722E-001;1.102664601057768E-002;-2.839413238689303E-003;2.671031979843974E-003;
2.411833333333334E+009;1.783572733402252E-001;8.465842343866825E-003;-2.815559739246965E-003;2.770756371319294E-003;
2.412000000000000E+009;1.781287640333176E-001;5.866095423698425E-003;-2.501243725419045E-003;2.709566615521908E-003;
2.412166666666667E+009;1.779178529977799E-001;3.526062006130815E-003;-2.561716130003333E-003;2.812334569171071E-003;
2.412333333333334E+009;1.778713613748550E-001;7.856521406210959E-004;-2.430528169497848E-003;2.794453874230385E-003;
2.412500000000000E+009;1.780180931091309E-001;-1.740370760671794E-003;-2.303264802321792E-003;2.749748993664980E-003;
2.412666666666667E+009;1.783309876918793E-001;-4.566699732095003E-003;-2.222840907052159E-003;2.767723752185702E-003;
2.412833333333334E+009;1.788333207368851E-001;-7.255576085299254E-003;-2.151989378035069E-003;2.856857609003782E-003;
2.413000000000000E+009;1.791673600673676E-001;-9.725225158035755E-003;-2.073849551379681E-003;2.702293219044805E-003;
2.413166666666667E+009;1.800231337547302E-001;-1.221662759780884E-002;-2.063741907477379E-003;2.870490076020360E-003;
2.413333333333334E+009;1.808166801929474E-001;-1.480169873684645E-002;-2.047372050583363E-003;2.615668578073382E-003;
2.413500000000000E+009;1.816051155328751E-001;-1.741584204137325E-002;-1.983223482966423E-003;2.725215163081884E-003;
2.413666666666667E+009;1.827490329742432E-001;-1.993345655500889E-002;-2.116111340001226E-003;2.680400852113962E-003;
2.413833333333334E+009;1.837466508150101E-001;-2.225081250071526E-002;-2.152113011106849E-003;2.732739550992847E-003;
2.414000000000000E+009;1.847440004348755E-001;-2.453865110874176E-002;-2.007623435929418E-003;2.835146384313703E-003;
2.414166666666667E+009;1.860757917165756E-001;-2.679880708456039E-002;-2.003611996769905E-003;2.778779482468963E-003;
2.414333333333334E+009;1.872170120477676E-001;-2.898033708333969E-002;-1.997637795284390E-003;2.778542228043079E-003;
2.414500000000000E+009;1.885641366243362E-001;-3.072538785636425E-002;-2.281165448948741E-003;2.959839534014463E-003;
2.414666666666667E+009;1.898329704999924E-001;-3.257253393530846E-002;-2.031691838055849E-003;3.111435798928142E-003;
2.414833333333334E+009;1.910063624382019E-001;-3.441145271062851E-002;-1.876044319942594E-003;3.418807871639729E-003;
2.415000000000000E+009;1.923657208681107E-001;-3.580595552921295E-002;-1.899655908346176E-003;3.444098401814699E-003;
2.415166666666667E+009;1.938390284776688E-001;-3.719998896121979E-002;-1.793864881619811E-003;3.529951674863696E-003;
2.415333333333334E+009;1.952003538608551E-001;-3.845354542136192E-002;-1.798365381546319E-003;3.685442963615060E-003;
2.415500000000000E+009;1.965410262346268E-001;-3.936513140797615E-002;-1.551403664052486E-003;3.646200057119131E-003;
2.415666666666667E+009;1.978673934936523E-001;-4.050327837467194E-002;-1.416460960172117E-003;3.820096142590046E-003;
2.415833333333334E+009;1.989894211292267E-001;-4.121924191713333E-002;-1.284930622205138E-003;3.904185956344008E-003;
2.416000000000000E+009;2.001481652259827E-001;-4.196739569306374E-002;-1.245726831257343E-003;3.860586555674672E-003;
2.416166666666667E+009;2.011809796094894E-001;-4.262099415063858E-002;-1.155954087153077E-003;3.975287079811096E-003;
2.416333333333334E+009;2.021049112081528E-001;-4.311627522110939E-002;-8.959050173871219E-004;4.120165947824717E-003;
2.416500000000000E+009;2.029255479574204E-001;-4.331323504447937E-002;-8.659043814986944E-004;4.020368680357933E-003;
2.416666666666667E+009;2.035587280988693E-001;-4.374748468399048E-002;-7.103428943082690E-004;4.235309083014727E-003;
2.416833333333334E+009;2.040215730667114E-001;-4.373510926961899E-002;-5.568678025156260E-004;4.243541043251753E-003;
2.417000000000000E+009;2.045263051986694E-001;-4.385676980018616E-002;-3.715225902851671E-004;4.114062525331974E-003;
2.417166666666667E+009;2.046373039484024E-001;-4.366651922464371E-002;-2.933768555521965E-004;4.126998595893383E-003;
2.417333333333334E+009;2.046491056680679E-001;-4.339186847209930E-002;-1.836082083173096E-004;4.153961315751076E-003;
2.417500000000000E+009;2.047649621963501E-001;-4.327555000782013E-002;-1.032459913403727E-004;4.215728957206011E-003;
2.417666666666667E+009;2.044691592454910E-001;-4.305029660463333E-002;4.941497536492534E-005;4.241499584168196E-003;
2.417833333333334E+009;2.043372243642807E-001;-4.265860095620155E-002;2.370923612033948E-004;4.137469455599785E-003;
2.418000000000000E+009;2.040817737579346E-001;-4.213125631213188E-002;2.750189742073417E-004;4.035606980323792E-003;
2.418166666666667E+009;2.034739255905151E-001;-4.183010756969452E-002;2.991830115206540E-004;4.102195147424936E-003;
2.418333333333334E+009;2.027403116226196E-001;-4.146045446395874E-002;3.901690943166614E-004;4.161901772022247E-003;
2.418500000000000E+009;2.019253075122833E-001;-4.114216566085815E-002;5.222983891144395E-004;4.284936934709549E-003;
2.418666666666667E+009;2.012236118316650E-001;-4.091125354170799E-002;6.698118522763252E-004;4.183690063655376E-003;
2.418833333333334E+009;1.999938786029816E-001;-4.061621427536011E-002;6.215004832483828E-004;4.350360948592424E-003;
2.419000000000000E+009;1.987967938184738E-001;-4.061777144670487E-002;7.993455510586500E-004;4.566412884742022E-003;
2.419166666666667E+009;1.976189613342285E-001;-4.059820994734764E-002;9.521568426862359E-004;4.331097938120365E-003;
2.419333333333334E+009;1.964741200208664E-001;-4.083459451794624E-002;1.074024825356901E-003;4.578985739499331E-003;
2.419500000000000E+009;1.947482079267502E-001;-4.085350036621094E-002;1.336416229605675E-003;4.686181899160147E-003;
2.419666666666667E+009;1.930913478136063E-001;-4.143840447068214E-002;1.682571950368583E-003;4.607295617461205E-003;
2.419833333333334E+009;1.913689523935318E-001;-4.169854894280434E-002;1.763263950124383E-003;4.526998847723007E-003;
2.420000000000000E+009;1.897185146808624E-001;-4.248450323939323E-002;1.873530098237097E-003;4.541576839983463E-003;
2.420166666666667E+009;1.879107654094696E-001;-4.304068163037300E-002;2.150279236957431E-003;4.501008428633213E-003;
2.420333333333334E+009;1.862505972385407E-001;-4.389240965247154E-002;2.329219831153750E-003;4.521816968917847E-003;
2.420500000000000E+009;1.843765527009964E-001;-4.499594494700432E-002;2.506527351215482E-003;4.327635746449232E-003;
2.420666666666667E+009;1.824407130479813E-001;-4.577048495411873E-002;2.684189239516854E-003;4.152056295424700E-003;
2.420833333333334E+009;1.806289255619049E-001;-4.717020317912102E-002;2.887057838961482E-003;3.991350065916777E-003;
2.421000000000000E+009;1.788459271192551E-001;-4.861784353852272E-002;3.001686884090304E-003;3.987213131040335E-003;
2.421166666666667E+009;1.771385073661804E-001;-5.009100213646889E-002;3.094790736213327E-003;3.818535944446921E-003;
2.421333333333334E+009;1.751535683870316E-001;-5.150431022047997E-002;3.195559140294790E-003;3.646067576482892E-003;
2.421500000000000E+009;1.736054867506027E-001;-5.337009951472282E-002;3.213501302525401E-003;3.462719265371561E-003;
2.421666666666667E+009;1.720892339944840E-001;-5.526564270257950E-002;3.389377845451236E-003;3.520730882883072E-003;
2.421833333333334E+009;1.704459488391876E-001;-5.697405338287354E-002;3.367673372849822E-003;3.536372678354383E-003;
2.422000000000000E+009;1.692205518484116E-001;-5.901015177369118E-002;3.405176801607013E-003;3.130119759589434E-003;
2.422166666666667E+009;1.679708659648895E-001;-6.105215847492218E-002;3.652930492535234E-003;3.216226818040013E-003;
2.422333333333334E+009;1.666785776615143E-001;-6.315886974334717E-002;3.835554234683514E-003;3.151249373331666E-003;
2.422500000000000E+009;1.657279580831528E-001;-6.531554460525513E-002;3.791130613535643E-003;2.973418449983001E-003;
2.422666666666667E+009;1.647725701332092E-001;-6.747188419103622E-002;4.023360554128885E-003;2.852962119504809E-003;
2.422833333333334E+009;1.641294807195664E-001;-6.962779909372330E-002;4.012932535260916E-003;2.873150398954749E-003;
2.423000000000000E+009;1.633976548910141E-001;-7.190604507923126E-002;4.366421606391668E-003;2.746121259406209E-003;
2.423166666666667E+009;1.626888215541840E-001;-7.415175437927246E-002;4.378085955977440E-003;2.435843693092465E-003;
2.423333333333334E+009;1.622338742017746E-001;-7.635847479104996E-002;4.573442973196507E-003;2.477405127137899E-003;
2.423500000000000E+009;1.621795892715454E-001;-7.860794663429260E-002;4.705392755568028E-003;2.217332134023309E-003;
2.423666666666667E+009;1.620543450117111E-001;-8.072401583194733E-002;4.827359691262245E-003;2.037335652858019E-003;
2.423833333333334E+009;1.619599461555481E-001;-8.267205953598023E-002;4.830859601497650E-003;1.796010765247047E-003;
2.424000000000000E+009;1.619679480791092E-001;-8.506337553262711E-002;5.158985499292612E-003;1.493263058364391E-003;
2.424166666666667E+009;1.620519310235977E-001;-8.686303347349167E-002;5.153075791895390E-003;1.425772672519088E-003;
2.424333333333334E+009;1.623264402151108E-001;-8.892738074064255E-002;5.152420606464148E-003;1.121703069657087E-003;
2.424500000000000E+009;1.626896113157272E-001;-9.083411097526550E-002;5.199803039431572E-003;9.687440469861031E-004;
2.424666666666667E+009;1.630105674266815E-001;-9.255509078502655E-002;5.320519208908081E-003;6.086361245252192E-004;
2.424833333333334E+009;1.637676507234573E-001;-9.417671710252762E-002;5.353036802262068E-003;3.372541104909033E-004;
2.425000000000000E+009;1.642325073480606E-001;-9.564451873302460E-002;5.321941804140806E-003;2.139400203304831E-005;
2.425166666666667E+009;1.645303964614868E-001;-9.713885933160782E-002;5.294263828545809E-003;-1.496306213084608E-004;
2.425333333333334E+009;1.651157736778259E-001;-9.840519726276398E-002;5.237393081188202E-003;-4.157207440584898E-004;
2.425500000000000E+009;1.656953543424606E-001;-9.959015995264053E-002;5.219416692852974E-003;-6.460026488639414E-004;
2.425666666666667E+009;1.663964688777924E-001;-1.005782932043076E-001;5.043961573392153E-003;-8.344396483153105E-004;
2.425833333333334E+009;1.668829023838043E-001;-1.018269360065460E-001;4.803924821317196E-003;-9.822283172979951E-004;
2.426000000000000E+009;1.676654666662216E-001;-1.022316291928291E-001;5.004540551453829E-003;-1.356165739707649E-003;
2.426166666666667E+009;1.682240515947342E-001;-1.030939966440201E-001;4.686991684138775E-003;-1.505988766439259E-003;
2.426333333333334E+009;1.686472594738007E-001;-1.036759167909622E-001;4.568547010421753E-003;-1.681347377598286E-003;
2.426500000000000E+009;1.694567203521729E-001;-1.040896698832512E-001;4.503361415117979E-003;-1.895982422865927E-003;
2.426666666666667E+009;1.698681563138962E-001;-1.045453622937203E-001;4.337991122156382E-003;-1.937826047651470E-003;
2.426833333333334E+009;1.705362647771835E-001;-1.049005985260010E-001;4.352399148046970E-003;-2.179399132728577E-003;
2.427000000000000E+009;1.709118634462357E-001;-1.051523536443710E-001;4.221868701279163E-003;-2.332673873752356E-003;
2.427166666666667E+009;1.712036281824112E-001;-1.052281185984612E-001;4.065401852130890E-003;-2.504234202206135E-003;
2.427333333333334E+009;1.715026944875717E-001;-1.054390445351601E-001;3.803536528721452E-003;-2.814590232446790E-003;
2.427500000000000E+009;1.715637296438217E-001;-1.056516692042351E-001;3.680591005831957E-003;-2.668555360287428E-003;
2.427666666666667E+009;1.715614348649979E-001;-1.055750474333763E-001;3.516446799039841E-003;-2.905483590438962E-003;
2.427833333333334E+009;1.715049594640732E-001;-1.056391522288322E-001;3.176585771143436E-003;-2.951757051050663E-003;
