# Hz S RI R 50
2400000000.0000000000 0.149911627173423794845419365629 0.113556809723377200027627509371 0.003036574926227331161499023438 -0.000234476479818113202422541486 0 0 0 0 
2400166666.6666665077 0.150067701935768099685830634371 0.110907129943370805214009067186 0.004194432869553565979003906250 -0.000056711040087975561618804932 0 0 0 0 
2400333333.3333334923 0.150160506367683410644531250000 0.109052412211895002891459682814 0.003353322623297572135925292969 -0.000138340066769160303190508432 0 0 0 0 
2400500000.0000000000 0.150005027651786804199218750000 0.106491602957248701621928432814 0.003442563116550445990321493994 -0.000467627658508718013763427734 0 0 0 0 
2400666666.6666665077 0.150121092796325711349325615629 0.104081526398658794074769673443 0.003521691774949430985691689600 -0.000864917528815567493438720703 0 0 0 0 
2400833333.3333334923 0.150467425584793090820312500000 0.101190537214279202560263115629 0.003589001018553971810581826318 -0.001247364562004805044886923682 0 0 0 0 
2401000000.0000000000 0.150688171386718805511151231258 0.098590038716793060302734375000 0.003493716474622488021850585938 -0.001473713549785315990447998047 0 0 0 0 
2401166666.6666665077 0.150793880224227905273437500000 0.095665834844112396240234375000 0.003474669996649026870727539062 -0.002035314915701746940612792969 0 0 0 0 
2401333333.3333334923 0.151425316929817199707031250000 0.092994645237922668457031250000 0.003267632797360419793369912256 -0.002224914962425827980041503906 0 0 0 0 
2401500000.0000000000 0.151880532503128107268963731258 0.090218327939510345458984375000 0.003129009157419205145594931494 -0.002451306907460093931910849463 0 0 0 0 
2401666666.6666665077 0.152302637696266202071981865629 0.087287977337837219238281250000 0.002899875398725270791294716943 -0.002523507224395871162414550781 0 0 0 0 
2401833333.3333334923 0.153068676590919494628906250000 0.084552481770515441894531250000 0.002635839860886334939243935693 -0.002931453753262757821324013818 0 0 0 0 
2402000000.0000000000 0.153994858264923095703125000000 0.082008466124534606933593750000 0.002281260211020708084106445312 -0.002943899016827344894409179688 0 0 0 0 
2402166666.6666665077 0.155146613717079190353231865629 0.079260930418968200683593750000 0.002027059206739068031311035156 -0.003001508070155978202819824219 0 0 0 0 
2402333333.3333334923 0.156074076890945406814736884371 0.076873600482940673828125000000 0.001759517355822026946424174731 -0.003093670587986708121058798682 0 0 0 0 
2402500000.0000000000 0.157398566603660611251669365629 0.074173785746097564697265625000 0.001506207394413650035858154297 -0.003047009697183967070338583838 0 0 0 0 
2402666666.6666665077 0.158876165747642489334268134371 0.071913741528987884521484375000 0.001490431954152882099151611328 -0.002966549713164567947387695312 0 0 0 0 
2402833333.3333334923 0.160337254405021695236044365629 0.069414041936397552490234375000 0.001145123969763516946079873193 -0.002965376479551196098327636719 0 0 0 0 
2403000000.0000000000 0.161929860711097689529580634371 0.067170038819313049316406250000 0.001162161002866924025891948169 -0.002718617673963307900669716943 0 0 0 0 
2403166666.6666665077 0.163928523659706087967080634371 0.065052531659603118896484375000 0.000889338727574795484542846680 -0.002642799168825149969813681494 0 0 0 0 
2403333333.3333334923 0.165443882346153287032919365629 0.062668710947036743164062500000 0.000937622797209769487380981445 -0.002598440973088144822361611475 0 0 0 0 
2403500000.0000000000 0.167546808719635009765625000000 0.060654032975435256958007812500 0.000945108127780258655548095703 -0.002664807718247175216674804688 0 0 0 0 
2403666666.6666665077 0.169482365250587491134481865629 0.058731973171234130859375000000 0.000998703995719552040100097656 -0.002600087551400064988377236475 0 0 0 0 
2403833333.3333334923 0.171507522463798495193643134371 0.056764148175716400146484375000 0.001075138105079532103297568213 -0.002571342047303915023803710938 0 0 0 0 
2404000000.0000000000 0.173119008541107205489950615629 0.054868713021278381347656250000 0.000944282277487218379974365234 -0.002724962076172233061549521338 0 0 0 0 
2404166666.6666665077 0.175154417753219604492187500000 0.053294390439987182617187500000 0.001033584470860660076141357422 -0.002719014650210738182067871094 0 0 0 0 
2404333333.3333334923 0.177116692066192599197549384371 0.051686760038137442851979841407 0.000936585071031004190444946289 -0.002985621104016900062561035156 0 0 0 0 
2404500000.0000000000 0.178945317864418002029580634371 0.050399348139762878417968750000 0.000821961264591664075851440430 -0.002902205567806959152221679688 0 0 0 0 
2404666666.6666665077 0.180692791938781710525674384371 0.049296986311674118041992187500 0.000606770161539316177368164062 -0.002983608050271869139430380713 0 0 0 0 
2404833333.3333334923 0.182613044977188110351562500000 0.047996398061513900756835937500 0.000363597675459459424018859863 -0.003173919627442955970764160156 0 0 0 0 
2405000000.0000000000 0.184066504240036010742187500000 0.047287881374359130859375000000 0.000507652410306036472320556641 -0.003332304535433650016784667969 0 0 0 0 
2405166666.6666665077 0.185753211379051208496093750000 0.046368855983018882060964216407 0.000138205388793721795082092285 -0.003364640520885587172267294775 0 0 0 0 
2405333333.3333334923 0.187479451298713711837606865629 0.045973259955644607543945312500 0.000088820488599594682455062866 -0.003332853317260742187500000000 0 0 0 0 
2405500000.0000000000 0.188934326171875000000000000000 0.045440919697284698486328125000 -0.000094901763077359646558761597 -0.003518666839227079911472939600 0 0 0 0 
2405666666.6666665077 0.190279781818389892578125000000 0.044985990971326828002929687500 -0.000427984894486144185066223145 -0.003597084665670990943908691406 0 0 0 0 
2405833333.3333334923 0.191830754280090304275674384371 0.044669467955827713012695312500 -0.000671542889904230833053588867 -0.003593541914597154097316122900 0 0 0 0 
2406000000.0000000000 0.192916929721832303146200615629 0.044436689466238021850585937500 -0.000974723021499812602996826172 -0.003303963923826814131495810400 0 0 0 0 
2406166666.6666665077 0.194035887718200711349325615629 0.044285710901021957397460937500 -0.001126814633607863946201943506 -0.003336560213938355012180947412 0 0 0 0 
2406333333.3333334923 0.195190310478210504729901231258 0.044231083244085311889648437500 -0.001311756088398396968841552734 -0.003136400599032640890834189307 0 0 0 0 
2406500000.0000000000 0.195947557687759399414062500000 0.044153966009616851806640625000 -0.001455601654015481905696249854 -0.003055057255551218986511230469 0 0 0 0 
2406666666.6666665077 0.196772009134292602539062500000 0.044096574187278747558593750000 -0.001740847132168710014940571362 -0.002953118644654750823974609375 0 0 0 0 
2406833333.3333334923 0.197333291172981289962606865629 0.043950807303190231323242187500 -0.001784100313670933029772114331 -0.002741124713793396949768066406 0 0 0 0 
2407000000.0000000000 0.197714805603027288238848768742 0.044175244867801673198659528907 -0.001888538827188313007354736328 -0.002439725678414105935337685693 0 0 0 0 
2407166666.6666665077 0.198084697127342196365518134371 0.043858431279659271240234375000 -0.001926652970723808028577495044 -0.002411694033071399168727255713 0 0 0 0 
2407333333.3333334923 0.198171108961105402190838731258 0.043975714594125747680664062500 -0.001932429033331573009490966797 -0.002088131848722695870640420068 0 0 0 0 
2407500000.0000000000 0.198055729269981412032919365629 0.044052802026271820068359375000 -0.002133401576429605917689658057 -0.001952407648786901993992470850 0 0 0 0 
2407666666.6666665077 0.198067530989646911621093750000 0.043816797435283660888671875000 -0.001983323134481906890869140625 -0.001942537026479840061785053784 0 0 0 0 
2407833333.3333334923 0.197675406932830810546875000000 0.043614953756332397460937500000 -0.002030375646427274183986044775 -0.001698115840554236932041787256 0 0 0 0 
2408000000.0000000000 0.197470724582672091385049384371 0.043487787246704101562500000000 -0.002042205538600683212280273438 -0.001706695184111594936968159253 0 0 0 0 
2408166666.6666665077 0.196817427873611505706463731258 0.043095529079437262798268903907 -0.001940060523338615894317626953 -0.001577001996338367895839072119 0 0 0 0 
2408333333.3333334923 0.196346238255500793457031250000 0.042528308928012847900390625000 -0.001980192959308623833897256006 -0.001535930088721215941785502856 0 0 0 0 
2408500000.0000000000 0.195590913295745905120526231258 0.042097926139831542968750000000 -0.001993203535676002936122275244 -0.001263038371689618067500449072 0 0 0 0 
2408666666.6666665077 0.194827049970626803299111884371 0.041778996586799621582031250000 -0.001958836568519473075866699219 -0.001137223211117089011548686450 0 0 0 0 
2408833333.3333334923 0.194045409560203607757244981258 0.040975034236907958984375000000 -0.001821156474761665084241557544 -0.001135802827775477929356240381 0 0 0 0 
2409000000.0000000000 0.192924290895462008377236884371 0.039938595145940780639648437500 -0.001755570527166127941728901440 -0.001076505053788423971888876807 0 0 0 0 
2409166666.6666665077 0.191888913512229891678018134371 0.038998592644929892803151716407 -0.001808842760510743098018027197 -0.000959265045821666717529296875 0 0 0 0 
2409333333.3333334923 0.190896779298782404143963731258 0.037985943257808692241628278907 -0.001634912332519889094709086841 -0.000971166591625660657882690430 0 0 0 0 
2409500000.0000000000 0.189710170030593899825888115629 0.036786466836929321289062500000 -0.001730398042127490043640136719 -0.001018636161461472944972372900 0 0 0 0 
2409666666.6666665077 0.188574671745300292968750000000 0.035340715199708938598632812500 -0.001774307806044816970825195312 -0.001037784386426209969761513818 0 0 0 0 
2409833333.3333334923 0.187373086810111999511718750000 0.033882405608892440795898437500 -0.001526828273199499087092734229 -0.001032167579978705103035951929 0 0 0 0 
2410000000.0000000000 0.186402946710586603362713731258 0.032347790896892547607421875000 -0.001500815735198556943180703271 -0.000999588635750114917755126953 0 0 0 0 
2410166666.6666665077 0.185299366712570190429687500000 0.030446523800492290151575858204 -0.001507598673924803950666118091 -0.000916014367248862981796264648 0 0 0 0 
2410333333.3333334923 0.184275269508361788650674384371 0.028733469545841220510462576954 -0.001635981025174259922624897534 -0.000920887978281825780868530273 0 0 0 0 
2410500000.0000000000 0.183178126811981201171875000000 0.026880450546741489065150076954 -0.001592007232829927964451455225 -0.001255475333891808986663818359 0 0 0 0 
2410666666.6666665077 0.182359308004379300216513115629 0.024554871022701259958287423046 -0.001720129395835102038142538916 -0.001115540624596178965327597510 0 0 0 0 
2410833333.3333334923 0.181655645370483398437500000000 0.022522883489727970468541329296 -0.001851543784141540961024618994 -0.001155662350356579043744731372 0 0 0 0 
2411000000.0000000000 0.180849269032478304763955634371 0.020391201600432399404505545704 -0.001869483734481037096736288916 -0.001166169415228069045423198169 0 0 0 0 
2411166666.6666665077 0.180080488324165288727130018742 0.018013319000601768493652343750 -0.001926505239680408997776650537 -0.001080783666111529090284038013 0 0 0 0 
2411333333.3333334923 0.179588779807090787032919365629 0.015630116686224940908411795704 -0.002009047195315361022949218750 -0.001076703425496817068812704932 0 0 0 0 
2411500000.0000000000 0.178989395499229403396768134371 0.013222209177911279850969883398 -0.001947362674400209946873330225 -0.001202131388708949089050292969 0 0 0 0 
2411666666.6666665077 0.178848400712013189117755018742 0.010799016803503039968470389454 -0.002238535322248936133143759619 -0.001258823322132230021833110278 0 0 0 0 
2411833333.3333334923 0.178583070635795593261718750000 0.008335120044648647308349609375 -0.002240034053102136091945029150 -0.000825563271064311265945434570 0 0 0 0 
2412000000.0000000000 0.178700625896453912933026231258 0.005791352130472660064697265625 -0.002516606589779258208033896338 -0.000775342748966068029403686523 0 0 0 0 
2412166666.6666665077 0.178709775209426907638388115629 0.003333567408844829039332724463 -0.002633869647979735894444131006 -0.000838233390823006629943847656 0 0 0 0 
2412333333.3333334923 0.178893029689788790603799384371 0.000833983591292053461074829102 -0.002528997370973228974583291162 -0.000644879299215972423553466797 0 0 0 0 
2412500000.0000000000 0.179356679320335388183593750000 -0.001766497502103447914123535156 -0.002557791536673903898951865088 -0.000711856409907341003417968750 0 0 0 0 
2412666666.6666665077 0.179901197552680996993856865629 -0.004244780633598566055297851562 -0.002747683320194482803344726562 -0.000501698174048215150833129883 0 0 0 0 
2412833333.3333334923 0.180339336395263699630575615629 -0.006706133950501680374145507812 -0.002737722126767038865330361475 -0.000089650398876983672380447388 0 0 0 0 
2413000000.0000000000 0.181137457489967401702557481258 -0.009040901437401771545410156250 -0.002837166888639330863952636719 -0.000097984106105286628007888794 0 0 0 0 
2413166666.6666665077 0.182041883468627901931924384371 -0.011212182231247430283516131055 -0.002843802329152822928187704932 -0.000044293326936895027756690979 0 0 0 0 
2413333333.3333334923 0.183131486177444513518963731258 -0.013688230887055400503138358204 -0.002881680382415651841404580225 0.000327339977957308292388916016 0 0 0 0 
2413500000.0000000000 0.183843433856964111328125000000 -0.015998292714357379568079764454 -0.002888805931434034867527627100 0.000512604950927197933197021484 0 0 0 0 
2413666666.6666665077 0.185092538595199612716513115629 -0.018264124169945720327357108204 -0.002805400639772415161132812500 0.000616787350736558437347412109 0 0 0 0 
2413833333.3333334923 0.186354413628578213790731865629 -0.020097985863685611379603201954 -0.002739833900704979896545410156 0.000759454036597162485122680664 0 0 0 0 
2414000000.0000000000 0.187362357974052401443643134371 -0.022238159552216529846191406250 -0.002665776526555418968200683594 0.000890378258191049098968505859 0 0 0 0 
2414166666.6666665077 0.188901990652084406097088731258 -0.023954998701810840261439139454 -0.002521160524338483810424804688 0.001131866243667900995967245947 0 0 0 0 
2414333333.3333334923 0.189904972910880986969317518742 -0.026064340025186538696289062500 -0.002436038572341204123256064307 0.001203321269713341972948383862 0 0 0 0 
2414500000.0000000000 0.191174075007438687423544365629 -0.027459859848022460937500000000 -0.002373043680563569068908691406 0.001324025448411702892900776440 0 0 0 0 
2414666666.6666665077 0.192347988486290005782919365629 -0.029033055528998378408411795704 -0.002009132411330937905552529443 0.001327286125160753943799663013 0 0 0 0 
2414833333.3333334923 0.193573489785194396972656250000 -0.030331054702401161193847656250 -0.001996760722249745888950966943 0.001384005998261272907257080078 0 0 0 0 
2415000000.0000000000 0.194728344678878811935263115629 -0.031603198498487472534179687500 -0.001875457353889941952349018628 0.001446434995159507014630961841 0 0 0 0 
2415166666.6666665077 0.196032211184501703460369981258 -0.032675273716449737548828125000 -0.001777337398380040905596088940 0.001511463662609457969665527344 0 0 0 0 
2415333333.3333334923 0.197251379489898709396200615629 -0.033729862421751022338867187500 -0.001850123400799930095672607422 0.001495631877332926013349223560 0 0 0 0 
2415500000.0000000000 0.198435068130493191818075615629 -0.034439738839864730834960937500 -0.001860114629380404949188232422 0.001473628100939095020294189453 0 0 0 0 
2415666666.6666665077 0.199403896927833612640057481258 -0.035044685006141662597656250000 -0.001682042377069592909571982275 0.001434758538380265019060444409 0 0 0 0 
2415833333.3333334923 0.200341925024986294845419365629 -0.035648029297590262676198591407 -0.001687772106379270987269736182 0.001501520397141576030133891528 0 0 0 0 
2416000000.0000000000 0.201243430376052911956463731258 -0.036276228725910186767578125000 -0.001674203085713088946101523291 0.001585827325470745997187949072 0 0 0 0 
2416166666.6666665077 0.201950147747993496993856865629 -0.036869648844003677368164062500 -0.001600346760824322917340922778 0.001587503124028444073320698315 0 0 0 0 
2416333333.3333334923 0.202714160084724398513955634371 -0.036962978541851036762277971093 -0.001641745795495807907701801831 0.001812788192182779095293354565 0 0 0 0 
2416500000.0000000000 0.203153640031814602950888115629 -0.037354700267314910888671875000 -0.001540274126455188014386821216 0.001909516053274274089215922778 0 0 0 0 
2416666666.6666665077 0.203585579991340609451455634371 -0.037618160247802727436106096093 -0.001346874400041996999027871240 0.001964953728020191192626953125 0 0 0 0 
2416833333.3333334923 0.203755855560302706619424384371 -0.037499792873859412456472028907 -0.001241187565028667016270302881 0.002098629483953117890598916162 0 0 0 0 
2417000000.0000000000 0.204046308994293212890625000000 -0.037571344524621956562082658593 -0.001271217246539890982984233325 0.002169496612623333930969238281 0 0 0 0 
2417166666.6666665077 0.203764915466308593750000000000 -0.037381865084171302104909528907 -0.001085228985175489945652627100 0.002281664172187447981593466650 0 0 0 0 
2417333333.3333334923 0.203601658344268798828125000000 -0.037244018167257308959960937500 -0.000761297706048935651779174805 0.002371494425460695786717080225 0 0 0 0 
2417500000.0000000000 0.203490301966667203048544365629 -0.037247180938720703125000000000 -0.000586164882406592369079589844 0.002294169040396810011622763525 0 0 0 0 
2417666666.6666665077 0.202912285923957796951455634371 -0.037014480680227279663085937500 -0.000435754482168704325526636945 0.002324402099475264982936240088 0 0 0 0 
2417833333.3333334923 0.202522918581962613204794365629 -0.036601610481739037250559221093 -0.000266177317826077287823277606 0.002197701251134275956394814600 0 0 0 0 
2418000000.0000000000 0.202088549733161898513955634371 -0.036254335194826133037526716407 -0.000175091889104805886745452881 0.002286228816956282095668173682 0 0 0 0 
2418166666.6666665077 0.201221615076065091232138115629 -0.036168180406093597412109375000 -0.000046277484216261661868502958 0.002139639807865024046656943213 0 0 0 0 
2418333333.3333334923 0.200349822640419006347656250000 -0.036036632955074310302734375000 0.000148151229950599399491986685 0.001964548602700233893153525244 0 0 0 0 
2418500000.0000000000 0.199442267417907687088174384371 -0.035937037318944931030273437500 0.000131761888042092296198168344 0.001833071000874042944667197119 0 0 0 0 
2418666666.6666665077 0.198696017265319796463174384371 -0.035808943212032318115234375000 0.000109670967503916499301633292 0.001662631402723490975023579175 0 0 0 0 
2418833333.3333334923 0.197465658187866210937500000000 -0.035864822566509246826171875000 0.000179943512193858596399584360 0.001520439167506993033765483325 0 0 0 0 
2419000000.0000000000 0.196179971098899813553018134371 -0.036105409264564507221262346093 0.000187079058378003510549822397 0.001518589560873806910273886572 0 0 0 0 
2419166666.6666665077 0.194976314902305603027343750000 -0.036358561366796486591379533593 0.000241612942772917503684443341 0.001276428927667438983917236328 0 0 0 0 
2419333333.3333334923 0.193599820137023898025674384371 -0.036884222179651260375976562500 0.000224899398745037588194170541 0.001395909348502754948259663159 0 0 0 0 
2419500000.0000000000 0.192220330238342312911825615629 -0.037225320935249328613281250000 0.000162124357302673188134869986 0.001189798698760569095611572266 0 0 0 0 
2419666666.6666665077 0.190638795495033291915731865629 -0.037995554506778717041015625000 0.000068962210207246243953704834 0.001240370678715408065198588794 0 0 0 0 
2419833333.3333334923 0.188964605331420898437500000000 -0.038642305880784988403320312500 -0.000014498247765004639939375418 0.001158881234005094008204794775 0 0 0 0 
