# Version 1.00
#
freq[Hz];re:Trc1_S11;im:Trc1_S11;re:Trc2_S21;im:Trc2_S21;
2.400000000000000E+009;1.557646393775940E-001;1.116493940353394E-001;3.123588394373655E-003;4.131196532398462E-003;
2.400166666666667E+009;1.550685167312622E-001;1.093845441937447E-001;3.239772748202086E-003;3.924869932234287E-003;
2.400333333333334E+009;1.549092531204224E-001;1.069887503981590E-001;3.259536810219288E-003;3.869548439979553E-003;
2.400500000000000E+009;1.544544398784638E-001;1.043957024812698E-001;3.287984291091561E-003;3.659711917862296E-003;
2.400666666666667E+009;1.545289903879166E-001;1.018261238932610E-001;3.383300499990583E-003;3.567743580788374E-003;
2.400833333333334E+009;1.540281623601914E-001;9.921700507402420E-002;3.522871760651469E-003;3.314668545499444E-003;
2.401000000000000E+009;1.542168855667114E-001;9.622928500175476E-002;3.544481005519629E-003;3.219134174287319E-003;
2.401166666666667E+009;1.538683474063873E-001;9.346418082714081E-002;3.657429711893201E-003;3.161955391988158E-003;
2.401333333333334E+009;1.541469842195511E-001;9.045739471912384E-002;3.774441312998533E-003;3.059188136830926E-003;
2.401500000000000E+009;1.542018800973892E-001;8.739247918128967E-002;3.986983094364405E-003;3.036183072254062E-003;
2.401666666666667E+009;1.542945355176926E-001;8.442080020904541E-002;4.118018783628941E-003;2.843501046299934E-003;
2.401833333333334E+009;1.547792255878449E-001;8.149578422307968E-002;4.210164770483971E-003;2.781591610983014E-003;
2.402000000000000E+009;1.552300900220871E-001;7.849303632974625E-002;4.391415044665337E-003;2.708239713683724E-003;
2.402166666666667E+009;1.560330092906952E-001;7.568038254976273E-002;4.524501971900463E-003;2.400614554062486E-003;
2.402333333333334E+009;1.569470912218094E-001;7.273194193840027E-002;4.630709532648325E-003;2.294400474056602E-003;
2.402500000000000E+009;1.578767299652100E-001;7.000741362571716E-002;4.742216318845749E-003;2.086726017296314E-003;
2.402666666666667E+009;1.587571203708649E-001;6.738304346799851E-002;5.022793076932430E-003;1.801910344511271E-003;
2.402833333333334E+009;1.601458340883255E-001;6.472962349653244E-002;5.016574170440435E-003;1.614661654457450E-003;
2.403000000000000E+009;1.616043001413345E-001;6.224459782242775E-002;5.292432382702828E-003;1.326476689428091E-003;
2.403166666666667E+009;1.632859706878662E-001;5.973009020090103E-002;5.326422397047281E-003;1.091782585717738E-003;
2.403333333333334E+009;1.648381650447846E-001;5.726518109440804E-002;5.437568295747042E-003;6.266917916946113E-004;
2.403500000000000E+009;1.664834171533585E-001;5.498760938644409E-002;5.377871915698052E-003;3.496661665849388E-004;
2.403666666666667E+009;1.684469878673554E-001;5.273701250553131E-002;5.398255307227373E-003;-2.779440546873957E-005;
2.403833333333334E+009;1.699904054403305E-001;5.053269118070602E-002;5.437796935439110E-003;-3.431738296058029E-004;
2.404000000000000E+009;1.718706488609314E-001;4.856615141034126E-002;5.339065566658974E-003;-9.187270770780742E-004;
2.404166666666667E+009;1.736772656440735E-001;4.688354209065437E-002;5.279526580125094E-003;-1.229652785696089E-003;
2.404333333333334E+009;1.755292415618897E-001;4.500349983572960E-002;5.046737845987082E-003;-1.661635236814618E-003;
2.404500000000000E+009;1.773758381605148E-001;4.358538985252380E-002;4.777559544891119E-003;-1.737668644636869E-003;
2.404666666666667E+009;1.793115586042404E-001;4.230763018131256E-002;4.443027544766665E-003;-2.050728304311633E-003;
2.404833333333334E+009;1.811138689517975E-001;4.105372354388237E-002;4.379115998744965E-003;-2.255276776850224E-003;
2.405000000000000E+009;1.827354878187180E-001;4.009538516402245E-002;3.882205346599221E-003;-2.307073213160038E-003;
2.405166666666667E+009;1.844337433576584E-001;3.927775472402573E-002;3.772574476897717E-003;-2.557223895564675E-003;
2.405333333333334E+009;1.862176060676575E-001;3.874457255005837E-002;3.416848368942738E-003;-2.461858792230487E-003;
2.405500000000000E+009;1.878781914710999E-001;3.810529410839081E-002;3.136172425001860E-003;-2.623631851747632E-003;
2.405666666666667E+009;1.893439143896103E-001;3.775541856884956E-002;2.938446355983615E-003;-2.739189658313990E-003;
2.405833333333334E+009;1.908532679080963E-001;3.750209137797356E-002;2.783289877697825E-003;-2.776788547635078E-003;
2.406000000000000E+009;1.921645104885101E-001;3.733943030238152E-002;2.756000962108374E-003;-2.875068690627813E-003;
2.406166666666667E+009;1.933923512697220E-001;3.713754564523697E-002;2.333240583539009E-003;-2.866908675059676E-003;
2.406333333333334E+009;1.947290599346161E-001;3.719602897763252E-002;2.217025263234973E-003;-2.820945810526609E-003;
2.406500000000000E+009;1.955767124891281E-001;3.728139027953148E-002;2.238761633634567E-003;-2.865911694243550E-003;
2.406666666666667E+009;1.965224444866180E-001;3.748881071805954E-002;1.917079789564014E-003;-2.972846385091543E-003;
2.406833333333334E+009;1.972426027059555E-001;3.763675317168236E-002;1.776912249624729E-003;-3.023771336302161E-003;
2.407000000000000E+009;1.977794021368027E-001;3.803022578358650E-002;1.511988812126219E-003;-2.962747355923057E-003;
2.407166666666667E+009;1.983923166990280E-001;3.812102600932121E-002;1.192077412270010E-003;-2.991188084706664E-003;
2.407333333333334E+009;1.985117942094803E-001;3.843578323721886E-002;1.054358319379389E-003;-2.967074047774077E-003;
2.407500000000000E+009;1.986544877290726E-001;3.886097297072411E-002;7.886049570515752E-004;-2.699613105505705E-003;
2.407666666666667E+009;1.988237202167511E-001;3.900923207402229E-002;6.107126828283072E-004;-2.667058492079377E-003;
2.407833333333334E+009;1.984626799821854E-001;3.921942412853241E-002;3.812100621871650E-004;-2.644147956743836E-003;
2.408000000000000E+009;1.985291093587875E-001;3.945739939808846E-002;4.422079364303500E-004;-2.507150871679187E-003;
2.408166666666667E+009;1.980173587799072E-001;3.941061347723007E-002;3.352125713718124E-005;-2.313092118129134E-003;
2.408333333333334E+009;1.975672841072083E-001;3.921953588724136E-002;-1.500807557022199E-004;-2.242111600935459E-003;
2.408500000000000E+009;1.968290060758591E-001;3.928929194808006E-002;-6.577491876669228E-005;-2.045570872724056E-003;
2.408666666666667E+009;1.961426287889481E-001;3.911272063851357E-002;-3.084114869125187E-004;-1.873934990726411E-003;
2.408833333333334E+009;1.957595944404602E-001;3.861934319138527E-002;-3.942607727367431E-004;-1.254879287444055E-003;
2.409000000000000E+009;1.945705264806747E-001;3.804263100028038E-002;-4.117815988138318E-004;-1.263139885850251E-003;
2.409166666666667E+009;1.933566629886627E-001;3.736519441008568E-002;-2.904932480305433E-004;-1.171368639916182E-003;
2.409333333333334E+009;1.921904087066650E-001;3.679061308503151E-002;3.819018274953123E-006;-1.045500393956900E-003;
2.409500000000000E+009;1.912507265806198E-001;3.575786948204041E-002;-1.823229249566793E-004;-7.908200495876372E-004;
2.409666666666667E+009;1.896949112415314E-001;3.470679745078087E-002;9.249241702491418E-005;-9.694623877294362E-004;
2.409833333333334E+009;1.888036131858826E-001;3.335438668727875E-002;-7.915433525340632E-005;-4.546396376099438E-004;
2.410000000000000E+009;1.875227093696594E-001;3.201947361230850E-002;2.840188681147993E-004;-4.496313049457967E-004;
2.410166666666667E+009;1.861793547868729E-001;3.023622557520866E-002;4.132495960220695E-004;-5.620264564640820E-004;
2.410333333333334E+009;1.850669831037521E-001;2.894909307360649E-002;4.464154480956495E-004;-5.890188622288406E-004;
2.410500000000000E+009;1.838878691196442E-001;2.691896632313728E-002;5.986354080960155E-004;-4.047869588248432E-004;
2.410666666666667E+009;1.827386915683746E-001;2.473121695220470E-002;6.576094310730696E-004;-3.547623055055738E-004;
2.410833333333334E+009;1.818206161260605E-001;2.290676347911358E-002;6.368980393745005E-004;-3.614001034293324E-004;
2.411000000000000E+009;1.807291954755783E-001;2.068360522389412E-002;8.444100385531783E-004;-5.181631422601640E-004;
2.411166666666667E+009;1.799869537353516E-001;1.843163371086121E-002;7.872123387642205E-004;-4.833050479646772E-004;
2.411333333333334E+009;1.791769117116928E-001;1.582148857414722E-002;8.768461411818862E-004;-4.311866068746895E-004;
2.411500000000000E+009;1.785179674625397E-001;1.344217639416456E-002;9.820953710004687E-004;-4.776819550897926E-004;
2.411666666666667E+009;1.781664341688156E-001;1.120555028319359E-002;9.823006112128496E-004;-5.730912671424449E-004;
2.411833333333334E+009;1.775847077369690E-001;8.477626368403435E-003;9.134329156950116E-004;-5.737749161198735E-004;
2.412000000000000E+009;1.776162832975388E-001;6.012752186506987E-003;1.077686203643680E-003;-4.915219033136964E-004;
2.412166666666667E+009;1.774008125066757E-001;3.438358195126057E-003;1.279813004657626E-003;-5.631331587210298E-004;
2.412333333333334E+009;1.774456650018692E-001;7.739900029264391E-004;1.385520095936954E-003;-4.711858928203583E-004;
2.412500000000000E+009;1.778167486190796E-001;-1.792579190805554E-003;1.415576087310910E-003;-5.598944262601435E-004;
2.412666666666667E+009;1.781228780746460E-001;-4.561292938888073E-003;1.434336998499930E-003;-5.067170714028180E-004;
2.412833333333334E+009;1.786373108625412E-001;-7.172756828367710E-003;1.702091540209949E-003;-7.423250935971737E-004;
2.413000000000000E+009;1.794360578060150E-001;-9.797628968954086E-003;1.750707626342773E-003;-6.431983783841133E-004;
2.413166666666667E+009;1.803362369537354E-001;-1.222185697406530E-002;1.873622415587306E-003;-1.030937419272959E-003;
2.413333333333334E+009;1.810915172100067E-001;-1.491250935941935E-002;1.993907149881125E-003;-1.133061945438385E-003;
2.413500000000000E+009;1.818994730710983E-001;-1.733912155032158E-002;2.221111906692386E-003;-1.300987089052796E-003;
2.413666666666667E+009;1.831990778446198E-001;-1.990866661071777E-002;2.178955357521772E-003;-1.572814187966287E-003;
2.413833333333334E+009;1.843703836202622E-001;-2.204822003841400E-002;2.218764042481780E-003;-1.914622029289603E-003;
2.414000000000000E+009;1.854105442762375E-001;-2.433327399194241E-002;2.315528690814972E-003;-2.140090102329850E-003;
2.414166666666667E+009;1.868715286254883E-001;-2.632240392267704E-002;2.201362978667021E-003;-2.357817022129893E-003;
2.414333333333334E+009;1.881155967712402E-001;-2.860879898071289E-002;2.001619664952159E-003;-2.573184669017792E-003;
2.414500000000000E+009;1.894640475511551E-001;-3.019087202847004E-002;1.870396663434804E-003;-2.937853569164872E-003;
2.414666666666667E+009;1.908972859382629E-001;-3.190644085407257E-002;1.805673819035292E-003;-2.988897264003754E-003;
2.414833333333334E+009;1.921258717775345E-001;-3.363793715834618E-002;1.453566947020590E-003;-3.295758739113808E-003;
2.415000000000000E+009;1.934521347284317E-001;-3.507434576749802E-002;1.391457393765450E-003;-3.546952735632658E-003;
2.415166666666667E+009;1.948991715908051E-001;-3.636673092842102E-002;1.074845553375781E-003;-3.591682761907578E-003;
2.415333333333334E+009;1.962686032056809E-001;-3.750174120068550E-002;9.207378025166690E-004;-3.713431069627404E-003;
2.415500000000000E+009;1.978446096181870E-001;-3.845970332622528E-002;6.743619451299310E-004;-3.676227526739240E-003;
2.415666666666667E+009;1.989173144102097E-001;-3.931572660803795E-002;2.820350637193769E-004;-3.735613543540239E-003;
2.415833333333334E+009;2.000696212053299E-001;-4.021065309643745E-002;2.026112924795598E-004;-3.810629015788436E-003;
2.416000000000000E+009;2.012280076742172E-001;-4.080487415194511E-002;-2.945182786788791E-004;-3.913404420018196E-003;
2.416166666666667E+009;2.022328078746796E-001;-4.154281690716744E-002;-3.271246096119285E-004;-3.797481535002589E-003;
2.416333333333334E+009;2.029636502265930E-001;-4.180176928639412E-002;-5.527343600988388E-004;-3.919508773833513E-003;
2.416500000000000E+009;2.038379758596420E-001;-4.203791171312332E-002;-8.881865069270134E-004;-3.797401441261172E-003;
2.416666666666667E+009;2.044410705566406E-001;-4.236308485269547E-002;-9.936604183167219E-004;-3.719747997820377E-003;
2.416833333333334E+009;2.048516720533371E-001;-4.243163019418716E-002;-1.387395313940942E-003;-3.748761489987373E-003;
2.417000000000000E+009;2.052211761474609E-001;-4.256644472479820E-002;-1.683239708654583E-003;-3.734590020030737E-003;
2.417166666666667E+009;2.052453458309174E-001;-4.228398576378822E-002;-1.862423378042877E-003;-3.642951603978872E-003;
2.417333333333334E+009;2.051107734441757E-001;-4.207669571042061E-002;-2.099174540489912E-003;-3.315594745799899E-003;
2.417500000000000E+009;2.051997482776642E-001;-4.185835272073746E-002;-2.257099142298102E-003;-3.260208293795586E-003;
2.417666666666667E+009;2.047534137964249E-001;-4.154698923230171E-002;-2.391626592725515E-003;-3.093099221587181E-003;
2.417833333333334E+009;2.045648545026779E-001;-4.125270619988442E-002;-2.668141154572368E-003;-2.943034050986171E-003;
2.418000000000000E+009;2.040930688381195E-001;-4.075174033641815E-002;-2.845688257366419E-003;-2.797477180138230E-003;
2.418166666666667E+009;2.034494131803513E-001;-4.053916782140732E-002;-2.917440840974450E-003;-2.482826821506023E-003;
2.418333333333334E+009;2.027224600315094E-001;-4.014305025339127E-002;-2.898835577070713E-003;-2.200335497036576E-003;
2.418500000000000E+009;2.017925977706909E-001;-3.987241908907890E-002;-3.183996537700295E-003;-2.056169323623180E-003;
2.418666666666667E+009;2.009344547986984E-001;-3.971491381525993E-002;-3.190763527527452E-003;-1.934374333359301E-003;
2.418833333333334E+009;1.996344327926636E-001;-3.949605673551559E-002;-3.185823326930404E-003;-1.565919257700443E-003;
2.419000000000000E+009;1.984715163707733E-001;-3.957616910338402E-002;-3.210223745554686E-003;-1.401367364451289E-003;
2.419166666666667E+009;1.972931623458862E-001;-3.949532285332680E-002;-3.268798114731908E-003;-1.263165147975087E-003;
2.419333333333334E+009;1.957390606403351E-001;-3.994869068264961E-002;-3.179766703397036E-003;-9.259680518880487E-004;
2.419500000000000E+009;1.942973881959915E-001;-4.006430879235268E-002;-3.191468538716435E-003;-6.763494457118213E-004;
2.419666666666667E+009;1.925552785396576E-001;-4.056842625141144E-002;-3.020284231752157E-003;-4.800143942702562E-004;
2.419833333333334E+009;1.908062100410461E-001;-4.106366261839867E-002;-2.942096674814820E-003;-3.000903234351426E-004;
2.420000000000000E+009;1.892088502645493E-001;-4.184439033269882E-002;-2.912765601649880E-003;-3.588683102861978E-005;
2.420166666666667E+009;1.874976158142090E-001;-4.241663590073586E-002;-2.718678209930658E-003;1.633249921724200E-004;
2.420333333333334E+009;1.856170296669006E-001;-4.346103221178055E-002;-2.659394871443510E-003;2.765815588645637E-004;
2.420500000000000E+009;1.837810724973679E-001;-4.462610930204392E-002;-2.434836234897375E-003;2.315453602932394E-004;
2.420666666666667E+009;1.821544915437698E-001;-4.563267529010773E-002;-2.396704163402319E-003;2.357243502046913E-004;
2.420833333333334E+009;1.802536100149155E-001;-4.708430543541908E-002;-2.111944602802396E-003;4.376783326733857E-004;
2.421000000000000E+009;1.786683201789856E-001;-4.858101904392242E-002;-1.989007927477360E-003;5.360348732210696E-004;
2.421166666666667E+009;1.770472973585129E-001;-5.029207468032837E-002;-1.884013763628900E-003;4.909799317829311E-004;
2.421333333333334E+009;1.750428229570389E-001;-5.174712091684341E-002;-1.783190760761499E-003;6.051183445379138E-004;
2.421500000000000E+009;1.736928820610046E-001;-5.366680771112442E-002;-1.671071746386588E-003;6.278220098465681E-004;
2.421666666666667E+009;1.722755134105682E-001;-5.549827963113785E-002;-1.513772062025964E-003;5.636595888063312E-004;
2.421833333333334E+009;1.708356589078903E-001;-5.742266401648521E-002;-1.328562735579908E-003;5.583815509453416E-004;
2.422000000000000E+009;1.694303750991821E-001;-5.950325354933739E-002;-1.167844864539802E-003;5.382275558076799E-004;
2.422166666666667E+009;1.684419512748718E-001;-6.168868020176888E-002;-1.248124288395047E-003;5.837910575792193E-004;
2.422333333333334E+009;1.672273874282837E-001;-6.387145817279816E-002;-9.775545913726091E-004;4.838261520490050E-004;
2.422500000000000E+009;1.663549840450287E-001;-6.595461070537567E-002;-1.139447325840592E-003;4.991262685507536E-004;
2.422666666666667E+009;1.654713600873947E-001;-6.821484118700028E-002;-9.482458117417991E-004;2.928220783360302E-004;
2.422833333333334E+009;1.647594273090363E-001;-7.040700316429138E-002;-9.562245686538518E-004;4.538840730674565E-004;
2.423000000000000E+009;1.642296016216278E-001;-7.280219346284866E-002;-8.334725280292332E-004;2.359081554459408E-004;
2.423166666666667E+009;1.636577546596527E-001;-7.476854324340820E-002;-7.496819598600268E-004;3.561447665560991E-004;
2.423333333333334E+009;1.634420156478882E-001;-7.723639160394669E-002;-9.540544706396759E-004;2.497278328519315E-004;
2.423500000000000E+009;1.630829870700836E-001;-7.929031550884247E-002;-5.900260875932872E-004;4.051801806781441E-004;
2.423666666666667E+009;1.632173955440521E-001;-8.149127662181854E-002;-7.486467366106808E-004;1.878443144960329E-004;
2.423833333333334E+009;1.630486398935318E-001;-8.324449509382248E-002;-5.135532701388001E-004;1.179429600597359E-004;
2.424000000000000E+009;1.632157266139984E-001;-8.547950536012650E-002;-6.572728161700070E-004;1.051031649694778E-004;
2.424166666666667E+009;1.633370667695999E-001;-8.728276938199997E-002;-4.149105225224048E-004;1.283416531805415E-005;
2.424333333333334E+009;1.635506898164749E-001;-8.916208893060684E-002;-4.279023851267994E-004;-2.245155046693981E-004;
2.424500000000000E+009;1.641219854354858E-001;-9.122203290462494E-002;-4.773634718731046E-004;-2.997884876094759E-004;
2.424666666666667E+009;1.642287075519562E-001;-9.264554828405380E-002;-4.623905115295202E-004;-4.755908157676458E-004;
2.424833333333334E+009;1.650295704603195E-001;-9.434836357831955E-002;-5.591223598457873E-004;-5.893224151805043E-004;
2.425000000000000E+009;1.654249429702759E-001;-9.571827203035355E-002;-8.053942001424730E-004;-7.060181815177202E-004;
2.425166666666667E+009;1.659306287765503E-001;-9.700009971857071E-002;-7.086904370225966E-004;-9.190759155899286E-004;
2.425333333333334E+009;1.664268374443054E-001;-9.805800765752792E-002;-1.105890143662691E-003;-8.999060955829918E-004;
2.425500000000000E+009;1.671271324157715E-001;-9.937559068202972E-002;-1.049683894962072E-003;-8.931542397476733E-004;
2.425666666666667E+009;1.677321791648865E-001;-1.001034304499626E-001;-1.176192541606724E-003;-1.100182998925448E-003;
2.425833333333334E+009;1.682071089744568E-001;-1.010442227125168E-001;-1.450371230021119E-003;-1.013814820908010E-003;
2.426000000000000E+009;1.688798964023590E-001;-1.015432849526405E-001;-1.616753288544715E-003;-8.491722401231527E-004;
2.426166666666667E+009;1.695294082164764E-001;-1.022440567612648E-001;-1.857346971519291E-003;-8.629435906186700E-004;
2.426333333333334E+009;1.697982549667358E-001;-1.027949377894402E-001;-1.805401756428182E-003;-8.442877442575991E-004;
2.426500000000000E+009;1.705187112092972E-001;-1.031392365694046E-001;-2.014367142692208E-003;-6.297549698501825E-004;
2.426666666666667E+009;1.709072142839432E-001;-1.033960357308388E-001;-2.089479705318809E-003;-4.784117336384952E-004;
2.426833333333334E+009;1.714877039194107E-001;-1.038369312882423E-001;-2.243846654891968E-003;-4.255499516148120E-004;
2.427000000000000E+009;1.717893779277802E-001;-1.039675995707512E-001;-2.300182357430458E-003;-2.010795869864523E-004;
2.427166666666667E+009;1.719879806041718E-001;-1.041136831045151E-001;-2.338286023586988E-003;-2.269702963531017E-004;
2.427333333333334E+009;1.722474396228790E-001;-1.042424365878105E-001;-2.346911700442433E-003;1.103885279007955E-005;
2.427500000000000E+009;1.721374243497849E-001;-1.042843461036682E-001;-2.437620423734188E-003;-5.767678885604255E-005;
2.427666666666667E+009;1.720737367868424E-001;-1.042591705918312E-001;-2.316413214430213E-003;2.431563916616142E-004;
