# Version 1.00
#
freq[Hz];re:Trc1_S11;im:Trc1_S11;re:Trc2_S21;im:Trc2_S21;
2.400000000000000E+009;1.680070608854294E-001;4.100356251001358E-002;1.139951054938138E-003;-8.291568956337869E-004;
2.400166666666667E+009;1.684412211179733E-001;4.040258377790451E-002;1.067492878064513E-003;-6.625785608775914E-004;
2.400333333333334E+009;1.689004004001617E-001;3.915842995047569E-002;1.330591388978064E-003;-5.501878913491964E-004;
2.400500000000000E+009;1.694284975528717E-001;3.830865770578384E-002;1.287789200432599E-003;-4.922624211758375E-004;
2.400666666666667E+009;1.697402000427246E-001;3.753187879920006E-002;1.441409927792847E-003;-6.193843437358737E-004;
2.400833333333334E+009;1.701867133378983E-001;3.676628321409226E-002;1.565409707836807E-003;-6.087587680667639E-004;
2.401000000000000E+009;1.703755557537079E-001;3.584545478224754E-002;1.586412312462926E-003;-6.711648893542588E-004;
2.401166666666667E+009;1.706497222185135E-001;3.477353975176811E-002;1.823124242946506E-003;-5.955010419711471E-004;
2.401333333333334E+009;1.708806157112122E-001;3.387759253382683E-002;1.784320804290474E-003;-7.153978222049773E-004;
2.401500000000000E+009;1.711693257093430E-001;3.320409357547760E-002;2.016375772655010E-003;-6.355613004416227E-004;
2.401666666666667E+009;1.712811440229416E-001;3.225219622254372E-002;1.922190305776894E-003;-8.238123264163733E-004;
2.401833333333334E+009;1.714056134223938E-001;3.139159083366394E-002;2.190777799114585E-003;-9.050235967151821E-004;
2.402000000000000E+009;1.712289750576019E-001;3.044705279171467E-002;2.185367513448000E-003;-9.867780609056354E-004;
2.402166666666667E+009;1.715648174285889E-001;2.932732366025448E-002;2.250557066872716E-003;-1.042738440446556E-003;
2.402333333333334E+009;1.713641881942749E-001;2.835399657487869E-002;2.543127397075295E-003;-1.183910295367241E-003;
2.402500000000000E+009;1.714745908975601E-001;2.766180410981178E-002;2.555883256718516E-003;-1.383045455440879E-003;
2.402666666666667E+009;1.714665740728378E-001;2.657010965049267E-002;2.422489691525698E-003;-1.551029970869422E-003;
2.402833333333334E+009;1.713622063398361E-001;2.547476626932621E-002;2.546940697357059E-003;-1.653413753956556E-003;
2.403000000000000E+009;1.713949441909790E-001;2.457514777779579E-002;2.728425199165940E-003;-1.927440636791289E-003;
2.403166666666667E+009;1.713182777166367E-001;2.342646755278111E-002;2.684799255803227E-003;-2.101964550092816E-003;
2.403333333333334E+009;1.712055057287216E-001;2.218481339514256E-002;2.535661682486534E-003;-2.282005036249757E-003;
2.403500000000000E+009;1.709849685430527E-001;2.093901112675667E-002;2.543390961363912E-003;-2.392063615843654E-003;
2.403666666666667E+009;1.709547191858292E-001;1.987759582698345E-002;2.472429070621729E-003;-2.476391848176718E-003;
2.403833333333334E+009;1.708840131759644E-001;1.867707632482052E-002;2.389683155342937E-003;-2.770046936348081E-003;
2.404000000000000E+009;1.707282811403275E-001;1.727433688938618E-002;2.196545479819179E-003;-2.882800996303558E-003;
2.404166666666667E+009;1.707887649536133E-001;1.597800478339195E-002;2.193448133766651E-003;-3.060199087485671E-003;
2.404333333333334E+009;1.705097109079361E-001;1.464317087084055E-002;2.039761049672961E-003;-3.064537420868874E-003;
2.404500000000000E+009;1.702969819307327E-001;1.321226917207241E-002;1.874547335319221E-003;-3.329799510538578E-003;
2.404666666666667E+009;1.704195588827133E-001;1.190418284386396E-002;2.076367149129510E-003;-3.445025999099016E-003;
2.404833333333334E+009;1.703345477581024E-001;1.052395068109036E-002;1.785770873539150E-003;-3.447054186835885E-003;
2.405000000000000E+009;1.704416126012802E-001;9.074860252439976E-003;1.520847668871284E-003;-3.850366920232773E-003;
2.405166666666667E+009;1.702851951122284E-001;7.548224646598101E-003;1.541905337944627E-003;-3.837408963590860E-003;
2.405333333333334E+009;1.703811585903168E-001;5.865281447768211E-003;1.380316913127899E-003;-4.034305457025766E-003;
2.405500000000000E+009;1.702343970537186E-001;4.490706138312817E-003;1.118327723816037E-003;-4.256896208971739E-003;
2.405666666666667E+009;1.702761054039002E-001;2.798854606226087E-003;1.082974486052990E-003;-4.003357142210007E-003;
2.405833333333334E+009;1.700061112642288E-001;1.437288476154208E-003;8.532470674254000E-004;-4.297178704291582E-003;
2.406000000000000E+009;1.702132225036621E-001;-4.193282802589238E-004;6.309239543043077E-004;-4.445094615221024E-003;
2.406166666666667E+009;1.698100566864014E-001;-1.900074537843466E-003;3.416607214603573E-004;-4.492482636123896E-003;
2.406333333333334E+009;1.698854565620422E-001;-3.388212760910392E-003;2.286336530232802E-004;-4.520480521023274E-003;
2.406500000000000E+009;1.697280853986740E-001;-5.050549749284983E-003;-5.314081499818713E-005;-4.463285207748413E-003;
2.406666666666667E+009;1.695446372032166E-001;-6.524409633129835E-003;-2.413507900200784E-004;-4.568042699247599E-003;
2.406833333333334E+009;1.694626063108444E-001;-8.089100942015648E-003;-3.713035548571497E-004;-4.386525601148605E-003;
2.407000000000000E+009;1.693831384181976E-001;-9.501463733613491E-003;-6.538821617141366E-004;-4.526821430772543E-003;
2.407166666666667E+009;1.693517863750458E-001;-1.087467558681965E-002;-8.803688106127083E-004;-4.384590778499842E-003;
2.407333333333334E+009;1.690237820148468E-001;-1.224307995289564E-002;-1.099966699257493E-003;-4.366319626569748E-003;
2.407500000000000E+009;1.688563227653503E-001;-1.348225399851799E-002;-1.359754474833608E-003;-4.247851669788361E-003;
2.407666666666667E+009;1.687625944614410E-001;-1.472506206482649E-002;-1.653381972573698E-003;-4.187168553471565E-003;
2.407833333333334E+009;1.683956831693649E-001;-1.600353606045246E-002;-1.858481322415173E-003;-4.141904879361391E-003;
2.408000000000000E+009;1.683014780282974E-001;-1.708761043846607E-002;-2.013497753068805E-003;-3.804895328357816E-003;
2.408166666666667E+009;1.681085973978043E-001;-1.788342744112015E-002;-2.145812148228288E-003;-3.656236454844475E-003;
2.408333333333334E+009;1.684729456901550E-001;-1.887084543704987E-002;-2.338065998628736E-003;-3.489943686872721E-003;
2.408500000000000E+009;1.682564318180084E-001;-1.977602951228619E-002;-2.311442280188203E-003;-3.308794461190701E-003;
2.408666666666667E+009;1.682256907224655E-001;-2.073151618242264E-002;-2.487866207957268E-003;-3.297301940619946E-003;
2.408833333333334E+009;1.683142483234406E-001;-2.165434695780277E-002;-2.630908973515034E-003;-2.924181288108230E-003;
2.409000000000000E+009;1.683015972375870E-001;-2.243692427873612E-002;-2.587407827377319E-003;-2.703854814171791E-003;
2.409166666666667E+009;1.684872210025787E-001;-2.325109392404556E-002;-2.635976299643517E-003;-2.661312930285931E-003;
2.409333333333334E+009;1.687035709619522E-001;-2.407795190811157E-002;-2.543281065300107E-003;-2.648265333846211E-003;
2.409500000000000E+009;1.689570695161820E-001;-2.510633692145348E-002;-2.664660802111030E-003;-2.241796348243952E-003;
2.409666666666667E+009;1.689300090074539E-001;-2.600537240505219E-002;-2.447156934067607E-003;-2.176540903747082E-003;
2.409833333333334E+009;1.690590381622315E-001;-2.690699696540833E-002;-2.460862277075648E-003;-2.202662173658609E-003;
2.410000000000000E+009;1.692893952131271E-001;-2.769465930759907E-002;-2.413977170363069E-003;-2.021966269239783E-003;
2.410166666666667E+009;1.692929863929749E-001;-2.868289500474930E-002;-2.493274863809347E-003;-1.933826366439462E-003;
2.410333333333334E+009;1.692489981651306E-001;-2.957789413630962E-002;-2.395393792539835E-003;-2.053978154435754E-003;
2.410500000000000E+009;1.691110581159592E-001;-3.050995804369450E-002;-2.222522394731641E-003;-2.095164265483618E-003;
2.410666666666667E+009;1.690295934677124E-001;-3.152160346508026E-002;-2.310974989086390E-003;-1.961045432835817E-003;
2.410833333333334E+009;1.689197868108749E-001;-3.241065517067909E-002;-2.331510651856661E-003;-1.780865364708006E-003;
2.411000000000000E+009;1.687837541103363E-001;-3.333595767617226E-002;-2.401483478024602E-003;-1.820005360059440E-003;
2.411166666666667E+009;1.687031239271164E-001;-3.413710743188858E-002;-2.346059074625373E-003;-1.975123072043061E-003;
2.411333333333334E+009;1.684108674526215E-001;-3.514101356267929E-002;-2.428768901154399E-003;-1.885458012111485E-003;
2.411500000000000E+009;1.679858118295670E-001;-3.600908815860748E-002;-2.440573414787650E-003;-1.766251400113106E-003;
2.411666666666667E+009;1.681209951639175E-001;-3.685307502746582E-002;-2.538080094382167E-003;-2.010904252529144E-003;
2.411833333333334E+009;1.676173359155655E-001;-3.780565410852432E-002;-2.456570044159889E-003;-1.821319106966257E-003;
2.412000000000000E+009;1.674089729785919E-001;-3.871519118547440E-002;-2.563287736847997E-003;-1.950730453245342E-003;
2.412166666666667E+009;1.670626550912857E-001;-3.957094624638557E-002;-2.573490608483553E-003;-1.824814477004111E-003;
2.412333333333334E+009;1.669693291187286E-001;-4.053509607911110E-002;-2.688561799004674E-003;-1.869254629127681E-003;
2.412500000000000E+009;1.665459424257278E-001;-4.142853245139122E-002;-2.925621578469873E-003;-1.872216002084315E-003;
2.412666666666667E+009;1.661309152841568E-001;-4.266835004091263E-002;-3.154525300487876E-003;-1.918582245707512E-003;
2.412833333333334E+009;1.659249961376190E-001;-4.347821697592735E-002;-2.927020657807589E-003;-1.711000339128077E-003;
2.413000000000000E+009;1.653364598751068E-001;-4.469802230596542E-002;-3.276961622759700E-003;-1.681164489127696E-003;
2.413166666666667E+009;1.647456288337708E-001;-4.554107040166855E-002;-3.362386021763086E-003;-1.740931649692357E-003;
2.413333333333334E+009;1.643664389848709E-001;-4.645955935120583E-002;-3.499877173453569E-003;-1.594513421878219E-003;
2.413500000000000E+009;1.640257984399796E-001;-4.765383154153824E-002;-3.755718003958464E-003;-1.614206470549107E-003;
2.413666666666667E+009;1.635089069604874E-001;-4.860669001936913E-002;-3.699356457218528E-003;-1.481752027757466E-003;
2.413833333333334E+009;1.630888134241104E-001;-4.953357204794884E-002;-4.143412224948406E-003;-1.137874787673354E-003;
2.414000000000000E+009;1.624764949083328E-001;-5.055962130427361E-002;-4.082342144101858E-003;-8.369895513169467E-004;
2.414166666666667E+009;1.622784435749054E-001;-5.151525884866715E-002;-4.144857637584209E-003;-7.412681588903070E-004;
2.414333333333334E+009;1.617482304573059E-001;-5.256903544068337E-002;-4.297121893614531E-003;-5.305506056174636E-004;
2.414500000000000E+009;1.616685241460800E-001;-5.340775847434998E-002;-4.101092927157879E-003;-3.101318434346467E-004;
2.414666666666667E+009;1.613290607929230E-001;-5.437871068716049E-002;-4.206615965813398E-003;1.371236885461258E-005;
2.414833333333334E+009;1.609433740377426E-001;-5.549987778067589E-002;-4.218757618218660E-003;2.457629307173193E-004;
2.415000000000000E+009;1.607871353626251E-001;-5.633652955293655E-002;-4.057852085679770E-003;4.402426711749286E-004;
2.415166666666667E+009;1.606077551841736E-001;-5.750361457467079E-002;-3.911862615495920E-003;5.104379379190505E-004;
2.415333333333334E+009;1.605867445468903E-001;-5.863220989704132E-002;-4.047670401632786E-003;8.364273235201836E-004;
2.415500000000000E+009;1.603990644216538E-001;-5.978878587484360E-002;-3.693177131935954E-003;8.816830231808126E-004;
2.415666666666667E+009;1.602795273065567E-001;-6.093949079513550E-002;-3.792036091908813E-003;9.201862849295139E-004;
2.415833333333334E+009;1.600864976644516E-001;-6.224321573972702E-002;-3.603998804464936E-003;1.047235215082765E-003;
2.416000000000000E+009;1.598560214042664E-001;-6.338854879140854E-002;-3.499721875414252E-003;1.014884561300278E-003;
2.416166666666667E+009;1.598211824893951E-001;-6.461130082607269E-002;-3.478648839518428E-003;1.144450972788036E-003;
2.416333333333334E+009;1.594286710023880E-001;-6.569669395685196E-002;-3.328380640596151E-003;1.053001149557531E-003;
2.416500000000000E+009;1.592373996973038E-001;-6.703033298254013E-002;-3.388140117749572E-003;1.204163418151438E-003;
2.416666666666667E+009;1.588670760393143E-001;-6.811495125293732E-002;-3.324151970446110E-003;1.523615326732397E-003;
2.416833333333334E+009;1.586830168962479E-001;-6.943954527378082E-002;-3.414420643821359E-003;1.662087161093950E-003;
2.417000000000000E+009;1.582004725933075E-001;-7.044836133718491E-002;-3.357622073963285E-003;1.774065545760095E-003;
2.417166666666667E+009;1.578505486249924E-001;-7.144334912300110E-002;-3.246356733143330E-003;1.804483355954289E-003;
2.417333333333334E+009;1.575290411710739E-001;-7.230904698371887E-002;-3.317461814731360E-003;2.009605988860130E-003;
2.417500000000000E+009;1.571674793958664E-001;-7.347422093153000E-002;-3.027077298611403E-003;2.329043578356504E-003;
2.417666666666667E+009;1.569704711437225E-001;-7.425373047590256E-002;-2.830502577126026E-003;2.481926232576370E-003;
2.417833333333334E+009;1.566431224346161E-001;-7.513193786144257E-002;-2.677157986909151E-003;2.540606074035168E-003;
2.418000000000000E+009;1.563188135623932E-001;-7.608070969581604E-002;-2.393044531345367E-003;2.724758582189679E-003;
2.418166666666667E+009;1.559940576553345E-001;-7.673280686140060E-002;-2.196216722950339E-003;2.770537044852972E-003;
2.418333333333334E+009;1.560300141572952E-001;-7.753040641546249E-002;-1.684461603872478E-003;2.673907903954387E-003;
2.418500000000000E+009;1.556448787450790E-001;-7.831528037786484E-002;-1.598255243152380E-003;2.811472630128264E-003;
2.418666666666667E+009;1.554296761751175E-001;-7.914978265762329E-002;-1.276355120353401E-003;2.528878627344966E-003;
2.418833333333334E+009;1.550723910331726E-001;-7.999584078788757E-002;-1.100193359889090E-003;2.401197329163551E-003;
2.419000000000000E+009;1.546804308891296E-001;-8.062839508056641E-002;-1.143815228715539E-003;2.227447228506208E-003;
2.419166666666667E+009;1.544155031442642E-001;-8.119551837444305E-002;-1.041271141730249E-003;2.097533084452152E-003;
2.419333333333334E+009;1.539771854877472E-001;-8.171820640563965E-002;-8.988191839307547E-004;1.782673527486622E-003;
2.419500000000000E+009;1.536387801170349E-001;-8.263184875249863E-002;-9.390383493155241E-004;1.793301082216203E-003;
2.419666666666667E+009;1.534569114446640E-001;-8.332870900630951E-002;-9.294908377341926E-004;1.640194910578430E-003;
2.419833333333334E+009;1.529716998338699E-001;-8.368220925331116E-002;-9.985945653170347E-004;1.481520128436387E-003;
2.420000000000000E+009;1.526706963777542E-001;-8.435191214084625E-002;-1.045146607793868E-003;1.349618425592780E-003;
2.420166666666667E+009;1.520945876836777E-001;-8.498887717723846E-002;-1.024683355353773E-003;1.406245981343091E-003;
2.420333333333334E+009;1.518780291080475E-001;-8.558869361877441E-002;-1.161388470791280E-003;1.232428476214409E-003;
2.420500000000000E+009;1.515816003084183E-001;-8.608780056238174E-002;-1.303329947404563E-003;1.226088497787714E-003;
2.420666666666667E+009;1.511495560407639E-001;-8.644475787878037E-002;-1.446530688554049E-003;1.228800276294351E-003;
2.420833333333334E+009;1.508392393589020E-001;-8.725707978010178E-002;-1.492258859798312E-003;1.207114430144429E-003;
2.421000000000000E+009;1.503316015005112E-001;-8.801412582397461E-002;-1.607113401405513E-003;1.280381809920073E-003;
2.421166666666667E+009;1.500059515237808E-001;-8.861991763114929E-002;-1.657266053371131E-003;1.323785167187452E-003;
2.421333333333334E+009;1.495094150304794E-001;-8.937949687242508E-002;-1.790968119166791E-003;1.481955870985985E-003;
2.421500000000000E+009;1.488644182682037E-001;-9.000925719738007E-002;-1.778357313014567E-003;1.388085423968732E-003;
2.421666666666667E+009;1.483705490827560E-001;-9.074907749891281E-002;-1.854762900620699E-003;1.550959423184395E-003;
2.421833333333334E+009;1.479106098413467E-001;-9.141130745410919E-002;-1.895661116577685E-003;1.577024231664836E-003;
2.422000000000000E+009;1.471995115280151E-001;-9.209587424993515E-002;-1.991557655856013E-003;1.644908101297915E-003;
2.422166666666667E+009;1.466248780488968E-001;-9.300938993692398E-002;-1.892812084406614E-003;1.951797632500529E-003;
2.422333333333334E+009;1.458933800458908E-001;-9.358008950948715E-002;-2.000454813241959E-003;1.932104118168354E-003;
2.422500000000000E+009;1.452876925468445E-001;-9.432891011238098E-002;-1.887710299342871E-003;2.106207888573408E-003;
2.422666666666667E+009;1.445524096488953E-001;-9.518703073263168E-002;-1.787906163372099E-003;2.195906126871705E-003;
2.422833333333334E+009;1.440852284431458E-001;-9.608058631420136E-002;-1.880381489172578E-003;2.259604167193174E-003;
2.423000000000000E+009;1.433311551809311E-001;-9.697591513395309E-002;-1.708377618342638E-003;2.466880250722170E-003;
2.423166666666667E+009;1.427443474531174E-001;-9.786264598369598E-002;-1.635895110666752E-003;2.372913993895054E-003;
2.423333333333334E+009;1.421984136104584E-001;-9.864355623722076E-002;-1.579624717123807E-003;2.453115535899997E-003;
2.423500000000000E+009;1.415206640958786E-001;-9.966880083084106E-002;-1.696884282864630E-003;2.565445145592094E-003;
2.423666666666667E+009;1.407096832990646E-001;-1.006654351949692E-001;-1.546783489175141E-003;2.502916147932410E-003;
2.423833333333334E+009;1.401571780443192E-001;-1.015334427356720E-001;-1.508056651800871E-003;2.612008946016431E-003;
2.424000000000000E+009;1.395026743412018E-001;-1.023343652486801E-001;-1.558517687954009E-003;2.539750188589096E-003;
2.424166666666667E+009;1.387502253055573E-001;-1.035195365548134E-001;-1.786875538527966E-003;2.683619037270546E-003;
2.424333333333334E+009;1.381955891847611E-001;-1.042128950357437E-001;-1.537733711302280E-003;2.755504101514816E-003;
2.424500000000000E+009;1.376425176858902E-001;-1.052321121096611E-001;-1.703434041701257E-003;2.909843577072024E-003;
2.424666666666667E+009;1.371627300977707E-001;-1.060317009687424E-001;-1.821859623305500E-003;3.031049855053425E-003;
2.424833333333334E+009;1.365283280611038E-001;-1.070831641554833E-001;-1.551300520077348E-003;3.114436054602265E-003;
2.425000000000000E+009;1.360474526882172E-001;-1.080438792705536E-001;-1.701552188023925E-003;3.431786550208926E-003;
2.425166666666667E+009;1.353736072778702E-001;-1.090657338500023E-001;-1.428108429536223E-003;3.691011108458042E-003;
2.425333333333334E+009;1.348256617784500E-001;-1.100110411643982E-001;-1.422866247594357E-003;3.721607849001885E-003;
2.425500000000000E+009;1.346110254526138E-001;-1.110770702362061E-001;-1.056215376593173E-003;4.002792760729790E-003;
2.425666666666667E+009;1.338710933923721E-001;-1.121284514665604E-001;-8.393942262046039E-004;4.217272624373436E-003;
2.425833333333334E+009;1.333814710378647E-001;-1.129978820681572E-001;-8.266789373010397E-004;4.328289534896612E-003;
2.426000000000000E+009;1.329881846904755E-001;-1.141102984547615E-001;-5.245303618721664E-004;4.282682202756405E-003;
2.426166666666667E+009;1.327683478593826E-001;-1.149903088808060E-001;-2.815889311023057E-004;4.526030272245407E-003;
2.426333333333334E+009;1.321836709976196E-001;-1.159382387995720E-001;7.443411959684454E-006;4.535870160907507E-003;
2.426500000000000E+009;1.318177133798599E-001;-1.167664229869843E-001;2.017968945438042E-004;4.541733302175999E-003;
2.426666666666667E+009;1.314817965030670E-001;-1.175759807229042E-001;5.276986630633473E-004;4.574917722493410E-003;
2.426833333333334E+009;1.311050504446030E-001;-1.185294017195702E-001;7.196200895123184E-004;4.771522711962462E-003;
2.427000000000000E+009;1.307116299867630E-001;-1.192624419927597E-001;9.689356666058302E-004;4.541039932519198E-003;
2.427166666666667E+009;1.303063929080963E-001;-1.199890524148941E-001;1.493650721386075E-003;4.484815988689661E-003;
2.427333333333334E+009;1.299374550580978E-001;-1.208444908261299E-001;1.574000692926347E-003;4.400801379233599E-003;
2.427500000000000E+009;1.298070698976517E-001;-1.214937642216682E-001;1.967038260772824E-003;4.266162402927876E-003;
2.427666666666667E+009;1.293232440948486E-001;-1.222338676452637E-001;2.171523403376341E-003;4.090369213372469E-003;
