# Version 1.00
#
freq[Hz];re:Trc1_S11;im:Trc1_S11;re:Trc2_S21;im:Trc2_S21;
2.400000000000000E+009;1.678863316774368E-001;4.105048254132271E-002;1.052221865393221E-003;-6.973439012654126E-004;
2.400166666666667E+009;1.685173660516739E-001;4.039743542671204E-002;1.194800133816898E-003;-6.503210170194507E-004;
2.400333333333334E+009;1.689264029264450E-001;3.941397368907929E-002;1.120344386436045E-003;-6.432019290514290E-004;
2.400500000000000E+009;1.694731414318085E-001;3.832657635211945E-002;1.362734008580446E-003;-6.740661337971687E-004;
2.400666666666667E+009;1.698171645402908E-001;3.748152777552605E-002;1.419719075784087E-003;-6.994626601226628E-004;
2.400833333333334E+009;1.702907830476761E-001;3.666871786117554E-002;1.573270070366561E-003;-5.733297439292073E-004;
2.401000000000000E+009;1.703718900680542E-001;3.583437576889992E-002;1.609115744940937E-003;-6.283636903390288E-004;
2.401166666666667E+009;1.708634197711945E-001;3.488212078809738E-002;1.879929099231958E-003;-6.417903350666165E-004;
2.401333333333334E+009;1.708363741636276E-001;3.386080637574196E-002;1.824586535803974E-003;-7.417824235744774E-004;
2.401500000000000E+009;1.711365133523941E-001;3.298528119921684E-002;2.037021564319730E-003;-5.483917775563896E-004;
2.401666666666667E+009;1.713608056306839E-001;3.226066380739212E-002;1.910754828713834E-003;-8.097061654552817E-004;
2.401833333333334E+009;1.714457571506500E-001;3.120151907205582E-002;2.108126413077116E-003;-8.063554996624589E-004;
2.402000000000000E+009;1.712102890014648E-001;3.035268373787403E-002;2.226123120635748E-003;-9.460771689191461E-004;
2.402166666666667E+009;1.713353991508484E-001;2.926922217011452E-002;2.347487723454833E-003;-1.010045059956610E-003;
2.402333333333334E+009;1.713426113128662E-001;2.845363505184650E-002;2.623515436425805E-003;-1.113946898840368E-003;
2.402500000000000E+009;1.714874207973480E-001;2.752822637557983E-002;2.298987703397870E-003;-1.396752893924713E-003;
2.402666666666667E+009;1.712441593408585E-001;2.662329189479351E-002;2.620575716719031E-003;-1.415333594195545E-003;
2.402833333333334E+009;1.711388230323792E-001;2.547214739024639E-002;2.553373575210571E-003;-1.687210286036134E-003;
2.403000000000000E+009;1.713226288557053E-001;2.454049512743950E-002;2.555182902142406E-003;-1.930473372340202E-003;
2.403166666666667E+009;1.711858063936234E-001;2.336660586297512E-002;2.526583150029182E-003;-2.063235500827432E-003;
2.403333333333334E+009;1.711801886558533E-001;2.219614200294018E-002;2.634354867041111E-003;-2.146367449313402E-003;
2.403500000000000E+009;1.709708422422409E-001;2.102677896618843E-002;2.595137571915984E-003;-2.481322735548019E-003;
2.403666666666667E+009;1.709371507167816E-001;1.967389695346355E-002;2.624622546136379E-003;-2.685615327209234E-003;
2.403833333333334E+009;1.708922088146210E-001;1.860756613314152E-002;2.404576167464256E-003;-2.751199528574944E-003;
2.404000000000000E+009;1.706062257289887E-001;1.729866862297058E-002;2.323748311027885E-003;-2.682278165593743E-003;
2.404166666666667E+009;1.703833490610123E-001;1.590838469564915E-002;2.281869528815150E-003;-3.016940783709288E-003;
2.404333333333334E+009;1.703957766294479E-001;1.471545733511448E-002;2.150585409253836E-003;-3.140214830636978E-003;
2.404500000000000E+009;1.702725589275360E-001;1.334258448332548E-002;2.119205892086029E-003;-3.182590473443270E-003;
2.404666666666667E+009;1.703077256679535E-001;1.185203436762095E-002;1.946374541148543E-003;-3.343707881867886E-003;
2.404833333333334E+009;1.702300608158112E-001;1.052652020007372E-002;1.799300778657198E-003;-3.466275054961443E-003;
2.405000000000000E+009;1.702437698841095E-001;9.013547562062740E-003;1.739765400998294E-003;-3.695862367749214E-003;
2.405166666666667E+009;1.702602803707123E-001;7.618370931595564E-003;1.445162808522582E-003;-3.778307931497693E-003;
2.405333333333334E+009;1.702347248792648E-001;5.851692520081997E-003;1.512024435214698E-003;-3.938035108149052E-003;
2.405500000000000E+009;1.701872497797012E-001;4.497653804719448E-003;1.341259339824319E-003;-4.083337262272835E-003;
2.405666666666667E+009;1.701963841915131E-001;2.740460680797696E-003;1.211113412864506E-003;-4.167452920228243E-003;
2.405833333333334E+009;1.700569689273834E-001;1.425969297997654E-003;9.358363458886743E-004;-4.206203389912844E-003;
2.406000000000000E+009;1.700658500194550E-001;-3.080364258494228E-004;7.638565730303526E-004;-4.247744567692280E-003;
2.406166666666667E+009;1.698910146951675E-001;-1.848345971666277E-003;4.767507489304990E-004;-4.443497397005558E-003;
2.406333333333334E+009;1.699658632278442E-001;-3.383352188393474E-003;2.079819969367236E-004;-4.353847354650497E-003;
2.406500000000000E+009;1.698333770036697E-001;-5.083725787699223E-003;-4.059764614794403E-005;-4.463472869247198E-003;
2.406666666666667E+009;1.695290058851242E-001;-6.515100598335266E-003;-2.347875415580347E-004;-4.353146068751812E-003;
2.406833333333334E+009;1.693970561027527E-001;-8.032831363379955E-003;-4.760559531860054E-004;-4.470553249120712E-003;
2.407000000000000E+009;1.694959402084351E-001;-9.528259746730328E-003;-6.933513795956969E-004;-4.405464977025986E-003;
2.407166666666667E+009;1.693175137042999E-001;-1.087287161499262E-002;-7.340775337070227E-004;-4.345051478594542E-003;
2.407333333333334E+009;1.690409779548645E-001;-1.234972663223743E-002;-9.921706514433026E-004;-4.379620775580406E-003;
2.407500000000000E+009;1.687832921743393E-001;-1.354772690683603E-002;-1.355260261334479E-003;-4.157098475843668E-003;
2.407666666666667E+009;1.687013208866119E-001;-1.472915895283222E-002;-1.410596305504441E-003;-4.175017122179270E-003;
2.407833333333334E+009;1.685617268085480E-001;-1.594901271164417E-002;-1.720305182971060E-003;-4.123167134821415E-003;
2.408000000000000E+009;1.683509647846222E-001;-1.716405898332596E-002;-1.963434740900993E-003;-3.878104733303189E-003;
2.408166666666667E+009;1.682071238756180E-001;-1.809945516288281E-002;-2.108334330841899E-003;-3.655945183709264E-003;
2.408333333333334E+009;1.683356016874313E-001;-1.895726658403873E-002;-2.296051476150751E-003;-3.578075440600514E-003;
2.408500000000000E+009;1.682476401329041E-001;-1.999305933713913E-002;-2.401775680482388E-003;-3.279054537415505E-003;
2.408666666666667E+009;1.682708561420441E-001;-2.087863348424435E-002;-2.435364760458469E-003;-3.153654048219323E-003;
2.408833333333334E+009;1.683960407972336E-001;-2.175801061093807E-002;-2.564735244959593E-003;-3.037531860172749E-003;
2.409000000000000E+009;1.683551073074341E-001;-2.256439067423344E-002;-2.586071379482746E-003;-2.790592145174742E-003;
2.409166666666667E+009;1.684917658567429E-001;-2.348873764276505E-002;-2.586155664175749E-003;-2.531803445890546E-003;
2.409333333333334E+009;1.686957627534866E-001;-2.429642900824547E-002;-2.537050051614642E-003;-2.308262279257178E-003;
2.409500000000000E+009;1.686308532953262E-001;-2.531005814671516E-002;-2.492005005478859E-003;-2.260005334392190E-003;
2.409666666666667E+009;1.689403504133225E-001;-2.625829726457596E-002;-2.559839747846127E-003;-2.275526989251375E-003;
2.409833333333334E+009;1.689432263374329E-001;-2.701422013342381E-002;-2.319227205589414E-003;-2.108482411131263E-003;
2.410000000000000E+009;1.691261678934097E-001;-2.783931419253349E-002;-2.405339386314154E-003;-2.099817385897040E-003;
2.410166666666667E+009;1.691274195909500E-001;-2.879517711699009E-002;-2.420879201963544E-003;-2.100366866216064E-003;
2.410333333333334E+009;1.690825521945953E-001;-2.963126637041569E-002;-2.269468037411571E-003;-1.977436244487763E-003;
2.410500000000000E+009;1.691910326480866E-001;-3.065437078475952E-002;-2.248886972665787E-003;-1.918034628033638E-003;
2.410666666666667E+009;1.687912046909332E-001;-3.161237016320229E-002;-2.367049688473344E-003;-1.870328327640891E-003;
2.410833333333334E+009;1.688782572746277E-001;-3.255362063646317E-002;-2.239781664684415E-003;-1.847303006798029E-003;
2.411000000000000E+009;1.685578972101212E-001;-3.329803422093391E-002;-2.363310661166906E-003;-2.037377329543233E-003;
2.411166666666667E+009;1.685272008180618E-001;-3.418739885091782E-002;-2.353948075324297E-003;-1.830006018280983E-003;
2.411333333333334E+009;1.682678759098053E-001;-3.514674678444862E-002;-2.318931277841330E-003;-1.979064662009478E-003;
2.411500000000000E+009;1.680248528718948E-001;-3.624074533581734E-002;-2.449306892231107E-003;-1.813574461266398E-003;
2.411666666666667E+009;1.679374873638153E-001;-3.701802715659142E-002;-2.482973271980882E-003;-1.866338076069951E-003;
2.411833333333334E+009;1.676707714796066E-001;-3.774540126323700E-002;-2.433531684800983E-003;-1.834915135987103E-003;
2.412000000000000E+009;1.675023436546326E-001;-3.875982016324997E-002;-2.456332091242075E-003;-1.839326927438378E-003;
2.412166666666667E+009;1.671217828989029E-001;-3.981413319706917E-002;-2.636121585965157E-003;-1.837856485508382E-003;
2.412333333333334E+009;1.669735908508301E-001;-4.061492532491684E-002;-2.767669968307018E-003;-1.880674506537616E-003;
2.412500000000000E+009;1.665394455194473E-001;-4.153106734156609E-002;-2.902352949604392E-003;-1.848930725827813E-003;
2.412666666666667E+009;1.660633534193039E-001;-4.273420572280884E-002;-2.950474619865418E-003;-1.844345591962338E-003;
2.412833333333334E+009;1.657247543334961E-001;-4.368343576788902E-002;-2.949450863525271E-003;-1.741467043757439E-003;
2.413000000000000E+009;1.652706563472748E-001;-4.456891492009163E-002;-3.030947875231504E-003;-1.892523607239127E-003;
2.413166666666667E+009;1.648207753896713E-001;-4.549061134457588E-002;-3.195447381585836E-003;-1.832349924370647E-003;
2.413333333333334E+009;1.644606590270996E-001;-4.657882079482079E-002;-3.507524961605668E-003;-1.701788394711912E-003;
2.413500000000000E+009;1.638159304857254E-001;-4.752198979258537E-002;-3.687015501782298E-003;-1.495921402238309E-003;
2.413666666666667E+009;1.634852588176727E-001;-4.862511903047562E-002;-3.772764466702938E-003;-1.384533476084471E-003;
2.413833333333334E+009;1.630536317825317E-001;-4.961019381880760E-002;-3.948146477341652E-003;-1.195381279103458E-003;
2.414000000000000E+009;1.624557375907898E-001;-5.065080896019936E-002;-3.999047912657261E-003;-1.029883278533816E-003;
2.414166666666667E+009;1.622271686792374E-001;-5.137309432029724E-002;-4.118048120290041E-003;-9.127394878305495E-004;
2.414333333333334E+009;1.619172096252441E-001;-5.264881253242493E-002;-4.191452171653509E-003;-6.112294504418969E-004;
2.414500000000000E+009;1.617085039615631E-001;-5.346161127090454E-002;-4.140128381550312E-003;-1.640782720642164E-004;
2.414666666666667E+009;1.612774878740311E-001;-5.429273471236229E-002;-4.246919415891171E-003;-5.254576899460517E-005;
2.414833333333334E+009;1.610544770956039E-001;-5.547731369733810E-002;-4.054949153214693E-003;1.873624423751608E-004;
2.415000000000000E+009;1.609020233154297E-001;-5.637668818235397E-002;-4.150551743805409E-003;4.806773213203996E-004;
2.415166666666667E+009;1.605565696954727E-001;-5.737599730491638E-002;-3.826760919764638E-003;4.403334460221231E-004;
2.415333333333334E+009;1.606287956237793E-001;-5.871153250336647E-002;-3.826847532764077E-003;7.650948246009648E-004;
2.415500000000000E+009;1.604042798280716E-001;-5.978702008724213E-002;-3.755898913368583E-003;7.252654177136719E-004;
2.415666666666667E+009;1.602628380060196E-001;-6.085612252354622E-002;-3.656664863228798E-003;7.245321176014841E-004;
2.415833333333334E+009;1.601594984531403E-001;-6.207142770290375E-002;-3.506793640553951E-003;1.012225169688463E-003;
2.416000000000000E+009;1.598110347986221E-001;-6.346944719552994E-002;-3.518187208101153E-003;1.154179102741182E-003;
2.416166666666667E+009;1.596865057945252E-001;-6.463173031806946E-002;-3.573945257812738E-003;1.139403786510229E-003;
2.416333333333334E+009;1.595221459865570E-001;-6.578404456377029E-002;-3.567080944776535E-003;1.057554967701435E-003;
2.416500000000000E+009;1.591988205909729E-001;-6.704989820718765E-002;-3.561121178790927E-003;1.202194136567414E-003;
2.416666666666667E+009;1.588530987501144E-001;-6.823400408029556E-002;-3.252244321629405E-003;1.320928218774498E-003;
2.416833333333334E+009;1.586385965347290E-001;-6.947102397680283E-002;-3.532839938998222E-003;1.541697187349200E-003;
2.417000000000000E+009;1.581799685955048E-001;-7.056935131549835E-002;-3.467975417152047E-003;1.778127858415246E-003;
2.417166666666667E+009;1.577780991792679E-001;-7.147312909364700E-002;-3.311238018795848E-003;1.844348385930061E-003;
2.417333333333334E+009;1.575119793415070E-001;-7.246026396751404E-002;-3.251962363719940E-003;2.174890600144863E-003;
2.417500000000000E+009;1.570943444967270E-001;-7.353046536445618E-002;-2.954672090709209E-003;2.223673509433866E-003;
2.417666666666667E+009;1.569338291883469E-001;-7.434353232383728E-002;-2.771570347249508E-003;2.449866384267807E-003;
2.417833333333334E+009;1.565265655517578E-001;-7.508432865142822E-002;-2.563022309914231E-003;2.567163435742259E-003;
2.418000000000000E+009;1.562575548887253E-001;-7.619951665401459E-002;-2.377827884629369E-003;2.797239227220416E-003;
2.418166666666667E+009;1.558838635683060E-001;-7.670946419239044E-002;-2.168776234611869E-003;2.741399919614196E-003;
2.418333333333334E+009;1.558664888143539E-001;-7.758051902055740E-002;-1.873712986707687E-003;2.632894786074758E-003;
2.418500000000000E+009;1.554660350084305E-001;-7.833479344844818E-002;-1.574688358232379E-003;2.631141338497400E-003;
2.418666666666667E+009;1.553003787994385E-001;-7.920341193675995E-002;-1.373678678646684E-003;2.526286523789167E-003;
2.418833333333334E+009;1.548776924610138E-001;-7.992690056562424E-002;-1.118410262279213E-003;2.361964900046587E-003;
2.419000000000000E+009;1.546048223972321E-001;-8.062191307544708E-002;-9.787644958123565E-004;2.226608572527766E-003;
2.419166666666667E+009;1.541683375835419E-001;-8.130069077014923E-002;-7.849848479963839E-004;2.061474137008190E-003;
2.419333333333334E+009;1.537905931472778E-001;-8.162926137447357E-002;-9.121979237534106E-004;1.755649689584971E-003;
2.419500000000000E+009;1.534167975187302E-001;-8.262380957603455E-002;-9.597612661309540E-004;1.626531826332212E-003;
2.419666666666667E+009;1.533187180757523E-001;-8.321019262075424E-002;-9.314281633123756E-004;1.580814132466912E-003;
2.419833333333334E+009;1.527730971574783E-001;-8.372970670461655E-002;-1.026245998218656E-003;1.522313687019050E-003;
2.420000000000000E+009;1.526618599891663E-001;-8.427523821592331E-002;-1.030012848787010E-003;1.465217792429030E-003;
2.420166666666667E+009;1.521480232477188E-001;-8.493021130561829E-002;-1.125073060393333E-003;1.232417183928192E-003;
2.420333333333334E+009;1.519306153059006E-001;-8.545354753732681E-002;-1.227904227562249E-003;1.314385212026537E-003;
2.420500000000000E+009;1.515710204839706E-001;-8.595594763755798E-002;-1.347624114714563E-003;1.187111833132803E-003;
2.420666666666667E+009;1.510867029428482E-001;-8.646979928016663E-002;-1.342084142379463E-003;1.295563415624201E-003;
2.420833333333334E+009;1.507520675659180E-001;-8.731774240732193E-002;-1.532647060230374E-003;1.268517109565437E-003;
2.421000000000000E+009;1.503777354955673E-001;-8.790282160043716E-002;-1.588211045600474E-003;1.217924174852669E-003;
2.421166666666667E+009;1.499494612216950E-001;-8.846085518598557E-002;-1.737749436870217E-003;1.297538517974317E-003;
2.421333333333334E+009;1.494994163513184E-001;-8.924783766269684E-002;-1.617420231923461E-003;1.441976637579501E-003;
2.421500000000000E+009;1.488388478755951E-001;-8.993387222290039E-002;-1.836494891904295E-003;1.494319993071258E-003;
2.421666666666667E+009;1.482839137315750E-001;-9.059619158506393E-002;-1.889185397885740E-003;1.536378986202180E-003;
2.421833333333334E+009;1.478879004716873E-001;-9.126543998718262E-002;-1.946325879544020E-003;1.680016517639160E-003;
2.422000000000000E+009;1.472134590148926E-001;-9.209169447422028E-002;-1.900742179714143E-003;1.767473411746323E-003;
2.422166666666667E+009;1.465184688568115E-001;-9.306324273347855E-002;-1.821424695663154E-003;1.889891223981977E-003;
2.422333333333334E+009;1.460353881120682E-001;-9.359955787658691E-002;-1.942576374858618E-003;1.933527877554297E-003;
2.422500000000000E+009;1.453513056039810E-001;-9.431941807270050E-002;-1.730365795083344E-003;2.205700846388936E-003;
2.422666666666667E+009;1.446920633316040E-001;-9.522399306297302E-002;-1.761041930876672E-003;2.167115220800042E-003;
2.422833333333334E+009;1.440838128328323E-001;-9.620918333530426E-002;-1.772988704033196E-003;2.107177162542939E-003;
2.423000000000000E+009;1.434687823057175E-001;-9.693934023380280E-002;-1.656239619478583E-003;2.248020842671394E-003;
2.423166666666667E+009;1.429646760225296E-001;-9.780704230070114E-002;-1.724808244034648E-003;2.552201971411705E-003;
2.423333333333334E+009;1.423129439353943E-001;-9.859394282102585E-002;-1.617129775695503E-003;2.378148725256324E-003;
2.423500000000000E+009;1.415852755308151E-001;-9.972426295280457E-002;-1.637891633436084E-003;2.531757112592459E-003;
2.423666666666667E+009;1.405656188726425E-001;-1.007143110036850E-001;-1.533141708932817E-003;2.456213114783168E-003;
2.423833333333334E+009;1.403844058513641E-001;-1.015976592898369E-001;-1.522394013591111E-003;2.510693855583668E-003;
2.424000000000000E+009;1.393912285566330E-001;-1.025098636746407E-001;-1.604229328222573E-003;2.627486828714609E-003;
2.424166666666667E+009;1.386255025863648E-001;-1.035369634628296E-001;-1.703453832305968E-003;2.763044787570834E-003;
2.424333333333334E+009;1.382830590009689E-001;-1.044033020734787E-001;-1.578150549903512E-003;2.718737116083503E-003;
2.424500000000000E+009;1.376284509897232E-001;-1.053903326392174E-001;-1.635920838452876E-003;2.925268840044737E-003;
2.424666666666667E+009;1.370235234498978E-001;-1.061924621462822E-001;-1.662489259615541E-003;3.146944800391793E-003;
2.424833333333334E+009;1.363693922758102E-001;-1.072851195931435E-001;-1.730599091388285E-003;3.359209047630429E-003;
2.425000000000000E+009;1.358187198638916E-001;-1.083146706223488E-001;-1.547543564811349E-003;3.444730769842863E-003;
2.425166666666667E+009;1.351560801267624E-001;-1.091997921466827E-001;-1.548408064991236E-003;3.693745937198401E-003;
2.425333333333334E+009;1.348142772912979E-001;-1.100742518901825E-001;-1.395671861246228E-003;3.851363668218255E-003;
2.425500000000000E+009;1.343096792697907E-001;-1.111553087830544E-001;-1.079372363165021E-003;3.986003343015909E-003;
2.425666666666667E+009;1.337115019559860E-001;-1.120638251304627E-001;-8.917152299545705E-004;4.071719013154507E-003;
2.425833333333334E+009;1.332794278860092E-001;-1.130637675523758E-001;-7.050546701066196E-004;4.268263466656208E-003;
2.426000000000000E+009;1.328506618738174E-001;-1.140631288290024E-001;-5.695335566997528E-004;4.272143822163343E-003;
2.426166666666667E+009;1.326271146535873E-001;-1.150860860943794E-001;-2.255544968647882E-004;4.490285646170378E-003;
2.426333333333334E+009;1.321082711219788E-001;-1.160277873277664E-001;5.751359276473522E-005;4.546429496258497E-003;
2.426500000000000E+009;1.317221075296402E-001;-1.168566569685936E-001;3.012406523339450E-004;4.528628196567297E-003;
2.426666666666667E+009;1.315023750066757E-001;-1.176514327526093E-001;4.613094497472048E-004;4.532079678028822E-003;
2.426833333333334E+009;1.309101134538651E-001;-1.184840351343155E-001;7.929552812129259E-004;4.544446244835854E-003;
2.427000000000000E+009;1.305849552154541E-001;-1.194512248039246E-001;1.034809858538210E-003;4.739066120237112E-003;
2.427166666666667E+009;1.302801817655563E-001;-1.200104430317879E-001;1.238069497048855E-003;4.384414758533239E-003;
2.427333333333334E+009;1.299140602350235E-001;-1.208769679069519E-001;1.729275099933147E-003;4.460903815925121E-003;
2.427500000000000E+009;1.296481192111969E-001;-1.215838715434074E-001;2.021324122324586E-003;4.271614830940962E-003;
2.427666666666667E+009;1.292990595102310E-001;-1.222815290093422E-001;1.973056467249990E-003;4.065724555402994E-003;
