# Hz S RI R 
2400000000.0000000000 0.157774388790130587478799384371 0.111950494349002796501402201557 -0.001044934149831532998325966943 0.000448401639005169326632899152 0 0 0 0 
2400166666.6666665077 0.157229021191597012618856865629 0.109788149595260606239399692186 -0.000937271513976156711578369141 0.000467141304397955482632237567 0 0 0 0 
2400333333.3333334923 0.157012313604354886154013115629 0.107817314565181704422158759371 -0.000807408476248383522033691406 0.000508567492943257093429565430 0 0 0 0 
2400500000.0000000000 0.156570971012115506271200615629 0.105035655200481400917134067186 -0.000688719737809151411056518555 0.000602175889071077108383178711 0 0 0 0 
2400666666.6666665077 0.156246155500411987304687500000 0.102665156126022297233824076557 -0.000535090628545731306076049805 0.000681396224536001682281494141 0 0 0 0 
2400833333.3333334923 0.155742809176445007324218750000 0.099752075970172882080078125000 -0.000338605867000296711921691895 0.000597244128584861755371093750 0 0 0 0 
2401000000.0000000000 0.155667364597320612151776231258 0.096935234963893890380859375000 -0.000321839295793324708938598633 0.000274295336566865389973240985 0 0 0 0 
2401166666.6666665077 0.155406400561332702636718750000 0.094256505370140075683593750000 -0.000216575601371005204602918082 0.000343775493092835003703516827 0 0 0 0 
2401333333.3333334923 0.155373513698577908614950615629 0.091204538941383361816406250000 -0.000199391128262504908159533090 0.000121862838568631600267948289 0 0 0 0 
2401500000.0000000000 0.155546724796295193771200615629 0.088130861520767211914062500000 -0.000427194783696904778480529785 0.000133559529785998192712506705 0 0 0 0 
2401666666.6666665077 0.155466094613075311858807481258 0.085122816264629364013671875000 -0.000298664905130863189697265625 0.000044407439418137066740582125 0 0 0 0 
2401833333.3333334923 0.155731871724128695388955634371 0.082193128764629364013671875000 -0.000416501541621983105510157452 0.000095925875939428806304931641 0 0 0 0 
2402000000.0000000000 0.156125649809837313553018134371 0.079243697226047515869140625000 -0.000658872420899569988250732422 0.000162464290042407810688018799 0 0 0 0 
2402166666.6666665077 0.156620383262634305099325615629 0.076367907226085662841796875000 -0.000554452650249004364013671875 0.000298565311823040301173609601 0 0 0 0 
2402333333.3333334923 0.157285049557685907561932481258 0.073332294821739196777343750000 -0.000666379171889275312423706055 0.000294007244519889408915919171 0 0 0 0 
2402500000.0000000000 0.158317759633064297775106865629 0.070462040603160858154296875000 -0.000883135478943586349487304688 0.000310003611957654411166590558 0 0 0 0 
2402666666.6666665077 0.159068837761878995040731865629 0.067736588418483734130859375000 -0.000617609708569943904876708984 0.000529167708009481430053710938 0 0 0 0 
2402833333.3333334923 0.160347074270248413085937500000 0.064781725406646728515625000000 -0.000643899955321103334426879883 0.000863205932546406984329223633 0 0 0 0 
2403000000.0000000000 0.161624640226364107986611884371 0.062197282910346991802175153907 -0.000642989005427807569503784180 0.000804820389021188020706176758 0 0 0 0 
2403166666.6666665077 0.163212582468986511230468750000 0.059660702943801879882812500000 -0.000631438218988478183746337891 0.000853163830470293760299682617 0 0 0 0 
2403333333.3333334923 0.164499163627624511718750000000 0.056958291679620742797851562500 -0.000375623465515673214763087140 0.000883232394699007272720336914 0 0 0 0 
2403500000.0000000000 0.166233479976654108245526231258 0.054534614086151123046875000000 -0.000362105143722146803706568585 0.000961605634074658155441284180 0 0 0 0 
2403666666.6666665077 0.168201178312301607986611884371 0.052148550748825073242187500000 -0.000289521965896710807650965558 0.001131525030359626033185649341 0 0 0 0 
2403833333.3333334923 0.169872865080833407303018134371 0.049898251891136169433593750000 -0.000130503394757397499963483267 0.001046226592734456062316894531 0 0 0 0 
2404000000.0000000000 0.171420216560363797286825615629 0.047815084457397460937500000000 -0.000030362110919668339192867279 0.001061687245965003967285156250 0 0 0 0 
2404166666.6666665077 0.173051267862320001800213731258 0.045952923595905297016184221093 0.000270479737082496285438537598 0.001175595214590430042864155347 0 0 0 0 
2404333333.3333334923 0.174888506531715393066406250000 0.044082060456275939941406250000 0.000515951600391417741775512695 0.001125850714743136925938271631 0 0 0 0 
2404500000.0000000000 0.176809459924697903732138115629 0.042272266000509262084960937500 0.000476730405353009700775146484 0.001021794392727314992191933740 0 0 0 0 
2404666666.6666665077 0.178581684827804593185263115629 0.040879849344491958618164062500 0.000658350996673107147216796875 0.000919215497560799121856689453 0 0 0 0 
2404833333.3333334923 0.180519327521324213225994981258 0.039592012763023383403737653907 0.000708952313289046287536621094 0.000971514033153653144836425781 0 0 0 0 
2405000000.0000000000 0.182015255093574496170205634371 0.038569420576095581054687500000 0.000861332402564585208892822266 0.000833594531286507844924926758 0 0 0 0 
2405166666.6666665077 0.183862268924713107010049384371 0.037708774209022521972656250000 0.000863194058183580636978149414 0.000623072322923690080642700195 0 0 0 0 
2405333333.3333334923 0.185416415333747891525106865629 0.036927506327629089355468750000 0.000864907284267246723175048828 0.000664461171254515647888183594 0 0 0 0 
2405500000.0000000000 0.187184914946556091308593750000 0.036224450916051871562917341407 0.001042585819959640936610556494 0.000512870785314589738845825195 0 0 0 0 
2405666666.6666665077 0.188754856586456298828125000000 0.035764995962381362915039062500 0.001106993295252322933794331128 0.000330767768900841474533081055 0 0 0 0 
2405833333.3333334923 0.190367653965950012207031250000 0.035481702536344528198242187500 0.001077802269719541072845458984 0.000168022597790695699766436166 0 0 0 0 
2406000000.0000000000 0.191658258438110407073651231258 0.035256993025541312480886091407 0.000933424336835741996765136719 0.000146852165926247808054247446 0 0 0 0 
2406166666.6666665077 0.193079411983489990234375000000 0.034912128001451492309570312500 0.000891372503247112035751342773 -0.000096445037343073636293411255 0 0 0 0 
2406333333.3333334923 0.194289803504943903167401231258 0.035072684288024902343750000000 0.001033741980791091918945312500 -0.000025459525204496461560929946 0 0 0 0 
2406500000.0000000000 0.195377081632614107986611884371 0.035203561186790473247487653907 0.001055280445143580003025673975 -0.000119863230793271200217385564 0 0 0 0 
2406666666.6666665077 0.196339055895805386642294365629 0.035211097449064261699636091407 0.001077895401977003054377890479 -0.000188084974070079597547808237 0 0 0 0 
2406833333.3333334923 0.197279006242752102950888115629 0.035421270877122879028320312500 0.000878482591360807418823242188 -0.000268840609351172989040928973 0 0 0 0 
2407000000.0000000000 0.197790473699569702148437500000 0.035818144679069519042968750000 0.000962550751864910125732421875 -0.000330640119500458186298924579 0 0 0 0 
2407166666.6666665077 0.198494911193847711761151231258 0.035913281142711639404296875000 0.000928337103687226772308349609 -0.000286464695818722302287501202 0 0 0 0 
2407333333.3333334923 0.198752671480178805252236884371 0.036363650113344192504882812500 0.000829932745546102523803710938 -0.000274181627901270985603332520 0 0 0 0 
2407500000.0000000000 0.199039444327354403396768134371 0.036632917821407318115234375000 0.000933348841499537229537963867 -0.000440483941929414922564905988 0 0 0 0 
2407666666.6666665077 0.199366301298141507247763115629 0.036906987428665161132812500000 0.000649546680506318807601928711 -0.000523051421623677015304565430 0 0 0 0 
2407833333.3333334923 0.199084803462028503417968750000 0.037050031125545501708984375000 0.000674649258144199848175048828 -0.000457509537227451801300048828 0 0 0 0 
2408000000.0000000000 0.199216946959495488922442518742 0.037393618375062942504882812500 0.000557339924853295087814331055 -0.000622437102720141410827636719 0 0 0 0 
2408166666.6666665077 0.198830649256706210037393134371 0.037324786186218261718750000000 0.000613033480476588010787963867 -0.000656116404570639133453369141 0 0 0 0 
2408333333.3333334923 0.198538437485694913009481865629 0.037301190197467797016184221093 0.000579470593947917222976684570 -0.000704231555573642253875732422 0 0 0 0 
2408500000.0000000000 0.197942689061164911468182481258 0.037462312728166580200195312500 0.000561855849809944629669189453 -0.000618482590653002262115478516 0 0 0 0 
2408666666.6666665077 0.197389945387840298751669365629 0.037304803729057312011718750000 0.000600961269810795783996582031 -0.000662353937514126300811767578 0 0 0 0 
2408833333.3333334923 0.196798816323280306717080634371 0.037052661180496222759206403907 0.000417093193391337990760803223 -0.000623378728050738573074340820 0 0 0 0 
2409000000.0000000000 0.195837840437889099121093750000 0.036560826003551483154296875000 0.000170327606610953807830810547 -0.000622390885837376117706298828 0 0 0 0 
2409166666.6666665077 0.194907158613205011565838731258 0.036026921123266220092773437500 0.000338375859428197199672144757 -0.000691904046107083559036254883 0 0 0 0 
2409333333.3333334923 0.193727210164070101638955634371 0.035460680723190307617187500000 0.000385862571420148015022277832 -0.000566978822462260723114013672 0 0 0 0 
2409500000.0000000000 0.192596152424812289138955634371 0.034545335918664932250976562500 0.000202962110051885301440638409 -0.000584574823733419179916381836 0 0 0 0 
2409666666.6666665077 0.191556468605995205978231865629 0.033467523753643042827565778907 0.000527133874129503965377807617 -0.000580898893531411886215209961 0 0 0 0 
2409833333.3333334923 0.190170779824256896972656250000 0.032342657446861267089843750000 0.000307904963847249800532740460 -0.000454528810223564505577087402 0 0 0 0 
2410000000.0000000000 0.189069777727127102950888115629 0.031112313270568851125696951954 0.000509023026097565889358520508 -0.000467855163151398301124572754 0 0 0 0 
2410166666.6666665077 0.187850028276443509200888115629 0.029695319011807441711425781250 0.000563966052141040563583374023 -0.000366925640264526009559631348 0 0 0 0 
2410333333.3333334923 0.186482653021812411209268134371 0.028120087459683418273925781250 0.000402072793804109096527099609 -0.000423550140112638473510742188 0 0 0 0 
2410500000.0000000000 0.185327798128128107268963731258 0.026230566203594211233118826954 0.000529771379660815000534057617 -0.000414507638197392225265502930 0 0 0 0 
2410666666.6666665077 0.184007391333579989334268134371 0.024392466992139819753626639454 0.000697543378919363021850585938 -0.000524761446285992860794067383 0 0 0 0 
2410833333.3333334923 0.183180853724479703048544365629 0.022430367767810821533203125000 0.000694851623848080635070800781 -0.000521129462867975234985351562 0 0 0 0 
2411000000.0000000000 0.182166412472724886795205634371 0.020427582785487178457239920704 0.000765014789067208766937255859 -0.000754079315811395753561818811 0 0 0 0 
2411166666.6666665077 0.181117206811904907226562500000 0.018238680437207218515416329296 0.000872920500114560127258300781 -0.000838123611174523830413818359 0 0 0 0 
2411333333.3333334923 0.180172055959701510330361884371 0.015747144818305969238281250000 0.000923001673072576522827148438 -0.001061500632204114957096718896 0 0 0 0 
2411500000.0000000000 0.179501801729202298263388115629 0.013370341621339319401751133398 0.000668795721139758825302124023 -0.001180902705527842044830322266 0 0 0 0 
2411666666.6666665077 0.178821071982383700271768134371 0.011125981807708740234375000000 0.000735099019948393106460571289 -0.001515491283498703999760293115 0 0 0 0 
2411833333.3333334923 0.178147122263908386230468750000 0.008639749139547348022460937500 0.000673690694384276866912841797 -0.001547375577501953081843710791 0 0 0 0 
2412000000.0000000000 0.178088143467903109451455634371 0.005809792783111333847045898438 0.000398676464101299589306431903 -0.001578136580064892985700297778 0 0 0 0 
2412166666.6666665077 0.177797228097915704925213731258 0.003557558637112379074096679688 0.000297041231533512473106384277 -0.001652964972890913920161581885 0 0 0 0 
2412333333.3333334923 0.177640065550804110428018134371 0.000834750186186283826828002930 0.000204506723093800300925654279 -0.001742839929647743918775248950 0 0 0 0 
2412500000.0000000000 0.177708521485328702071981865629 -0.001807081513106822967529296875 0.000134987159981392296865740366 -0.001839645789004862091661762769 0 0 0 0 
2412666666.6666665077 0.178163513541221590896768134371 -0.004342376254498958587646484375 -0.000109739230538252700440822462 -0.001934188068844377994537353516 0 0 0 0 
2412833333.3333334923 0.178806155920028686523437500000 -0.007112061604857444763183593750 -0.000215012390981428298071184702 -0.001777344034053385040880512769 0 0 0 0 
2413000000.0000000000 0.179205909371376009842080634371 -0.009646373800933361053466796875 -0.000492695835418999195098876953 -0.001999695086851716041564941406 0 0 0 0 
2413166666.6666665077 0.179611206054687500000000000000 -0.012290914542973039799700352148 -0.000571801443584263324737548828 -0.001809263252653181986567831885 0 0 0 0 
2413333333.3333334923 0.180667474865913391113281250000 -0.014813877642154690134068673046 -0.000712226552423089742660522461 -0.001743065309710801081416464697 0 0 0 0 
2413500000.0000000000 0.181403815746307400802450615629 -0.017446953803300861013392264454 -0.000900138751603662967681884766 -0.001693719532340764999389648438 0 0 0 0 
2413666666.6666665077 0.182581886649131802657919365629 -0.019891101866960528982142264454 -0.000861368607729673385620117188 -0.001546835293993354060529399341 0 0 0 0 
2413833333.3333334923 0.183494597673416109939736884371 -0.022418260574340820312500000000 -0.001015576650388539054273295825 -0.001445641391910613016841269385 0 0 0 0 
2414000000.0000000000 0.184655323624610900878906250000 -0.024648146703839298593541329296 -0.001181758474558592059491801685 -0.001467823865823447921155620044 0 0 0 0 
2414166666.6666665077 0.185898154973983792404013115629 -0.026815474033355709421178048046 -0.001116410829126835086225200122 -0.001197516918182373046875000000 0 0 0 0 
2414333333.3333334923 0.187034741044044494628906250000 -0.029065433889627460134486014454 -0.001321158604696393013000488281 -0.001239993143826723098754882812 0 0 0 0 
2414500000.0000000000 0.188293442130088806152343750000 -0.030885707587003711355189139454 -0.001220464124344289085985493237 -0.001293934066779911951777792822 0 0 0 0 
2414666666.6666665077 0.189687758684158297439736884371 -0.032701604068279273296315778907 -0.001375721301883459091186523438 -0.001243128557689487934112548828 0 0 0 0 
2414833333.3333334923 0.191049277782440213302450615629 -0.034408967941999442363698591407 -0.001327039673924446105957031250 -0.001137125538662075996398925781 0 0 0 0 
2415000000.0000000000 0.192298367619514493087606865629 -0.035867791622877120971679687500 -0.001472781295888125896453857422 -0.001080709509551524899126362378 0 0 0 0 
2415166666.6666665077 0.193738907575607299804687500000 -0.037299051880836486816406250000 -0.001367280841805041053174663013 -0.000856451690196990966796875000 0 0 0 0 
2415333333.3333334923 0.195129141211509704589843750000 -0.038476001471281051635742187500 -0.001370286801829933903337788159 -0.000947345397435128688812255859 0 0 0 0 
2415500000.0000000000 0.196418732404708890060263115629 -0.039453219622373580932617187500 -0.001591933192685246901271201025 -0.000961540208663791418075561523 0 0 0 0 
2415666666.6666665077 0.197627723217010498046875000000 -0.040577586740255362773854841407 -0.001648740726523100896122597803 -0.000889964750967919826507568359 0 0 0 0 
2415833333.3333334923 0.198899045586585998535156250000 -0.041163537651300430297851562500 -0.001742356573231518051744770581 -0.001003193436190485954284667969 0 0 0 0 
2416000000.0000000000 0.200007587671279907226562500000 -0.042032629251480102539062500000 -0.001705797971226274967193603516 -0.000831938697956502437591552734 0 0 0 0 
2416166666.6666665077 0.201123818755149813553018134371 -0.042750407010316848754882812500 -0.001818515127524733977076865088 -0.000721219112165272235870361328 0 0 0 0 
2416333333.3333334923 0.202069118618965204436932481258 -0.042917873710393912578542341407 -0.001928728073835372924804687500 -0.000506449607200920581817626953 0 0 0 0 
2416500000.0000000000 0.202874958515167208572549384371 -0.043259620666503913188893903907 -0.001797824166715144894243549878 -0.000446757534518837874561864032 0 0 0 0 
2416666666.6666665077 0.203580945730209406097088731258 -0.043679375201463699340820312500 -0.001963353715837001800537109375 -0.000589826027862727642059326172 0 0 0 0 
2416833333.3333334923 0.204055503010749789138955634371 -0.043694090098142616962473283593 -0.001710392651148139996769570459 -0.000285034911939874291419982910 0 0 0 0 
2417000000.0000000000 0.204660058021545410156250000000 -0.043808288872241966938059221093 -0.001945575349964202100869203882 -0.000225967058213427689954480582 0 0 0 0 
2417166666.6666665077 0.204650595784187289138955634371 -0.043556854128837592388112653907 -0.001960876397788525061366415869 -0.000145841244375333189964294434 0 0 0 0 
2417333333.3333334923 0.204857781529426602462606865629 -0.043270200490951538085937500000 -0.001865690457634628035901713794 0.000050771519454428932886531217 0 0 0 0 
2417500000.0000000000 0.204839169979095486739950615629 -0.043266896158456802368164062500 -0.001838544732891022942186665112 0.000184440621524117887020111084 0 0 0 0 
2417666666.6666665077 0.204651772975921603103799384371 -0.042832311242818832397460937500 -0.001746817841194570064544677734 0.000365644431440159678459167480 0 0 0 0 
2417833333.3333334923 0.204515993595123291015625000000 -0.042426493018865592266042341407 -0.001728246454149485068080283057 0.000372655253158882314532679425 0 0 0 0 
2418000000.0000000000 0.204071342945098904708700615629 -0.041925542056560523296315778907 -0.001630427665077150084851909106 0.000574861594941467046737670898 0 0 0 0 
2418166666.6666665077 0.203587293624877901931924384371 -0.041605230420827872539479841407 -0.001657558372244239070295024341 0.000357442157110199278027135028 0 0 0 0 
2418333333.3333334923 0.203002706170082092285156250000 -0.041145510971546173095703125000 -0.001577833434566854996922158350 0.000514390121679753065109252930 0 0 0 0 
2418500000.0000000000 0.202108621597290011306924384371 -0.040980119258165359497070312500 -0.001590201864019036076189350659 0.000487431039800867384106236591 0 0 0 0 
2418666666.6666665077 0.201462432742118807693643134371 -0.040584802627563476562500000000 -0.001450856914743781089782714844 0.000505825504660606384277343750 0 0 0 0 
2418833333.3333334923 0.200196489691734286209268134371 -0.040385033935308463359792341407 -0.001408549025654793002484965747 0.000534400343894958496093750000 0 0 0 0 
2419000000.0000000000 0.199008584022522000411825615629 -0.040276266634464256977121721093 -0.001422432134859263896942138672 0.000364485371392220312922877179 0 0 0 0 
2419166666.6666665077 0.197873488068580599685830634371 -0.040322601795196533203125000000 -0.001408105483278631947161030347 0.000329372152918949723243713379 0 0 0 0 
2419333333.3333334923 0.196398094296455411056356865629 -0.040445756167173392559011091407 -0.001642809365876019001007080078 0.000408340099966153502464294434 0 0 0 0 
2419500000.0000000000 0.194917038083076504806356865629 -0.040562201291322708129882812500 -0.001511640963144599957707070459 0.000338415149599313681751805438 0 0 0 0 
2419666666.6666665077 0.193211913108825711349325615629 -0.040989451110363006591796875000 -0.001451300573535263972041464697 0.000365733256330713575512486591 0 0 0 0 
2419833333.3333334923 0.191590130329132107833700615629 -0.041447728872299187397043596093 -0.001630311948247253894805908203 0.000458892172900959903567713605 0 0 0 0 
