# Hz S RI R 
2400000000.0000000000 0.155011147260665893554687500000 0.110380537807941395134214701557 -0.005138049833476543426513671875 -0.001766176894307136969325400244 0 0 0 0 
2400166666.6666665077 0.154541075229644803146200615629 0.108074516057968098015074076557 -0.005246523302048444747924804688 -0.001611302373930812098859477466 0 0 0 0 
2400333333.3333334923 0.154276162385940607268963731258 0.106082305312156705001669365629 -0.005487455986440181732177734375 -0.001190596842207014994380331885 0 0 0 0 
2400500000.0000000000 0.153950542211532592773437500000 0.103255309164524106124716240629 -0.005400551017373800277709960938 -0.000874567369464784860610961914 0 0 0 0 
2400666666.6666665077 0.153744816780090304275674384371 0.100944072008132906814736884371 -0.005274822004139423370361328125 -0.000728178303688764572143554688 0 0 0 0 
2400833333.3333334923 0.153409913182258605957031250000 0.098096281290054321289062500000 -0.005389199592173100385184003613 -0.000636763812508434057235717773 0 0 0 0 
2401000000.0000000000 0.153895959258079501053018134371 0.095374181866645812988281250000 -0.005083313211798667907714843750 -0.001104427152313292026519775391 0 0 0 0 
2401166666.6666665077 0.152907669544219998458700615629 0.092840828001499176025390625000 -0.004972237627953290939331054688 0.000193354760995134711265563965 0 0 0 0 
2401333333.3333334923 0.153564020991325406173544365629 0.089235305786132812500000000000 -0.005722475703805685043334960938 -0.000390869216062128489643651141 0 0 0 0 
2401500000.0000000000 0.153201237320899991134481865629 0.086487650871276855468750000000 -0.005365982186049222946166992188 0.000365069106919691020816248761 0 0 0 0 
2401666666.6666665077 0.154073327779769897460937500000 0.083738513290882110595703125000 -0.005311797838658094406127929688 -0.000201655682758428210585993634 0 0 0 0 
2401833333.3333334923 0.154040634632110595703125000000 0.080705672502517700195312500000 -0.005472782533615828427786542676 0.000409196683904156088829040527 0 0 0 0 
2402000000.0000000000 0.154805615544319208343182481258 0.077379338443279266357421875000 -0.005921710282564163208007812500 0.000454708613688126206398010254 0 0 0 0 
2402166666.6666665077 0.155258089303970309158486884371 0.074968643486499786376953125000 -0.005228045862168073654174804688 0.000948060420341789722442626953 0 0 0 0 
2402333333.3333334923 0.156420543789863586425781250000 0.071825988590717315673828125000 -0.005703336093574762344360351562 0.000386317464290186817019862042 0 0 0 0 
2402500000.0000000000 0.157178014516830388824786268742 0.068898312747478485107421875000 -0.006036174949258565902709960938 0.000964350474532693624496459961 0 0 0 0 
2402666666.6666665077 0.158187568187713595291299384371 0.066503323614597320556640625000 -0.005752075463533402356619550488 0.001332579064182936928392719800 0 0 0 0 
2402833333.3333334923 0.159480869770050104339276231258 0.063876450061798095703125000000 -0.005776666104793548583984375000 0.001577176502905786037445068359 0 0 0 0 
2403000000.0000000000 0.160796985030174310882244981258 0.061176698654890060424804687500 -0.005831369664520025253295898438 0.001930216094478965022443461841 0 0 0 0 
2403166666.6666665077 0.162634909152984591385049384371 0.058816138654947280883789062500 -0.005902453325688838958740234375 0.002211960265412927107570029150 0 0 0 0 
2403333333.3333334923 0.164016947150230407714843750000 0.056407485157251358032226562500 -0.005753305740654469403738691113 0.002449790248647332191467285156 0 0 0 0 
2403500000.0000000000 0.165533885359764099121093750000 0.054182991385459899902343750000 -0.005851483438163995742797851562 0.002764564007520676092860556494 0 0 0 0 
2403666666.6666665077 0.167639359831809997558593750000 0.051784910261631011962890625000 -0.005646637175232172012329101562 0.003097650129348040060756064307 0 0 0 0 
2403833333.3333334923 0.169298991560936001876669365629 0.049770917743444442749023437500 -0.005671676713973283767700195312 0.003329470288008451895472861182 0 0 0 0 
2404000000.0000000000 0.171038061380386408050213731258 0.047721363604068763042409528907 -0.005451563280075789365286542676 0.003723649773746728897094726562 0 0 0 0 
2404166666.6666665077 0.172830268740653991699218750000 0.045984528958797461772878278907 -0.005261125974357128143310546875 0.003953457809984683990478515625 0 0 0 0 
2404333333.3333334923 0.174730613827705411056356865629 0.044795468449592590332031250000 -0.005231467541307210922241210938 0.004098081495612859725952148438 0 0 0 0 
2404500000.0000000000 0.176447674632072504241619981258 0.042595937848091132427175153907 -0.004715473856776952743530273438 0.004500806797295808792114257812 0 0 0 0 
2404666666.6666665077 0.178640604019165011306924384371 0.041666027158498757099192033593 -0.004602552857249975204467773438 0.004880483262240886688232421875 0 0 0 0 
2404833333.3333334923 0.180325791239738492111044365629 0.039985317736864089965820312500 -0.004383909516036511334891034863 0.005065495613962411880493164062 0 0 0 0 
2405000000.0000000000 0.181816905736923190017861884371 0.039642017334699630737304687500 -0.004244738724082708358764648438 0.005276262760162354382986737988 0 0 0 0 
2405166666.6666665077 0.183602914214134188553018134371 0.038757406175136573101003278907 -0.003838450880721210999729775537 0.005337796173989772796630859375 0 0 0 0 
2405333333.3333334923 0.185227915644645690917968750000 0.038312193006277077411692033593 -0.003509467933326960043666220557 0.005533210001885890960693359375 0 0 0 0 
2405500000.0000000000 0.186834648251533508300781250000 0.037770453840494162822682966407 -0.003265047213062644004821777344 0.005564623512327671051025390625 0 0 0 0 
2405666666.6666665077 0.188427180051803588867187500000 0.037430353462696082378347028907 -0.003131731180474162101745605469 0.005718518979847431182861328125 0 0 0 0 
2405833333.3333334923 0.189995884895324707031250000000 0.037095837295055389404296875000 -0.002583148423582315011265420068 0.005807236302644014358520507812 0 0 0 0 
2406000000.0000000000 0.191077753901481600662393134371 0.037039332091808319091796875000 -0.002291857264935969872715615381 0.005758025683462619781494140625 0 0 0 0 
2406166666.6666665077 0.192386433482170104980468750000 0.037097223103046417236328125000 -0.002126892795786261992213583838 0.005774632096290588378906250000 0 0 0 0 
2406333333.3333334923 0.193552941083908108810263115629 0.037207052111625671386718750000 -0.001655198633670807101606059497 0.005821867380291224393362714551 0 0 0 0 
2406500000.0000000000 0.194452032446861294845419365629 0.037442415952682502056081403907 -0.001549151260405779101728129810 0.005713975522667169570922851562 0 0 0 0 
2406666666.6666665077 0.195467859506607111175213731258 0.037633068859577178955078125000 -0.001444939640350640036939311450 0.005759994965046644210815429688 0 0 0 0 
2406833333.3333334923 0.196155920624732998946981865629 0.037843547761440277099609375000 -0.001190897193737328052520751953 0.005854831542819738388061523438 0 0 0 0 
2407000000.0000000000 0.196695014834403991699218750000 0.038192313164472579956054687500 -0.001003597164526581981061625903 0.005820644553750753402709960938 0 0 0 0 
2407166666.6666665077 0.197373360395431490799111884371 0.038310673087835311889648437500 -0.001018132548779248974443745190 0.005787758622318506240844726562 0 0 0 0 
2407333333.3333334923 0.197385638952255304534588731258 0.038814119994640350341796875000 -0.000689255190081894397735595703 0.005710492841899394989013671875 0 0 0 0 
2407500000.0000000000 0.197539463639259310623330634371 0.039213337004184722900390625000 -0.000432608649134635925292968750 0.005724323447793722152709960938 0 0 0 0 
2407666666.6666665077 0.197761848568916293045205634371 0.039333529770374298095703125000 -0.000202300594537518891409197397 0.005753324367105960845947265625 0 0 0 0 
2407833333.3333334923 0.197434365749359103103799384371 0.039616551250219352031667341407 -0.000279035652056336402893066406 0.005802498199045658111572265625 0 0 0 0 
2408000000.0000000000 0.197466760873794611175213731258 0.039778817445039749145507812500 0.000180154107511043602794092999 0.005764285102486610412597656250 0 0 0 0 
2408166666.6666665077 0.196944937109947204589843750000 0.039897717535495758056640625000 0.000403110985644161701202392578 0.005641201976686716079711914062 0 0 0 0 
2408333333.3333334923 0.196482315659523010253906250000 0.039708200842142112041432966407 0.000563779554795473814010620117 0.005694998893886804580688476562 0 0 0 0 
2408500000.0000000000 0.195975705981254605392294365629 0.039812985807657241821289062500 0.000680287193972617387771606445 0.005597827956080436706542968750 0 0 0 0 
2408666666.6666665077 0.195348426699638394454794365629 0.039514563977718353271484375000 0.000825532362796366214752197266 0.005417973268777132034301757812 0 0 0 0 
2408833333.3333334923 0.194506570696830805022869981258 0.039318554103374481201171875000 0.001138331484980880997301411206 0.005325333215296269330496503613 0 0 0 0 
2409000000.0000000000 0.193535238504409790039062500000 0.038713183254003531719167341407 0.001177927711978554942487407153 0.005293589551001787185668945312 0 0 0 0 
2409166666.6666665077 0.192564100027084406097088731258 0.038005337119102478027343750000 0.001321695861406624100328754956 0.005224518943578004837036132812 0 0 0 0 
2409333333.3333334923 0.191662386059761102874432481258 0.037326026707887649536132812500 0.001527167507447301907780312646 0.004859335720539093017578125000 0 0 0 0 
2409500000.0000000000 0.190233290195465087890625000000 0.036429915577173233032226562500 0.001578142400830983898760151440 0.004862476140260696411132812500 0 0 0 0 
2409666666.6666665077 0.189124435186386108398437500000 0.035240996628999710083007812500 0.001551789464429021098493266528 0.004773933440446853637695312500 0 0 0 0 
2409833333.3333334923 0.187906563282012911697549384371 0.033908486366271972656250000000 0.001634206273593008951899863135 0.004889196250587701797485351562 0 0 0 0 
2410000000.0000000000 0.186794802546501187423544365629 0.032650992274284362792968750000 0.001595043693669139905216836084 0.004832410253584384918212890625 0 0 0 0 
2410166666.6666665077 0.185648143291473388671875000000 0.030921855941414829599400704296 0.001847515697591006972669291919 0.004896734841167926788330078125 0 0 0 0 
2410333333.3333334923 0.184449553489685086349325615629 0.029344428330659869802454764454 0.001865638536401093006134033203 0.004857663530856370925903320312 0 0 0 0 
2410500000.0000000000 0.183333054184913607498330634371 0.027461137622594829904576485546 0.002166136866435409025904990088 0.004716349765658378601074218750 0 0 0 0 
2410666666.6666665077 0.182127013802528409103231865629 0.025445852428674701345423514454 0.002127060433849691910984658350 0.004795472603291273117065429688 0 0 0 0 
2410833333.3333334923 0.181210055947303799728231865629 0.023225432261824611318568045704 0.002369823632761836051940917969 0.004705430474132299423217773438 0 0 0 0 
2411000000.0000000000 0.180290848016738891601562500000 0.021125668659806251525878906250 0.002494829008355737166163779150 0.004697973839938640594482421875 0 0 0 0 
2411166666.6666665077 0.179496094584464999099893134371 0.018983805552124980581263358204 0.002660674042999743981602334131 0.004699441604316234588623046875 0 0 0 0 
2411333333.3333334923 0.178541719913482693771200615629 0.016403224319219589233398437500 0.002677775919437408013584756006 0.004514510277658700942993164062 0 0 0 0 
2411500000.0000000000 0.178001493215560913085937500000 0.014058708213269710540771484375 0.002845019567757844924926757812 0.004473128356039524078369140625 0 0 0 0 
2411666666.6666665077 0.177479833364486694335937500000 0.011505010537803169595738594921 0.003154419595375657081604003906 0.004282200243324041366577148438 0 0 0 0 
2411833333.3333334923 0.176914572715759305099325615629 0.009194583632051944732666015625 0.003280785167589784102198935400 0.004249362740665674209594726562 0 0 0 0 
2412000000.0000000000 0.176925480365753201583700615629 0.006336668040603399276733398438 0.003459310624748467965366982568 0.004152033012360334396362304688 0 0 0 0 
2412166666.6666665077 0.177101448178291293045205634371 0.003851550864055753187892294775 0.003485357388854026794433593750 0.003993027843534945574288652637 0 0 0 0 
2412333333.3333334923 0.176987603306770296951455634371 0.001270079286769032912013388525 0.003644426120445131821873330225 0.003904369194060564041137695312 0 0 0 0 
2412500000.0000000000 0.177368372678756713867187500000 -0.001492840237915515899658203125 0.003895585425198078155517578125 0.003823280567303299903869628906 0 0 0 0 
2412666666.6666665077 0.177801191806793212890625000000 -0.004185191355645656585693359375 0.003712540026754140853881835938 0.003700566245242952866795205225 0 0 0 0 
2412833333.3333334923 0.178418248891830388824786268742 -0.006844190880656242370605468750 0.003873966867104173140284872900 0.003623402910307050184962607275 0 0 0 0 
2413000000.0000000000 0.178985640406608609298544365629 -0.009287649765610694885253906250 0.004093367606401444348807050488 0.003563539823517202897312783350 0 0 0 0 
2413166666.6666665077 0.179728269577026394943075615629 -0.011765308678150180471400076954 0.004233950749039649963378906250 0.003413013881072402000427246094 0 0 0 0 
2413333333.3333334923 0.180899798870086697677450615629 -0.014442566782236099243164062500 0.004401552025228738784790039062 0.003357295645400882200953818213 0 0 0 0 
2413500000.0000000000 0.181753993034362792968750000000 -0.016972145065665248525599295704 0.004549790639430285367483808301 0.003196145175024867057800292969 0 0 0 0 
2413666666.6666665077 0.183123290538787786285723768742 -0.019405558705329898488978201954 0.004738239571452140808105468750 0.003029807470738887786865234375 0 0 0 0 
2413833333.3333334923 0.184139654040336608886718750000 -0.021591152995824810373326485546 0.004736647475510835647583007812 0.002804079558700323104858398438 0 0 0 0 
2414000000.0000000000 0.185425385832786587814169365629 -0.023883493617177009582519531250 0.005012702662497758865356445312 0.002552744001150130791905068506 0 0 0 0 
2414166666.6666665077 0.186763137578964205642861884371 -0.025928083807229999196986014454 0.004912938922643662366385175488 0.002495630644261837005615234375 0 0 0 0 
2414333333.3333334923 0.188030138611793490310830634371 -0.028210271149873730051060860546 0.005093852989375591278076171875 0.002150686923414469198939658057 0 0 0 0 
2414500000.0000000000 0.189471989870071411132812500000 -0.029772689566016200674036795704 0.005204982589930295944213867188 0.002030193805694580078125000000 0 0 0 0 
2414666666.6666665077 0.190761774778366088867187500000 -0.031548582017421722412109375000 0.005287320818752050399780273438 0.002002624794840813116786337744 0 0 0 0 
2414833333.3333334923 0.192189544439315795898437500000 -0.033122338354587561870534528907 0.005255916621536017331595136426 0.001694791368208826021907187354 0 0 0 0 
2415000000.0000000000 0.193545624613761901855468750000 -0.034704010933637619018554687500 0.005456307437270879745483398438 0.001597334863618016026140522534 0 0 0 0 
2415166666.6666665077 0.195024058222770690917968750000 -0.035925216972827911376953125000 0.005537447519600391387939453125 0.001330641913227736949920654297 0 0 0 0 
2415333333.3333334923 0.196457386016845703125000000000 -0.037127338349819183349609375000 0.005717894993722438812255859375 0.001144635723903774998308491284 0 0 0 0 
2415500000.0000000000 0.197810471057891901214276231258 -0.037990093231201171875000000000 0.005587225779891014099121093750 0.000809831602964550256729125977 0 0 0 0 
2415666666.6666665077 0.199121013283729608733807481258 -0.038921970874071121215820312500 0.005847672466188669204711914062 0.000693909882102161645889282227 0 0 0 0 
2415833333.3333334923 0.200307592749595586578692518742 -0.039509736001491546630859375000 0.005649789236485958099365234375 0.000373147369828075224727076398 0 0 0 0 
2416000000.0000000000 0.201339066028594998458700615629 -0.040329419076442718505859375000 0.005760884843766689300537109375 0.000070857597165741026401519775 0 0 0 0 
2416166666.6666665077 0.202327296137809808929119981258 -0.040891941636800772930104841407 0.005797500256448984146118164062 -0.000200154361664317602485102521 0 0 0 0 
2416333333.3333334923 0.203342244029045104980468750000 -0.041240729391574859619140625000 0.005681773182004690170288085938 -0.000467625242890790104866027832 0 0 0 0 
2416500000.0000000000 0.204088777303695706466513115629 -0.041548848152160651470143903907 0.005679019261151552200317382812 -0.000853265519253909587860107422 0 0 0 0 
2416666666.6666665077 0.204741373658180209060830634371 -0.041773203760385513305664062500 0.005458929575979709625244140625 -0.000920849968679249286651611328 0 0 0 0 
2416833333.3333334923 0.205179125070571899414062500000 -0.041993472725152969360351562500 0.005318077746778726577758789062 -0.001163387554697691960575722803 0 0 0 0 
2417000000.0000000000 0.205583214759826687911825615629 -0.041948486119508743286132812500 0.005213495343923568725585937500 -0.001404170878231524987461709131 0 0 0 0 
2417166666.6666665077 0.205542027950286892989950615629 -0.041761554777622222900390625000 0.005048886872828006744384765625 -0.001628376194275916056392050635 0 0 0 0 
2417333333.3333334923 0.205574780702590886871661268742 -0.041576344519853591918945312500 0.004851810634136199951171875000 -0.001542404294013977050781250000 0 0 0 0 
2417500000.0000000000 0.205500707030296297928018134371 -0.041420657187700271606445312500 0.004759339150041341781616210938 -0.001640205155126750902888632666 0 0 0 0 
2417666666.6666665077 0.205251187086105402190838731258 -0.041070181876420981670339216407 0.004841773305088281631469726562 -0.001751409377902745983721088940 0 0 0 0 
2417833333.3333334923 0.205064684152603204925213731258 -0.040761373937129967426340471093 0.004657523706555367383475019238 -0.001718656392768024964573525537 0 0 0 0 
2418000000.0000000000 0.204521283507347106933593750000 -0.040237236768007278442382812500 0.004603121429681777954101562500 -0.001862426055595278956769633716 0 0 0 0 
2418166666.6666665077 0.203992262482643099685830634371 -0.040042828768491751934011091407 0.004701201803982257843017578125 -0.001843768637627362988115620190 0 0 0 0 
2418333333.3333334923 0.203159168362617492675781250000 -0.039634890854358673095703125000 0.004671972710639238357543945312 -0.002025308553129435019252158057 0 0 0 0 
2418500000.0000000000 0.202231943607330294510049384371 -0.039500597864389419555664062500 0.004561334382742643356323242188 -0.002147795632481575012207031250 0 0 0 0 
2418666666.6666665077 0.201331540942192105392294365629 -0.039185859262943267822265625000 0.004497942514717578887939453125 -0.002337532583624124960658408057 0 0 0 0 
2418833333.3333334923 0.200256392359733609298544365629 -0.039186235517263412475585937500 0.004610402975231409072875976562 -0.002336470643058418793919228662 0 0 0 0 
2419000000.0000000000 0.198968276381492586990518134371 -0.039059925824403762817382812500 0.004582459572702646255493164062 -0.002530048834159969849827431787 0 0 0 0 
2419166666.6666665077 0.197674900293350191970986884371 -0.039176199585199363017995466407 0.004384025465697050094604492188 -0.002870432101190090179443359375 0 0 0 0 
2419333333.3333334923 0.196435838937759399414062500000 -0.039572630077600479125976562500 0.004344353917986155423636152051 -0.002861502347514032883885048975 0 0 0 0 
2419500000.0000000000 0.194813251495361300369424384371 -0.039688106626272201538085937500 0.004378851503133773803710937500 -0.003107550786808133125305175781 0 0 0 0 
2419666666.6666665077 0.193071320652961703201455634371 -0.040335379540920257568359375000 0.004226361401379108428955078125 -0.003364104544743895964381552588 0 0 0 0 
2419833333.3333334923 0.191471323370933504959268134371 -0.040710493922233581542968750000 0.004222031217068433761596679688 -0.003431185614317655997035361182 0 0 0 0 
2420000000.0000000000 0.189938694238662691970986884371 -0.041501168161630630493164062500 0.003948929253965616226196289062 -0.003634342225268483161926269531 0 0 0 0 
