# Hz S RI R 50
2400000000.0000000000 0.154953315854072598556356865629 0.109655506908893599082865932814 -0.002620277693495153947117470850 -0.002724993042647839026210165869 0 0 0 0 
2400166666.6666665077 0.155253008008003207107705634371 0.106662139296531705001669365629 -0.002108477521687746047973632812 -0.002993933623656630949733115088 0 0 0 0 
2400333333.3333334923 0.154629990458488492111044365629 0.104090325534343705604634067186 -0.002578490413725376129150390625 -0.003361465875059365792515420068 0 0 0 0 
2400500000.0000000000 0.155215501785278292556924384371 0.100968323647975893875283759371 -0.001977663254365324974060058594 -0.003090239362791181044337607275 0 0 0 0 
2400666666.6666665077 0.155560180544853210449218750000 0.098891571164131164550781250000 -0.002153803128749132156372070312 -0.002668071538209915161132812500 0 0 0 0 
2400833333.3333334923 0.154566571116447504241619981258 0.096185512840747833251953125000 -0.003225709777325392203090048682 -0.002676791977137327194213867188 0 0 0 0 
2401000000.0000000000 0.155270934104919405838174384371 0.093344420194625854492187500000 -0.003027214901521801948547363281 -0.002095878822728991942164755713 0 0 0 0 
2401166666.6666665077 0.154921501874923706054687500000 0.090421080589294433593750000000 -0.003246281296014786200282431494 -0.002304183086380362944362021338 0 0 0 0 
2401333333.3333334923 0.155414804816246004959268134371 0.087662942707538604736328125000 -0.003241081489250063896179199219 -0.001888981438241899013519287109 0 0 0 0 
2401500000.0000000000 0.155649393796920804122763115629 0.084632918238639831542968750000 -0.003119112458080052895786904443 -0.001755167962983251051661826025 0 0 0 0 
2401666666.6666665077 0.156119599938392611404580634371 0.081632927060127258300781250000 -0.003295942675322293801548623193 -0.001655999338254332976100302588 0 0 0 0 
2401833333.3333334923 0.156592011451721191406250000000 0.078969947993755340576171875000 -0.003364493837580084800720214844 -0.001467809663154185035108256763 0 0 0 0 
2402000000.0000000000 0.157355517148971613128338731258 0.076221160590648651123046875000 -0.003339545568451284928562783350 -0.001412201672792434909223246997 0 0 0 0 
2402166666.6666665077 0.158254027366638211349325615629 0.073546692728996276855468750000 -0.003301277989521623091456747900 -0.001331235282123089053510356372 0 0 0 0 
2402333333.3333334923 0.159189552068710299392861884371 0.070734135806560516357421875000 -0.003279726952314376831054687500 -0.001135712605901062922236777197 0 0 0 0 
2402500000.0000000000 0.160300895571708706954794365629 0.068236283957958221435546875000 -0.003468714887276291847229003906 -0.001153948949649930000305175781 0 0 0 0 
2402666666.6666665077 0.161529541015625000000000000000 0.065782070159912109375000000000 -0.003575414419174193902256631006 -0.000976304581854492425918579102 0 0 0 0 
2402833333.3333334923 0.162951380014419611175213731258 0.063210383057594299316406250000 -0.003730637021362781958339072119 -0.000922461040318012237548828125 0 0 0 0 
2403000000.0000000000 0.164327010512351989746093750000 0.060809865593910217285156250000 -0.003616045927628875212428427588 -0.000728985294699668884277343750 0 0 0 0 
2403166666.6666665077 0.165923058986663790603799384371 0.058496613055467612529714216407 -0.003826702479273080825805664062 -0.000503380433656275272369384766 0 0 0 0 
2403333333.3333334923 0.167598068714141901214276231258 0.056068874895572662353515625000 -0.003766345558688044981715536963 -0.000524178030900657176971435547 0 0 0 0 
2403500000.0000000000 0.169329315423965509612713731258 0.054057318717241287231445312500 -0.003789258655160665945765829932 -0.000318897800752893090248107910 0 0 0 0 
2403666666.6666665077 0.171135187149047907073651231258 0.051976349204778671264648437500 -0.003874800633639097213745117188 -0.000111473527795169502496719360 0 0 0 0 
2403833333.3333334923 0.172861546277999905685263115629 0.050127658993005752563476562500 -0.003822258207947016196009970557 0.000276543345535174012184143066 0 0 0 0 
2404000000.0000000000 0.174309715628623990157919365629 0.048185240477323532104492187500 -0.003928450867533683776855468750 0.000394697010051459074020385742 0 0 0 0 
2404166666.6666665077 0.176274925470352200607138115629 0.046583075076341629028320312500 -0.003816589713096619086024618994 0.000522129703313112258911132812 0 0 0 0 
2404333333.3333334923 0.178011909127235412597656250000 0.045173503458499908447265625000 -0.003759776009246706962585449219 0.000752467429265379905700683594 0 0 0 0 
2404500000.0000000000 0.179522380232811001876669365629 0.043590985238552086566965471093 -0.003719942411407827897312783350 0.000928766559809446334838867188 0 0 0 0 
2404666666.6666665077 0.181330457329750088790731865629 0.042600631713867187500000000000 -0.003502820851281284852268838037 0.001182561507448554039001464844 0 0 0 0 
2404833333.3333334923 0.182999089360237093826455634371 0.041460476815700531005859375000 -0.003479287028312683105468750000 0.001176330493763088963152241284 0 0 0 0 
2405000000.0000000000 0.184442162513732910156250000000 0.040772914886474609375000000000 -0.003343652468174695968627929688 0.001496332231909037070033408057 0 0 0 0 
2405166666.6666665077 0.185945004224777193924111884371 0.039908371865749359130859375000 -0.003069361438974738121032714844 0.001392124686390161947963095557 0 0 0 0 
2405333333.3333334923 0.187389701604843111892861884371 0.039478600025177001953125000000 -0.003066275268793106079101562500 0.001708281808532774014713906396 0 0 0 0 
2405500000.0000000000 0.188920617103576687911825615629 0.039020206779241561889648437500 -0.002867233939468861059901572119 0.001771783805452286980272602612 0 0 0 0 
2405666666.6666665077 0.190122827887535095214843750000 0.038649596273899078369140625000 -0.002615679055452346801757812500 0.001906710560433567003962851416 0 0 0 0 
2405833333.3333334923 0.191454738378524808029013115629 0.038370158523321151733398437500 -0.002464594552293419837951660156 0.001924503943882883028743124854 0 0 0 0 
2406000000.0000000000 0.192534759640693692306356865629 0.038304284214973449707031250000 -0.002449313644319773154017783057 0.001871132641099392934086464990 0 0 0 0 
2406166666.6666665077 0.193648651242256192306356865629 0.038202438503503799438476562500 -0.002088832901790738105773925781 0.002026784000918269157409667969 0 0 0 0 
2406333333.3333334923 0.194655120372772189041299384371 0.038317285478115081787109375000 -0.002019414678215980963466025244 0.001968017313629388809204101562 0 0 0 0 
2406500000.0000000000 0.195391997694969205001669365629 0.038314726203680038452148437500 -0.002129358239471911950352334131 0.002076272154226899147033691406 0 0 0 0 
2406666666.6666665077 0.196075484156608609298544365629 0.038541339337825782085378278907 -0.001844258978962898037554096753 0.002156744012609124183654785156 0 0 0 0 
2406833333.3333334923 0.196684718132018987457598768742 0.038619160652160651470143903907 -0.001583073171786963939666748047 0.002006786875426768822910927881 0 0 0 0 
2407000000.0000000000 0.197120651602745111663494981258 0.038951512426137917255442033593 -0.001609961967915296988246298682 0.002110132947564125061035156250 0 0 0 0 
2407166666.6666665077 0.197498187422752408126669365629 0.038866143673658370971679687500 -0.001366444048471749045728373950 0.001874836627393960952758789062 0 0 0 0 
2407333333.3333334923 0.197579473257064791580361884371 0.039050299674272537231445312500 -0.001274283858947456099866557544 0.001821975107304752089856791919 0 0 0 0 
2407500000.0000000000 0.197477877140045193771200615629 0.039261065423488616943359375000 -0.001151203177869319915771484375 0.001655749510973691940307617188 0 0 0 0 
2407666666.6666665077 0.197625517845153808593750000000 0.039388403296470642089843750000 -0.001006902079097927050349570166 0.001663649454712867953656840747 0 0 0 0 
2407833333.3333334923 0.197052419185638399978799384371 0.039399433881044387817382812500 -0.001007572864182292981388711084 0.001514584291726351001142192310 0 0 0 0 
2408000000.0000000000 0.197129994630813598632812500000 0.039282906800508499145507812500 -0.001020149444229901053785014575 0.001391805824823677973506308447 0 0 0 0 
2408166666.6666665077 0.196514993906021090408486884371 0.039030343294143676757812500000 -0.000820213463157415390014648438 0.001365711330436170101165771484 0 0 0 0 
2408333333.3333334923 0.196100383996963500976562500000 0.038782119750976562500000000000 -0.000883103173691779375076293945 0.001331418636254966042162251050 0 0 0 0 
2408500000.0000000000 0.195403501391410799881143134371 0.038500171154737472534179687500 -0.000880395760759711265563964844 0.001188107882626354911206889575 0 0 0 0 
2408666666.6666665077 0.194832548499107388595419365629 0.038191083818674087524414062500 -0.000976629904471337795257568359 0.001122829038649797005894326318 0 0 0 0 
2408833333.3333334923 0.194098055362701388260049384371 0.037390161305665969848632812500 -0.001043224357999861023546528394 0.000961550627835094928741455078 0 0 0 0 
2409000000.0000000000 0.193026870489120511154013115629 0.036641895771026611328125000000 -0.000951415742747485637664794922 0.000864962232299149036407470703 0 0 0 0 
2409166666.6666665077 0.192120119929313687423544365629 0.035700939595699310302734375000 -0.001077032880857587077497172778 0.000832421355880796909332275391 0 0 0 0 
2409333333.3333334923 0.191211357712745694259481865629 0.034939747303724288940429687500 -0.001136346487328409931780170972 0.000859703461173921823501586914 0 0 0 0 
2409500000.0000000000 0.190128415822982788085937500000 0.033628929406404502178151716407 -0.001267393934540451006648398291 0.000720869866199791431427001953 0 0 0 0 
2409666666.6666665077 0.189021587371826199630575615629 0.032262790948152542114257812500 -0.001208073459565639929530478369 0.000675342860631644725799560547 0 0 0 0 
2409833333.3333334923 0.188044637441635104080361884371 0.030913433060050010681152343750 -0.001358454232104123072383261572 0.000764086202252656221389770508 0 0 0 0 
2410000000.0000000000 0.186906322836875887771768134371 0.029286032542586330068568045704 -0.001409849966876208999036479419 0.000821135821752250194549560547 0 0 0 0 
2410166666.6666665077 0.185863912105560302734375000000 0.027442619204521179199218750000 -0.001513895578682423071620322119 0.000744925637263804674148559570 0 0 0 0 
2410333333.3333334923 0.184832051396369906326455634371 0.025714762508869171142578125000 -0.001505649881437421061872172778 0.000787000695709139108657836914 0 0 0 0 
2410500000.0000000000 0.183789134025573702713174384371 0.023776965215802189218541329296 -0.001657495857216418006299663013 0.000917531200684607028961181641 0 0 0 0 
2410666666.6666665077 0.182885080575942993164062500000 0.021546659991145130502721016796 -0.001692998106591403918025351416 0.001070037833414972045301127856 0 0 0 0 
2410833333.3333334923 0.182211697101592989822549384371 0.019369449466466900217076485546 -0.001673106453381479003308940356 0.000891610223334282636642456055 0 0 0 0 
2411000000.0000000000 0.181514933705329895019531250000 0.017126390710473060607910156250 -0.001928587560541928031324077075 0.000942585757002234458923339844 0 0 0 0 
2411166666.6666665077 0.180751442909240694900674384371 0.015025365166366100311279296875 -0.001895371708087622902513813550 0.001135725295171142058131552588 0 0 0 0 
2411333333.3333334923 0.180091679096221896072549384371 0.012431476265192030125628086523 -0.001756811165250838019727397388 0.001107189338654279925702739185 0 0 0 0 
2411500000.0000000000 0.179690003395080594161825615629 0.009944698773324489593505859375 -0.001924084848724306063411093604 0.001112469355575739903690957178 0 0 0 0 
2411666666.6666665077 0.179514244198799105545205634371 0.007556437049061059951782226562 -0.001846823724918068105813051538 0.001189614762552082972285605322 0 0 0 0 
2411833333.3333334923 0.179038688540458706954794365629 0.005009408574551343917846679688 -0.002105758292600512938258505713 0.001311478437855839946149516528 0 0 0 0 
2412000000.0000000000 0.179321199655532809158486884371 0.002628621179610490798950195312 -0.002121143275871872901916503906 0.001275883754715323014500283350 0 0 0 0 
2412166666.6666665077 0.179387077689170809646768134371 0.000276695674983784610598963605 -0.001866092556156218051910400391 0.001382619258947670893428183447 0 0 0 0 
2412333333.3333334923 0.179369747638702392578125000000 -0.002419145544990897178649902344 -0.002109807683154941038844443213 0.001295655383728445009944296729 0 0 0 0 
2412500000.0000000000 0.179859325289726312835369981258 -0.004957972560077905654907226562 -0.002271522535011171860935830225 0.001480857725255190892460488428 0 0 0 0 
2412666666.6666665077 0.180487006902694702148437500000 -0.007493501063436269760131835938 -0.002277513034641743139979697119 0.001617630827240646102307963794 0 0 0 0 
2412833333.3333334923 0.181125938892364501953125000000 -0.010087633505463600158691406250 -0.002546206349506973786595009912 0.001665019663050770976422954028 0 0 0 0 
2413000000.0000000000 0.181946888566017206390057481258 -0.012440182268619540822962576954 -0.002364129060879350142237997900 0.001899408642202615954755473560 0 0 0 0 
2413166666.6666665077 0.182738304138183593750000000000 -0.014923439361155029642125313671 -0.002550583565607666969299316406 0.002003579866141080856323242188 0 0 0 0 
2413333333.3333334923 0.183836534619331387618856865629 -0.017286090180277820932408516796 -0.002664890140295029120204306494 0.002300155581906437873840332031 0 0 0 0 
2413500000.0000000000 0.184602916240692110916299384371 -0.019719811156392100942591483204 -0.002591420663520694212672568213 0.002409396693110466003417968750 0 0 0 0 
2413666666.6666665077 0.186058580875396700760049384371 -0.021773695945739749563196951954 -0.002429635031148790879490517725 0.002677690237760543823242187500 0 0 0 0 
2413833333.3333334923 0.186951607465743990799111884371 -0.024020887911319729196568673046 -0.002485112519934773011448525537 0.002775644883513451056239462744 0 0 0 0 
2414000000.0000000000 0.188188955187797601897869981258 -0.025986937806010249746302420704 -0.002590004354715346856358193506 0.003141834167763590812683105469 0 0 0 0 
2414166666.6666665077 0.189560741186141995529013115629 -0.027840087190270420419713204296 -0.002220207592472434043884277344 0.003343847114592791037318564307 0 0 0 0 
2414333333.3333334923 0.190574109554290799239950615629 -0.029922014102339751506764997657 -0.002286418341100215911865234375 0.003461790271103382110595703125 0 0 0 0 
2414500000.0000000000 0.192029759287834195236044365629 -0.031436152756214141845703125000 -0.002059417543932795958278036963 0.003648107405751944021937704932 0 0 0 0 
2414666666.6666665077 0.193403854966163607498330634371 -0.033118933439254760742187500000 -0.001928667305037379047991108472 0.003924443386495113372802734375 0 0 0 0 
2414833333.3333334923 0.194507479667663601974325615629 -0.034483674913644790649414062500 -0.001659442787058651013615273584 0.003984902054071426391601562500 0 0 0 0 
2415000000.0000000000 0.195729270577430697342080634371 -0.035920403897762298583984375000 -0.001467755413614213900325156104 0.004280377645045518875122070312 0 0 0 0 
2415166666.6666665077 0.197128161787986810882244981258 -0.037039741873741149902343750000 -0.001366949640214442989946674878 0.004351046402007341384887695312 0 0 0 0 
2415333333.3333334923 0.198273569345474187652911268742 -0.038022905588150017475168596093 -0.001053587300702929930446005713 0.004646694753319025039672851562 0 0 0 0 
2415500000.0000000000 0.199406608939170809646768134371 -0.038713421672582633281667341407 -0.000865565903950482606887817383 0.004714661743491888046264648438 0 0 0 0 
2415666666.6666665077 0.200577184557914706131143134371 -0.039694748818874359130859375000 -0.000609181704930961132049560547 0.004752422217279672622680664062 0 0 0 0 
2415833333.3333334923 0.201502457261085510253906250000 -0.040361225605010993267018903907 -0.000399168900912627577781677246 0.004922890104353427886962890625 0 0 0 0 
2416000000.0000000000 0.202378720045089693924111884371 -0.040971431881189353252370466407 -0.000212395447306334999486646109 0.004887716844677925109863281250 0 0 0 0 
2416166666.6666665077 0.203096657991409301757812500000 -0.041608091443777077411692033593 0.000206527343834750408500117169 0.004949396476149559020996093750 0 0 0 0 
2416333333.3333334923 0.203840389847755404373330634371 -0.041754819452762596820871721093 0.000440270756371319293975830078 0.005048268474638462066650390625 0 0 0 0 
2416500000.0000000000 0.204400762915611294845419365629 -0.042037442326545722270925153907 0.000804594077635556459426879883 0.004970381502062082290649414062 0 0 0 0 
2416666666.6666665077 0.204677388072013910491619981258 -0.042436499148607247089426408593 0.001034822897054255008697509766 0.004764573648571968078613281250 0 0 0 0 
2416833333.3333334923 0.204885199666023309905682481258 -0.042393736541271209716796875000 0.001246474799700080914738320459 0.004796791821718215942382812500 0 0 0 0 
2417000000.0000000000 0.205096185207366887848223768742 -0.042503271251916892314870466407 0.001518800505436957099317241138 0.004698144737631083402151777051 0 0 0 0 
2417166666.6666665077 0.204821228981018094161825615629 -0.042517241090536117553710937500 0.001681951689533889076830219800 0.004584989976137877377981855176 0 0 0 0 
2417333333.3333334923 0.204612135887145996093750000000 -0.042182989418506622314453125000 0.002147642895579338073730468750 0.004398443270474672317504882812 0 0 0 0 
2417500000.0000000000 0.204318612813949612716513115629 -0.042096823453903198242187500000 0.002172067994251846833470009912 0.004490990657359361648559570312 0 0 0 0 
2417666666.6666665077 0.203844845294952392578125000000 -0.041833899915218353271484375000 0.002344869077205657958984375000 0.004256633110344409942626953125 0 0 0 0 
2417833333.3333334923 0.203408747911453302581463731258 -0.041639029979705810546875000000 0.002466226927936077117919921875 0.004089883994311094284057617188 0 0 0 0 
2418000000.0000000000 0.202914521098136901855468750000 -0.041381854563951492309570312500 0.002839488908648490905761718750 0.003958306275308132171630859375 0 0 0 0 
2418166666.6666665077 0.201934382319450406173544365629 -0.041156720370054251934011091407 0.002731485525146127180812216650 0.003927342593669891357421875000 0 0 0 0 
2418333333.3333334923 0.200963601469993591308593750000 -0.041015427559614181518554687500 0.002887706272304058074951171875 0.003697884501889348030090332031 0 0 0 0 
2418500000.0000000000 0.200070574879646301269531250000 -0.040967650711536407470703125000 0.002955368254333734946009970557 0.003606720361858605904820107568 0 0 0 0 
2418666666.6666665077 0.198945730924606295486611884371 -0.040820427238941192626953125000 0.003194304415956139998195029150 0.003434886224567890167236328125 0 0 0 0 
2418833333.3333334923 0.197794169187545804122763115629 -0.041000336408615112304687500000 0.003229600610211492018458701025 0.003331869142130016846897744287 0 0 0 0 
2419000000.0000000000 0.196271851658821105957031250000 -0.041038908064365386962890625000 0.003193018492311238808872841943 0.003191820578649640083312988281 0 0 0 0 
2419166666.6666665077 0.195132672786712701995526231258 -0.041381247341632843017578125000 0.003281326266005634827854775537 0.002991610672324895858764648438 0 0 0 0 
2419333333.3333334923 0.193378731608390808105468750000 -0.041815701872110366821289062500 0.003379900474101305007934570312 0.002840176457539201216456747900 0 0 0 0 
2419500000.0000000000 0.192045092582702608963174384371 -0.042150851339101791381835937500 0.003637805813923478126525878906 0.002789921127259730859043740381 0 0 0 0 
2419666666.6666665077 0.190322235226631192306356865629 -0.042986910790205001831054687500 0.003652342595160007910487509619 0.002590644638985394997837685693 0 0 0 0 
2419833333.3333334923 0.188602879643440302093182481258 -0.043568849563598632812500000000 0.003788675880059599876403808594 0.002484976081177591843845986475 0 0 0 0 
