# Version 1.00
#
freq[Hz];re:Trc1_S11;im:Trc1_S11;re:Trc2_S21;im:Trc2_S21;
2.400000000000000E+009;1.564446836709976E-001;6.040808185935020E-002;-1.839637407101691E-003;1.427555806003511E-003;
2.400166666666667E+009;1.565847992897034E-001;5.860134959220886E-002;-1.877376344054937E-003;1.595146371982992E-003;
2.400333333333334E+009;1.566002666950226E-001;5.654744803905487E-002;-1.663745963014662E-003;1.529274042695761E-003;
2.400500000000000E+009;1.569808572530747E-001;5.475903302431107E-002;-1.636489294469357E-003;1.556112780235708E-003;
2.400666666666667E+009;1.569778770208359E-001;5.241798982024193E-002;-1.590386964380741E-003;1.675713807344437E-003;
2.400833333333334E+009;1.574148833751679E-001;5.063055455684662E-002;-1.340414979495108E-003;1.567587722092867E-003;
2.401000000000000E+009;1.577492505311966E-001;4.848128184676170E-002;-1.290840562433004E-003;1.735037541948259E-003;
2.401166666666667E+009;1.581982374191284E-001;4.635680839419365E-002;-1.296749571338296E-003;1.770951552316546E-003;
2.401333333333334E+009;1.584735810756683E-001;4.418508708477020E-002;-1.310592866502702E-003;1.769861904904246E-003;
2.401500000000000E+009;1.592172682285309E-001;4.227466136217117E-002;-1.104950089938939E-003;1.754134544171393E-003;
2.401666666666667E+009;1.596936285495758E-001;4.022898524999619E-002;-9.206151589751244E-004;1.678142230957747E-003;
2.401833333333334E+009;1.602779775857925E-001;3.824627771973610E-002;-8.077230304479599E-004;1.570264226756990E-003;
2.402000000000000E+009;1.607885509729385E-001;3.639239445328713E-002;-7.564354455098510E-004;1.770674134604633E-003;
2.402166666666667E+009;1.616013050079346E-001;3.444200754165649E-002;-8.011313038878143E-004;1.603820943273604E-003;
2.402333333333334E+009;1.622196435928345E-001;3.276424854993820E-002;-5.145178292877972E-004;1.658286433666945E-003;
2.402500000000000E+009;1.634268313646317E-001;3.128034248948097E-002;-4.931148141622543E-004;1.512187649495900E-003;
2.402666666666667E+009;1.639545112848282E-001;2.961681038141251E-002;-3.830655477941036E-004;1.652150531299412E-003;
2.402833333333334E+009;1.650614589452744E-001;2.821164764463902E-002;-3.665797121357173E-004;1.431908225640655E-003;
2.403000000000000E+009;1.657985746860504E-001;2.661230787634850E-002;-1.939205394592136E-004;1.336427405476570E-003;
2.403166666666667E+009;1.667981147766113E-001;2.540842816233635E-002;-3.545636718627065E-004;1.266095787286758E-003;
2.403333333333334E+009;1.677114516496658E-001;2.399829030036926E-002;-1.638312533032149E-004;1.120249391533434E-003;
2.403500000000000E+009;1.685341447591782E-001;2.287282794713974E-002;-1.493561576353386E-004;1.190554932691157E-003;
2.403666666666667E+009;1.696041077375412E-001;2.165195532143116E-002;-1.044943419401534E-004;1.019862480461597E-003;
2.403833333333334E+009;1.705680787563324E-001;2.061362378299236E-002;-1.131877797888592E-004;9.664212120696902E-004;
2.404000000000000E+009;1.716591715812683E-001;1.981614343822002E-002;-1.668566142143391E-006;9.059234289452434E-004;
2.404166666666667E+009;1.725143641233444E-001;1.889719255268574E-002;-9.513644181424752E-005;7.128411671146751E-004;
2.404333333333334E+009;1.732690483331680E-001;1.806064695119858E-002;3.827785985777155E-005;8.019981323741376E-004;
2.404500000000000E+009;1.739926338195801E-001;1.719618216156960E-002;-1.334613625658676E-005;7.313441019505262E-004;
2.404666666666667E+009;1.748555153608322E-001;1.675097271800041E-002;6.497600224975031E-006;6.700790836475790E-004;
2.404833333333334E+009;1.758061498403549E-001;1.607815548777580E-002;-3.901874151779339E-005;6.938946316950023E-004;
2.405000000000000E+009;1.764889210462570E-001;1.555796433240175E-002;-1.967159187188372E-004;5.622854223474860E-004;
2.405166666666667E+009;1.770728677511215E-001;1.506190001964569E-002;-2.468880848027766E-004;6.530500249937177E-004;
2.405333333333334E+009;1.777093112468720E-001;1.457498874515295E-002;-1.273117668461055E-004;7.010606350377202E-004;
2.405500000000000E+009;1.782530099153519E-001;1.424413360655308E-002;-3.543929778970778E-004;4.633631906472147E-004;
2.405666666666667E+009;1.786705702543259E-001;1.400418113917112E-002;-2.698785392567515E-004;6.296625942923129E-004;
2.405833333333334E+009;1.789175420999527E-001;1.380649115890265E-002;-2.329444687347859E-004;4.420606128405780E-004;
2.406000000000000E+009;1.794479787349701E-001;1.338904071599245E-002;-3.475313715171069E-004;3.419601998757571E-004;
2.406166666666667E+009;1.794634610414505E-001;1.326294988393784E-002;-4.951091832481325E-004;4.685662570409477E-004;
2.406333333333334E+009;1.798738092184067E-001;1.291087828576565E-002;-3.962003393098712E-004;3.294821945019066E-004;
2.406500000000000E+009;1.799016892910004E-001;1.262608729302883E-002;-5.271135014481843E-004;3.813455114141107E-004;
2.406666666666667E+009;1.795683801174164E-001;1.233584899455309E-002;-5.142953014001250E-004;3.048013895750046E-004;
2.406833333333334E+009;1.798180490732193E-001;1.195783726871014E-002;-5.604925099760294E-004;4.108890425413847E-004;
2.407000000000000E+009;1.796714514493942E-001;1.150643825531006E-002;-5.455234204418957E-004;4.351888201199472E-004;
2.407166666666667E+009;1.794571876525879E-001;1.118260435760021E-002;-5.525770247913897E-004;3.136559389531612E-004;
2.407333333333334E+009;1.791113018989563E-001;1.061772648245096E-002;-5.635328125208616E-004;4.565719282254577E-004;
2.407500000000000E+009;1.786150783300400E-001;1.009289175271988E-002;-7.207462331280112E-004;4.697007534559816E-004;
2.407666666666667E+009;1.782584339380264E-001;9.476856328547001E-003;-5.105200689285994E-004;4.757064743898809E-004;
2.407833333333334E+009;1.777019798755646E-001;8.757634088397026E-003;-6.964829517528415E-004;5.243734340183437E-004;
2.408000000000000E+009;1.771616786718369E-001;7.857208140194416E-003;-6.762101547792554E-004;6.084396736696363E-004;
2.408166666666667E+009;1.766004711389542E-001;7.198846433311701E-003;-8.378726779483259E-004;5.688210367225111E-004;
2.408333333333334E+009;1.761738657951355E-001;6.099204998463392E-003;-8.686942746862769E-004;6.326615111902356E-004;
2.408500000000000E+009;1.753760725259781E-001;5.224784836173058E-003;-8.780749631114304E-004;5.903426208533347E-004;
2.408666666666667E+009;1.747092902660370E-001;4.011993296444416E-003;-9.354550857096911E-004;8.334860904142261E-004;
2.408833333333334E+009;1.740136742591858E-001;2.829932840541005E-003;-9.893227834254503E-004;5.554145318455994E-004;
2.409000000000000E+009;1.732732057571411E-001;1.635676366277039E-003;-7.775190169923008E-004;8.056846563704312E-004;
2.409166666666667E+009;1.728236973285675E-001;3.772491472773254E-004;-9.269978618249297E-004;7.795782876200974E-004;
2.409333333333334E+009;1.720680743455887E-001;-1.165118068456650E-003;-9.382242569699884E-004;8.416625205427408E-004;
2.409500000000000E+009;1.713889986276627E-001;-2.807864453643560E-003;-8.421514066867530E-004;9.356354712508619E-004;
2.409666666666667E+009;1.707108318805695E-001;-4.285180475562811E-003;-9.416207321919501E-004;8.850768208503723E-004;
2.409833333333334E+009;1.700986027717590E-001;-5.778687074780464E-003;-9.454129030928016E-004;9.865085594356060E-004;
2.410000000000000E+009;1.696568429470062E-001;-7.345127407461405E-003;-9.919644799083471E-004;9.874359238892794E-004;
2.410166666666667E+009;1.691946387290955E-001;-9.333365596830845E-003;-9.678900241851807E-004;1.178618869744241E-003;
2.410333333333334E+009;1.686147451400757E-001;-1.108799129724503E-002;-9.923756588250399E-004;1.024860306642950E-003;
2.410500000000000E+009;1.683575809001923E-001;-1.294297724962235E-002;-1.072469749487937E-003;1.059928210452199E-003;
2.410666666666667E+009;1.680552810430527E-001;-1.481120940297842E-002;-9.914039401337504E-004;1.222705701366067E-003;
2.410833333333334E+009;1.679651886224747E-001;-1.673365011811256E-002;-1.049016835168004E-003;1.308492152020335E-003;
2.411000000000000E+009;1.675668507814407E-001;-1.864602044224739E-002;-1.006344915367663E-003;1.251008943654597E-003;
2.411166666666667E+009;1.675011813640595E-001;-2.079711481928825E-002;-9.517661528661847E-004;1.271018991246820E-003;
2.411333333333334E+009;1.675024032592773E-001;-2.259202674031258E-002;-1.021728152409196E-003;1.343920594081283E-003;
2.411500000000000E+009;1.674218475818634E-001;-2.469162270426750E-002;-1.027963589876890E-003;1.346575911156833E-003;
2.411666666666667E+009;1.676892638206482E-001;-2.651700563728809E-002;-8.738932665437460E-004;1.476706122048199E-003;
2.411833333333334E+009;1.678399443626404E-001;-2.834748663008213E-002;-8.455775096081197E-004;1.597989350557327E-003;
2.412000000000000E+009;1.684013605117798E-001;-3.058000095188618E-002;-9.281181264668703E-004;1.728633069433272E-003;
2.412166666666667E+009;1.684821695089340E-001;-3.239614516496658E-002;-9.141433984041214E-004;1.833393471315503E-003;
2.412333333333334E+009;1.691304743289948E-001;-3.414614871144295E-002;-8.704377687536180E-004;1.860671327449381E-003;
2.412500000000000E+009;1.694265007972717E-001;-3.594926744699478E-002;-7.430896512232721E-004;1.794538111425936E-003;
2.412666666666667E+009;1.697878837585449E-001;-3.784731402993202E-002;-7.428568205796182E-004;1.942682545632124E-003;
2.412833333333334E+009;1.705431640148163E-001;-3.943087905645371E-002;-6.229006103239954E-004;2.130784327164292E-003;
2.413000000000000E+009;1.709499657154083E-001;-4.106107726693153E-002;-5.697344895452261E-004;2.088763751089573E-003;
2.413166666666667E+009;1.714798063039780E-001;-4.266221448779106E-002;-6.092822877690196E-004;2.272695535793901E-003;
2.413333333333334E+009;1.722014844417572E-001;-4.421794041991234E-002;-5.168251227587462E-004;2.211412880569696E-003;
2.413500000000000E+009;1.728522330522537E-001;-4.572407901287079E-002;-4.518877249211073E-004;2.482477808371186E-003;
2.413666666666667E+009;1.734474748373032E-001;-4.704286530613899E-002;-2.330056013306603E-004;2.449121093377471E-003;
2.413833333333334E+009;1.740489751100540E-001;-4.835118353366852E-002;-2.933688228949904E-004;2.361810300499201E-003;
2.414000000000000E+009;1.746278256177902E-001;-4.944822937250137E-002;-1.535342162242159E-004;2.653133356943727E-003;
2.414166666666667E+009;1.752706915140152E-001;-5.069253221154213E-002;8.923491259338334E-005;2.516226610168815E-003;
2.414333333333334E+009;1.758578866720200E-001;-5.165864899754524E-002;1.125011403928511E-004;2.645130967721343E-003;
2.414500000000000E+009;1.764974147081375E-001;-5.260169506072998E-002;2.662937913555652E-004;2.633769763633609E-003;
2.414666666666667E+009;1.769259870052338E-001;-5.346599966287613E-002;4.318321880418807E-004;2.588443225249648E-003;
2.414833333333334E+009;1.772941797971726E-001;-5.421381443738937E-002;5.235958960838616E-004;2.464601537212730E-003;
2.415000000000000E+009;1.775825768709183E-001;-5.489072948694229E-002;5.959479021839798E-004;2.656451193615794E-003;
2.415166666666667E+009;1.779881417751312E-001;-5.544598773121834E-002;9.214953170157969E-004;2.721430966630578E-003;
2.415333333333334E+009;1.783924102783203E-001;-5.607180669903755E-002;9.201814536936581E-004;2.547574229538441E-003;
2.415500000000000E+009;1.785436868667603E-001;-5.635714530944824E-002;1.164716668426991E-003;2.483388874679804E-003;
2.415666666666667E+009;1.786953657865524E-001;-5.670655146241188E-002;1.165445311926305E-003;2.499329857528210E-003;
2.415833333333334E+009;1.787776798009872E-001;-5.724841356277466E-002;1.238682540133596E-003;2.543659415096045E-003;
2.416000000000000E+009;1.785305589437485E-001;-5.750619247555733E-002;1.375817111693323E-003;2.347214845940471E-003;
2.416166666666667E+009;1.786853522062302E-001;-5.773937702178955E-002;1.458238693885505E-003;2.403598278760910E-003;
2.416333333333334E+009;1.783504784107208E-001;-5.800472199916840E-002;1.575384289026260E-003;2.287280512973666E-003;
2.416500000000000E+009;1.780575811862946E-001;-5.830195918679237E-002;1.675221952609718E-003;2.317595761269331E-003;
2.416666666666667E+009;1.775463819503784E-001;-5.837960541248322E-002;1.707108924165368E-003;2.101164078339934E-003;
2.416833333333334E+009;1.772274672985077E-001;-5.873366817831993E-002;1.940783928148449E-003;2.010741969570518E-003;
2.417000000000000E+009;1.765164583921433E-001;-5.893034860491753E-002;1.834248076193035E-003;1.845130347646773E-003;
2.417166666666667E+009;1.758088469505310E-001;-5.902877449989319E-002;2.016482874751091E-003;1.780726015567780E-003;
2.417333333333334E+009;1.750933229923248E-001;-5.928658321499825E-002;2.056693192571402E-003;1.777460449375212E-003;
2.417500000000000E+009;1.741855889558792E-001;-5.979300662875176E-002;2.078105695545673E-003;1.684302347712219E-003;
2.417666666666667E+009;1.735855340957642E-001;-5.978759378194809E-002;2.264865906909108E-003;1.566671417094767E-003;
2.417833333333334E+009;1.725780516862869E-001;-6.018432602286339E-002;2.062372630462050E-003;1.440917374566197E-003;
2.418000000000000E+009;1.714160144329071E-001;-6.071192771196365E-002;2.301664324477315E-003;1.448867493309081E-003;
2.418166666666667E+009;1.702756434679031E-001;-6.097792834043503E-002;2.346763852983713E-003;1.153649180196226E-003;
2.418333333333334E+009;1.693914830684662E-001;-6.164792552590370E-002;2.221630420535803E-003;1.158616039901972E-003;
2.418500000000000E+009;1.680996716022492E-001;-6.208588555455208E-002;2.356913872063160E-003;1.064918353222311E-003;
2.418666666666667E+009;1.669391989707947E-001;-6.280119717121124E-002;2.371368464082480E-003;9.218637715093792E-004;
2.418833333333334E+009;1.655200421810150E-001;-6.363169103860855E-002;2.363876905292273E-003;9.405649034306407E-004;
2.419000000000000E+009;1.642259210348129E-001;-6.427860260009766E-002;2.455473411828280E-003;7.973380852490664E-004;
2.419166666666667E+009;1.630998402833939E-001;-6.512932479381561E-002;2.297154394909740E-003;7.053251611068845E-004;
2.419333333333334E+009;1.616289168596268E-001;-6.582255661487579E-002;2.380397869274020E-003;5.127604235894978E-004;
2.419500000000000E+009;1.605628877878189E-001;-6.712689995765686E-002;2.393487608060241E-003;4.751416854560375E-004;
2.419666666666667E+009;1.595750302076340E-001;-6.824760884046555E-002;2.271365141496062E-003;4.482408985495567E-004;
2.419833333333334E+009;1.583105027675629E-001;-6.934959441423416E-002;2.291634678840637E-003;2.643097250256687E-004;
2.420000000000000E+009;1.571581661701202E-001;-7.067103683948517E-002;2.275286708027124E-003;1.675867388257757E-004;
2.420166666666667E+009;1.560950130224228E-001;-7.178609818220139E-002;2.286508912220597E-003;2.787795383483172E-004;
2.420333333333334E+009;1.551086604595184E-001;-7.335971295833588E-002;2.265057060867548E-003;1.922762457979843E-004;
2.420500000000000E+009;1.543461084365845E-001;-7.457471638917923E-002;2.215628977864981E-003;-7.006816304055974E-006;
2.420666666666667E+009;1.532903760671616E-001;-7.600105553865433E-002;2.240874571725726E-003;-6.476607086369768E-005;
2.420833333333334E+009;1.527293026447296E-001;-7.755453139543533E-002;2.197331050410867E-003;-1.188400638056919E-004;
2.421000000000000E+009;1.518825143575668E-001;-7.905317097902298E-002;2.085339277982712E-003;-2.045860746875405E-004;
2.421166666666667E+009;1.513455659151077E-001;-8.093085885047913E-002;2.103119622915983E-003;-1.865225203800947E-004;
2.421333333333334E+009;1.508458405733109E-001;-8.243756741285324E-002;1.978426938876510E-003;-2.761936630122364E-004;
2.421500000000000E+009;1.502347141504288E-001;-8.407481014728546E-002;2.058899728581309E-003;-4.174320201855153E-004;
2.421666666666667E+009;1.499856710433960E-001;-8.590196818113327E-002;1.967713003978133E-003;-3.326378064230084E-004;
2.421833333333334E+009;1.497332751750946E-001;-8.738879114389420E-002;1.883685356006026E-003;-4.574141057673842E-004;
2.422000000000000E+009;1.494739651679993E-001;-8.918739110231400E-002;1.785588683560491E-003;-4.332571406848729E-004;
2.422166666666667E+009;1.493972986936569E-001;-9.098571538925171E-002;1.739326165989041E-003;-5.303056677803397E-004;
2.422333333333334E+009;1.493648141622543E-001;-9.264397621154785E-002;1.629190635867417E-003;-5.184022593311966E-004;
2.422500000000000E+009;1.492995321750641E-001;-9.415205568075180E-002;1.787883928045631E-003;-5.909713217988610E-004;
2.422666666666667E+009;1.495057195425034E-001;-9.596659988164902E-002;1.678276690654457E-003;-4.844204231631011E-004;
2.422833333333334E+009;1.498814225196838E-001;-9.761963784694672E-002;1.535866409540176E-003;-5.635363631881774E-004;
2.423000000000000E+009;1.500793248414993E-001;-9.916767477989197E-002;1.748015172779560E-003;-5.219649756327272E-004;
2.423166666666667E+009;1.504616439342499E-001;-1.006520837545395E-001;1.526166917756200E-003;-5.049415631219745E-004;
2.423333333333334E+009;1.508685797452927E-001;-1.021102666854858E-001;1.550617511384189E-003;-5.820408114232123E-004;
2.423500000000000E+009;1.512798070907593E-001;-1.033672541379929E-001;1.738930703140795E-003;-6.141995545476675E-004;
2.423666666666667E+009;1.516009271144867E-001;-1.051129028201103E-001;1.632677041925490E-003;-6.094182608649135E-004;
2.423833333333334E+009;1.521478891372681E-001;-1.062841117382050E-001;1.561388256959617E-003;-6.737595540471375E-004;
2.424000000000000E+009;1.525703668594360E-001;-1.072341948747635E-001;1.455328660085797E-003;-6.468866486102343E-004;
2.424166666666667E+009;1.530765891075134E-001;-1.084517985582352E-001;1.440753112547100E-003;-6.497878348454833E-004;
2.424333333333334E+009;1.536079198122025E-001;-1.094089746475220E-001;1.657021348364651E-003;-5.757348262704909E-004;
2.424500000000000E+009;1.541537195444107E-001;-1.105259209871292E-001;1.447435352019966E-003;-7.592908223159611E-004;
2.424666666666667E+009;1.546508371829987E-001;-1.111815050244331E-001;1.497764140367508E-003;-7.177057559601963E-004;
2.424833333333334E+009;1.550910472869873E-001;-1.119880303740501E-001;1.454846351407468E-003;-7.264883024618030E-004;
2.425000000000000E+009;1.556089222431183E-001;-1.127832010388374E-001;1.496646553277969E-003;-7.278916309587658E-004;
2.425166666666667E+009;1.558166444301605E-001;-1.134647428989410E-001;1.389307086355984E-003;-8.680783212184906E-004;
2.425333333333334E+009;1.562604010105133E-001;-1.139768883585930E-001;1.473652548156679E-003;-9.650857537053525E-004;
2.425500000000000E+009;1.565563529729843E-001;-1.146339848637581E-001;1.232070033438504E-003;-1.006543985567987E-003;
2.425666666666667E+009;1.566177010536194E-001;-1.150595396757126E-001;1.249118242412806E-003;-1.019481103867292E-003;
2.425833333333334E+009;1.569388806819916E-001;-1.154192611575127E-001;1.127542811445892E-003;-1.114651793614030E-003;
2.426000000000000E+009;1.569371521472931E-001;-1.157686710357666E-001;1.204678090289235E-003;-1.005361555144191E-003;
2.426166666666667E+009;1.570567190647125E-001;-1.160675585269928E-001;1.246000756509602E-003;-1.123662223108113E-003;
2.426333333333334E+009;1.569377928972244E-001;-1.162320673465729E-001;1.166172674857080E-003;-1.022133626975119E-003;
2.426500000000000E+009;1.568320691585541E-001;-1.163901016116142E-001;1.127298222854734E-003;-1.207595109008253E-003;
2.426666666666667E+009;1.567714661359787E-001;-1.164034232497215E-001;9.555877768434584E-004;-1.146139926277101E-003;
2.426833333333334E+009;1.562679857015610E-001;-1.165691390633583E-001;9.166865493170917E-004;-1.193664618767798E-003;
2.427000000000000E+009;1.558781862258911E-001;-1.168233454227448E-001;9.529192466288805E-004;-1.174754928797483E-003;
2.427166666666667E+009;1.552595198154450E-001;-1.167955100536346E-001;1.028354046866298E-003;-1.137276063673198E-003;
2.427333333333334E+009;1.546803861856461E-001;-1.170279309153557E-001;8.856490021571517E-004;-1.246361993253231E-003;
2.427500000000000E+009;1.540873348712921E-001;-1.170717775821686E-001;9.106424404308200E-004;-1.147997216321528E-003;
2.427666666666667E+009;1.531761437654495E-001;-1.171686276793480E-001;7.901943172328174E-004;-1.187600893899798E-003;
2.427833333333334E+009;1.522209495306015E-001;-1.173868626356125E-001;7.403297349810600E-004;-1.258223899640143E-003;
