# Hz S RI R 50
2400000000.0000000000 0.168459340929985101897869981258 0.040749736130237579345703125000 0.002887063892558217048645019531 -0.002661361126229166984558105469 0 0 0 0 
2400166666.6666665077 0.169036209583282498458700615629 0.040128801017999649047851562500 0.002717127325013279914855957031 -0.002911746036261320114135742188 0 0 0 0 
2400333333.3333334923 0.169552475214004488845986884371 0.039153430610895156860351562500 0.002473823726177216009852743994 -0.002980087650939822196960449219 0 0 0 0 
2400500000.0000000000 0.170115649700164794921875000000 0.038366578519344329833984375000 0.002224033698439598083496093750 -0.002892335411161183877232216943 0 0 0 0 
2400666666.6666665077 0.170428827404975891113281250000 0.037521056830883033061940778907 0.002049751114100217819213867188 -0.003109420649707316918614052881 0 0 0 0 
2400833333.3333334923 0.170796394348144503494424384371 0.036800790578126907348632812500 0.001761451712809503078460693359 -0.003077665809541941122767783057 0 0 0 0 
2401000000.0000000000 0.171173095703125000000000000000 0.035892847925424582744557966407 0.001730392919853330092189169775 -0.003176717786118388175964355469 0 0 0 0 
2401166666.6666665077 0.171543687582015991210937500000 0.035033278167247772216796875000 0.001326905563473701910731650244 -0.002926999935880302949192666162 0 0 0 0 
2401333333.3333334923 0.171566486358642605880575615629 0.034086696803569786762277971093 0.001119623426347970962524414062 -0.002921538194641470909118652344 0 0 0 0 
2401500000.0000000000 0.171881437301635686676348768742 0.033296082168817520141601562500 0.001075470237992703914642333984 -0.002959597390145062966587685693 0 0 0 0 
2401666666.6666665077 0.171669170260429410079794365629 0.032624099403619773174245466407 0.000752107705920934677124023438 -0.002924228785559535026550292969 0 0 0 0 
2401833333.3333334923 0.171726688742637606521768134371 0.031595338135957717895507812500 0.000798747234512120485305786133 -0.002793032443150877952575683594 0 0 0 0 
2402000000.0000000000 0.171686336398124694824218750000 0.031026847660541530954381173046 0.000646948057692497968673706055 -0.002616698853671551184413290869 0 0 0 0 
2402166666.6666665077 0.171741902828216608245526231258 0.029872648417949679983118826954 0.000618579564616084098815917969 -0.002487335121259092850926064600 0 0 0 0 
2402333333.3333334923 0.171637967228889493087606865629 0.029223158955574039113978201954 0.000568614865187555551528930664 -0.002196026965975760979893349756 0 0 0 0 
2402500000.0000000000 0.171978905797004699707031250000 0.028154609724879268300989920704 0.000593009870499372482299804688 -0.002188473474234343008754111182 0 0 0 0 
2402666666.6666665077 0.171745285391807611663494981258 0.027382493019104000436803048046 0.000624947017058730125427246094 -0.002108391141518950896022177588 0 0 0 0 
2402833333.3333334923 0.171604543924331692794638115629 0.026379531249403950082799141796 0.000783019058872014284133911133 -0.002082577673718332810642861475 0 0 0 0 
2403000000.0000000000 0.171551495790481595138388115629 0.025220597162842750549316406250 0.000589820789173245429992675781 -0.001925959717482327981236123193 0 0 0 0 
2403166666.6666665077 0.171411067247390802581463731258 0.024078428745269778860071951954 0.000609175127465277910232543945 -0.002073462121188641028163290869 0 0 0 0 
2403333333.3333334923 0.171311929821968106368856865629 0.023139361292123801494557966407 0.000590638199355453252792358398 -0.001806404674425720951677631909 0 0 0 0 
2403500000.0000000000 0.171048477292060907561932481258 0.021883470937609669076939766796 0.000622320687398314476013183594 -0.001738713588565587997436523438 0 0 0 0 
2403666666.6666665077 0.170959278941154507736044365629 0.020514039322733879089355468750 0.000648381479550153017044067383 -0.001690004952251910946489643628 0 0 0 0 
2403833333.3333334923 0.170917138457298306564169365629 0.019295433536171909677525704296 0.000646314700134098529815673828 -0.001746925176121294932124472510 0 0 0 0 
2404000000.0000000000 0.170707419514656094650106865629 0.018169986084103580820103829296 0.000736154674086719751358032227 -0.001876930706202984073041606372 0 0 0 0 
2404166666.6666665077 0.170581132173538208007812500000 0.016764547675848010671595389454 0.000504003081005066633224487305 -0.001651287893764675097224570166 0 0 0 0 
2404333333.3333334923 0.170351564884185791015625000000 0.015488413162529470271100429102 0.000845705682877451181411743164 -0.001826242194510995908024453271 0 0 0 0 
2404500000.0000000000 0.170188158750534113128338731258 0.013886818662285809952705584180 0.000674592563882470130920410156 -0.001686106901615858078002929688 0 0 0 0 
2404666666.6666665077 0.170155614614486694335937500000 0.012586805969476699829101562500 0.000814855447970330715179443359 -0.001690409728325902981999062646 0 0 0 0 
2404833333.3333334923 0.170026853680610712249432481258 0.011004924774169920140276524023 0.000630297872703522443771362305 -0.001819485565647483088849711841 0 0 0 0 
2405000000.0000000000 0.170040741562843294998330634371 0.009461000561714172363281250000 0.000694588758051395416259765625 -0.001663987175561488108394003760 0 0 0 0 
2405166666.6666665077 0.169979602098464993575888115629 0.007955158129334449768066406250 0.000931161222979426383972167969 -0.001785031985491513989092182690 0 0 0 0 
2405333333.3333334923 0.169948950409889193435830634371 0.006365517154335975646972656250 0.000994390109553933143615722656 -0.001855384907685220024706196362 0 0 0 0 
2405500000.0000000000 0.169844657182693509200888115629 0.004859895911067724227905273438 0.000971690460573881864547729492 -0.001859475276432930989506386865 0 0 0 0 
2405666666.6666665077 0.169831424951553289215411268742 0.003134011756628752188441611182 0.000947820371948182582855224609 -0.001812008908018470027326274341 0 0 0 0 
2405833333.3333334923 0.169586107134819003006143134371 0.001464898581616580919978476416 0.001109151169657706997515034253 -0.001881366595625876946690224756 0 0 0 0 
2406000000.0000000000 0.169584527611732510665731865629 -0.000282251625321805477142333984 0.001171933021396398977992392432 -0.002187432255595922903773642432 0 0 0 0 
2406166666.6666665077 0.169385746121406610686932481258 -0.001855691894888878085492778247 0.001220952486619353077532124097 -0.002175920875743031935450888525 0 0 0 0 
2406333333.3333334923 0.169505417346954401214276231258 -0.003537538927048445181605673682 0.000998235656879842281341552734 -0.002281036926433444023132324219 0 0 0 0 
2406500000.0000000000 0.169163167476654108245526231258 -0.005219985730946063995361328125 0.000970861117821186780929565430 -0.002393660834059118790867470850 0 0 0 0 
2406666666.6666665077 0.169009059667587308029013115629 -0.006719278637319803237915039062 0.001196016790345310948015522534 -0.002362613799050449891331338037 0 0 0 0 
2406833333.3333334923 0.168943554162979098220986884371 -0.008296056650578975677490234375 0.001173857483081520037410117041 -0.002784318989142775969264365088 0 0 0 0 
2407000000.0000000000 0.168963894248008700271768134371 -0.009766913950443267822265625000 0.001211008056998253085492778247 -0.002794728614389895959141396631 0 0 0 0 
2407166666.6666665077 0.168868198990821810623330634371 -0.011238631792366509873359881055 0.001099132234230637984034872900 -0.003091722726821898980381631006 0 0 0 0 
2407333333.3333334923 0.168593987822532709319744981258 -0.012720409780740739649762538477 0.000952406378928571939468383789 -0.003181707812473177909851074219 0 0 0 0 
2407500000.0000000000 0.168542817234993008712606865629 -0.013906261883676050358782383398 0.000920838443562388420104980469 -0.003509283298626542091369628906 0 0 0 0 
2407666666.6666665077 0.168557241559028597732705634371 -0.015183070674538610630999180273 0.000861827633343636989593505859 -0.003604225115850567817687988281 0 0 0 0 
2407833333.3333334923 0.168208941817283602615518134371 -0.016411850228905681264857108204 0.000586660404223948717117309570 -0.003738317405804992155787802588 0 0 0 0 
2408000000.0000000000 0.168209999799728393554687500000 -0.017515525221824649465540701954 0.000416098569985479116439819336 -0.003916488029062747955322265625 0 0 0 0 
2408166666.6666665077 0.168151512742042513748330634371 -0.018417613580822951580007185157 0.000130928572616539895534515381 -0.004093082156032323837280273438 0 0 0 0 
2408333333.3333334923 0.168356940150260897537393134371 -0.019392946735024448740025704296 -0.000025144225219264629891122512 -0.004190588369965553283691406250 0 0 0 0 
2408500000.0000000000 0.168363317847251892089843750000 -0.020471217110753059387207031250 -0.000440083444118499810069483624 -0.004314342513680458068847656250 0 0 0 0 
2408666666.6666665077 0.168477267026901300628338731258 -0.021340906620025641704518903907 -0.000648658431600779294967651367 -0.004272671882063150405883789062 0 0 0 0 
2408833333.3333334923 0.168570473790168789962606865629 -0.022236442193388938903808593750 -0.000989028834737837314605712891 -0.004161054734140635404104902051 0 0 0 0 
2409000000.0000000000 0.168873235583305386642294365629 -0.023032153025269508361816406250 -0.001323372474871576049207377856 -0.004215025808662176132202148438 0 0 0 0 
2409166666.6666665077 0.169021636247634887695312500000 -0.023907111957669261587122733204 -0.001613514730706810951232910156 -0.004067418631166219711303710938 0 0 0 0 
2409333333.3333334923 0.169342577457428006271200615629 -0.024941734969615939748743826954 -0.001801636652089654965641640771 -0.003999524749815464019775390625 0 0 0 0 
2409500000.0000000000 0.169344767928123501876669365629 -0.025866823270916938781738281250 -0.001869994332082570032832480322 -0.003972271922975778579711914062 0 0 0 0 
2409666666.6666665077 0.169434815645217895507812500000 -0.026543684303760528564453125000 -0.002337969373911619186401367188 -0.003848281223326921896693564307 0 0 0 0 
2409833333.3333334923 0.169528529047966003417968750000 -0.027461523190140720712681954296 -0.002403163118287920951843261719 -0.003516961820423603057861328125 0 0 0 0 
2410000000.0000000000 0.169941186904907198806924384371 -0.028273019939661029470423514454 -0.002389590488746761842014931787 -0.003425357863306999206542968750 0 0 0 0 
2410166666.6666665077 0.169954076409339904785156250000 -0.029240613803267478942871093750 -0.002600901992991567091700888525 -0.003205412998795508904698037256 0 0 0 0 
2410333333.3333334923 0.169999077916145296951455634371 -0.030020020902156829833984375000 -0.002721902215853333906886435400 -0.003139956854283810095546103369 0 0 0 0 
2410500000.0000000000 0.169785961508750887771768134371 -0.030968170613050460815429687500 -0.002898503094911574883701943506 -0.002885537222027779059169150244 0 0 0 0 
2410666666.6666665077 0.169789567589759798904580634371 -0.031882461160421371459960937500 -0.002803478389978408813476562500 -0.002757048234343529181239462744 0 0 0 0 
2410833333.3333334923 0.169849753379821805099325615629 -0.032601550221443183208425153907 -0.003124878741800785064697265625 -0.002563593443483113808872841943 0 0 0 0 
2411000000.0000000000 0.169513508677482604980468750000 -0.033466622233390808105468750000 -0.003117738524451851844787597656 -0.002437339397147297859191894531 0 0 0 0 
2411166666.6666665077 0.169121474027633694747763115629 -0.034223899245262152934987653907 -0.003188786096870899200439453125 -0.002351647475734353065490722656 0 0 0 0 
2411333333.3333334923 0.168992757797241210937500000000 -0.034990008920431137084960937500 -0.003393099410459398789646767725 -0.002183170290663837952854775537 0 0 0 0 
2411500000.0000000000 0.168800681829452486892861884371 -0.036073695868253707885742187500 -0.003255282295867801146266318213 -0.001951894722878932952880859375 0 0 0 0 
2411666666.6666665077 0.168749570846557589431924384371 -0.036779269576072692871093750000 -0.003275553230196237997767783057 -0.001921238144859672026393271338 0 0 0 0 
2411833333.3333334923 0.168395057320594787597656250000 -0.037414502352476119995117187500 -0.003364894539117813110351562500 -0.001673957216553390026092529297 0 0 0 0 
2412000000.0000000000 0.168182134628295898437500000000 -0.038401126861572272563893903907 -0.003328001359477639198303222656 -0.001691953162662684917449951172 0 0 0 0 
2412166666.6666665077 0.167680323123931912521200615629 -0.039343100041151046752929687500 -0.003340572118759154839756631006 -0.001482418272644280953648232568 0 0 0 0 
2412333333.3333334923 0.167671680450439508636151231258 -0.040174428373575210571289062500 -0.003433800069615244865417480469 -0.001172442571260035037994384766 0 0 0 0 
2412500000.0000000000 0.167087912559509305099325615629 -0.040901161730289459228515625000 -0.003413332859054207801818847656 -0.001153666991740464947344135815 0 0 0 0 
2412666666.6666665077 0.166738599538803100585937500000 -0.042168688029050827026367187500 -0.003315440844744443893432617188 -0.001077782362699509100673056494 0 0 0 0 
2412833333.3333334923 0.166449785232544000823651231258 -0.042956065386533737182617187500 -0.003419428830966352982762002100 -0.000919057289138436317443847656 0 0 0 0 
2413000000.0000000000 0.165869578719139099121093750000 -0.043971516191959381103515625000 -0.003375087864696979956385947119 -0.000763090094551444053649902344 0 0 0 0 
2413166666.6666665077 0.165438711643218994140625000000 -0.044895257800817489624023437500 -0.003199698636308311982395791162 -0.000610463263001292943954467773 0 0 0 0 
2413333333.3333334923 0.164779469370842007736044365629 -0.045931130647659301757812500000 -0.003279616124927998022792197119 -0.000569172203540802001953125000 0 0 0 0 
2413500000.0000000000 0.164413973689079312423544365629 -0.046847909688949591899831403907 -0.003290639491751790046691894531 -0.000435277062933892011642456055 0 0 0 0 
2413666666.6666665077 0.163947269320488003829794365629 -0.048068426549434661865234375000 -0.003295204136520624160766601562 -0.000254120270255953073501586914 0 0 0 0 
2413833333.3333334923 0.163332954049110412597656250000 -0.048837240785360343242604841407 -0.003213596064597367806675576318 -0.000274536432698369026184082031 0 0 0 0 
2414000000.0000000000 0.162768855690956087967080634371 -0.049991939216852188110351562500 -0.002979168435558677153346396338 -0.000061246326367836445569992065 0 0 0 0 
2414166666.6666665077 0.162521988153457613845986884371 -0.050860602408647537231445312500 -0.002905586035922170119044638525 -0.000107138796010985997602185660 0 0 0 0 
2414333333.3333334923 0.161853879690170288085937500000 -0.051968459039926528930664062500 -0.003020213218405843214747763525 0.000109370739664882394388475961 0 0 0 0 
2414500000.0000000000 0.161801487207412691970986884371 -0.052931070327758789062500000000 -0.002943455241620541052577353369 0.000156270107254386002391260968 0 0 0 0 
2414666666.6666665077 0.161217257380485506912393134371 -0.053855404257774353027343750000 -0.002898452337831259207484579932 0.000177273672306910211413782941 0 0 0 0 
2414833333.3333334923 0.160920083522796603103799384371 -0.054988384246826171875000000000 -0.002869763411581515832188271631 0.000250665791099891120761317120 0 0 0 0 
2415000000.0000000000 0.160568684339523287674111884371 -0.056040346622467041015625000000 -0.002946193795651196999790810693 0.000205764634301885989591321402 0 0 0 0 
2415166666.6666665077 0.160360604524612399002236884371 -0.057070773094892501831054687500 -0.002746371552348136901855468750 0.000181734008947387310579577036 0 0 0 0 
2415333333.3333334923 0.160218626260757501800213731258 -0.058398790657520287250559221093 -0.002795882755890489058253622900 0.000082864949945360422134399414 0 0 0 0 
2415500000.0000000000 0.160006240010261507888955634371 -0.059512991458177573467214216407 -0.002759108552709221839904785156 0.000181392650119960308074951172 0 0 0 0 
2415666666.6666665077 0.159782692790031405349893134371 -0.060692675411701202392578125000 -0.002817338565364480018615722656 0.000258876942098140716552734375 0 0 0 0 
2415833333.3333334923 0.159672245383262606521768134371 -0.061820805072784416889231096093 -0.002954351715743542151210165869 0.000281699176412075812190455304 0 0 0 0 
2416000000.0000000000 0.159234195947647094726562500000 -0.063259445130825042724609375000 -0.002806982025504111809971474756 0.000237834174185991287231445312 0 0 0 0 
2416166666.6666665077 0.159302577376365689376669365629 -0.064542219042778015136718750000 -0.002941065700724720954895019531 0.000284617999568581581115722656 0 0 0 0 
2416333333.3333334923 0.158898860216140802581463731258 -0.065709874033927917480468750000 -0.002919640624895691871643066406 0.000367543223546817898750305176 0 0 0 0 
2416500000.0000000000 0.158704832196235712249432481258 -0.066992066800594329833984375000 -0.003082842100411653952357626807 0.000589932722505182027816772461 0 0 0 0 
2416666666.6666665077 0.158348530530929593185263115629 -0.068284727632999420166015625000 -0.003069320227950810952427529443 0.000564220303203910589218139648 0 0 0 0 
2416833333.3333334923 0.158245906233787508865518134371 -0.069636672735214233398437500000 -0.003156651044264436201808310400 0.000727705599274486303329467773 0 0 0 0 
2417000000.0000000000 0.157744333148002596756143134371 -0.070837460458278656005859375000 -0.003073025727644563154933310400 0.000932580558583140373229980469 0 0 0 0 
2417166666.6666665077 0.157528102397918701171875000000 -0.071759350597858428955078125000 -0.002903867512941360907313681494 0.001071366015821694894077920068 0 0 0 0 
2417333333.3333334923 0.157242611050605801681356865629 -0.072845868766307830810546875000 -0.003203108906745911078212118994 0.001168744056485593102098774487 0 0 0 0 
2417500000.0000000000 0.156914159655571011642294365629 -0.073997542262077331542968750000 -0.003065090859308838844299316406 0.001254770671948790983912802588 0 0 0 0 
2417666666.6666665077 0.156725510954856900314169365629 -0.074841335415840148925781250000 -0.002880916697904468016383505713 0.001327915582805871963500976562 0 0 0 0 
2417833333.3333334923 0.156507581472396906097088731258 -0.075651720166206359863281250000 -0.002809180645272136168238974463 0.001385562587529421069501567310 0 0 0 0 
2418000000.0000000000 0.156216904520988492111044365629 -0.076803527772426605224609375000 -0.003044015727937221960780478369 0.001505900523625314018846821362 0 0 0 0 
2418166666.6666665077 0.155998155474662808517294365629 -0.077479206025600433349609375000 -0.002759072929620742797851562500 0.001523637678474188067792582935 0 0 0 0 
2418333333.3333334923 0.155987367033958407303018134371 -0.078445918858051300048828125000 -0.002847205847501755194423056494 0.001497698482125997977015829932 0 0 0 0 
2418500000.0000000000 0.155588507652282687088174384371 -0.079191394150257110595703125000 -0.002707076026126741929295205225 0.001725369598716496987583779443 0 0 0 0 
2418666666.6666665077 0.155527859926223810393963731258 -0.080023050308227539062500000000 -0.002642693230882287025451660156 0.001863011741079390048980712891 0 0 0 0 
2418833333.3333334923 0.155052304267883300781250000000 -0.080958150327205657958984375000 -0.002506166230887175040004111182 0.001882505835965275981305766528 0 0 0 0 
2419000000.0000000000 0.154796048998832702636718750000 -0.081657826900482177734375000000 -0.002321761334314941926243447412 0.001849316642619669003727578271 0 0 0 0 
2419166666.6666665077 0.154563590884208706954794365629 -0.082299388945102691650390625000 -0.002477715723216534094569540869 0.001935482956469058990478515625 0 0 0 0 
2419333333.3333334923 0.154250249266624506194744981258 -0.082722172141075134277343750000 -0.002431899541988968849182128906 0.001991588389500976042506552588 0 0 0 0 
2419500000.0000000000 0.153993427753448486328125000000 -0.083584249019622802734375000000 -0.002191856736317276954650878906 0.002126493491232395172119140625 0 0 0 0 
2419666666.6666665077 0.153788641095161410232705634371 -0.084135115146636962890625000000 -0.002239917404949665069580078125 0.002345519838854670958278036963 0 0 0 0 
2419833333.3333334923 0.153347104787826510330361884371 -0.084690630435943603515625000000 -0.002145224250853062109706259619 0.002224182477220892906188964844 0 0 0 0 
