# Hz S RI R 50
2400000000.0000000000 0.168516591191291809082031250000 0.040678657591342932964284528907 0.003019803203642367882969521631 -0.002872321289032698111293173682 0 0 0 0 
2400166666.6666665077 0.169186055660247802734375000000 0.040162790566682822490651716407 0.002768437378108501000645302881 -0.002906290348619223074672079932 0 0 0 0 
2400333333.3333334923 0.169546246528625488281250000000 0.039212387055158622051198591407 0.002557819010689855055568076025 -0.003003288526087998910191201318 0 0 0 0 
2400500000.0000000000 0.170023098587989807128906250000 0.038307417184114463115651716407 0.002313732169568539099452353369 -0.003242257749661802811863564600 0 0 0 0 
2400666666.6666665077 0.170448139309883089920205634371 0.037321183830499649047851562500 0.002038819715380669073817587744 -0.003213773714378476142883300781 0 0 0 0 
2400833333.3333334923 0.170817181468010004241619981258 0.036651622503995902324636091407 0.001601240481249988079071044922 -0.002947846893221139907836914062 0 0 0 0 
2401000000.0000000000 0.171199008822441101074218750000 0.035832259804010391235351562500 0.001419466803781687996507954175 -0.003086283337324858145472861182 0 0 0 0 
2401166666.6666665077 0.171334207057952908614950615629 0.034908566623926162719726562500 0.001303171389736234924913715894 -0.003127705771476029916050576318 0 0 0 0 
2401333333.3333334923 0.171424448490142794510049384371 0.034073859453201287006418596093 0.001034814747981726906420063550 -0.003086775308474897904637002100 0 0 0 0 
2401500000.0000000000 0.171738237142562893966513115629 0.033320125192403793334960937500 0.000989010790362954139709472656 -0.002849563723430037932154990088 0 0 0 0 
2401666666.6666665077 0.171779066324234008789062500000 0.032618153840303421020507812500 0.000875882746186107397079467773 -0.002961226506158709959742880713 0 0 0 0 
2401833333.3333334923 0.171896308660507202148437500000 0.031623225659131996845285783593 0.000725418736692517995834350586 -0.002551232231780887083766318213 0 0 0 0 
2402000000.0000000000 0.171766102313995389083700615629 0.030944466590881351125696951954 0.000675084418617188930511474609 -0.002425434300675988197326660156 0 0 0 0 
2402166666.6666665077 0.171734243631362887283486884371 0.029909754171967509878138358204 0.000662445323541760444641113281 -0.002180515090003610090968466650 0 0 0 0 
2402333333.3333334923 0.171900123357772799392861884371 0.029075579717755321157435233204 0.000644042680505663156509399414 -0.002111919689923524856567382812 0 0 0 0 
2402500000.0000000000 0.171837031841278103927450615629 0.028204303234815601003626639454 0.000604736560489982366561889648 -0.001940726884640753052355122144 0 0 0 0 
2402666666.6666665077 0.171756997704505892654580634371 0.027285197749733928335169608204 0.000549510819837450981140136719 -0.002050597919151186943054199219 0 0 0 0 
2402833333.3333334923 0.171656414866447504241619981258 0.026183953508734699594517891796 0.000690672663040459156036376953 -0.001955624436959623856785439600 0 0 0 0 
2403000000.0000000000 0.171526312828063992599325615629 0.025337742641568180429478829296 0.000471251638373359983593541278 -0.001986125949770212173461914062 0 0 0 0 
2403166666.6666665077 0.171476528048515292068643134371 0.023974755778908729553222656250 0.000586715410463511943817138672 -0.001804601284675299904466938550 0 0 0 0 
2403333333.3333334923 0.171262681484222412109375000000 0.022929470986127849924107735546 0.000540846318472176790237426758 -0.001919535920023917935015034253 0 0 0 0 
2403500000.0000000000 0.170860126614570589920205634371 0.021953217685222629201868826954 0.000354038522345945184856969012 -0.001890731276944280104396201025 0 0 0 0 
2403666666.6666665077 0.170896157622337313553018134371 0.020547371357679370534876639454 0.000645831110887229442596435547 -0.001832728041335939927342080225 0 0 0 0 
2403833333.3333334923 0.170879021286964388748330634371 0.019229639321565631521204764454 0.000637228484265506267547607422 -0.001778604113496840000152587891 0 0 0 0 
2404000000.0000000000 0.170662939548492403885049384371 0.018073629587888721120814139454 0.000558050058316439390182495117 -0.001711892080493270917179726709 0 0 0 0 
2404166666.6666665077 0.170507028698921203613281250000 0.016872627660632130014439766796 0.000793761922977864742279052734 -0.001650114427320658943773579175 0 0 0 0 
2404333333.3333334923 0.170303359627723693847656250000 0.015472813509404659271240234375 0.000614775402937084436416625977 -0.001606721896678209087969135815 0 0 0 0 
2404500000.0000000000 0.170287519693374606033486884371 0.013838986866176130122174647852 0.000743380223866552114486694336 -0.001651874626986681981327675928 0 0 0 0 
2404666666.6666665077 0.170140102505683898925781250000 0.012483669444918630772600742773 0.000703056459315121173858642578 -0.001916187349706887982012104565 0 0 0 0 
2404833333.3333334923 0.170179843902587890625000000000 0.010921455919742580759068673046 0.000814097817055881023406982422 -0.001860070391558110930799174731 0 0 0 0 
2405000000.0000000000 0.169880867004394503494424384371 0.009601261466741561889648437500 0.000839954765979200601577758789 -0.001757588936015963988063193213 0 0 0 0 
2405166666.6666665077 0.169893205165863009353799384371 0.007941944524645805358886718750 0.000930552138015627861022949219 -0.001793081872165203094482421875 0 0 0 0 
2405333333.3333334923 0.169871926307678194900674384371 0.006111961789429187774658203125 0.000999447773210704326629638672 -0.001785449101589619896532368237 0 0 0 0 
2405500000.0000000000 0.169886946678161593338174384371 0.004700758028775453567504882812 0.000943627557717263698577880859 -0.001908057369291781945469521631 0 0 0 0 
2405666666.6666665077 0.169703140854835510253906250000 0.003180655883625150160548544775 0.001011543674394487900974892725 -0.001850317232310771942138671875 0 0 0 0 
2405833333.3333334923 0.169489845633506802657919365629 0.001452188473194838003871298682 0.000949395878706127405166625977 -0.002075280528515576882603310693 0 0 0 0 
2406000000.0000000000 0.169568985700607299804687500000 -0.000307115842588245922892969952 0.001199685735628009059308696216 -0.002119116019457579092738486182 0 0 0 0 
2406166666.6666665077 0.169323906302452087402343750000 -0.001865139929577708027483295972 0.001115726889111102061030722510 -0.002188277430832386016845703125 0 0 0 0 
2406333333.3333334923 0.169472083449363708496093750000 -0.003511751303449273109436035156 0.001304450561292469935176230322 -0.002256003441289066834690713037 0 0 0 0 
2406500000.0000000000 0.169220879673957796951455634371 -0.005102423019707202911376953125 0.001133966725319623947143554688 -0.002450419124215840859654091943 0 0 0 0 
2406666666.6666665077 0.168993026018142700195312500000 -0.006625406444072723388671875000 0.001099419197998940944671630859 -0.002484705997630953788757324219 0 0 0 0 
2406833333.3333334923 0.169053778052329989334268134371 -0.008300303481519222259521484375 0.001141961314715445041656494141 -0.002702252706512808799743652344 0 0 0 0 
2407000000.0000000000 0.168930441141128512283486884371 -0.009760661050677299499511718750 0.000976074195932596921920776367 -0.002875172765925527052638388525 0 0 0 0 
2407166666.6666665077 0.168865874409675598144531250000 -0.011186688207089899235735508398 0.001042677671648561954498291016 -0.002967173233628273010253906250 0 0 0 0 
2407333333.3333334923 0.168574571609497098068075615629 -0.012643540278077130753486834180 0.001094733132049440903904580225 -0.003059610258787869973423623193 0 0 0 0 
2407500000.0000000000 0.168558746576309204101562500000 -0.013832261785864830017089843750 0.000904083077330142259597778320 -0.003280494594946504072902060400 0 0 0 0 
2407666666.6666665077 0.168520167469978304763955634371 -0.015196148306131359445592110546 0.000778407731559127569198608398 -0.003469147020950912995579384912 0 0 0 0 
2407833333.3333334923 0.168268665671348599532919365629 -0.016477368772029880178431326954 0.000797219923697412014007568359 -0.003901477903127669854405068506 0 0 0 0 
2408000000.0000000000 0.168271690607070895095986884371 -0.017541214823722839355468750000 0.000375669013010338003009241925 -0.003946356941014528274536132812 0 0 0 0 
2408166666.6666665077 0.168130636215209988693075615629 -0.018459444865584370004674141796 0.000150262945680879110663813458 -0.004249354358762502670288085938 0 0 0 0 
2408333333.3333334923 0.168442547321319607833700615629 -0.019492842257022861135462576954 -0.000171432911884039613321581430 -0.004278412554413080215454101562 0 0 0 0 
2408500000.0000000000 0.168425798416137695312500000000 -0.020530087873339649545689766796 -0.000360236124834045821994227277 -0.004281176719814538955688476562 0 0 0 0 
2408666666.6666665077 0.168415799736976595779580634371 -0.021492367610335350036621093750 -0.000744315388146787881851196289 -0.004209359642118216428274823926 0 0 0 0 
2408833333.3333334923 0.168492779135704012771768134371 -0.022317437455058101308802420704 -0.001142133376561105034471821362 -0.004269444383680821332449628613 0 0 0 0 
2409000000.0000000000 0.168662920594215393066406250000 -0.023163411766290671611745466407 -0.001249331515282392935511923682 -0.004276344552636147412771894238 0 0 0 0 
2409166666.6666665077 0.169060602784156799316406250000 -0.024024479091167449951171875000 -0.001464567263610661029815673828 -0.004126162268221378326416015625 0 0 0 0 
2409333333.3333334923 0.169336169958114596267861884371 -0.024991773068904880178431326954 -0.001823998871259391090990376050 -0.003996147308498620986938476562 0 0 0 0 
2409500000.0000000000 0.169199705123901394943075615629 -0.025897318497300151479700858204 -0.002058214740827680067775107275 -0.003906436730176210403442382812 0 0 0 0 
2409666666.6666665077 0.169547080993652288238848768742 -0.026684071868658069265345389454 -0.002257814630866051153895712744 -0.003653418971225618882420205225 0 0 0 0 
2409833333.3333334923 0.169556260108947809417401231258 -0.027474474161863330495814139454 -0.002311408752575517134425497900 -0.003558770986273885206935263525 0 0 0 0 
2410000000.0000000000 0.169759854674339294433593750000 -0.028436366468667980539342110546 -0.002584492554888128800633095850 -0.003295407397672533988952636719 0 0 0 0 
2410166666.6666665077 0.169868901371955899337606865629 -0.029354967176914218557337576954 -0.002563586691394447846653603662 -0.003345495089888573126551962744 0 0 0 0 
2410333333.3333334923 0.169701874256134005447549384371 -0.030127821490168571472167968750 -0.002768896985799074172973632812 -0.003077370580285788016078329932 0 0 0 0 
2410500000.0000000000 0.169794574379920987228231865629 -0.031005084514617919921875000000 -0.002744359895586967901942587744 -0.002937594428658484978916787256 0 0 0 0 
2410666666.6666665077 0.169732511043548611739950615629 -0.031907528638839721679687500000 -0.002984727500006556944606161963 -0.002666944405063987211940146338 0 0 0 0 
2410833333.3333334923 0.169760137796402005294638115629 -0.032689969986677169799804687500 -0.003177919192239642143249511719 -0.002509710611775517897364951025 0 0 0 0 
2411000000.0000000000 0.169714376330375699142294365629 -0.033388566225767142559011091407 -0.003110964549705386161804199219 -0.002342907013371586799621582031 0 0 0 0 
2411166666.6666665077 0.169411033391952486892861884371 -0.034300185739994049072265625000 -0.003194740274921060042140341650 -0.002281938446685671806335449219 0 0 0 0 
2411333333.3333334923 0.169184669852256802657919365629 -0.034984152764081961894948591407 -0.003282452933490275902989052881 -0.002150628482922912077662802588 0 0 0 0 
2411500000.0000000000 0.168995097279548700530682481258 -0.036093682050704962993581403907 -0.003411971498280764059779501807 -0.002008668845519423918483115088 0 0 0 0 
2411666666.6666665077 0.168864607810974093338174384371 -0.036693044006824493408203125000 -0.003388053970411419868469238281 -0.001843270380049943923950195312 0 0 0 0 
2411833333.3333334923 0.168525159358978299239950615629 -0.037419438362121582031250000000 -0.003309092251583933830261230469 -0.001778051489964127974269247900 0 0 0 0 
2412000000.0000000000 0.168234467506408691406250000000 -0.038455646485090262676198591407 -0.003175796940922737121582031250 -0.001466877991333604075788188403 0 0 0 0 
2412166666.6666665077 0.167852014303207397460937500000 -0.039398800581693649291992187500 -0.003311249194666742844822548975 -0.001483347965404391071916889722 0 0 0 0 
2412333333.3333334923 0.167701140046119689941406250000 -0.039948280900716781616210937500 -0.003376428270712494850158691406 -0.001354140345938503959058452075 0 0 0 0 
2412500000.0000000000 0.167406931519508389571981865629 -0.040811866521835327148437500000 -0.003493209602311253981349326025 -0.001164717134088278033612895435 0 0 0 0 
2412666666.6666665077 0.166838988661766107757244981258 -0.042133327573537826538085937500 -0.003395643318071960969212197412 -0.001116490806452929973602294922 0 0 0 0 
2412833333.3333334923 0.166417330503463800628338731258 -0.043029777705669403076171875000 -0.003514990676194428963902138818 -0.000879955769050866365432739258 0 0 0 0 
2413000000.0000000000 0.166037276387214688400106865629 -0.043979212641716003417968750000 -0.003392355749383569197413779150 -0.000818515953142195940017700195 0 0 0 0 
2413166666.6666665077 0.165360867977142306228799384371 -0.044934112578630447387695312500 -0.003345005912706255912780761719 -0.000650898204185068607330322266 0 0 0 0 
2413333333.3333334923 0.164777562022209195236044365629 -0.046083882451057427143137346093 -0.003268479136750102043151855469 -0.000498350709676742553710937500 0 0 0 0 
2413500000.0000000000 0.164543345570564297775106865629 -0.047034244984388351440429687500 -0.003269035369157791137695312500 -0.000502978917211294174194335938 0 0 0 0 
2413666666.6666665077 0.164041116833686800857705634371 -0.048081096261739730834960937500 -0.003185593057423830032348632812 -0.000349439680576324517100733624 0 0 0 0 
2413833333.3333334923 0.163398742675781305511151231258 -0.049056895077228553081472028907 -0.003171546850353478951695107568 -0.000263318419456481879383641376 0 0 0 0 
2414000000.0000000000 0.162848681211471613128338731258 -0.049897786229848861694335937500 -0.003048496786504983901977539062 -0.000154881170601583990171709604 0 0 0 0 
2414166666.6666665077 0.162411600351333590408486884371 -0.050903536379337310791015625000 -0.003051029518246651129481650244 -0.000192408246221020790651598520 0 0 0 0 
2414333333.3333334923 0.162067413330078097244424384371 -0.051951192319393157958984375000 -0.003074494190514088110682822119 -0.000040562819776823737401554720 0 0 0 0 
2414500000.0000000000 0.161780685186386108398437500000 -0.053046010434627532958984375000 -0.002777963876724243164062500000 -0.000053305120673030621629168851 0 0 0 0 
2414666666.6666665077 0.161190509796142605880575615629 -0.053963642567396157001535783593 -0.002850173506885766983032226562 0.000034223528928123421292712553 0 0 0 0 
2414833333.3333334923 0.160882115364074707031250000000 -0.055182680487632751464843750000 -0.002740635536611080169677734375 0.000174103784956969293669024057 0 0 0 0 
2415000000.0000000000 0.160596445202827509124432481258 -0.056087557226419448852539062500 -0.002790902974084020094630576025 0.000039638136513531208038330078 0 0 0 0 
2415166666.6666665077 0.160482317209243802169638115629 -0.057269494980573647235910783593 -0.002784485463052988052368164062 0.000056483837397536262869834900 0 0 0 0 
2415333333.3333334923 0.160329267382621792892294365629 -0.058404702693223953247070312500 -0.002695456380024551911595009912 0.000178652568138204487875261850 0 0 0 0 
2415500000.0000000000 0.159918382763862609863281250000 -0.059626225382089621807057966407 -0.002881080610677599906921386719 0.000130732543766498592778882437 0 0 0 0 
2415666666.6666665077 0.159784868359565707107705634371 -0.060833532363176352764089216407 -0.002880804473534225983860634912 0.000136759903398342403486528940 0 0 0 0 
2415833333.3333334923 0.159572333097457913497763115629 -0.061983186751604080200195312500 -0.002980816178023815155029296875 0.000199739894014783203601837158 0 0 0 0 
2416000000.0000000000 0.159323379397392300704794365629 -0.063326217234134674072265625000 -0.002842774149030447006225585938 0.000371533038560301119655054913 0 0 0 0 
2416166666.6666665077 0.159379795193672207931356865629 -0.064587764441967010498046875000 -0.002874003490433096885681152344 0.000334627489792182987362462177 0 0 0 0 
2416333333.3333334923 0.159037977457046508789062500000 -0.065710604190826416015625000000 -0.003049734747037291960475302588 0.000249382079346105510562342511 0 0 0 0 
2416500000.0000000000 0.158720925450325012207031250000 -0.067109279334545135498046875000 -0.003123220521956682205200195312 0.000404304213589057326316833496 0 0 0 0 
2416666666.6666665077 0.158417671918868990799111884371 -0.068376690149307250976562500000 -0.003085855394601821899414062500 0.000587572983931750059127807617 0 0 0 0 
2416833333.3333334923 0.158222809433937100509481865629 -0.069675236940383911132812500000 -0.003130223602056502862217568506 0.000696903909556567668914794922 0 0 0 0 
2417000000.0000000000 0.157726854085922213455361884371 -0.070816352963447570800781250000 -0.003084552939981222152709960938 0.000862885441165417432785034180 0 0 0 0 
2417166666.6666665077 0.157456159591674804687500000000 -0.071920342743396759033203125000 -0.003049697959795594215393066406 0.001006404054351150989532470703 0 0 0 0 
2417333333.3333334923 0.157221689820289611816406250000 -0.072835065424442291259765625000 -0.002951603615656495094299316406 0.001160745625384151935577392578 0 0 0 0 
2417500000.0000000000 0.156870767474174499511718750000 -0.074136830866336822509765625000 -0.003062043571844696998596191406 0.001228340435773134014726948315 0 0 0 0 
2417666666.6666665077 0.156677022576332092285156250000 -0.074778847396373748779296875000 -0.002872152253985404968261718750 0.001314105698838829994201660156 0 0 0 0 
2417833333.3333334923 0.156360700726509094238281250000 -0.075737699866294860839843750000 -0.002896958729252219200134277344 0.001403263187967241027234721606 0 0 0 0 
2418000000.0000000000 0.155969247221946688553018134371 -0.076866969466209411621093750000 -0.002681404352188109917881631006 0.001506760716438294107552553491 0 0 0 0 
2418166666.6666665077 0.155927717685699490646200615629 -0.077476777136325836181640625000 -0.002755320863798261122462607275 0.001753826159983872933628701318 0 0 0 0 
2418333333.3333334923 0.155920863151550292968750000000 -0.078438736498355865478515625000 -0.002661539241671562194824218750 0.001693090656772255897521972656 0 0 0 0 
2418500000.0000000000 0.155600428581237792968750000000 -0.079196669161319732666015625000 -0.002544726943597197966334677588 0.001798979006707668087602924878 0 0 0 0 
2418666666.6666665077 0.155477046966552706619424384371 -0.079958237707614898681640625000 -0.002688027219846845106837607275 0.001942323870025574944139790112 0 0 0 0 
2418833333.3333334923 0.155016452074050903320312500000 -0.080751381814479827880859375000 -0.002646133536472917036769247900 0.001887923455797136046765971606 0 0 0 0 
2419000000.0000000000 0.154797375202179010589276231258 -0.081438697874546051025390625000 -0.002378541510552167892456054688 0.001915088621899486021754599463 0 0 0 0 
2419166666.6666665077 0.154472634196281405349893134371 -0.082223072648048400878906250000 -0.002322906628251076178309775244 0.002172238659113645987269736182 0 0 0 0 
2419333333.3333334923 0.154126375913619995117187500000 -0.082679994404315948486328125000 -0.002414961811155080795288085938 0.002098151016980410055873251807 0 0 0 0 
2419500000.0000000000 0.153851091861724909026776231258 -0.083578124642372131347656250000 -0.002316043246537446975708007812 0.002076372271403669877293252100 0 0 0 0 
2419666666.6666665077 0.153826147317886408050213731258 -0.084127590060234069824218750000 -0.002239816822111607031581259619 0.002254137769341468811035156250 0 0 0 0 
2419833333.3333334923 0.153330937027931213378906250000 -0.084635861217975616455078125000 -0.002229037694633007049560546875 0.002240417758002876801731728662 0 0 0 0 
