# Version 1.00
#
freq[Hz];re:Trc1_S11;im:Trc1_S11;re:Trc2_S21;im:Trc2_S21;
2.400000000000000E+009;1.551107317209244E-001;1.070857718586922E-001;1.459804479964078E-003;4.727146122604609E-003;
2.400166666666667E+009;1.549040377140045E-001;1.045983955264092E-001;1.461306004785001E-003;4.925446584820747E-003;
2.400333333333334E+009;1.549971699714661E-001;1.023227944970131E-001;1.725606620311737E-003;4.857416264712811E-003;
2.400500000000000E+009;1.548343449831009E-001;9.963923692703247E-002;1.607628422789276E-003;4.901498090475798E-003;
2.400666666666667E+009;1.549690365791321E-001;9.687378257513046E-002;1.697309548035264E-003;4.915772471576929E-003;
2.400833333333334E+009;1.549889445304871E-001;9.427483379840851E-002;1.857879222370684E-003;4.965457599610090E-003;
2.401000000000000E+009;1.550659090280533E-001;9.120431542396545E-002;2.032858319580555E-003;5.210042931139469E-003;
2.401166666666667E+009;1.551780253648758E-001;8.868404477834702E-002;2.187970327213407E-003;5.078037735074759E-003;
2.401333333333334E+009;1.554029881954193E-001;8.566828817129135E-002;2.558534266427159E-003;5.116560030728579E-003;
2.401500000000000E+009;1.558810174465179E-001;8.287263661623001E-002;2.783438656479120E-003;5.307917483150959E-003;
2.401666666666667E+009;1.563956439495087E-001;7.986392825841904E-002;3.095849184319377E-003;5.292019806802273E-003;
2.401833333333334E+009;1.566639691591263E-001;7.723236829042435E-002;3.441325156018138E-003;5.146909970790148E-003;
2.402000000000000E+009;1.577078402042389E-001;7.432307302951813E-002;3.872564062476158E-003;5.078348796814680E-003;
2.402166666666667E+009;1.585374921560288E-001;7.185637205839157E-002;4.026295617222786E-003;4.781568422913551E-003;
2.402333333333334E+009;1.593182832002640E-001;6.900401413440704E-002;4.377698991447687E-003;4.555523861199617E-003;
2.402500000000000E+009;1.604068279266357E-001;6.661163270473480E-002;4.496780689805746E-003;4.234343301504850E-003;
2.402666666666667E+009;1.616260707378388E-001;6.424275040626526E-002;4.816602449864149E-003;3.982209600508213E-003;
2.402833333333334E+009;1.629652976989746E-001;6.179788708686829E-002;4.702650010585785E-003;3.442714456468821E-003;
2.403000000000000E+009;1.643950641155243E-001;5.941487476229668E-002;4.672737326472998E-003;3.143939655274153E-003;
2.403166666666667E+009;1.660616099834442E-001;5.723398551344872E-002;4.841770511120558E-003;3.140138927847147E-003;
2.403333333333334E+009;1.675243079662323E-001;5.513567477464676E-002;4.942582454532385E-003;2.916780998930335E-003;
2.403500000000000E+009;1.691982001066208E-001;5.314802750945091E-002;4.846157040446997E-003;2.523160306736827E-003;
2.403666666666667E+009;1.709351539611816E-001;5.109772831201553E-002;4.796245601028204E-003;2.175234956666827E-003;
2.403833333333334E+009;1.726701706647873E-001;4.920732602477074E-002;4.771230742335320E-003;2.071390859782696E-003;
2.404000000000000E+009;1.741526573896408E-001;4.750524833798409E-002;4.551282618194819E-003;1.977925421670079E-003;
2.404166666666667E+009;1.758874207735062E-001;4.606905952095985E-002;4.728486761450768E-003;1.930685248225927E-003;
2.404333333333334E+009;1.775643974542618E-001;4.443102329969406E-002;4.620166961103678E-003;1.764083397574723E-003;
2.404500000000000E+009;1.792626976966858E-001;4.318468645215035E-002;4.626176320016384E-003;1.739211031235755E-003;
2.404666666666667E+009;1.808922737836838E-001;4.201763868331909E-002;4.592477343976498E-003;1.435030018910766E-003;
2.404833333333334E+009;1.826544702053070E-001;4.103488475084305E-002;4.685678053647280E-003;1.435230486094952E-003;
2.405000000000000E+009;1.838968098163605E-001;4.044714570045471E-002;4.588631447404623E-003;1.312236301600933E-003;
2.405166666666667E+009;1.856204420328140E-001;3.964193537831307E-002;4.787778481841087E-003;1.073602703399956E-003;
2.405333333333334E+009;1.869045943021774E-001;3.897948563098908E-002;4.810890182852745E-003;1.043818308971822E-003;
2.405500000000000E+009;1.882831901311874E-001;3.865382820367813E-002;4.803495481610298E-003;8.941779378801584E-004;
2.405666666666667E+009;1.896853148937225E-001;3.823417797684670E-002;4.717921372503042E-003;8.116773096844554E-004;
2.405833333333334E+009;1.908396482467651E-001;3.806240484118462E-002;4.782602656632662E-003;7.252760115079582E-004;
2.406000000000000E+009;1.918316781520844E-001;3.777447715401650E-002;4.777215421199799E-003;5.968873738311231E-004;
2.406166666666667E+009;1.928468942642212E-001;3.773861005902290E-002;4.850660450756550E-003;2.957435499411076E-004;
2.406333333333334E+009;1.938021481037140E-001;3.782721981406212E-002;4.866493865847588E-003;9.826038876781240E-005;
2.406500000000000E+009;1.946051716804504E-001;3.770805895328522E-002;4.756165668368340E-003;9.567767119733617E-005;
2.406666666666667E+009;1.952338665723801E-001;3.792517632246018E-002;4.891577176749706E-003;-3.758020829991438E-005;
2.406833333333334E+009;1.958260387182236E-001;3.788129612803459E-002;4.767979029566050E-003;-2.810671285260469E-004;
2.407000000000000E+009;1.960127204656601E-001;3.819509223103523E-002;4.743273369967938E-003;-3.299133968539536E-004;
2.407166666666667E+009;1.964882463216782E-001;3.802094981074333E-002;4.671401809900999E-003;-4.993530455976725E-004;
2.407333333333334E+009;1.964302062988281E-001;3.823395818471909E-002;4.596320912241936E-003;-7.186200236901641E-004;
2.407500000000000E+009;1.964342594146729E-001;3.843026235699654E-002;4.707219079136848E-003;-8.712962153367698E-004;
2.407666666666667E+009;1.963660269975662E-001;3.825075179338455E-002;4.683000501245260E-003;-9.352221386507154E-004;
2.407833333333334E+009;1.958712041378021E-001;3.814522922039032E-002;4.614462144672871E-003;-1.105868257582188E-003;
2.408000000000000E+009;1.960428804159164E-001;3.808132186532021E-002;4.396742209792137E-003;-1.167417853139341E-003;
2.408166666666667E+009;1.953900605440140E-001;3.784997016191483E-002;4.491247236728668E-003;-1.185728935524821E-003;
2.408333333333334E+009;1.949697583913803E-001;3.730081766843796E-002;4.334709141403437E-003;-1.518025994300842E-003;
2.408500000000000E+009;1.942655891180039E-001;3.694844245910645E-002;4.394739400595427E-003;-1.426778151653707E-003;
2.408666666666667E+009;1.936196833848953E-001;3.647702187299728E-002;4.264350514858961E-003;-1.572256325744093E-003;
2.408833333333334E+009;1.929820477962494E-001;3.570090234279633E-002;4.193468019366264E-003;-1.613978878594935E-003;
2.409000000000000E+009;1.920831054449081E-001;3.478349000215530E-002;4.112720955163240E-003;-1.898087444715202E-003;
2.409166666666667E+009;1.911544799804688E-001;3.381721675395966E-002;4.070009570568800E-003;-1.931235194206238E-003;
2.409333333333334E+009;1.902781277894974E-001;3.279596567153931E-002;3.979640547186136E-003;-2.130723092705011E-003;
2.409500000000000E+009;1.893032789230347E-001;3.153773397207260E-002;3.870512358844280E-003;-2.186349593102932E-003;
2.409666666666667E+009;1.881334632635117E-001;2.988062612712383E-002;3.787535475566983E-003;-2.191434847190976E-003;
2.409833333333334E+009;1.870713084936142E-001;2.848889678716660E-002;3.693537553772330E-003;-2.431753091514111E-003;
2.410000000000000E+009;1.861927509307861E-001;2.670601569116116E-002;3.516715951263905E-003;-2.549078315496445E-003;
2.410166666666667E+009;1.851705163717270E-001;2.498272620141506E-002;3.520350670441985E-003;-2.462007803842425E-003;
2.410333333333334E+009;1.842111945152283E-001;2.305039204657078E-002;3.368880599737167E-003;-2.488189842551947E-003;
2.410500000000000E+009;1.831811368465424E-001;2.112408541142941E-002;3.323974320665002E-003;-2.496985718607903E-003;
2.410666666666667E+009;1.822392642498016E-001;1.886081323027611E-002;3.082808339968324E-003;-2.532223705202341E-003;
2.410833333333334E+009;1.815161705017090E-001;1.645039580762386E-002;2.991363639011979E-003;-2.442675875499845E-003;
2.411000000000000E+009;1.808820068836212E-001;1.430073194205761E-002;3.070604288950563E-003;-2.542577916756272E-003;
2.411166666666667E+009;1.800809949636459E-001;1.222546305507422E-002;3.092891769483686E-003;-2.508071716874838E-003;
2.411333333333334E+009;1.794945895671845E-001;9.635842405259609E-003;3.045422723516822E-003;-2.627240261062980E-003;
2.411500000000000E+009;1.790021657943726E-001;7.196681108325720E-003;2.969993744045496E-003;-2.705124672502279E-003;
2.411666666666667E+009;1.789535582065582E-001;4.939405713230372E-003;2.910304581746459E-003;-2.720333635807037E-003;
2.411833333333334E+009;1.784609258174896E-001;2.505452604964376E-003;3.111245576292276E-003;-2.799310255795717E-003;
2.412000000000000E+009;1.787271499633789E-001;-1.181732586701401E-004;3.148022107779980E-003;-2.790103666484356E-003;
2.412166666666667E+009;1.786951124668121E-001;-2.402803627774119E-003;2.960214158520103E-003;-2.828123513609171E-003;
2.412333333333334E+009;1.790348887443543E-001;-5.031519569456577E-003;2.864978974685073E-003;-3.009926294907928E-003;
2.412500000000000E+009;1.795306056737900E-001;-7.503748405724764E-003;3.060985356569290E-003;-3.159621031954885E-003;
2.412666666666667E+009;1.798990666866303E-001;-1.007371023297310E-002;3.015482565388084E-003;-3.289040643721819E-003;
2.412833333333334E+009;1.806287914514542E-001;-1.241788081824780E-002;2.839956432580948E-003;-3.314207773655653E-003;
2.413000000000000E+009;1.813946068286896E-001;-1.486709062010050E-002;2.890238771215081E-003;-3.457905491814017E-003;
2.413166666666667E+009;1.821428835391998E-001;-1.712441258132458E-002;2.698248252272606E-003;-3.797261510044336E-003;
2.413333333333334E+009;1.832304596900940E-001;-1.944398321211338E-002;2.601558808237314E-003;-3.877982031553984E-003;
2.413500000000000E+009;1.839955300092697E-001;-2.182460576295853E-002;2.576252445578575E-003;-3.984145354479551E-003;
2.413666666666667E+009;1.851212084293366E-001;-2.402826026082039E-002;2.227858873084188E-003;-4.156824667006731E-003;
2.413833333333334E+009;1.863596886396408E-001;-2.598749659955502E-002;2.195650245994330E-003;-4.274594131857157E-003;
2.414000000000000E+009;1.873702108860016E-001;-2.796817570924759E-002;2.138176932930946E-003;-4.552477505058050E-003;
2.414166666666667E+009;1.886472404003143E-001;-2.970268577337265E-002;1.882004784420133E-003;-4.410990048199892E-003;
2.414333333333334E+009;1.897629350423813E-001;-3.173924610018730E-002;1.690129982307553E-003;-4.671310074627399E-003;
2.414500000000000E+009;1.910149306058884E-001;-3.324135020375252E-002;1.399605767801404E-003;-4.716601222753525E-003;
2.414666666666667E+009;1.921210736036301E-001;-3.472449257969856E-002;1.267849584110081E-003;-4.710994660854340E-003;
2.414833333333334E+009;1.932526975870132E-001;-3.613998740911484E-002;1.133724930696189E-003;-4.789751954376698E-003;
2.415000000000000E+009;1.945425570011139E-001;-3.747291490435600E-002;6.900347652845085E-004;-4.842980764806271E-003;
2.415166666666667E+009;1.957241445779800E-001;-3.858014196157455E-002;6.943517364561558E-004;-4.769275430589914E-003;
2.415333333333334E+009;1.968861371278763E-001;-3.938521817326546E-002;3.018063434865326E-004;-4.818168934434652E-003;
2.415500000000000E+009;1.977888941764832E-001;-4.016073793172836E-002;1.947401178767905E-004;-4.771302454173565E-003;
2.415666666666667E+009;1.988722681999207E-001;-4.106149822473526E-002;1.005802841973491E-004;-4.639696329832077E-003;
2.415833333333334E+009;1.998788416385651E-001;-4.163705930113792E-002;-1.134036647272296E-004;-4.590665455907583E-003;
2.416000000000000E+009;2.004955261945725E-001;-4.214749112725258E-002;-3.047021746169776E-004;-4.656516946852207E-003;
2.416166666666667E+009;2.012002617120743E-001;-4.276711121201515E-002;-4.531556623987854E-004;-4.647685680538416E-003;
2.416333333333334E+009;2.018094360828400E-001;-4.312740638852119E-002;-5.393480532802641E-004;-4.633646458387375E-003;
2.416500000000000E+009;2.023100554943085E-001;-4.325998574495316E-002;-7.465922972187400E-004;-4.523943178355694E-003;
2.416666666666667E+009;2.026447951793671E-001;-4.359826818108559E-002;-7.113322499208152E-004;-4.534272011369467E-003;
2.416833333333334E+009;2.027691453695297E-001;-4.346094280481339E-002;-9.357992094010115E-004;-4.448897670954466E-003;
2.417000000000000E+009;2.027575671672821E-001;-4.358428716659546E-002;-1.029290142469108E-003;-4.410366527736187E-003;
2.417166666666667E+009;2.025934606790543E-001;-4.355916380882263E-002;-1.339171081781387E-003;-4.342673346400261E-003;
2.417333333333334E+009;2.024010568857193E-001;-4.332024976611137E-002;-1.291725551709533E-003;-4.251298494637013E-003;
2.417500000000000E+009;2.020290493965149E-001;-4.327429458498955E-002;-1.474640564993024E-003;-4.244251642376185E-003;
2.417666666666667E+009;2.013905644416809E-001;-4.300602152943611E-002;-1.660355832427740E-003;-4.214730579406023E-003;
2.417833333333334E+009;2.010173201560974E-001;-4.287219047546387E-002;-1.651141559705138E-003;-4.038469400256872E-003;
2.418000000000000E+009;2.003717422485352E-001;-4.262765496969223E-002;-1.785515341907740E-003;-4.075469914823771E-003;
2.418166666666667E+009;1.995923519134522E-001;-4.244389012455940E-002;-2.034203382208943E-003;-3.963008057326078E-003;
2.418333333333334E+009;1.986106485128403E-001;-4.236518964171410E-002;-2.109452849254012E-003;-3.924253862351179E-003;
2.418500000000000E+009;1.976584494113922E-001;-4.234832525253296E-002;-2.221885602921248E-003;-3.751496085897088E-003;
2.418666666666667E+009;1.967469602823257E-001;-4.217032715678215E-002;-2.325687091797590E-003;-3.706957213580608E-003;
2.418833333333334E+009;1.953746825456619E-001;-4.251838102936745E-002;-2.395800547674298E-003;-3.582905977964401E-003;
2.419000000000000E+009;1.940780282020569E-001;-4.260015487670898E-002;-2.521517220884562E-003;-3.679785411804915E-003;
2.419166666666667E+009;1.928448081016541E-001;-4.278641194105148E-002;-2.664582571014762E-003;-3.371871076524258E-003;
2.419333333333334E+009;1.912388950586319E-001;-4.332617297768593E-002;-2.704912796616554E-003;-3.314721863716841E-003;
2.419500000000000E+009;1.896978616714478E-001;-4.376501590013504E-002;-2.765581244602799E-003;-3.253361908718944E-003;
2.419666666666667E+009;1.882589757442474E-001;-4.449871927499771E-002;-2.789816586300731E-003;-3.123135073110461E-003;
2.419833333333334E+009;1.865879893302918E-001;-4.507280886173248E-002;-2.793907886371017E-003;-3.039755858480930E-003;
2.420000000000000E+009;1.851428747177124E-001;-4.597186669707298E-002;-2.905083121731877E-003;-2.882183995097876E-003;
2.420166666666667E+009;1.833550333976746E-001;-4.704146087169647E-002;-2.791095059365034E-003;-2.835814375430346E-003;
2.420333333333334E+009;1.818444579839706E-001;-4.817338660359383E-002;-2.933143870905042E-003;-2.840873552486301E-003;
2.420500000000000E+009;1.801359802484512E-001;-4.937568679451942E-002;-2.930731046944857E-003;-2.761430572718382E-003;
2.420666666666667E+009;1.785080283880234E-001;-5.075927078723908E-002;-3.026191378012300E-003;-2.670110901817679E-003;
2.420833333333334E+009;1.768143177032471E-001;-5.211451649665833E-002;-3.031517611816526E-003;-2.716440940275788E-003;
2.421000000000000E+009;1.751924753189087E-001;-5.372281000018120E-002;-3.098559798672795E-003;-2.705507213249803E-003;
2.421166666666667E+009;1.739168465137482E-001;-5.547216534614563E-002;-3.292544744908810E-003;-2.520510694012046E-003;
2.421333333333334E+009;1.721667349338532E-001;-5.691945180296898E-002;-3.391616279259324E-003;-2.416736911982298E-003;
2.421500000000000E+009;1.708724945783615E-001;-5.897306278347969E-002;-3.568203654140234E-003;-2.271986566483975E-003;
2.421666666666667E+009;1.695928722620010E-001;-6.074150651693344E-002;-3.689367789775133E-003;-2.209329744800925E-003;
2.421833333333334E+009;1.685842424631119E-001;-6.250103563070297E-002;-3.655864158645272E-003;-2.124759601429105E-003;
2.422000000000000E+009;1.674748808145523E-001;-6.455557048320770E-002;-3.834683913737536E-003;-1.934739761054516E-003;
2.422166666666667E+009;1.665466576814652E-001;-6.668139249086380E-002;-3.923941403627396E-003;-1.725738402456045E-003;
2.422333333333334E+009;1.655618995428085E-001;-6.862022727727890E-002;-3.921603318303824E-003;-1.514430041424930E-003;
2.422500000000000E+009;1.648025512695313E-001;-7.064080983400345E-002;-4.066276829689741E-003;-1.391198951750994E-003;
2.422666666666667E+009;1.641734689474106E-001;-7.259104400873184E-002;-3.735719248652458E-003;-1.115398248657584E-003;
2.422833333333334E+009;1.635725349187851E-001;-7.482268661260605E-002;-3.855462884530425E-003;-1.085673109628260E-003;
2.423000000000000E+009;1.631237566471100E-001;-7.683023065328598E-002;-3.851970890536904E-003;-9.402839932590723E-004;
2.423166666666667E+009;1.625614166259766E-001;-7.882677763700485E-002;-3.796428907662630E-003;-8.513043867424130E-004;
2.423333333333334E+009;1.625229567289352E-001;-8.078713715076447E-002;-3.707328345626593E-003;-6.916503771208227E-004;
2.423500000000000E+009;1.624649167060852E-001;-8.260489255189896E-002;-3.851418150588870E-003;-7.160332170315087E-004;
2.423666666666667E+009;1.624877452850342E-001;-8.451986312866211E-002;-3.803211729973555E-003;-5.535808159038425E-004;
2.423833333333334E+009;1.623179912567139E-001;-8.643431961536408E-002;-3.736778628081083E-003;-5.134920938871801E-004;
2.424000000000000E+009;1.624744683504105E-001;-8.814012259244919E-002;-3.807225264608860E-003;-5.663259653374553E-004;
2.424166666666667E+009;1.626883298158646E-001;-8.972091972827911E-002;-3.861126955598593E-003;-3.908478538505733E-004;
2.424333333333334E+009;1.629596054553986E-001;-9.126391261816025E-002;-3.806592896580696E-003;-1.911150175146759E-004;
2.424500000000000E+009;1.632415056228638E-001;-9.293882548809052E-002;-3.900008741766214E-003;-5.754626909038052E-005;
2.424666666666667E+009;1.634595990180969E-001;-9.431842714548111E-002;-3.944297786802054E-003;-1.668997429078445E-004;
2.424833333333334E+009;1.641070097684860E-001;-9.556195884943008E-002;-4.068388137966394E-003;3.756576043087989E-004;
2.425000000000000E+009;1.643896996974945E-001;-9.684899449348450E-002;-3.971101250499487E-003;2.611109521239996E-004;
2.425166666666667E+009;1.647913008928299E-001;-9.785434603691101E-002;-4.026581067591906E-003;4.381702456157655E-004;
2.425333333333334E+009;1.652601659297943E-001;-9.886138886213303E-002;-4.009062889963388E-003;6.410126807168126E-004;
2.425500000000000E+009;1.656420826911926E-001;-9.980804473161697E-002;-3.813263261690736E-003;7.265965105034411E-004;
2.425666666666667E+009;1.660991311073303E-001;-1.005375310778618E-001;-3.743618261069059E-003;8.333937730640173E-004;
2.425833333333334E+009;1.664194762706757E-001;-1.012638434767723E-001;-3.790549468249083E-003;1.121439039707184E-003;
2.426000000000000E+009;1.668272465467453E-001;-1.017691269516945E-001;-3.685534466058016E-003;1.237753778696060E-003;
2.426166666666667E+009;1.672583818435669E-001;-1.020335853099823E-001;-3.583724610507488E-003;1.506530679762363E-003;
2.426333333333334E+009;1.673275083303452E-001;-1.026625931262970E-001;-3.471929114311934E-003;1.468555536121130E-003;
2.426500000000000E+009;1.677538603544235E-001;-1.028624698519707E-001;-3.358090529218316E-003;1.680021639913321E-003;
2.426666666666667E+009;1.679289638996124E-001;-1.032722741365433E-001;-3.369909944012761E-003;1.823629136197269E-003;
2.426833333333334E+009;1.682001501321793E-001;-1.035004556179047E-001;-3.247666172683239E-003;1.902646617963910E-003;
2.427000000000000E+009;1.682204008102417E-001;-1.036308407783508E-001;-3.055218607187271E-003;1.853812253102660E-003;
2.427166666666667E+009;1.682191938161850E-001;-1.036915406584740E-001;-3.124036360532045E-003;1.897267298772931E-003;
2.427333333333334E+009;1.680877655744553E-001;-1.040091589093208E-001;-3.012344008311629E-003;2.273831982165575E-003;
2.427500000000000E+009;1.677837222814560E-001;-1.040910184383392E-001;-2.792744431644678E-003;2.030171453952789E-003;
2.427666666666667E+009;1.675450056791306E-001;-1.040524095296860E-001;-2.683527767658234E-003;2.080972073599696E-003;
