# Version 1.00
#
freq[Hz];re:Trc1_S11;im:Trc1_S11;re:Trc2_S21;im:Trc2_S21;
2.400000000000000E+009;1.585093587636948E-001;6.312751024961472E-002;3.408358606975526E-004;-8.723139180801809E-004;
2.400166666666667E+009;1.584835648536682E-001;6.135096400976181E-002;4.497718182392418E-004;-9.181474451906979E-004;
2.400333333333334E+009;1.583917140960693E-001;5.960302054882050E-002;2.713785506784916E-004;-7.952481391839683E-004;
2.400500000000000E+009;1.582287549972534E-001;5.770032107830048E-002;4.013136785943061E-004;-8.176511037163436E-004;
2.400666666666667E+009;1.580614149570465E-001;5.564152821898460E-002;5.184698966331780E-004;-8.634020923636854E-004;
2.400833333333334E+009;1.582986265420914E-001;5.383696779608727E-002;3.399915003683418E-004;-9.318864322267473E-004;
2.401000000000000E+009;1.581140160560608E-001;5.176060646772385E-002;5.094436346553266E-004;-1.072675804607570E-003;
2.401166666666667E+009;1.583803892135620E-001;4.958905652165413E-002;5.790043505840004E-004;-1.093952683731914E-003;
2.401333333333334E+009;1.586095243692398E-001;4.764965921640396E-002;4.628827737178654E-004;-1.337393070571125E-003;
2.401500000000000E+009;1.589247584342957E-001;4.548370465636253E-002;5.012463661842048E-004;-1.321352901868522E-003;
2.401666666666667E+009;1.590775400400162E-001;4.359396547079086E-002;5.229610833339393E-004;-1.219715923070908E-003;
2.401833333333334E+009;1.593429297208786E-001;4.136570170521736E-002;6.694406038150191E-004;-1.547407358884811E-003;
2.402000000000000E+009;1.598255187273026E-001;3.940182551741600E-002;3.621941141318530E-004;-1.690557925030589E-003;
2.402166666666667E+009;1.601527184247971E-001;3.728637099266052E-002;5.081573617644608E-004;-1.620628172531724E-003;
2.402333333333334E+009;1.605321615934372E-001;3.529136627912521E-002;4.982175887562335E-004;-1.730093150399625E-003;
2.402500000000000E+009;1.614956557750702E-001;3.351646289229393E-002;4.360648454166949E-004;-1.843798905611038E-003;
2.402666666666667E+009;1.619347631931305E-001;3.163976594805718E-002;2.676016592886299E-004;-1.903664320707321E-003;
2.402833333333334E+009;1.628650277853012E-001;3.007128834724426E-002;1.779100130079314E-004;-2.143000951036811E-003;
2.403000000000000E+009;1.633953452110291E-001;2.817520871758461E-002;1.643061696086079E-004;-2.090493915602565E-003;
2.403166666666667E+009;1.643777340650559E-001;2.666831389069557E-002;1.357976580038667E-004;-2.055719494819641E-003;
2.403333333333334E+009;1.651538908481598E-001;2.518805116415024E-002;3.664229552668985E-006;-2.139147836714983E-003;
2.403500000000000E+009;1.659954190254211E-001;2.357509173452854E-002;1.059766327671241E-005;-2.069328445941210E-003;
2.403666666666667E+009;1.670354008674622E-001;2.210409007966518E-002;-1.726839545881376E-004;-2.224710537120700E-003;
2.403833333333334E+009;1.680669635534287E-001;2.074089646339417E-002;-1.776376739144325E-004;-2.238736022263765E-003;
2.404000000000000E+009;1.689580231904984E-001;1.962545514106751E-002;-3.965861978940666E-004;-2.279748907312751E-003;
2.404166666666667E+009;1.698797047138214E-001;1.842625811696053E-002;-5.896327784284949E-004;-2.252583391964436E-003;
2.404333333333334E+009;1.707977056503296E-001;1.742520183324814E-002;-5.946272285655141E-004;-2.343410858884454E-003;
2.404500000000000E+009;1.718249320983887E-001;1.635167188942432E-002;-7.723764865659177E-004;-2.264056121930480E-003;
2.404666666666667E+009;1.728089451789856E-001;1.544523332268000E-002;-9.454971877858043E-004;-2.305580303072929E-003;
2.404833333333334E+009;1.736650168895721E-001;1.456604339182377E-002;-9.719108929857612E-004;-2.255761064589024E-003;
2.405000000000000E+009;1.745717376470566E-001;1.377261988818646E-002;-1.121902023442090E-003;-2.232286380603910E-003;
2.405166666666667E+009;1.754771023988724E-001;1.314679253846407E-002;-1.190505339764059E-003;-2.132115885615349E-003;
2.405333333333334E+009;1.763501018285751E-001;1.247293874621391E-002;-1.189661910757422E-003;-2.115344395861030E-003;
2.405500000000000E+009;1.769912987947464E-001;1.192544866353273E-002;-1.291078398935497E-003;-2.147815888747573E-003;
2.405666666666667E+009;1.778106093406677E-001;1.156261749565601E-002;-1.269188243895769E-003;-2.107660286128521E-003;
2.405833333333334E+009;1.782803535461426E-001;1.128325145691633E-002;-1.479664817452431E-003;-2.091212430968881E-003;
2.406000000000000E+009;1.789653450250626E-001;1.062062941491604E-002;-1.421814551576972E-003;-2.017635153606534E-003;
2.406166666666667E+009;1.793121993541718E-001;1.036713551729918E-002;-1.605159835889936E-003;-1.925706514157355E-003;
2.406333333333334E+009;1.799960881471634E-001;1.001800503581762E-002;-1.715038320980966E-003;-1.864269608631730E-003;
2.406500000000000E+009;1.802623271942139E-001;9.795907884836197E-003;-1.893281005322933E-003;-1.743823173455894E-003;
2.406666666666667E+009;1.802937537431717E-001;9.463967755436897E-003;-1.784899155609310E-003;-1.733899116516113E-003;
2.406833333333334E+009;1.807090640068054E-001;9.145536459982395E-003;-1.885766163468361E-003;-1.662237686105073E-003;
2.407000000000000E+009;1.807663589715958E-001;8.819433860480785E-003;-1.926528289914131E-003;-1.724551082588732E-003;
2.407166666666667E+009;1.809778660535812E-001;8.638675324618816E-003;-2.132353605702519E-003;-1.721977721899748E-003;
2.407333333333334E+009;1.807608753442764E-001;7.998460903763771E-003;-2.082448685541749E-003;-1.591504202224314E-003;
2.407500000000000E+009;1.807255446910858E-001;7.798649836331606E-003;-2.097946824505925E-003;-1.544176135212183E-003;
2.407666666666667E+009;1.806199699640274E-001;7.332392502576113E-003;-2.270748838782311E-003;-1.341139432042837E-003;
2.407833333333334E+009;1.802483201026917E-001;6.736801937222481E-003;-2.093708142638207E-003;-1.492869341745973E-003;
2.408000000000000E+009;1.800072789192200E-001;6.160789635032415E-003;-2.314892364665866E-003;-1.365739619359374E-003;
2.408166666666667E+009;1.795616000890732E-001;5.728067364543676E-003;-2.319339895620942E-003;-1.218749443069100E-003;
2.408333333333334E+009;1.791379898786545E-001;4.894241690635681E-003;-2.432631095871329E-003;-1.074477680958808E-003;
2.408500000000000E+009;1.786131411790848E-001;4.136234987527132E-003;-2.432936569675803E-003;-1.097991014830768E-003;
2.408666666666667E+009;1.781388372182846E-001;3.291437868028879E-003;-2.475655404850841E-003;-9.960713796317577E-004;
2.408833333333334E+009;1.773256212472916E-001;2.365621039643884E-003;-2.435894450172782E-003;-1.019450719468296E-003;
2.409000000000000E+009;1.766949295997620E-001;1.541693112812936E-003;-2.487380988895893E-003;-8.903730195015669E-004;
2.409166666666667E+009;1.760162860155106E-001;3.412060614209622E-004;-2.588653471320868E-003;-9.425026364624500E-004;
2.409333333333334E+009;1.753698587417603E-001;-8.825322147458792E-004;-2.445181366056204E-003;-7.835770957171917E-004;
2.409500000000000E+009;1.746132522821426E-001;-2.309574978426099E-003;-2.592303324490786E-003;-6.150028784759343E-004;
2.409666666666667E+009;1.738653630018234E-001;-3.462576773017645E-003;-2.637448720633984E-003;-6.954105338081718E-004;
2.409833333333334E+009;1.730998009443283E-001;-4.702474456280470E-003;-2.723859623074532E-003;-5.648914957419038E-004;
2.410000000000000E+009;1.725130081176758E-001;-6.253686267882586E-003;-2.683006459847093E-003;-5.092892097309232E-004;
2.410166666666667E+009;1.717667430639267E-001;-7.803309243172407E-003;-2.779880771413446E-003;-5.243258201517165E-004;
2.410333333333334E+009;1.711019724607468E-001;-9.329771623015404E-003;-2.673352137207985E-003;-4.931975272484124E-004;
2.410500000000000E+009;1.705944538116455E-001;-1.098571904003620E-002;-2.787974430248141E-003;-3.038883733097464E-004;
2.410666666666667E+009;1.699845492839813E-001;-1.277896203100681E-002;-2.886663423851132E-003;-3.268156724516302E-004;
2.410833333333334E+009;1.695504486560822E-001;-1.440582424402237E-002;-2.756731817498803E-003;-2.806392440106720E-004;
2.411000000000000E+009;1.690109819173813E-001;-1.630091108381748E-002;-3.090919926762581E-003;-1.006156089715660E-004;
2.411166666666667E+009;1.689042747020721E-001;-1.813096739351749E-002;-2.915938617661595E-003;-2.065686712739989E-004;
2.411333333333334E+009;1.683919876813889E-001;-2.026492543518543E-002;-2.937598153948784E-003;-1.376537602482131E-005;
2.411500000000000E+009;1.682741641998291E-001;-2.205120585858822E-002;-3.044692100957036E-003;2.185143785027321E-005;
2.411666666666667E+009;1.682213991880417E-001;-2.398518659174442E-002;-3.092561848461628E-003;2.668853849172592E-004;
2.411833333333334E+009;1.680336147546768E-001;-2.566856518387795E-002;-3.194587072357535E-003;2.281424822285771E-004;
2.412000000000000E+009;1.682120263576508E-001;-2.775903604924679E-002;-3.336875466629863E-003;2.982475562021136E-004;
2.412166666666667E+009;1.681406348943710E-001;-2.977336198091507E-002;-3.115107771009207E-003;4.939558566547930E-004;
2.412333333333334E+009;1.684046536684036E-001;-3.160791844129562E-002;-3.199774306267500E-003;6.206219550222158E-004;
2.412500000000000E+009;1.683014333248138E-001;-3.342430293560028E-002;-3.230564761906862E-003;5.646002246066928E-004;
2.412666666666667E+009;1.687758266925812E-001;-3.560338541865349E-002;-3.247099462896586E-003;8.761647623032332E-004;
2.412833333333334E+009;1.690634489059448E-001;-3.743601217865944E-002;-3.325093537569046E-003;1.060653361491859E-003;
2.413000000000000E+009;1.695105284452438E-001;-3.916022181510925E-002;-3.281926969066262E-003;1.241595833562315E-003;
2.413166666666667E+009;1.698392778635025E-001;-4.098321124911308E-002;-3.057532710954547E-003;1.467927126213908E-003;
2.413333333333334E+009;1.702194362878799E-001;-4.273099824786186E-002;-3.192776348441839E-003;1.498878584243357E-003;
2.413500000000000E+009;1.707144528627396E-001;-4.442911595106125E-002;-2.983689308166504E-003;1.733741373755038E-003;
2.413666666666667E+009;1.713846474885941E-001;-4.603024944663048E-002;-3.013952868059278E-003;1.851444831117988E-003;
2.413833333333334E+009;1.717811226844788E-001;-4.741239547729492E-002;-3.070896724238992E-003;1.806367421522737E-003;
2.414000000000000E+009;1.721225231885910E-001;-4.896780848503113E-002;-2.914342330768704E-003;2.032526535913348E-003;
2.414166666666667E+009;1.729464083909988E-001;-5.034609511494637E-002;-2.973376773297787E-003;2.029403811320663E-003;
2.414333333333334E+009;1.734459251165390E-001;-5.170172452926636E-002;-2.605767920613289E-003;2.223192946985364E-003;
2.414500000000000E+009;1.742471009492874E-001;-5.268095433712006E-002;-2.582629444077611E-003;2.305655274540186E-003;
2.414666666666667E+009;1.746001392602921E-001;-5.381611734628677E-002;-2.677452284842730E-003;2.602870343253017E-003;
2.414833333333334E+009;1.749325841665268E-001;-5.493790656328201E-002;-2.262782305479050E-003;2.596811624243856E-003;
2.415000000000000E+009;1.753989607095718E-001;-5.592222884297371E-002;-2.297573257237673E-003;2.457302296534181E-003;
2.415166666666667E+009;1.757038235664368E-001;-5.658562853932381E-002;-2.229512203484774E-003;2.818406093865633E-003;
2.415333333333334E+009;1.763446778059006E-001;-5.751172825694084E-002;-2.060654107481241E-003;2.736301627010107E-003;
2.415500000000000E+009;1.766739189624786E-001;-5.820336565375328E-002;-1.945486757904291E-003;2.738122129812837E-003;
2.415666666666667E+009;1.769449859857559E-001;-5.861604958772659E-002;-1.741916639730334E-003;2.841523615643382E-003;
2.415833333333334E+009;1.773003786802292E-001;-5.919507518410683E-002;-1.767628360539675E-003;2.866564085707068E-003;
2.416000000000000E+009;1.771471202373505E-001;-5.964549630880356E-002;-1.666124444454908E-003;2.887407550588250E-003;
2.416166666666667E+009;1.774654537439346E-001;-6.007160246372223E-002;-1.526941428892314E-003;2.929823473095894E-003;
2.416333333333334E+009;1.775052547454834E-001;-6.046413630247116E-002;-1.512452261522412E-003;2.923123072832823E-003;
2.416500000000000E+009;1.774086803197861E-001;-6.077236309647560E-002;-1.411039265803993E-003;2.969122724607587E-003;
2.416666666666667E+009;1.773275732994080E-001;-6.091061979532242E-002;-1.214938820339739E-003;3.067481797188520E-003;
2.416833333333334E+009;1.770050376653671E-001;-6.132556498050690E-002;-1.133523997850716E-003;3.036014270037413E-003;
2.417000000000000E+009;1.765504181385040E-001;-6.158976629376411E-002;-1.028638798743486E-003;3.106551943346858E-003;
2.417166666666667E+009;1.762076318264008E-001;-6.163661181926727E-002;-7.885918021202087E-004;3.215710632503033E-003;
2.417333333333334E+009;1.757348775863648E-001;-6.182888522744179E-002;-8.029047166928649E-004;3.182793268933892E-003;
2.417500000000000E+009;1.750905662775040E-001;-6.220214068889618E-002;-7.119881920516491E-004;3.149894531816244E-003;
2.417666666666667E+009;1.746025830507278E-001;-6.226250156760216E-002;-6.140352925285697E-004;3.204822773113847E-003;
2.417833333333334E+009;1.738655120134354E-001;-6.248534098267555E-002;-5.198250291869044E-004;3.091048216447234E-003;
2.418000000000000E+009;1.729010492563248E-001;-6.295119971036911E-002;-4.404301289469004E-004;3.077176399528980E-003;
2.418166666666667E+009;1.719843894243240E-001;-6.299290806055069E-002;-3.954085987061262E-004;2.977807307615876E-003;
2.418333333333334E+009;1.713655292987824E-001;-6.338018923997879E-002;-2.302715001860634E-004;3.185180714353919E-003;
2.418500000000000E+009;1.700881868600845E-001;-6.389502435922623E-002;-2.297355677001178E-004;3.248629858717322E-003;
2.418666666666667E+009;1.692836284637451E-001;-6.438427418470383E-002;-1.112123791244812E-004;3.203115891665220E-003;
2.418833333333334E+009;1.678765118122101E-001;-6.487116217613220E-002;1.585789505043067E-005;3.134002210572362E-003;
2.419000000000000E+009;1.667601466178894E-001;-6.539890915155411E-002;-9.466322808293626E-005;3.151756711304188E-003;
2.419166666666667E+009;1.656249165534973E-001;-6.610469520092011E-002;2.537678665248677E-005;3.094615181908011E-003;
2.419333333333334E+009;1.644933819770813E-001;-6.660073250532150E-002;1.073550738510676E-004;3.112216945737600E-003;
2.419500000000000E+009;1.632191091775894E-001;-6.744994968175888E-002;1.470248826080933E-004;3.034598426893354E-003;
2.419666666666667E+009;1.621658951044083E-001;-6.846299767494202E-002;3.777210949920118E-004;3.094981890171766E-003;
2.419833333333334E+009;1.607208549976349E-001;-6.911301612854004E-002;3.574225411284715E-004;3.009413136169314E-003;
2.420000000000000E+009;1.597803831100464E-001;-7.027535140514374E-002;2.986260806210339E-004;3.054160624742508E-003;
2.420166666666667E+009;1.587295681238174E-001;-7.125459611415863E-002;5.596449482254684E-004;3.074059961363673E-003;
2.420333333333334E+009;1.575531065464020E-001;-7.251850515604019E-002;5.672519910149276E-004;3.002290381118655E-003;
2.420500000000000E+009;1.565684825181961E-001;-7.351958006620407E-002;7.408228120766580E-004;2.967065898701549E-003;
2.420666666666667E+009;1.555607020854950E-001;-7.488816976547241E-002;6.675599724985659E-004;2.948049688711762E-003;
2.420833333333334E+009;1.546395272016525E-001;-7.634986937046051E-002;6.938535370863974E-004;2.915286459028721E-003;
2.421000000000000E+009;1.537668704986572E-001;-7.779679447412491E-002;7.034903974272311E-004;2.877566730603576E-003;
2.421166666666667E+009;1.529667228460312E-001;-7.927755266427994E-002;7.418494787998498E-004;2.931228373199701E-003;
2.421333333333334E+009;1.524386256933212E-001;-8.074716478586197E-002;1.032581087201834E-003;3.042971249669790E-003;
2.421500000000000E+009;1.515356302261353E-001;-8.239421248435974E-002;9.863141458481550E-004;2.768804784864187E-003;
2.421666666666667E+009;1.509778946638107E-001;-8.403889834880829E-002;1.051733619533479E-003;2.903270768001676E-003;
2.421833333333334E+009;1.504279375076294E-001;-8.560523390769959E-002;1.085248542949557E-003;2.821255009621382E-003;
2.422000000000000E+009;1.502064317464829E-001;-8.715832978487015E-002;1.219137571752071E-003;2.881309250369668E-003;
2.422166666666667E+009;1.497314274311066E-001;-8.922265470027924E-002;1.176662510260940E-003;2.798025263473392E-003;
2.422333333333334E+009;1.496021449565888E-001;-9.073684364557266E-002;1.279251067899168E-003;2.852893667295575E-003;
2.422500000000000E+009;1.494507193565369E-001;-9.228534996509552E-002;1.368302968330681E-003;2.908958122134209E-003;
2.422666666666667E+009;1.493263989686966E-001;-9.416217356920242E-002;1.559072057716548E-003;2.804362447932363E-003;
2.422833333333334E+009;1.494054049253464E-001;-9.593479335308075E-002;1.719592139124870E-003;2.907261718064547E-003;
2.423000000000000E+009;1.495030522346497E-001;-9.754086285829544E-002;1.661566086113453E-003;2.921663690358400E-003;
2.423166666666667E+009;1.497130692005158E-001;-9.910915791988373E-002;1.751387491822243E-003;2.803428564220667E-003;
2.423333333333334E+009;1.500046849250794E-001;-1.006802693009377E-001;1.754913595505059E-003;2.844654489308596E-003;
2.423500000000000E+009;1.501861512660980E-001;-1.021143496036530E-001;2.015490550547838E-003;3.021614626049995E-003;
2.423666666666667E+009;1.503222733736038E-001;-1.039114966988564E-001;2.055407967418432E-003;2.746515208855271E-003;
2.423833333333334E+009;1.510726362466812E-001;-1.052978262305260E-001;2.271777717396617E-003;2.674080198630691E-003;
2.424000000000000E+009;1.511736065149307E-001;-1.065117940306664E-001;2.260398585349321E-003;2.789904596284032E-003;
2.424166666666667E+009;1.517224609851837E-001;-1.080353334546089E-001;2.417899435386062E-003;2.637333935126662E-003;
2.424333333333334E+009;1.522156447172165E-001;-1.090786829590797E-001;2.349708462134004E-003;2.531139645725489E-003;
2.424500000000000E+009;1.526939123868942E-001;-1.104353815317154E-001;2.624703804031014E-003;2.511862432584167E-003;
2.424666666666667E+009;1.532738953828812E-001;-1.113613173365593E-001;2.676527947187424E-003;2.529507037252188E-003;
2.424833333333334E+009;1.534447222948074E-001;-1.125324442982674E-001;2.826602431014180E-003;2.349422778934240E-003;
2.425000000000000E+009;1.541086584329605E-001;-1.135517582297325E-001;2.988957101479173E-003;2.343175699934363E-003;
2.425166666666667E+009;1.544129699468613E-001;-1.143418848514557E-001;3.028551582247019E-003;2.139665884897113E-003;
2.425333333333334E+009;1.548356860876083E-001;-1.150460317730904E-001;2.915797755122185E-003;2.194351982325316E-003;
2.425500000000000E+009;1.551963984966278E-001;-1.158847659826279E-001;3.141361987218261E-003;2.083061961457133E-003;
2.425666666666667E+009;1.554625928401947E-001;-1.164679378271103E-001;3.305148100480437E-003;1.968727447092533E-003;
2.425833333333334E+009;1.557243764400482E-001;-1.170514822006226E-001;3.387542907148600E-003;1.860705553553999E-003;
2.426000000000000E+009;1.559908390045166E-001;-1.176451146602631E-001;3.549431916326284E-003;1.797647215425968E-003;
2.426166666666667E+009;1.562784910202026E-001;-1.181012988090515E-001;3.595078131183982E-003;1.649605575948954E-003;
2.426333333333334E+009;1.563167423009872E-001;-1.183981075882912E-001;3.488995833322406E-003;1.541214413009584E-003;
2.426500000000000E+009;1.564313173294067E-001;-1.186237335205078E-001;3.790485439822078E-003;1.591501757502556E-003;
2.426666666666667E+009;1.564123630523682E-001;-1.187260672450066E-001;3.838836448267102E-003;1.241323305293918E-003;
2.426833333333334E+009;1.561882197856903E-001;-1.190230920910835E-001;3.858140436932445E-003;1.135227736085653E-003;
2.427000000000000E+009;1.559056639671326E-001;-1.193279325962067E-001;4.042463377118111E-003;9.967969963327050E-004;
2.427166666666667E+009;1.555884927511215E-001;-1.192404553294182E-001;3.841866506263614E-003;8.543778094463050E-004;
2.427333333333334E+009;1.550152599811554E-001;-1.194804683327675E-001;3.975294530391693E-003;6.832969957031310E-004;
2.427500000000000E+009;1.546054035425186E-001;-1.195576712489128E-001;3.963721916079521E-003;6.594345322810113E-004;
2.427666666666667E+009;1.539158821105957E-001;-1.196320801973343E-001;4.054741468280554E-003;3.670407168101519E-004;
