# Hz S RI R 50
2400000000.0000000000 0.167441636323928805252236884371 0.041229262948036186908762346093 0.002406168496236205101013183594 -0.002324617234990001158473349463 0 0 0 0 
2400166666.6666665077 0.168254151940345791915731865629 0.040591739118099212646484375000 0.002490671584382652802708291162 -0.002387051004916429953334189307 0 0 0 0 
2400333333.3333334923 0.168624773621559087555255018742 0.039575856178998947143554687500 0.002271081786602735953090048682 -0.002528778510168195204493857275 0 0 0 0 
2400500000.0000000000 0.169152244925498990157919365629 0.038684815168380737304687500000 0.002211231738328934149501181494 -0.002653521252796053886413574219 0 0 0 0 
2400666666.6666665077 0.169400066137313787262286268742 0.037843856960535049438476562500 0.002259622327983378930332802881 -0.002711743116378784179687500000 0 0 0 0 
2400833333.3333334923 0.169972792267799405196981865629 0.036840446293354027484934221093 0.002145804697647691206691122900 -0.002760781440883874893188476562 0 0 0 0 
2401000000.0000000000 0.170216754078865106780682481258 0.035869549959898001934011091407 0.002103412291035056114196777344 -0.002958039287477732138392783057 0 0 0 0 
2401166666.6666665077 0.170497953891754205901776231258 0.034830410033464431762695312500 0.002044978551566600799560546875 -0.003062572795897721810581826318 0 0 0 0 
2401333333.3333334923 0.170600935816764803787393134371 0.034056529402732849121093750000 0.001972835278138517899754189600 -0.002967460080981255011317587744 0 0 0 0 
2401500000.0000000000 0.170989349484443692306356865629 0.033208880573511116718332658593 0.001839266740716994025586772388 -0.003130315337330102920532226562 0 0 0 0 
2401666666.6666665077 0.170948445796966608245526231258 0.032345093786716461181640625000 0.001694981707260013060328818213 -0.003213959746062756018397665869 0 0 0 0 
2401833333.3333334923 0.171245068311691311935263115629 0.031419072300195687030832658593 0.001774233998730778910993266528 -0.003255336778238416151759482275 0 0 0 0 
2402000000.0000000000 0.170923605561256408691406250000 0.030527962371706959116002266796 0.001544984406791626973393105615 -0.003272538306191564039943076025 0 0 0 0 
2402166666.6666665077 0.171051442623138399978799384371 0.029427988454699519765833670704 0.001249620807357132001164101709 -0.003506326582282782034633017432 0 0 0 0 
2402333333.3333334923 0.171168029308319091796875000000 0.028570530936121940612792968750 0.001301048439927398941637348706 -0.003374712308868765830993652344 0 0 0 0 
2402500000.0000000000 0.171383425593376187423544365629 0.027677971869707111013392264454 0.001264794380404054901720356519 -0.003547691740095614953282021631 0 0 0 0 
2402666666.6666665077 0.171426624059677096267861884371 0.026606317609548568725585937500 0.001068560057319700934766459888 -0.003484882181510328812840127100 0 0 0 0 
2402833333.3333334923 0.171222269535064697265625000000 0.025409914553165439260462576954 0.000940621888730674982070922852 -0.003499457379803061918971396338 0 0 0 0 
2403000000.0000000000 0.171205624938011197189169365629 0.024461636319756511342982108204 0.000894936150871217250823974609 -0.003771564923226832909824990381 0 0 0 0 
2403166666.6666665077 0.171363458037376403808593750000 0.023233281448483470571497733204 0.000641183811239898204803466797 -0.003491377457976340813877724756 0 0 0 0 
2403333333.3333334923 0.171183675527572604080361884371 0.022162787616252899169921875000 0.000435812165960669517517089844 -0.003452707780525087876560830225 0 0 0 0 
2403500000.0000000000 0.170977100729942294021768134371 0.021073069423437118530273437500 0.000456853216746821999549865723 -0.003414560575038195090052939307 0 0 0 0 
2403666666.6666665077 0.170901104807853698730468750000 0.019741879776120189321497733204 0.000216379921766929301336565561 -0.003506107255816460089442587744 0 0 0 0 
2403833333.3333334923 0.170942917466163607498330634371 0.018500547856092449533482735546 0.000342246406944468617439270020 -0.003323287237435578866245888818 0 0 0 0 
2404000000.0000000000 0.170701175928115789215411268742 0.017225369811058040964146798046 -0.000028996319088037129154409102 -0.003378260647878050804138183594 0 0 0 0 
2404166666.6666665077 0.170645624399185208419638115629 0.015807261690497398376464843750 -0.000048347825213568291883876188 -0.003322793869301677183863974463 0 0 0 0 
2404333333.3333334923 0.170587360858917208572549384371 0.014623638242483140772809413477 0.000161584524903446408823290414 -0.003187164664268494086024618994 0 0 0 0 
2404500000.0000000000 0.170524552464485196212606865629 0.013159217312932009261161603320 -0.000019543043890735131094251939 -0.003240057965740561918971396338 0 0 0 0 
2404666666.6666665077 0.170518070459365789215411268742 0.011847954243421559769600115430 0.000057689449022291228175163269 -0.003308874787762761116027832031 0 0 0 0 
2404833333.3333334923 0.170477166771888705154580634371 0.010487299412488940847376639454 -0.000006404074156307615339756012 -0.003345095785334705872776650537 0 0 0 0 
2405000000.0000000000 0.170521005988121004959268134371 0.008879496715962886810302734375 -0.000031606286938767880201339722 -0.003167936578392982916591025244 0 0 0 0 
2405166666.6666665077 0.170327156782150296310263115629 0.007524661719799041748046875000 -0.000075914824265055358409881592 -0.003202917519956827163696289062 0 0 0 0 
2405333333.3333334923 0.170290783047676086425781250000 0.005764740519225597381591796875 -0.000024125132767949249932562181 -0.003500948427245020866394042969 0 0 0 0 
2405500000.0000000000 0.170432433485984802246093750000 0.004423883743584156036376953125 -0.000313591066515073180198669434 -0.003520973958075046972987509619 0 0 0 0 
2405666666.6666665077 0.170473799109458895584268134371 0.002827463438734412193298339844 -0.000281857093796133995056152344 -0.003648458048701285882237099756 0 0 0 0 
2405833333.3333334923 0.170157968997955294510049384371 0.001333225285634398894069052588 -0.000463991949800401926040649414 -0.003822355065494776205775595557 0 0 0 0 
2406000000.0000000000 0.170231744647026089767294365629 -0.000470034894533455426066798077 -0.000441722077084705179363804950 -0.003690676996484398841857910156 0 0 0 0 
2406166666.6666665077 0.170115306973457308670205634371 -0.001845918712206185080884623950 -0.000942084181588143110275268555 -0.003819678211584686799290322412 0 0 0 0 
2406333333.3333334923 0.170151740312576293945312500000 -0.003342759329825640158412314307 -0.001147411065176128907444619287 -0.003882569493725895881652832031 0 0 0 0 
2406500000.0000000000 0.169831901788711603362713731258 -0.004957647062838078412527753613 -0.001151266507804393985150981372 -0.003691578051075338883640908350 0 0 0 0 
2406666666.6666665077 0.169518902897834805587606865629 -0.006342635955661535263061523438 -0.001530772540718317031860351562 -0.003749694209545851187465048682 0 0 0 0 
2406833333.3333334923 0.169563874602317810058593750000 -0.008040132001042366027832031250 -0.001904913340695201916935586084 -0.003642836352810264067408896338 0 0 0 0 
2407000000.0000000000 0.169505715370178194900674384371 -0.009558117017149925231933593750 -0.001930478727445005936863564600 -0.003414451843127607865574502100 0 0 0 0 
2407166666.6666665077 0.169423386454582186599893134371 -0.010824049822986129415491873829 -0.002053430536761879920959472656 -0.003415580838918685913085937500 0 0 0 0 
2407333333.3333334923 0.169037446379661587814169365629 -0.012180673889815810811976248829 -0.002125161467120050950291298975 -0.003134932834655046896693564307 0 0 0 0 
2407500000.0000000000 0.168969556689262390136718750000 -0.013423173688352109736432460352 -0.002385252388194202943089150537 -0.003015136346220970153808593750 0 0 0 0 
2407666666.6666665077 0.168749734759330805022869981258 -0.014609684236347680527656756055 -0.002508227713406085968017578125 -0.002938892459496856169459677588 0 0 0 0 
2407833333.3333334923 0.168355137109756497482138115629 -0.015802586451172828674316406250 -0.002570854732766747908351279150 -0.002730685519054532051086425781 0 0 0 0 
2408000000.0000000000 0.168353095650672912597656250000 -0.017046002671122550964355468750 -0.002745483070611954169032431494 -0.002411916619166731834411621094 0 0 0 0 
2408166666.6666665077 0.168241694569587707519531250000 -0.017837958410382270812988281250 -0.002831275342032312913181923975 -0.002209978876635431809666298975 0 0 0 0 
2408333333.3333334923 0.168143510818481500823651231258 -0.018780961632728580129603201954 -0.002779430476948618888854980469 -0.002031214302405714988708496094 0 0 0 0 
2408500000.0000000000 0.168109402060508700271768134371 -0.019670916721224788320521170704 -0.002761314157396554946899414062 -0.001841937773860991001129150391 0 0 0 0 
2408666666.6666665077 0.168185085058212308029013115629 -0.020649274811148640024205391796 -0.002564596477895975112915039062 -0.001621640520170331001281738281 0 0 0 0 
2408833333.3333334923 0.168230697512626703460369981258 -0.021449239924550059926966483204 -0.002571876626461743874790810693 -0.001365417963825166008592915112 0 0 0 0 
2409000000.0000000000 0.168200641870498712737713731258 -0.022116526961326599121093750000 -0.002486243145540357069728232275 -0.001188506139442325072047568213 0 0 0 0 
2409166666.6666665077 0.168340399861335809905682481258 -0.023045239970088008535364920704 -0.002355413045734167098999023438 -0.001096046878956258080126118237 0 0 0 0 
2409333333.3333334923 0.168614387512207003494424384371 -0.023985939100384708749791329296 -0.002129636006429791884181357275 -0.000987167120911180973052978516 0 0 0 0 
2409500000.0000000000 0.168686851859092712402343750000 -0.024975286796689030038853829296 -0.002010278403759003119227743994 -0.000982643687166273593902587891 0 0 0 0 
2409666666.6666665077 0.168870434165000887771768134371 -0.025790767744183540344238281250 -0.002006266964599490165710449219 -0.000946925370953977108001708984 0 0 0 0 
2409833333.3333334923 0.168849691748619107345419365629 -0.026547705754637721670130545704 -0.001830024528317154104348207788 -0.000816072802990674972534179688 0 0 0 0 
2410000000.0000000000 0.168979778885841397384481865629 -0.027546580880880359304407889454 -0.001786511973477900028228759766 -0.000827357405796647071838378906 0 0 0 0 
2410166666.6666665077 0.169037237763404901702557481258 -0.028462342917919158935546875000 -0.001726832007989286942722939600 -0.000976003299001604318618774414 0 0 0 0 
2410333333.3333334923 0.169024705886840792556924384371 -0.029418846592307090759277343750 -0.001476143370382487990735698169 -0.000975796079728752374649047852 0 0 0 0 
2410500000.0000000000 0.168989315629005404373330634371 -0.030374424532055858266810233204 -0.001557196490466594912885356372 -0.000925966887734830379486083984 0 0 0 0 
2410666666.6666665077 0.168795377016067504882812500000 -0.031537637114524841308593750000 -0.001483915373682975985883403247 -0.001142312656156718947766948169 0 0 0 0 
2410833333.3333334923 0.168946862220764187911825615629 -0.032126918435096740722656250000 -0.001292749424465001063105917822 -0.001170386793091892979265522534 0 0 0 0 
2411000000.0000000000 0.168600320816040011306924384371 -0.033204458653926849365234375000 -0.001370051177218555970432900537 -0.001131322118453681902644492041 0 0 0 0 
2411166666.6666665077 0.168565317988395690917968750000 -0.034073617309331886982004533593 -0.001296206843107938983319926685 -0.001397176412865519957301474463 0 0 0 0 
2411333333.3333334923 0.168352633714675903320312500000 -0.034931603819131851196289062500 -0.001279102987609803893445659106 -0.001458397367969155094744038159 0 0 0 0 
2411500000.0000000000 0.168075263500213595291299384371 -0.036177687346935272216796875000 -0.001418194966390728950500488281 -0.001514031551778316931483603369 0 0 0 0 
2411666666.6666665077 0.167919248342514010330361884371 -0.036905676126480102539062500000 -0.001404348295181990103480673682 -0.001531068119220436053035117041 0 0 0 0 
2411833333.3333334923 0.167550623416900607010049384371 -0.037709522992372512817382812500 -0.001508606015704571983934711987 -0.001677112653851509094238281250 0 0 0 0 
2412000000.0000000000 0.167547866702079800704794365629 -0.038724500685930252075195312500 -0.001476179808378220038173056494 -0.001579747535288333892822265625 0 0 0 0 
2412166666.6666665077 0.167050808668136596679687500000 -0.039793431758880622173268903907 -0.001652557402849196954014443506 -0.001708798692561686038970947266 0 0 0 0 
2412333333.3333334923 0.166956469416618402679119981258 -0.040565978735685348510742187500 -0.001664212439209223010419536060 -0.001898252288810909011243510669 0 0 0 0 
2412500000.0000000000 0.166432455182075500488281250000 -0.041562300175428390502929687500 -0.001757236663252115032793354565 -0.001834737835451960997340536963 0 0 0 0 
2412666666.6666665077 0.166097939014434786697549384371 -0.042667947709560387348215471093 -0.001768511254340410015703510815 -0.001888715429231524901149130713 0 0 0 0 
2412833333.3333334923 0.165789633989334106445312500000 -0.043606404215097427368164062500 -0.001921787858009337945225381006 -0.001850732485763729052302695166 0 0 0 0 
2413000000.0000000000 0.165310427546501187423544365629 -0.044709399342536933208425153907 -0.001986781368032097816467285156 -0.001989362062886356873753213037 0 0 0 0 
2413166666.6666665077 0.164842545986175509353799384371 -0.045738060027360923076589216407 -0.002180542331188917160034179688 -0.002027806825935841040370322119 0 0 0 0 
2413333333.3333334923 0.164458051323890713790731865629 -0.046754494309425347065012346093 -0.002109634689986706213710165869 -0.001837082789279520945308066260 0 0 0 0 
2413500000.0000000000 0.164149552583694513518963731258 -0.047817882150411612773854841407 -0.002563232090324163003208779443 -0.002052630065008997917175292969 0 0 0 0 
2413666666.6666665077 0.163682177662849398513955634371 -0.048786140978336327289621721093 -0.002596100559458136992213583838 -0.002193834166973828835728310693 0 0 0 0 
2413833333.3333334923 0.163028761744499206542968750000 -0.049789022654294967651367187500 -0.002968085696920752959010458838 -0.001690822187811136028887104565 0 0 0 0 
2414000000.0000000000 0.162711828947067288497763115629 -0.050783719867467880249023437500 -0.002655988791957498030421591650 -0.001918219495564698956133198315 0 0 0 0 
2414166666.6666665077 0.162320673465728787521200615629 -0.051673885434865951538085937500 -0.003012053901329637007472372900 -0.001676963292993604920030903394 0 0 0 0 
2414333333.3333334923 0.161900177597999600509481865629 -0.052735216915607452392578125000 -0.003269725712016224861145019531 -0.001947092590853571891784667969 0 0 0 0 
2414500000.0000000000 0.161769345402717590332031250000 -0.053629551082849502563476562500 -0.003540069563314319090602255713 -0.001969449920579791069030761719 0 0 0 0 
2414666666.6666665077 0.161384135484695406814736884371 -0.054597776383161551738698591407 -0.003302403027191758155822753906 -0.001841665711253882104989076929 0 0 0 0 
2414833333.3333334923 0.160996615886688204666299384371 -0.055716354399919509887695312500 -0.003876583185046910805943154443 -0.001448788563720881938934326172 0 0 0 0 
2415000000.0000000000 0.160854175686836187164630018742 -0.056598752737045288085937500000 -0.003432278055697679953334189307 -0.001534302718937397003173828125 0 0 0 0 
2415166666.6666665077 0.160715788602829007247763115629 -0.057653322815895080566406250000 -0.004007971845567226409912109375 -0.001474618213251233100891113281 0 0 0 0 
2415333333.3333334923 0.160660654306411687652911268742 -0.058956265449523932720143903907 -0.004236612934619188308715820312 -0.001565013080835341973545693506 0 0 0 0 
2415500000.0000000000 0.160480752587318392654580634371 -0.059842657297849662090261091407 -0.004444882739335299405569745801 -0.001315432484261692003962851416 0 0 0 0 
2415666666.6666665077 0.160397350788116510589276231258 -0.061082106083631522441823591407 -0.004612155258655548095703125000 -0.001329487655311823108075786060 0 0 0 0 
2415833333.3333334923 0.160218656063079806228799384371 -0.062240928411483771587331403907 -0.005261430051177740097045898438 -0.001061142189428210041643452222 0 0 0 0 
2416000000.0000000000 0.159916698932647705078125000000 -0.063489131629467010498046875000 -0.004875331185758113861083984375 -0.000876981415785849094390869141 0 0 0 0 
2416166666.6666665077 0.159893468022346496582031250000 -0.064684264361858367919921875000 -0.005340958479791879653930664062 -0.000382898288080468773841857910 0 0 0 0 
2416333333.3333334923 0.159554079174995394607705634371 -0.065889224410057067871093750000 -0.005425969604402781400198652051 -0.000227451455430127707406720572 0 0 0 0 
2416500000.0000000000 0.159265100955963107010049384371 -0.067095711827278137207031250000 -0.005537973716855049133300781250 0.000154458510223776102066040039 0 0 0 0 
2416666666.6666665077 0.158967882394790704925213731258 -0.068190097808837890625000000000 -0.005541726481169462203979492188 0.000611291441600769758224487305 0 0 0 0 
2416833333.3333334923 0.158759713172912597656250000000 -0.069475449621677398681640625000 -0.005800453945994377136230468750 0.000857943028677254915237426758 0 0 0 0 
2417000000.0000000000 0.158212348818778991699218750000 -0.070574238896369934082031250000 -0.005686722230166196823120117188 0.001168539514765142960789345850 0 0 0 0 
2417166666.6666665077 0.157863080501556396484375000000 -0.071512013673782348632812500000 -0.005738083738833665847778320312 0.001676885993219912052154541016 0 0 0 0 
2417333333.3333334923 0.157545685768127413650674384371 -0.072365634143352508544921875000 -0.005602645687758922576904296875 0.002070147776976228193995810400 0 0 0 0 
2417500000.0000000000 0.157151713967323303222656250000 -0.073443226516246795654296875000 -0.005373692139983177185058593750 0.002422919496893883185145712744 0 0 0 0 
2417666666.6666665077 0.156927943229675292968750000000 -0.074218355119228363037109375000 -0.005301834549754858016967773438 0.002860545180737971825840615381 0 0 0 0 
2417833333.3333334923 0.156537353992462213714276231258 -0.075150310993194580078125000000 -0.005114968866109848022460937500 0.003368772566318511962890625000 0 0 0 0 
2418000000.0000000000 0.156200304627418490310830634371 -0.076047211885452270507812500000 -0.004796393215656281384939862988 0.003560962388291954994201660156 0 0 0 0 
2418166666.6666665077 0.155917033553123501876669365629 -0.076787531375885009765625000000 -0.004561094567179679870605468750 0.003847814630717039108276367188 0 0 0 0 
2418333333.3333334923 0.155845955014228793045205634371 -0.077634327113628387451171875000 -0.004249382298439741134643554688 0.004042502027004957199096679688 0 0 0 0 
2418500000.0000000000 0.155426666140556307693643134371 -0.078289605677127838134765625000 -0.003773257602006196975708007812 0.004143266472965478897094726562 0 0 0 0 
2418666666.6666665077 0.155386403203010586837606865629 -0.078955776989459991455078125000 -0.003557880641892551942112588037 0.004453197121620178222656250000 0 0 0 0 
2418833333.3333334923 0.154855594038963290115518134371 -0.079822428524494171142578125000 -0.003191618248820304870605468750 0.004621092230081558227539062500 0 0 0 0 
2419000000.0000000000 0.154339492321014404296875000000 -0.080441080033779144287109375000 -0.002811061218380928039550781250 0.004638954065740109357351972363 0 0 0 0 
2419166666.6666665077 0.154228627681732205489950615629 -0.081217154860496520996093750000 -0.002453900407999753952026367188 0.004677075892686843872070312500 0 0 0 0 
2419333333.3333334923 0.153630927205085809905682481258 -0.081546083092689514160156250000 -0.002174748107790946960449218750 0.004713350441306830319876386426 0 0 0 0 
2419500000.0000000000 0.153493657708168002029580634371 -0.082489594817161560058593750000 -0.001922630239278078079223632812 0.004682245198637247085571289062 0 0 0 0 
2419666666.6666665077 0.152965396642684908767861884371 -0.083044536411762237548828125000 -0.001511815353296696922899555737 0.004664828535169363021850585938 0 0 0 0 
2419833333.3333334923 0.152691677212715204436932481258 -0.083551108837127685546875000000 -0.001149677555076777935028076172 0.004715774673968554410452558301 0 0 0 0 
