# Version 1.00
#
freq[Hz];re:Trc1_S11;im:Trc1_S11;re:Trc2_S21;im:Trc2_S21;
2.400000000000000E+009;1.687234342098236E-001;3.925736621022224E-002;1.135451253503561E-003;1.153917866759002E-003;
2.400166666666667E+009;1.694704145193100E-001;3.877929225564003E-002;1.055531669408083E-003;1.026760670356453E-003;
2.400333333333334E+009;1.701552867889404E-001;3.795305639505386E-002;9.465518523938954E-004;1.127508119679987E-003;
2.400500000000000E+009;1.710438579320908E-001;3.708662465214729E-002;8.558611152693629E-004;1.090606907382608E-003;
2.400666666666667E+009;1.715588718652725E-001;3.608439862728119E-002;7.746513001620770E-004;1.220063888467848E-003;
2.400833333333334E+009;1.721318215131760E-001;3.553136810660362E-002;7.160006789490581E-004;1.209599664434791E-003;
2.401000000000000E+009;1.725338846445084E-001;3.489864245057106E-002;7.654104847460985E-004;1.067643519490957E-003;
2.401166666666667E+009;1.730963587760925E-001;3.390961885452271E-002;5.940290866419673E-004;1.183044514618814E-003;
2.401333333333334E+009;1.732334196567535E-001;3.340745717287064E-002;5.272384150885046E-004;1.225680927745998E-003;
2.401500000000000E+009;1.736878901720047E-001;3.263692557811737E-002;5.576437688432634E-004;1.139779109507799E-003;
2.401666666666667E+009;1.740110367536545E-001;3.201816231012344E-002;5.165167967788875E-004;1.452904660254717E-003;
2.401833333333334E+009;1.743390411138535E-001;3.122938796877861E-002;5.235109711065888E-004;1.603301032446325E-003;
2.402000000000000E+009;1.742445528507233E-001;3.077416121959686E-002;5.759120685979724E-004;1.560018747113645E-003;
2.402166666666667E+009;1.743555217981339E-001;2.974823676049709E-002;6.078871083445847E-004;1.695773564279079E-003;
2.402333333333334E+009;1.741852462291718E-001;2.910589240491390E-002;6.793380016461015E-004;1.827689353376627E-003;
2.402500000000000E+009;1.743785887956619E-001;2.845754846930504E-002;6.912946701049805E-004;1.912948791868985E-003;
2.402666666666667E+009;1.742514818906784E-001;2.772386185824871E-002;7.986167911440134E-004;1.937106484547257E-003;
2.402833333333334E+009;1.742179989814758E-001;2.688295021653175E-002;9.910929948091507E-004;2.182837808504701E-003;
2.403000000000000E+009;1.741589158773422E-001;2.595612220466137E-002;1.031046500429511E-003;2.087470376864076E-003;
2.403166666666667E+009;1.739188730716705E-001;2.515416964888573E-002;1.077489927411079E-003;2.205241005867720E-003;
2.403333333333334E+009;1.735098361968994E-001;2.424494549632072E-002;1.130927237682045E-003;2.155689056962729E-003;
2.403500000000000E+009;1.732385754585266E-001;2.305036783218384E-002;1.381267444230616E-003;2.467243932187557E-003;
2.403666666666667E+009;1.731560081243515E-001;2.200830541551113E-002;1.501161255873740E-003;2.238092012703419E-003;
2.403833333333334E+009;1.729187667369843E-001;2.098853327333927E-002;1.626944635063410E-003;2.107277279719710E-003;
2.404000000000000E+009;1.726583987474442E-001;1.981037482619286E-002;1.834366004914045E-003;2.340472070500255E-003;
2.404166666666667E+009;1.722949743270874E-001;1.848945207893848E-002;1.959820277988911E-003;2.267014235258102E-003;
2.404333333333334E+009;1.718912720680237E-001;1.729310117661953E-002;2.279421780258417E-003;2.245712792500854E-003;
2.404500000000000E+009;1.715573966503143E-001;1.586079038679600E-002;2.248391741886735E-003;2.079179510474205E-003;
2.404666666666667E+009;1.713314652442932E-001;1.463251095265150E-002;2.498905407264829E-003;1.986515941098332E-003;
2.404833333333334E+009;1.711332499980927E-001;1.312435045838356E-002;2.473717788234353E-003;2.038350328803062E-003;
2.405000000000000E+009;1.708431541919708E-001;1.166357845067978E-002;2.633870346471667E-003;1.860589953139424E-003;
2.405166666666667E+009;1.706830859184265E-001;1.011240389198065E-002;2.970138331875205E-003;1.767889945767820E-003;
2.405333333333334E+009;1.705329865217209E-001;8.309119381010532E-003;3.008302533999085E-003;1.757393591105938E-003;
2.405500000000000E+009;1.702917963266373E-001;6.760918535292149E-003;3.209356218576431E-003;1.717579201795161E-003;
2.405666666666667E+009;1.698946356773377E-001;5.148658994585276E-003;3.489251947030425E-003;1.333697116933763E-003;
2.405833333333334E+009;1.694206297397614E-001;3.465421497821808E-003;3.684198250994086E-003;1.250406610779464E-003;
2.406000000000000E+009;1.694389879703522E-001;1.500871381722391E-003;3.688906086608768E-003;9.567986126057804E-004;
2.406166666666667E+009;1.689663529396057E-001;-1.391420664731413E-004;3.978609573096037E-003;9.157159947790206E-004;
2.406333333333334E+009;1.689419150352478E-001;-1.863823155872524E-003;3.857773495838046E-003;6.831266218796372E-004;
2.406500000000000E+009;1.685028970241547E-001;-3.658388741314411E-003;4.011718090623617E-003;3.807693428825587E-004;
2.406666666666667E+009;1.680450886487961E-001;-5.387666635215282E-003;3.939738497138023E-003;6.221658986760303E-005;
2.406833333333334E+009;1.679116338491440E-001;-7.196870166808367E-003;4.022085107862949E-003;-2.820424851961434E-004;
2.407000000000000E+009;1.677644848823547E-001;-8.757030591368675E-003;3.909797407686710E-003;-4.514632455538958E-004;
2.407166666666667E+009;1.676978617906570E-001;-1.039976626634598E-002;3.816958982497454E-003;-9.059939766302705E-004;
2.407333333333334E+009;1.672796010971069E-001;-1.204119529575110E-002;3.780574072152376E-003;-9.783670539036393E-004;
2.407500000000000E+009;1.671476811170578E-001;-1.348095014691353E-002;3.699977183714509E-003;-1.107892836444080E-003;
2.407666666666667E+009;1.670341193675995E-001;-1.485954318195581E-002;3.474310506135225E-003;-1.332115964032710E-003;
2.407833333333334E+009;1.668133437633514E-001;-1.641722396016121E-002;3.147224662825465E-003;-1.479789963923395E-003;
2.408000000000000E+009;1.667536348104477E-001;-1.776662841439247E-002;3.083736402913928E-003;-1.420650747604668E-003;
2.408166666666667E+009;1.667780578136444E-001;-1.880328916013241E-002;2.921079518273473E-003;-1.688678981736302E-003;
2.408333333333334E+009;1.669960767030716E-001;-2.002393081784248E-002;2.630773466080427E-003;-1.788650522939861E-003;
2.408500000000000E+009;1.670798510313034E-001;-2.111016586422920E-002;2.696107141673565E-003;-1.821029698476195E-003;
2.408666666666667E+009;1.671609878540039E-001;-2.229095064103603E-002;2.487127203494310E-003;-1.881656353361905E-003;
2.408833333333334E+009;1.674890518188477E-001;-2.331067807972431E-002;2.429407322779298E-003;-1.956176012754440E-003;
2.409000000000000E+009;1.677183955907822E-001;-2.425017207860947E-002;2.298528794199228E-003;-1.910539693199098E-003;
2.409166666666667E+009;1.680565625429153E-001;-2.528730593621731E-002;2.162270480766892E-003;-1.927688717842102E-003;
2.409333333333334E+009;1.684908866882324E-001;-2.628557942807674E-002;2.076481003314257E-003;-1.998692983761430E-003;
2.409500000000000E+009;1.687831282615662E-001;-2.726200409233570E-002;1.967813819646835E-003;-1.906075864098966E-003;
2.409666666666667E+009;1.690282523632050E-001;-2.829241007566452E-002;1.932078157551587E-003;-1.955960877239704E-003;
2.409833333333334E+009;1.693565398454666E-001;-2.909656055271626E-002;1.712687662802637E-003;-2.022932050749660E-003;
2.410000000000000E+009;1.697668731212616E-001;-2.997974492609501E-002;1.539771095849574E-003;-1.861405908130109E-003;
2.410166666666667E+009;1.700360476970673E-001;-3.081567585468292E-002;1.616118242964149E-003;-1.813718932680786E-003;
2.410333333333334E+009;1.702533364295960E-001;-3.183220699429512E-002;1.495068660005927E-003;-1.773552387021482E-003;
2.410500000000000E+009;1.703944355249405E-001;-3.254638984799385E-002;1.573082525283098E-003;-1.735156401991844E-003;
2.410666666666667E+009;1.704135537147522E-001;-3.350317105650902E-002;1.570243388414383E-003;-1.630982849746943E-003;
2.410833333333334E+009;1.707816720008850E-001;-3.425661846995354E-002;1.651618862524629E-003;-1.639884314499795E-003;
2.411000000000000E+009;1.706692427396774E-001;-3.505449742078781E-002;1.671992009505630E-003;-1.734381890855730E-003;
2.411166666666667E+009;1.708258241415024E-001;-3.583785519003868E-002;1.664625480771065E-003;-1.656103529967368E-003;
2.411333333333334E+009;1.707506626844406E-001;-3.659182414412499E-002;1.666262047365308E-003;-1.461987383663654E-003;
2.411500000000000E+009;1.706691831350327E-001;-3.741394728422165E-002;1.686428324319422E-003;-1.669804216362536E-003;
2.411666666666667E+009;1.707656681537628E-001;-3.803387284278870E-002;1.837195362895727E-003;-1.767129520885646E-003;
2.411833333333334E+009;1.704178750514984E-001;-3.864009678363800E-002;1.803939696401358E-003;-1.839420176111162E-003;
2.412000000000000E+009;1.704813390970230E-001;-3.939746320247650E-002;1.903295516967773E-003;-2.014073310419917E-003;
2.412166666666667E+009;1.702397912740707E-001;-4.025949165225029E-002;1.691338489763439E-003;-2.177656162530184E-003;
2.412333333333334E+009;1.701048463582993E-001;-4.081191495060921E-002;1.797967241145670E-003;-2.193977823480964E-003;
2.412500000000000E+009;1.696130037307739E-001;-4.161308705806732E-002;1.842996221967042E-003;-2.320028375834227E-003;
2.412666666666667E+009;1.693369001150131E-001;-4.251411184668541E-002;1.780325314030051E-003;-2.444951329380274E-003;
2.412833333333334E+009;1.689472049474716E-001;-4.322256892919540E-002;1.723373541608453E-003;-2.544486895203590E-003;
2.413000000000000E+009;1.684134155511856E-001;-4.398350790143013E-002;1.748798415064812E-003;-2.740988973528147E-003;
2.413166666666667E+009;1.679241061210632E-001;-4.481223225593567E-002;1.502062543295324E-003;-2.996528986841440E-003;
2.413333333333334E+009;1.674535572528839E-001;-4.561682790517807E-002;1.532884780317545E-003;-3.010565182194114E-003;
2.413500000000000E+009;1.668644100427628E-001;-4.654378816485405E-002;1.441316911950707E-003;-3.022387390956283E-003;
2.413666666666667E+009;1.663188636302948E-001;-4.734817519783974E-002;1.410027034580708E-003;-3.136646235361695E-003;
2.413833333333334E+009;1.656157225370407E-001;-4.797998815774918E-002;1.345147844403982E-003;-3.206321038305759E-003;
2.414000000000000E+009;1.648528277873993E-001;-4.893090203404427E-002;1.142205437645316E-003;-3.636220004409552E-003;
2.414166666666667E+009;1.643209308385849E-001;-4.974545165896416E-002;9.684342076070607E-004;-3.618162823840976E-003;
2.414333333333334E+009;1.637540906667709E-001;-5.060252174735069E-002;9.186285897158086E-004;-3.682083683088422E-003;
2.414500000000000E+009;1.634947508573532E-001;-5.153572931885719E-002;7.454989245161414E-004;-3.944460302591324E-003;
2.414666666666667E+009;1.627781540155411E-001;-5.225443467497826E-002;6.370792398229241E-004;-3.901845077052712E-003;
2.414833333333334E+009;1.623487174510956E-001;-5.327319726347923E-002;3.715059719979763E-004;-4.032141994684935E-003;
2.415000000000000E+009;1.618532985448837E-001;-5.404860898852348E-002;-7.136928616091609E-005;-4.123297054320574E-003;
2.415166666666667E+009;1.615071296691895E-001;-5.522851645946503E-002;-2.216973807662725E-004;-4.264658316969872E-003;
2.415333333333334E+009;1.611617356538773E-001;-5.640713870525360E-002;-6.645018002018333E-004;-4.268380813300610E-003;
2.415500000000000E+009;1.608413159847260E-001;-5.753754079341888E-002;-8.722979109734297E-004;-4.119027405977249E-003;
2.415666666666667E+009;1.603476703166962E-001;-5.865400284528732E-002;-1.214199815876782E-003;-4.232297185808420E-003;
2.415833333333334E+009;1.600713282823563E-001;-6.000986322760582E-002;-1.414439175277948E-003;-3.979070577770472E-003;
2.416000000000000E+009;1.595364511013031E-001;-6.131692603230476E-002;-1.668343902565539E-003;-3.937486559152603E-003;
2.416166666666667E+009;1.593849211931229E-001;-6.262311339378357E-002;-1.956525724381208E-003;-3.570659784600139E-003;
2.416333333333334E+009;1.588749736547470E-001;-6.399343162775040E-002;-2.103975275531411E-003;-3.440333064645529E-003;
2.416500000000000E+009;1.584518402814865E-001;-6.536229699850082E-002;-2.315326128154993E-003;-3.211905481293798E-003;
2.416666666666667E+009;1.580273509025574E-001;-6.659889221191406E-002;-2.357781631872058E-003;-3.074385691434145E-003;
2.416833333333334E+009;1.577960103750229E-001;-6.809353828430176E-002;-2.436981769278646E-003;-2.798985457047820E-003;
2.417000000000000E+009;1.571285277605057E-001;-6.936030834913254E-002;-2.468499587848783E-003;-2.558311680331826E-003;
2.417166666666667E+009;1.567289233207703E-001;-7.057897746562958E-002;-2.365389373153448E-003;-2.417545765638351E-003;
2.417333333333334E+009;1.564497798681259E-001;-7.188099622726440E-002;-2.548282500356436E-003;-2.271556062623859E-003;
2.417500000000000E+009;1.560156494379044E-001;-7.310400903224945E-002;-2.421698067337275E-003;-2.138355281203985E-003;
2.417666666666667E+009;1.557360142469406E-001;-7.413191348314285E-002;-2.512899227440357E-003;-2.205841243267059E-003;
2.417833333333334E+009;1.553305834531784E-001;-7.528626173734665E-002;-2.394175389781594E-003;-1.928514218889177E-003;
2.418000000000000E+009;1.549636274576187E-001;-7.658890634775162E-002;-2.434864407405257E-003;-1.864068675786257E-003;
2.418166666666667E+009;1.548527777194977E-001;-7.747453451156616E-002;-2.437671180814505E-003;-1.750204013660550E-003;
2.418333333333334E+009;1.548454761505127E-001;-7.857778668403626E-002;-2.588539617136121E-003;-1.650269958190620E-003;
2.418500000000000E+009;1.545221805572510E-001;-7.954933494329453E-002;-2.617173129692674E-003;-1.597530324943364E-003;
2.418666666666667E+009;1.544654667377472E-001;-8.048423379659653E-002;-2.667920431122184E-003;-1.546759856864810E-003;
2.418833333333334E+009;1.540422737598419E-001;-8.153665065765381E-002;-2.648649038746953E-003;-1.303069060668349E-003;
2.419000000000000E+009;1.539193689823151E-001;-8.225557953119278E-002;-2.758238231763244E-003;-1.228781649842858E-003;
2.419166666666667E+009;1.539099663496018E-001;-8.315046131610870E-002;-2.657720353454351E-003;-1.193673815578222E-003;
2.419333333333334E+009;1.534744203090668E-001;-8.367499709129334E-002;-2.742445562034845E-003;-1.180007355287671E-003;
2.419500000000000E+009;1.534035950899124E-001;-8.486248552799225E-002;-2.600216539576650E-003;-9.280883823521435E-004;
2.419666666666667E+009;1.533249765634537E-001;-8.552095293998718E-002;-2.527151256799698E-003;-9.071296663023531E-004;
2.419833333333334E+009;1.530750542879105E-001;-8.610537648200989E-002;-2.646159846335650E-003;-8.321489440277219E-004;
2.420000000000000E+009;1.531353741884232E-001;-8.688562363386154E-002;-2.630985341966152E-003;-7.413281127810478E-004;
2.420166666666667E+009;1.528977155685425E-001;-8.750354498624802E-002;-2.582963090389967E-003;-7.393815903924406E-004;
2.420333333333334E+009;1.529566198587418E-001;-8.809484541416168E-002;-2.487162360921502E-003;-5.756479804404080E-004;
2.420500000000000E+009;1.527983993291855E-001;-8.864177018404007E-002;-2.600915962830186E-003;-3.913658729288727E-004;
2.420666666666667E+009;1.526202708482742E-001;-8.917056024074554E-002;-2.502230228856206E-003;-4.340902669355273E-004;
2.420833333333334E+009;1.525060385465622E-001;-8.980721980333328E-002;-2.455262467265129E-003;-3.445444162935019E-004;
2.421000000000000E+009;1.520275324583054E-001;-9.049785882234573E-002;-2.422365127131343E-003;-2.666189102455974E-004;
2.421166666666667E+009;1.519529223442078E-001;-9.104773402214050E-002;-2.445225836709142E-003;-8.488057210342959E-005;
2.421333333333334E+009;1.518209427595139E-001;-9.155252575874329E-002;-2.415787894278765E-003;5.670649625244550E-005;
2.421500000000000E+009;1.513154655694962E-001;-9.214136004447937E-002;-2.325792796909809E-003;-3.676151027320884E-005;
2.421666666666667E+009;1.509788781404495E-001;-9.274388104677200E-002;-2.207217039540410E-003;2.118249249178916E-004;
2.421833333333334E+009;1.506412625312805E-001;-9.339247643947601E-002;-2.127159154042602E-003;1.844372309278697E-004;
2.422000000000000E+009;1.501651853322983E-001;-9.385605901479721E-002;-1.996539533138275E-003;1.471414580009878E-004;
2.422166666666667E+009;1.496734172105789E-001;-9.479118883609772E-002;-1.910188468173146E-003;2.623172476887703E-004;
2.422333333333334E+009;1.491800099611282E-001;-9.521539509296417E-002;-1.928646117448807E-003;1.137444633059204E-004;
2.422500000000000E+009;1.483985334634781E-001;-9.563357383012772E-002;-1.846047933213413E-003;-2.048997657766449E-006;
2.422666666666667E+009;1.478691101074219E-001;-9.637265652418137E-002;-1.911371364258230E-003;8.183882164303213E-005;
2.422833333333334E+009;1.474519371986389E-001;-9.712751954793930E-002;-1.842317404225469E-003;1.348944933852181E-004;
2.423000000000000E+009;1.468424201011658E-001;-9.775146096944809E-002;-1.779782935045660E-003;-1.529444853076711E-004;
2.423166666666667E+009;1.463676393032074E-001;-9.823562204837799E-002;-2.023984910920262E-003;-7.717758853686974E-005;
2.423333333333334E+009;1.454841792583466E-001;-9.889961779117584E-002;-1.986752264201641E-003;-1.695683749858290E-004;
2.423500000000000E+009;1.446692049503326E-001;-9.974859654903412E-002;-1.871219952590764E-003;-2.715119917411357E-004;
2.423666666666667E+009;1.438937336206436E-001;-1.005517393350601E-001;-2.127308864146471E-003;-2.808338904287666E-004;
2.423833333333334E+009;1.432091444730759E-001;-1.012738719582558E-001;-2.286532195284963E-003;-2.406954299658537E-004;
2.424000000000000E+009;1.423104107379913E-001;-1.019195839762688E-001;-2.514343243092299E-003;-1.726088812574744E-004;
2.424166666666667E+009;1.413974463939667E-001;-1.028551831841469E-001;-2.496877918019891E-003;-6.191901775309816E-005;
2.424333333333334E+009;1.406166851520538E-001;-1.034961640834808E-001;-2.663352759554982E-003;1.239744233316742E-005;
2.424500000000000E+009;1.398853957653046E-001;-1.043890565633774E-001;-2.639208687469363E-003;2.577893319539726E-004;
2.424666666666667E+009;1.391621083021164E-001;-1.050191074609757E-001;-2.782451221719384E-003;1.282746816286817E-004;
2.424833333333334E+009;1.382652819156647E-001;-1.057888865470886E-001;-2.604842884466052E-003;5.845698760822415E-004;
2.425000000000000E+009;1.376796662807465E-001;-1.067507117986679E-001;-2.842242363840342E-003;5.991191137582064E-004;
2.425166666666667E+009;1.365884244441986E-001;-1.076482832431793E-001;-2.764686942100525E-003;6.082495674490929E-004;
2.425333333333334E+009;1.359546333551407E-001;-1.084818020462990E-001;-2.705314429476857E-003;8.738315082155168E-004;
2.425500000000000E+009;1.353362947702408E-001;-1.095981970429421E-001;-2.687110332772136E-003;9.106435463763773E-004;
2.425666666666667E+009;1.344987303018570E-001;-1.105751767754555E-001;-2.684028353542090E-003;1.089800382032991E-003;
2.425833333333334E+009;1.338807046413422E-001;-1.114239543676376E-001;-2.719030948355794E-003;1.207266235724092E-003;
2.426000000000000E+009;1.332533210515976E-001;-1.124930754303932E-001;-2.664854517206550E-003;1.303290366195142E-003;
2.426166666666667E+009;1.327639520168304E-001;-1.135533452033997E-001;-2.585119102150202E-003;1.481484621763229E-003;
2.426333333333334E+009;1.320473849773407E-001;-1.145671084523201E-001;-2.695490606129170E-003;1.496786600910127E-003;
2.426500000000000E+009;1.314544081687927E-001;-1.155059263110161E-001;-2.663560677319765E-003;1.682039001025260E-003;
2.426666666666667E+009;1.309669911861420E-001;-1.164054870605469E-001;-2.541941823437810E-003;1.723417430184782E-003;
2.426833333333334E+009;1.302885860204697E-001;-1.173950061202049E-001;-2.551077632233501E-003;1.966150244697928E-003;
2.427000000000000E+009;1.297780424356461E-001;-1.183715909719467E-001;-2.369692316278815E-003;2.067922381684184E-003;
2.427166666666667E+009;1.292337626218796E-001;-1.191955953836441E-001;-2.113826340064406E-003;2.064746571704745E-003;
2.427333333333334E+009;1.286592930555344E-001;-1.201276555657387E-001;-2.216347726061940E-003;2.066476037725806E-003;
2.427500000000000E+009;1.284474283456802E-001;-1.210343018174171E-001;-2.193062100559473E-003;2.438637660816312E-003;
2.427666666666667E+009;1.279625594615936E-001;-1.219279766082764E-001;-2.056571422144771E-003;2.267449861392379E-003;
