# Hz S RI R 50
2400000000.0000000000 0.169125080108642605880575615629 0.045757841318845748901367187500 -0.002450146246701478958129882812 0.001051719998940825896022177588 0 0 0 0 
2400166666.6666665077 0.170064985752105712890625000000 0.044760774821043021465261091407 -0.002368185436353086991551064600 0.000864424859173595905303955078 0 0 0 0 
2400333333.3333334923 0.170847088098526000976562500000 0.043734509497880942607839216407 -0.002510079648345708847045898438 0.001058795955032109997392963940 0 0 0 0 
2400500000.0000000000 0.171862438321113586425781250000 0.042735125869512557983398437500 -0.002520814072340726852416992188 0.001122322515584528012516640771 0 0 0 0 
2400666666.6666665077 0.172795370221138000488281250000 0.041750658303499221801757812500 -0.002495045540854334831237792969 0.000768191937822848558425903320 0 0 0 0 
2400833333.3333334923 0.173716947436332702636718750000 0.040895849466323852539062500000 -0.002475709887221456007716513525 0.001001406111754477024078369141 0 0 0 0 
2401000000.0000000000 0.174522101879119900802450615629 0.039994429796934127807617187500 -0.002636970486491918997523642432 0.000970141962170600891113281250 0 0 0 0 
2401166666.6666665077 0.175369888544082613845986884371 0.039262209087610251689870466407 -0.002625294961035252051112509619 0.001084305346012115912196493994 0 0 0 0 
2401333333.3333334923 0.175886288285255404373330634371 0.038556750863790512084960937500 -0.002736850176006555990931845557 0.001002334756776690916774130713 0 0 0 0 
2401500000.0000000000 0.176750063896179199218750000000 0.037934731692075729370117187500 -0.002600290579721332030055380713 0.001195282326079905033111572266 0 0 0 0 
2401666666.6666665077 0.177391812205314608474893134371 0.037380851805210106586496721093 -0.002657498931512237028834677588 0.001185062690638005950330424731 0 0 0 0 
2401833333.3333334923 0.177883148193359402755575615629 0.036873787641525268554687500000 -0.002865224378183484077453613281 0.001177865546196698925615620190 0 0 0 0 
2402000000.0000000000 0.178195655345916803558026231258 0.036331329494714736938476562500 -0.002817301079630852179286337744 0.001282297540456057028529501807 0 0 0 0 
2402166666.6666665077 0.178656890988349886795205634371 0.035470325499773032451589216407 -0.002784546697512269020080566406 0.001428128103725611946703266675 0 0 0 0 
2402333333.3333334923 0.178897872567176791092080634371 0.034966606646776199340820312500 -0.002665678737685083909275673975 0.001626117038540541908861469800 0 0 0 0 
2402500000.0000000000 0.179454892873764010330361884371 0.034431699663400650024414062500 -0.002705971943214536146876669775 0.001940851914696394963505410303 0 0 0 0 
2402666666.6666665077 0.179526716470718411544638115629 0.033889152109622962261159528907 -0.002730155363678932189941406250 0.001938515226356684944750141675 0 0 0 0 
2402833333.3333334923 0.179663658142089788238848768742 0.033027637749910361553151716407 -0.002650365233421326117274618994 0.002064823405817151069641113281 0 0 0 0 
2403000000.0000000000 0.179722547531127901931924384371 0.032330933958292007446289062500 -0.002687235828489065170288085938 0.002190773608162999153137207031 0 0 0 0 
2403166666.6666665077 0.179909974336624201018963731258 0.031661864370107650756835937500 -0.002660039113834499879124306787 0.002254374558106064796447753906 0 0 0 0 
2403333333.3333334923 0.179852008819580105880575615629 0.030826758593320850027064139454 -0.002706750994548201994654990088 0.002503694035112857818603515625 0 0 0 0 
2403500000.0000000000 0.179420143365860013107138115629 0.029946256428956988943079764454 -0.002696304814890027046203613281 0.002640827558934689001796103369 0 0 0 0 
2403666666.6666665077 0.179209962487220791915731865629 0.028926350176334381103515625000 -0.002515879925340414047241210938 0.002713521709665656089782714844 0 0 0 0 
2403833333.3333334923 0.179066553711891202071981865629 0.027915349230170249938964843750 -0.002555629238486289978027343750 0.002961775055155158042907714844 0 0 0 0 
2404000000.0000000000 0.178590178489685086349325615629 0.026828883215785030019739920704 -0.002451655222103000120875693213 0.003110145684331655936000204932 0 0 0 0 
2404166666.6666665077 0.178120195865631103515625000000 0.025672385469079021108607108204 -0.002251223661005496978759765625 0.003218000987544655799865722656 0 0 0 0 
2404333333.3333334923 0.177808269858360290527343750000 0.024572612717747688293457031250 -0.002130673034116625785827636719 0.003285103710368276076075888525 0 0 0 0 
2404500000.0000000000 0.177269771695136996170205634371 0.023224627599120140075683593750 -0.002033477416262031035182333838 0.003506838111206889152526855469 0 0 0 0 
2404666666.6666665077 0.176722139120101900955361884371 0.021933943033218380319615548046 -0.001946211094036697907688759912 0.003585155121982098059413290869 0 0 0 0 
2404833333.3333334923 0.176079988479614313323651231258 0.020510852336883548391321951954 -0.001683242386206984953639365088 0.003908506594598293304443359375 0 0 0 0 
2405000000.0000000000 0.175805717706680297851562500000 0.018788520246744159353236014454 -0.001650319551117718002916645581 0.003954685293138027191162109375 0 0 0 0 
2405166666.6666665077 0.175499498844146700760049384371 0.017439404502511021005650704296 -0.001511204289272427992579794775 0.004043505061417818069458007812 0 0 0 0 
2405333333.3333334923 0.175229296088218688964843750000 0.015602216124534610403040701954 -0.001529125496745109991786337744 0.004050789866596460342407226562 0 0 0 0 
2405500000.0000000000 0.174518421292304992675781250000 0.014163222163915630685826485546 -0.001074599917046725966809916919 0.004183102864772081375122070312 0 0 0 0 
2405666666.6666665077 0.174198597669601412674111884371 0.012466086074709890538225742773 -0.000856911065056920051574707031 0.004333682358264923095703125000 0 0 0 0 
2405833333.3333334923 0.173782065510749789138955634371 0.010836536064743999135950858204 -0.000645500782411545515060424805 0.004268044605851173400878906250 0 0 0 0 
2406000000.0000000000 0.173405915498733492752236884371 0.008790601044893264770507812500 -0.000506881333421915769577026367 0.004580954089760780334472656250 0 0 0 0 
2406166666.6666665077 0.172969579696655301193075615629 0.006972632836550474166870117188 -0.000358605990186333710521143781 0.004474957007914781570434570312 0 0 0 0 
2406333333.3333334923 0.173018351197242709060830634371 0.005011256784200668334960937500 0.000051441649702610448002815247 0.004585485439747571945190429688 0 0 0 0 
2406500000.0000000000 0.173011183738708496093750000000 0.002799138892441987991333007812 0.000420895114075392484664916992 0.004536970984190701570992754199 0 0 0 0 
2406666666.6666665077 0.172548934817314203460369981258 0.000950023415498435497283935547 0.000467206176836043596267700195 0.004609631374478340148925781250 0 0 0 0 
2406833333.3333334923 0.172583043575286892989950615629 -0.001066069351509213013889931787 0.000861619657371193170547485352 0.004670629277825356397146894238 0 0 0 0 
2407000000.0000000000 0.172684207558631896972656250000 -0.003136412240564823150634765625 0.001138536958023905970929789966 0.004629512317478656768798828125 0 0 0 0 
2407166666.6666665077 0.172828033566474886795205634371 -0.005204101093113422393798828125 0.001505533349700272083282470703 0.004580151289701461791992187500 0 0 0 0 
2407333333.3333334923 0.172976955771446200271768134371 -0.007430804427713155746459960938 0.001546582905575633049011230469 0.004439711570739746093750000000 0 0 0 0 
2407500000.0000000000 0.173233538866043090820312500000 -0.009543320164084434509277343750 0.001890780753456055901171040112 0.004258425906300544738769531250 0 0 0 0 
2407666666.6666665077 0.173567339777946499923544365629 -0.011471956036984920501708984375 0.002166233956813811822178506006 0.004325358197093009948730468750 0 0 0 0 
2407833333.3333334923 0.173739343881607111175213731258 -0.013671161606907849747627459180 0.002344560809433459801914834131 0.004002737347036600112915039062 0 0 0 0 
2408000000.0000000000 0.174176201224327087402343750000 -0.015825383365154269826868826954 0.002642053412273526191711425781 0.003908925689756870269775390625 0 0 0 0 
2408166666.6666665077 0.174570754170417813400106865629 -0.017659317702054980886439139454 0.002902252133935689926147460938 0.003705805167555809020996093750 0 0 0 0 
2408333333.3333334923 0.175136521458625793457031250000 -0.019702712073922160757044608204 0.003112664213404058976414345850 0.003508058609440923170802451025 0 0 0 0 
2408500000.0000000000 0.175481021404266412933026231258 -0.021800054237246509897252266796 0.003282913006842135949375771631 0.003240571357309817834141396631 0 0 0 0 
2408666666.6666665077 0.175697728991508511642294365629 -0.023664932698011398315429687500 0.003491841023787856101989746094 0.002969648223370314078090048682 0 0 0 0 
2408833333.3333334923 0.175989449024200411697549384371 -0.025503482669591900217076485546 0.003616447560489178137538290869 0.002771286061033606962916708838 0 0 0 0 
2409000000.0000000000 0.176386356353759793380575615629 -0.027152745053172111511230468750 0.003730528987944126129150390625 0.002394632436335086822509765625 0 0 0 0 
2409166666.6666665077 0.176923945546150207519531250000 -0.028605939820408821105957031250 0.003671728074550629095790243994 0.002080010483041406111476279150 0 0 0 0 
2409333333.3333334923 0.177285209298133905608807481258 -0.030101731419563289987584298046 0.003792325034737586975097656250 0.001927493140101433017133403247 0 0 0 0 
2409500000.0000000000 0.177747830748557988922442518742 -0.031628888100385672832448591407 0.003810402471572161154506064307 0.001944484654814004898071289062 0 0 0 0 
2409666666.6666665077 0.178033158183097811599893134371 -0.032769445329904563213307966407 0.003754537086933850808384560693 0.001444438239559530995012592847 0 0 0 0 
2409833333.3333334923 0.178374499082565307617187500000 -0.033706601709127433086354841407 0.003775650635361671014073037256 0.001361033064313232898712158203 0 0 0 0 
2410000000.0000000000 0.178817972540855407714843750000 -0.034621324390172958374023437500 0.003929383587092161178588867188 0.000990135478787124156951904297 0 0 0 0 
2410166666.6666665077 0.179411143064498901367187500000 -0.035753794014453887939453125000 0.003946893382817506790161132812 0.000782037735916674137115478516 0 0 0 0 
2410333333.3333334923 0.179866671562194796463174384371 -0.036428149789571762084960937500 0.003837370779365301132202148438 0.000621123355813324451446533203 0 0 0 0 
2410500000.0000000000 0.180415168404579190353231865629 -0.037211105227470397949218750000 0.003807131433859467940089560400 0.000438443908933550119400024414 0 0 0 0 
2410666666.6666665077 0.180647268891334505935830634371 -0.037980124354362487792968750000 0.003756598569452763037440634619 0.000115720082249026799767893658 0 0 0 0 
2410833333.3333334923 0.180877372622489901443643134371 -0.038569878786802291870117187500 0.003532418748363852934596396338 -0.000275141850579530000686645508 0 0 0 0 
2411000000.0000000000 0.181292161345481900314169365629 -0.039035912603139877319335937500 0.003447254188358784155604697119 -0.000449103856226429289013463153 0 0 0 0 
2411166666.6666665077 0.181588456034660311599893134371 -0.039910424500703811645507812500 0.003423607442528008980991982568 -0.000615889381151646375656127930 0 0 0 0 
2411333333.3333334923 0.181693643331527709960937500000 -0.040163457393646240234375000000 0.003282787976786493821385048975 -0.000746242119930684566497802734 0 0 0 0 
2411500000.0000000000 0.181802690029144287109375000000 -0.040638245642185211181640625000 0.003169463481754064993617392432 -0.000980976503342390060424804688 0 0 0 0 
2411666666.6666665077 0.181839466094970703125000000000 -0.041102711111307137226145158593 0.002997347153723239898681640625 -0.001069399877451360008837055737 0 0 0 0 
2411833333.3333334923 0.181706175208091708084268134371 -0.041471492499113082885742187500 0.002797275781631470160243368994 -0.001170173170976340987561870044 0 0 0 0 
2412000000.0000000000 0.181773990392684908767861884371 -0.041966866701841347431223283593 0.002548532793298364119288779150 -0.001279128016903996901271201025 0 0 0 0 
2412166666.6666665077 0.181382730603218106368856865629 -0.042246997356414801860768903907 0.002432031789794563813450478662 -0.001363650313578546047210693359 0 0 0 0 
2412333333.3333334923 0.181166380643844604492187500000 -0.042575489729642868041992187500 0.002252475125715136961696005713 -0.001447633374482393047930073315 0 0 0 0 
2412500000.0000000000 0.180345669388771112640057481258 -0.042785793542861938476562500000 0.002060134662315249009373330225 -0.001461915671825408935546875000 0 0 0 0 
2412666666.6666665077 0.179983139038085909744424384371 -0.043337516486644751811940778907 0.001874396810308099009870219653 -0.001403221394866704940795898438 0 0 0 0 
2412833333.3333334923 0.179475232958793612381143134371 -0.043751999735832207416574846093 0.001763405743986367962480854565 -0.001487790839746593995335244287 0 0 0 0 
2413000000.0000000000 0.178585007786750793457031250000 -0.044015940278768539428710937500 0.001622783718630671934840536963 -0.001498647034168242974522256006 0 0 0 0 
2413166666.6666665077 0.177764520049095209319744981258 -0.044491201639175421977956403907 0.001353433472104371027705527197 -0.001374748302623630003688193213 0 0 0 0 
2413333333.3333334923 0.176796033978462191482705634371 -0.044962532818317413330078125000 0.001277741394005716063855815356 -0.001546313869766891002655029297 0 0 0 0 
2413500000.0000000000 0.175962835550308199783486884371 -0.045344531536102301860768903907 0.001098344568163156943080283057 -0.001450274372473359107971191406 0 0 0 0 
2413666666.6666665077 0.175058066844940213302450615629 -0.045942436903715126728098283593 0.001015307963825762055040669019 -0.001429372583515942096710205078 0 0 0 0 
2413833333.3333334923 0.173719003796577509124432481258 -0.046664971858263022685964216407 0.000807892705779522657394409180 -0.001426011440344155051587748950 0 0 0 0 
2414000000.0000000000 0.172691807150840787032919365629 -0.047191593796014792705495466407 0.000848620722535997629165649414 -0.001057490473613142967224121094 0 0 0 0 
2414166666.6666665077 0.171702876687049893478231865629 -0.047837927937507629394531250000 0.000641117629129439592361450195 -0.001028320519253611998317099463 0 0 0 0 
2414333333.3333334923 0.170413166284561212737713731258 -0.048821229487657546997070312500 0.000530445598997175693511962891 -0.001077845459803939082502055591 0 0 0 0 
2414500000.0000000000 0.169445976614952087402343750000 -0.049423906952142722392995466407 0.000468094280222430825233459473 -0.001004816615022718906402587891 0 0 0 0 
2414666666.6666665077 0.168247550725936889648437500000 -0.050319492816925048828125000000 0.000424363068304956013530176984 -0.000960482924710959196090698242 0 0 0 0 
2414833333.3333334923 0.166947647929191589355468750000 -0.051561288535594940185546875000 0.000305782305076718276173192157 -0.000707600498571991920471191406 0 0 0 0 
2415000000.0000000000 0.165666341781616210937500000000 -0.052598629146814353252370466407 0.000276138278422877192497253418 -0.000684082217048853635787963867 0 0 0 0 
2415166666.6666665077 0.164506465196609497070312500000 -0.053795784711837768554687500000 0.000340522528858855420916956769 -0.000683592632412910461425781250 0 0 0 0 
2415333333.3333334923 0.163417786359786987304687500000 -0.055293302983045578002929687500 0.000295547535642981475025731219 -0.000510674959514290094375610352 0 0 0 0 
2415500000.0000000000 0.162224799394607488434161268742 -0.056565854698419570922851562500 0.000229145574849098893717089243 -0.000481911178212612921565455304 0 0 0 0 
2415666666.6666665077 0.161101207137107904632244981258 -0.057991653680801391601562500000 0.000359898695023730397224426270 -0.000366768101230263710021972656 0 0 0 0 
2415833333.3333334923 0.160110414028167696853799384371 -0.059672467410564422607421875000 0.000333885225700214505195617676 -0.000096080410003196448087692261 0 0 0 0 
2416000000.0000000000 0.158892065286636408050213731258 -0.061269111931324012065847028907 0.000281235261354595422744750977 -0.000193902727914974093437194824 0 0 0 0 
2416166666.6666665077 0.158035352826118496993856865629 -0.063083924353122711181640625000 0.000380123994546011090278625488 -0.000173835243913345011785784311 0 0 0 0 
2416333333.3333334923 0.157029956579208401779013115629 -0.064774982631206512451171875000 0.000446537538664415478706359863 -0.000045213739213068038225173950 0 0 0 0 
2416500000.0000000000 0.156074360013008089920205634371 -0.066743955016136169433593750000 0.000488515070173889398574829102 -0.000071623871917836368083953857 0 0 0 0 
2416666666.6666665077 0.155169308185577392578125000000 -0.068426668643951416015625000000 0.000455618457635864615440368652 -0.000055488966609118513088633878 0 0 0 0 
2416833333.3333334923 0.154428482055664090255575615629 -0.070636406540870666503906250000 0.000635899719782173633575439453 -0.000107072854007128599003115244 0 0 0 0 
2417000000.0000000000 0.153456583619117709060830634371 -0.072453901171684265136718750000 0.000635712698567658662796020508 0.000075047646532766520977020264 0 0 0 0 
2417166666.6666665077 0.152745485305786105056924384371 -0.074340425431728363037109375000 0.000921194208785891532897949219 0.000129730600747279795721331186 0 0 0 0 
2417333333.3333334923 0.152107968926429804046307481258 -0.076146602630615234375000000000 0.000979875330813229084014892578 -0.000158858718350529697820386343 0 0 0 0 
2417500000.0000000000 0.151372164487838800628338731258 -0.078216493129730224609375000000 0.001005453872494399981257773291 -0.000154347639181651202127179556 0 0 0 0 
2417666666.6666665077 0.151187092065811212737713731258 -0.079919807612895965576171875000 0.001088738325051962895634316553 -0.000019393695765756998548303910 0 0 0 0 
2417833333.3333334923 0.150643840432167108733807481258 -0.081697583198547363281250000000 0.001031671999953686974169086987 -0.000129576466861180988237103873 0 0 0 0 
2418000000.0000000000 0.150192797183990506271200615629 -0.083690077066421508789062500000 0.001204024651087820963618613135 -0.000203324088943190899774274283 0 0 0 0 
2418166666.6666665077 0.149820581078529413421307481258 -0.085259594023227691650390625000 0.001165806432254612012150429834 -0.000271167373284697478443699969 0 0 0 0 
2418333333.3333334923 0.149855360388755798339843750000 -0.086968168616294860839843750000 0.001164222951047122912165976416 -0.000337103294441476518481654034 0 0 0 0 
2418500000.0000000000 0.149527564644813509842080634371 -0.088587731122970581054687500000 0.001097754226066171906114887769 -0.000391797977499663775593358173 0 0 0 0 
2418666666.6666665077 0.149623662233352688888388115629 -0.090068347752094268798828125000 0.001279392512515187046648335034 -0.000413608882809057777554112567 0 0 0 0 
2418833333.3333334923 0.149317204952239990234375000000 -0.091502234339714050292968750000 0.001021247240714729049085307544 -0.000607647292781621217727661133 0 0 0 0 
2419000000.0000000000 0.149348780512809808929119981258 -0.092840723693370819091796875000 0.001135011552833020903943705981 -0.000809173681773245334625244141 0 0 0 0 
2419166666.6666665077 0.149483397603035000900106865629 -0.094135180115699768066406250000 0.001045971293933690027949667822 -0.000704388134181499481201171875 0 0 0 0 
2419333333.3333334923 0.149411439895629910568075615629 -0.094954185187816619873046875000 0.001024042256176471927045512622 -0.000768533966038376092910766602 0 0 0 0 
2419500000.0000000000 0.149608746170997591873330634371 -0.096197530627250671386718750000 0.000869062729179859161376953125 -0.000818632950540632009506225586 0 0 0 0 
2419666666.6666665077 0.149948731064796503265057481258 -0.097037211060523986816406250000 0.000738835893571376800537109375 -0.000878486782312393188476562500 0 0 0 0 
2419833333.3333334923 0.150011956691741887848223768742 -0.097706228494644165039062500000 0.000753181404434144496917724609 -0.000871785450726747512817382812 0 0 0 0 
