# Version 1.00
#
freq[Hz];re:Trc1_S11;im:Trc1_S11;re:Trc2_S21;im:Trc2_S21;
2.400000000000000E+009;1.618040949106216E-001;5.642964690923691E-002;1.469977898523212E-003;3.327894490212202E-003;
2.400166666666667E+009;1.617793887853622E-001;5.511407554149628E-002;1.334833912551403E-003;3.326756414026022E-003;
2.400333333333334E+009;1.619580388069153E-001;5.340592190623283E-002;1.511470996774733E-003;3.413485130295157E-003;
2.400500000000000E+009;1.620736569166184E-001;5.167196318507195E-002;1.747322035953403E-003;3.380611771717668E-003;
2.400666666666667E+009;1.620383858680725E-001;4.994777962565422E-002;1.924221636727452E-003;3.230318427085877E-003;
2.400833333333334E+009;1.623142808675766E-001;4.839066416025162E-002;2.098561031743884E-003;3.223486011847854E-003;
2.401000000000000E+009;1.623879075050354E-001;4.663968831300736E-002;2.056943951174617E-003;3.289703978225589E-003;
2.401166666666667E+009;1.624885499477387E-001;4.469053074717522E-002;2.315143588930368E-003;3.295876318588853E-003;
2.401333333333334E+009;1.627243608236313E-001;4.299153015017510E-002;2.308775670826435E-003;3.332315944135189E-003;
2.401500000000000E+009;1.632541716098785E-001;4.116349294781685E-002;2.557513304054737E-003;3.246199805289507E-003;
2.401666666666667E+009;1.633172482252121E-001;3.955711796879768E-002;2.961803926154971E-003;3.287404542788863E-003;
2.401833333333334E+009;1.635649800300598E-001;3.769712150096893E-002;2.992359688505530E-003;3.189188893884420E-003;
2.402000000000000E+009;1.638629436492920E-001;3.613872081041336E-002;3.022137330844998E-003;2.967948792502284E-003;
2.402166666666667E+009;1.643344461917877E-001;3.426047042012215E-002;3.238434204831719E-003;3.010934451594949E-003;
2.402333333333334E+009;1.646355092525482E-001;3.288877010345459E-002;3.645061049610376E-003;2.841515233740211E-003;
2.402500000000000E+009;1.653359681367874E-001;3.107648529112339E-002;3.745273221284151E-003;2.823464805260301E-003;
2.402666666666667E+009;1.657314300537109E-001;2.968917414546013E-002;4.005210939794779E-003;2.614870900288224E-003;
2.402833333333334E+009;1.663720458745956E-001;2.830006368458271E-002;4.114656243473291E-003;2.406197367236018E-003;
2.403000000000000E+009;1.669916212558746E-001;2.674187161028385E-002;4.293287172913551E-003;2.395263873040676E-003;
2.403166666666667E+009;1.676402837038040E-001;2.534205652773380E-002;4.353708121925592E-003;2.062757499516010E-003;
2.403333333333334E+009;1.680680066347122E-001;2.396982349455357E-002;4.637324716895819E-003;1.821554033085704E-003;
2.403500000000000E+009;1.686280965805054E-001;2.263521216809750E-002;4.746766295284033E-003;1.769824535585940E-003;
2.403666666666667E+009;1.694342494010925E-001;2.154949866235256E-002;4.954625386744738E-003;1.442386885173619E-003;
2.403833333333334E+009;1.700305491685867E-001;2.020880393683910E-002;4.972991533577442E-003;1.193700707517564E-003;
2.404000000000000E+009;1.707333177328110E-001;1.916470937430859E-002;5.199963226914406E-003;8.693020790815353E-004;
2.404166666666667E+009;1.714049577713013E-001;1.799223758280277E-002;4.883163608610630E-003;5.915923975408077E-004;
2.404333333333334E+009;1.720305383205414E-001;1.716710440814495E-002;4.869380965828896E-003;3.562484052963555E-004;
2.404500000000000E+009;1.724380105733872E-001;1.599140092730522E-002;5.030171945691109E-003;6.242942617973313E-005;
2.404666666666667E+009;1.733569651842117E-001;1.518863067030907E-002;5.008205305784941E-003;-3.491940442472696E-004;
2.404833333333334E+009;1.739546507596970E-001;1.440659258514643E-002;5.044180434197187E-003;-5.242894403636456E-004;
2.405000000000000E+009;1.744923889636993E-001;1.349275745451450E-002;4.817510023713112E-003;-8.327422547154129E-004;
2.405166666666667E+009;1.751021444797516E-001;1.278845407068729E-002;4.765563644468784E-003;-1.183754648081958E-003;
2.405333333333334E+009;1.756199151277542E-001;1.206310465931892E-002;4.607619252055883E-003;-1.331357751041651E-003;
2.405500000000000E+009;1.760665625333786E-001;1.138979755342007E-002;4.444932565093041E-003;-1.433935249224305E-003;
2.405666666666667E+009;1.764590591192246E-001;1.078845094889402E-002;4.230975173413754E-003;-1.683828886598349E-003;
2.405833333333334E+009;1.766869425773621E-001;1.042239926755428E-002;4.192333202809095E-003;-1.886226818896830E-003;
2.406000000000000E+009;1.771735548973084E-001;9.820172563195229E-003;4.024237394332886E-003;-2.172670327126980E-003;
2.406166666666667E+009;1.773067414760590E-001;9.421839378774166E-003;3.827808657661080E-003;-2.113384194672108E-003;
2.406333333333334E+009;1.776250749826431E-001;8.814656175673008E-003;3.644419834017754E-003;-2.268243348225951E-003;
2.406500000000000E+009;1.777343451976776E-001;8.207928389310837E-003;3.526668995618820E-003;-2.379538724198937E-003;
2.406666666666667E+009;1.777031421661377E-001;7.819299586117268E-003;3.403503680601716E-003;-2.463291864842176E-003;
2.406833333333334E+009;1.779563874006271E-001;7.230421062558889E-003;3.074733773246408E-003;-2.693946240469813E-003;
2.407000000000000E+009;1.779610812664032E-001;6.677906028926373E-003;3.054046304896474E-003;-2.656993223354220E-003;
2.407166666666667E+009;1.779916584491730E-001;6.160597782582045E-003;3.050558734685183E-003;-2.852766774594784E-003;
2.407333333333334E+009;1.778661459684372E-001;5.508016794919968E-003;2.766605233773589E-003;-2.765928627923131E-003;
2.407500000000000E+009;1.777523308992386E-001;4.899773281067610E-003;2.437536604702473E-003;-2.699630567803979E-003;
2.407666666666667E+009;1.774656772613525E-001;4.327019676566124E-003;2.384164137765765E-003;-2.846715738996863E-003;
2.407833333333334E+009;1.771759986877441E-001;3.641801187768579E-003;2.117994939908385E-003;-2.924784086644650E-003;
2.408000000000000E+009;1.770196855068207E-001;2.700207056477666E-003;2.090281108394265E-003;-2.909209579229355E-003;
2.408166666666667E+009;1.765669733285904E-001;2.135150600224733E-003;1.912846346385777E-003;-2.903377637267113E-003;
2.408333333333334E+009;1.763889789581299E-001;1.052698469720781E-003;1.865143072791398E-003;-2.818270353600383E-003;
2.408500000000000E+009;1.759591400623322E-001;1.740739680826664E-004;1.562983263283968E-003;-2.933089621365070E-003;
2.408666666666667E+009;1.754723936319351E-001;-8.031832985579968E-004;1.499050995334983E-003;-3.013089299201965E-003;
2.408833333333334E+009;1.749542951583862E-001;-1.836340641602874E-003;1.380428904667497E-003;-2.712310990318656E-003;
2.409000000000000E+009;1.744109690189362E-001;-2.930536400526762E-003;1.207295921631157E-003;-2.662613522261381E-003;
2.409166666666667E+009;1.739055365324020E-001;-4.081897903233767E-003;1.146780792623758E-003;-2.756051253527403E-003;
2.409333333333334E+009;1.735392957925797E-001;-5.505090579390526E-003;1.047990517690778E-003;-2.595040248706937E-003;
2.409500000000000E+009;1.729824841022492E-001;-6.939239334315062E-003;1.023376244120300E-003;-2.490889281034470E-003;
2.409666666666667E+009;1.723087579011917E-001;-8.044508285820484E-003;8.702387567609549E-004;-2.534037921577692E-003;
2.409833333333334E+009;1.718835532665253E-001;-9.343642741441727E-003;6.385982269421220E-004;-2.365078777074814E-003;
2.410000000000000E+009;1.714695394039154E-001;-1.082937978208065E-002;6.899997824802995E-004;-2.380702411755920E-003;
2.410166666666667E+009;1.711343377828598E-001;-1.238967478275299E-002;7.238037651404738E-004;-2.194131491705775E-003;
2.410333333333334E+009;1.705903708934784E-001;-1.400860585272312E-002;6.967507069930434E-004;-2.169571118429303E-003;
2.410500000000000E+009;1.703382581472397E-001;-1.559514738619328E-002;7.042135694064200E-004;-2.214855980128050E-003;
2.410666666666667E+009;1.699818968772888E-001;-1.743139326572418E-002;7.184929563663900E-004;-2.012086100876331E-003;
2.410833333333334E+009;1.696775108575821E-001;-1.886663027107716E-002;6.177271716296673E-004;-2.070571761578322E-003;
2.411000000000000E+009;1.694132536649704E-001;-2.066221460700035E-002;7.219605613499880E-004;-1.981520326808095E-003;
2.411166666666667E+009;1.691890805959702E-001;-2.239712700247765E-002;7.180208340287209E-004;-1.922411611303687E-003;
2.411333333333334E+009;1.689919680356979E-001;-2.412526309490204E-002;7.075264584273100E-004;-1.945144496858120E-003;
2.411500000000000E+009;1.687862873077393E-001;-2.623009309172630E-002;6.077767466194928E-004;-1.847767503932118E-003;
2.411666666666667E+009;1.689173579216003E-001;-2.773701213300228E-002;6.404981249943376E-004;-1.979220192879438E-003;
2.411833333333334E+009;1.689495444297791E-001;-2.944985032081604E-002;8.042902918532491E-004;-1.931717735715210E-003;
2.412000000000000E+009;1.690696775913239E-001;-3.140651434659958E-002;7.700835121795535E-004;-2.049289178103209E-003;
2.412166666666667E+009;1.688796430826187E-001;-3.338633477687836E-002;8.417338249273598E-004;-2.046891488134861E-003;
2.412333333333334E+009;1.692177504301071E-001;-3.501392528414726E-002;7.829536916688085E-004;-2.078576246276498E-003;
2.412500000000000E+009;1.692974418401718E-001;-3.676231205463409E-002;7.837383309379220E-004;-2.119474811479449E-003;
2.412666666666667E+009;1.696887314319611E-001;-3.863973170518875E-002;7.377156871370971E-004;-2.180028473958373E-003;
2.412833333333334E+009;1.699840724468231E-001;-4.030087590217590E-002;6.860293215140700E-004;-2.147893887013197E-003;
2.413000000000000E+009;1.702057272195816E-001;-4.183116555213928E-002;5.907526938244700E-004;-2.270752098411322E-003;
2.413166666666667E+009;1.704843044281006E-001;-4.343128576874733E-002;6.834152154624462E-004;-2.327195601537824E-003;
2.413333333333334E+009;1.708404421806335E-001;-4.495957493782044E-002;6.542907794937491E-004;-2.297150436788797E-003;
2.413500000000000E+009;1.711954325437546E-001;-4.652243480086327E-002;5.322278593666852E-004;-2.339978236705065E-003;
2.413666666666667E+009;1.715745180845261E-001;-4.793201759457588E-002;5.235025309957564E-004;-2.387932501733303E-003;
2.413833333333334E+009;1.720907390117645E-001;-4.928081110119820E-002;5.610225489363074E-004;-2.343115629628301E-003;
2.414000000000000E+009;1.723272055387497E-001;-5.051333829760552E-002;4.600809770636261E-004;-2.397093921899796E-003;
2.414166666666667E+009;1.727619320154190E-001;-5.171212181448937E-002;3.602420329116285E-004;-2.572828438133001E-003;
2.414333333333334E+009;1.732941269874573E-001;-5.302417278289795E-002;2.089845365844667E-004;-2.541618421673775E-003;
2.414500000000000E+009;1.737771332263947E-001;-5.391237512230873E-002;3.381240821909159E-004;-2.603376284241676E-003;
2.414666666666667E+009;1.740470975637436E-001;-5.485720932483673E-002;2.293449651915580E-004;-2.596724312752485E-003;
2.414833333333334E+009;1.744341254234314E-001;-5.589694902300835E-002;2.251574624096975E-004;-2.444183686748147E-003;
2.415000000000000E+009;1.745956987142563E-001;-5.669393390417099E-002;4.315993646741845E-005;-2.573873382061720E-003;
2.415166666666667E+009;1.750359088182449E-001;-5.731748044490814E-002;4.546618220047094E-005;-2.574866171926260E-003;
2.415333333333334E+009;1.753656268119812E-001;-5.819272994995117E-002;1.305255136685446E-004;-2.642595907673240E-003;
2.415500000000000E+009;1.754581630229950E-001;-5.878553539514542E-002;-6.556827429449186E-005;-2.635981887578964E-003;
2.415666666666667E+009;1.755872815847397E-001;-5.926926434040070E-002;-2.518557303119451E-004;-2.771038096398115E-003;
2.415833333333334E+009;1.759064644575119E-001;-5.996539071202278E-002;-2.229578531114385E-004;-2.783993957564235E-003;
2.416000000000000E+009;1.758045256137848E-001;-6.034976989030838E-002;-1.949577272171155E-004;-2.757886657491326E-003;
2.416166666666667E+009;1.760173141956329E-001;-6.082623079419136E-002;-5.245342617854476E-004;-2.637512050569058E-003;
2.416333333333334E+009;1.758185923099518E-001;-6.111957505345345E-002;-4.298382555134594E-004;-2.759032184258103E-003;
2.416500000000000E+009;1.756435334682465E-001;-6.161016225814819E-002;-5.238544545136392E-004;-2.755672903731465E-003;
2.416666666666667E+009;1.753779053688049E-001;-6.177856028079987E-002;-6.709283334203064E-004;-2.710285130888224E-003;
2.416833333333334E+009;1.750767529010773E-001;-6.227887794375420E-002;-6.964677595533431E-004;-2.724612830206752E-003;
2.417000000000000E+009;1.746589243412018E-001;-6.254676729440689E-002;-8.516187081113458E-004;-2.598132472485304E-003;
2.417166666666667E+009;1.741672009229660E-001;-6.278784573078156E-002;-9.006529580801725E-004;-2.750684972852469E-003;
2.417333333333334E+009;1.737809628248215E-001;-6.312333792448044E-002;-1.017860369756818E-003;-2.593489363789558E-003;
2.417500000000000E+009;1.730755418539047E-001;-6.357225030660629E-002;-1.051933621056378E-003;-2.673498354852200E-003;
2.417666666666667E+009;1.724786609411240E-001;-6.370249390602112E-002;-1.134421443566680E-003;-2.544210059568286E-003;
2.417833333333334E+009;1.716802269220352E-001;-6.398645788431168E-002;-1.195001183077693E-003;-2.599743660539389E-003;
2.418000000000000E+009;1.708939224481583E-001;-6.453722715377808E-002;-1.213510055094957E-003;-2.429399173706770E-003;
2.418166666666667E+009;1.699357330799103E-001;-6.482439488172531E-002;-1.149189891293645E-003;-2.499043010175228E-003;
2.418333333333334E+009;1.693271547555924E-001;-6.537479162216187E-002;-1.325464108958840E-003;-2.374069299548864E-003;
2.418500000000000E+009;1.681966036558151E-001;-6.576235592365265E-002;-1.340230111964047E-003;-2.479699673131108E-003;
2.418666666666667E+009;1.672264933586121E-001;-6.625033169984818E-002;-1.378407701849937E-003;-2.417347626760602E-003;
2.418833333333334E+009;1.660708487033844E-001;-6.682737171649933E-002;-1.470110728405416E-003;-2.325143897905946E-003;
2.419000000000000E+009;1.648717075586319E-001;-6.745852530002594E-002;-1.513887429609895E-003;-2.261648885905743E-003;
2.419166666666667E+009;1.638318747282028E-001;-6.820771843194962E-002;-1.623235875740647E-003;-2.268859418109059E-003;
2.419333333333334E+009;1.626738607883453E-001;-6.875515729188919E-002;-1.656069536693394E-003;-2.245060168206692E-003;
2.419500000000000E+009;1.614838987588882E-001;-6.974670290946960E-002;-1.635408378206193E-003;-2.182149561122060E-003;
2.419666666666667E+009;1.605416536331177E-001;-7.068330794572830E-002;-1.837566727772355E-003;-2.301556291058660E-003;
2.419833333333334E+009;1.592800766229630E-001;-7.137186825275421E-002;-1.912123407237232E-003;-2.185398247092962E-003;
2.420000000000000E+009;1.581641733646393E-001;-7.259646803140640E-002;-1.818232005462050E-003;-2.060255734249950E-003;
2.420166666666667E+009;1.571048796176910E-001;-7.356327027082443E-002;-1.932612154632807E-003;-2.085929969325662E-003;
2.420333333333334E+009;1.562713682651520E-001;-7.477500289678574E-002;-2.120262477546930E-003;-2.013460267335177E-003;
2.420500000000000E+009;1.551447212696075E-001;-7.574518024921417E-002;-2.110868226736784E-003;-1.895588589832187E-003;
2.420666666666667E+009;1.541364789009094E-001;-7.709579914808273E-002;-2.123299520462751E-003;-1.984010683372617E-003;
2.420833333333334E+009;1.532310098409653E-001;-7.839532196521759E-002;-2.104622311890125E-003;-1.941360882483423E-003;
2.421000000000000E+009;1.523242741823196E-001;-7.979194819927216E-002;-2.218767302110791E-003;-1.924675656482577E-003;
2.421166666666667E+009;1.515171080827713E-001;-8.121036738157272E-002;-2.246898366138339E-003;-1.862984150648117E-003;
2.421333333333334E+009;1.509874016046524E-001;-8.273489773273468E-002;-2.353915711864829E-003;-1.812646398320794E-003;
2.421500000000000E+009;1.500924974679947E-001;-8.421348035335541E-002;-2.358001889660955E-003;-1.832629903219640E-003;
2.421666666666667E+009;1.494988203048706E-001;-8.569896221160889E-002;-2.500846516340971E-003;-1.833734102547169E-003;
2.421833333333334E+009;1.489973962306976E-001;-8.723074942827225E-002;-2.521541435271502E-003;-1.677281223237515E-003;
2.422000000000000E+009;1.484310328960419E-001;-8.904410153627396E-002;-2.716111484915018E-003;-1.632901374250650E-003;
2.422166666666667E+009;1.480021774768829E-001;-9.066191315650940E-002;-2.557706087827683E-003;-1.542366691865027E-003;
2.422333333333334E+009;1.477410942316055E-001;-9.211289882659912E-002;-2.610288560390472E-003;-1.504983170889318E-003;
2.422500000000000E+009;1.476259529590607E-001;-9.371426701545715E-002;-2.743229037150741E-003;-1.561153796501458E-003;
2.422666666666667E+009;1.472594887018204E-001;-9.542796760797501E-002;-2.812460064888001E-003;-1.305315177887678E-003;
2.422833333333334E+009;1.471608579158783E-001;-9.719167649745941E-002;-2.901294501498342E-003;-1.498696627095342E-003;
2.423000000000000E+009;1.470638960599899E-001;-9.861942380666733E-002;-2.911327639594674E-003;-1.302520395256579E-003;
2.423166666666667E+009;1.472519040107727E-001;-1.003818288445473E-001;-3.057098714634776E-003;-1.182414125651121E-003;
2.423333333333334E+009;1.471587270498276E-001;-1.016141399741173E-001;-3.124038921669126E-003;-1.072305371053517E-003;
2.423500000000000E+009;1.473676115274429E-001;-1.033262982964516E-001;-3.255931660532951E-003;-1.204403815791011E-003;
2.423666666666667E+009;1.473384350538254E-001;-1.048270761966705E-001;-3.293991088867188E-003;-1.088174991309643E-003;
2.423833333333334E+009;1.475750952959061E-001;-1.063738241791725E-001;-3.341596806421876E-003;-9.326917934231460E-004;
2.424000000000000E+009;1.478170156478882E-001;-1.074855476617813E-001;-3.351493272930384E-003;-8.476469083689153E-004;
2.424166666666667E+009;1.479963362216950E-001;-1.089129894971848E-001;-3.634549677371979E-003;-7.015345036052167E-004;
2.424333333333334E+009;1.484490036964417E-001;-1.099924892187119E-001;-3.530764020979404E-003;-6.624432862736285E-004;
2.424500000000000E+009;1.487571001052856E-001;-1.114171594381332E-001;-3.591866698116064E-003;-4.717022820841521E-004;
2.424666666666667E+009;1.491603553295136E-001;-1.122797429561615E-001;-3.701262874528766E-003;-4.580370732583106E-004;
2.424833333333334E+009;1.492652148008347E-001;-1.135642305016518E-001;-3.556097624823451E-003;-3.915919514838606E-004;
2.425000000000000E+009;1.496630460023880E-001;-1.145617067813873E-001;-3.670384176075459E-003;-4.496710243984126E-005;
2.425166666666667E+009;1.498357653617859E-001;-1.154050529003143E-001;-3.700927831232548E-003;-2.809587203955744E-005;
2.425333333333334E+009;1.500933468341827E-001;-1.162636429071426E-001;-3.738993778824806E-003;2.214172418462113E-004;
2.425500000000000E+009;1.504061520099640E-001;-1.170076578855515E-001;-3.776645986363292E-003;2.837667416315526E-004;
2.425666666666667E+009;1.505290269851685E-001;-1.176631227135658E-001;-3.791895695030689E-003;4.682540602516383E-004;
2.425833333333334E+009;1.507281064987183E-001;-1.182209551334381E-001;-3.810435999184847E-003;7.367617217823863E-004;
2.426000000000000E+009;1.507635861635208E-001;-1.189959049224854E-001;-3.768889699131250E-003;6.392748327925801E-004;
2.426166666666667E+009;1.509699374437332E-001;-1.194619759917259E-001;-3.687146352604032E-003;8.919939282350242E-004;
2.426333333333334E+009;1.510196924209595E-001;-1.198779046535492E-001;-3.665252355858684E-003;1.016396796330810E-003;
2.426500000000000E+009;1.508999019861221E-001;-1.202784702181816E-001;-3.605032106861472E-003;1.286196755245328E-003;
2.426666666666667E+009;1.510593891143799E-001;-1.205408126115799E-001;-3.553441260010004E-003;1.455827150493860E-003;
2.426833333333334E+009;1.507898122072220E-001;-1.208363696932793E-001;-3.668095218017697E-003;1.460880856029689E-003;
2.427000000000000E+009;1.504348665475845E-001;-1.211472675204277E-001;-3.355811350047588E-003;1.612861524336040E-003;
2.427166666666667E+009;1.500980556011200E-001;-1.211702302098274E-001;-3.482104046270251E-003;1.694203354418278E-003;
2.427333333333334E+009;1.497229784727097E-001;-1.215044707059860E-001;-3.253891831263900E-003;1.898625749163330E-003;
2.427500000000000E+009;1.493314206600189E-001;-1.217381656169891E-001;-3.110246965661645E-003;1.975366380065680E-003;
2.427666666666667E+009;1.487523615360260E-001;-1.218594163656235E-001;-3.151431214064360E-003;1.989413984119892E-003;
