# Hz S RI R 
2400000000.0000000000 0.169500678777694702148437500000 0.046121500432491302490234375000 -0.000021900183128309439530576400 -0.001983825815841556029078818213 0 0 0 0 
2400166666.6666665077 0.170597016811370905120526231258 0.045630387961864471435546875000 -0.000590689189266413450241088867 -0.002047338755801320075988769531 0 0 0 0 
2400333333.3333334923 0.171570658683776910979901231258 0.044878017157316207885742187500 -0.000784335134085267782211303711 -0.001809582114219665961024618994 0 0 0 0 
2400500000.0000000000 0.173248901963234003265057481258 0.043158877640962600708007812500 -0.000082566744822543114423751831 -0.001144194859080017046687460791 0 0 0 0 
2400666666.6666665077 0.172868803143501309493856865629 0.042326867580413818359375000000 0.000130581407574936801761072980 -0.002592283766716719107386923682 0 0 0 0 
2400833333.3333334923 0.174613028764724703689736884371 0.041036367416381842876393903907 0.000616410630755126476287841797 -0.001720618340186774947522807544 0 0 0 0 
2401000000.0000000000 0.175425663590431213378906250000 0.040468715131282813335378278907 0.000520560948643833398818969727 -0.001613341271877289035199809497 0 0 0 0 
2401166666.6666665077 0.175017148256301907638388115629 0.040085341781377792358398437500 0.000253647245699539780616760254 -0.002857889281585813002345419775 0 0 0 0 
2401333333.3333334923 0.176556199789047213455361884371 0.038885947316885001445729841407 0.000613995478488504886627197266 -0.002191830659285188154933310400 0 0 0 0 
2401500000.0000000000 0.177530035376548794845419365629 0.038329608738422386859934221093 0.000676968775223940610885620117 -0.002181796589866280989405966650 0 0 0 0 
2401666666.6666665077 0.178520634770393399337606865629 0.038421440869569778442382812500 0.000088531021901872009038925171 -0.001974306302145123915431357275 0 0 0 0 
2401833333.3333334923 0.178904965519905090332031250000 0.037471748888492577289621721093 0.000242557813180610510423937387 -0.002374873496592044830322265625 0 0 0 0 
2402000000.0000000000 0.179349705576896695236044365629 0.037070643156766891479492187500 0.000234261620789766311645507812 -0.002415441675111650986912392725 0 0 0 0 
2402166666.6666665077 0.179436668753623990157919365629 0.036303989589214331890065778907 0.000119275107863359193928302904 -0.002684108680114150047302246094 0 0 0 0 
2402333333.3333334923 0.179806351661682101150674384371 0.035805862396955490112304687500 -0.000078898941865190863609313965 -0.002800666028633714155909872900 0 0 0 0 
2402500000.0000000000 0.180157318711280794998330634371 0.035114951431751251220703125000 0.000155065907165408107355394907 -0.002846504095941781997680664062 0 0 0 0 
2402666666.6666665077 0.180391684174537686446981865629 0.034374449402093887329101562500 0.000054067517339717596769332886 -0.002998654032126069068908691406 0 0 0 0 
2402833333.3333334923 0.180504962801933288574218750000 0.033703722059726722026784528907 -0.000167520236573182100623530255 -0.002924919128417969183680868994 0 0 0 0 
2403000000.0000000000 0.180471584200859097579794365629 0.033183321356773383403737653907 -0.000309313036268576979637145996 -0.003128952113911509947535849463 0 0 0 0 
2403166666.6666665077 0.180348902940750094314736884371 0.032287269830703742290456403907 -0.000476585613796487504809779034 -0.003190164221450686888453818213 0 0 0 0 
2403333333.3333334923 0.180229038000106811523437500000 0.031300023198127746582031250000 -0.000578125123865902423858642578 -0.002997468225657939910888671875 0 0 0 0 
2403500000.0000000000 0.180026039481162997146768134371 0.030435413122177120553990548046 -0.000687398132868111133575439453 -0.003155918791890143914463662256 0 0 0 0 
2403666666.6666665077 0.179873019456863403320312500000 0.029506953433156010019322579296 -0.000851461547426879405975341797 -0.003253517439588903947117470850 0 0 0 0 
2403833333.3333334923 0.179541409015655489822549384371 0.028457539156079288827916329296 -0.000890821218490600585937500000 -0.003282746998593211174011230469 0 0 0 0 
2404000000.0000000000 0.179107919335365295410156250000 0.027428833767771720886230468750 -0.000916418619453907012939453125 -0.003222645958885550932643271338 0 0 0 0 
2404166666.6666665077 0.178538829088211087325888115629 0.026112167164683338510533516796 -0.001135647646151483058929443359 -0.003289290936663746833801269531 0 0 0 0 
2404333333.3333334923 0.178117677569389287750567518742 0.024979360401630401611328125000 -0.001158584142103791020037006909 -0.003295109141618012948277138818 0 0 0 0 
2404500000.0000000000 0.177552267909049987792968750000 0.023433551192283630371093750000 -0.001412776764482259967206645435 -0.003289920743554830984828329932 0 0 0 0 
2404666666.6666665077 0.177024975419044494628906250000 0.022286009043455120431920235546 -0.001474248943850398063659667969 -0.003267226740717887878417968750 0 0 0 0 
2404833333.3333334923 0.176449328660964993575888115629 0.020739959552884098398228829296 -0.001638135756365955092786479419 -0.003145282156765460968017578125 0 0 0 0 
2405000000.0000000000 0.175815820693969698806924384371 0.019226364791393280029296875000 -0.001815692987293004989624023438 -0.003344555152580142021179199219 0 0 0 0 
2405166666.6666665077 0.175422295928001403808593750000 0.017630720511078841472585310157 -0.001960581168532371954676962744 -0.003315141890197991891148232568 0 0 0 0 
2405333333.3333334923 0.174886867403984097579794365629 0.015726238489151000976562500000 -0.001903253258205950043321919019 -0.003199898172169924216029501807 0 0 0 0 
2405500000.0000000000 0.174523115158081110198651231258 0.014086884446442130697230155079 -0.002271102275699377059936523438 -0.003189754206687211990356445312 0 0 0 0 
2405666666.6666665077 0.174002245068550109863281250000 0.012394775636494159698486328125 -0.002290010917931795120239257812 -0.003088060067966579957249306787 0 0 0 0 
2405833333.3333334923 0.173494130373001098632812500000 0.010627684183418750762939453125 -0.002546610776335000991821289062 -0.003100575413554906845092773438 0 0 0 0 
2406000000.0000000000 0.173152878880500793457031250000 0.008573663420975208282470703125 -0.002510973718017340140101767432 -0.002956329844892024993896484375 0 0 0 0 
2406166666.6666665077 0.172842875123023986816406250000 0.006857112515717744827270507812 -0.002723698038607836203334189307 -0.003057886846363544897792197119 0 0 0 0 
2406333333.3333334923 0.172643959522247286697549384371 0.004790636245161294937133789062 -0.002957732882350683212280273438 -0.002967662410810589790344238281 0 0 0 0 
2406500000.0000000000 0.172458574175834711272869981258 0.002694696886464952988865517725 -0.003019788302481174902675009619 -0.002945507643744349913356161963 0 0 0 0 
2406666666.6666665077 0.172387346625328091720419365629 0.000787810306064784526824951172 -0.003252786118537188009974814307 -0.002933900104835629896876669775 0 0 0 0 
2406833333.3333334923 0.172267705202102688888388115629 -0.001355901244096457958221435547 -0.003420609282329678969142294775 -0.002779024420306086973903036963 0 0 0 0 
2407000000.0000000000 0.172439023852348299881143134371 -0.003537871409207582907435751807 -0.003664605785161256790161132812 -0.002777878660708665847778320312 0 0 0 0 
2407166666.6666665077 0.172663137316703796386718750000 -0.005468547344207763671875000000 -0.003903391072526574134826660156 -0.002445379272103310065028525244 0 0 0 0 
2407333333.3333334923 0.172675475478172302246093750000 -0.007742837537080050382132245801 -0.003993845079094172391409589551 -0.002375039039179683165309286963 0 0 0 0 
2407500000.0000000000 0.172773078083992004394531250000 -0.009948913007974624633789062500 -0.004175564274191856384277343750 -0.002288167597725987000706338037 0 0 0 0 
2407666666.6666665077 0.173083797097206087967080634371 -0.011878472752869129180908203125 -0.004284055437892675399780273438 -0.001890784013085067055345844800 0 0 0 0 
2407833333.3333334923 0.173285290598869295974893134371 -0.014174625277519229543665701954 -0.004534632433205842971801757812 -0.001795239862985908985137939453 0 0 0 0 
2408000000.0000000000 0.173812583088874789138955634371 -0.016211327165365219116210937500 -0.004638483282178640365600585938 -0.001580563373863697052001953125 0 0 0 0 
2408166666.6666665077 0.174052044749260004241619981258 -0.018143910914659500122070312500 -0.004715810995548964414114667676 -0.001246895873919128937962197412 0 0 0 0 
2408333333.3333334923 0.174644261598587008377236884371 -0.020283639430999759328821951954 -0.004909716080874204635620117188 -0.000961494690272957086563110352 0 0 0 0 
2408500000.0000000000 0.175010100007057189941406250000 -0.022254314273595809936523437500 -0.004829769022762775421142578125 -0.000597281439695507287979125977 0 0 0 0 
2408666666.6666665077 0.175603002309799194335937500000 -0.024047711864113811147669608204 -0.004988176748156548413748456738 -0.000435808324255049174458104266 0 0 0 0 
2408833333.3333334923 0.175763979554176302810830634371 -0.025781270116567611694335937500 -0.004916411358863115310668945312 -0.000187880257726646986886701041 0 0 0 0 
2409000000.0000000000 0.176117569208145113845986884371 -0.027363309636712070810338204296 -0.004664460197091102600097656250 0.000149977466207929009765070782 0 0 0 0 
2409166666.6666665077 0.176800832152366610428018134371 -0.028986550867557529104212576954 -0.004788039252161979675292968750 0.000245812989305704777866917743 0 0 0 0 
2409333333.3333334923 0.177213475108146695236044365629 -0.030401038005948070180872733204 -0.004734060727059841156005859375 0.000638085475657135248184204102 0 0 0 0 
2409500000.0000000000 0.177573770284652709960937500000 -0.031873188912868499755859375000 -0.004631055518984794616699218750 0.000863129098434001207351684570 0 0 0 0 
2409666666.6666665077 0.178035855293273898025674384371 -0.032894432544708251953125000000 -0.004586427006870508193969726562 0.000786611402872949838638305664 0 0 0 0 
2409833333.3333334923 0.178541466593742398361044365629 -0.033974777907133102416992187500 -0.004482156597077847394461347363 0.001253380556590854904772114331 0 0 0 0 
2410000000.0000000000 0.179071545600891113281250000000 -0.034899655729532241821289062500 -0.004442365374416112899780273438 0.001298401854000986056086874854 0 0 0 0 
2410166666.6666665077 0.179650351405143710037393134371 -0.035728726536035537719726562500 -0.004248607903718948364257812500 0.001648031058721243901493691553 0 0 0 0 
2410333333.3333334923 0.179917246103286687652911268742 -0.036548521369695663452148437500 -0.004111250396817922592163085938 0.001731266966089606068254780347 0 0 0 0 
2410500000.0000000000 0.180596679449081393142861884371 -0.037358816713094711303710937500 -0.004081959836184979352469159863 0.002052920171990991072413779150 0 0 0 0 
2410666666.6666665077 0.180841967463493402679119981258 -0.037976589053869247436523437500 -0.003936883993446826934814453125 0.002093068324029446081874228369 0 0 0 0 
2410833333.3333334923 0.181152552366256713867187500000 -0.038532741367816931987722028907 -0.003847022308036684989929199219 0.002253444166854023933410644531 0 0 0 0 
2411000000.0000000000 0.181477740406990106780682481258 -0.039075415581464767456054687500 -0.003665617667138576941249228369 0.002391145564615726904628134619 0 0 0 0 
2411166666.6666665077 0.181860849261283902267294365629 -0.039565242826938629150390625000 -0.003482870291918516159057617188 0.002615496516227722167968750000 0 0 0 0 
2411333333.3333334923 0.181865349411964388748330634371 -0.040015693753957748413085937500 -0.003422885201871395111083984375 0.002689534332603216171264648438 0 0 0 0 
2411500000.0000000000 0.182040691375732394119424384371 -0.040687065571546561504323591407 -0.003144253278151154951808310400 0.002650315174832940101623535156 0 0 0 0 
2411666666.6666665077 0.182126507163047790527343750000 -0.040727108716964721679687500000 -0.003053601365536450906040810693 0.002917047590017319159266806494 0 0 0 0 
2411833333.3333334923 0.182046502828597994705361884371 -0.041020102798938751220703125000 -0.002815440529957414107081747900 0.002834646962583065032958984375 0 0 0 0 
2412000000.0000000000 0.181741386651992797851562500000 -0.041314698755741119384765625000 -0.002817156957462430000305175781 0.003083327319473028182983398438 0 0 0 0 
2412166666.6666665077 0.181503877043724087814169365629 -0.041661761701107032085378278907 -0.002461833180859684944152832031 0.003117876825854181809666298975 0 0 0 0 
2412333333.3333334923 0.181309461593627901931924384371 -0.041975621134042739868164062500 -0.002279028762131928963902138818 0.003183622844517230987548828125 0 0 0 0 
2412500000.0000000000 0.180770710110664395431356865629 -0.042348522692918777465820312500 -0.002296233549714088006260537256 0.003283766098320484161376953125 0 0 0 0 
2412666666.6666665077 0.180274933576583890060263115629 -0.042702548205852508544921875000 -0.001958878943696618080139160156 0.003239399753510951995849609375 0 0 0 0 
2412833333.3333334923 0.179549485445022610763388115629 -0.043150398880243301391601562500 -0.001872726599685847976087260669 0.003271473105996847152709960938 0 0 0 0 
2413000000.0000000000 0.178818836808204706390057481258 -0.043269250541925430297851562500 -0.001680753077380358955980610425 0.003039249684661626815795898438 0 0 0 0 
2413166666.6666665077 0.177883639931678799728231865629 -0.043675929307937622070312500000 -0.001540263183414936065673828125 0.003190697869285941123962402344 0 0 0 0 
2413333333.3333334923 0.177015051245689392089843750000 -0.044029984623193740844726562500 -0.001398926950059830925585102612 0.002980093238875269889831542969 0 0 0 0 
2413500000.0000000000 0.176119714975357111175213731258 -0.044480964541435241699218750000 -0.001325507182627915902378701318 0.003075464162975550131556845557 0 0 0 0 
2413666666.6666665077 0.175059244036674499511718750000 -0.044924933463335037231445312500 -0.001325550721958280043361044775 0.003002980258315802054164267432 0 0 0 0 
2413833333.3333334923 0.173844948410987909515057481258 -0.045600280165672302246093750000 -0.001147296163253485939623188550 0.002931924769654870033264160156 0 0 0 0 
2414000000.0000000000 0.172831758856773404220419365629 -0.046413525938987731933593750000 -0.001054844469763338999507285010 0.002790355356410146193263388525 0 0 0 0 
2414166666.6666665077 0.171532914042472811599893134371 -0.046747848391532897949218750000 -0.001034568413160740895512246240 0.002794662024825810952427529443 0 0 0 0 
2414333333.3333334923 0.170384407043457003494424384371 -0.047785304486751563335378278907 -0.001076266169548035101649618994 0.002822460839524865150451660156 0 0 0 0 
2414500000.0000000000 0.169393271207809503753338731258 -0.048398219048976898193359375000 -0.000941062928177416324615478516 0.002705344231799244880676269531 0 0 0 0 
2414666666.6666665077 0.168056339025497408767861884371 -0.049484118819236762309987653907 -0.000909348193090409040451049805 0.002733885077759623961207724463 0 0 0 0 
2414833333.3333334923 0.166781857609748812576455634371 -0.050637371838092797016184221093 -0.000825886905658990144729614258 0.002623365959152578873875283350 0 0 0 0 
2415000000.0000000000 0.165423944592475891113281250000 -0.051683325320482247089426408593 -0.000952895148657262325286865234 0.002667465247213840918300009619 0 0 0 0 
2415166666.6666665077 0.164265781641006497482138115629 -0.052915450185537338256835937500 -0.000834438716992735862731933594 0.002625428838655353026149130713 0 0 0 0 
2415333333.3333334923 0.163100704550743103027343750000 -0.054333176463842391967773437500 -0.000827372306957840919494628906 0.002844059607014060020446777344 0 0 0 0 
2415500000.0000000000 0.162177443504333496093750000000 -0.055632464587688452983815778907 -0.000770227517932653427124023438 0.002596060512587428092956542969 0 0 0 0 
2415666666.6666665077 0.160874009132385309417401231258 -0.057067479938268661499023437500 -0.000699530413839966058731079102 0.002673594048246740861179970850 0 0 0 0 
2415833333.3333334923 0.159844562411308288574218750000 -0.058855909854173660278320312500 -0.000839800166431814432144165039 0.002578792395070195198059082031 0 0 0 0 
2416000000.0000000000 0.158652245998382596114950615629 -0.060575142502784729003906250000 -0.000771643477492034435272216797 0.002763923723250627951381064307 0 0 0 0 
2416166666.6666665077 0.157770663499832208831463731258 -0.062183544039726257324218750000 -0.000792714708950370550155639648 0.002822226611897348923924111475 0 0 0 0 
2416333333.3333334923 0.156794264912605313400106865629 -0.064037181437015533447265625000 -0.000773520383518189191818237305 0.002963306615129113197326660156 0 0 0 0 
2416500000.0000000000 0.155838906764984103103799384371 -0.065911822021007537841796875000 -0.000586687878239899873733520508 0.003003104124218225912806845557 0 0 0 0 
2416666666.6666665077 0.154912099242210388183593750000 -0.067881152033805847167968750000 -0.000670370995067059993743896484 0.002833278384059668020961142432 0 0 0 0 
2416833333.3333334923 0.154214411973953302581463731258 -0.070040628314018249511718750000 -0.000559111649636179208755493164 0.003023580880835651917698525537 0 0 0 0 
2417000000.0000000000 0.153410360217094393631143134371 -0.071960501372814178466796875000 -0.000445103505626320784718114032 0.003152977442368865013122558594 0 0 0 0 
2417166666.6666665077 0.152625232934951809982138115629 -0.073843516409397125244140625000 -0.000383716484066098874241429462 0.003214955562725663185119628906 0 0 0 0 
2417333333.3333334923 0.152089312672615106780682481258 -0.075831137597560882568359375000 -0.000371444330085068886906224384 0.003229615977033973173854208838 0 0 0 0 
2417500000.0000000000 0.151422306895255986969317518742 -0.077934570610523223876953125000 -0.000169829450896941098287859506 0.003189366310834885077235556494 0 0 0 0 
2417666666.6666665077 0.151158690452575711349325615629 -0.079703681170940399169921875000 -0.000190143124200403690338134766 0.003370041493326425986049033057 0 0 0 0 
2417833333.3333334923 0.150765508413314791580361884371 -0.081569448113441467285156250000 -0.000046754394134040921926498413 0.003421583911404014067408896338 0 0 0 0 
2418000000.0000000000 0.150224417448043795486611884371 -0.083634153008460998535156250000 0.000046390523493755608797073364 0.003441994544118642807006835938 0 0 0 0 
2418166666.6666665077 0.150012582540512112716513115629 -0.085176251828670501708984375000 0.000220356188947334912702283316 0.003555546747520565986633300781 0 0 0 0 
2418333333.3333334923 0.149989202618598910232705634371 -0.086981311440467834472656250000 0.000376958341803401708602905273 0.003527802880853414969203329932 0 0 0 0 
2418500000.0000000000 0.149810537695884704589843750000 -0.088550128042697906494140625000 0.000599749968387186527252197266 0.003473863471299409866333007812 0 0 0 0 
2418666666.6666665077 0.149899482727050809005575615629 -0.090109929442405700683593750000 0.000634974392596632242202758789 0.003583910875022410912754677881 0 0 0 0 
2418833333.3333334923 0.149679496884346008300781250000 -0.091505281627178192138671875000 0.000752585649024695158004760742 0.003540814854204655127284384619 0 0 0 0 
2419000000.0000000000 0.149670645594596890548544365629 -0.092913173139095306396484375000 0.000950921035837382078170776367 0.003574260976165533065795898438 0 0 0 0 
2419166666.6666665077 0.149834573268890408614950615629 -0.094148069620132446289062500000 0.001207680092193186066271137769 0.003655482316389679908752441406 0 0 0 0 
2419333333.3333334923 0.149831458926200894454794365629 -0.095116719603538513183593750000 0.001374576706439257101771689307 0.003487350186333059830906533350 0 0 0 0 
2419500000.0000000000 0.150076657533645602127236884371 -0.096338905394077301025390625000 0.001368133118376136042951274341 0.003618602408096193833592080225 0 0 0 0 
2419666666.6666665077 0.150491327047347994705361884371 -0.097306638956069946289062500000 0.001589961932040750980377197266 0.003340171650052071051356650244 0 0 0 0 
2419833333.3333334923 0.150616824626922607421875000000 -0.097961470484733581542968750000 0.001692584482952951951267861475 0.003398346016183495955226279150 0 0 0 0 
