# Hz S RI R 50
2400000000.0000000000 0.168611198663711603362713731258 0.040524192154407501220703125000 0.003212451469153165817260742188 0.000964729813858866691589355469 0 0 0 0 
2400166666.6666665077 0.169102936983108492752236884371 0.039855692535638809204101562500 0.003176120575517416000366210938 0.000859153398778289556503295898 0 0 0 0 
2400333333.3333334923 0.169776380062103299239950615629 0.038993887603282928466796875000 0.002970655448734759850742959131 0.000806738447863608598709106445 0 0 0 0 
2400500000.0000000000 0.170290410518646212478799384371 0.038197409361600882793386091407 0.003118968568742274804356240381 0.000570160336792469024658203125 0 0 0 0 
2400666666.6666665077 0.170648425817489596267861884371 0.037311676889657967304270158593 0.003014939138665794892552041162 0.000592876865994185209274291992 0 0 0 0 
2400833333.3333334923 0.171079412102699307540731865629 0.036751706153154373168945312500 0.002935204189270734786987304688 0.000416452152421697974205017090 0 0 0 0 
2401000000.0000000000 0.171298101544380187988281250000 0.035765379667282097553293596093 0.002823610324412583871128701318 0.000336823024554178118705749512 0 0 0 0 
2401166666.6666665077 0.171674460172653198242187500000 0.034875161945819861675222028907 0.002716861898079514937159872900 0.000229518773267045589998522348 0 0 0 0 
2401333333.3333334923 0.171610608696937588790731865629 0.034049041569232940673828125000 0.002752080094069242911097861182 0.000374106719391420483589172363 0 0 0 0 
2401500000.0000000000 0.172022476792335510253906250000 0.033471245318651199340820312500 0.002663762541487812995910644531 0.000058243836974725127220153809 0 0 0 0 
2401666666.6666665077 0.171943321824073791503906250000 0.032768256962299346923828125000 0.002563825342804193930384970557 0.000082959588326048105955123901 0 0 0 0 
2401833333.3333334923 0.171858757734298706054687500000 0.031800910830497741699218750000 0.002544713905081152915954589844 -0.000058108209486817941069602966 0 0 0 0 
2402000000.0000000000 0.171923264861106900314169365629 0.031028531491756439208984375000 0.002425196813419460816624306787 0.000201457631192170110627850943 0 0 0 0 
2402166666.6666665077 0.171918317675590487381143134371 0.029871031641960140573521798046 0.002407997380942105813267373193 0.000177061883732676506042480469 0 0 0 0 
2402333333.3333334923 0.171824976801872308929119981258 0.029218450188636779785156250000 0.002468958497047423882725381006 0.000000116593128041131395453858 0 0 0 0 
2402500000.0000000000 0.171846225857734707931356865629 0.028433550149202350271204764454 0.002480388851836324171779013525 0.000049044199840864166617393494 0 0 0 0 
2402666666.6666665077 0.171799063682556207854901231258 0.027518149465322501445729841407 0.002337836427614092826843261719 -0.000027753851099987510928903886 0 0 0 0 
2402833333.3333334923 0.171633929014205904861611884371 0.026411000639200210571289062500 0.002388638677075504822971963037 0.000227976430323906188637334003 0 0 0 0 
2403000000.0000000000 0.171529054641723605056924384371 0.025366229936480518686314766796 0.002576671307906508012058877100 0.000208197423489764305666246957 0 0 0 0 
2403166666.6666665077 0.171406880021095303634481865629 0.024348504841327670705775076954 0.002411492634564638137817382812 0.000173055945197120308876037598 0 0 0 0 
2403333333.3333334923 0.171377986669540405273437500000 0.023226391524076458322545235546 0.002459132345393300056457519531 0.000073909388447646051645278931 0 0 0 0 
2403500000.0000000000 0.171122059226036099532919365629 0.022033629938960078847864920704 0.002518801251426339149475097656 -0.000077448952652048319578170776 0 0 0 0 
2403666666.6666665077 0.170818641781807001311932481258 0.020767582580447200429896170704 0.002700965385884046988246298682 0.000129267733427695902899065561 0 0 0 0 
2403833333.3333334923 0.170723825693130493164062500000 0.019400011748075488698939139454 0.002612354233860969977137900244 -0.000016875508663360960781574249 0 0 0 0 
2404000000.0000000000 0.170554161071777288238848768742 0.018264057114720351482350935157 0.002708833198994398117065429688 -0.000033388489100616432052066190 0 0 0 0 
2404166666.6666665077 0.170362591743469210525674384371 0.016854582354426380502721016796 0.002650839276611804962158203125 -0.000048748486733529716730117798 0 0 0 0 
2404333333.3333334923 0.170207962393760708907919365629 0.015678558498620990407923514454 0.002660770900547503991367959131 -0.000239743050769902792855939322 0 0 0 0 
2404500000.0000000000 0.169938907027244595626669365629 0.013949282467365270096748552930 0.002681791316717863082885742188 -0.000344567233696579878956395282 0 0 0 0 
2404666666.6666665077 0.169938415288925198654013115629 0.012581069022417070216168788477 0.002720051677897572951075888525 -0.000450075836852192878723144531 0 0 0 0 
2404833333.3333334923 0.169844746589660589020098768742 0.011219220235943790781041329296 0.002698969794437288804295205225 -0.000376437878003343885571080341 0 0 0 0 
2405000000.0000000000 0.169773370027542086502236884371 0.009526561945676803588867187500 0.002615514211356639862060546875 -0.000344679923728108406066894531 0 0 0 0 
2405166666.6666665077 0.169709369540214510818643134371 0.007933693006634712219238281250 0.002656567608937621116638183594 -0.000399267883040010874897557391 0 0 0 0 
2405333333.3333334923 0.169768258929252596756143134371 0.006266321521252393722534179688 0.002740958472713828086853027344 -0.000585806265007704496383666992 0 0 0 0 
2405500000.0000000000 0.169590204954147311111611884371 0.004684397485107184323782636426 0.002778186695650219917297363281 -0.000543511414434760808944702148 0 0 0 0 
2405666666.6666665077 0.169455304741859408279580634371 0.003138943808153272108790732275 0.002845201874151825904846191406 -0.000677972624544054269790649414 0 0 0 0 
2405833333.3333334923 0.169330298900604303558026231258 0.001343252137303351922276162256 0.002918955637142062187194824219 -0.000649181019980460405349731445 0 0 0 0 
2406000000.0000000000 0.169326379895210293868856865629 -0.000322504725772887522548121320 0.003004184691235423088073730469 -0.000757807400077581405639648438 0 0 0 0 
2406166666.6666665077 0.169043436646461486816406250000 -0.001923273899592458984972309644 0.003124607261270285086390829932 -0.000957466138061136007308959961 0 0 0 0 
2406333333.3333334923 0.169240266084670992752236884371 -0.003654247848317027091979980469 0.003198331920430064201354980469 -0.001002278528176248073577880859 0 0 0 0 
2406500000.0000000000 0.169196531176567105392294365629 -0.005179649218916893005371093750 0.003157689701765776114222861182 -0.001216994132846594073651957935 0 0 0 0 
2406666666.6666665077 0.168764889240264892578125000000 -0.006753774825483561429495527051 0.003286444349214435057399130713 -0.001403845264576375918147421729 0 0 0 0 
2406833333.3333334923 0.168896645307540893554687500000 -0.008400074206292629241943359375 0.003303005592897533936741494287 -0.001571659231558441898943256909 0 0 0 0 
2407000000.0000000000 0.168759480118751498123330634371 -0.009999614208936691284179687500 0.003335109911859035925624228369 -0.001838623429648577950121235425 0 0 0 0 
2407166666.6666665077 0.168690338730812100509481865629 -0.011334368959069250279436680273 0.003323151031509041786193847656 -0.001999426633119583129882812500 0 0 0 0 
2407333333.3333334923 0.168451920151710510253906250000 -0.012920964509248730051060860546 0.003203964559361339049098349463 -0.002280849730595945878269814600 0 0 0 0 
2407500000.0000000000 0.168511971831321688553018134371 -0.014087133109569549560546875000 0.003075196873396635055541992188 -0.002394802402704954147338867188 0 0 0 0 
2407666666.6666665077 0.168366804718971307952557481258 -0.015281739644706249237060546875 0.002876997459679841995239257812 -0.002719962038099766211268759619 0 0 0 0 
2407833333.3333334923 0.168114364147186307052450615629 -0.016711082309484478342076485546 0.002793586114421486854553222656 -0.002909942762926220893859863281 0 0 0 0 
2408000000.0000000000 0.168181180953979492187500000000 -0.017710540443658828735351562500 0.002600385574623941941502236475 -0.002959989942610263824462890625 0 0 0 0 
2408166666.6666665077 0.168236643075942993164062500000 -0.018624020740389820444127266796 0.002355734352022409005406045068 -0.003024931298568844795227050781 0 0 0 0 
2408333333.3333334923 0.168336361646652193924111884371 -0.019631879404187198984166329296 0.002407032065093516869785927881 -0.003150707576423883004429482568 0 0 0 0 
2408500000.0000000000 0.168387681245803805252236884371 -0.020667292177677161479909528907 0.002153074601665139198303222656 -0.003343424294143915176391601562 0 0 0 0 
2408666666.6666665077 0.168499603867530794998330634371 -0.021555893123149868356724923046 0.002069246955215930938720703125 -0.003383196890354156927821493994 0 0 0 0 
2408833333.3333334923 0.168409034609794588943643134371 -0.022454869002103809011439139454 0.001813138951547444083570170825 -0.003491100855171680884120322119 0 0 0 0 
2409000000.0000000000 0.168790608644485501388388115629 -0.023202005773782730102539062500 0.001537354313768446011784218896 -0.003430675482377409934997558594 0 0 0 0 
2409166666.6666665077 0.169014781713485690017861884371 -0.024095969274640079843541329296 0.001568433013744652054430317456 -0.003665134543552995161769247900 0 0 0 0 
2409333333.3333334923 0.169251710176467895507812500000 -0.024932939559221271169642264454 0.001259036478586494922637939453 -0.003592931665480136871337890625 0 0 0 0 
2409500000.0000000000 0.169398471713066101074218750000 -0.026036296039819720876673514454 0.001104810391552746079088520581 -0.003725910093635321097133017432 0 0 0 0 
2409666666.6666665077 0.169697165489196805099325615629 -0.026795659214258190500279610546 0.000782313116360455751419067383 -0.003560254583135246796848916162 0 0 0 0 
2409833333.3333334923 0.169759675860404996017294365629 -0.027524245902895930898646170704 0.000650545174721628427505493164 -0.003793869400396943092346191406 0 0 0 0 
2410000000.0000000000 0.169933751225471496582031250000 -0.028365500271320339548131173046 0.000392352580092847401469630109 -0.003672365332022308869602822412 0 0 0 0 
2410166666.6666665077 0.170013144612312289138955634371 -0.029224194586277011526087576954 0.000018395177903585139324868850 -0.003422222333028912977931357275 0 0 0 0 
2410333333.3333334923 0.170049935579299899002236884371 -0.030051851645112041128138358204 -0.000097837611974682658910751343 -0.003464927431195973916294716943 0 0 0 0 
2410500000.0000000000 0.170068010687828091720419365629 -0.030897065997123721731165701954 -0.000175373439560644301489153452 -0.003257975215092300935032509912 0 0 0 0 
2410666666.6666665077 0.170120403170585604568643134371 -0.031866054981946952129323591407 -0.000315001554554328322410583496 -0.003122691530734301047084189307 0 0 0 0 
2410833333.3333334923 0.170044437050819396972656250000 -0.032504811882972717285156250000 -0.000449739076429978013038635254 -0.002986356383189558982849121094 0 0 0 0 
2411000000.0000000000 0.169927462935447692871093750000 -0.033441428095102310180664062500 -0.000623360101599246263504028320 -0.002951149595901370048522949219 0 0 0 0 
2411166666.6666665077 0.169838979840278597732705634371 -0.034291956573724746704101562500 -0.000570809992495924234390258789 -0.002606018912047148184535361182 0 0 0 0 
2411333333.3333334923 0.169592186808586092849893134371 -0.035012423992156982421875000000 -0.000729854160454124212265014648 -0.002374690026044846014735556494 0 0 0 0 
2411500000.0000000000 0.169293731451034601409588731258 -0.035982094705104827880859375000 -0.000593867385759949684143066406 -0.002474088920280336899998330225 0 0 0 0 
2411666666.6666665077 0.169204771518707303146200615629 -0.036762207746505737304687500000 -0.000647317036055028438568115234 -0.002166633028537034988403320312 0 0 0 0 
2411833333.3333334923 0.168769195675849886795205634371 -0.037504274398088462139089216407 -0.000548432115465402603149414062 -0.002001353772357106208801269531 0 0 0 0 
2412000000.0000000000 0.168626517057418795486611884371 -0.038424439728260040283203125000 -0.000501573143992573022842407227 -0.002035185461863874955418252100 0 0 0 0 
2412166666.6666665077 0.168134421110153198242187500000 -0.039324715733528137207031250000 -0.000494855397846549749374389648 -0.001831217203289269967320107568 0 0 0 0 
2412333333.3333334923 0.168015703558921786209268134371 -0.039978917688131332397460937500 -0.000451252417406067306369227277 -0.001846700441092252948163676685 0 0 0 0 
2412500000.0000000000 0.167397618293762207031250000000 -0.040993593633174903179128278907 -0.000375521689420566017001551495 -0.001870115636847913048387836987 0 0 0 0 
2412666666.6666665077 0.167190760374069213867187500000 -0.042112395167350769042968750000 -0.000216941596590913805082598276 -0.001767701702192425944684672778 0 0 0 0 
2412833333.3333334923 0.166622877120971707443075615629 -0.042986277490854263305664062500 -0.000218012850382365313455304556 -0.001700559514574706988093710791 0 0 0 0 
2413000000.0000000000 0.166094601154327392578125000000 -0.043803371489047997211496721093 0.000036616514989873387593815462 -0.001750404131598771052119589697 0 0 0 0 
2413166666.6666665077 0.165666326880454989334268134371 -0.044887721538543701171875000000 0.000211875405511818799093523569 -0.001805093139410018920898437500 0 0 0 0 
2413333333.3333334923 0.165083050727844210525674384371 -0.045926257967948906635324846093 0.000406717852456495220034998761 -0.002079803496599196954014443506 0 0 0 0 
2413500000.0000000000 0.164544150233268710037393134371 -0.046895850449800491333007812500 0.000230518809985369389683323993 -0.002102748723700643019435263525 0 0 0 0 
2413666666.6666665077 0.164046168327331487457598768742 -0.047889512032270431518554687500 0.000319727783789858222007751465 -0.002224956639111042022705078125 0 0 0 0 
2413833333.3333334923 0.163321644067764309982138115629 -0.048729468137025833129882812500 0.000384342012694105505943298340 -0.002207055455073713822605752100 0 0 0 0 
2414000000.0000000000 0.162873297929763793945312500000 -0.049939949065446846698801408593 0.000516323838382959365844726562 -0.002582148415967822074890136719 0 0 0 0 
2414166666.6666665077 0.162532210350036593338174384371 -0.050799734890460968017578125000 0.000518761109560728073120117188 -0.003037913935258984999415732275 0 0 0 0 
2414333333.3333334923 0.161966174840927096267861884371 -0.051790323108434677124023437500 0.000395905284676700776249486102 -0.003014842513948678970336914062 0 0 0 0 
2414500000.0000000000 0.161843433976173400878906250000 -0.052790202200412750244140625000 0.000145060432259924709796905518 -0.003175752004608511924743652344 0 0 0 0 
2414666666.6666665077 0.161287710070610101897869981258 -0.053671259433031082153320312500 0.000005889134172321064397692680 -0.003510686801746488051173544775 0 0 0 0 
2414833333.3333334923 0.160962253808975191970986884371 -0.054961193352937698364257812500 -0.000108351523522287593640466008 -0.003627036465331912040710449219 0 0 0 0 
2415000000.0000000000 0.160591438412666293045205634371 -0.055951278656721122051198591407 -0.000365217158105224425166529523 -0.003738024737685918807983398438 0 0 0 0 
2415166666.6666665077 0.160251140594482394119424384371 -0.057030219584703452373464216407 -0.000741985160857439041137695312 -0.003806174499914050102233886719 0 0 0 0 
2415333333.3333334923 0.160069376230239895919638115629 -0.058209888637065887451171875000 -0.000943986407946795225143432617 -0.003945901058614253997802734375 0 0 0 0 
2415500000.0000000000 0.159944087266921997070312500000 -0.059578001499176032329518903907 -0.001463152351789176897761679541 -0.003964553121477366361136152051 0 0 0 0 
2415666666.6666665077 0.159659370779991205413494981258 -0.060756195336580283428151716407 -0.001586573664098978042602539062 -0.003878083312883973121643066406 0 0 0 0 
2415833333.3333334923 0.159629970788955688476562500000 -0.062020894140005111694335937500 -0.001946503180079161903978657300 -0.003840932622551918029785156250 0 0 0 0 
2416000000.0000000000 0.159130185842514010330361884371 -0.063339740037918090820312500000 -0.002238163957372308211085654150 -0.003801032667979598045349121094 0 0 0 0 
2416166666.6666665077 0.159204408526420593261718750000 -0.064566150307655334472656250000 -0.002565933391451836066005087744 -0.003673390951007605032679892432 0 0 0 0 
2416333333.3333334923 0.158857420086860712249432481258 -0.065709926187992095947265625000 -0.002755102934315801100489951025 -0.003339680144563316865208291162 0 0 0 0 
2416500000.0000000000 0.158646196126937893966513115629 -0.067208513617515563964843750000 -0.003057461697608232931849814307 -0.003152758581563829941990517725 0 0 0 0 
2416666666.6666665077 0.158281430602073697189169365629 -0.068390987813472747802734375000 -0.003351101651787757873535156250 -0.002973207505419849915745400537 0 0 0 0 
2416833333.3333334923 0.158155292272567804534588731258 -0.069779545068740844726562500000 -0.003349731909111142158508300781 -0.002529205754399300055262900244 0 0 0 0 
2417000000.0000000000 0.157593861222267206390057481258 -0.070932865142822265625000000000 -0.003465811721980572180507040869 -0.002505843061953783035278320312 0 0 0 0 
2417166666.6666665077 0.157341733574867304046307481258 -0.071929112076759338378906250000 -0.003549476154148579077479697119 -0.002103462815284729003906250000 0 0 0 0 
2417333333.3333334923 0.157134845852851895431356865629 -0.073002517223358154296875000000 -0.003531667869538069205043173682 -0.001752622658386826948878622900 0 0 0 0 
2417500000.0000000000 0.156875818967819213867187500000 -0.074214987456798553466796875000 -0.003595301182940601868870400537 -0.001395653234794735908508300781 0 0 0 0 
2417666666.6666665077 0.156624302268028287032919365629 -0.074987895786762237548828125000 -0.003375142812728881835937500000 -0.001344236196018755002262734521 0 0 0 0 
2417833333.3333334923 0.156332686543464688400106865629 -0.075931809842586517333984375000 -0.003200415754690765900852822412 -0.000946162734180688858032226562 0 0 0 0 
2418000000.0000000000 0.156038358807563809493856865629 -0.076990209519863128662109375000 -0.003301623743027449087855673682 -0.000719820440281182527542114258 0 0 0 0 
2418166666.6666665077 0.155897915363311795333700615629 -0.077770993113517761230468750000 -0.003055188804864882989170693506 -0.000708873325493186712265014648 0 0 0 0 
2418333333.3333334923 0.155914917588234003265057481258 -0.078667983412742614746093750000 -0.002894455567002296014073037256 -0.000638599274680018424987792969 0 0 0 0 
2418500000.0000000000 0.155597805976867703536825615629 -0.079572208225727081298828125000 -0.002663774881511927084681845557 -0.000510883342940360307693481445 0 0 0 0 
2418666666.6666665077 0.155538469552993802169638115629 -0.080300249159336090087890625000 -0.002557119121775031089782714844 -0.000473484455142170190811157227 0 0 0 0 
2418833333.3333334923 0.155215382575988797286825615629 -0.081083014607429504394531250000 -0.002639016369357705116271972656 -0.000449923070846125483512878418 0 0 0 0 
2419000000.0000000000 0.154726967215537997146768134371 -0.081780619919300079345703125000 -0.002459067152813076972961425781 -0.000478528672829270417064112531 0 0 0 0 
2419166666.6666665077 0.154809236526489313323651231258 -0.082484543323516845703125000000 -0.002454007742926477952244423975 -0.000628353620413690805435180664 0 0 0 0 
2419333333.3333334923 0.154213130474090603927450615629 -0.082920491695404052734375000000 -0.002541993279010057015659951318 -0.000501641712617129087448120117 0 0 0 0 
2419500000.0000000000 0.154150903224945096114950615629 -0.083906590938568115234375000000 -0.002362762112170457839965820312 -0.000766807002946734428405761719 0 0 0 0 
2419666666.6666665077 0.153808683156967190841513115629 -0.084228597581386566162109375000 -0.002530508441850543022155761719 -0.000632010807748883962631225586 0 0 0 0 
2419833333.3333334923 0.153468549251556396484375000000 -0.084817983210086822509765625000 -0.002522675786167383193969726562 -0.000720972777344286441802978516 0 0 0 0 
