# Hz S RI R 50
2400000000.0000000000 0.168700888752937289138955634371 0.040533468127250671386718750000 0.003157244296744465827941894531 0.001028774655424058003666543115 0 0 0 0 
2400166666.6666665077 0.169296115636825589279013115629 0.039862185716629028320312500000 0.003170811571180820898768759619 0.000902677420526742935180664062 0 0 0 0 
2400333333.3333334923 0.169756799936294611175213731258 0.039079245179891593242604841407 0.003158502979204059080836630713 0.000794992840383201837539672852 0 0 0 0 
2400500000.0000000000 0.170378267765045193771200615629 0.038344040513038642192800153907 0.003099692286923528151271201025 0.000673096510581672191619873047 0 0 0 0 
2400666666.6666665077 0.170582607388496398925781250000 0.037464156746864318847656250000 0.003060681279748678207397460938 0.000496922817546874284744262695 0 0 0 0 
2400833333.3333334923 0.171173557639122009277343750000 0.036685150116682052612304687500 0.002867687493562697930576943506 0.000380240700906142592430114746 0 0 0 0 
2401000000.0000000000 0.171183675527572604080361884371 0.035792518407106399536132812500 0.002819358604028820991516113281 0.000440587318735197186470031738 0 0 0 0 
2401166666.6666665077 0.171651318669319208343182481258 0.035169951617717742919921875000 0.002653222763910890059230185400 0.000435452093370258808135986328 0 0 0 0 
2401333333.3333334923 0.171636462211608886718750000000 0.034183766692876822734792341407 0.002623593434691429138183593750 0.000212809245567768812179565430 0 0 0 0 
2401500000.0000000000 0.171942934393882806975994981258 0.033656220883131027221679687500 0.002629600232467054887058877100 0.000234527920838445397928515024 0 0 0 0 
2401666666.6666665077 0.172074973583221407791299384371 0.032834585756063461303710937500 0.002509395824745296998264931787 0.000073558891017455607652664185 0 0 0 0 
2401833333.3333334923 0.172064661979675292968750000000 0.031803820282220840454101562500 0.002563907299190760092494345557 0.000310186791466548984676915302 0 0 0 0 
2402000000.0000000000 0.171825960278511102874432481258 0.030961753800511360168457031250 0.002453007735311985015869140625 0.000253255158895626718371790753 0 0 0 0 
2402166666.6666665077 0.171794831752777099609375000000 0.029952157288789749145507812500 0.002408008789643644852879189600 0.000109998465632088495932440486 0 0 0 0 
2402333333.3333334923 0.171888858079910306075888115629 0.029210623353719711303710937500 0.002441742690280079841613769531 0.000231330443057231605052947998 0 0 0 0 
2402500000.0000000000 0.171974733471870394607705634371 0.028409926220774650573730468750 0.002380220917984842820408486475 0.000241138623096048804834642953 0 0 0 0 
2402666666.6666665077 0.171744644641876192947549384371 0.027410997077822688711146170704 0.002390933921560645103454589844 0.000292497104965150410502833234 0 0 0 0 
2402833333.3333334923 0.171585619449615506271200615629 0.026447826996445659292200858204 0.002489048987627028985264443506 0.000142709948704578009530744009 0 0 0 0 
2403000000.0000000000 0.171503409743308993240518134371 0.025273706763982769357701485546 0.002532697981223464012145996094 0.000093631759227719157934188843 0 0 0 0 
2403166666.6666665077 0.171481654047966003417968750000 0.024235527962446209299107735546 0.002498556626960635185241699219 0.000248123338678851723670959473 0 0 0 0 
2403333333.3333334923 0.171346336603164700607138115629 0.023221137002110481262207031250 0.002463187091052532196044921875 0.000052452352974796667695045471 0 0 0 0 
2403500000.0000000000 0.170981422066688509842080634371 0.022030528634786609304407889454 0.002509215613827108903172158350 0.000077409546065609902143478394 0 0 0 0 
2403666666.6666665077 0.170872718095779391189736884371 0.020856348797678950918177420704 0.002644957741722464995143271338 0.000048430876631755381822586060 0 0 0 0 
2403833333.3333334923 0.170719295740127591232138115629 0.019482454285025600088099295704 0.002547793090343474908116006006 0.000062989427533466368913650513 0 0 0 0 
2404000000.0000000000 0.170570209622383089920205634371 0.018166422843933108938196951954 0.002618151484057306809666298975 -0.000048997233534464612603187561 0 0 0 0 
2404166666.6666665077 0.170372396707534790039062500000 0.016835700720548629760742187500 0.002621043939143418832066201318 -0.000149038416566327187135973520 0 0 0 0 
2404333333.3333334923 0.170175880193710299392861884371 0.015592087991535660135289376171 0.002806658158078790144679404150 -0.000105430633993819396622242113 0 0 0 0 
2404500000.0000000000 0.170019030570983886718750000000 0.014041421934962269174596016796 0.002712677232921123938319540869 -0.000394104834413155913352966309 0 0 0 0 
2404666666.6666665077 0.169962748885154696365518134371 0.012576143257319930685023123829 0.002697437070310115814208984375 -0.000389951455872505903244018555 0 0 0 0 
2404833333.3333334923 0.169700086116790799239950615629 0.011030043475329879415491873829 0.002577436622232199148890829932 -0.000487928453367203474044799805 0 0 0 0 
2405000000.0000000000 0.169746384024620111663494981258 0.009572808630764484405517578125 0.002772932406514883041381835938 -0.000344473693985491991043090820 0 0 0 0 
2405166666.6666665077 0.169566705822944613357705634371 0.008058520033955574035644531250 0.002760512987151741981506347656 -0.000609378563240170478820800781 0 0 0 0 
2405333333.3333334923 0.169699177145958002288494981258 0.006261947564780712127685546875 0.002700891811400651931762695312 -0.000615152122918516397476196289 0 0 0 0 
2405500000.0000000000 0.169669389724731500823651231258 0.004775109235197305679321289062 0.002809228142723441123962402344 -0.000518527464009821414947509766 0 0 0 0 
2405666666.6666665077 0.169574752449989291092080634371 0.003017495386302471160888671875 0.002905590692535043196437216650 -0.000691449211444705724716186523 0 0 0 0 
2405833333.3333334923 0.169286608695983886718750000000 0.001460053259506822066066122900 0.002819382585585116906407021631 -0.000694400456268340349197387695 0 0 0 0 
2406000000.0000000000 0.169437259435653686523437500000 -0.000318727572448551709025782452 0.002912494819611310958862304688 -0.000673425151035189628601074219 0 0 0 0 
2406166666.6666665077 0.169151663780212402343750000000 -0.001927749370224774100660014575 0.003014114918187261061427451025 -0.000842897628899663686752319336 0 0 0 0 
2406333333.3333334923 0.169176861643791198730468750000 -0.003564984071999787850620888818 0.003170127747580409049987792969 -0.000943373772315680980682373047 0 0 0 0 
2406500000.0000000000 0.169011235237121609786825615629 -0.005203815642744302749633789062 0.003125207964330912070033408057 -0.001064987387508153915405273438 0 0 0 0 
2406666666.6666665077 0.168777570128440912444744981258 -0.006780544761568307876586914062 0.003235688433051108880283974756 -0.001205340260639786937116313403 0 0 0 0 
2406833333.3333334923 0.168817326426505986969317518742 -0.008308747783303260803222656250 0.003228755202144383950474404443 -0.001607393380254507064819335938 0 0 0 0 
2407000000.0000000000 0.168725490570068387130575615629 -0.009899932891130447387695312500 0.003268203930929303169250488281 -0.001804202911444007916691445459 0 0 0 0 
2407166666.6666665077 0.168852031230926513671875000000 -0.011331314221024509775181954296 0.003250167705118656158447265625 -0.001868922263383864922764443506 0 0 0 0 
2407333333.3333334923 0.168459177017211886306924384371 -0.012831746600568299729316912305 0.003038207534700632095336914062 -0.002157198730856180191040039062 0 0 0 0 
2407500000.0000000000 0.168503269553184509277343750000 -0.014066572301089760171910469921 0.002917161909863353209254599463 -0.002366454340517520904541015625 0 0 0 0 
2407666666.6666665077 0.168290242552757290939169365629 -0.015221210196614270646064959180 0.002845266368240118026733398438 -0.002544978633522986932041787256 0 0 0 0 
2407833333.3333334923 0.168239250779151888748330634371 -0.016638420522212978708287423046 0.002780391369014977975132607568 -0.002734937705099583105800009619 0 0 0 0 
2408000000.0000000000 0.168209478259086608886718750000 -0.017724310979247089731236641796 0.002596096368506550788879394531 -0.002825301373377441926243447412 0 0 0 0 
2408166666.6666665077 0.168219476938247708419638115629 -0.018769185990095138549804687500 0.002402824582532047791721963037 -0.002913713688030838966369628906 0 0 0 0 
2408333333.3333334923 0.168464571237564086914062500000 -0.019736913964152339590052420704 0.002384598366916180090663290869 -0.003134527010843158201930380713 0 0 0 0 
2408500000.0000000000 0.168437600135803194900674384371 -0.020678978413343429565429687500 0.002185483463108540014979697119 -0.003200262784957886175868368994 0 0 0 0 
2408666666.6666665077 0.168645128607749911209268134371 -0.021542880684137340890904610546 0.001922483206726611094233847510 -0.003317742841318250136134482275 0 0 0 0 
2408833333.3333334923 0.168564587831497192382812500000 -0.022507769986987110483189766796 0.001860725227743387005449604565 -0.003378007560968399047851562500 0 0 0 0 
2409000000.0000000000 0.168741106986999511718750000000 -0.023357795551419261587122733204 0.001682599307969212965724326025 -0.003513771109282969994785927881 0 0 0 0 
2409166666.6666665077 0.169110506772994995117187500000 -0.024219723418354991567591483204 0.001520732766948639912846230615 -0.003624202450737357139587402344 0 0 0 0 
2409333333.3333334923 0.169220373034477206131143134371 -0.024952109903097149240513985546 0.001157139427959918975830078125 -0.003693063510581851005554199219 0 0 0 0 
2409500000.0000000000 0.169439762830734308440838731258 -0.026038644835352901113489920704 0.000944243161939084529876708984 -0.003717811079695820808410644531 0 0 0 0 
2409666666.6666665077 0.169700413942337008377236884371 -0.026836279779672619211217110546 0.000784079253207892179489135742 -0.003719585016369820074794150244 0 0 0 0 
2409833333.3333334923 0.169595286250114413162393134371 -0.027493406087160110473632812500 0.000638794619590044021606445312 -0.003507853019982575936558388818 0 0 0 0 
2410000000.0000000000 0.169926181435584994217080634371 -0.028418399393558498727818673046 0.000420280004618689417839050293 -0.003614024491980671882629394531 0 0 0 0 
2410166666.6666665077 0.170049473643302889724893134371 -0.029215484857559200632115548046 0.000191855884622782495900830679 -0.003441019216552377180812216650 0 0 0 0 
2410333333.3333334923 0.170009940862655611892861884371 -0.030114393681287768972376639454 -0.000072598260885570198297500610 -0.003491097828373312950134277344 0 0 0 0 
2410500000.0000000000 0.169991046190261813064736884371 -0.030829997733235359191894531250 -0.000168821541592478806346339093 -0.003255786374211310906651162256 0 0 0 0 
2410666666.6666665077 0.170031517744064303299111884371 -0.031932823359966278076171875000 -0.000357303331838920712471008301 -0.003015127731487154960632324219 0 0 0 0 
2410833333.3333334923 0.169924482703208895584268134371 -0.032575644552707672119140625000 -0.000402793899411335587501525879 -0.002956940094009041786193847656 0 0 0 0 
2411000000.0000000000 0.169779404997825594803018134371 -0.033417910337448120117187500000 -0.000675107177812606096267700195 -0.002911615651100873947143554688 0 0 0 0 
2411166666.6666665077 0.169513344764709500411825615629 -0.034163616597652442241628278907 -0.000546801835298538208007812500 -0.002685876796022057966945029150 0 0 0 0 
2411333333.3333334923 0.169133901596069308181924384371 -0.034918587654829032207448591407 -0.000513138656970113515853881836 -0.002532176207751036123988486182 0 0 0 0 
2411500000.0000000000 0.169155374169349698165731865629 -0.035922832787036902690847028907 -0.000554287049453705549240112305 -0.002390881069004536108729697119 0 0 0 0 
2411666666.6666665077 0.169006332755088806152343750000 -0.036466866731643676757812500000 -0.000596419791691005229949951172 -0.002123987535014749006984091650 0 0 0 0 
2411833333.3333334923 0.168448999524116488357705634371 -0.037204165011644363403320312500 -0.000467058998765423893928527832 -0.002021698048338294029235839844 0 0 0 0 
2412000000.0000000000 0.168402820825576809982138115629 -0.038244660943746566772460937500 -0.000358777208020910620689392090 -0.002106885192915796799900673975 0 0 0 0 
2412166666.6666665077 0.168184638023376492599325615629 -0.039181847125291817401926408593 -0.000494741601869463920593261719 -0.002001528861001133918762207031 0 0 0 0 
2412333333.3333334923 0.167820245027542086502236884371 -0.039767421782016747211496721093 -0.000369194720406085306971949445 -0.001796914031729101917864155347 0 0 0 0 
2412500000.0000000000 0.167301595211029108245526231258 -0.040801778435707092285156250000 -0.000286871829302981495857238770 -0.001879614545032382011413574219 0 0 0 0 
2412666666.6666665077 0.167054846882820101638955634371 -0.041967794299125671386718750000 -0.000037845089536858722567558289 -0.001790552865713834979413676685 0 0 0 0 
2412833333.3333334923 0.166769579052925109863281250000 -0.042800404131412513042409528907 -0.000047002082283142947334835665 -0.001818572636693716049194335938 0 0 0 0 
2413000000.0000000000 0.166169047355651910979901231258 -0.043668117374181747436523437500 0.000027691465220414098689352342 -0.001812131260521709918975830078 0 0 0 0 
2413166666.6666665077 0.165635734796524103362713731258 -0.044765211641788482666015625000 0.000200077294721268090322771616 -0.001960020279511808915379189600 0 0 0 0 
2413333333.3333334923 0.164907857775688199142294365629 -0.045910660177469246601145158593 0.000372241484001278877258300781 -0.002085355576127767996547079932 0 0 0 0 
2413500000.0000000000 0.164547771215438787262286268742 -0.046957205981016159057617187500 0.000335130433086305910914820538 -0.002080925973132253126857138525 0 0 0 0 
2413666666.6666665077 0.164034143090248107910156250000 -0.047751434147357940673828125000 0.000415860908105969374806004657 -0.002185232238844037055969238281 0 0 0 0 
2413833333.3333334923 0.163515836000442504882812500000 -0.048874568194150931621511091407 0.000489793776068836450576782227 -0.002493171021342277960536337744 0 0 0 0 
2414000000.0000000000 0.162832126021385192871093750000 -0.049958266317844390869140625000 0.000382523168809711878925877704 -0.002653769915923475785496377100 0 0 0 0 
2414166666.6666665077 0.162398725748062106033486884371 -0.050759859383106231689453125000 0.000385153136448934674263000488 -0.002767679514363408088684082031 0 0 0 0 
2414333333.3333334923 0.162027478218078613281250000000 -0.051876243203878402709960937500 0.000335480115609243512153625488 -0.003070872509852052168605185400 0 0 0 0 
2414500000.0000000000 0.161714971065521212478799384371 -0.052838761359453201293945312500 0.000213911669561639401033678598 -0.003201534505933523178100585938 0 0 0 0 
2414666666.6666665077 0.161267936229705810546875000000 -0.053833547979593276977539062500 0.000119853830256033702336172786 -0.003510763868689537048339843750 0 0 0 0 
2414833333.3333334923 0.161003872752189608474893134371 -0.054965961724519729614257812500 -0.000171823412529192891999921255 -0.003724822541698813004734658350 0 0 0 0 
2415000000.0000000000 0.160714417695999201018963731258 -0.056005336344242102886159528907 -0.000558542087674140930175781250 -0.003848486347123980955836630713 0 0 0 0 
2415166666.6666665077 0.160275056958198602874432481258 -0.057137027382850646972656250000 -0.000743673590477555990219116211 -0.003881989279761910004856728662 0 0 0 0 
2415333333.3333334923 0.160194531083106994628906250000 -0.058409426361322402954101562500 -0.000953580893110483884811401367 -0.003931435290724039077758789062 0 0 0 0 
2415500000.0000000000 0.159959182143211392501669365629 -0.059573847800493240356445312500 -0.001458292244933546023127890479 -0.004083442036062479019165039062 0 0 0 0 
2415666666.6666665077 0.159624651074409512618856865629 -0.060769017785787582397460937500 -0.001673799473792314963099814307 -0.003969165962189435958862304688 0 0 0 0 
2415833333.3333334923 0.159594923257827786544638115629 -0.062094025313854217529296875000 -0.002116751391440629959106445312 -0.003853697329759598212001181494 0 0 0 0 
2416000000.0000000000 0.159180089831352206131143134371 -0.063263237476348876953125000000 -0.002217574510723351998570107568 -0.003720553359016776084899902344 0 0 0 0 
2416166666.6666665077 0.159153208136558504959268134371 -0.064639896154403686523437500000 -0.002510390477254987196681357275 -0.003671263344585895972010947119 0 0 0 0 
2416333333.3333334923 0.158976793289184598068075615629 -0.065929487347602844238281250000 -0.002879494801163672967198037256 -0.003417659085243939919712685693 0 0 0 0 
2416500000.0000000000 0.158569633960723904708700615629 -0.067331090569496154785156250000 -0.003046142170205711884739541162 -0.003065211232751607894897460938 0 0 0 0 
2416666666.6666665077 0.158277586102485712249432481258 -0.068413831293582916259765625000 -0.003325447440147399902343750000 -0.002898544538766146139857626807 0 0 0 0 
2416833333.3333334923 0.158046826720237704178018134371 -0.069850519299507141113281250000 -0.003379881381988524956944131006 -0.002586695598438382148742675781 0 0 0 0 
2417000000.0000000000 0.157558664679527310470419365629 -0.070988170802593231201171875000 -0.003440044121816753907444619287 -0.002458244562149047851562500000 0 0 0 0 
2417166666.6666665077 0.157350271940231295486611884371 -0.071990050375461578369140625000 -0.003702592104673386053798056494 -0.001921367365866899924037314307 0 0 0 0 
2417333333.3333334923 0.157182529568672207931356865629 -0.072959356009960174560546875000 -0.003489533672109245820286416162 -0.001640958944335580088971782153 0 0 0 0 
2417500000.0000000000 0.156762599945068387130575615629 -0.074285581707954406738281250000 -0.003676231950521469116210937500 -0.001456747995689511082292866284 0 0 0 0 
2417666666.6666665077 0.156677156686782809158486884371 -0.074962355196475982666015625000 -0.003315018024295568899867392432 -0.001236805925145745060564350659 0 0 0 0 
2417833333.3333334923 0.156296864151954706390057481258 -0.075915202498435974121093750000 -0.003332922235131264166591025244 -0.000934264622628688812255859375 0 0 0 0 
2418000000.0000000000 0.155990898609161404708700615629 -0.077078185975551605224609375000 -0.003165488364174962043762207031 -0.000784043048042804002761840820 0 0 0 0 
2418166666.6666665077 0.155960500240325899978799384371 -0.077726677060127258300781250000 -0.003179336665198206901550292969 -0.000667462940327823162078857422 0 0 0 0 
2418333333.3333334923 0.155822455883026095291299384371 -0.078617371618747711181640625000 -0.002936924342066050009486533057 -0.000611867988482117652893066406 0 0 0 0 
2418500000.0000000000 0.155662029981613186935263115629 -0.079474471509456634521484375000 -0.002668270142748951911926269531 -0.000482376141007989699214381085 0 0 0 0 
2418666666.6666665077 0.155502319335937500000000000000 -0.080278061330318450927734375000 -0.002666308311745523972752236475 -0.000581137777771800756454467773 0 0 0 0 
2418833333.3333334923 0.155179217457771301269531250000 -0.081046305596828460693359375000 -0.002636815188452600999119423975 -0.000490740349050611257553100586 0 0 0 0 
2419000000.0000000000 0.154893383383750887771768134371 -0.081712871789932250976562500000 -0.002363561419770122008082724463 -0.000360117759555578177601414813 0 0 0 0 
2419166666.6666665077 0.154798761010170010665731865629 -0.082551002502441406250000000000 -0.002459474606439470811131142725 -0.000533268088474869728088378906 0 0 0 0 
2419333333.3333334923 0.154344305396079989334268134371 -0.082756213843822479248046875000 -0.002381452359259129004237509619 -0.000461435556644573807716369629 0 0 0 0 
2419500000.0000000000 0.154121175408363286774005018742 -0.083699516952037811279296875000 -0.002485992154106498198268271338 -0.000565808033570647239685058594 0 0 0 0 
2419666666.6666665077 0.153906390070915194412393134371 -0.084348902106285095214843750000 -0.002398734679445623917820595850 -0.000520071072969585657119750977 0 0 0 0 
2419833333.3333334923 0.153445497155189486404580634371 -0.084782294929027557373046875000 -0.002523379167541861967799521338 -0.000589021656196564435958862305 0 0 0 0 
