# Hz S RI R 
2400000000.0000000000 0.168383985757827786544638115629 0.040570013225078582763671875000 0.002119994023814796967747353662 0.001029160455800592899322509766 0 0 0 0 
2400166666.6666665077 0.169115111231803894042968750000 0.039977848529815666889231096093 0.001963507849723101095912314307 0.001084063784219325022456503760 0 0 0 0 
2400333333.3333334923 0.169736638665199307540731865629 0.039039459079504013061523437500 0.002067856723442674116847372900 0.001009302330203353924992226709 0 0 0 0 
2400500000.0000000000 0.170203417539596613128338731258 0.038073904812335968017578125000 0.001952408114448189952253032153 0.001009626197628677108167338794 0 0 0 0 
2400666666.6666665077 0.170598536729812594314736884371 0.037237349897623062133789062500 0.001978368731215596199035644531 0.001003645826131104989292763818 0 0 0 0 
2400833333.3333334923 0.171183750033378601074218750000 0.036608885973691940307617187500 0.001910965889692306952235556494 0.000826341332867741584777832031 0 0 0 0 
2401000000.0000000000 0.171402320265769986251669365629 0.035834077745676040649414062500 0.001872836961410939910291362231 0.000990197528153657913208007812 0 0 0 0 
2401166666.6666665077 0.171719074249267605880575615629 0.035046976059675216674804687500 0.002118974924087523980381631006 0.001070159021764994101283408057 0 0 0 0 
2401333333.3333334923 0.171946316957473810393963731258 0.033957839012146003032643903907 0.002171086380258202986476279150 0.000799862667918205261230468750 0 0 0 0 
2401500000.0000000000 0.172297835350036593338174384371 0.033400502055883407592773437500 0.002187354257330297990086220850 0.000956844189204275608062744141 0 0 0 0 
2401666666.6666665077 0.172263339161872891525106865629 0.032460555434226989746093750000 0.002237424487248063087463378906 0.000791602069512009620666503906 0 0 0 0 
2401833333.3333334923 0.172554299235343905349893134371 0.031848564743995673442800153907 0.002374055329710245132446289062 0.000649914785753935575485229492 0 0 0 0 
2402000000.0000000000 0.172570437192916897872763115629 0.030924664810299869882603829296 0.002393595874309539794921875000 0.000809581950306892395019531250 0 0 0 0 
2402166666.6666665077 0.172538667917251586914062500000 0.029973436146974560129185860546 0.002228910103440285162684775244 0.000706375460140407085418701172 0 0 0 0 
2402333333.3333334923 0.172500923275947598556356865629 0.029190119355916980398157889454 0.002441889373585582213160849463 0.000664501974824815988540649414 0 0 0 0 
2402500000.0000000000 0.172494083642959594726562500000 0.028276251628994941711425781250 0.002475825604051351980922079932 0.000442340649897232705920618878 0 0 0 0 
2402666666.6666665077 0.172587096691131591796875000000 0.027427373453974720346471016796 0.002393572591245173974278115381 0.000480749877169728279113769531 0 0 0 0 
2402833333.3333334923 0.172454968094825689117755018742 0.026466049253940578805943673046 0.002462568692862987951991415869 0.000447364640422165393829345703 0 0 0 0 
2403000000.0000000000 0.172166883945465087890625000000 0.025387579575181010854700858204 0.002539144596084951920750283350 0.000132594432216137701838892804 0 0 0 0 
2403166666.6666665077 0.172389447689056396484375000000 0.024359429255127910268763358204 0.002485103206709026856663369287 0.000131985856569372090414324350 0 0 0 0 
2403333333.3333334923 0.171929284930229187011718750000 0.023472828790545460092564766796 0.002312525641173123879673623193 -0.000008527016689185984432697296 0 0 0 0 
2403500000.0000000000 0.171768397092819213867187500000 0.022225899621844291687011718750 0.002518172608688474135157919775 0.000002390199369983748025025568 0 0 0 0 
2403666666.6666665077 0.171585962176322909256143134371 0.021038318052887920034388358204 0.002459589159116148948669433594 -0.000075509560701902955770492554 0 0 0 0 
2403833333.3333334923 0.171451628208160400390625000000 0.019772354513406750070592110546 0.002522019436582922935485839844 -0.000078530632890760898590087891 0 0 0 0 
2404000000.0000000000 0.171335533261299105545205634371 0.018751109018921848642369454296 0.002372243208810687065124511719 -0.000147819984704256111949366437 0 0 0 0 
2404166666.6666665077 0.170930549502372686188067518742 0.017309611663222309457799141796 0.002485022647306323051452636719 -0.000199940477614291012287139893 0 0 0 0 
2404333333.3333334923 0.170873209834098788162393134371 0.015996273607015609741210937500 0.002457192167639731927158974756 -0.000232026941375806900575914926 0 0 0 0 
2404500000.0000000000 0.170585319399833706954794365629 0.014507208950817590195625506055 0.002405367325991392135620117188 -0.000280387495877221226692199707 0 0 0 0 
2404666666.6666665077 0.170650690793991088867187500000 0.013224943540990349161168282421 0.002531480276957153840305947412 -0.000282299675745889490276890887 0 0 0 0 
2404833333.3333334923 0.170389294624328613281250000000 0.011815853416919709986676600977 0.002626170637086033821105957031 -0.000434603018220514113276881085 0 0 0 0 
2405000000.0000000000 0.170336514711380004882812500000 0.010225559584796430415143397852 0.002507822355255485014674521338 -0.000532098871190100908279418945 0 0 0 0 
2405166666.6666665077 0.170378521084785489181356865629 0.008643008768558502197265625000 0.002582314889878035025355673682 -0.000592009862884879112243652344 0 0 0 0 
2405333333.3333334923 0.170285701751709012130575615629 0.007001684047281742095947265625 0.002720875199884175820591591943 -0.000547358125913888216018676758 0 0 0 0 
2405500000.0000000000 0.170038670301437405685263115629 0.005322423763573169708251953125 0.002749445382505654855015420068 -0.000795467582065612077713012695 0 0 0 0 
2405666666.6666665077 0.169942528009414700607138115629 0.003839584998786448998692177881 0.002639180049300193786621093750 -0.001010212232358753898023295825 0 0 0 0 
2405833333.3333334923 0.169669196009635897537393134371 0.002139396499842404885532998193 0.002563622547313570976257324219 -0.001096479361876844926121377100 0 0 0 0 
2406000000.0000000000 0.169587507843971307952557481258 0.000445632089395075982243138446 0.002450738102197647094726562500 -0.001019475632347166971919394385 0 0 0 0 
2406166666.6666665077 0.169396087527275113204794365629 -0.001131012802943587086321186597 0.002381830709055066108703613281 -0.001246579689905046983006142725 0 0 0 0 
2406333333.3333334923 0.169497117400169400314169365629 -0.002773117041215300993678427588 0.002447310369461774826049804688 -0.001523038488812745051143027197 0 0 0 0 
2406500000.0000000000 0.169280111789703396896200615629 -0.004470698535442352294921875000 0.002425862476229668097255087744 -0.001631783554330467960954975659 0 0 0 0 
2406666666.6666665077 0.168884962797164889236611884371 -0.005963576957583427429199218750 0.002427698113024235205409384619 -0.001703760237433016083360981519 0 0 0 0 
2406833333.3333334923 0.168790549039840698242187500000 -0.007709397003054618835449218750 0.002207915531471372084376669775 -0.001820031786337495066999125903 0 0 0 0 
2407000000.0000000000 0.168730169534683199783486884371 -0.009303419850766658782958984375 0.002040561288595200018641806494 -0.002015119418501853942871093750 0 0 0 0 
2407166666.6666665077 0.168625622987747192382812500000 -0.010735513642430310685127459180 0.002096016891300677819492959131 -0.001985213253647089004516601562 0 0 0 0 
2407333333.3333334923 0.168514758348464993575888115629 -0.012198515236377719533900076954 0.001824112143367528915405273438 -0.002112422371283173994777060400 0 0 0 0 
2407500000.0000000000 0.168366521596908597091513115629 -0.013612459413707259786585623829 0.001712084631435573101043701172 -0.002078938996419311003444052588 0 0 0 0 
2407666666.6666665077 0.168180510401725796798544365629 -0.014786652289330959320068359375 0.001624753815121948935865092700 -0.002197344554588199095485068213 0 0 0 0 
2407833333.3333334923 0.167875111103057889083700615629 -0.016048371791839599609375000000 0.001387235824950038953068398584 -0.002133569680154324011561728369 0 0 0 0 
2408000000.0000000000 0.168023288249969510177450615629 -0.017314570024609569204310233204 0.001126796822063625075696635669 -0.002079888014122844176051474463 0 0 0 0 
2408166666.6666665077 0.167873948812484713455361884371 -0.018285941332578659057617187500 0.000999331357888877391815185547 -0.002040619030594826178309775244 0 0 0 0 
2408333333.3333334923 0.168092221021652193924111884371 -0.019426450133323669433593750000 0.001085579860955476977704692310 -0.001955282641574739976170205225 0 0 0 0 
2408500000.0000000000 0.168087393045425387283486884371 -0.020358970388770099985142891796 0.000947518215980380773544311523 -0.001784945256076752922655415112 0 0 0 0 
2408666666.6666665077 0.168178766965866088867187500000 -0.021354246884584430349329764454 0.000952913542278110980987548828 -0.001753855613060296015498495947 0 0 0 0 
2408833333.3333334923 0.168237790465354891678018134371 -0.022291369736194610595703125000 0.000990873901173472404479980469 -0.001655587460845709063886332935 0 0 0 0 
2409000000.0000000000 0.168516889214515713790731865629 -0.023170085623860359191894531250 0.001031411811709403991699218750 -0.001710624201223253986955952222 0 0 0 0 
2409166666.6666665077 0.168656766414642306228799384371 -0.024044176563620570791224295704 0.001105683390051126913783408057 -0.001615082961507142023799277197 0 0 0 0 
2409333333.3333334923 0.168993726372718811035156250000 -0.025111705064773559570312500000 0.001180475577712059020996093750 -0.001730748685076832988141704028 0 0 0 0 
2409500000.0000000000 0.169089183211326599121093750000 -0.026111660525202751159667968750 0.001257089665159583091735839844 -0.001829307526350020928623818506 0 0 0 0 
2409666666.6666665077 0.169377133250236511230468750000 -0.026780933141708370553990548046 0.001214366871863604025599814307 -0.001754606608301400921465229565 0 0 0 0 
2409833333.3333334923 0.169457420706748990157919365629 -0.027586253359913829458216483204 0.001293420908041297955753945459 -0.001690667006187140941619873047 0 0 0 0 
2410000000.0000000000 0.169754102826118496993856865629 -0.028625110164284709585169608204 0.001368189579807222106336284106 -0.001818588469177484946009970557 0 0 0 0 
2410166666.6666665077 0.169856458902359008789062500000 -0.029388871043920520437220389454 0.001343378447927535013911581885 -0.002034055301919579939601279150 0 0 0 0 
2410333333.3333334923 0.169929921627044705489950615629 -0.030223794281482700002650076954 0.001384541159495710892918252100 -0.002122950972989201979396201025 0 0 0 0 
2410500000.0000000000 0.169993296265602111816406250000 -0.031100401654839519155482108204 0.001256876508705317974090576172 -0.002227696357294917106628417969 0 0 0 0 
2410666666.6666665077 0.169877827167510986328125000000 -0.032014481723308563232421875000 0.001223335508257151083705283057 -0.002412584843114018006565713037 0 0 0 0 
2410833333.3333334923 0.169970273971557589431924384371 -0.032821279019117362285573591407 0.001052203122526407024980854565 -0.002403736812993884086608886719 0 0 0 0 
2411000000.0000000000 0.169931977987289400955361884371 -0.033665340393781661987304687500 0.001056075794622302055358886719 -0.002540475456044077873229980469 0 0 0 0 
2411166666.6666665077 0.169817939400672912597656250000 -0.034557353705167770385742187500 0.000842445471789687871932983398 -0.002587930765002965927124023438 0 0 0 0 
2411333333.3333334923 0.169697090983390808105468750000 -0.035234160721302032470703125000 0.000691322842612862586975097656 -0.002699783537536859946009970557 0 0 0 0 
2411500000.0000000000 0.169510230422019986251669365629 -0.036170188337564468383789062500 0.000710380147211253643035888672 -0.002835954073816537857055664062 0 0 0 0 
2411666666.6666665077 0.169395640492439297775106865629 -0.036798305809497833251953125000 0.000512221711687743663787841797 -0.002937042154371738000157021631 0 0 0 0 
2411833333.3333334923 0.169287890195846613128338731258 -0.037704117596149451518972028907 0.000457391288364306092262268066 -0.002729025436565279960632324219 0 0 0 0 
2412000000.0000000000 0.169097796082496587555255018742 -0.038486588746309280395507812500 0.000554140715394169092178344727 -0.002730356529355049133300781250 0 0 0 0 
2412166666.6666665077 0.168684706091880798339843750000 -0.039341066032648086547851562500 0.000425747508415952324867248535 -0.002787596313282846970799111475 0 0 0 0 
2412333333.3333334923 0.168523386120796203613281250000 -0.040070030838251106952707658593 0.000201513888896443003981989728 -0.002825923729687929153442382812 0 0 0 0 
2412500000.0000000000 0.167944654822349603850994981258 -0.041053175926208503032643903907 0.000050214413931826129555702209 -0.002798041095957159996032714844 0 0 0 0 
2412666666.6666665077 0.167729362845420809646768134371 -0.042025715112686157226562500000 -0.000028037406082148660311495134 -0.002985885599628090858459472656 0 0 0 0 
2412833333.3333334923 0.167480200529098510742187500000 -0.042887050658464431762695312500 -0.000026073708795593120157718658 -0.002942703897133470015284872900 0 0 0 0 
2413000000.0000000000 0.166902109980583190917968750000 -0.043855458498001098632812500000 -0.000169654173078015500873011456 -0.003009570762515068054199218750 0 0 0 0 
2413166666.6666665077 0.166374534368514986892861884371 -0.044661674648523330688476562500 -0.000198306108359247500270289288 -0.003125695046037435965297079932 0 0 0 0 
2413333333.3333334923 0.165649637579917907714843750000 -0.045806653797626502300222028907 -0.000359599129296839183003026141 -0.003179130377247930006739951025 0 0 0 0 
2413500000.0000000000 0.165390849113464410979901231258 -0.046726483851671218872070312500 -0.000594809185713529586791992188 -0.003242451231926680044886923682 0 0 0 0 
2413666666.6666665077 0.164785370230674688141192518742 -0.047654069960117340087890625000 -0.000708311272319406270980834961 -0.003083858871832489967346191406 0 0 0 0 
2413833333.3333334923 0.164166912436485290527343750000 -0.048539422452449798583984375000 -0.000860150903463363647460937500 -0.003298818599432706832885742188 0 0 0 0 
2414000000.0000000000 0.163676843047142001053018134371 -0.049617122858762741088867187500 -0.001131676370278001048444438403 -0.003207311499863862991333007812 0 0 0 0 
2414166666.6666665077 0.163213118910789489746093750000 -0.050427291542291641235351562500 -0.001247510313987731933593750000 -0.003108527744188905195948935400 0 0 0 0 
2414333333.3333334923 0.162702247500419588943643134371 -0.051511283963918692851979841407 -0.001389280660077929930446005713 -0.003041709074750543074366904150 0 0 0 0 
2414500000.0000000000 0.162416830658912686446981865629 -0.052459225058555603027343750000 -0.001651191385462879917742085034 -0.002900454914197326140162802588 0 0 0 0 
2414666666.6666665077 0.161943569779396112640057481258 -0.053377307951450347900390625000 -0.001812261762097477912902832031 -0.002807615557685493989231728662 0 0 0 0 
2414833333.3333334923 0.161576107144355801681356865629 -0.054550033062696456909179687500 -0.001874128356575966098188090747 -0.002791892504319549040553427588 0 0 0 0 
2415000000.0000000000 0.161157384514808710296307481258 -0.055391170084476470947265625000 -0.002053870819509028954746865381 -0.002766935620456933975219726562 0 0 0 0 
2415166666.6666665077 0.160925298929214505294638115629 -0.056549701839685440063476562500 -0.002316801110282539887669228662 -0.002537290332838892936706542969 0 0 0 0 
2415333333.3333334923 0.160843819379806490799111884371 -0.057799294590950012207031250000 -0.002316053258255124092102050781 -0.002387204673141241073608398438 0 0 0 0 
2415500000.0000000000 0.160521253943443298339843750000 -0.058858148753643042827565778907 -0.002445750171318649811985634912 -0.002168510574847459793090820312 0 0 0 0 
2415666666.6666665077 0.160223096609115600585937500000 -0.060099422931671142578125000000 -0.002537768101319671110865927588 -0.002078245393931866125819540869 0 0 0 0 
2415833333.3333334923 0.160112187266349792480468750000 -0.061302646994590759277343750000 -0.002426507417112588882446289062 -0.001734714256599545912501669775 0 0 0 0 
2416000000.0000000000 0.159526631236076410491619981258 -0.062720052897930145263671875000 -0.002432980574667454199550009619 -0.001553625799715518951416015625 0 0 0 0 
2416166666.6666665077 0.159556657075882013518963731258 -0.063955962657928466796875000000 -0.002564148511737585067749023438 -0.001544552622362971089006733472 0 0 0 0 
2416333333.3333334923 0.159192070364952087402343750000 -0.065133072435855865478515625000 -0.002564259804785252051112509619 -0.001349763129837810993194580078 0 0 0 0 
2416500000.0000000000 0.158862873911857604980468750000 -0.066477559506893157958984375000 -0.002429894637316464944126748193 -0.001077566063031554005266499097 0 0 0 0 
2416666666.6666665077 0.158488065004348810393963731258 -0.067729011178016662597656250000 -0.002398841548711061911342001807 -0.001247234293259680054308247144 0 0 0 0 
2416833333.3333334923 0.158411204814910888671875000000 -0.069117791950702667236328125000 -0.002278391970321536064147949219 -0.001114285201765597083448100513 0 0 0 0 
2417000000.0000000000 0.157703801989555386642294365629 -0.070178091526031494140625000000 -0.002119597746059298949000693213 -0.001123748021200299046160053784 0 0 0 0 
2417166666.6666665077 0.157489523291587801834268134371 -0.071278505027294158935546875000 -0.002214408712461591200587607275 -0.001072391169145703098894428784 0 0 0 0 
2417333333.3333334923 0.157317593693733187576455634371 -0.072275802493095397949218750000 -0.002152496017515658898594521631 -0.000992003944702446460723876953 0 0 0 0 
2417500000.0000000000 0.157019183039665194412393134371 -0.073575198650360107421875000000 -0.002078034682199358940124511719 -0.000849351403303444385528564453 0 0 0 0 
2417666666.6666665077 0.156770452857017489334268134371 -0.074375353753566741943359375000 -0.002086905296891928152797079932 -0.000917689758352935314178466797 0 0 0 0 
2417833333.3333334923 0.156446024775505093673544365629 -0.075417503714561462402343750000 -0.002169653307646512985229492188 -0.000905547698494046926498413086 0 0 0 0 
2418000000.0000000000 0.156223624944686889648437500000 -0.076431646943092346191406250000 -0.002141398843377829031703329932 -0.000864611705765128135681152344 0 0 0 0 
2418166666.6666665077 0.155953899025917108733807481258 -0.077327989041805267333984375000 -0.002190299099311233000514365088 -0.000859834952279925346374511719 0 0 0 0 
2418333333.3333334923 0.155933886766433688064736884371 -0.078221701085567474365234375000 -0.002142676385119556946995400537 -0.000667773128952831029891967773 0 0 0 0 
2418500000.0000000000 0.155711352825164794921875000000 -0.079186223447322845458984375000 -0.002205120166763662858250283350 -0.000795577652752399444580078125 0 0 0 0 
2418666666.6666665077 0.155546188354492187500000000000 -0.080096937716007232666015625000 -0.002185605233535170988795615088 -0.000728831742890179157257080078 0 0 0 0 
2418833333.3333334923 0.155178576707839993575888115629 -0.080866299569606781005859375000 -0.002185705816373229026794433594 -0.000863800814840942621231079102 0 0 0 0 
2419000000.0000000000 0.154834538698196411132812500000 -0.081600457429885864257812500000 -0.002267338801175355911254882812 -0.000717553019057959318161010742 0 0 0 0 
2419166666.6666665077 0.154743894934654208084268134371 -0.082432568073272705078125000000 -0.002188696060329676108119345557 -0.000679365999531000852584838867 0 0 0 0 
2419333333.3333334923 0.154286205768585205078125000000 -0.082962863147258758544921875000 -0.002234625397250055833103798975 -0.000640337413642555475234985352 0 0 0 0 
2419500000.0000000000 0.154034599661827087402343750000 -0.083844281733036041259765625000 -0.002370088594034314155578613281 -0.000691234250552952289581298828 0 0 0 0 
2419666666.6666665077 0.153993472456932095626669365629 -0.084423094987869262695312500000 -0.002347917528823018074035644531 -0.000621110084466636180877685547 0 0 0 0 
2419833333.3333334923 0.153640881180763189117755018742 -0.084929771721363067626953125000 -0.002393743721768260002136230469 -0.000385318679036572575569152832 0 0 0 0 
