# Hz S RI R 
2400000000.0000000000 0.168421864509582491775674384371 0.040633082389831542968750000000 0.002044393680989741845371865381 0.001084384624846280054805136572 0 0 0 0 
2400166666.6666665077 0.169189885258674593826455634371 0.040078639984130859375000000000 0.001999604748561977906468056787 0.001021370990201831080793071216 0 0 0 0 
2400333333.3333334923 0.169769272208213806152343750000 0.039124123752117156982421875000 0.001848418032750486893894814600 0.001085717463865875980974506909 0 0 0 0 
2400500000.0000000000 0.170328065752983093261718750000 0.038357391953468322753906250000 0.001985803013667463822605752100 0.001039098249748348972917866284 0 0 0 0 
2400666666.6666665077 0.170661345124244689941406250000 0.037379037588834762573242187500 0.002049578819423913955688476562 0.001056308625265955924987792969 0 0 0 0 
2400833333.3333334923 0.171220809221267700195312500000 0.036640755832195281982421875000 0.001981390407308936119079589844 0.000965960673056542873382568359 0 0 0 0 
2401000000.0000000000 0.171450167894363403320312500000 0.035730071365833282470703125000 0.001976634841412305831909179688 0.000962162681389600038528442383 0 0 0 0 
2401166666.6666665077 0.171919643878936795333700615629 0.034818485379219062114675153907 0.002084562787786126136779785156 0.000981093966402113437652587891 0 0 0 0 
2401333333.3333334923 0.172014564275741604904013115629 0.034071691334247589111328125000 0.002040456049144268035888671875 0.001029377104714513041852641528 0 0 0 0 
2401500000.0000000000 0.172323614358902005294638115629 0.033448442816734307025949846093 0.002137923846021295027491904150 0.000816001207567751407623291016 0 0 0 0 
2401666666.6666665077 0.172424659132957486251669365629 0.032742712646722786640207658593 0.002296002581715583801269531250 0.000873835873790085315704345703 0 0 0 0 
2401833333.3333334923 0.172525569796562194824218750000 0.031762003898620612407643903907 0.002373198512941598892211914062 0.000625356915406882762908935547 0 0 0 0 
2402000000.0000000000 0.172377169132232693771200615629 0.030898507684469219553013985546 0.002282147528603672981262207031 0.000851822842378169298171997070 0 0 0 0 
2402166666.6666665077 0.172491684556007413009481865629 0.030066328123211860656738281250 0.002356185577809811072108603369 0.000667158339638262987136840820 0 0 0 0 
2402333333.3333334923 0.172573328018188504318075615629 0.029274024069309241558034528907 0.002506377408280969099757529150 0.000477067631436511874198913574 0 0 0 0 
2402500000.0000000000 0.172628656029701205154580634371 0.028396861627697951580007185157 0.002531000180169939994812011719 0.000533578509930521249771118164 0 0 0 0 
2402666666.6666665077 0.172702416777610806564169365629 0.027416976168751720083216483204 0.002412666566669940948486328125 0.000402642443077638799518030988 0 0 0 0 
2402833333.3333334923 0.172363877296447809417401231258 0.026531320065259930002232735546 0.002521550981327890916111611475 0.000284413865301758105128687726 0 0 0 0 
2403000000.0000000000 0.172158420085907010177450615629 0.025582594797015190124511718750 0.002535921055823564963099814307 0.000227186887059360688358861102 0 0 0 0 
2403166666.6666665077 0.172422170639038113693075615629 0.024375895038247108459472656250 0.002478810492902994155883789062 0.000109244007035158601686200552 0 0 0 0 
2403333333.3333334923 0.172028616070747403243856865629 0.023394973948597911489466483204 0.002496605738997458977940224756 0.000056432720157317817211151123 0 0 0 0 
2403500000.0000000000 0.171710625290870694259481865629 0.022319532930850979196568673046 0.002542356960475444793701171875 -0.000019722343495232049712930986 0 0 0 0 
2403666666.6666665077 0.171579897403717013260049384371 0.021117422729730609548548514454 0.002542220987379550933837890625 -0.000019552746380213651468957595 0 0 0 0 
2403833333.3333334923 0.171592533588409396072549384371 0.019932445138692859304407889454 0.002405394567176700072047568213 -0.000084595929365605115890502930 0 0 0 0 
2404000000.0000000000 0.171206071972847012618856865629 0.018623551353812221181849295704 0.002478397917002439932582236182 -0.000185406679520383504316052847 0 0 0 0 
2404166666.6666665077 0.171091720461845397949218750000 0.017127271741628650320032889454 0.002438472583889960808994912256 -0.000322960317134857177734375000 0 0 0 0 
2404333333.3333334923 0.170936539769172696212606865629 0.015969632193446159362792968750 0.002477065660059452056884765625 -0.000243559887167066308573046274 0 0 0 0 
2404500000.0000000000 0.170739993453025790115518134371 0.014597732573747640091865740430 0.002352788578718901114222861182 -0.000304343935567885583073216571 0 0 0 0 
2404666666.6666665077 0.170640632510185186188067518742 0.013189319521188739431361014454 0.002641346538439393043518066406 -0.000424367084633558988571166992 0 0 0 0 
2404833333.3333334923 0.170424014329910306075888115629 0.011757924221456049138079258398 0.002574427053332328796386718750 -0.000468215439468622207641601562 0 0 0 0 
2405000000.0000000000 0.170290052890777587890625000000 0.010167816653847689192802228320 0.002599844010546803908107138525 -0.000465456367237493395805358887 0 0 0 0 
2405166666.6666665077 0.170274838805198697189169365629 0.008707693777978420257568359375 0.002459577284753323034999228369 -0.000530445249751210212707519531 0 0 0 0 
2405333333.3333334923 0.170219272375106811523437500000 0.006929041817784309387207031250 0.002686533145606517791748046875 -0.000771813211031258106231689453 0 0 0 0 
2405500000.0000000000 0.170041128993034390548544365629 0.005544907413423061370849609375 0.002500648144632577896118164062 -0.000852069118991494178771972656 0 0 0 0 
2405666666.6666665077 0.169940352439880398849325615629 0.003799222409725189208984375000 0.002753028878942131996154785156 -0.001046835910528898022295307690 0 0 0 0 
2405833333.3333334923 0.169684916734695406814736884371 0.002223073504865169958827353369 0.002582286484539508819580078125 -0.001110047800466418049455952222 0 0 0 0 
2406000000.0000000000 0.169650301337242098709268134371 0.000277459825156256610721033917 0.002607405418530106978175497900 -0.001248917542397975921630859375 0 0 0 0 
2406166666.6666665077 0.169356316328048706054687500000 -0.001157622435130178928375244141 0.002520618494600058035609579932 -0.001380410161800682978389120947 0 0 0 0 
2406333333.3333334923 0.169393256306648309905682481258 -0.002983072306960821151733398438 0.002403576625511049790623330225 -0.001437761471606791019439697266 0 0 0 0 
2406500000.0000000000 0.169217154383659390548544365629 -0.004549486562609673413748456738 0.002313173143193126158473349463 -0.001552680390886961980106972803 0 0 0 0 
2406666666.6666665077 0.168886885046958895584268134371 -0.006071883253753185272216796875 0.002247676020488142967224121094 -0.001613457687199115970014262622 0 0 0 0 
2406833333.3333334923 0.168800368905067388336505018742 -0.007901262491941452026367187500 0.002296505263075232939479208838 -0.001864637131802737929700541919 0 0 0 0 
2407000000.0000000000 0.168689802289009094238281250000 -0.009370896965265274047851562500 0.002155729103833436965942382812 -0.001951244659721850915196084131 0 0 0 0 
2407166666.6666665077 0.168682232499122591873330634371 -0.010655858553946019953717616602 0.001871268264949321963666606372 -0.002059229882434010939357138525 0 0 0 0 
2407333333.3333334923 0.168343499302864102462606865629 -0.012175584211945530282994454296 0.001955295912921429114100790869 -0.002160870935767889022827148438 0 0 0 0 
2407500000.0000000000 0.168296352028846712967080634371 -0.013504463247954850632637224805 0.001593843102455138943315815503 -0.002272639190778135819676064600 0 0 0 0 
2407666666.6666665077 0.168026566505432101150674384371 -0.014751669950783249246617501171 0.001495466916821897029876708984 -0.002076999982818961143493652344 0 0 0 0 
2407833333.3333334923 0.167934805154800387283486884371 -0.016070690006017688405970389454 0.001256341696716845035552978516 -0.002021328778937458992004394531 0 0 0 0 
2408000000.0000000000 0.167987585067748995681924384371 -0.017322676256299018859863281250 0.001203383435495197989820170825 -0.002095314906910061836242675781 0 0 0 0 
2408166666.6666665077 0.167888820171356201171875000000 -0.018350178375840190542200858204 0.001146004535257816097856831128 -0.002010545693337916894199990381 0 0 0 0 
2408333333.3333334923 0.168048694729804992675781250000 -0.019399534910917278635045235546 0.001134634017944335937500000000 -0.001962636364623903794529580225 0 0 0 0 
2408500000.0000000000 0.167993992567062405685263115629 -0.020435417070984840393066406250 0.000910372065845876932144165039 -0.001908727455884217999101948315 0 0 0 0 
2408666666.6666665077 0.168163478374481201171875000000 -0.021492756903171539306640625000 0.001097857486456633047816611182 -0.001602030592039227919337607275 0 0 0 0 
2408833333.3333334923 0.168246477842330904861611884371 -0.022263621911406520498255545704 0.000934175448492169380187988281 -0.001598712406121193928959511865 0 0 0 0 
2409000000.0000000000 0.168382987380027798751669365629 -0.023220682516694068908691406250 0.001070653321221471049665141528 -0.001676304265856743075727153247 0 0 0 0 
2409166666.6666665077 0.168746009469032287597656250000 -0.024122351780533790588378906250 0.001164369983598589897155761719 -0.001648988574743271090863871997 0 0 0 0 
2409333333.3333334923 0.168912112712860107421875000000 -0.025086089968681338918665701954 0.001286600832827389023424458081 -0.001715968130156398036359477466 0 0 0 0 
2409500000.0000000000 0.169146209955215509612713731258 -0.026068564504385001445729841407 0.001217263401485979990718222510 -0.001701931236311792893650673975 0 0 0 0 
2409666666.6666665077 0.169279828667640713790731865629 -0.026814358308911320077916329296 0.001328894519247115092036581885 -0.001816269825212658102150942163 0 0 0 0 
2409833333.3333334923 0.169535294175148010253906250000 -0.027736840769648548471471016796 0.001278348034247756004333496094 -0.001813151407986878915074013818 0 0 0 0 
2410000000.0000000000 0.169872313737869290450888115629 -0.028526127338409420358678048046 0.001300120027735828919651650537 -0.001899281865917145989061665112 0 0 0 0 
2410166666.6666665077 0.169845849275588989257812500000 -0.029489936307072639465332031250 0.001276890980079770088195800781 -0.002133636735379695892333984375 0 0 0 0 
2410333333.3333334923 0.169962882995605496505575615629 -0.030294567346572879446009451954 0.001260045915842056057573628003 -0.002214828971773386001586914062 0 0 0 0 
2410500000.0000000000 0.169922083616256713867187500000 -0.031168429180979728698730468750 0.001153505989350378947017050635 -0.002372855786234139962437295068 0 0 0 0 
2410666666.6666665077 0.170040518045425387283486884371 -0.032011490315198898315429687500 0.001243091654032469012616801685 -0.002470805309712886810302734375 0 0 0 0 
2410833333.3333334923 0.170123875141143798828125000000 -0.032852232456207282329518903907 0.001136049279011785984039306641 -0.002590877935290337042567587744 0 0 0 0 
2411000000.0000000000 0.169949799776077298263388115629 -0.033521026372909552837331403907 0.001026704208925365967991494287 -0.002705313032492994828465127100 0 0 0 0 
2411166666.6666665077 0.169880598783492986481036268742 -0.034408453851938247680664062500 0.001003714394755661921260214697 -0.002715416485443710847141884912 0 0 0 0 
2411333333.3333334923 0.169613674283027704436932481258 -0.035182178020477301860768903907 0.000914621981792151927947998047 -0.002733421744778751893284463037 0 0 0 0 
2411500000.0000000000 0.169570505619049100021200615629 -0.036001186817884452129323591407 0.000714119989424943923950195312 -0.002721065189689397811889648438 0 0 0 0 
2411666666.6666665077 0.169521629810333307464276231258 -0.036889672279357910156250000000 0.000576664926484227180480957031 -0.002907173009589314894435263525 0 0 0 0 
2411833333.3333334923 0.169213339686393710037393134371 -0.037655863910913467407226562500 0.000460715004010125994682312012 -0.002893345430493354797363281250 0 0 0 0 
2412000000.0000000000 0.169201374053955105880575615629 -0.038555230945348739624023437500 0.000380984129151329398155212402 -0.002791647566482425169703818213 0 0 0 0 
2412166666.6666665077 0.168714493513107299804687500000 -0.039405006915330886840820312500 0.000310155999613925814628601074 -0.002819933928549290137050009619 0 0 0 0 
2412333333.3333334923 0.168679028749465886871661268742 -0.040076389908790588378906250000 0.000335250195348635315895080566 -0.002839227672666310830357216943 0 0 0 0 
2412500000.0000000000 0.168102011084556607345419365629 -0.040956836193799972534179687500 0.000067596505687106400728225708 -0.002964270068332552909851074219 0 0 0 0 
2412666666.6666665077 0.167781338095665005782919365629 -0.042135052382946007465402971093 -0.000082747406850103288888931274 -0.003006693674251437187194824219 0 0 0 0 
2412833333.3333334923 0.167327418923377990722656250000 -0.042971845716238021850585937500 0.000006157393272587796673178673 -0.002900680759921669960021972656 0 0 0 0 
2413000000.0000000000 0.166959226131439208984375000000 -0.043870177119970321655273437500 -0.000060164256865391507744789124 -0.002997046336531639099121093750 0 0 0 0 
2413166666.6666665077 0.166204974055290194412393134371 -0.044779788702726357196848283593 -0.000297604652587324380874633789 -0.003155249170958995819091796875 0 0 0 0 
2413333333.3333334923 0.165680274367332486251669365629 -0.045834708958864212036132812500 -0.000296904705464839881092625751 -0.003045791992917656898498535156 0 0 0 0 
2413500000.0000000000 0.165489450097084100921307481258 -0.046697117388248436664621721093 -0.000535435276105999946594238281 -0.003242941340431571006774902344 0 0 0 0 
2413666666.6666665077 0.164921998977661105056924384371 -0.047734636813402182842214216407 -0.000783431110903620719909667969 -0.003211537608876823945286416162 0 0 0 0 
2413833333.3333334923 0.164267331361770602127236884371 -0.048606056720018386840820312500 -0.000949701527133584022521972656 -0.003107654862105845971348427881 0 0 0 0 
2414000000.0000000000 0.163543432950973510742187500000 -0.049615044146776199340820312500 -0.001265562139451503970502543872 -0.003045313060283660888671875000 0 0 0 0 
2414166666.6666665077 0.163192361593246487716513115629 -0.050481472164392471313476562500 -0.001386043499223887920379638672 -0.003298358991742134094238281250 0 0 0 0 
2414333333.3333334923 0.162576645612716702560263115629 -0.051544949412345893169362653907 -0.001502288621850311972974467700 -0.003115918952971696853637695312 0 0 0 0 
2414500000.0000000000 0.162634208798408508300781250000 -0.052372597157955169677734375000 -0.001519659766927361922023154150 -0.002954971510916947884800576318 0 0 0 0 
2414666666.6666665077 0.162032276391983004470986884371 -0.053288515657186508178710937500 -0.001980403438210486932041787256 -0.003033975604921578927281045068 0 0 0 0 
2414833333.3333334923 0.161636754870414706131143134371 -0.054425854235887527465820312500 -0.001739980769343673966051411206 -0.002952115610241889953613281250 0 0 0 0 
2415000000.0000000000 0.161189898848533602615518134371 -0.055456202477216720581054687500 -0.002025238936766982078552246094 -0.002649308880791068077087402344 0 0 0 0 
2415166666.6666665077 0.160923391580581692794638115629 -0.056409690529108047485351562500 -0.002278185216709970994236611475 -0.002477478701621294021606445312 0 0 0 0 
2415333333.3333334923 0.160788103938102694412393134371 -0.057733569294214248657226562500 -0.002358658472076057954075478662 -0.002288388321176170869114541162 0 0 0 0 
2415500000.0000000000 0.160521820187568692306356865629 -0.058925304561853408813476562500 -0.002349647693336009979248046875 -0.002166291233152151107788085938 0 0 0 0 
2415666666.6666665077 0.160260051488876287262286268742 -0.060046795755624771118164062500 -0.002381320111453533172607421875 -0.002067020628601313071009970557 0 0 0 0 
2415833333.3333334923 0.160085186362266512771768134371 -0.061308156698942177509348283593 -0.002499772468581796126124716650 -0.001916952198371290943743061597 0 0 0 0 
2416000000.0000000000 0.159637674689292907714843750000 -0.062619939446449279785156250000 -0.002447862410917878150939941406 -0.001655449043028057055232382666 0 0 0 0 
2416166666.6666665077 0.159572824835777310470419365629 -0.063877522945404052734375000000 -0.002516628475859760804417275537 -0.001552903908304869911791157300 0 0 0 0 
2416333333.3333334923 0.159273028373718289474325615629 -0.065069377422332763671875000000 -0.002465310506522655920741415869 -0.001395387807860970930812216650 0 0 0 0 
2416500000.0000000000 0.158875450491905212402343750000 -0.066480904817581176757812500000 -0.002276401733979582786560058594 -0.001196284079924226024030375903 0 0 0 0 
2416666666.6666665077 0.158494308590889004806356865629 -0.067682050168514251708984375000 -0.002300251042470335960388183594 -0.001227020518854260010960244287 0 0 0 0 
2416833333.3333334923 0.158319622278213500976562500000 -0.068961076438426971435546875000 -0.002269130898639560179469443213 -0.001319538801908493041992187500 0 0 0 0 
2417000000.0000000000 0.157751306891441400725994981258 -0.070142984390258789062500000000 -0.002259224187582730813267373193 -0.001062445808202028057695698315 0 0 0 0 
2417166666.6666665077 0.157528981566429110428018134371 -0.071242608129978179931640625000 -0.002213635481894015832188271631 -0.001016128924675286033033061450 0 0 0 0 
2417333333.3333334923 0.157295271754264803787393134371 -0.072412468492984771728515625000 -0.002153183566406369209289550781 -0.000953583512455224990844726562 0 0 0 0 
2417500000.0000000000 0.156945586204528808593750000000 -0.073459245264530181884765625000 -0.002205021679401398138758993994 -0.000832040677778422832489013672 0 0 0 0 
2417666666.6666665077 0.156777158379554804046307481258 -0.074395000934600830078125000000 -0.002214608248323202133178710938 -0.000915295968297868967056274414 0 0 0 0 
2417833333.3333334923 0.156453818082809503753338731258 -0.075451619923114776611328125000 -0.002068865345790981812718056787 -0.000738522736355662345886230469 0 0 0 0 
2418000000.0000000000 0.156187295913696289062500000000 -0.076585672795772552490234375000 -0.002068570815026760101318359375 -0.000822561501991003751754760742 0 0 0 0 
2418166666.6666665077 0.155891925096511813064736884371 -0.077175788581371307373046875000 -0.002314542653039097785949707031 -0.000886658497620373964309692383 0 0 0 0 
2418333333.3333334923 0.156001731753349304199218750000 -0.078209690749645233154296875000 -0.002133501227945088906529091943 -0.000932694412767887115478515625 0 0 0 0 
2418500000.0000000000 0.155602514743804903885049384371 -0.079138085246086120605468750000 -0.002149196108803153038024902344 -0.000724120880477130413055419922 0 0 0 0 
2418666666.6666665077 0.155654489994049100021200615629 -0.079992175102233886718750000000 -0.002206165576353669166564941406 -0.000717546558007597923278808594 0 0 0 0 
2418833333.3333334923 0.155035927891731289962606865629 -0.080906428396701812744140625000 -0.002242431975901126861572265625 -0.000606714747846126556396484375 0 0 0 0 
2419000000.0000000000 0.154839783906936701018963731258 -0.081605330109596252441406250000 -0.002196874469518661932704306494 -0.000684626691509038209915161133 0 0 0 0 
2419166666.6666665077 0.154762580990791293045205634371 -0.082394808530807495117187500000 -0.002285022754222155050990439307 -0.000718033232260495424270629883 0 0 0 0 
2419333333.3333334923 0.154217571020126287262286268742 -0.082878872752189636230468750000 -0.002320514060556889014003134619 -0.000682844780385494232177734375 0 0 0 0 
2419500000.0000000000 0.154035449028015108963174384371 -0.083775654435157775878906250000 -0.002395996823906898932216025244 -0.000677664764225482940673828125 0 0 0 0 
2419666666.6666665077 0.154004022479057312011718750000 -0.084489323198795318603515625000 -0.002325049135833979086634970557 -0.000480564514873549287945347919 0 0 0 0 
2419833333.3333334923 0.153619572520255986969317518742 -0.085140392184257507324218750000 -0.002472336171194911003112792969 -0.000450145569629967212677001953 0 0 0 0 
