# Hz S RI R 
2400000000.0000000000 0.172836452722549410720986884371 0.048563715070486068725585937500 -0.003467947477474809126612997900 -0.003484054468572140173671103369 0 0 0 0 
2400166666.6666665077 0.173484578728675786774005018742 0.048228226602077477191965471093 -0.003687847405672072930576943506 -0.003425444941967726187465048682 0 0 0 0 
2400333333.3333334923 0.173908591270446805099325615629 0.047250442206859588623046875000 -0.003816200653091073036193847656 -0.003310687141492962837219238281 0 0 0 0 
2400500000.0000000000 0.174305602908134488204794365629 0.046610206365585327148437500000 -0.003900357522070407867431640625 -0.003395087085664271874668740381 0 0 0 0 
2400666666.6666665077 0.174567639827728299239950615629 0.045873168855905532836914062500 -0.003978957887738943099975585938 -0.003084449796006083922145224463 0 0 0 0 
2400833333.3333334923 0.174857690930366488357705634371 0.045327931642532348632812500000 -0.004204445052891969680786132812 -0.003109096549451351165771484375 0 0 0 0 
2401000000.0000000000 0.175234481692314203460369981258 0.044738464057445533061940778907 -0.004316683858633041381835937500 -0.002966815605759621100184775244 0 0 0 0 
2401166666.6666665077 0.175423040986061096191406250000 0.044341947883367538452148437500 -0.004317738581448793411254882812 -0.002876605372875928878784179688 0 0 0 0 
2401333333.3333334923 0.175405934453010586837606865629 0.043559171259403228759765625000 -0.004290873650461435317993164062 -0.002704827813431621031520224463 0 0 0 0 
2401500000.0000000000 0.175610482692718505859375000000 0.042851891368627548217773437500 -0.004446642939001321792602539062 -0.002530766185373067855834960938 0 0 0 0 
2401666666.6666665077 0.175530537962913513183593750000 0.042220551520586006855051408593 -0.004500367678701877593994140625 -0.002460974501445889906642294775 0 0 0 0 
2401833333.3333334923 0.175584018230438204666299384371 0.041405521333217620849609375000 -0.004483960103243589401245117188 -0.002223936375230551199672079932 0 0 0 0 
2402000000.0000000000 0.175307482481002807617187500000 0.040802158415317542339284528907 -0.004723895806819201383108808301 -0.002039341954514383836033486475 0 0 0 0 
2402166666.6666665077 0.175246700644493103027343750000 0.039757769554853439331054687500 -0.004574017133563756942749023438 -0.001985050737857819037196493994 0 0 0 0 
2402333333.3333334923 0.175093889236450195312500000000 0.038851313292980187152902971093 -0.004747499711811543378348066113 -0.001777708646841347000719379956 0 0 0 0 
2402500000.0000000000 0.174943774938583401779013115629 0.037924919277429580688476562500 -0.004849547054618597030639648438 -0.001785910688340663909912109375 0 0 0 0 
2402666666.6666665077 0.174720853567123413085937500000 0.036945559084415442729909528907 -0.004941093269735574722290039062 -0.001582481549121440107461000757 0 0 0 0 
2402833333.3333334923 0.174455597996711703201455634371 0.035811860114336006855051408593 -0.004746175371110439300537109375 -0.001470080460421741008758544922 0 0 0 0 
2403000000.0000000000 0.174153015017509488204794365629 0.034376733005046837543527971093 -0.004806238692253828048706054688 -0.001052507665008306936976767432 0 0 0 0 
2403166666.6666665077 0.173892796039581298828125000000 0.033260274678468697284738908593 -0.004680650308728218078613281250 -0.000936205149628221988677978516 0 0 0 0 
2403333333.3333334923 0.173688977956771906097088731258 0.031845200806856162334401716407 -0.004719944670796394348144531250 -0.000904050539247691631317138672 0 0 0 0 
2403500000.0000000000 0.173215493559837313553018134371 0.030393274500966068613072579296 -0.004698094446212053298950195312 -0.000696795992553234100341796875 0 0 0 0 
2403666666.6666665077 0.172851964831352206131143134371 0.028865642845630649221400076954 -0.004786038771271705627441406250 -0.000359896774170920307010096417 0 0 0 0 
2403833333.3333334923 0.172562882304191589355468750000 0.026928452774882320058802420704 -0.004789397586137056350708007812 -0.000061707483837381005287170410 0 0 0 0 
2404000000.0000000000 0.172365888953208895584268134371 0.025262326002120971679687500000 -0.004437782801687716570382402637 -0.000247066025622188990742283954 0 0 0 0 
2404166666.6666665077 0.171960100531578091720419365629 0.023631660267710689199427420704 -0.004417588002979755401611328125 0.000059451256674947217106819153 0 0 0 0 
2404333333.3333334923 0.171544328331947298904580634371 0.021887360140681270254114920704 -0.004443458747118712338919355176 0.000054448046284960582852363586 0 0 0 0 
2404500000.0000000000 0.170948937535286005218182481258 0.019927470013499259948730468750 -0.004261100199073553085327148438 0.000234029997955076396465301514 0 0 0 0 
2404666666.6666665077 0.170842945575714111328125000000 0.018152683973312381399134451954 -0.004248608835041522979736328125 0.000310677831294015104144495831 0 0 0 0 
2404833333.3333334923 0.170748963952064486404580634371 0.016123082488775249826451485546 -0.004106821492314338684082031250 0.000414059846661984920501708984 0 0 0 0 
2405000000.0000000000 0.170432105660438509842080634371 0.013959325850009919947614100977 -0.003943785559386014938354492188 0.000454868859378620982170104980 0 0 0 0 
2405166666.6666665077 0.170306682586669894119424384371 0.011906745843589309347132498829 -0.003971949219703674316406250000 0.000635336095001548528671264648 0 0 0 0 
2405333333.3333334923 0.170498043298721313476562500000 0.009722006507217884063720703125 -0.003545261221006513075587607275 0.000543328642379492521286010742 0 0 0 0 
2405500000.0000000000 0.170565515756607111175213731258 0.008045882917940616607666015625 -0.003597545204684137864353798975 0.000489894067868590354919433594 0 0 0 0 
2405666666.6666665077 0.170631229877471896072549384371 0.005981891416013240814208984375 -0.003724950598552823066711425781 0.000376867683371528983116149902 0 0 0 0 
2405833333.3333334923 0.170642942190170288085937500000 0.003839653916656970977783203125 -0.003535348456352949142456054688 0.000617954996414482593536376953 0 0 0 0 
2406000000.0000000000 0.170899629592895507812500000000 0.001630849670618772940394736182 -0.003499638754874467849731445312 0.000541916349902749061584472656 0 0 0 0 
2406166666.6666665077 0.171112045645713806152343750000 -0.000168094222317449802726191388 -0.003381102345883845849278115381 0.000618767109699547290802001953 0 0 0 0 
2406333333.3333334923 0.171636551618576105315838731258 -0.002317660953849554061889648438 -0.003560067620128393173217773438 0.000618628982920199632644653320 0 0 0 0 
2406500000.0000000000 0.171852856874465886871661268742 -0.004316266626119613647460937500 -0.003370861057192087173461914062 0.000594192417338490486145019531 0 0 0 0 
2406666666.6666665077 0.172346800565719604492187500000 -0.006372176110744476318359375000 -0.003598841140046716170070029150 0.000499726331327110528945922852 0 0 0 0 
2406833333.3333334923 0.173025369644165011306924384371 -0.008208958432078361511230468750 -0.003464862704277039007899618994 0.000594067794736474752426147461 0 0 0 0 
2407000000.0000000000 0.173565596342086791992187500000 -0.010204557329416280228584490430 -0.003372691804543137984034872900 0.000540446140803396701812744141 0 0 0 0 
2407166666.6666665077 0.174253672361373901367187500000 -0.011931461282074449711809727148 -0.003368912497535347938537597656 0.000760747701860964298248291016 0 0 0 0 
2407333333.3333334923 0.174815595149993896484375000000 -0.013981535099446770059605782421 -0.003482354572042822837829589844 0.000668782391585409641265869141 0 0 0 0 
2407500000.0000000000 0.175461038947105407714843750000 -0.015569645911455149214774884570 -0.003595134709030389785766601562 0.000736354326363652944564819336 0 0 0 0 
2407666666.6666665077 0.176304638385772705078125000000 -0.017350731417536739004114920704 -0.003588201710954308943507529150 0.000828193034976720809936523438 0 0 0 0 
2407833333.3333334923 0.176806122064590509612713731258 -0.019106281921267509460449218750 -0.003398488508537412123439169775 0.000769232981838285923004150391 0 0 0 0 
2408000000.0000000000 0.177644029259681701660156250000 -0.020752586424350738525390625000 -0.003662483999505639076232910156 0.000978534575551748275756835938 0 0 0 0 
2408166666.6666665077 0.178265109658241299728231865629 -0.022159334272146228445032889454 -0.003462333697825669808628701318 0.001197205390781163952471088940 0 0 0 0 
2408333333.3333334923 0.179199755191803006271200615629 -0.023613257333636280405064766796 -0.003562350058928132057189941406 0.001121219014748930931091308594 0 0 0 0 
2408500000.0000000000 0.179677873849868802169638115629 -0.025202453136444088327428048046 -0.003528601024299860000610351562 0.001221296610310673930524516528 0 0 0 0 
2408666666.6666665077 0.180484294891357394119424384371 -0.026419015601277351379394531250 -0.003590866457670927047729492188 0.001270899898372590975520468604 0 0 0 0 
2408833333.3333334923 0.180849060416221590896768134371 -0.027639735490083690988560860546 -0.003550139488652348952052451025 0.001178986160084605000139545972 0 0 0 0 
2409000000.0000000000 0.181300804018974304199218750000 -0.028659746050834659231165701954 -0.003608913393691182136535644531 0.001393294776789844036102294922 0 0 0 0 
2409166666.6666665077 0.181876212358474703689736884371 -0.029630204662680629384974295704 -0.003468458540737628936767578125 0.001659429748542607047437358325 0 0 0 0 
2409333333.3333334923 0.182446554303169305999432481258 -0.030487334355711940420130545704 -0.003491014009341597990748740088 0.001574122346937655968907021631 0 0 0 0 
2409500000.0000000000 0.182630091905593899825888115629 -0.031516849994659416889231096093 -0.003555972827598453001735068213 0.001648668199777602932573628003 0 0 0 0 
2409666666.6666665077 0.182909861207008389571981865629 -0.032122053205966949462890625000 -0.003611885244026780128479003906 0.001675295643508434078813862378 0 0 0 0 
2409833333.3333334923 0.183170005679130609710369981258 -0.032517682760953903198242187500 -0.003487678011879324913024902344 0.001838886528275907039642333984 0 0 0 0 
2410000000.0000000000 0.183552727103233309646768134371 -0.033254195004701607440988908593 -0.003452509641647338867187500000 0.001810765126720071055768657153 0 0 0 0 
2410166666.6666665077 0.183594062924385098556356865629 -0.033530779182910919189453125000 -0.003485628170892595811131142725 0.001897907466627656979801797021 0 0 0 0 
2410333333.3333334923 0.183680474758148193359375000000 -0.034032817929983139038085937500 -0.003442427841946483092067099463 0.001944307237863541083094931494 0 0 0 0 
2410500000.0000000000 0.183701336383819607833700615629 -0.034312807023525238037109375000 -0.003425627015531063079833984375 0.002048258902505040168762207031 0 0 0 0 
2410666666.6666665077 0.183606863021850613693075615629 -0.034819651395082466815988908593 -0.003459988860413432121276855469 0.002251919358968735174891806494 0 0 0 0 
2410833333.3333334923 0.183441326022148104568643134371 -0.035117965191602706909179687500 -0.003611500374972819848301552881 0.002391909481957554817199707031 0 0 0 0 
2411000000.0000000000 0.183396697044372586349325615629 -0.035334054380655288696289062500 -0.003559877164661883874180459131 0.002397235948592423959019326318 0 0 0 0 
2411166666.6666665077 0.183003246784210205078125000000 -0.035794779658317572856862653907 -0.003569343360140920119044638525 0.002549048280343412919285439600 0 0 0 0 
2411333333.3333334923 0.182486429810523986816406250000 -0.036033302545547492290456403907 -0.003472278127446771101710654150 0.002564186463132501082179404150 0 0 0 0 
2411500000.0000000000 0.182077020406722994705361884371 -0.036552105098962776874582658593 -0.003368173027411102814915322412 0.002667386783286929130554199219 0 0 0 0 
2411666666.6666665077 0.181552559137344388107138115629 -0.036966409534215927124023437500 -0.003369844984263182120082236182 0.002888058545067905946018838037 0 0 0 0 
2411833333.3333334923 0.180977180600166293045205634371 -0.037247799336910247802734375000 -0.003337658243253827095031738281 0.002912417054176331000087118994 0 0 0 0 
2412000000.0000000000 0.180265843868255587478799384371 -0.037733826786279678344726562500 -0.003358331974595785140991210938 0.002932564122602343992946005713 0 0 0 0 
2412166666.6666665077 0.179343968629837008377236884371 -0.038183089345693588256835937500 -0.003228010144084692001342773438 0.003241391619667410850524902344 0 0 0 0 
2412333333.3333334923 0.178718104958534212967080634371 -0.038449175655841827392578125000 -0.003209104761481285095214843750 0.003556651994585990905761718750 0 0 0 0 
2412500000.0000000000 0.177301704883575411697549384371 -0.038945998996496200561523437500 -0.003057799069210886955261230469 0.003379904665052891211268759619 0 0 0 0 
2412666666.6666665077 0.176416128873825100997763115629 -0.039915498346090316772460937500 -0.002952118869870901107788085938 0.003628171980381011962890625000 0 0 0 0 
2412833333.3333334923 0.175245672464370699783486884371 -0.040612179785966873168945312500 -0.002855060389265418052673339844 0.003861725330352783203125000000 0 0 0 0 
2413000000.0000000000 0.174027785658836392501669365629 -0.041130594909191131591796875000 -0.002861648565158247947692871094 0.003838724922388792037963867188 0 0 0 0 
2413166666.6666665077 0.172758102416992187500000000000 -0.042011179029941558837890625000 -0.002600696869194508032557822119 0.004064825829118490219116210938 0 0 0 0 
2413333333.3333334923 0.171530961990356500823651231258 -0.042913563549518592143972028907 -0.002521376358345150947570800781 0.004261803347617387771606445312 0 0 0 0 
2413500000.0000000000 0.170269280672073392013388115629 -0.043808512389659881591796875000 -0.002420409349724649949314736475 0.004203418269753456115722656250 0 0 0 0 
2413666666.6666665077 0.168965026736259488204794365629 -0.044929288327693939208984375000 -0.002300268271937965913059853662 0.004294471815228462219238281250 0 0 0 0 
2413833333.3333334923 0.167581111192703302581463731258 -0.046010486781597137451171875000 -0.002173112239688634872436523438 0.004542623646557331085205078125 0 0 0 0 
2414000000.0000000000 0.166200757026672391036825615629 -0.047305338084697723388671875000 -0.002136487280949949784519814600 0.004468148574233055114746093750 0 0 0 0 
2414166666.6666665077 0.165042832493781987945880018742 -0.048348557204008102416992187500 -0.001774338656105100891710590894 0.004452924709767103195190429688 0 0 0 0 
2414333333.3333334923 0.163853511214256286621093750000 -0.049782108515501022338867187500 -0.001611637184396385929704975659 0.004639063030481339368338300488 0 0 0 0 
2414500000.0000000000 0.162656694650649996658486884371 -0.051159270107746117328684221093 -0.001429238007403909943224262769 0.004704372491687536239624023438 0 0 0 0 
2414666666.6666665077 0.161572381854057312011718750000 -0.052607484161853790283203125000 -0.001219849218614398999455117334 0.004618446342647075653076171875 0 0 0 0 
2414833333.3333334923 0.160317286849021911621093750000 -0.054138790816068649291992187500 -0.001092276652343570969225239331 0.004673162940889596939086914062 0 0 0 0 
2415000000.0000000000 0.159181624650955200195312500000 -0.055689644068479537963867187500 -0.000903639476746320724487304688 0.004583062138408423337454511426 0 0 0 0 
2415166666.6666665077 0.158316016197204589843750000000 -0.057515028864145278930664062500 -0.000779413152486085891723632812 0.004706067033112049102783203125 0 0 0 0 
2415333333.3333334923 0.157392725348472595214843750000 -0.059190835803747177124023437500 -0.000512981845531612634658813477 0.004505956079810857772827148438 0 0 0 0 
2415500000.0000000000 0.156597107648849487304687500000 -0.060879066586494452739675153907 -0.000451972329756245017051696777 0.004488879814743995666503906250 0 0 0 0 
2415666666.6666665077 0.155804067850112887283486884371 -0.062649823725223541259765625000 -0.000443790369899943525165003644 0.004443862009793519973754882812 0 0 0 0 
2415833333.3333334923 0.155207470059394808670205634371 -0.064787149429321289062500000000 -0.000156271591549739187389927997 0.004242038819938898086547851562 0 0 0 0 
2416000000.0000000000 0.154412508010864313323651231258 -0.066548377275466918945312500000 -0.000299567182082682902186793195 0.004307504277676343917846679688 0 0 0 0 
2416166666.6666665077 0.153993606567382812500000000000 -0.068596348166465759277343750000 -0.000019669996618176810443401337 0.004381547681987285614013671875 0 0 0 0 
2416333333.3333334923 0.153486117720603887359942518742 -0.070444568991661071777343750000 0.000071117916377261281013488770 0.004169550258666276931762695312 0 0 0 0 
2416500000.0000000000 0.153069481253623990157919365629 -0.072399474680423736572265625000 0.000216913758777081993505200797 0.004206523299217224121093750000 0 0 0 0 
2416666666.6666665077 0.152668252587318392654580634371 -0.074274472892284393310546875000 0.000083331309724599123001098633 0.004122845828533172607421875000 0 0 0 0 
2416833333.3333334923 0.152458965778350802322549384371 -0.076339580118656158447265625000 0.000241378249484114403098505841 0.004046750720590353012084960938 0 0 0 0 
2417000000.0000000000 0.152084112167358398437500000000 -0.078226923942565917968750000000 0.000328115333104506080776768817 0.004013491328805685043334960938 0 0 0 0 
2417166666.6666665077 0.151851370930671691894531250000 -0.079964451491832733154296875000 0.000324738328345120007365626202 0.004136022645980119705200195312 0 0 0 0 
2417333333.3333334923 0.151837453246116610428018134371 -0.081854864954948425292968750000 0.000377360003767535090446472168 0.004007166717201471328735351562 0 0 0 0 
2417500000.0000000000 0.151783451437950106521768134371 -0.083693437278270721435546875000 0.000492194551043212413787841797 0.004052329808473587036132812500 0 0 0 0 
2417666666.6666665077 0.151935324072837801834268134371 -0.085105165839195251464843750000 0.000521498033776879310607910156 0.003967165946960449218750000000 0 0 0 0 
2417833333.3333334923 0.151839107275009210784588731258 -0.086682245135307312011718750000 0.000626100692898035049438476562 0.003900128649547696113586425781 0 0 0 0 
2418000000.0000000000 0.151942417025566101074218750000 -0.088242582976818084716796875000 0.000621073064394295215606689453 0.003964327741414309415335370801 0 0 0 0 
2418166666.6666665077 0.152020469307899502853231865629 -0.089455731213092803955078125000 0.000588674098253250122070312500 0.004061738494783639907836914062 0 0 0 0 
2418333333.3333334923 0.152413904666900607010049384371 -0.090823262929916381835937500000 0.000854505575262010097503662109 0.003883946919813752174377441406 0 0 0 0 
2418500000.0000000000 0.152425944805145291427450615629 -0.091981448233127593994140625000 0.000763890391681343317031860352 0.004062094725668430328369140625 0 0 0 0 
2418666666.6666665077 0.152750104665756197830361884371 -0.093245886266231536865234375000 0.000932018039748072624206542969 0.003802756546065210862400673975 0 0 0 0 
2418833333.3333334923 0.152718693017959594726562500000 -0.094138182699680328369140625000 0.000946956104598939418792724609 0.003866219427436590194702148438 0 0 0 0 
2419000000.0000000000 0.152950614690780611892861884371 -0.095021255314350128173828125000 0.000746011908631771802902221680 0.003887041006237268014195107568 0 0 0 0 
2419166666.6666665077 0.153192579746246310135049384371 -0.095772400498390197753906250000 0.000956487259827554225921630859 0.003928760997951030731201171875 0 0 0 0 
2419333333.3333334923 0.153298616409301813323651231258 -0.096120655536651611328125000000 0.000999521929770708084106445312 0.003905555931851267814636230469 0 0 0 0 
2419500000.0000000000 0.153574615716934204101562500000 -0.096887595951557159423828125000 0.000987453619018197059631347656 0.003951896913349627581124590137 0 0 0 0 
2419666666.6666665077 0.153805896639823913574218750000 -0.097370892763137817382812500000 0.001008506515063344998600625146 0.004076139070093631744384765625 0 0 0 0 
2419833333.3333334923 0.153845369815826388260049384371 -0.097522698342800140380859375000 0.001013674191199243068695068359 0.004055346827954053878784179688 0 0 0 0 
