# Version 1.00
#
freq[Hz];re:Trc1_S11;im:Trc1_S11;re:Trc2_S21;im:Trc2_S21;
2.400000000000000E+009;1.581507027149200E-001;6.288227438926697E-002;-5.648157093673945E-003;9.017017437145114E-004;
2.400166666666667E+009;1.581417322158814E-001;6.132332980632782E-002;-5.548160057514906E-003;1.062356983311474E-003;
2.400333333333334E+009;1.578590124845505E-001;5.934903770685196E-002;-5.617015063762665E-003;1.109741744585335E-003;
2.400500000000000E+009;1.580196768045425E-001;5.733110010623932E-002;-5.615388508886099E-003;1.392741571180522E-003;
2.400666666666667E+009;1.578859090805054E-001;5.521990731358528E-002;-5.596262402832508E-003;1.341921044513583E-003;
2.400833333333334E+009;1.580141186714172E-001;5.338630452752113E-002;-5.463861394673586E-003;1.519218320026994E-003;
2.401000000000000E+009;1.579726040363312E-001;5.129135772585869E-002;-5.515908356755972E-003;1.739137456752360E-003;
2.401166666666667E+009;1.582734584808350E-001;4.918164759874344E-002;-5.558380857110024E-003;1.803672639653087E-003;
2.401333333333334E+009;1.582764983177185E-001;4.718646407127380E-002;-5.524067673832178E-003;2.035872777923942E-003;
2.401500000000000E+009;1.587480008602142E-001;4.500899463891983E-002;-5.526080727577210E-003;2.143254736438394E-003;
2.401666666666667E+009;1.590279191732407E-001;4.305672645568848E-002;-5.383739713579416E-003;2.316105179488659E-003;
2.401833333333334E+009;1.592545807361603E-001;4.088481515645981E-002;-5.309680476784706E-003;2.513815183192492E-003;
2.402000000000000E+009;1.596411764621735E-001;3.892051801085472E-002;-5.264144390821457E-003;2.783141331747174E-003;
2.402166666666667E+009;1.601781249046326E-001;3.683518245816231E-002;-5.178648978471756E-003;2.913299482315779E-003;
2.402333333333334E+009;1.608159691095352E-001;3.479392454028130E-002;-5.044638644903898E-003;3.100786125287414E-003;
2.402500000000000E+009;1.616778373718262E-001;3.314023837447166E-002;-4.938795231282711E-003;3.372337901964784E-003;
2.402666666666667E+009;1.622347682714462E-001;3.131131455302239E-002;-4.822160582989454E-003;3.582263598218560E-003;
2.402833333333334E+009;1.628128439188004E-001;2.955063804984093E-002;-4.811097402125597E-003;3.716322360560298E-003;
2.403000000000000E+009;1.636451035737991E-001;2.783744782209396E-002;-4.747138358652592E-003;3.939567599445581E-003;
2.403166666666667E+009;1.646425276994705E-001;2.630199305713177E-002;-4.493693821132183E-003;4.122151993215084E-003;
2.403333333333334E+009;1.656340956687927E-001;2.476742863655090E-002;-4.244921263307333E-003;4.406923893839121E-003;
2.403500000000000E+009;1.662001609802246E-001;2.343247830867767E-002;-4.253873135894537E-003;4.588312003761530E-003;
2.403666666666667E+009;1.673104912042618E-001;2.201084420084953E-002;-4.007611889392138E-003;4.751942586153746E-003;
2.403833333333334E+009;1.683127284049988E-001;2.058959752321243E-002;-3.823340171948075E-003;4.998414777219296E-003;
2.404000000000000E+009;1.691826730966568E-001;1.941916346549988E-002;-3.377363784238696E-003;5.125426687300205E-003;
2.404166666666667E+009;1.702513545751572E-001;1.821934618055821E-002;-3.286786610260606E-003;5.279412027448416E-003;
2.404333333333334E+009;1.712658405303955E-001;1.723204366862774E-002;-2.992434659972787E-003;5.546163767576218E-003;
2.404500000000000E+009;1.719601005315781E-001;1.623832620680332E-002;-2.774464432150126E-003;5.447002127766609E-003;
2.404666666666667E+009;1.730614006519318E-001;1.532132551074028E-002;-2.579024061560631E-003;5.576150957494974E-003;
2.404833333333334E+009;1.740207821130753E-001;1.455647870898247E-002;-2.123471349477768E-003;5.723646841943264E-003;
2.405000000000000E+009;1.749104559421539E-001;1.389122940599918E-002;-2.034807112067938E-003;5.636710207909346E-003;
2.405166666666667E+009;1.757409423589706E-001;1.322919689118862E-002;-1.801879727281630E-003;5.785886663943529E-003;
2.405333333333334E+009;1.765793859958649E-001;1.247711014002562E-002;-1.590121071785688E-003;5.760115571320057E-003;
2.405500000000000E+009;1.773010343313217E-001;1.214563287794590E-002;-1.222719321958721E-003;5.867586005479097E-003;
2.405666666666667E+009;1.779356151819229E-001;1.159838307648897E-002;-9.589840774424374E-004;5.821570754051209E-003;
2.405833333333334E+009;1.783785820007324E-001;1.134226936846972E-002;-6.110446993261576E-004;5.892217624932528E-003;
2.406000000000000E+009;1.790178120136261E-001;1.083784457296133E-002;-4.290788201615214E-004;5.858591757714748E-003;
2.406166666666667E+009;1.793991476297379E-001;1.065862551331520E-002;-9.023273014463484E-005;5.830417852848768E-003;
2.406333333333334E+009;1.800102591514587E-001;1.025411114096642E-002;3.401193680474535E-005;5.876488052308559E-003;
2.406500000000000E+009;1.802156269550324E-001;9.947864338755608E-003;3.308641025796533E-004;5.835917312651873E-003;
2.406666666666667E+009;1.803571283817291E-001;9.762188419699669E-003;6.309986347332597E-004;5.651875864714384E-003;
2.406833333333334E+009;1.805598735809326E-001;9.468430653214455E-003;8.956293459050357E-004;5.550471600145102E-003;
2.407000000000000E+009;1.806837469339371E-001;9.153342805802822E-003;1.230999943800271E-003;5.322740413248539E-003;
2.407166666666667E+009;1.808345615863800E-001;8.716776035726070E-003;1.188275404274464E-003;5.266678519546986E-003;
2.407333333333334E+009;1.805060356855393E-001;8.414630778133869E-003;1.419896492734551E-003;5.138028878718615E-003;
2.407500000000000E+009;1.804178655147553E-001;8.085633628070355E-003;1.414544298313558E-003;4.915683530271053E-003;
2.407666666666667E+009;1.802117526531220E-001;7.718577980995178E-003;1.699968939647079E-003;4.775218665599823E-003;
2.407833333333334E+009;1.797952800989151E-001;7.053995039314032E-003;1.894013606943190E-003;4.577941261231899E-003;
2.408000000000000E+009;1.795945018529892E-001;6.449512671679258E-003;2.088187029585242E-003;4.521633498370647E-003;
2.408166666666667E+009;1.790004521608353E-001;5.953946616500616E-003;2.126058563590050E-003;4.419534467160702E-003;
2.408333333333334E+009;1.785914450883865E-001;5.305884871631861E-003;2.108312444761396E-003;4.150847438722849E-003;
2.408500000000000E+009;1.780646592378616E-001;4.459669813513756E-003;2.206440083682537E-003;3.985825926065445E-003;
2.408666666666667E+009;1.774694472551346E-001;3.559411037713289E-003;2.300346968695521E-003;3.912765998393297E-003;
2.408833333333334E+009;1.767003387212753E-001;2.679315395653248E-003;2.272169105708599E-003;3.646825673058629E-003;
2.409000000000000E+009;1.760332733392716E-001;1.801267499104142E-003;2.416302915662527E-003;3.473819233477116E-003;
2.409166666666667E+009;1.753478199243546E-001;5.935174995101988E-004;2.594725461676717E-003;3.377639921382070E-003;
2.409333333333334E+009;1.748175621032715E-001;-5.938624963164330E-004;2.498824382200837E-003;3.330082632601261E-003;
2.409500000000000E+009;1.740314960479736E-001;-2.027149777859449E-003;2.608404494822025E-003;3.234888892620802E-003;
2.409666666666667E+009;1.734162122011185E-001;-3.214188618585467E-003;2.478566020727158E-003;3.060267306864262E-003;
2.409833333333334E+009;1.725747436285019E-001;-4.512220621109009E-003;2.619548002257943E-003;2.918610814958811E-003;
2.410000000000000E+009;1.722074896097183E-001;-5.861918441951275E-003;2.583095105364919E-003;2.861113054677844E-003;
2.410166666666667E+009;1.714080572128296E-001;-7.372958119958639E-003;2.612877171486616E-003;2.842790214344859E-003;
2.410333333333334E+009;1.708542704582214E-001;-9.280654601752758E-003;2.673302777111530E-003;2.626959467306733E-003;
2.410500000000000E+009;1.702954769134522E-001;-1.096632145345211E-002;2.661734586581588E-003;2.617126563563943E-003;
2.410666666666667E+009;1.697055995464325E-001;-1.281298510730267E-002;2.689610701054335E-003;2.573780715465546E-003;
2.410833333333334E+009;1.693013161420822E-001;-1.441995427012444E-002;2.675983123481274E-003;2.562953392043710E-003;
2.411000000000000E+009;1.689622104167938E-001;-1.631064899265766E-002;2.842422807589173E-003;2.404483733698726E-003;
2.411166666666667E+009;1.685952544212341E-001;-1.828343234956265E-002;2.783600240945816E-003;2.248747507110238E-003;
2.411333333333334E+009;1.683033257722855E-001;-2.007755450904369E-002;2.839295892044902E-003;2.289709402248263E-003;
2.411500000000000E+009;1.680863648653030E-001;-2.226922661066055E-002;2.754244953393936E-003;2.174853114411235E-003;
2.411666666666667E+009;1.682054549455643E-001;-2.412637881934643E-002;2.878488739952445E-003;2.287069335579872E-003;
2.411833333333334E+009;1.680975854396820E-001;-2.612006478011608E-002;2.790490631014109E-003;2.083190251141787E-003;
2.412000000000000E+009;1.680644154548645E-001;-2.805789932608604E-002;2.780616050586104E-003;1.864631078206003E-003;
2.412166666666667E+009;1.680631786584854E-001;-3.007464297115803E-002;3.032998647540808E-003;2.095296746119857E-003;
2.412333333333334E+009;1.684283465147018E-001;-3.185202181339264E-002;2.970768138766289E-003;1.839624019339681E-003;
2.412500000000000E+009;1.685980260372162E-001;-3.371885418891907E-002;2.981204073876143E-003;1.944511430338025E-003;
2.412666666666667E+009;1.688221991062164E-001;-3.599469363689423E-002;3.122086636722088E-003;1.690499600954354E-003;
2.412833333333334E+009;1.693685650825501E-001;-3.756483271718025E-002;3.166526556015015E-003;1.635154592804611E-003;
2.413000000000000E+009;1.697020828723908E-001;-3.934834897518158E-002;3.169266274198890E-003;1.431840471923351E-003;
2.413166666666667E+009;1.700693517923355E-001;-4.120565950870514E-002;3.112899139523506E-003;1.444632653146982E-003;
2.413333333333334E+009;1.704289466142654E-001;-4.291487485170364E-002;3.142008790746331E-003;1.350150676444173E-003;
2.413500000000000E+009;1.710065007209778E-001;-4.465897008776665E-002;3.107628319412470E-003;1.192702096886933E-003;
2.413666666666667E+009;1.716516911983490E-001;-4.615456238389015E-002;3.190064569935203E-003;1.099750865250826E-003;
2.413833333333334E+009;1.719605922698975E-001;-4.767657071352005E-002;3.140827873721719E-003;9.736550855450332E-004;
2.414000000000000E+009;1.724864989519119E-001;-4.906177520751953E-002;3.133621765300632E-003;9.171230485662818E-004;
2.414166666666667E+009;1.731356382369995E-001;-5.043226853013039E-002;3.297291230410337E-003;9.066163329407573E-004;
2.414333333333334E+009;1.737061142921448E-001;-5.164483562111855E-002;3.208529204130173E-003;7.627707091160119E-004;
2.414500000000000E+009;1.745916306972504E-001;-5.262542888522148E-002;3.152489196509123E-003;6.002711597830057E-004;
2.414666666666667E+009;1.748814284801483E-001;-5.381126701831818E-002;3.284004284068942E-003;4.272129444871098E-004;
2.414833333333334E+009;1.753879487514496E-001;-5.476667359471321E-002;3.185200272127986E-003;3.397677210159600E-004;
2.415000000000000E+009;1.759120821952820E-001;-5.552815273404121E-002;3.265884937718511E-003;2.145422913599759E-004;
2.415166666666667E+009;1.763658523559570E-001;-5.647665262222290E-002;3.218925558030605E-003;3.529020177666098E-004;
2.415333333333334E+009;1.767718195915222E-001;-5.732942000031471E-002;3.173583652824163E-003;1.765623164828867E-004;
2.415500000000000E+009;1.771089136600494E-001;-5.779877305030823E-002;3.280248725786805E-003;1.615592482266948E-004;
2.415666666666667E+009;1.774217933416367E-001;-5.841847136616707E-002;3.151259850710630E-003;1.361108297714964E-004;
2.415833333333334E+009;1.776588410139084E-001;-5.895058065652847E-002;3.177216975018382E-003;-5.831169619341381E-005;
2.416000000000000E+009;1.777036935091019E-001;-5.940421670675278E-002;3.165381960570812E-003;-1.614818611415103E-004;
2.416166666666667E+009;1.780101507902145E-001;-5.979976803064346E-002;3.096206579357386E-003;-2.126980834873393E-004;
2.416333333333334E+009;1.778709441423416E-001;-6.014129519462585E-002;3.103174502030015E-003;-4.970789304934442E-004;
2.416500000000000E+009;1.778236627578735E-001;-6.043507903814316E-002;3.106888150796294E-003;-4.570494638755918E-004;
2.416666666666667E+009;1.775924265384674E-001;-6.064002215862274E-002;2.866344293579459E-003;-6.527225486934185E-004;
2.416833333333334E+009;1.773211210966110E-001;-6.099826842546463E-002;2.954178024083376E-003;-5.674225976690650E-004;
2.417000000000000E+009;1.768205016851425E-001;-6.123895570635796E-002;3.003497142344713E-003;-6.491094827651978E-004;
2.417166666666667E+009;1.763960719108582E-001;-6.135343015193939E-002;2.644379157572985E-003;-7.036431343294680E-004;
2.417333333333334E+009;1.759255826473236E-001;-6.166328117251396E-002;2.737323520705104E-003;-7.475324091501534E-004;
2.417500000000000E+009;1.753138750791550E-001;-6.196841225028038E-002;2.802548231557012E-003;-7.384749478660524E-004;
2.417666666666667E+009;1.746895909309387E-001;-6.215438619256020E-002;2.791578415781260E-003;-1.014070119708777E-003;
2.417833333333334E+009;1.738270372152329E-001;-6.240353360772133E-002;2.735528163611889E-003;-8.567243348807097E-004;
2.418000000000000E+009;1.728775203227997E-001;-6.279849261045456E-002;2.665071049705148E-003;-1.047158031724393E-003;
2.418166666666667E+009;1.718850284814835E-001;-6.305197626352310E-002;2.550983335822821E-003;-1.049702987074852E-003;
2.418333333333334E+009;1.711879372596741E-001;-6.341108679771423E-002;2.561643254011869E-003;-1.012909226119518E-003;
2.418500000000000E+009;1.699576675891876E-001;-6.374742090702057E-002;2.475825604051352E-003;-1.193899777717888E-003;
2.418666666666667E+009;1.690801978111267E-001;-6.432378292083740E-002;2.435873495414853E-003;-1.162536675110459E-003;
2.418833333333334E+009;1.676673889160156E-001;-6.476733833551407E-002;2.330243587493897E-003;-1.232723123393953E-003;
2.419000000000000E+009;1.664844900369644E-001;-6.535156816244125E-002;2.404762431979179E-003;-1.296602771617472E-003;
2.419166666666667E+009;1.653837859630585E-001;-6.602801382541657E-002;2.298364415764809E-003;-1.462783664464951E-003;
2.419333333333334E+009;1.640479117631912E-001;-6.658011674880981E-002;2.083398867398500E-003;-1.299375551752746E-003;
2.419500000000000E+009;1.628625243902206E-001;-6.741628795862198E-002;2.172088250517845E-003;-1.415656646713615E-003;
2.419666666666667E+009;1.617292463779450E-001;-6.852389127016068E-002;2.019506646320224E-003;-1.368438941426575E-003;
2.419833333333334E+009;1.603150665760040E-001;-6.928235292434692E-002;2.022112254053354E-003;-1.506254076957703E-003;
2.420000000000000E+009;1.591893136501312E-001;-7.031496614217758E-002;1.962051726877689E-003;-1.392132136970758E-003;
2.420166666666667E+009;1.581839323043823E-001;-7.150241732597351E-002;2.050857990980148E-003;-1.556931412778795E-003;
2.420333333333334E+009;1.570690870285034E-001;-7.259103655815125E-002;1.682453323155642E-003;-1.688717049546540E-003;
2.420500000000000E+009;1.560537666082382E-001;-7.365199178457260E-002;1.895714318379760E-003;-1.600212999619544E-003;
2.420666666666667E+009;1.550347805023193E-001;-7.507631182670593E-002;1.717929495498538E-003;-1.639683498069644E-003;
2.420833333333334E+009;1.540283858776093E-001;-7.653848826885223E-002;1.736820791848004E-003;-1.690033590421081E-003;
2.421000000000000E+009;1.530681699514389E-001;-7.792783528566361E-002;1.796056400053203E-003;-1.595161040313542E-003;
2.421166666666667E+009;1.525883525609970E-001;-7.935732603073120E-002;1.746594673022628E-003;-1.609171857126057E-003;
2.421333333333334E+009;1.517256647348404E-001;-8.107532560825348E-002;1.641582115553320E-003;-1.682065310887992E-003;
2.421500000000000E+009;1.510194092988968E-001;-8.237291872501373E-002;1.668258802965283E-003;-1.720584346912801E-003;
2.421666666666667E+009;1.506117880344391E-001;-8.415684849023819E-002;1.522804726846516E-003;-1.623255433514714E-003;
2.421833333333334E+009;1.501132249832153E-001;-8.592747151851654E-002;1.359672984108329E-003;-1.683006994426251E-003;
2.422000000000000E+009;1.496465057134628E-001;-8.743216097354889E-002;1.494213240221143E-003;-1.539173536002636E-003;
2.422166666666667E+009;1.495367735624313E-001;-8.940237015485764E-002;1.508886343799532E-003;-1.771531882695854E-003;
2.422333333333334E+009;1.492706388235092E-001;-9.086233377456665E-002;1.347747049294412E-003;-1.447932096198201E-003;
2.422500000000000E+009;1.491301208734512E-001;-9.250838309526444E-002;1.539988326840103E-003;-1.694657607004046E-003;
2.422666666666667E+009;1.489700675010681E-001;-9.433382004499435E-002;1.428989227861166E-003;-1.806106418371201E-003;
2.422833333333334E+009;1.491555422544479E-001;-9.610912948846817E-002;1.419447828084230E-003;-1.718156388960779E-003;
2.423000000000000E+009;1.493042260408402E-001;-9.767970442771912E-002;1.253551570698619E-003;-1.773767522536218E-003;
2.423166666666667E+009;1.495992839336395E-001;-9.924872964620590E-002;1.225529587827623E-003;-1.859800540842116E-003;
2.423333333333334E+009;1.499649286270142E-001;-1.005996316671372E-001;1.078281551599503E-003;-1.750233117491007E-003;
2.423500000000000E+009;1.501501500606537E-001;-1.023841351270676E-001;1.215885044075549E-003;-1.739796949550510E-003;
2.423666666666667E+009;1.504849493503571E-001;-1.039474382996559E-001;1.246234867721796E-003;-1.899752882309258E-003;
2.423833333333334E+009;1.509561389684677E-001;-1.054099649190903E-001;1.192283234559000E-003;-2.023359062150121E-003;
2.424000000000000E+009;1.513557583093643E-001;-1.066123917698860E-001;1.043476513586938E-003;-1.938989153131843E-003;
2.424166666666667E+009;1.517217457294464E-001;-1.080015599727631E-001;9.959066519513726E-004;-2.015030942857266E-003;
2.424333333333334E+009;1.522843241691589E-001;-1.091461777687073E-001;1.004678662866354E-003;-1.970778917893767E-003;
2.424500000000000E+009;1.528699100017548E-001;-1.105073764920235E-001;9.725915733724833E-004;-1.768670626915991E-003;
2.424666666666667E+009;1.535568237304688E-001;-1.112098693847656E-001;9.895425755530596E-004;-1.808426459319890E-003;
2.424833333333334E+009;1.537136733531952E-001;-1.122413054108620E-001;9.549668757244945E-004;-1.878779847174883E-003;
2.425000000000000E+009;1.542226970195770E-001;-1.133129820227623E-001;1.005966798402369E-003;-1.915091881528497E-003;
2.425166666666667E+009;1.546805500984192E-001;-1.142248138785362E-001;8.297973545268178E-004;-1.966759329661727E-003;
2.425333333333334E+009;1.550960540771484E-001;-1.149941012263298E-001;8.703098283149302E-004;-1.965563744306564E-003;
2.425500000000000E+009;1.555408537387848E-001;-1.158149614930153E-001;9.113023406825960E-004;-1.952600548975170E-003;
2.425666666666667E+009;1.557834744453430E-001;-1.162330731749535E-001;8.021139074116945E-004;-1.839453703723848E-003;
2.425833333333334E+009;1.560319513082504E-001;-1.166974306106567E-001;7.677028770558536E-004;-2.034722594544292E-003;
2.426000000000000E+009;1.563242375850678E-001;-1.173516586422920E-001;7.492909790016711E-004;-1.875924644991756E-003;
2.426166666666667E+009;1.565224230289459E-001;-1.177856549620628E-001;8.719918550923467E-004;-1.906633726321161E-003;
2.426333333333334E+009;1.564976722002029E-001;-1.180545240640640E-001;7.199360406957567E-004;-1.889479812234640E-003;
2.426500000000000E+009;1.566145271062851E-001;-1.182899698615074E-001;6.988168461248279E-004;-2.179885050281882E-003;
2.426666666666667E+009;1.566185206174851E-001;-1.184602826833725E-001;7.332259556278586E-004;-1.986122457310557E-003;
2.426833333333334E+009;1.564303189516068E-001;-1.186784729361534E-001;7.423234055750072E-004;-2.150977496057749E-003;
2.427000000000000E+009;1.561002433300018E-001;-1.188333556056023E-001;7.202686392702162E-004;-2.131470944732428E-003;
2.427166666666667E+009;1.557044386863709E-001;-1.188350841403008E-001;7.281597354449332E-004;-2.023053588345647E-003;
2.427333333333334E+009;1.551868319511414E-001;-1.190252304077148E-001;6.897183484397829E-004;-2.144944388419390E-003;
2.427500000000000E+009;1.546930372714996E-001;-1.191178783774376E-001;5.672863917425275E-004;-2.170342719182372E-003;
2.427666666666667E+009;1.540472954511643E-001;-1.192564144730568E-001;6.545307114720345E-004;-2.225650474429131E-003;
2.427833333333334E+009;1.531360447406769E-001;-1.193339824676514E-001;4.700346034951508E-004;-2.219414338469505E-003;
