# Hz S RI R 50
2400000000.0000000000 0.172682285308837890625000000000 0.048633813858032226562500000000 0.003151136450469493865966796875 0.002332300180569291114807128906 0 0 0 0 
2400166666.6666665077 0.173409074544906588455361884371 0.048084858804941177368164062500 0.003311408217996358871459960938 0.002333849668502808050868368994 0 0 0 0 
2400333333.3333334923 0.173729836940765408614950615629 0.047038603574037551879882812500 0.003138253698125482039210654150 0.002191754756495356993434286963 0 0 0 0 
2400500000.0000000000 0.174245372414588900467080634371 0.046584509313106536865234375000 0.003322602016851305961608886719 0.001906030811369419097900390625 0 0 0 0 
2400666666.6666665077 0.174556627869605990310830634371 0.045787807554006576538085937500 0.003223117440938950018641806494 0.001925516873598098971723246997 0 0 0 0 
2400833333.3333334923 0.174958229064941406250000000000 0.045367982238531112670898437500 0.003168014576658606962916708838 0.001562674529850482940673828125 0 0 0 0 
2401000000.0000000000 0.175031140446662902832031250000 0.044514670968055732036550153907 0.003016747534275054931640625000 0.001502541941590606949449848706 0 0 0 0 
2401166666.6666665077 0.175287142395973205566406250000 0.043807212263345718383789062500 0.003251107176765799956080771338 0.001417428604327142021776508862 0 0 0 0 
2401333333.3333334923 0.175272271037101801116619981258 0.043112933635711669921875000000 0.003167296294122933907749795068 0.001056090695783495903015136719 0 0 0 0 
2401500000.0000000000 0.175383791327476501464843750000 0.042442191392183296894113908593 0.003096742788329720930812216650 0.001015488756820559935328818213 0 0 0 0 
2401666666.6666665077 0.175342962145805386642294365629 0.041874188929796218872070312500 0.003053451422601937813999795068 0.000942537968512624502182006836 0 0 0 0 
2401833333.3333334923 0.175500527024269104003906250000 0.040975376963615417480468750000 0.002987205516546965079066611182 0.000630426511634141206741333008 0 0 0 0 
2402000000.0000000000 0.175338745117187500000000000000 0.040409281849861151958425153907 0.002873095916584134101867675781 0.000480492075439542477757054462 0 0 0 0 
2402166666.6666665077 0.175140604376792907714843750000 0.039339646697044372558593750000 0.002764336299151182174682617188 0.000402934878366068005561828613 0 0 0 0 
2402333333.3333334923 0.175060480833053588867187500000 0.038535393774509429931640625000 0.002642574254423379898071289062 0.000137636321596801308080396109 0 0 0 0 
2402500000.0000000000 0.174864605069160489181356865629 0.037465367466211318969726562500 0.002571754623204470114467001807 0.000056400778703391551971435547 0 0 0 0 
2402666666.6666665077 0.174615025520324707031250000000 0.036359820514917366718332658593 0.002444919897243380980250693213 0.000061730403103865683078765869 0 0 0 0 
2402833333.3333334923 0.174512654542923001388388115629 0.035364985466003417968750000000 0.002269626595079898834228515625 -0.000082726211985573172569274902 0 0 0 0 
2403000000.0000000000 0.174152344465255709549111884371 0.034058343619108200073242187500 0.001962692011147737936732626807 -0.000151525062392465797349652701 0 0 0 0 
2403166666.6666665077 0.173979938030242892166299384371 0.032767564058303833007812500000 0.001761158811859786944148398291 -0.000221954891458153697565355844 0 0 0 0 
2403333333.3333334923 0.173601925373077392578125000000 0.031477313488721847534179687500 0.001607951126061379909515380859 -0.000199503861949779093265533447 0 0 0 0 
2403500000.0000000000 0.173164263367652893066406250000 0.030026761814951900136927420704 0.001477562589570879936218261719 -0.000256286468356847817271632062 0 0 0 0 
2403666666.6666665077 0.172799333930015591720419365629 0.028304198756813999521275704296 0.001254704664461314895032573169 -0.000099043492809869349002838135 0 0 0 0 
2403833333.3333334923 0.172444567084312411209268134371 0.026820521801710128784179687500 0.001059852074831723950029682690 -0.000057620487496023997664451599 0 0 0 0 
2404000000.0000000000 0.172069102525711087325888115629 0.025235768407583240163782889454 0.000952549686189740896224975586 0.000209705831366591209739130841 0 0 0 0 
2404166666.6666665077 0.171604275703430203536825615629 0.023310137912631038320521170704 0.000798824883531779050827026367 0.000299065344734117388725280762 0 0 0 0 
2404333333.3333334923 0.171308562159538296798544365629 0.021677194163203239440917968750 0.000833533995319157838821411133 0.000411646324209868907928466797 0 0 0 0 
2404500000.0000000000 0.171009972691536005218182481258 0.019742313772439960134486014454 0.000743099313694983720779418945 0.000570536416489630937576293945 0 0 0 0 
2404666666.6666665077 0.170760974287986810882244981258 0.017698489129543300973912423046 0.000799209810793399810791015625 0.000667076150421053171157836914 0 0 0 0 
2404833333.3333334923 0.170548453927040100097656250000 0.015939926728606220590611641796 0.000784700911026448011398315430 0.000694541435223072767257690430 0 0 0 0 
2405000000.0000000000 0.170258969068527193924111884371 0.013972311280667780095110508398 0.000872332253493368625640869141 0.000998205505311489105224609375 0 0 0 0 
2405166666.6666665077 0.170232087373733492752236884371 0.011996404267847539729108241602 0.001028492231853306076647114331 0.001051987404935061931610107422 0 0 0 0 
2405333333.3333334923 0.170300468802452087402343750000 0.009969791397452354431152343750 0.000974627502728253602981567383 0.001229656627401709990260458838 0 0 0 0 
2405500000.0000000000 0.170167863368988009353799384371 0.008075444027781486511230468750 0.001050899620167911052703857422 0.001232490874826907894731831128 0 0 0 0 
2405666666.6666665077 0.170219168066978510100994981258 0.005875001195818185806274414062 0.001050507882609962983372353662 0.001206847489811480045318603516 0 0 0 0 
2405833333.3333334923 0.170293971896171597579794365629 0.004117197822779417037963867188 0.001099445973522960922838520581 0.001265774248167871995213173975 0 0 0 0 
2406000000.0000000000 0.170570746064186096191406250000 0.001851912937127053954480815356 0.001178047270514070987701416016 0.001359098707325756983516074072 0 0 0 0 
2406166666.6666665077 0.170637086033821105957031250000 0.000014622470189351590181691017 0.001242035068571567969081259619 0.001350608887150884108302451025 0 0 0 0 
2406333333.3333334923 0.171341195702552795410156250000 -0.001872846973128617026685405200 0.001376423402689396901371621240 0.001385552692227065996882773291 0 0 0 0 
2406500000.0000000000 0.171510145068168612381143134371 -0.003976759966462850570678710938 0.001585217542015016078948974609 0.001406990690156817002537392725 0 0 0 0 
2406666666.6666665077 0.171827688813209505935830634371 -0.005913139320909976959228515625 0.001438056468032300905940390479 0.001479632104746996922733925928 0 0 0 0 
2406833333.3333334923 0.172355487942695589920205634371 -0.007824752479791641235351562500 0.001664611278101802089093852466 0.001516713178716599941253662109 0 0 0 0 
2407000000.0000000000 0.173033162951469393631143134371 -0.009832918643951416015625000000 0.001783006009645760059356689453 0.001473658950999378941179585034 0 0 0 0 
2407166666.6666665077 0.173844084143638610839843750000 -0.011563208885490890848180001171 0.001774150878190994045854878003 0.001620720606297254996058798682 0 0 0 0 
2407333333.3333334923 0.174250721931457491775674384371 -0.013523391447961330413818359375 0.001912910141982137940050434644 0.001634955289773643016815185547 0 0 0 0 
2407500000.0000000000 0.175072997808456393142861884371 -0.015201142057776449376116367773 0.002211074810475111007690429688 0.001581087941303849003435444409 0 0 0 0 
2407666666.6666665077 0.175804302096366910079794365629 -0.016863523051142689096471016796 0.002044359222054481940028525244 0.001513358089141547896741557544 0 0 0 0 
2407833333.3333334923 0.176295816898346002776776231258 -0.018522677943110469472864920704 0.002318546874448657035827636719 0.001435124548152088902117085034 0 0 0 0 
2408000000.0000000000 0.177069634199142511565838731258 -0.020303195342421531677246093750 0.002470169449225068092346191406 0.001285887439735234000562358325 0 0 0 0 
2408166666.6666665077 0.177814632654190091232138115629 -0.021581690758466720581054687500 0.002523703733459115028381347656 0.001206617685966193892835307544 0 0 0 0 
2408333333.3333334923 0.178654462099075289627236884371 -0.023085489869117740285853201954 0.002724580699577928023097372900 0.001022309064865112087847065503 0 0 0 0 
2408500000.0000000000 0.179172649979591397384481865629 -0.024591071531176570547083670704 0.002719879848882555961608886719 0.001076481421478093104121542822 0 0 0 0 
2408666666.6666665077 0.179849162697792108733807481258 -0.025866696611046791076660156250 0.002838628832250833945033408057 0.000804019975475966930389404297 0 0 0 0 
2408833333.3333334923 0.180311962962150601486044365629 -0.027008662000298500061035156250 0.002852293429896235899684286963 0.000754816050175577402114868164 0 0 0 0 
2409000000.0000000000 0.180787563323974609375000000000 -0.028083864599466320383092110546 0.002667851978912949995753622900 0.000659509620163589715957641602 0 0 0 0 
2409166666.6666665077 0.181252300739288302322549384371 -0.029236691072583198547363281250 0.002629622584208846092224121094 0.000797190121375024318695068359 0 0 0 0 
2409333333.3333334923 0.181828111410140991210937500000 -0.030118817463517189025878906250 0.002806651405990124182460165869 0.000593027158174663782119750977 0 0 0 0 
2409500000.0000000000 0.182118996977806091308593750000 -0.031032232567667961120605468750 0.002911655465140939192530966650 0.000565687601920217275619506836 0 0 0 0 
2409666666.6666665077 0.182328864932060186188067518742 -0.031607307493686682964284528907 0.002817341126501560211181640625 0.000708612322341650724411010742 0 0 0 0 
2409833333.3333334923 0.182444795966148404220419365629 -0.032189469784498221660573591407 0.002859394764527678923365927588 0.000335573946358636021614074707 0 0 0 0 
2410000000.0000000000 0.182940170168876703460369981258 -0.032712206244468688964843750000 0.002881594467908143997192382812 0.000457614805782213807106018066 0 0 0 0 
2410166666.6666665077 0.183227047324180603027343750000 -0.032975871115922927856445312500 0.002924725646153091950657509912 0.000390269822673872113227844238 0 0 0 0 
2410333333.3333334923 0.183401569724083002288494981258 -0.033358905464410781860351562500 0.002955179195851088003871298682 0.000367183092748746275901794434 0 0 0 0 
2410500000.0000000000 0.183306545019149808029013115629 -0.033974405378103263164479841407 0.003114589722827076911926269531 0.000262854504399001598358154297 0 0 0 0 
2410666666.6666665077 0.183264642953872708419638115629 -0.034536596387624740600585937500 0.003214418189600110054016113281 0.000336186290951445698738098145 0 0 0 0 
2410833333.3333334923 0.183214679360389709472656250000 -0.034616585820913321758229841407 0.003245754633098841147181845557 0.000242230715230107307434082031 0 0 0 0 
2411000000.0000000000 0.182956665754318209549111884371 -0.035114582628011696552317033593 0.003367676632478833198547363281 0.000208170109544880688190460205 0 0 0 0 
2411166666.6666665077 0.182712897658348111251669365629 -0.035331599414348602294921875000 0.003401186084374784989597939600 -0.000090160196123179048299789429 0 0 0 0 
2411333333.3333334923 0.182343482971191406250000000000 -0.035596337169408798217773437500 0.003397207939997314973118447412 0.000011618974895100109279155731 0 0 0 0 
2411500000.0000000000 0.181907504796981811523437500000 -0.036178156733512878417968750000 0.003405451541766523881199502100 -0.000103556143585592494763512883 0 0 0 0 
2411666666.6666665077 0.181452244520187405685263115629 -0.036525465548038482666015625000 0.003487471258267759843113564600 -0.000222436821786686805173596793 0 0 0 0 
2411833333.3333334923 0.180750936269760104080361884371 -0.036752056330442428588867187500 0.003482777159661055044886923682 -0.000495707325171679258346557617 0 0 0 0 
2412000000.0000000000 0.180143281817436190506143134371 -0.037271510809659957885742187500 0.003623015712946652932407998193 -0.000461332325357943773269653320 0 0 0 0 
2412166666.6666665077 0.179123863577842712402343750000 -0.037853464484214782714843750000 0.003509259084239602088928222656 -0.000347744440659880583912449969 0 0 0 0 
2412333333.3333334923 0.178579643368721008300781250000 -0.038237307220697402954101562500 0.003401901805773376984837197412 -0.000495309883262962102890014648 0 0 0 0 
2412500000.0000000000 0.177316695451736505706463731258 -0.038777403533458709716796875000 0.003537523327395319938659667969 -0.000744740362279117107391357422 0 0 0 0 
2412666666.6666665077 0.176231205463409396072549384371 -0.039597772061824798583984375000 0.003783238586038351058959960938 -0.000796692620497196912765502930 0 0 0 0 
2412833333.3333334923 0.175113677978515597244424384371 -0.040131159126758582378347028907 0.003631801111623644828796386719 -0.000911286333575844764709472656 0 0 0 0 
2413000000.0000000000 0.174062237143516512771768134371 -0.041013021022081382060964216407 0.003744218265637754960301064600 -0.000925646570976823568344116211 0 0 0 0 
2413166666.6666665077 0.172731593251228304763955634371 -0.041767396032810211181640625000 0.003719493746757506890537881006 -0.000989698106423020362854003906 0 0 0 0 
2413333333.3333334923 0.171631410717964200118856865629 -0.042606838047504431987722028907 0.003823543433099985122680664062 -0.001187314046546817042707133716 0 0 0 0 
2413500000.0000000000 0.170293450355529812911825615629 -0.043459534645080573345143903907 0.003914019092917442321777343750 -0.001295126741752028898951865088 0 0 0 0 
2413666666.6666665077 0.168975129723548889160156250000 -0.044607974588871002197265625000 0.003862449666485189957859658350 -0.001467869733460247950312949072 0 0 0 0 
2413833333.3333334923 0.167685076594352694412393134371 -0.045557323843240737915039062500 0.004043595399707555770874023438 -0.001536846975795925097224570166 0 0 0 0 
2414000000.0000000000 0.166513621807098388671875000000 -0.046720787882804870605468750000 0.003931134007871150970458984375 -0.001770478324033319950103759766 0 0 0 0 
2414166666.6666665077 0.165217921137809808929119981258 -0.048119094222784042358398437500 0.003819961566478013992309570312 -0.002004277892410755157470703125 0 0 0 0 
2414333333.3333334923 0.163983985781669588943643134371 -0.049347393214702613140065778907 0.003838928882032632827758789062 -0.002239321358501911163330078125 0 0 0 0 
2414500000.0000000000 0.162839531898498507400674384371 -0.050855226814746856689453125000 0.003792587667703628973719931494 -0.002267237752676010131835937500 0 0 0 0 
2414666666.6666665077 0.161810338497161892989950615629 -0.051986668258905410766601562500 0.003751801792532206015345908057 -0.002439553150907158851623535156 0 0 0 0 
2414833333.3333334923 0.160528793931007413009481865629 -0.053813420236110687255859375000 0.003837303025647997856140136719 -0.002612191019579768180847167969 0 0 0 0 
2415000000.0000000000 0.159524649381637600997763115629 -0.055290777236223220825195312500 0.003777935169637203216552734375 -0.002787904115393757820129394531 0 0 0 0 
2415166666.6666665077 0.158607110381126403808593750000 -0.057051219046115882183034528907 0.003682959126308559937718056787 -0.002907260786741971969604492188 0 0 0 0 
2415333333.3333334923 0.157709479331970187088174384371 -0.058829344809055328369140625000 0.003536026924848556952235556494 -0.003100374946370720863342285156 0 0 0 0 
2415500000.0000000000 0.156886339187622098068075615629 -0.060546714812517173076589216407 0.003486896399408578872680664062 -0.003094558371230959892272949219 0 0 0 0 
2415666666.6666665077 0.156132906675338800628338731258 -0.062366884201765060424804687500 0.003333393018692731857299804688 -0.003332905005663632912876748193 0 0 0 0 
2415833333.3333334923 0.155548036098480196853799384371 -0.064334936439990997314453125000 0.003301555756479502157924033057 -0.003460875945165752930882119287 0 0 0 0 
2416000000.0000000000 0.154794961214065607268963731258 -0.066125258803367614746093750000 0.003108343342319130897521972656 -0.003651050850749015808105468750 0 0 0 0 
2416166666.6666665077 0.154259592294692993164062500000 -0.068058900535106658935546875000 0.003165954025462270216700888525 -0.003726162947714329199550009619 0 0 0 0 
2416333333.3333334923 0.153823003172874506194744981258 -0.070061191916465759277343750000 0.003028860082849860191345214844 -0.003764257766306399865391396631 0 0 0 0 
2416500000.0000000000 0.153313696384429903885049384371 -0.071965746581554412841796875000 0.002876190701499580903294228662 -0.003922325558960437774658203125 0 0 0 0 
2416666666.6666665077 0.153002291917800903320312500000 -0.073836654424667358398437500000 0.002940468490123749212977743994 -0.004032189957797527313232421875 0 0 0 0 
2416833333.3333334923 0.152775466442108209808026231258 -0.075984977185726165771484375000 0.002830280922353268103358603369 -0.004144150763750076293945312500 0 0 0 0 
2417000000.0000000000 0.152224123477935791015625000000 -0.077782146632671356201171875000 0.002599344123154879050013876807 -0.004378350917249917984008789062 0 0 0 0 
2417166666.6666665077 0.152219623327255304534588731258 -0.079685501754283905029296875000 0.002525409916415811018702841650 -0.004368985537439584732055664062 0 0 0 0 
2417333333.3333334923 0.152059987187385586837606865629 -0.081418924033641815185546875000 0.002361038001254200935363769531 -0.004384764935821294784545898438 0 0 0 0 
2417500000.0000000000 0.151983425021171597579794365629 -0.083258494734764099121093750000 0.002383972750976682142970419775 -0.004649146459996700286865234375 0 0 0 0 
2417666666.6666665077 0.152116596698760986328125000000 -0.084717094898223876953125000000 0.002251786878332496123072958838 -0.004747518803924322128295898438 0 0 0 0 
2417833333.3333334923 0.152110815048217801193075615629 -0.086257956922054290771484375000 0.002162012504413723945617675781 -0.005032924003899096575265215137 0 0 0 0 
2418000000.0000000000 0.152083426713943509200888115629 -0.087966434657573699951171875000 0.002117625437676907019374228369 -0.005138410720974206924438476562 0 0 0 0 
2418166666.6666665077 0.152141377329826410491619981258 -0.089212946593761444091796875000 0.001938506844453514055964804541 -0.005184210836887359619140625000 0 0 0 0 
2418333333.3333334923 0.152463451027870205978231865629 -0.090533763170242309570312500000 0.001723415218293667056440043872 -0.005422847345471382141113281250 0 0 0 0 
2418500000.0000000000 0.152536824345588711837606865629 -0.091729402542114257812500000000 0.001525766099803149917005229419 -0.005646249279379844665527343750 0 0 0 0 
2418666666.6666665077 0.152822658419609097579794365629 -0.092911832034587860107421875000 0.001363389426842332103131938403 -0.005853224545717239379882812500 0 0 0 0 
2418833333.3333334923 0.152831912040710504729901231258 -0.093849264085292816162109375000 0.001139290980063379027723002856 -0.005870213266462087631225585938 0 0 0 0 
2419000000.0000000000 0.153026178479194613357705634371 -0.094694726169109344482421875000 0.000804160023108124732971191406 -0.006013923790305852890014648438 0 0 0 0 
2419166666.6666665077 0.153233453631401089767294365629 -0.095590539276599884033203125000 0.000665891217067837715148925781 -0.006186382379382848739624023438 0 0 0 0 
2419333333.3333334923 0.153347492218017605880575615629 -0.096015259623527526855468750000 0.000426418933784589225619715558 -0.006142791360616683959960937500 0 0 0 0 
2419500000.0000000000 0.153429940342903109451455634371 -0.096764810383319854736328125000 -0.000062722850998397916555404663 -0.006340029183775187406058027051 0 0 0 0 
2419666666.6666665077 0.153832122683525113204794365629 -0.097201287746429443359375000000 -0.000104432037915103096835552077 -0.006470727734267711639404296875 0 0 0 0 
2419833333.3333334923 0.153917029500007601638955634371 -0.097217731177806854248046875000 -0.000467659730929881280094700946 -0.006425974890589714050292968750 0 0 0 0 
