# Hz S RI R 
2400000000.0000000000 0.173551663756370488922442518742 0.049602344632148742675781250000 -0.001087751239538192965863871997 0.004316293168812990188598632812 0 0 0 0 
2400166666.6666665077 0.173974156379699707031250000000 0.049139518290758132934570312500 -0.001110874931327999071833945166 0.004300958476960659027099609375 0 0 0 0 
2400333333.3333334923 0.174307107925415011306924384371 0.048379804939031600952148437500 -0.001100961118936538913129496997 0.004359922837466002377981855176 0 0 0 0 
2400500000.0000000000 0.174825012683868408203125000000 0.047728531062602996826171875000 -0.001082759816199541091918945312 0.004560723435133695602416992188 0 0 0 0 
2400666666.6666665077 0.174987211823463412185830634371 0.047070223838090896606445312500 -0.000973296584561467170715332031 0.004552506376057863235473632812 0 0 0 0 
2400833333.3333334923 0.175142511725425692459268134371 0.046580996364355087280273437500 -0.000837476749438792467117309570 0.004806514363735914230346679688 0 0 0 0 
2401000000.0000000000 0.175355866551399203201455634371 0.045826129615306847309152971093 -0.000696158327627927064895629883 0.004776564892381429672241210938 0 0 0 0 
2401166666.6666665077 0.175552770495414706131143134371 0.045116715133190161968190778907 -0.000418456853367388302653712140 0.004916197154670953750610351562 0 0 0 0 
2401333333.3333334923 0.175543755292892511565838731258 0.044486116617918021465261091407 -0.000442578049842268174320775165 0.005060601513832808408255292676 0 0 0 0 
2401500000.0000000000 0.175602748990058898925781250000 0.043697819113731377338449846093 -0.000190584338270127800389966422 0.004928643815219402313232421875 0 0 0 0 
2401666666.6666665077 0.175558373332023592849893134371 0.042855352163314819335937500000 -0.000027748636057367548346519470 0.004969863686710596084594726562 0 0 0 0 
2401833333.3333334923 0.175398454070091303069744981258 0.042178064584732062602956403907 0.000241480607655830708429059439 0.005096028558909893035888671875 0 0 0 0 
2402000000.0000000000 0.174834102392196710784588731258 0.041396088898181922222097028907 0.000301067106192931478649693622 0.005237611010670661926269531250 0 0 0 0 
2402166666.6666665077 0.174905210733413696289062500000 0.040349811315536499023437500000 0.000415838934713974595069885254 0.005179755389690399169921875000 0 0 0 0 
2402333333.3333334923 0.174648791551589993575888115629 0.039619561284780502319335937500 0.000653529074043035507202148438 0.005338264629244804382324218750 0 0 0 0 
2402500000.0000000000 0.174524649977683993240518134371 0.038455318659543991088867187500 0.000904991582501679658889770508 0.005110105965286493301391601562 0 0 0 0 
2402666666.6666665077 0.174234166741371210296307481258 0.037308350205421447753906250000 0.001053601154126226902008056641 0.005130418110638856887817382812 0 0 0 0 
2402833333.3333334923 0.173883005976676913162393134371 0.036089312285184860229492187500 0.001193650532513857104657817310 0.005282809957861900329589843750 0 0 0 0 
2403000000.0000000000 0.173518314957618713378906250000 0.034857552498579032207448591407 0.001279726624488831000087118994 0.005116075277328491210937500000 0 0 0 0 
2403166666.6666665077 0.173280045390129089355468750000 0.033416986465454101562500000000 0.001684164279140532016754150391 0.005034508183598518371582031250 0 0 0 0 
2403333333.3333334923 0.172935053706169100662393134371 0.032130047678947448730468750000 0.001762999105267226912854838794 0.005286311265081167221069335938 0 0 0 0 
2403500000.0000000000 0.172182053327560397049111884371 0.030450349673628810537318045704 0.001769508118741214058519672925 0.005115055944770574569702148438 0 0 0 0 
2403666666.6666665077 0.171985968947410611251669365629 0.028797809034585949289342110546 0.002146061509847640991210937500 0.004942336119711399078369140625 0 0 0 0 
2403833333.3333334923 0.171793341636657687088174384371 0.027076296508312228811243826954 0.002170515479519962830784463037 0.004826598800718784332275390625 0 0 0 0 
2404000000.0000000000 0.171413525938987704178018134371 0.025398595258593559265136718750 0.002318090526387095885035849463 0.004870244301855564117431640625 0 0 0 0 
2404166666.6666665077 0.171008124947547912597656250000 0.023450318723917010915736014454 0.002433840651065111160278320312 0.004805476404726505279541015625 0 0 0 0 
2404333333.3333334923 0.170528516173362704178018134371 0.021636037155985828744908516796 0.002572031458839774131774902344 0.004523613024502992630004882812 0 0 0 0 
2404500000.0000000000 0.170264542102813692947549384371 0.019627265632152560842493826954 0.002765688113868236975428915869 0.004524997435510159406180097363 0 0 0 0 
2404666666.6666665077 0.170317798852920504470986884371 0.017655674368143081665039062500 0.002909273374825716018676757812 0.004417599178850650787353515625 0 0 0 0 
2404833333.3333334923 0.169956147670745905120526231258 0.015660431236028671264648437500 0.003038989612832665009739541162 0.004324969835579395294189453125 0 0 0 0 
2405000000.0000000000 0.170009836554527310470419365629 0.013696472160518169403076171875 0.003040906973183155059814453125 0.004469469189643859863281250000 0 0 0 0 
2405166666.6666665077 0.169770643115043612381143134371 0.011629781685769559687604335352 0.002999060088768600983860634912 0.004128658212721347808837890625 0 0 0 0 
2405333333.3333334923 0.170020297169685391525106865629 0.009518330916762351989746093750 0.003214633790776133970973349463 0.004112676251679658889770507812 0 0 0 0 
2405500000.0000000000 0.169966995716094998458700615629 0.007533698342740535736083984375 0.003354571526870131926295615088 0.004028022754937410354614257812 0 0 0 0 
2405666666.6666665077 0.170079499483108492752236884371 0.005427425727248191833496093750 0.003551553934812546210048056494 0.003869659034535288810729980469 0 0 0 0 
2405833333.3333334923 0.170291721820831298828125000000 0.003436270868405700163600302588 0.003347162855789064927342080225 0.004098461009562016400809003613 0 0 0 0 
2406000000.0000000000 0.170674800872802706619424384371 0.001250423141755164103267050635 0.003525545122101902961730957031 0.004121788311749696731567382812 0 0 0 0 
2406166666.6666665077 0.170820564031601007659588731258 -0.000672787195071578025817871094 0.003582101082429289817810058594 0.004117546603083611402029706738 0 0 0 0 
2406333333.3333334923 0.171665310859680203536825615629 -0.002693539019674063162562704932 0.003798958845436573028564453125 0.004025314468890429410452558301 0 0 0 0 
2406500000.0000000000 0.171937182545661898513955634371 -0.004707520827651023864746093750 0.003974786028265953063964843750 0.003988367971032857894897460938 0 0 0 0 
2406666666.6666665077 0.172350123524665804763955634371 -0.006642355583608151349539472363 0.004167510196566581726074218750 0.003988385666161775588989257812 0 0 0 0 
2406833333.3333334923 0.173139214515686007400674384371 -0.008672661148011684417724609375 0.004488696344196796417236328125 0.003949649631977081298828125000 0 0 0 0 
2407000000.0000000000 0.173719778656959505935830634371 -0.010653348639607429504394531250 0.004606755916029214859008789062 0.004014764912426471710205078125 0 0 0 0 
2407166666.6666665077 0.174642130732536288162393134371 -0.012432316318154340226143084180 0.004802817944437265396118164062 0.003827310167253016991856240381 0 0 0 0 
2407333333.3333334923 0.175331562757492093185263115629 -0.014281352981925010681152343750 0.005065994802862405776977539062 0.003733175806701182885410927881 0 0 0 0 
2407500000.0000000000 0.176015719771385192871093750000 -0.015928804874420169485071951954 0.005202970933169127377981855176 0.003684385214000939889195107568 0 0 0 0 
2407666666.6666665077 0.176767185330390902420205634371 -0.017618441954255100595494454296 0.005532388575375080108642578125 0.003436150262132287025451660156 0 0 0 0 
2407833333.3333334923 0.177376091480255099197549384371 -0.019453551620244979858398437500 0.005554047413170337677001953125 0.003309600520879029793980263818 0 0 0 0 
2408000000.0000000000 0.178186982870101900955361884371 -0.021013466641306880605677420704 0.006003186572343111038208007812 0.003155144397169352011439658057 0 0 0 0 
2408166666.6666665077 0.178951486945152310470419365629 -0.022391092032194141042689139454 0.006234739907085896405691816113 0.002900841878727078004124306787 0 0 0 0 
2408333333.3333334923 0.179598018527030889313067518742 -0.023834992200136191631276716407 0.006410295609384775161743164062 0.002883943263441323800327920068 0 0 0 0 
2408500000.0000000000 0.180297344923019409179687500000 -0.025245608761906620370885079296 0.006535859312862157821655273438 0.002576321596279739899876259912 0 0 0 0 
2408666666.6666665077 0.180900901556014986892861884371 -0.026356341317296031606653983204 0.006672081537544727325439453125 0.002018196042627096176147460938 0 0 0 0 
2408833333.3333334923 0.181333363056182889083700615629 -0.027679307386279109609583670704 0.006760803051292896270751953125 0.001806680927984416918513632666 0 0 0 0 
2409000000.0000000000 0.181720018386840792556924384371 -0.028636876493692401540736014454 0.007014978211373090744018554688 0.001619645976461469910265278394 0 0 0 0 
2409166666.6666665077 0.182076752185821505447549384371 -0.029522793367505070077916329296 0.007147778756916522979736328125 0.001316931098699569918988871997 0 0 0 0 
2409333333.3333334923 0.182754829525947598556356865629 -0.030449626967310908925989920704 0.007067281287163496017456054688 0.001039336435496807098388671875 0 0 0 0 
2409500000.0000000000 0.182840257883071899414062500000 -0.031179431825876239431361014454 0.007191827986389398574829101562 0.000762182637117803096771240234 0 0 0 0 
2409666666.6666665077 0.183105960488319396972656250000 -0.031728018075227737426757812500 0.007374713663011789321899414062 0.000609449984040111303329467773 0 0 0 0 
2409833333.3333334923 0.183336302638053894042968750000 -0.032036960124969482421875000000 0.007512236479669809341430664062 0.000432288798037916421890258789 0 0 0 0 
2410000000.0000000000 0.183620184659957913497763115629 -0.032615020871162421489675153907 0.007426877040416002273559570312 0.000096953524916898459196090698 0 0 0 0 
2410166666.6666665077 0.183504879474639892578125000000 -0.032941624522209167480468750000 0.007773241028189659118652343750 -0.000346450047800317406654357910 0 0 0 0 
2410333333.3333334923 0.183555528521537808517294365629 -0.033081393688917160034179687500 0.007519935723394156369681073926 -0.000551833072677254676818847656 0 0 0 0 
2410500000.0000000000 0.183579549193382290939169365629 -0.033525582402944571758229841407 0.007607862818986176577096269824 -0.000817033811472356319427490234 0 0 0 0 
2410666666.6666665077 0.183453187346458407303018134371 -0.033859886229038238525390625000 0.007756413426250219345092773438 -0.001242738217115402004839253003 0 0 0 0 
2410833333.3333334923 0.183329969644546508789062500000 -0.034012842923402793193776716407 0.007822684943675994873046875000 -0.001502938335761428096173930591 0 0 0 0 
2411000000.0000000000 0.183045119047164889236611884371 -0.034343529492616653442382812500 0.007839274592697620391845703125 -0.001848845160566269917729043115 0 0 0 0 
2411166666.6666665077 0.182765156030654907226562500000 -0.034627255052328109741210937500 0.007644103374332190427298261426 -0.002239616587758063836338662256 0 0 0 0 
2411333333.3333334923 0.182351842522621210296307481258 -0.034829504787921912456472028907 0.007637036032974720001220703125 -0.002634659176692367033717490088 0 0 0 0 
2411500000.0000000000 0.181642442941665704925213731258 -0.035196080803871161724050153907 0.007520052138715981569772051074 -0.003124468959867953820469521631 0 0 0 0 
2411666666.6666665077 0.181077942252159090896768134371 -0.035464659333229071880300153907 0.007371732965111733350271894238 -0.003425095230340958075282431494 0 0 0 0 
2411833333.3333334923 0.180272713303566006759481865629 -0.035830561071634292602539062500 0.007489645387977361679077148438 -0.003778265323489903970005654443 0 0 0 0 
2412000000.0000000000 0.179919809103012112716513115629 -0.036286640912294387817382812500 0.006916724145412445068359375000 -0.004065539222210645675659179688 0 0 0 0 
2412166666.6666665077 0.178679913282394409179687500000 -0.036746054887771613384206403907 0.006893548648804426193237304688 -0.004349333699792624387259198926 0 0 0 0 
2412333333.3333334923 0.178017497062683105468750000000 -0.037256367504596710205078125000 0.006622004322707653045654296875 -0.004812011495232582092285156250 0 0 0 0 
2412500000.0000000000 0.176862731575965909103231865629 -0.037804629653692252422292341407 0.006397681776434183120727539062 -0.005127049051225185394287109375 0 0 0 0 
2412666666.6666665077 0.175644487142562893966513115629 -0.038655139505863189697265625000 0.006295402999967336654663085938 -0.005387788638472557067871093750 0 0 0 0 
2412833333.3333334923 0.174617066979408291915731865629 -0.039181459695100777362863908593 0.005866433959454298019409179688 -0.005543861538171768188476562500 0 0 0 0 
2413000000.0000000000 0.173287793993949890136718750000 -0.039926305413246161724050153907 0.005548868328332901000976562500 -0.005764307919889689359183027051 0 0 0 0 
2413166666.6666665077 0.171914070844650296310263115629 -0.040852867066860198974609375000 0.005340709351003170013427734375 -0.005850635003298521041870117188 0 0 0 0 
2413333333.3333334923 0.170741125941276605804119981258 -0.041742090135812759399414062500 0.005111602600663900375366210938 -0.006226045545190572738647460938 0 0 0 0 
2413500000.0000000000 0.169529512524604797363281250000 -0.042976729571819312358815778907 0.004911149851977825164794921875 -0.006281122099608182907104492188 0 0 0 0 
2413666666.6666665077 0.168476581573486300369424384371 -0.043966174125671386718750000000 0.004503996577113866806030273438 -0.006523853167891502380371093750 0 0 0 0 
2413833333.3333334923 0.167082369327545193771200615629 -0.044959079474210739135742187500 0.004406092688441277417654706738 -0.006701312493532896041870117188 0 0 0 0 
2414000000.0000000000 0.165679052472114590743856865629 -0.046430103480815887451171875000 0.003878608811646699905395507812 -0.006795096211135387420654296875 0 0 0 0 
2414166666.6666665077 0.164467394351959200760049384371 -0.047774445265531539916992187500 0.003570757107809185981750488281 -0.006827274803072214126586914062 0 0 0 0 
2414333333.3333334923 0.163308247923851013183593750000 -0.049234010279178619384765625000 0.003274921560660005049464560400 -0.006973125506192445755004882812 0 0 0 0 
2414500000.0000000000 0.162319615483283996582031250000 -0.050635453313589103008229841407 0.002977430354803801016566611182 -0.007072458043694496154785156250 0 0 0 0 
2414666666.6666665077 0.161193087697029113769531250000 -0.052095714956521987915039062500 0.002758423797786235809326171875 -0.007049378938972949981689453125 0 0 0 0 
2414833333.3333334923 0.160033121705055209060830634371 -0.053829170763492577289621721093 0.002404991304501891136169433594 -0.007042636629194021224975585938 0 0 0 0 
2415000000.0000000000 0.159024536609649713714276231258 -0.055517468601465232158620466407 0.001969743287190794944763183594 -0.007169999182224273681640625000 0 0 0 0 
2415166666.6666665077 0.158186286687851007659588731258 -0.057253934442996978759765625000 0.001734214019961654923082661206 -0.007164831738919019699096679688 0 0 0 0 
2415333333.3333334923 0.157287001609802301604901231258 -0.059175200760364532470703125000 0.001554009504616260962245322119 -0.007271510083228349685668945312 0 0 0 0 
2415500000.0000000000 0.156615793704986600021200615629 -0.060995444655418402934987653907 0.001229988061822951056836772388 -0.007133659441024065017700195312 0 0 0 0 
2415666666.6666665077 0.155713319778442410568075615629 -0.062888428568840026855468750000 0.000899319245945662260055541992 -0.007242417894303798675537109375 0 0 0 0 
2415833333.3333334923 0.155229687690734891036825615629 -0.064853757619857788085937500000 0.000658668286632746458053588867 -0.007042023818939924240112304688 0 0 0 0 
2416000000.0000000000 0.154546871781349209884481865629 -0.066853761672973632812500000000 0.000428800209192559123039245605 -0.007050009444355964660644531250 0 0 0 0 
2416166666.6666665077 0.154293954372406005859375000000 -0.068921536207199096679687500000 0.000319992570439353585243225098 -0.006983822677284479141235351562 0 0 0 0 
2416333333.3333334923 0.153779387474060086349325615629 -0.070752166211605072021484375000 -0.000061247956182342022657394409 -0.007009611930698156356811523438 0 0 0 0 
2416500000.0000000000 0.153381466865539606292401231258 -0.072844840586185455322265625000 -0.000290138355921953916549682617 -0.006960014812648296356201171875 0 0 0 0 
2416666666.6666665077 0.153041467070579501053018134371 -0.074741974472999572753906250000 -0.000495739688631147146224975586 -0.006966142915189266204833984375 0 0 0 0 
2416833333.3333334923 0.152824118733406094650106865629 -0.076801896095275878906250000000 -0.000757564790546894073486328125 -0.006735277827829123410696698926 0 0 0 0 
2417000000.0000000000 0.152535796165466308593750000000 -0.078698284924030303955078125000 -0.001060133450664580085157084888 -0.006841491907835006713867187500 0 0 0 0 
2417166666.6666665077 0.152420669794082613845986884371 -0.080455265939235687255859375000 -0.001273125177249311967137002100 -0.006550456862896680831909179688 0 0 0 0 
2417333333.3333334923 0.152435541152954101562500000000 -0.082308553159236907958984375000 -0.001427384209819138050079345703 -0.006484104786068201065063476562 0 0 0 0 
2417500000.0000000000 0.152410104870796203613281250000 -0.084206074476242065429687500000 -0.001625899574719368977787636865 -0.006522018928080797195434570312 0 0 0 0 
2417666666.6666665077 0.152395099401473999023437500000 -0.085531786084175109863281250000 -0.001868279883638023896458291162 -0.006456699687987565994262695312 0 0 0 0 
2417833333.3333334923 0.152513608336448697189169365629 -0.087173148989677429199218750000 -0.001980832777917385101318359375 -0.006239444017410278320312500000 0 0 0 0 
2418000000.0000000000 0.152463242411613492111044365629 -0.088550627231597900390625000000 -0.002205105498433113098144531250 -0.006031308788806200027465820312 0 0 0 0 
2418166666.6666665077 0.152592614293098505218182481258 -0.089911855757236480712890625000 -0.002575259422883390946629189600 -0.005987485405057668685913085938 0 0 0 0 
2418333333.3333334923 0.153066471219062805175781250000 -0.091119930148124694824218750000 -0.002650733105838298797607421875 -0.005824334453791379928588867188 0 0 0 0 
2418500000.0000000000 0.153051152825355502029580634371 -0.092312544584274291992187500000 -0.002972917864099144935607910156 -0.005707768257707357406616210938 0 0 0 0 
2418666666.6666665077 0.153307899832725497146768134371 -0.093256086111068725585937500000 -0.003168667899444698853733681787 -0.005341035313904285430908203125 0 0 0 0 
2418833333.3333334923 0.153282582759857205489950615629 -0.094217434525489807128906250000 -0.003141602035611867904663085938 -0.005230240058153867721557617188 0 0 0 0 
2419000000.0000000000 0.153463125228881808181924384371 -0.095064565539360046386718750000 -0.003299022791907190842869423975 -0.005150313023477792739868164062 0 0 0 0 
2419166666.6666665077 0.153791069984436007400674384371 -0.095653250813484191894531250000 -0.003559007309377193884608603369 -0.004968408029526472091674804688 0 0 0 0 
2419333333.3333334923 0.153905242681503295898437500000 -0.095875680446624755859375000000 -0.003564650425687431855442666162 -0.004735914058983325958251953125 0 0 0 0 
2419500000.0000000000 0.153961285948753412444744981258 -0.096530213952064514160156250000 -0.003637597197666763825657509912 -0.004615993704646825790405273438 0 0 0 0 
2419666666.6666665077 0.154305189847946194747763115629 -0.096836827695369720458984375000 -0.003747105132788420157191611182 -0.004332976881414651870727539062 0 0 0 0 
2419833333.3333334923 0.154402583837509210784588731258 -0.096925824880599975585937500000 -0.003920772578567267331595136426 -0.004229024983942508697509765625 0 0 0 0 
