# Version 1.00
#
freq[Hz];re:Trc1_S11;im:Trc1_S11;re:Trc2_S21;im:Trc2_S21;
2.400000000000000E+009;1.508498042821884E-001;1.125544831156731E-001;2.148304338334128E-004;-3.534576855599880E-003;
2.400166666666667E+009;1.507399529218674E-001;1.103063374757767E-001;2.474364009685814E-004;-3.492097835987806E-003;
2.400333333333334E+009;1.511198729276657E-001;1.079992204904556E-001;2.022584376391023E-004;-3.413444152101874E-003;
2.400500000000000E+009;1.511716395616531E-001;1.055118441581726E-001;1.656939421081916E-004;-3.668744815513492E-003;
2.400666666666667E+009;1.514307111501694E-001;1.031860709190369E-001;1.199871476273984E-004;-3.484604181721807E-003;
2.400833333333334E+009;1.516080647706986E-001;1.004557237029076E-001;1.069173813448288E-004;-3.561224788427353E-003;
2.401000000000000E+009;1.519224047660828E-001;9.767034649848938E-002;9.928549116011709E-005;-3.763088723644614E-003;
2.401166666666667E+009;1.522043645381928E-001;9.519948810338974E-002;-1.887639955384657E-004;-3.868785919621587E-003;
2.401333333333334E+009;1.528528779745102E-001;9.229407459497452E-002;-2.989897620864213E-004;-3.794267075136304E-003;
2.401500000000000E+009;1.533738672733307E-001;8.956392854452133E-002;-4.388298548292369E-004;-3.932340536266565E-003;
2.401666666666667E+009;1.536136418581009E-001;8.688186109066010E-002;-6.401341524906457E-004;-4.039876163005829E-003;
2.401833333333334E+009;1.542684435844421E-001;8.433298021554947E-002;-8.582381415180862E-004;-4.011354874819517E-003;
2.402000000000000E+009;1.553508639335632E-001;8.161773532629013E-002;-1.105141709558666E-003;-4.044156521558762E-003;
2.402166666666667E+009;1.562259942293167E-001;7.942368090152741E-002;-1.507594366557896E-003;-3.956613130867481E-003;
2.402333333333334E+009;1.573200076818466E-001;7.673206925392151E-002;-1.733152312226594E-003;-3.971869125962257E-003;
2.402500000000000E+009;1.584209352731705E-001;7.452595233917236E-002;-1.968158408999443E-003;-3.870179876685143E-003;
2.402666666666667E+009;1.597303897142410E-001;7.223452627658844E-002;-2.173044485971332E-003;-3.742928383871913E-003;
2.402833333333334E+009;1.610112339258194E-001;6.991321593523026E-002;-2.450750675052404E-003;-3.557302756235004E-003;
2.403000000000000E+009;1.627292484045029E-001;6.764408200979233E-002;-2.503418829292059E-003;-3.292744979262352E-003;
2.403166666666667E+009;1.644089221954346E-001;6.564237922430039E-002;-2.772136125713587E-003;-3.055330365896225E-003;
2.403333333333334E+009;1.658757030963898E-001;6.347670406103134E-002;-2.625635592266917E-003;-2.829622244462371E-003;
2.403500000000000E+009;1.677680462598801E-001;6.147767230868340E-002;-2.884436165913940E-003;-2.660033758729696E-003;
2.403666666666667E+009;1.695556938648224E-001;5.971324443817139E-002;-2.917532576248050E-003;-2.367776120081544E-003;
2.403833333333334E+009;1.712563633918762E-001;5.786047130823135E-002;-2.939749741926789E-003;-2.174447290599346E-003;
2.404000000000000E+009;1.729945540428162E-001;5.607984960079193E-002;-2.964927814900875E-003;-2.257805783301592E-003;
2.404166666666667E+009;1.748101711273193E-001;5.481604859232903E-002;-2.771610626950860E-003;-1.985006267204881E-003;
2.404333333333334E+009;1.764954626560211E-001;5.307332053780556E-002;-2.850044285878539E-003;-1.735838945023716E-003;
2.404500000000000E+009;1.782664358615875E-001;5.163276568055153E-002;-2.881620544940233E-003;-1.543051330372691E-003;
2.404666666666667E+009;1.799773573875427E-001;5.057438090443611E-002;-2.728551393374801E-003;-1.564993639476597E-003;
2.404833333333334E+009;1.816735714673996E-001;4.942058026790619E-002;-2.736619673669338E-003;-1.362370327115059E-003;
2.405000000000000E+009;1.831197440624237E-001;4.873666167259216E-002;-2.732723951339722E-003;-1.323539647273719E-003;
2.405166666666667E+009;1.844998598098755E-001;4.773277416825295E-002;-2.671360038220882E-003;-1.343310344964266E-003;
2.405333333333334E+009;1.859766095876694E-001;4.731576517224312E-002;-2.636195626109839E-003;-1.149936811998487E-003;
2.405500000000000E+009;1.874619126319885E-001;4.680924117565155E-002;-2.669175155460835E-003;-1.174816745333374E-003;
2.405666666666667E+009;1.887120157480240E-001;4.633066058158875E-002;-2.614073455333710E-003;-1.185669214464724E-003;
2.405833333333334E+009;1.900736093521118E-001;4.593830928206444E-002;-2.676237607374787E-003;-9.135045111179352E-004;
2.406000000000000E+009;1.910761594772339E-001;4.555280134081841E-002;-2.617199439555407E-003;-1.073003164492548E-003;
2.406166666666667E+009;1.922479718923569E-001;4.530062153935432E-002;-2.786892931908369E-003;-9.377323440276086E-004;
2.406333333333334E+009;1.931912004947662E-001;4.509459063410759E-002;-2.691392786800861E-003;-8.246428333222866E-004;
2.406500000000000E+009;1.939503997564316E-001;4.513059929013252E-002;-2.655878197401762E-003;-7.558972574770451E-004;
2.406666666666667E+009;1.948096156120300E-001;4.501468315720558E-002;-2.763744909316301E-003;-6.016836850903928E-004;
2.406833333333334E+009;1.954071074724197E-001;4.470739141106606E-002;-2.699452219530940E-003;-7.521985098719597E-004;
2.407000000000000E+009;1.957754641771317E-001;4.479090124368668E-002;-2.726421924307942E-003;-7.046412210911512E-004;
2.407166666666667E+009;1.961856484413147E-001;4.442380741238594E-002;-2.705212682485580E-003;-4.190650943201035E-004;
2.407333333333334E+009;1.962480545043945E-001;4.443320259451866E-002;-2.867954783141613E-003;-3.468691720627248E-004;
2.407500000000000E+009;1.962022334337235E-001;4.432823508977890E-002;-2.739842282608151E-003;-3.613088920246810E-004;
2.407666666666667E+009;1.964111179113388E-001;4.407498612999916E-002;-2.804847201332450E-003;-3.476381534710527E-004;
2.407833333333334E+009;1.958857625722885E-001;4.366756603121758E-002;-2.815490588545799E-003;-3.274323535151780E-004;
2.408000000000000E+009;1.959170103073120E-001;4.346188157796860E-002;-2.816994441673160E-003;-1.572760374983773E-004;
2.408166666666667E+009;1.953185349702835E-001;4.296321049332619E-002;-2.872526412829757E-003;-2.104485465679318E-004;
2.408333333333334E+009;1.949753165245056E-001;4.234054684638977E-002;-2.819613320752978E-003;9.188361582346261E-005;
2.408500000000000E+009;1.942348927259445E-001;4.193338379263878E-002;-2.909523667767644E-003;2.535656385589391E-004;
2.408666666666667E+009;1.937612891197205E-001;4.134431481361389E-002;-2.840520581230521E-003;2.824853581842035E-004;
2.408833333333334E+009;1.931580156087875E-001;4.034313932061195E-002;-2.726369770243764E-003;1.660169655224308E-004;
2.409000000000000E+009;1.921785175800324E-001;3.949814662337303E-002;-2.780687529593706E-003;4.466408572625369E-004;
2.409166666666667E+009;1.913110762834549E-001;3.858123347163200E-002;-2.540444256737828E-003;5.759186460636556E-004;
2.409333333333334E+009;1.904930174350739E-001;3.746069595217705E-002;-2.569206524640322E-003;7.104668766260147E-004;
2.409500000000000E+009;1.896427273750305E-001;3.604606166481972E-002;-2.548123477026820E-003;7.843460771255195E-004;
2.409666666666667E+009;1.885877698659897E-001;3.460541367530823E-002;-2.360404934734106E-003;7.589446031488478E-004;
2.409833333333334E+009;1.874013543128967E-001;3.324973955750465E-002;-2.273847348988056E-003;8.388158748857677E-004;
2.410000000000000E+009;1.866422444581986E-001;3.168828785419464E-002;-2.284776885062456E-003;1.028211903758347E-003;
2.410166666666667E+009;1.856916099786758E-001;2.993922121822834E-002;-2.125742379575968E-003;1.094056176953018E-003;
2.410333333333334E+009;1.847247034311295E-001;2.821502834558487E-002;-2.159869531169534E-003;9.811923373490572E-004;
2.410500000000000E+009;1.837757974863052E-001;2.641659975051880E-002;-2.034450415521860E-003;9.772458579391241E-004;
2.410666666666667E+009;1.829751431941986E-001;2.430718392133713E-002;-1.902520540170372E-003;9.450394427403808E-004;
2.410833333333334E+009;1.823936253786087E-001;2.229077182710171E-002;-1.914613181725144E-003;8.872774778865278E-004;
2.411000000000000E+009;1.818201839923859E-001;1.996364071965218E-002;-1.820286386646330E-003;7.402726914733648E-004;
2.411166666666667E+009;1.811141967773438E-001;1.801567897200584E-002;-1.793005038052797E-003;8.632743847556412E-004;
2.411333333333334E+009;1.807017028331757E-001;1.554946135729551E-002;-1.892660628072918E-003;6.942113977856934E-004;
2.411500000000000E+009;1.802172660827637E-001;1.323451194912195E-002;-1.905163167975843E-003;4.890583804808557E-004;
2.411666666666667E+009;1.801517903804779E-001;1.104262750595808E-002;-1.994238700717688E-003;7.548800203949213E-004;
2.411833333333334E+009;1.797574311494827E-001;8.824675343930721E-003;-2.007188741117716E-003;6.949538365006447E-004;
2.412000000000000E+009;1.800222396850586E-001;6.435681134462357E-003;-2.121941186487675E-003;7.128079887479544E-004;
2.412166666666667E+009;1.799953430891037E-001;3.957217093557119E-003;-2.218178473412991E-003;8.734297589398921E-004;
2.412333333333334E+009;1.801964640617371E-001;1.585379126481712E-003;-2.180162584409118E-003;8.744265069253743E-004;
2.412500000000000E+009;1.805921792984009E-001;-7.198483217507601E-004;-2.290405100211501E-003;8.555421372875571E-004;
2.412666666666667E+009;1.811691671609879E-001;-3.162065753713250E-003;-2.464556600898504E-003;1.001800061203539E-003;
2.412833333333334E+009;1.817879229784012E-001;-5.412544589489698E-003;-2.485392615199089E-003;1.074702362529934E-003;
2.413000000000000E+009;1.824287921190262E-001;-7.608212064951658E-003;-2.563054440543056E-003;1.364802243188024E-003;
2.413166666666667E+009;1.830810308456421E-001;-9.756163693964481E-003;-2.552359830588102E-003;1.378701766952872E-003;
2.413333333333334E+009;1.840784102678299E-001;-1.200781483203173E-002;-2.744944533333182E-003;1.469862181693316E-003;
2.413500000000000E+009;1.848771125078201E-001;-1.412449125200510E-002;-2.587282797321677E-003;1.764939632266760E-003;
2.413666666666667E+009;1.859899908304215E-001;-1.630698330700398E-002;-2.729749307036400E-003;1.952510559931397E-003;
2.413833333333334E+009;1.870298683643341E-001;-1.820659637451172E-002;-2.333903918042779E-003;2.228640252724290E-003;
2.414000000000000E+009;1.878777593374252E-001;-2.013620547950268E-002;-2.354249823838472E-003;2.348099136725068E-003;
2.414166666666667E+009;1.892799586057663E-001;-2.180357091128826E-002;-2.340760082006455E-003;2.593352226540446E-003;
2.414333333333334E+009;1.901518106460571E-001;-2.370098605751991E-002;-2.218868816271424E-003;2.755589317530394E-003;
2.414500000000000E+009;1.915199905633926E-001;-2.525704354047775E-002;-2.031326061114669E-003;2.696512034162879E-003;
2.414666666666667E+009;1.924551427364349E-001;-2.679508924484253E-002;-1.886798301711679E-003;2.864634152501822E-003;
2.414833333333334E+009;1.935273706912994E-001;-2.814142592251301E-002;-1.691408688202500E-003;2.904354594647884E-003;
2.415000000000000E+009;1.946070492267609E-001;-2.948067709803581E-002;-1.522065838798881E-003;3.091025166213512E-003;
2.415166666666667E+009;1.958426386117935E-001;-3.056458570063114E-002;-1.268845051527023E-003;3.087976947426796E-003;
2.415333333333334E+009;1.968607306480408E-001;-3.140017017722130E-002;-1.365603297017515E-003;3.072046209126711E-003;
2.415500000000000E+009;1.978269666433334E-001;-3.221981227397919E-002;-1.194988377392292E-003;3.158356761559844E-003;
2.415666666666667E+009;1.987486481666565E-001;-3.319711238145828E-002;-9.084304911084473E-004;3.130331635475159E-003;
2.415833333333334E+009;1.995238363742828E-001;-3.374749049544334E-002;-9.008214110508561E-004;3.257406409829855E-003;
2.416000000000000E+009;2.003224641084671E-001;-3.448258340358734E-002;-6.790562765672803E-004;3.171074669808149E-003;
2.416166666666667E+009;2.010184228420258E-001;-3.503660857677460E-002;-5.548880435526371E-004;3.329655388370156E-003;
2.416333333333334E+009;2.015231102705002E-001;-3.535192087292671E-002;-3.514823620207608E-004;3.313673660159111E-003;
2.416500000000000E+009;2.019750028848648E-001;-3.574949875473976E-002;-1.981633540708572E-004;3.186078043654561E-003;
2.416666666666667E+009;2.022040486335754E-001;-3.606967255473137E-002;-1.400113833369687E-004;3.266734071075916E-003;
2.416833333333334E+009;2.025079578161240E-001;-3.609253466129303E-002;-4.018136314698495E-005;3.289430402219296E-003;
2.417000000000000E+009;2.026826441287994E-001;-3.629586100578308E-002;2.515027881599963E-004;3.120878478512168E-003;
2.417166666666667E+009;2.024979591369629E-001;-3.632329404354096E-002;2.603569591883570E-004;3.283716738224030E-003;
2.417333333333334E+009;2.021308243274689E-001;-3.625469282269478E-002;4.640270490199328E-004;3.252132562920451E-003;
2.417500000000000E+009;2.020807117223740E-001;-3.632348030805588E-002;5.256391013972461E-004;3.202520543709397E-003;
2.417666666666667E+009;2.015972286462784E-001;-3.609744831919670E-002;8.695395663380623E-004;3.099790774285793E-003;
2.417833333333334E+009;2.012031674385071E-001;-3.602457419037819E-002;8.483281708322465E-004;3.205418353900313E-003;
2.418000000000000E+009;2.007065415382385E-001;-3.589982911944389E-002;1.004666439257562E-003;3.034608904272318E-003;
2.418166666666667E+009;2.000462412834168E-001;-3.594551235437393E-002;1.218922785483301E-003;3.031041473150253E-003;
2.418333333333334E+009;1.993861347436905E-001;-3.589286282658577E-002;1.455206307582557E-003;2.755559515208006E-003;
2.418500000000000E+009;1.985987573862076E-001;-3.597642853856087E-002;1.423031324520707E-003;2.807570621371269E-003;
2.418666666666667E+009;1.977496445178986E-001;-3.600422292947769E-002;1.453806878998876E-003;2.512965351343155E-003;
2.418833333333334E+009;1.966789811849594E-001;-3.612905368208885E-002;1.678703352808952E-003;2.475113375112414E-003;
2.419000000000000E+009;1.955414116382599E-001;-3.639612346887589E-002;1.772426301613450E-003;2.328022150322795E-003;
2.419166666666667E+009;1.944197714328766E-001;-3.674236685037613E-002;1.867864280939102E-003;2.146308543160558E-003;
2.419333333333334E+009;1.932617872953415E-001;-3.735645860433579E-002;1.766042783856392E-003;2.056418685242534E-003;
2.419500000000000E+009;1.921071708202362E-001;-3.784471005201340E-002;1.918172580190003E-003;1.949519035406411E-003;
2.419666666666667E+009;1.907540261745453E-001;-3.874655812978745E-002;1.816535834223032E-003;1.787786139175296E-003;
2.419833333333334E+009;1.892058998346329E-001;-3.947792947292328E-002;1.782259554602206E-003;1.652785926125944E-003;
2.420000000000000E+009;1.878228485584259E-001;-4.034459218382835E-002;1.831756904721260E-003;1.529654371552169E-003;
2.420166666666667E+009;1.864358037710190E-001;-4.136740788817406E-002;1.892919070087373E-003;1.323309028521180E-003;
2.420333333333334E+009;1.848834455013275E-001;-4.248719662427902E-002;1.713587669655681E-003;1.396062667481601E-003;
2.420500000000000E+009;1.833284795284271E-001;-4.383596032857895E-002;1.845453982241452E-003;1.402019406668842E-003;
2.420666666666667E+009;1.818946152925491E-001;-4.504595696926117E-002;1.807460794225335E-003;1.347506302408874E-003;
2.420833333333334E+009;1.802343726158142E-001;-4.667921736836433E-002;1.576989307068288E-003;1.240932266227901E-003;
2.421000000000000E+009;1.789951473474503E-001;-4.824328422546387E-002;1.803991151973605E-003;1.386358053423464E-003;
2.421166666666667E+009;1.776476353406906E-001;-4.973282292485237E-002;1.698116539046168E-003;1.151985954493284E-003;
2.421333333333334E+009;1.762230396270752E-001;-5.116867274045944E-002;1.787202432751656E-003;1.366782002151012E-003;
2.421500000000000E+009;1.747158467769623E-001;-5.307887867093086E-002;1.666860189288855E-003;1.139802159741521E-003;
2.421666666666667E+009;1.735901832580566E-001;-5.453959852457047E-002;1.828180043958128E-003;9.354193462058902E-004;
2.421833333333334E+009;1.725568175315857E-001;-5.653621256351471E-002;1.739486353471875E-003;1.070527010597289E-003;
2.422000000000000E+009;1.714679002761841E-001;-5.825061351060867E-002;1.787901972420514E-003;1.061639981344342E-003;
2.422166666666667E+009;1.706596761941910E-001;-6.012357771396637E-002;1.833872636780143E-003;8.540273411199451E-004;
2.422333333333334E+009;1.695227622985840E-001;-6.204285472631455E-002;1.839552423916757E-003;9.253202006220818E-004;
2.422500000000000E+009;1.689429283142090E-001;-6.379570811986923E-002;1.826597261242569E-003;8.588918717578054E-004;
2.422666666666667E+009;1.683266311883926E-001;-6.570620834827423E-002;1.841496792621911E-003;7.663006545044482E-004;
2.422833333333334E+009;1.679433137178421E-001;-6.756647676229477E-002;1.925589167512953E-003;7.327497005462647E-004;
2.423000000000000E+009;1.674115508794785E-001;-6.957215815782547E-002;1.746868481859565E-003;6.150035769678652E-004;
2.423166666666667E+009;1.670910120010376E-001;-7.129561156034470E-002;1.706617535091937E-003;7.199721876531839E-004;
2.423333333333334E+009;1.668152660131455E-001;-7.331936061382294E-002;1.735180849209428E-003;6.216742331162095E-004;
2.423500000000000E+009;1.666859686374664E-001;-7.490722090005875E-002;1.713807461783290E-003;6.124884239397943E-004;
2.423666666666667E+009;1.667821109294891E-001;-7.673753798007965E-002;1.744356122799218E-003;5.369050195440650E-004;
2.423833333333334E+009;1.666866540908814E-001;-7.838162034749985E-002;1.751777715981007E-003;6.531132967211306E-004;
2.424000000000000E+009;1.668179035186768E-001;-8.013185858726502E-002;1.718436367809773E-003;5.837786011397839E-004;
2.424166666666667E+009;1.668153554201126E-001;-8.160290122032166E-002;1.763240783475339E-003;2.987840853165835E-004;
2.424333333333334E+009;1.670451313257217E-001;-8.315984904766083E-002;1.773067633621395E-003;5.373684689402580E-004;
2.424500000000000E+009;1.672601252794266E-001;-8.486590534448624E-002;1.794183743186295E-003;4.107504792045802E-004;
2.424666666666667E+009;1.674337387084961E-001;-8.613692969083786E-002;1.875274349004030E-003;3.677805070765317E-004;
2.424833333333334E+009;1.681519895792007E-001;-8.726312965154648E-002;1.822017831727862E-003;2.023955166805536E-004;
2.425000000000000E+009;1.683950424194336E-001;-8.848669379949570E-002;1.688188291154802E-003;4.117234493605793E-004;
2.425166666666667E+009;1.686507463455200E-001;-8.967919647693634E-002;1.805128878913820E-003;2.008541778195649E-004;
2.425333333333334E+009;1.690663397312164E-001;-9.055011719465256E-002;1.812434988096356E-003;2.984405437018722E-004;
2.425500000000000E+009;1.694823801517487E-001;-9.156615287065506E-002;1.846487517468631E-003;2.672095142770559E-004;
2.425666666666667E+009;1.697757691144943E-001;-9.243327379226685E-002;1.814763643778861E-003;2.981451980303973E-004;
2.425833333333334E+009;1.702228188514710E-001;-9.321032464504242E-002;1.713990583084524E-003;1.628508616704494E-004;
2.426000000000000E+009;1.705911457538605E-001;-9.375241398811340E-002;1.687297946773469E-003;1.444734662072733E-004;
2.426166666666667E+009;1.710152179002762E-001;-9.437181800603867E-002;1.773022115230560E-003;2.222830662503839E-004;
2.426333333333334E+009;1.711616665124893E-001;-9.493629634380341E-002;1.833067741245031E-003;1.181233747047372E-004;
2.426500000000000E+009;1.716861873865128E-001;-9.534873068332672E-002;1.822189078666270E-003;1.084379618987441E-004;
2.426666666666667E+009;1.718768477439880E-001;-9.579908102750778E-002;1.942022820003331E-003;1.082383096218109E-004;
2.426833333333334E+009;1.720134764909744E-001;-9.621454030275345E-002;1.989292679354549E-003;1.055527973221615E-004;
2.427000000000000E+009;1.722129881381989E-001;-9.655808657407761E-002;1.961833797395229E-003;8.265215001301840E-005;
2.427166666666667E+009;1.723513901233673E-001;-9.697661548852921E-002;2.044276101514697E-003;-7.146784628275782E-005;
2.427333333333334E+009;1.722013801336289E-001;-9.749265015125275E-002;2.211263636127114E-003;-5.735073500545695E-005;
2.427500000000000E+009;1.721210181713104E-001;-9.773995727300644E-002;2.160780830308795E-003;-1.304341567447409E-004;
2.427666666666667E+009;1.718207597732544E-001;-9.807761013507843E-002;2.079450059682131E-003;-1.203442807309330E-004;
2.427833333333334E+009;1.715138107538223E-001;-9.847097843885422E-002;2.227193675935268E-003;-2.825491537805647E-004;
