# Hz S RI R 50
2400000000.0000000000 0.172066241502761813064736884371 0.048739537596702582622487653907 0.001762829371728003025054931641 -0.000874482095241546630859375000 0 0 0 0 
2400166666.6666665077 0.172692701220512390136718750000 0.047990426421165473247487653907 0.001930825994350015900255512769 -0.000934496405534446239471435547 0 0 0 0 
2400333333.3333334923 0.173085093498230008224325615629 0.047351196408271789550781250000 0.001752507989294826984405517578 -0.000871371710672974586486816406 0 0 0 0 
2400500000.0000000000 0.173653811216354397872763115629 0.046685244888067252422292341407 0.001763936947099864916560507666 -0.000905310967937111854553222656 0 0 0 0 
2400666666.6666665077 0.174011886119842501541299384371 0.045904036611318588256835937500 0.001801433390937746004817343604 -0.000893359770998358726501464844 0 0 0 0 
2400833333.3333334923 0.174318641424179104904013115629 0.045668050646781921386718750000 0.001749502494931221008300781250 -0.001110306242480874061584472656 0 0 0 0 
2401000000.0000000000 0.174460634589195306975994981258 0.044909793883562088012695312500 0.001746205263771116950391459888 -0.001107893069274723963496542822 0 0 0 0 
2401166666.6666665077 0.174859717488288907150106865629 0.044264800846576690673828125000 0.001596969552338123104692768628 -0.001092265825718641064287495190 0 0 0 0 
2401333333.3333334923 0.174854427576065091232138115629 0.043545003980398178100585937500 0.001617709640413522937177348560 -0.000929157831706106662750244141 0 0 0 0 
2401500000.0000000000 0.175091743469238309005575615629 0.042944990098476409912109375000 0.001542821992188692092895507812 -0.000965183076914399862289428711 0 0 0 0 
2401666666.6666665077 0.174960762262344388107138115629 0.042337432503700263286550153907 0.001701092580333352088928222656 -0.001028483500704169056536030347 0 0 0 0 
2401833333.3333334923 0.175014883279800387283486884371 0.041578821837902069091796875000 0.001556747476570307991625141675 -0.000930738518945872783660888672 0 0 0 0 
2402000000.0000000000 0.174755781888961791992187500000 0.040779907256364822387695312500 0.001531982794404030063031840747 -0.001048050937242805957794189453 0 0 0 0 
2402166666.6666665077 0.174637600779533386230468750000 0.040007393807172782207448591407 0.001573025947436689896824502100 -0.001008310588076710917829204028 0 0 0 0 
2402333333.3333334923 0.174454852938652010818643134371 0.038963336497545242309570312500 0.001567658153362571976305317456 -0.001088413642719388008117675781 0 0 0 0 
2402500000.0000000000 0.174361631274223299881143134371 0.038233149796724319458007812500 0.001514852861873805956599570166 -0.001111716032028198025347065503 0 0 0 0 
2402666666.6666665077 0.173977032303810091873330634371 0.037004169076681137084960937500 0.001590944826602936007856059497 -0.001159043982625008063075400244 0 0 0 0 
2402833333.3333334923 0.173746958374977111816406250000 0.035881187766790390014648437500 0.001688556745648384094238281250 -0.001073624007403850989100790869 0 0 0 0 
2403000000.0000000000 0.173357903957366887848223768742 0.034728299826383590698242187500 0.001650525606237351894378662109 -0.001234582276083528995513916016 0 0 0 0 
2403166666.6666665077 0.173026308417320306975994981258 0.033376518636941909790039062500 0.001674448722042142911198281396 -0.001218782155774533965467143481 0 0 0 0 
2403333333.3333334923 0.172675490379333496093750000000 0.032048504799604422832448591407 0.001783714396879076957702636719 -0.001380158471874892928479838794 0 0 0 0 
2403500000.0000000000 0.172175928950309808929119981258 0.030692290514707568777064139454 0.001653625746257602951647114331 -0.001478709629736840941785502856 0 0 0 0 
2403666666.6666665077 0.171886876225471496582031250000 0.029161402955651279794713204296 0.001648342353291809992549277197 -0.001471664290875197107430483179 0 0 0 0 
2403833333.3333334923 0.171671673655510004241619981258 0.027385380119085308420201485546 0.001760967192240058942082070459 -0.001498754601925611929652548682 0 0 0 0 
2404000000.0000000000 0.170985102653503390213174384371 0.025670636445283889770507812500 0.001707448507659137032152485425 -0.001679709646850823922398232568 0 0 0 0 
2404166666.6666665077 0.170650973916053799728231865629 0.023962663486599918710728829296 0.001690468634478748061536479419 -0.001684676972217858054517436450 0 0 0 0 
2404333333.3333334923 0.170157760381698608398437500000 0.022206960245966911315917968750 0.001620397437363862991333007812 -0.001698919921182096004486083984 0 0 0 0 
2404500000.0000000000 0.169933214783668490310830634371 0.020331500098109248769739920704 0.001480788225308061079737997900 -0.002001340035349131064174033057 0 0 0 0 
2404666666.6666665077 0.169581785798072787185830634371 0.018326537683606151235560233204 0.001519087818451225974439311450 -0.002034834818914533095118857275 0 0 0 0 
2404833333.3333334923 0.169385701417923001388388115629 0.016441332176327708852747733204 0.001307661412283777973772358472 -0.001923002302646636962890625000 0 0 0 0 
2405000000.0000000000 0.169128686189651489257812500000 0.014435783028602600097656250000 0.001354258041828870990155864185 -0.002059336984530090852024697412 0 0 0 0 
2405166666.6666665077 0.169093221426010104080361884371 0.012470395304262639826764491602 0.001306652207858860926387167822 -0.002241140697151422934291220557 0 0 0 0 
2405333333.3333334923 0.169062867760658291915731865629 0.010386536829173570115059099805 0.001164023415185510895372700269 -0.002178097609430551962611533057 0 0 0 0 
2405500000.0000000000 0.168945029377937289138955634371 0.008493557572364807128906250000 0.001273447764106095054029155200 -0.002347417641431093215942382812 0 0 0 0 
2405666666.6666665077 0.169071033596992492675781250000 0.006428358145058155059814453125 0.001037712674587965011596679688 -0.002299822866916656927821493994 0 0 0 0 
2405833333.3333334923 0.169131055474281311035156250000 0.004444928839802742004394531250 0.000921194732654839754104614258 -0.002344486303627490997314453125 0 0 0 0 
2406000000.0000000000 0.169524863362312289138955634371 0.002269718330353498892543173682 0.000857212115079164505004882812 -0.002465597121044992966892861475 0 0 0 0 
2406166666.6666665077 0.169598028063774108886718750000 0.000362057238817215020030421124 0.000730901316273957490921020508 -0.002245024777948855920078896631 0 0 0 0 
2406333333.3333334923 0.170215219259262112716513115629 -0.001651195576414465904235839844 0.000736447982490062713623046875 -0.002451027510687708854675292969 0 0 0 0 
2406500000.0000000000 0.170614019036293002029580634371 -0.003675140906125307083129882812 0.000690687564201653003692626953 -0.002504232339560985998866415869 0 0 0 0 
2406666666.6666665077 0.170821607112884493728799384371 -0.005535410717129707336425781250 0.000678552081808447837829589844 -0.002403525169938803152797079932 0 0 0 0 
2406833333.3333334923 0.171439930796623202224893134371 -0.007628938648849725723266601562 0.000470151455374434590339660645 -0.002553991973400115966796875000 0 0 0 0 
2407000000.0000000000 0.172174870967864990234375000000 -0.009661078453063964843750000000 0.000480594724649563377529698505 -0.002633659867569804191589355469 0 0 0 0 
2407166666.6666665077 0.173013508319854708572549384371 -0.011420889757573609787910662305 0.000447597791207954287528991699 -0.002443235600367188887355185400 0 0 0 0 
2407333333.3333334923 0.173519447445869501311932481258 -0.013315419666469100606898123829 0.000323692336678504889637547626 -0.002637102734297513961791992188 0 0 0 0 
2407500000.0000000000 0.174272626638412503341513115629 -0.015064230188727380579938319727 0.000267745868768543004989624023 -0.002483583288267254829406738281 0 0 0 0 
2407666666.6666665077 0.175104543566703796386718750000 -0.016818402335047718393346016796 0.000119619624456390697829662184 -0.002652554074302316145655966650 0 0 0 0 
2407833333.3333334923 0.175701439380645807464276231258 -0.018598901107907298696497733204 0.000105786064523272202767510686 -0.002599114552140235900878906250 0 0 0 0 
2408000000.0000000000 0.176571667194366510589276231258 -0.020299600437283519399622733204 -0.000035597400710685178637504578 -0.002541316905990242958068847656 0 0 0 0 
2408166666.6666665077 0.177646130323410006424111884371 -0.022121107205748561513880545704 -0.000498434761539101600646972656 -0.002901963191106915907618857275 0 0 0 0 
2408333333.3333334923 0.178086861968040494064169365629 -0.023275913670659068716028983204 -0.000008812466148810926824808121 -0.002557134721428155899047851562 0 0 0 0 
2408500000.0000000000 0.178800448775291387359942518742 -0.024806486442685130727747733204 -0.000345749198459088802337646484 -0.002698526252061129050013876807 0 0 0 0 
2408666666.6666665077 0.179499223828315707107705634371 -0.026050679385662078857421875000 -0.000279836822301149422496241437 -0.002662867540493607954737997900 0 0 0 0 
2408833333.3333334923 0.179980024695396395584268134371 -0.027306789532303810119628906250 -0.000527012103702872991561889648 -0.002635555341839789910557412256 0 0 0 0 
2409000000.0000000000 0.180453419685363797286825615629 -0.028299018740653991699218750000 -0.000542762223631143569946289062 -0.002629368333145976066589355469 0 0 0 0 
2409166666.6666665077 0.180961117148399408538494981258 -0.029429323971271518362025076954 -0.000619244237896054983139038086 -0.002497528912499547004699707031 0 0 0 0 
2409333333.3333334923 0.181391686201095608810263115629 -0.030327988788485530508021170704 -0.000772169849369674921035766602 -0.002489810343831778006312704932 0 0 0 0 
2409500000.0000000000 0.181859776377677889724893134371 -0.031186863780021670949915701954 -0.000838472275063395500183105469 -0.002495854627341032028198242188 0 0 0 0 
2409666666.6666665077 0.182093396782875088790731865629 -0.031752325594425201416015625000 -0.000952960050199180841445922852 -0.002319628605619072914123535156 0 0 0 0 
2409833333.3333334923 0.182370245456695612151776231258 -0.032209198921918869018554687500 -0.001043266616761683984043740381 -0.002270055701956152915954589844 0 0 0 0 
2410000000.0000000000 0.182693257927894592285156250000 -0.032697055488824837421457658593 -0.000937439035624265670776367188 -0.002199851907789707183837890625 0 0 0 0 
2410166666.6666665077 0.182880371809005709549111884371 -0.033153571188449859619140625000 -0.001023671822622417969944619287 -0.002299313433468341827392578125 0 0 0 0 
2410333333.3333334923 0.182954639196395901779013115629 -0.033598080277442932128906250000 -0.001162758679129183075548481519 -0.002295529004186391830444335938 0 0 0 0 
2410500000.0000000000 0.182980716228485107421875000000 -0.033887431025505072856862653907 -0.001180776976980268955230712891 -0.002034310949966311888453818213 0 0 0 0 
2410666666.6666665077 0.183002397418022211272869981258 -0.034308943897485733032226562500 -0.001196280005387962081311870044 -0.002243111375719308853149414062 0 0 0 0 
2410833333.3333334923 0.182886183261871310135049384371 -0.034449294209480292583425153907 -0.001307563856244087002397846753 -0.002047928748652338981628417969 0 0 0 0 
2411000000.0000000000 0.182690784335136413574218750000 -0.034580033272504813457448591407 -0.001353210769593716101405478369 -0.002155268331989645957946777344 0 0 0 0 
2411166666.6666665077 0.182499110698700006683026231258 -0.035049125552177429199218750000 -0.001531304325908422903773642432 -0.001951590529642998955370258862 0 0 0 0 
2411333333.3333334923 0.182083442807197598556356865629 -0.035246513783931732177734375000 -0.001423888956196605942369770581 -0.002109943656250834898707724463 0 0 0 0 
2411500000.0000000000 0.181632652878761291503906250000 -0.035681214183568947528879533593 -0.001591288717463612990138388525 -0.001932382117956876971601176685 0 0 0 0 
2411666666.6666665077 0.181224822998046902755575615629 -0.036044783890247351909597028907 -0.001471259980462491945979452979 -0.001958348089829086823704384912 0 0 0 0 
2411833333.3333334923 0.180400088429450988769531250000 -0.036270312964916229248046875000 -0.001576936687342822985408163916 -0.001736268517561257102368998950 0 0 0 0 
2412000000.0000000000 0.179839268326759310623330634371 -0.036636833101511001586914062500 -0.001785128377377986907958984375 -0.001614028005860745906829833984 0 0 0 0 
2412166666.6666665077 0.178898498415946988204794365629 -0.037086997181177139282226562500 -0.001695315469987690015080117334 -0.001751943374983965916874550928 0 0 0 0 
2412333333.3333334923 0.178189411759376498123330634371 -0.037503179162740707397460937500 -0.001854917034506798007367778247 -0.001599323586560785987256694263 0 0 0 0 
2412500000.0000000000 0.176828637719154413421307481258 -0.037980437278747558593750000000 -0.001930375117808579964878701318 -0.001589717227034270980237651294 0 0 0 0 
2412666666.6666665077 0.175978571176528902908486884371 -0.038683954626321792602539062500 -0.001784003223292530016658163916 -0.001589789404533803896663046729 0 0 0 0 
2412833333.3333334923 0.174899399280548095703125000000 -0.039479445666074752807617187500 -0.001988579053431748910191201318 -0.001554771792143583080889057690 0 0 0 0 
2413000000.0000000000 0.173756688833236694335937500000 -0.040078546851873397827148437500 -0.001988236559554934935328818213 -0.001486270455643535094020224463 0 0 0 0 
2413166666.6666665077 0.172469228506088312347088731258 -0.040932293981313712383229841407 -0.002099325414747000174281454932 -0.001413846854120492935180664062 0 0 0 0 
2413333333.3333334923 0.171018421649932889083700615629 -0.041784461587667472148854841407 -0.002254251390695571899414062500 -0.001288339262828231074689555591 0 0 0 0 
2413500000.0000000000 0.169965088367462213714276231258 -0.042659919708967208862304687500 -0.002280010608956218199488974463 -0.001332652755081654028651572119 0 0 0 0 
2413666666.6666665077 0.168580427765846307952557481258 -0.043740849941968917846679687500 -0.002369301859289408163783408057 -0.001240011304616928100585937500 0 0 0 0 
2413833333.3333334923 0.167296186089515713790731865629 -0.044806014746427542949636091407 -0.002544600516557693915126181494 -0.001152811106294393973109579932 0 0 0 0 
2414000000.0000000000 0.165801808238029507736044365629 -0.046124543994665152812917341407 -0.002328713657334446907043457031 -0.000986682716757059097290039062 0 0 0 0 
2414166666.6666665077 0.164852797985076904296875000000 -0.047359384596347808837890625000 -0.002474229317158461050746298682 -0.000794644351117312908172607422 0 0 0 0 
2414333333.3333334923 0.163401454687118502517861884371 -0.048793405294418341899831403907 -0.002535773208364843888523720850 -0.000743219279684126377105712891 0 0 0 0 
2414500000.0000000000 0.162328913807869013030682481258 -0.050056692212820053100585937500 -0.002522319089621305899379111182 -0.000629903224762529134750366211 0 0 0 0 
2414666666.6666665077 0.161039441823959406097088731258 -0.051546059548854827880859375000 -0.002536317333579062981846474756 -0.000459023343864828402369898663 0 0 0 0 
2414833333.3333334923 0.159834057092666598220986884371 -0.053141321986913681030273437500 -0.002466620877385139899012900244 -0.000315617420710623318522852765 0 0 0 0 
2415000000.0000000000 0.158696994185447692871093750000 -0.054722972214221947406809221093 -0.002596085192635654969456338037 -0.000304431392578408122062683105 0 0 0 0 
2415166666.6666665077 0.157686248421669006347656250000 -0.056471824645996086811106096093 -0.002418023301288485960719443213 -0.000241869682213291498735704965 0 0 0 0 
2415333333.3333334923 0.156886547803878811935263115629 -0.058270137757062911987304687500 -0.002464410150423645973205566406 -0.000070923342718742787837982178 0 0 0 0 
2415500000.0000000000 0.156031966209411593338174384371 -0.060035068541765213012695312500 -0.002301708096638321876525878906 0.000010795235539262650365931358 0 0 0 0 
2415666666.6666665077 0.155245721340179387848223768742 -0.061950553208589546894113908593 -0.002206899691373109817504882812 0.000153751447214745012208661490 0 0 0 0 
2415833333.3333334923 0.154593631625175503829794365629 -0.063980296254158020019531250000 -0.002150431042537093162536621094 0.000268300354946404695510864258 0 0 0 0 
2416000000.0000000000 0.153786152601242093185263115629 -0.065874792635440826416015625000 -0.002190307248383760885951376807 0.000327050685882568413585108624 0 0 0 0 
2416166666.6666665077 0.153422668576240511795205634371 -0.067810788750648498535156250000 -0.002030532341450452804565429688 0.000371668109437450820773524152 0 0 0 0 
2416333333.3333334923 0.152816712856292696853799384371 -0.069734990596771240234375000000 -0.001936437096446752981898642432 0.000318156555294990485340672626 0 0 0 0 
2416500000.0000000000 0.152354776859283502776776231258 -0.071889296174049377441406250000 -0.001994116697460412979125976562 0.000326737441355362480312901630 0 0 0 0 
2416666666.6666665077 0.152026295661926297286825615629 -0.073709502816200256347656250000 -0.001906847930513321919682168115 0.000392628106055781299441737042 0 0 0 0 
2416833333.3333334923 0.151789620518684387207031250000 -0.075856477022171020507812500000 -0.001884273719042540030238486182 0.000561081687919795513153076172 0 0 0 0 
2417000000.0000000000 0.151304736733436612228231865629 -0.077695697546005249023437500000 -0.001775604439899324937107705225 0.000487934506963938474655151367 0 0 0 0 
2417166666.6666665077 0.151158615946769686599893134371 -0.079522937536239624023437500000 -0.001553570851683617071864462744 0.000609153823461383581161499023 0 0 0 0 
2417333333.3333334923 0.151138693094253512283486884371 -0.081304498016834259033203125000 -0.001732881413772702000261616284 0.000503272807691246271133422852 0 0 0 0 
2417500000.0000000000 0.150996282696723910232705634371 -0.083111025393009185791015625000 -0.001659587607719003937364887769 0.000500487745739519596099853516 0 0 0 0 
2417666666.6666665077 0.151052534580230712890625000000 -0.084681890904903411865234375000 -0.001602450618520379066467285156 0.000385151070076972300380152570 0 0 0 0 
2417833333.3333334923 0.150978177785873413085937500000 -0.086297355592250823974609375000 -0.001631385181099175973179482568 0.000589887902606278657913208008 0 0 0 0 
2418000000.0000000000 0.151103764772415188888388115629 -0.087804310023784637451171875000 -0.001580351265147327943089150537 0.000481038616271689479977208270 0 0 0 0 
2418166666.6666665077 0.151185035705566406250000000000 -0.089110508561134338378906250000 -0.001630518585443496920941996997 0.000366801454219967126846313477 0 0 0 0 
2418333333.3333334923 0.151535555720329312423544365629 -0.090534284710884094238281250000 -0.001654652412980794906616210938 0.000508499506395310163497924805 0 0 0 0 
2418500000.0000000000 0.151621595025062588790731865629 -0.091693907976150512695312500000 -0.001652540522627532915828085791 0.000419119809521362185478210449 0 0 0 0 
2418666666.6666665077 0.151842981576919611175213731258 -0.092770852148532867431640625000 -0.001701857312582433006883930737 0.000545565562788397073745727539 0 0 0 0 
2418833333.3333334923 0.152099087834358187576455634371 -0.093650080263614654541015625000 -0.001748986192978918986079550635 0.000371916365111246705055236816 0 0 0 0 
2419000000.0000000000 0.152199417352676391601562500000 -0.094447396695613861083984375000 -0.001702515524812042930005717700 0.000510590558405965566635131836 0 0 0 0 
2419166666.6666665077 0.152497917413711603362713731258 -0.095247350633144378662109375000 -0.001815623370930552916285849463 0.000600742292590439319610595703 0 0 0 0 
2419333333.3333334923 0.152620345354080200195312500000 -0.095600679516792297363281250000 -0.001820260775275527997257851709 0.000600883038714528083801269531 0 0 0 0 
2419500000.0000000000 0.152947127819061307052450615629 -0.096290424466133117675781250000 -0.001880703610368072986602783203 0.000921298866160213947296142578 0 0 0 0 
2419666666.6666665077 0.153222084045410211761151231258 -0.096651606261730194091796875000 -0.001803994644433259963989257812 0.001054112450219691016553569263 0 0 0 0 
2419833333.3333334923 0.153263419866561889648437500000 -0.096735313534736633300781250000 -0.001851346576586365916608500903 0.001086180796846746964695595850 0 0 0 0 
