# Version 1.00
#
freq[Hz];re:Trc1_S11;im:Trc1_S11;re:Trc2_S21;im:Trc2_S21;
2.400000000000000E+009;1.585206389427185E-001;6.277830898761749E-002;3.691439749673009E-003;3.189973358530551E-004;
2.400166666666667E+009;1.584893167018890E-001;6.115584447979927E-002;3.729332238435745E-003;1.849822874646634E-004;
2.400333333333334E+009;1.582001447677612E-001;5.941736325621605E-002;3.602173645049334E-003;2.563125744927675E-004;
2.400500000000000E+009;1.581787168979645E-001;5.763777345418930E-002;3.544261213392019E-003;1.014759691315703E-004;
2.400666666666667E+009;1.581060737371445E-001;5.549002438783646E-002;3.440859727561474E-003;-2.249449789815117E-005;
2.400833333333334E+009;1.582605391740799E-001;5.368026718497276E-002;3.371147206053138E-003;-1.667037868173793E-004;
2.401000000000000E+009;1.582095026969910E-001;5.163916945457459E-002;3.580527380108833E-003;-2.767941914498806E-004;
2.401166666666667E+009;1.582295000553131E-001;4.960850626230240E-002;3.391590667888522E-003;-2.484740107320249E-004;
2.401333333333334E+009;1.583626121282578E-001;4.755823314189911E-002;3.393984632566571E-003;-3.589833213482052E-004;
2.401500000000000E+009;1.588467508554459E-001;4.554793983697891E-002;3.126674797385931E-003;-4.478627815842629E-004;
2.401666666666667E+009;1.589533090591431E-001;4.370772838592529E-002;3.316636197268963E-003;-4.402278282213956E-004;
2.401833333333334E+009;1.593826413154602E-001;4.171854257583618E-002;3.241299185901880E-003;-5.234449636191130E-004;
2.402000000000000E+009;1.594647914171219E-001;3.950081020593643E-002;3.190116956830025E-003;-4.895774181932211E-004;
2.402166666666667E+009;1.599453240633011E-001;3.740449994802475E-002;3.093857783824205E-003;-5.192254320718348E-004;
2.402333333333334E+009;1.605670154094696E-001;3.569009155035019E-002;3.090085228905082E-003;-6.545882788486779E-004;
2.402500000000000E+009;1.611360162496567E-001;3.380865603685379E-002;3.097540233284235E-003;-6.981948390603066E-004;
2.402666666666667E+009;1.618706136941910E-001;3.191592916846275E-002;3.095680382102728E-003;-7.008985267020762E-004;
2.402833333333334E+009;1.626077741384506E-001;3.042679093778133E-002;2.920598722994328E-003;-6.407235050573945E-004;
2.403000000000000E+009;1.633602082729340E-001;2.871687710285187E-002;2.898694248870015E-003;-8.255164138972759E-004;
2.403166666666667E+009;1.640779972076416E-001;2.704023942351341E-002;2.949596382677555E-003;-7.239204715006053E-004;
2.403333333333334E+009;1.650099605321884E-001;2.568042650818825E-002;2.981599420309067E-003;-6.901549058966339E-004;
2.403500000000000E+009;1.658629626035690E-001;2.408357523381710E-002;2.858167514204979E-003;-8.158867130987346E-004;
2.403666666666667E+009;1.669279038906097E-001;2.256438322365284E-002;3.036832902580500E-003;-8.307956159114838E-004;
2.403833333333334E+009;1.678876578807831E-001;2.121548354625702E-002;2.804740797728300E-003;-9.131156839430332E-004;
2.404000000000000E+009;1.688122004270554E-001;2.003902941942215E-002;2.994794398546219E-003;-7.982309907674789E-004;
2.404166666666667E+009;1.697923094034195E-001;1.871599443256855E-002;2.808973425999284E-003;-8.694772259332240E-004;
2.404333333333334E+009;1.708450466394424E-001;1.800870522856712E-002;2.975811017677188E-003;-8.732166606932879E-004;
2.404500000000000E+009;1.716516613960266E-001;1.681768521666527E-002;3.153090365231037E-003;-9.131630649790168E-004;
2.404666666666667E+009;1.727529019117355E-001;1.596029475331307E-002;3.041707212105393E-003;-8.664450724609196E-004;
2.404833333333334E+009;1.735426783561707E-001;1.512288860976696E-002;3.044651122763753E-003;-1.189913717098534E-003;
2.405000000000000E+009;1.744960397481918E-001;1.420935615897179E-002;3.001673147082329E-003;-1.216139877215028E-003;
2.405166666666667E+009;1.753897219896317E-001;1.354300044476986E-002;3.075430169701576E-003;-1.187313348054886E-003;
2.405333333333334E+009;1.762101948261261E-001;1.271856389939785E-002;3.216274548321962E-003;-1.317971386015415E-003;
2.405500000000000E+009;1.770085543394089E-001;1.232168078422546E-002;3.230599919334054E-003;-1.504092593677342E-003;
2.405666666666667E+009;1.777646690607071E-001;1.192623563110828E-002;3.270284738391638E-003;-1.524170162156224E-003;
2.405833333333334E+009;1.783069819211960E-001;1.136284600943327E-002;3.306563245132566E-003;-1.617222907952964E-003;
2.406000000000000E+009;1.790634393692017E-001;1.087237149477005E-002;3.324314719066024E-003;-1.792343100532889E-003;
2.406166666666667E+009;1.795292347669601E-001;1.072646211832762E-002;3.150351578369737E-003;-1.663428614847362E-003;
2.406333333333334E+009;1.800297647714615E-001;1.026940345764160E-002;3.048651618883014E-003;-1.963287824764848E-003;
2.406500000000000E+009;1.803850680589676E-001;9.953894652426243E-003;3.115563653409481E-003;-1.950691919773817E-003;
2.406666666666667E+009;1.805097460746765E-001;9.623399004340172E-003;3.060347633436322E-003;-2.112346002832055E-003;
2.406833333333334E+009;1.807710230350494E-001;9.091888554394245E-003;2.953172894194722E-003;-2.232851693406701E-003;
2.407000000000000E+009;1.811074018478394E-001;8.729348890483379E-003;2.890738425776362E-003;-2.352759009227157E-003;
2.407166666666667E+009;1.812217682600021E-001;8.686897344887257E-003;2.994725015014410E-003;-2.389646368101239E-003;
2.407333333333334E+009;1.809997558593750E-001;8.111716248095036E-003;3.018375718966126E-003;-2.495250198990107E-003;
2.407500000000000E+009;1.810149699449539E-001;7.776243612170219E-003;2.971988171339035E-003;-2.488680649548769E-003;
2.407666666666667E+009;1.808294057846069E-001;7.264787331223488E-003;2.941516926512122E-003;-2.637825906276703E-003;
2.407833333333334E+009;1.804473549127579E-001;6.616861559450626E-003;2.909222850576043E-003;-2.825580071657896E-003;
2.408000000000000E+009;1.801571398973465E-001;5.985792260617018E-003;3.027890110388398E-003;-2.852331381291151E-003;
2.408166666666667E+009;1.798607259988785E-001;5.573875736445189E-003;2.922820392996073E-003;-2.976010786369443E-003;
2.408333333333334E+009;1.795255392789841E-001;4.736675880849361E-003;2.938159042969346E-003;-3.032419597730041E-003;
2.408500000000000E+009;1.790230721235275E-001;3.962684888392687E-003;2.743771066889167E-003;-3.241490572690964E-003;
2.408666666666667E+009;1.784999966621399E-001;3.211943432688713E-003;2.846364397555590E-003;-3.289104904979467E-003;
2.408833333333334E+009;1.776905357837677E-001;2.127718878909946E-003;2.776056993752718E-003;-3.330728504806757E-003;
2.409000000000000E+009;1.771175861358643E-001;1.246658968739212E-003;2.580270403996110E-003;-3.565836464986205E-003;
2.409166666666667E+009;1.765589714050293E-001;-1.836158116930164E-005;2.522613620385528E-003;-3.486369969323278E-003;
2.409333333333334E+009;1.759847402572632E-001;-1.225781976245344E-003;2.458828501403332E-003;-3.818849334493280E-003;
2.409500000000000E+009;1.751265078783035E-001;-2.441726857796311E-003;2.488838741555810E-003;-3.830090397968888E-003;
2.409666666666667E+009;1.743562370538712E-001;-3.699760651215911E-003;2.469476545229554E-003;-4.072146490216255E-003;
2.409833333333334E+009;1.737622171640396E-001;-4.943266510963440E-003;2.324131317436695E-003;-4.055486060678959E-003;
2.410000000000000E+009;1.731074750423431E-001;-6.483059376478195E-003;2.147292485460639E-003;-4.352884832769632E-003;
2.410166666666667E+009;1.723270267248154E-001;-7.978965528309345E-003;2.104440936818719E-003;-4.247548524290323E-003;
2.410333333333334E+009;1.717819422483444E-001;-9.630819782614708E-003;2.030166797339916E-003;-4.573090467602015E-003;
2.410500000000000E+009;1.712145209312439E-001;-1.125400979071856E-002;1.968645956367254E-003;-4.773885477334261E-003;
2.410666666666667E+009;1.705352365970612E-001;-1.327598094940186E-002;1.768507296219468E-003;-4.972298163920641E-003;
2.410833333333334E+009;1.700838953256607E-001;-1.491372380405664E-002;1.643651397898793E-003;-5.090932361781597E-003;
2.411000000000000E+009;1.696012020111084E-001;-1.660333946347237E-002;1.421698019839823E-003;-5.176146049052477E-003;
2.411166666666667E+009;1.692292094230652E-001;-1.854500733315945E-002;1.267898711375892E-003;-5.445457994937897E-003;
2.411333333333334E+009;1.688377857208252E-001;-2.051446400582790E-002;1.016843831166625E-003;-5.478038918226957E-003;
2.411500000000000E+009;1.686120331287384E-001;-2.239486202597618E-002;9.211371070705354E-004;-5.426094401627779E-003;
2.411666666666667E+009;1.685655117034912E-001;-2.428524941205978E-002;6.228312267921865E-004;-5.648473277688026E-003;
2.411833333333334E+009;1.683351993560791E-001;-2.613877132534981E-002;3.397414693608880E-004;-5.585477221757174E-003;
2.412000000000000E+009;1.683038771152496E-001;-2.816063165664673E-002;1.598314411239699E-004;-5.679680500179529E-003;
2.412166666666667E+009;1.682577431201935E-001;-3.016264177858830E-002;-1.048737540259026E-004;-5.812831688672304E-003;
2.412333333333334E+009;1.685161292552948E-001;-3.188055753707886E-002;-2.339340135222301E-004;-5.787448957562447E-003;
2.412500000000000E+009;1.685912609100342E-001;-3.371392562985420E-002;-6.280903471633792E-004;-5.903507117182016E-003;
2.412666666666667E+009;1.688847690820694E-001;-3.579149395227432E-002;-8.117451798170805E-004;-5.898057948797941E-003;
2.412833333333334E+009;1.692753285169601E-001;-3.756631538271904E-002;-1.189888571389020E-003;-5.801965482532978E-003;
2.413000000000000E+009;1.693543195724487E-001;-3.941728547215462E-002;-1.571335596963763E-003;-5.852458532899618E-003;
2.413166666666667E+009;1.698151230812073E-001;-4.103536531329155E-002;-1.612405059859157E-003;-5.633538588881493E-003;
2.413333333333334E+009;1.701623499393463E-001;-4.287780448794365E-002;-1.872193417511880E-003;-5.674475803971291E-003;
2.413500000000000E+009;1.706801205873489E-001;-4.451158270239830E-002;-2.124336548149586E-003;-5.510277580469847E-003;
2.413666666666667E+009;1.712345778942108E-001;-4.635122418403626E-002;-2.388330874964595E-003;-5.502860527485609E-003;
2.413833333333334E+009;1.715699881315231E-001;-4.766279458999634E-002;-2.788592828437686E-003;-5.422246176749468E-003;
2.414000000000000E+009;1.720474362373352E-001;-4.915080964565277E-002;-2.841232577338815E-003;-5.222857929766178E-003;
2.414166666666667E+009;1.727412492036820E-001;-5.047568306326866E-002;-3.112876089289784E-003;-5.167312454432249E-003;
2.414333333333334E+009;1.732501983642578E-001;-5.166160315275192E-002;-3.222635481506586E-003;-5.072931759059429E-003;
2.414500000000000E+009;1.739215254783630E-001;-5.281820148229599E-002;-3.443898865953088E-003;-4.948262125253677E-003;
2.414666666666667E+009;1.743384897708893E-001;-5.381269007921219E-002;-3.686891635879874E-003;-4.546999465674162E-003;
2.414833333333334E+009;1.746982187032700E-001;-5.484056100249291E-002;-3.831329988315702E-003;-4.547327756881714E-003;
2.415000000000000E+009;1.752640455961227E-001;-5.579484626650810E-002;-3.901908872649074E-003;-4.334451630711556E-003;
2.415166666666667E+009;1.755281984806061E-001;-5.662834271788597E-002;-4.122055135667324E-003;-4.043691791594029E-003;
2.415333333333334E+009;1.760187000036240E-001;-5.741555988788605E-002;-4.305525217205286E-003;-3.971654456108809E-003;
2.415500000000000E+009;1.765730530023575E-001;-5.806943029165268E-002;-4.415413830429316E-003;-3.718578722327948E-003;
2.415666666666667E+009;1.766165047883987E-001;-5.854193866252899E-002;-4.487639758735895E-003;-3.619970753788948E-003;
2.415833333333334E+009;1.769810318946838E-001;-5.912590771913528E-002;-4.603296518325806E-003;-3.274074057117105E-003;
2.416000000000000E+009;1.769440323114395E-001;-5.957364663481712E-002;-4.675122443586588E-003;-3.005028469488025E-003;
2.416166666666667E+009;1.773666739463806E-001;-5.998742580413818E-002;-4.791028331965208E-003;-2.829113043844700E-003;
2.416333333333334E+009;1.772534549236298E-001;-6.028652191162109E-002;-4.862124100327492E-003;-2.738344948738813E-003;
2.416500000000000E+009;1.771494299173355E-001;-6.063495203852654E-002;-5.084159318357706E-003;-2.635577926412225E-003;
2.416666666666667E+009;1.770304441452026E-001;-6.092352420091629E-002;-5.178519524633884E-003;-2.363043604418635E-003;
2.416833333333334E+009;1.769069433212280E-001;-6.131012365221977E-002;-5.150371696799994E-003;-2.271687844768167E-003;
2.417000000000000E+009;1.764757186174393E-001;-6.150864437222481E-002;-5.086100194603205E-003;-1.975101884454489E-003;
2.417166666666667E+009;1.760572642087936E-001;-6.156618148088455E-002;-5.135360173881054E-003;-1.848958199843764E-003;
2.417333333333334E+009;1.756962835788727E-001;-6.192312762141228E-002;-5.135833751410246E-003;-1.605711760930717E-003;
2.417500000000000E+009;1.751467436552048E-001;-6.216318532824516E-002;-5.163039546459913E-003;-1.481202896684408E-003;
2.417666666666667E+009;1.744814664125443E-001;-6.220442429184914E-002;-5.226028617471457E-003;-1.183133688755333E-003;
2.417833333333334E+009;1.737147122621536E-001;-6.250088661909103E-002;-5.168339703232050E-003;-1.121325069107115E-003;
2.418000000000000E+009;1.728521585464478E-001;-6.304381042718887E-002;-5.197953432798386E-003;-1.067566103301942E-003;
2.418166666666667E+009;1.720250397920609E-001;-6.320061534643173E-002;-5.034404341131449E-003;-8.742882055230439E-004;
2.418333333333334E+009;1.713096648454666E-001;-6.360866129398346E-002;-5.151732824742794E-003;-5.852248286828399E-004;
2.418500000000000E+009;1.702452898025513E-001;-6.385163217782974E-002;-5.020684562623501E-003;-5.116548854857683E-004;
2.418666666666667E+009;1.693639159202576E-001;-6.444285809993744E-002;-5.000208038836718E-003;-3.519911842886359E-004;
2.418833333333334E+009;1.679843068122864E-001;-6.500121951103210E-002;-4.910099785774946E-003;-2.505955635569990E-004;
2.419000000000000E+009;1.667397469282150E-001;-6.550253182649612E-002;-4.966401029378176E-003;-1.790045498637483E-004;
2.419166666666667E+009;1.658608466386795E-001;-6.612356752157211E-002;-4.954178351908922E-003;-4.899515988654457E-005;
2.419333333333334E+009;1.643019914627075E-001;-6.655851751565933E-002;-4.947235342115164E-003;-9.730523015605286E-005;
2.419500000000000E+009;1.634643673896790E-001;-6.766728311777115E-002;-4.863222129642963E-003;1.710268115857616E-004;
2.419666666666667E+009;1.622544825077057E-001;-6.843355298042297E-002;-4.925913643091917E-003;2.811992017086595E-004;
2.419833333333334E+009;1.610536873340607E-001;-6.927845627069473E-002;-4.795141518115997E-003;3.886641934514046E-004;
2.420000000000000E+009;1.599272489547730E-001;-7.053243368864059E-002;-4.881961736828089E-003;6.107620429247618E-004;
2.420166666666667E+009;1.587451398372650E-001;-7.142902165651321E-002;-4.806970246136189E-003;4.998010117560625E-004;
2.420333333333334E+009;1.577916294336319E-001;-7.265632599592209E-002;-4.986972082406282E-003;5.601348238997161E-004;
2.420500000000000E+009;1.565969139337540E-001;-7.376117259263992E-002;-4.924272187054157E-003;8.198689320124686E-004;
2.420666666666667E+009;1.557791978120804E-001;-7.492858171463013E-002;-4.914710298180580E-003;9.888255735859275E-004;
2.420833333333334E+009;1.549039334058762E-001;-7.640863955020905E-002;-4.922431893646717E-003;1.044074306264520E-003;
2.421000000000000E+009;1.538362652063370E-001;-7.787945121526718E-002;-4.894725978374481E-003;1.201370381750166E-003;
2.421166666666667E+009;1.530440449714661E-001;-7.920259237289429E-002;-4.896939732134342E-003;1.275457208976150E-003;
2.421333333333334E+009;1.525458097457886E-001;-8.089379966259003E-002;-5.009989719837904E-003;1.362143782898784E-003;
2.421500000000000E+009;1.517706960439682E-001;-8.241771161556244E-002;-4.845806863158941E-003;1.650076359510422E-003;
2.421666666666667E+009;1.512719392776489E-001;-8.410554379224777E-002;-4.947592038661242E-003;1.818555174395442E-003;
2.421833333333334E+009;1.507088840007782E-001;-8.569291979074478E-002;-4.938615951687098E-003;1.921353163197637E-003;
2.422000000000000E+009;1.502319276332855E-001;-8.732546865940094E-002;-4.896683618426323E-003;2.301817294210196E-003;
2.422166666666667E+009;1.499303877353668E-001;-8.919703960418701E-002;-4.758776165544987E-003;2.404341008514166E-003;
2.422333333333334E+009;1.497651785612106E-001;-9.076388180255890E-002;-4.884837195277214E-003;2.631563227623701E-003;
2.422500000000000E+009;1.495233625173569E-001;-9.231796860694885E-002;-4.774719476699829E-003;2.834305865690112E-003;
2.422666666666667E+009;1.492619961500168E-001;-9.415194392204285E-002;-4.890141077339649E-003;2.969108987599611E-003;
2.422833333333334E+009;1.494481116533279E-001;-9.600210189819336E-002;-4.717255942523480E-003;3.254583338275552E-003;
2.423000000000000E+009;1.495344191789627E-001;-9.752219915390015E-002;-4.508090671151876E-003;3.367133438587189E-003;
2.423166666666667E+009;1.498472541570664E-001;-9.910491853952408E-002;-4.476394969969988E-003;3.790180664509535E-003;
2.423333333333334E+009;1.499836295843124E-001;-1.006810888648033E-001;-4.459056071937084E-003;3.861690638586879E-003;
2.423500000000000E+009;1.503646224737167E-001;-1.024321019649506E-001;-4.047904163599014E-003;4.112964030355215E-003;
2.423666666666667E+009;1.505012363195419E-001;-1.039457991719246E-001;-3.988534212112427E-003;4.325962625443935E-003;
2.423833333333334E+009;1.511130630970001E-001;-1.054201200604439E-001;-3.590150503441691E-003;4.550848621875048E-003;
2.424000000000000E+009;1.511857211589813E-001;-1.065767481923103E-001;-3.517795586958528E-003;4.733571317046881E-003;
2.424166666666667E+009;1.517860293388367E-001;-1.080063134431839E-001;-3.108708187937737E-003;4.852897953242064E-003;
2.424333333333334E+009;1.522835046052933E-001;-1.091600582003593E-001;-3.062388859689236E-003;4.894985817372799E-003;
2.424500000000000E+009;1.525962948799133E-001;-1.104686185717583E-001;-2.815917832776904E-003;5.062507931143045E-003;
2.424666666666667E+009;1.533494144678116E-001;-1.114772334694862E-001;-2.524173585698009E-003;5.249032750725746E-003;
2.424833333333334E+009;1.535816639661789E-001;-1.125153228640556E-001;-2.370296744629741E-003;5.349976476281881E-003;
2.425000000000000E+009;1.541468203067780E-001;-1.134849116206169E-001;-1.974982907995582E-003;5.424281116575003E-003;
2.425166666666667E+009;1.543733328580856E-001;-1.144326627254486E-001;-1.844049664214253E-003;5.387919489294291E-003;
2.425333333333334E+009;1.548359841108322E-001;-1.151819601655006E-001;-1.583709381520748E-003;5.501138512045145E-003;
2.425500000000000E+009;1.552868932485580E-001;-1.159281134605408E-001;-1.395714702084661E-003;5.553400609642267E-003;
2.425666666666667E+009;1.553762704133987E-001;-1.165930703282356E-001;-9.755771025083959E-004;5.547483451664448E-003;
2.425833333333334E+009;1.558127701282501E-001;-1.171561852097511E-001;-8.258717134594917E-004;5.423414055258036E-003;
2.426000000000000E+009;1.558479666709900E-001;-1.176757887005806E-001;-5.324110970832408E-004;5.527540575712919E-003;
2.426166666666667E+009;1.562583148479462E-001;-1.181767284870148E-001;-2.892021730076522E-004;5.360754672437906E-003;
2.426333333333334E+009;1.561763286590576E-001;-1.185147166252136E-001;-1.009779443847947E-004;5.187778268009424E-003;
2.426500000000000E+009;1.562505066394806E-001;-1.186749860644341E-001;1.638454268686473E-004;5.119265522807837E-003;
2.426666666666667E+009;1.562932282686234E-001;-1.188660636544228E-001;3.130440309178084E-004;5.142644047737122E-003;
2.426833333333334E+009;1.560968756675720E-001;-1.190866678953171E-001;4.771717940457165E-004;4.928626585751772E-003;
2.427000000000000E+009;1.557354032993317E-001;-1.193168014287949E-001;7.347786449827254E-004;4.983355291187763E-003;
2.427166666666667E+009;1.554232090711594E-001;-1.193730607628822E-001;8.315119775943458E-004;4.816021770238876E-003;
2.427333333333334E+009;1.549017131328583E-001;-1.194588840007782E-001;1.073512132279575E-003;4.790547769516707E-003;
2.427500000000000E+009;1.544625312089920E-001;-1.196106448769569E-001;9.935541311278939E-004;4.584687761962414E-003;
2.427666666666667E+009;1.537484079599381E-001;-1.197502762079239E-001;1.163222594186664E-003;4.503874573856592E-003;
