# Version 1.00
#
freq[Hz];re:Trc1_S11;im:Trc1_S11;re:Trc2_S21;im:Trc2_S21;
2.400000000000000E+009;1.586338132619858E-001;6.270951032638550E-002;3.747526323422790E-003;5.134225939400494E-004;
2.400166666666667E+009;1.585332453250885E-001;6.126374378800392E-002;3.581471042707562E-003;1.956399064511061E-004;
2.400333333333334E+009;1.581591367721558E-001;5.929117649793625E-002;3.499035723507404E-003;1.217644094140269E-004;
2.400500000000000E+009;1.582001745700836E-001;5.751592665910721E-002;3.572498913854361E-003;1.674252125667408E-004;
2.400666666666667E+009;1.580764204263687E-001;5.562058091163635E-002;3.379631787538528E-003;4.980053290637443E-006;
2.400833333333334E+009;1.582483351230621E-001;5.378580093383789E-002;3.532904433086515E-003;-8.934498328017071E-005;
2.401000000000000E+009;1.580104529857636E-001;5.173723027110100E-002;3.409032244235277E-003;-3.134661237709224E-004;
2.401166666666667E+009;1.582644283771515E-001;4.964528232812882E-002;3.261934034526348E-003;-2.156218688469380E-004;
2.401333333333334E+009;1.583645790815353E-001;4.765359312295914E-002;3.308832412585616E-003;-3.931687970180064E-004;
2.401500000000000E+009;1.587300300598145E-001;4.555569216609001E-002;3.186445450410247E-003;-4.291493387427181E-004;
2.401666666666667E+009;1.588394641876221E-001;4.359549656510353E-002;3.238599514588714E-003;-3.255866176914424E-004;
2.401833333333334E+009;1.593646109104157E-001;4.148403555154800E-002;3.051653970032930E-003;-4.276911495253444E-004;
2.402000000000000E+009;1.595954447984695E-001;3.960876166820526E-002;3.085969481617212E-003;-6.216655019670725E-004;
2.402166666666667E+009;1.599593311548233E-001;3.753284737467766E-002;3.132923971861601E-003;-6.554430001415312E-004;
2.402333333333334E+009;1.605407744646072E-001;3.562899678945541E-002;3.151598386466503E-003;-5.337228649295867E-004;
2.402500000000000E+009;1.612504124641419E-001;3.389211371541023E-002;2.891273936256766E-003;-7.557167555205524E-004;
2.402666666666667E+009;1.618819236755371E-001;3.190933167934418E-002;3.108922159299254E-003;-6.527085788547993E-004;
2.402833333333334E+009;1.626096516847611E-001;3.038717061281204E-002;2.843854017555714E-003;-7.768467767164111E-004;
2.403000000000000E+009;1.634021103382111E-001;2.852253802120686E-002;2.938209101557732E-003;-5.926392623223364E-004;
2.403166666666667E+009;1.641111671924591E-001;2.695410326123238E-002;2.872191602364183E-003;-6.626530084758997E-004;
2.403333333333334E+009;1.652096509933472E-001;2.547446452081204E-002;2.905149478465319E-003;-6.885125767439604E-004;
2.403500000000000E+009;1.658308058977127E-001;2.417782880365849E-002;2.871346892789006E-003;-8.369689458049834E-004;
2.403666666666667E+009;1.669615358114243E-001;2.247301675379276E-002;2.773079788312316E-003;-9.258965146727860E-004;
2.403833333333334E+009;1.678480356931686E-001;2.137694880366325E-002;2.844301983714104E-003;-8.638550643809140E-004;
2.404000000000000E+009;1.688860207796097E-001;2.016345970332623E-002;3.057208377867937E-003;-9.572322596795857E-004;
2.404166666666667E+009;1.697943508625031E-001;1.897600479424000E-002;3.009283915162087E-003;-9.830073686316609E-004;
2.404333333333334E+009;1.709005683660507E-001;1.790798269212246E-002;2.863903064280748E-003;-9.424543823115528E-004;
2.404500000000000E+009;1.715798228979111E-001;1.685258746147156E-002;2.964700339362025E-003;-9.511648677289486E-004;
2.404666666666667E+009;1.727060824632645E-001;1.605736650526524E-002;3.066622419282794E-003;-1.091098645702004E-003;
2.404833333333334E+009;1.735970377922058E-001;1.509802509099245E-002;3.014592919498682E-003;-1.186877838335931E-003;
2.405000000000000E+009;1.745644509792328E-001;1.414392795413733E-002;2.946759108453989E-003;-1.248639076948166E-003;
2.405166666666667E+009;1.755309402942658E-001;1.355707366019487E-002;2.995482413098216E-003;-1.271750312298536E-003;
2.405333333333334E+009;1.764678508043289E-001;1.282455679029226E-002;3.189083188772202E-003;-1.310303690843284E-003;
2.405500000000000E+009;1.772021949291229E-001;1.247371081262827E-002;3.131952602416277E-003;-1.184918219223619E-003;
2.405666666666667E+009;1.779356300830841E-001;1.178497169166803E-002;3.103208495303989E-003;-1.394794555380940E-003;
2.405833333333334E+009;1.784350723028183E-001;1.152700092643499E-002;3.146646544337273E-003;-1.663624309003353E-003;
2.406000000000000E+009;1.791957020759583E-001;1.093846559524536E-002;3.132720012217760E-003;-1.497366116382182E-003;
2.406166666666667E+009;1.795464009046555E-001;1.067540142685175E-002;3.120268229395151E-003;-1.583296107128263E-003;
2.406333333333334E+009;1.802191287279129E-001;1.022894494235516E-002;3.079971065744758E-003;-1.776298042386770E-003;
2.406500000000000E+009;1.805129647254944E-001;9.818417020142078E-003;3.031994914636016E-003;-2.016679383814335E-003;
2.406666666666667E+009;1.806074529886246E-001;9.506109170615673E-003;3.181360196322203E-003;-1.958723412826657E-003;
2.406833333333334E+009;1.809653788805008E-001;9.120655246078968E-003;3.047520294785500E-003;-2.046787645667791E-003;
2.407000000000000E+009;1.811976581811905E-001;8.737290278077126E-003;3.131997771561146E-003;-2.110618166625500E-003;
2.407166666666667E+009;1.812130659818649E-001;8.418587036430836E-003;2.934620250016451E-003;-2.308590337634087E-003;
2.407333333333334E+009;1.811103522777557E-001;7.928931154310703E-003;2.885952824726701E-003;-2.417664742097259E-003;
2.407500000000000E+009;1.810589581727982E-001;7.607949897646904E-003;2.965315710753202E-003;-2.496697707101703E-003;
2.407666666666667E+009;1.808500885963440E-001;7.260489743202925E-003;3.041880205273628E-003;-2.551866229623556E-003;
2.407833333333334E+009;1.805307120084763E-001;6.693886592984200E-003;3.120944835245609E-003;-2.695605391636491E-003;
2.408000000000000E+009;1.802346408367157E-001;5.986690055578947E-003;2.910444047302008E-003;-2.870615571737289E-003;
2.408166666666667E+009;1.798210889101028E-001;5.524382926523686E-003;2.747591352090240E-003;-2.846235642209649E-003;
2.408333333333334E+009;1.795751601457596E-001;4.791049286723137E-003;2.733839908614755E-003;-3.171115880832076E-003;
2.408500000000000E+009;1.790923327207565E-001;3.932084422558546E-003;2.714768517762423E-003;-3.185677574947476E-003;
2.408666666666667E+009;1.785108149051666E-001;3.029492683708668E-003;2.807343611493707E-003;-3.159549087285996E-003;
2.408833333333334E+009;1.776402443647385E-001;2.138200914487243E-003;2.771721221506596E-003;-3.437911625951529E-003;
2.409000000000000E+009;1.771531850099564E-001;1.274610986001790E-003;2.711693989112973E-003;-3.381425281986594E-003;
2.409166666666667E+009;1.763944625854492E-001;1.154046549345367E-004;2.589712617918849E-003;-3.647217061370611E-003;
2.409333333333334E+009;1.759666651487351E-001;-1.094301696866751E-003;2.640410559251905E-003;-3.808421548455954E-003;
2.409500000000000E+009;1.751478910446167E-001;-2.350096357986331E-003;2.508652862161398E-003;-3.859566058963537E-003;
2.409666666666667E+009;1.743435412645340E-001;-3.606566460803151E-003;2.268761163577437E-003;-3.999800421297550E-003;
2.409833333333334E+009;1.737118959426880E-001;-5.025352351367474E-003;2.381442580372095E-003;-4.118005279451609E-003;
2.410000000000000E+009;1.729531139135361E-001;-6.371317431330681E-003;2.212130930274725E-003;-4.253961145877838E-003;
2.410166666666667E+009;1.725005805492401E-001;-7.937838323414326E-003;2.131845103576779E-003;-4.349825903773308E-003;
2.410333333333334E+009;1.717589348554611E-001;-9.590194560587406E-003;1.927961944602430E-003;-4.476164001971483E-003;
2.410500000000000E+009;1.711753010749817E-001;-1.119037717580795E-002;1.862767501734197E-003;-4.806546960026026E-003;
2.410666666666667E+009;1.705607771873474E-001;-1.312327850610018E-002;1.774774049408734E-003;-4.823417402803898E-003;
2.410833333333334E+009;1.702307760715485E-001;-1.487548649311066E-002;1.707173418253660E-003;-5.087044090032578E-003;
2.411000000000000E+009;1.697352081537247E-001;-1.663105562329292E-002;1.476922188885510E-003;-5.102802533656359E-003;
2.411166666666667E+009;1.693775951862335E-001;-1.861850544810295E-002;1.204532571136951E-003;-5.359221249818802E-003;
2.411333333333334E+009;1.689573377370834E-001;-2.033953368663788E-002;9.896941483020783E-004;-5.484823137521744E-003;
2.411500000000000E+009;1.686020791530609E-001;-2.236637286841869E-002;8.677972364239395E-004;-5.560067947953939E-003;
2.411666666666667E+009;1.685780584812164E-001;-2.423729375004768E-002;5.575364921241999E-004;-5.599434953182936E-003;
2.411833333333334E+009;1.684100031852722E-001;-2.616034634411335E-002;4.576384380925447E-004;-5.606424063444138E-003;
2.412000000000000E+009;1.684140712022781E-001;-2.807012014091015E-002;1.604074059287086E-004;-5.665718112140894E-003;
2.412166666666667E+009;1.683481931686401E-001;-3.023069351911545E-002;-1.601937692612410E-004;-5.655822809785605E-003;
2.412333333333334E+009;1.686151772737503E-001;-3.203507885336876E-002;-3.666158590931445E-004;-5.655929911881685E-003;
2.412500000000000E+009;1.686658561229706E-001;-3.390052169561386E-002;-6.108854431658983E-004;-5.926909856498241E-003;
2.412666666666667E+009;1.688885539770126E-001;-3.594662249088287E-002;-8.784344536252320E-004;-5.841612815856934E-003;
2.412833333333334E+009;1.691433787345886E-001;-3.777189925312996E-002;-1.130240038037300E-003;-5.786080379039049E-003;
2.413000000000000E+009;1.695713698863983E-001;-3.944627195596695E-002;-1.390681136399508E-003;-5.907712969928980E-003;
2.413166666666667E+009;1.699711680412293E-001;-4.134805127978325E-002;-1.682570902630687E-003;-5.792042240500450E-003;
2.413333333333334E+009;1.702522486448288E-001;-4.291608184576035E-002;-1.940036076121032E-003;-5.748975090682507E-003;
2.413500000000000E+009;1.707001775503159E-001;-4.464190453290939E-002;-2.161541720852256E-003;-5.733975674957037E-003;
2.413666666666667E+009;1.712445169687271E-001;-4.625750705599785E-002;-2.338964492082596E-003;-5.522652063518763E-003;
2.413833333333334E+009;1.715913712978363E-001;-4.760932177305222E-002;-2.770293038338423E-003;-5.293331108987331E-003;
2.414000000000000E+009;1.720686107873917E-001;-4.913423210382462E-002;-2.893929835408926E-003;-5.280191544443369E-003;
2.414166666666667E+009;1.727009713649750E-001;-5.038483440876007E-002;-2.953990595415235E-003;-4.990851972252131E-003;
2.414333333333334E+009;1.733172535896301E-001;-5.190239846706390E-002;-3.219367004930973E-003;-5.111659411340952E-003;
2.414500000000000E+009;1.739611774682999E-001;-5.285448580980301E-002;-3.636544570326805E-003;-4.800413269549608E-003;
2.414666666666667E+009;1.743390858173370E-001;-5.379774793982506E-002;-3.830102970823646E-003;-4.592751152813435E-003;
2.414833333333334E+009;1.748038381338120E-001;-5.491373687982559E-002;-3.883293131366372E-003;-4.380811005830765E-003;
2.415000000000000E+009;1.751353442668915E-001;-5.584735050797463E-002;-4.001130815595388E-003;-4.327277652919292E-003;
2.415166666666667E+009;1.756518781185150E-001;-5.668935552239418E-002;-4.088947083801031E-003;-4.088695626705885E-003;
2.415333333333334E+009;1.761570870876312E-001;-5.746832489967346E-002;-4.296016413718462E-003;-4.077016841620207E-003;
2.415500000000000E+009;1.765034794807434E-001;-5.805309861898422E-002;-4.425270948559046E-003;-3.765868954360485E-003;
2.415666666666667E+009;1.768499463796616E-001;-5.851173773407936E-002;-4.620718304067850E-003;-3.398685948923230E-003;
2.415833333333334E+009;1.770915240049362E-001;-5.929247662425041E-002;-4.733325913548470E-003;-3.420572262257338E-003;
2.416000000000000E+009;1.769642680883408E-001;-5.969240143895149E-002;-4.821945913136005E-003;-3.171961754560471E-003;
2.416166666666667E+009;1.773871779441834E-001;-6.004605814814568E-002;-4.837757442146540E-003;-2.973713912069798E-003;
2.416333333333334E+009;1.773339956998825E-001;-6.027577072381973E-002;-4.971154499799013E-003;-2.803550567477942E-003;
2.416500000000000E+009;1.773033887147903E-001;-6.065511330962181E-002;-4.993685986846685E-003;-2.528843469917774E-003;
2.416666666666667E+009;1.770870983600617E-001;-6.092586368322372E-002;-4.999017808586359E-003;-2.448727376759052E-003;
2.416833333333334E+009;1.769359111785889E-001;-6.125745177268982E-002;-4.900739993900061E-003;-1.973456004634500E-003;
2.417000000000000E+009;1.764556169509888E-001;-6.152220815420151E-002;-5.029701162129641E-003;-1.866709557361901E-003;
2.417166666666667E+009;1.761328577995300E-001;-6.154485791921616E-002;-5.123747512698174E-003;-1.809018664062023E-003;
2.417333333333334E+009;1.757168918848038E-001;-6.187681481242180E-002;-5.039004608988762E-003;-1.482774037867785E-003;
2.417500000000000E+009;1.750212460756302E-001;-6.221033632755280E-002;-5.129541736096144E-003;-1.500395243056119E-003;
2.417666666666667E+009;1.745024472475052E-001;-6.226067617535591E-002;-5.019673611968756E-003;-1.290841610170901E-003;
2.417833333333334E+009;1.738407015800476E-001;-6.258681416511536E-002;-5.183883942663670E-003;-1.050445600412786E-003;
2.418000000000000E+009;1.729286313056946E-001;-6.294364482164383E-002;-5.074667744338512E-003;-8.434938499704003E-004;
2.418166666666667E+009;1.720079630613327E-001;-6.312919408082962E-002;-4.979355726391077E-003;-8.554631494916976E-004;
2.418333333333334E+009;1.713842600584030E-001;-6.360790878534317E-002;-5.018413066864014E-003;-6.256622727960348E-004;
2.418500000000000E+009;1.703136265277863E-001;-6.389356404542923E-002;-4.905627109110355E-003;-5.808175774291158E-004;
2.418666666666667E+009;1.693090200424194E-001;-6.453382968902588E-002;-4.967276938259602E-003;-3.058351285289973E-004;
2.418833333333334E+009;1.680352985858917E-001;-6.486778706312180E-002;-4.946813452988863E-003;-1.898105983855203E-004;
2.419000000000000E+009;1.667141914367676E-001;-6.543277204036713E-002;-4.945002961903811E-003;-5.470340329338796E-005;
2.419166666666667E+009;1.657105982303619E-001;-6.616000086069107E-002;-5.014262162148953E-003;-1.739091821946204E-004;
2.419333333333334E+009;1.644126623868942E-001;-6.670073419809341E-002;-4.947128240019083E-003;1.923975469253492E-005;
2.419500000000000E+009;1.633708775043488E-001;-6.757375597953796E-002;-4.954138305038214E-003;1.340016606263816E-004;
2.419666666666667E+009;1.622189730405808E-001;-6.851640343666077E-002;-4.907458089292049E-003;2.026791771641001E-004;
2.419833333333334E+009;1.609889119863510E-001;-6.926294416189194E-002;-5.014949478209019E-003;2.885889261960983E-004;
2.420000000000000E+009;1.598614752292633E-001;-7.024663686752319E-002;-4.809758160263300E-003;4.615648940671235E-004;
2.420166666666667E+009;1.587830483913422E-001;-7.147683948278427E-002;-4.959303420037031E-003;6.144432118162513E-004;
2.420333333333334E+009;1.577664613723755E-001;-7.255515456199646E-002;-4.828764125704765E-003;5.880522076040506E-004;
2.420500000000000E+009;1.569025069475174E-001;-7.363333553075790E-002;-4.830897785723209E-003;8.839036454446614E-004;
2.420666666666667E+009;1.557740569114685E-001;-7.474891841411591E-002;-4.992022179067135E-003;9.724181145429611E-004;
2.420833333333334E+009;1.549094915390015E-001;-7.628846913576126E-002;-4.846970550715923E-003;1.042986405082047E-003;
2.421000000000000E+009;1.539220958948135E-001;-7.787841558456421E-002;-5.022085737437010E-003;1.120245666243136E-003;
2.421166666666667E+009;1.533230692148209E-001;-7.924982160329819E-002;-5.080952309072018E-003;1.342621049843729E-003;
2.421333333333334E+009;1.525483131408691E-001;-8.081849664449692E-002;-4.935418721288443E-003;1.614185399375856E-003;
2.421500000000000E+009;1.517964899539948E-001;-8.231452852487564E-002;-5.125711206346750E-003;1.482663676142693E-003;
2.421666666666667E+009;1.512766778469086E-001;-8.409561961889267E-002;-4.992473870515823E-003;1.744863111525774E-003;
2.421833333333334E+009;1.509543359279633E-001;-8.571107685565949E-002;-4.956524819135666E-003;1.944766030646861E-003;
2.422000000000000E+009;1.502442806959152E-001;-8.737720549106598E-002;-4.961396567523480E-003;2.168926876038313E-003;
2.422166666666667E+009;1.500281393527985E-001;-8.924334496259689E-002;-4.968347959220409E-003;2.287481212988496E-003;
2.422333333333334E+009;1.498150527477264E-001;-9.068860113620758E-002;-4.965624306350946E-003;2.632354618981481E-003;
2.422500000000000E+009;1.496586501598358E-001;-9.240676462650299E-002;-4.744061268866062E-003;2.848913660272956E-003;
2.422666666666667E+009;1.495454162359238E-001;-9.425684064626694E-002;-4.641286097466946E-003;3.117769723758102E-003;
2.422833333333334E+009;1.494258642196655E-001;-9.591721743345261E-002;-4.527001641690731E-003;3.285414772108197E-003;
2.423000000000000E+009;1.496497690677643E-001;-9.750962257385254E-002;-4.349051974713802E-003;3.534574527293444E-003;
2.423166666666667E+009;1.498920768499374E-001;-9.928660094738007E-002;-4.524961113929749E-003;3.691961988806725E-003;
2.423333333333334E+009;1.501086056232452E-001;-1.006772220134735E-001;-4.364006221294403E-003;4.009907599538565E-003;
2.423500000000000E+009;1.503258496522903E-001;-1.023984700441361E-001;-4.113919567316771E-003;4.037186503410339E-003;
2.423666666666667E+009;1.503959149122238E-001;-1.040165200829506E-001;-4.018803592771292E-003;4.403496626764536E-003;
2.423833333333334E+009;1.509247720241547E-001;-1.054846346378326E-001;-3.682782873511314E-003;4.487603902816773E-003;
2.424000000000000E+009;1.512870937585831E-001;-1.067922264337540E-001;-3.447619499638677E-003;4.621287342160940E-003;
2.424166666666667E+009;1.516832411289215E-001;-1.080131158232689E-001;-3.267217893153429E-003;4.714277572929859E-003;
2.424333333333334E+009;1.522534191608429E-001;-1.093019247055054E-001;-3.050220897421241E-003;4.975430201739073E-003;
2.424500000000000E+009;1.526907533407211E-001;-1.105500087141991E-001;-2.653599483892322E-003;4.964199382811785E-003;
2.424666666666667E+009;1.533477902412415E-001;-1.114941611886025E-001;-2.538843546062708E-003;5.103307310491800E-003;
2.424833333333334E+009;1.535380035638809E-001;-1.125149950385094E-001;-2.333112526685000E-003;5.303636193275452E-003;
2.425000000000000E+009;1.542056053876877E-001;-1.135678514838219E-001;-1.959146698936820E-003;5.374955944716930E-003;
2.425166666666667E+009;1.542300581932068E-001;-1.144252419471741E-001;-1.693661906756461E-003;5.470313131809235E-003;
2.425333333333334E+009;1.547956615686417E-001;-1.151156872510910E-001;-1.446181791834533E-003;5.527804140001535E-003;
2.425500000000000E+009;1.552283763885498E-001;-1.160318851470947E-001;-1.367333228699863E-003;5.374775268137455E-003;
2.425666666666667E+009;1.553621888160706E-001;-1.166250407695770E-001;-1.050214166752994E-003;5.314236041158438E-003;
2.425833333333334E+009;1.557215452194214E-001;-1.171414032578468E-001;-7.703767623752356E-004;5.404538474977016E-003;
2.426000000000000E+009;1.559580117464066E-001;-1.176101490855217E-001;-4.487248370423913E-004;5.391931626945734E-003;
2.426166666666667E+009;1.562798470258713E-001;-1.181246042251587E-001;-1.373315608361736E-004;5.297360476106405E-003;
2.426333333333334E+009;1.561920791864395E-001;-1.185053363442421E-001;-4.248083860147744E-005;5.272142123430967E-003;
2.426500000000000E+009;1.562625318765640E-001;-1.186214685440064E-001;2.397385833319277E-004;5.238246638327837E-003;
2.426666666666667E+009;1.563486158847809E-001;-1.187596693634987E-001;2.554882375989109E-004;5.199417006224394E-003;
2.426833333333334E+009;1.560616046190262E-001;-1.190322265028954E-001;5.741227651014924E-004;5.037969443947077E-003;
2.427000000000000E+009;1.557779312133789E-001;-1.193377971649170E-001;7.235863595269620E-004;4.819584544748068E-003;
2.427166666666667E+009;1.554402559995651E-001;-1.193383932113648E-001;9.600864141248167E-004;4.730468150228262E-003;
2.427333333333334E+009;1.549396514892578E-001;-1.193648129701614E-001;1.059534144587815E-003;4.776753950864077E-003;
2.427500000000000E+009;1.546044200658798E-001;-1.195378229022026E-001;1.087346114218235E-003;4.416313022375107E-003;
2.427666666666667E+009;1.538833677768707E-001;-1.196437627077103E-001;1.211786991916597E-003;4.488407634198666E-003;
