# Hz S RI R 
2400000000.0000000000 0.167335435748100308517294365629 0.041325777769088752056081403907 0.001963185844942926926853798975 -0.001656872918829322078107524341 0 0 0 0 
2400166666.6666665077 0.168280288577079800704794365629 0.040472600609064102172851562500 0.002029418945312500000000000000 -0.001767538138665259101270366138 0 0 0 0 
2400333333.3333334923 0.168371856212615994552450615629 0.039536483585834503173828125000 0.001977556385099887847900390625 -0.001933255349285901026484824072 0 0 0 0 
2400500000.0000000000 0.169117897748947088043536268742 0.038702297955751419067382812500 0.002045986009761691093444824219 -0.001967433374375104904174804688 0 0 0 0 
2400666666.6666665077 0.169362768530845586578692518742 0.037636011838912956928293596093 0.001958006992936133904698037256 -0.001885212492197751998901367188 0 0 0 0 
2400833333.3333334923 0.169784650206565912444744981258 0.036913543939590447162668596093 0.001911686616949737071990966797 -0.001887924736365675926208496094 0 0 0 0 
2401000000.0000000000 0.170140102505683898925781250000 0.035899337381124503398854841407 0.001905202516354621107216860132 -0.002018919680267571969273232568 0 0 0 0 
2401166666.6666665077 0.170377582311630304534588731258 0.034868009388446807861328125000 0.001912513980641961097717285156 -0.002102182013913989067077636719 0 0 0 0 
2401333333.3333334923 0.170455694198608398437500000000 0.033944245427846908569335937500 0.001846557366661726994755410303 -0.002054453361779450936558388818 0 0 0 0 
2401500000.0000000000 0.170967042446136502364950615629 0.033080436289310462261159528907 0.001876580994576215960858989185 -0.002126122126355766816380166162 0 0 0 0 
2401666666.6666665077 0.170989394187927301604901231258 0.032132029533386230468750000000 0.001692108809947967962977743994 -0.002122605917975306944606161963 0 0 0 0 
2401833333.3333334923 0.171036154031753512283486884371 0.031158551573753360403040701954 0.001753885182552040056941367041 -0.002050090348348021940944052588 0 0 0 0 
2402000000.0000000000 0.170964121818542508224325615629 0.030171733349561691284179687500 0.001929727848619223074672079932 -0.002190105384215712980983115088 0 0 0 0 
2402166666.6666665077 0.171090364456176813323651231258 0.029181869700551029550572579296 0.001817609299905597946764301831 -0.002162175951525568962097167969 0 0 0 0 
2402333333.3333334923 0.171127930283546503265057481258 0.028386788442730900156041329296 0.001643980154767632918116904150 -0.002248270204290748076197958838 0 0 0 0 
2402500000.0000000000 0.171249702572822598556356865629 0.027444912120699879037877266796 0.001693899626843631050707172925 -0.002369854133576155142543173682 0 0 0 0 
2402666666.6666665077 0.171329960227012606521768134371 0.026410764083266261709193045704 0.001754395663738250949262309497 -0.002633452182635664939880371094 0 0 0 0 
2402833333.3333334923 0.171141743659973089020098768742 0.025402067229151729238489920704 0.001584873069077729961992573315 -0.002683478174731134934666298975 0 0 0 0 
2403000000.0000000000 0.171111077070236206054687500000 0.024257801473140720022181326954 0.001751232310198246999027871240 -0.002733523258939384980442666162 0 0 0 0 
2403166666.6666665077 0.171147286891937311370526231258 0.023201437667012221599538435157 0.001616301364265382073046040112 -0.003000000724568963050842285156 0 0 0 0 
2403333333.3333334923 0.171231701970100402832031250000 0.022129539400339130056361014454 0.001576412934809922955156635815 -0.003077933331951498985290527344 0 0 0 0 
2403500000.0000000000 0.170958802103996304611044365629 0.021026762202382091176966483204 0.001413531834259629032732319409 -0.002838842803612350983860634912 0 0 0 0 
2403666666.6666665077 0.170907720923423794845419365629 0.019687676802277568471888358204 0.001336353830993175940272665869 -0.003181967884302138848545693506 0 0 0 0 
2403833333.3333334923 0.170964807271957397460937500000 0.018361544236540790903111641796 0.001206169603392482020734477466 -0.003250986803323030905482626807 0 0 0 0 
2404000000.0000000000 0.171037793159484891036825615629 0.017203973606228828430175781250 0.000893284915946424007415771484 -0.003260503988713026046752929688 0 0 0 0 
2404166666.6666665077 0.170795589685440091232138115629 0.015789972618222240102747733204 0.000714539666660130023956298828 -0.003433982143178582191467285156 0 0 0 0 
2404333333.3333334923 0.170776203274726895431356865629 0.014716783538460729771624180273 0.000838676292914897203445434570 -0.003434709506109356880187988281 0 0 0 0 
2404500000.0000000000 0.170668169856071499923544365629 0.013047163374722000467320626171 0.000634385272860527038574218750 -0.003392749233171343803405761719 0 0 0 0 
2404666666.6666665077 0.170695796608924893478231865629 0.011838337406516080338447771680 0.000475760258268564885288792743 -0.003387057455256580872776650537 0 0 0 0 
2404833333.3333334923 0.170612350106239291092080634371 0.010485029779374599456787109375 0.000274023215752094984054565430 -0.003537350567057729201075888525 0 0 0 0 
2405000000.0000000000 0.170654267072677612304687500000 0.008879992179572582244873046875 0.000169588893186300992965698242 -0.003412926802411675886866904150 0 0 0 0 
2405166666.6666665077 0.170694664120674105545205634371 0.007396094035357236862182617188 0.000028446165742934681475162506 -0.003356629284098743958714150537 0 0 0 0 
2405333333.3333334923 0.170744985342025812347088731258 0.005781453568488360318655683301 -0.000156947266077622798368176871 -0.003624518169090151786804199219 0 0 0 0 
2405500000.0000000000 0.170663625001907404143963731258 0.004429666791111230850219726562 -0.000201685164938680800512590952 -0.003448270028457045988795615088 0 0 0 0 
2405666666.6666665077 0.170637905597686795333700615629 0.002709879307076334953308105469 -0.000449665414635092020034790039 -0.003410635516047478155848837744 0 0 0 0 
2405833333.3333334923 0.170481771230697604080361884371 0.001214515650644897980930947412 -0.000357411568984389305114746094 -0.003292309120297431945800781250 0 0 0 0 
2406000000.0000000000 0.170387566089630099197549384371 -0.000516934727784246206283569336 -0.000604031316470354795455932617 -0.003301366232335567908046103369 0 0 0 0 
2406166666.6666665077 0.170228317379951504806356865629 -0.001755415578372776942012167822 -0.000780398608185350894927978516 -0.003318104194477200941798544775 0 0 0 0 
2406333333.3333334923 0.170301467180252102950888115629 -0.003469119779765605926513671875 -0.000823224545456469058990478516 -0.003066129982471466064453125000 0 0 0 0 
2406500000.0000000000 0.170053705573081997970419365629 -0.005108051467686892423147870801 -0.000778209359850734472274780273 -0.003005436621606349945068359375 0 0 0 0 
2406666666.6666665077 0.169779121875762911697549384371 -0.006492269691079854965209960938 -0.000927423709072172641754150391 -0.002826364012435079054591513525 0 0 0 0 
2406833333.3333334923 0.169716611504554804046307481258 -0.007923352532088756561279296875 -0.000904921267647296190261840820 -0.002701373072341084913966513525 0 0 0 0 
2407000000.0000000000 0.169657275080680902679119981258 -0.009363709017634391784667968750 -0.000756231485866010189056396484 -0.002618108177557588057277060400 0 0 0 0 
2407166666.6666665077 0.169417887926101712325888115629 -0.010800847783684730529785156250 -0.000816026527900248765945434570 -0.002784721087664366202113486182 0 0 0 0 
2407333333.3333334923 0.169155642390251187423544365629 -0.012238501571118829899798008398 -0.000667707819957286119461059570 -0.002487685065716505050659179688 0 0 0 0 
2407500000.0000000000 0.169010907411575289627236884371 -0.013429081067442890512486641796 -0.000756698020268231630325317383 -0.002930696122348308996913290869 0 0 0 0 
2407666666.6666665077 0.168880477547645596603231865629 -0.014574765227735040837298008398 -0.000593603821471333503723144531 -0.002907030284404755072352743994 0 0 0 0 
2407833333.3333334923 0.168551832437515286544638115629 -0.015856321901082989084263985546 -0.000729556370060890913009643555 -0.002989597152918577194213867188 0 0 0 0 
2408000000.0000000000 0.168418526649475097656250000000 -0.016849087551236149179478829296 -0.000828573538456112146377563477 -0.003192153526470065116882324219 0 0 0 0 
2408166666.6666665077 0.168402299284934997558593750000 -0.017698165029287341726282889454 -0.000824294984340667724609375000 -0.003161398461088538169860839844 0 0 0 0 
2408333333.3333334923 0.168383225798606900314169365629 -0.018784042447805411601979841407 -0.001000098651275038936017680591 -0.003379252273589373068568564307 0 0 0 0 
2408500000.0000000000 0.168169975280761690994424384371 -0.019690478220582008361816406250 -0.001223549945279956080793071216 -0.003451379016041756109950400244 0 0 0 0 
2408666666.6666665077 0.168291598558425903320312500000 -0.020581742748618129384974295704 -0.001465711975470185063005756909 -0.003496310673654079003574990381 0 0 0 0 
2408833333.3333334923 0.168234720826148986816406250000 -0.021353704854846000671386718750 -0.001719676423817873001098632812 -0.003552794223651289939880371094 0 0 0 0 
2409000000.0000000000 0.168348535895347595214843750000 -0.022242458537220958364466483204 -0.002073914743959904150721884619 -0.003329287748783826828002929688 0 0 0 0 
2409166666.6666665077 0.168584510684013394454794365629 -0.023290792480111118661900704296 -0.002193985041230916976928710938 -0.003413623664528131918666220557 0 0 0 0 
2409333333.3333334923 0.168716236948967007736044365629 -0.024093532934784889221191406250 -0.002501511247828602790832519531 -0.003212462179362773895263671875 0 0 0 0 
2409500000.0000000000 0.168701678514480590820312500000 -0.025006407871842380868931954296 -0.002515521598979831175563193213 -0.003104700241237878799438476562 0 0 0 0 
2409666666.6666665077 0.168847292661666897872763115629 -0.025843026116490360605260079296 -0.002648586174473166899440146338 -0.002993618370965123176574707031 0 0 0 0 
2409833333.3333334923 0.168714851140976007659588731258 -0.026688944548368450510045235546 -0.003033131128177047209498740088 -0.002767222467809915976283408057 0 0 0 0 
2410000000.0000000000 0.168997630476951599121093750000 -0.027683308348059650766392891796 -0.003050057683140039010288857568 -0.002647458808496593995335244287 0 0 0 0 
2410166666.6666665077 0.169041559100151089767294365629 -0.028553053736686710012415701954 -0.003233213210478425025939941406 -0.002476449124515057043788290869 0 0 0 0 
2410333333.3333334923 0.169036611914634704589843750000 -0.029354920610785480844517891796 -0.003259849501773715019226074219 -0.002232172293588519096374511719 0 0 0 0 
2410500000.0000000000 0.168997302651405306717080634371 -0.030453590676188468933105468750 -0.003340665949508548216578818213 -0.001931207254528998894932412256 0 0 0 0 
2410666666.6666665077 0.168839901685714693924111884371 -0.031351532787084579467773437500 -0.003314734669402242140529013525 -0.001747086644172669107552553491 0 0 0 0 
2410833333.3333334923 0.168791949748992892166299384371 -0.032330162823200232768972028907 -0.003283015917986630959751748193 -0.001672608894295990900752402197 0 0 0 0 
2411000000.0000000000 0.168532982468605013748330634371 -0.033184312283992767333984375000 -0.003273049835115671157836914062 -0.001456533093005418994306254810 0 0 0 0 
2411166666.6666665077 0.168388128280639703948651231258 -0.034092426300048828125000000000 -0.003264794358983635902404785156 -0.001258491189219057993647910010 0 0 0 0 
2411333333.3333334923 0.168254137039184598068075615629 -0.034888930618762969970703125000 -0.003112724982202053070068359375 -0.001099309069104493098018027197 0 0 0 0 
2411500000.0000000000 0.167976990342140197753906250000 -0.035884983837604522705078125000 -0.003013334469869732856750488281 -0.000857531209476292133331298828 0 0 0 0 
2411666666.6666665077 0.167856305837631197830361884371 -0.036713700741529471660573591407 -0.003040429670363665060756064307 -0.000728752871509641408920288086 0 0 0 0 
2411833333.3333334923 0.167500883340835599044638115629 -0.037627846002578742290456403907 -0.002885873662307858900782919775 -0.000758906069677323102951049805 0 0 0 0 
2412000000.0000000000 0.167393386363983209808026231258 -0.038735851645469672466237653907 -0.002810228848829865889308310400 -0.000706668884959071874618530273 0 0 0 0 
2412166666.6666665077 0.167010590434074401855468750000 -0.039606798440217971801757812500 -0.002772878156974912123439169775 -0.000831336248666048049926757812 0 0 0 0 
2412333333.3333334923 0.167070358991622897049111884371 -0.040468294173479080200195312500 -0.002763252938166261152980185400 -0.000873993849381804466247558594 0 0 0 0 
2412500000.0000000000 0.166394472122192410568075615629 -0.041446551680564880371093750000 -0.002637801226228476004359579932 -0.000651295995339751243591308594 0 0 0 0 
2412666666.6666665077 0.166155010461807306487713731258 -0.042689952999353408813476562500 -0.002755809808149933815002441406 -0.000836609629914164543151855469 0 0 0 0 
2412833333.3333334923 0.165786534547805786132812500000 -0.043485719710588462139089216407 -0.002704018726944922967198037256 -0.000882439955603331327438354492 0 0 0 0 
2413000000.0000000000 0.165467143058776910979901231258 -0.044754922389984130859375000000 -0.002655258169397712187526083838 -0.000906616332940757274627685547 0 0 0 0 
2413166666.6666665077 0.164831191301345797439736884371 -0.045631423592567436908762346093 -0.002826015697792171998264931787 -0.000759652582928538322448730469 0 0 0 0 
2413333333.3333334923 0.164375066757202203948651231258 -0.046654783189296722412109375000 -0.002961425343528389930725097656 -0.000828183023259043693542480469 0 0 0 0 
2413500000.0000000000 0.164012551307678194900674384371 -0.047620765864849090576171875000 -0.003072980558499693870544433594 -0.000728169165086001157760620117 0 0 0 0 
2413666666.6666665077 0.163659974932670593261718750000 -0.048740979284048080444335937500 -0.003162358654662967161891318213 -0.000655607669614255428314208984 0 0 0 0 
2413833333.3333334923 0.163153067231178311446981865629 -0.049596998840570449829101562500 -0.003218154888600111007690429688 -0.000574765668716281652450561523 0 0 0 0 
2414000000.0000000000 0.162692263722419711013955634371 -0.050833236426115042949636091407 -0.003341163741424680189845419775 -0.000537584302946925163269042969 0 0 0 0 
2414166666.6666665077 0.162531897425651605804119981258 -0.051637839525938027118723283593 -0.003120288252830504937412881006 -0.000449274317361414378315526141 0 0 0 0 
2414333333.3333334923 0.161931395530700711349325615629 -0.052620511502027511596679687500 -0.003394622355699539184570312500 -0.000385402498068288022845667706 0 0 0 0 
2414500000.0000000000 0.161879345774650601486044365629 -0.053694304078817367553710937500 -0.003356057219207286834716796875 -0.000169356935657560798242846078 0 0 0 0 
2414666666.6666665077 0.161493048071861294845419365629 -0.054580181837081909179687500000 -0.003484263317659496827366494287 -0.000180191782419569790363311768 0 0 0 0 
2414833333.3333334923 0.161259129643440302093182481258 -0.055525206029415130615234375000 -0.003359476104378699822666787256 0.000033979060390265658497810364 0 0 0 0 
2415000000.0000000000 0.160948693752288790603799384371 -0.056671328842639923095703125000 -0.003525566309690475897548056494 0.000064691841544117778539657593 0 0 0 0 
2415166666.6666665077 0.160632461309433011154013115629 -0.057725921273231513286550153907 -0.003495743963867425918579101562 0.000054220639867708086967468262 0 0 0 0 
2415333333.3333334923 0.160778969526290893554687500000 -0.058971334248781197284738908593 -0.003593927714973688125610351562 0.000346052780514582991600036621 0 0 0 0 
2415500000.0000000000 0.160429731011390713790731865629 -0.059872962534427642822265625000 -0.003573834430426359176635742188 0.000392396003007888793945312500 0 0 0 0 
2415666666.6666665077 0.160331040620803805252236884371 -0.061141639947891242290456403907 -0.003570053726434708075282431494 0.000467086443677544593811035156 0 0 0 0 
2415833333.3333334923 0.160219341516494806487713731258 -0.062276668846607208251953125000 -0.003689439967274665832519531250 0.000617991492617875337600708008 0 0 0 0 
2416000000.0000000000 0.159898921847343389313067518742 -0.063567958772182464599609375000 -0.003719443688169122175929404150 0.000675435934681445360183715820 0 0 0 0 
2416166666.6666665077 0.159906521439552307128906250000 -0.064613051712512969970703125000 -0.003816141514107584953308105469 0.000920138612855225801467895508 0 0 0 0 
2416333333.3333334923 0.159643262624740600585937500000 -0.065827697515487670898437500000 -0.003959292080253362655639648438 0.001181047642603517012355185400 0 0 0 0 
2416500000.0000000000 0.159439459443092401702557481258 -0.067025870084762573242187500000 -0.003970106597989797592163085938 0.001351472223177552006365131909 0 0 0 0 
2416666666.6666665077 0.159115940332412691970986884371 -0.068233557045459747314453125000 -0.003789059817790985107421875000 0.001651640632189810059191059644 0 0 0 0 
2416833333.3333334923 0.158820539712905911544638115629 -0.069331608712673187255859375000 -0.003872129600495100021362304688 0.001744424924254416985752724756 0 0 0 0 
2417000000.0000000000 0.158195093274116488357705634371 -0.070482432842254638671875000000 -0.003654255298897624015808105469 0.001970993354916573004481650244 0 0 0 0 
2417166666.6666665077 0.157928332686424310882244981258 -0.071349836885929107666015625000 -0.003569407388567924933192587744 0.002240695757791399955749511719 0 0 0 0 
2417333333.3333334923 0.157806754112243707854901231258 -0.072307214140892028808593750000 -0.003486346686258912086486816406 0.002596756909042596817016601562 0 0 0 0 
2417500000.0000000000 0.157310336828231811523437500000 -0.073497332632541656494140625000 -0.003163374727591872215270996094 0.002640610560774803161621093750 0 0 0 0 
2417666666.6666665077 0.157053604722023010253906250000 -0.074260003864765167236328125000 -0.003121101530268787904026650537 0.002900072373449801965000771631 0 0 0 0 
2417833333.3333334923 0.156836926937103299239950615629 -0.075101412832736968994140625000 -0.002833239035680890083312988281 0.002954370109364389939549111475 0 0 0 0 
2418000000.0000000000 0.156272247433662386795205634371 -0.076055422425270080566406250000 -0.002715455833822488784790039062 0.003095079446211456818821572412 0 0 0 0 
2418166666.6666665077 0.156102836132049588302450615629 -0.076721072196960449218750000000 -0.002559704706072806878330849756 0.003224628046154975891113281250 0 0 0 0 
2418333333.3333334923 0.156104952096939086914062500000 -0.077498435974121093750000000000 -0.002269053598865867094752646338 0.003273405600339173836949013818 0 0 0 0 
2418500000.0000000000 0.155619248747825594803018134371 -0.078204438090324401855468750000 -0.002055753720924257798435830225 0.003226311411708592934849404443 0 0 0 0 
2418666666.6666665077 0.155457913875579806228799384371 -0.079055570065975189208984375000 -0.001711251912638545036315917969 0.003398678265511990027186728369 0 0 0 0 
2418833333.3333334923 0.155028209090232904632244981258 -0.079840600490570068359375000000 -0.001503911335021256966831826318 0.003298400435596704916713095557 0 0 0 0 
2419000000.0000000000 0.154520004987716702560263115629 -0.080534294247627258300781250000 -0.001372557831928133964538574219 0.003125971416011453108546591650 0 0 0 0 
2419166666.6666665077 0.154485866427421597579794365629 -0.081192873418331146240234375000 -0.001301079057157040076014853369 0.003136405022814869880676269531 0 0 0 0 
2419333333.3333334923 0.154036328196525601486044365629 -0.081742376089096069335937500000 -0.000824789167381823062896728516 0.002976207528263330893275595557 0 0 0 0 
2419500000.0000000000 0.153720349073410006424111884371 -0.082556344568729400634765625000 -0.000831430195830762386322021484 0.002848949283361434936523437500 0 0 0 0 
2419666666.6666665077 0.153341785073280306717080634371 -0.083059921860694885253906250000 -0.000792255566921085119247436523 0.002751777181401848793029785156 0 0 0 0 
2419833333.3333334923 0.152966618537902804275674384371 -0.083561733365058898925781250000 -0.000728343613445758819580078125 0.002666750457137823104858398438 0 0 0 0 
