# Hz S RI R 50
2400000000.0000000000 0.167479306459426907638388115629 0.041156135499477393413503278907 0.001939655398018657944322895581 -0.001662102760747075080871582031 0 0 0 0 
2400166666.6666665077 0.168164491653442410568075615629 0.040451161563396446918527971093 0.002040422055870295004603720557 -0.001745576155371963977813720703 0 0 0 0 
2400333333.3333334923 0.168687000870704706390057481258 0.039539597928524017333984375000 0.002069214126095176176783896338 -0.001825641142204404094098735278 0 0 0 0 
2400500000.0000000000 0.169093221426010104080361884371 0.038485281169414520263671875000 0.001935294247232377962825156104 -0.001867456245236098983167338794 0 0 0 0 
2400666666.6666665077 0.169428601861000088790731865629 0.037577148526906967163085937500 0.001993986079469323158264160156 -0.001864998368546366908429789966 0 0 0 0 
2400833333.3333334923 0.169724270701408386230468750000 0.036656238138675689697265625000 0.001992030767723917961120605469 -0.001884437515400350093841552734 0 0 0 0 
2401000000.0000000000 0.170103803277015713790731865629 0.035813461989164352416992187500 0.001729335868731141090393066406 -0.002021272201091051101684570312 0 0 0 0 
2401166666.6666665077 0.170247972011566189864950615629 0.034789908677339546894113908593 0.001924790441989898898481059497 -0.001932026119902729988098144531 0 0 0 0 
2401333333.3333334923 0.170401602983474703689736884371 0.033984869718551642681081403907 0.001850992790423334078547812354 -0.002080110367387533187866210938 0 0 0 0 
2401500000.0000000000 0.170913383364677401443643134371 0.032988771796226501464843750000 0.001796398777514695904375385815 -0.002056651515886187987086630713 0 0 0 0 
2401666666.6666665077 0.171003386378288296798544365629 0.032295659184455871582031250000 0.001790314679965377070783305591 -0.002225806470960379080531454932 0 0 0 0 
2401833333.3333334923 0.171178475022316006759481865629 0.031302366405725479125976562500 0.001849577645771204991581582178 -0.002085496671497821807861328125 0 0 0 0 
2402000000.0000000000 0.170934170484542902190838731258 0.030399763956665989267369454296 0.001682683941908180930493998950 -0.002264754148200153870823525537 0 0 0 0 
2402166666.6666665077 0.171205520629882812500000000000 0.029223546385765079153040701954 0.001895822002552449920056987231 -0.002172828419134020805358886719 0 0 0 0 
2402333333.3333334923 0.171203985810279901702557481258 0.028414636850357059133509451954 0.001894556218758225007298134912 -0.002451931592077016830444335938 0 0 0 0 
2402500000.0000000000 0.171391338109970092773437500000 0.027461931109428409231165701954 0.001725412090308964035631489331 -0.002459512790665030913112021338 0 0 0 0 
2402666666.6666665077 0.171335771679878207107705634371 0.026456190273165699350377266796 0.001666954136453568935394287109 -0.002499697497114539146423339844 0 0 0 0 
2402833333.3333334923 0.171485245227813692947549384371 0.025230260565876960754394531250 0.001730033080093563036677695166 -0.002635930432006717161891318213 0 0 0 0 
2403000000.0000000000 0.171215444803237887283486884371 0.024384604766964908945103829296 0.001736624632030725912806845557 -0.002914573065936564965489052881 0 0 0 0 
2403166666.6666665077 0.171244695782661410232705634371 0.023282222449779510498046875000 0.001541290315799414894701313550 -0.002916490891948341889622353662 0 0 0 0 
2403333333.3333334923 0.171192437410354586502236884371 0.022155763581395149230957031250 0.001445044996216892979265522534 -0.002946529071778059005737304688 0 0 0 0 
2403500000.0000000000 0.171003013849258395095986884371 0.021003227680921561504323591407 0.001285738428123295090318989331 -0.003141364315524696870091103662 0 0 0 0 
2403666666.6666665077 0.171062901616096496582031250000 0.019693130627274509775181954296 0.001270290347747504927991557544 -0.003109048353508114814758300781 0 0 0 0 
2403833333.3333334923 0.171043068170547513107138115629 0.018376419320702549325963204296 0.001111086108721792914746928638 -0.003242701059207320213317871094 0 0 0 0 
2404000000.0000000000 0.170892208814620999435263115629 0.017209144309163090097447579296 0.000892521755304187536239624023 -0.003348747733980416817906045068 0 0 0 0 
2404166666.6666665077 0.170706644654273986816406250000 0.015883415937423709524134451954 0.000902740866877138614654541016 -0.003493316005915402932407998193 0 0 0 0 
2404333333.3333334923 0.170729175209999112228231865629 0.014541435986757280177106288477 0.000890860508661717176437377930 -0.003357192035764455795288085938 0 0 0 0 
2404500000.0000000000 0.170640170574188204666299384371 0.013246974907815459859827811329 0.000734802801162004470825195312 -0.003523531835526227951049804688 0 0 0 0 
2404666666.6666665077 0.170660614967346191406250000000 0.011711549945175649470319179102 0.000559121428523212671279907227 -0.003376538632437586784362792969 0 0 0 0 
2404833333.3333334923 0.170590221881866510589276231258 0.010380310937762260437011718750 0.000379183649783954024314880371 -0.003524358151480555968043661963 0 0 0 0 
2405000000.0000000000 0.170586779713630704025106865629 0.008949400857090950012207031250 0.000070781054091639816761016846 -0.003394856583327054977416992188 0 0 0 0 
2405166666.6666665077 0.170554623007774408538494981258 0.007436520885676146420950605176 0.000022476498998003080487251282 -0.003404586575925350189208984375 0 0 0 0 
2405333333.3333334923 0.170657038688659695724325615629 0.005824280902743340405935956738 -0.000037781181163154542446136475 -0.003650834318250418143031454932 0 0 0 0 
2405500000.0000000000 0.170578494668006896972656250000 0.004460823256522417068481445312 -0.000242833266383968293666839600 -0.003568191779777408079860068213 0 0 0 0 
2405666666.6666665077 0.170672729611396789550781250000 0.002733648521825671195983886719 -0.000433439126936718821525573730 -0.003537867916747928099391318213 0 0 0 0 
2405833333.3333334923 0.170464292168617304046307481258 0.001351518789306282997131347656 -0.000420781550928950309753417969 -0.003404552349820733070373535156 0 0 0 0 
2406000000.0000000000 0.170455604791641207595986884371 -0.000455201778095215613215845929 -0.000754434149712324142456054688 -0.003245294792577623887303017725 0 0 0 0 
2406166666.6666665077 0.170314103364944513518963731258 -0.001848133048042654991149902344 -0.000694792368449270725250244141 -0.003167169401422142982482910156 0 0 0 0 
2406333333.3333334923 0.170317053794860812088174384371 -0.003428508061915636062622070312 -0.000967914995271712541580200195 -0.003061982337385416030883789062 0 0 0 0 
2406500000.0000000000 0.170057490468025207519531250000 -0.005098348483443260192871093750 -0.000985846971161663532257080078 -0.003011763095855712890625000000 0 0 0 0 
2406666666.6666665077 0.169730067253112792968750000000 -0.006420997437089681625366210938 -0.000897843856364488601684570312 -0.002945907646790146827697753906 0 0 0 0 
2406833333.3333334923 0.169687971472740201095419365629 -0.008152442052960395812988281250 -0.000876738922670483589172363281 -0.002720709424465895132777548682 0 0 0 0 
2407000000.0000000000 0.169630244374275207519531250000 -0.009624322876334190368652343750 -0.000962206919211894273757934570 -0.002662817249074577851536416162 0 0 0 0 
2407166666.6666665077 0.169436633586883489410723768742 -0.010715955868363380432128906250 -0.000752981344703584909439086914 -0.002588272094726562933680868994 0 0 0 0 
2407333333.3333334923 0.169145151972770690917968750000 -0.012136872857809070241907889454 -0.000714589026756584644317626953 -0.002656616736203432083129882812 0 0 0 0 
2407500000.0000000000 0.168953269720077486892861884371 -0.013385569676756860560407069727 -0.000728034647181630134582519531 -0.002807731507346034049987792969 0 0 0 0 
2407666666.6666665077 0.168813407421112088302450615629 -0.014538079500198360788365548046 -0.000621021958068013191223144531 -0.002914131619036198096034384619 0 0 0 0 
2407833333.3333334923 0.168612480163574190994424384371 -0.015758449211716648447056954296 -0.000686960702296346426010131836 -0.003000743687152862982508993994 0 0 0 0 
2408000000.0000000000 0.168498158454894991775674384371 -0.016940752044320109975794608204 -0.000722583848983049392700195312 -0.003202656982466578917262411963 0 0 0 0 
2408166666.6666665077 0.168333098292350796798544365629 -0.017713766545057300222376639454 -0.000895948382094502449035644531 -0.003164263674989343123195029150 0 0 0 0 
2408333333.3333334923 0.168390244245529202560263115629 -0.018618838861584659921666329296 -0.001113158301450311920763325269 -0.003379460191354155974147177588 0 0 0 0 
2408500000.0000000000 0.168324083089828491210937500000 -0.019689826294779780996302420704 -0.001223726780153810977935791016 -0.003569267457351088957545615088 0 0 0 0 
2408666666.6666665077 0.168485581874847412109375000000 -0.020548833534121509897252266796 -0.001530859037302434010746621240 -0.003575352951884270148036337744 0 0 0 0 
2408833333.3333334923 0.168296143412589999099893134371 -0.021458685398101810110071951954 -0.001859805779531598091125488281 -0.003459746018052101135253906250 0 0 0 0 
2409000000.0000000000 0.168329939246177701095419365629 -0.022300364449620250356653983204 -0.002022152533754705949070595850 -0.003425298025831580162048339844 0 0 0 0 
2409166666.6666665077 0.168497756123542813400106865629 -0.023199517279863361013392264454 -0.002297732280567287965061806787 -0.003336577676236629919764853369 0 0 0 0 
2409333333.3333334923 0.168560281395912198165731865629 -0.024019053205847740173339843750 -0.002357487333938478989842080225 -0.003316340735182166099548339844 0 0 0 0 
2409500000.0000000000 0.168656095862388610839843750000 -0.025138467550277709960937500000 -0.002606743248179554939270019531 -0.003166616894304751916172646631 0 0 0 0 
2409666666.6666665077 0.168846994638442993164062500000 -0.026030614972114559518834298046 -0.002873991383239626884460449219 -0.002926224842667580084559775244 0 0 0 0 
2409833333.3333334923 0.168846279382705688476562500000 -0.026777794584631919860839843750 -0.003042079042643309073207236182 -0.002794962609186768965480185400 0 0 0 0 
2410000000.0000000000 0.169059142470359802246093750000 -0.027538873255252841604212576954 -0.002974224742501974105834960938 -0.002610285067930818037745810400 0 0 0 0 
2410166666.6666665077 0.169003218412399291992187500000 -0.028418339788913730276087576954 -0.003287830390036106109619140625 -0.002377651166170835928675986182 0 0 0 0 
2410333333.3333334923 0.168847277760505704025106865629 -0.029556069523096091533620466407 -0.003244975116103887991664267432 -0.002163700759410858154296875000 0 0 0 0 
2410500000.0000000000 0.168889954686164911468182481258 -0.030367316678166389465332031250 -0.003334222827106713814976357568 -0.002007932402193545861485146631 0 0 0 0 
2410666666.6666665077 0.168846279382705688476562500000 -0.031371440738439559936523437500 -0.003223261097446084022521972656 -0.001828546635806560950038290869 0 0 0 0 
2410833333.3333334923 0.168820664286613492111044365629 -0.032178331166505806659738908593 -0.003357624402269721031188964844 -0.001562991412356496074079204028 0 0 0 0 
2411000000.0000000000 0.168429717421531705001669365629 -0.033122513443231582641601562500 -0.003229917492717504935023642432 -0.001224105362780391953111958081 0 0 0 0 
2411166666.6666665077 0.168321639299392700195312500000 -0.034175109118223190307617187500 -0.003242246108129620985743857275 -0.001368732075206934972050332178 0 0 0 0 
2411333333.3333334923 0.168210968375205993652343750000 -0.034922055900096893310546875000 -0.003139297710731625990626669775 -0.001008200226351618983625102466 0 0 0 0 
2411500000.0000000000 0.167826950550079401214276231258 -0.035875063389539718627929687500 -0.003132581477984786033630371094 -0.000940728117711842060089111328 0 0 0 0 
2411666666.6666665077 0.167937636375427301604901231258 -0.036786016076803207397460937500 -0.002995360875502229170558310400 -0.000824962800834327936172485352 0 0 0 0 
2411833333.3333334923 0.167516976594924899002236884371 -0.037585090845823287963867187500 -0.002844391856342554092407226562 -0.000940088531933724880218505859 0 0 0 0 
2412000000.0000000000 0.167453989386558504959268134371 -0.038710027933120727539062500000 -0.002848078962415457205531454932 -0.000850303214974701404571533203 0 0 0 0 
2412166666.6666665077 0.167052984237670898437500000000 -0.039678964763879782939870466407 -0.002678258111700416044947958838 -0.000761826522648334503173828125 0 0 0 0 
2412333333.3333334923 0.166872516274452209472656250000 -0.040524397045373916625976562500 -0.002797828987240790887119912256 -0.000880570092704147100448608398 0 0 0 0 
2412500000.0000000000 0.166505992412567110916299384371 -0.041333179920911788940429687500 -0.002610896481201053099391318213 -0.000916684628464281558990478516 0 0 0 0 
2412666666.6666665077 0.165964126586914090255575615629 -0.042623098939657211303710937500 -0.002677439944818615913391113281 -0.000737972964998334646224975586 0 0 0 0 
2412833333.3333334923 0.165847420692443903167401231258 -0.043537151068449020385742187500 -0.002809630939736961884739541162 -0.000805886171292513608932495117 0 0 0 0 
2413000000.0000000000 0.165448904037475613693075615629 -0.044557198882102973247487653907 -0.002858246676623820824864052881 -0.000850879820063710212707519531 0 0 0 0 
2413166666.6666665077 0.164896741509437588790731865629 -0.045492246747016906738281250000 -0.002772730542346835136413574219 -0.000925749191083014011383056641 0 0 0 0 
2413333333.3333334923 0.164312660694122286697549384371 -0.046519752591848373413085937500 -0.002741088392212986946105957031 -0.000986331258900463581085205078 0 0 0 0 
2413500000.0000000000 0.163951516151428194900674384371 -0.047644119709730148315429687500 -0.003036245005205274061915732275 -0.000862163549754768610000610352 0 0 0 0 
2413666666.6666665077 0.163691475987434387207031250000 -0.048601366579532623291015625000 -0.003016644157469273047206259619 -0.000730348867364227771759033203 0 0 0 0 
2413833333.3333334923 0.163209840655326787750567518742 -0.049666896462440490722656250000 -0.003105284878984094099757529150 -0.000586319365538656711578369141 0 0 0 0 
2414000000.0000000000 0.162595346570015009124432481258 -0.050750814378261573101003278907 -0.003231145674362779097316122900 -0.000571776065044105052947998047 0 0 0 0 
2414166666.6666665077 0.162326887249946594238281250000 -0.051675759255886077880859375000 -0.003322635078802704811096191406 -0.000389877444831654375225621356 0 0 0 0 
2414333333.3333334923 0.161983579397201510330361884371 -0.052669625729322426532785783593 -0.003370799124240874810459756006 -0.000444788747699931318133753644 0 0 0 0 
2414500000.0000000000 0.161791086196899386306924384371 -0.053636852651834487915039062500 -0.003362332936376332803013466943 -0.000263930676737800186306553973 0 0 0 0 
2414666666.6666665077 0.161539301276206997970419365629 -0.054620459675788879394531250000 -0.003576178802177309989929199219 -0.000268023519311100190311986102 0 0 0 0 
2414833333.3333334923 0.161320194602012606521768134371 -0.055666081607341773296315778907 -0.003501442726701498031616210938 -0.000025533208827255290338789293 0 0 0 0 
2415000000.0000000000 0.161035597324371310135049384371 -0.056573960930109017108957658593 -0.003606514772400259971618652344 -0.000064346204453613609075546265 0 0 0 0 
2415166666.6666665077 0.160746842622757013518963731258 -0.057708740234375000000000000000 -0.003443696070462464852574013818 0.000153931498061865595266065054 0 0 0 0 
2415333333.3333334923 0.160577967762947110275106865629 -0.059028282761573791503906250000 -0.003667136654257773919346474756 0.000285110058030113577842712402 0 0 0 0 
2415500000.0000000000 0.160497754812240600585937500000 -0.060035951435565948486328125000 -0.003472100244835019111633300781 0.000142179822432808605119428091 0 0 0 0 
2415666666.6666665077 0.160356730222701998611611884371 -0.061049211770296096801757812500 -0.003641591174528003172633505713 0.000387858919566497206687927246 0 0 0 0 
2415833333.3333334923 0.160231858491897610763388115629 -0.062300119549036032939870466407 -0.003779806662350893020629882812 0.000610500574111938476562500000 0 0 0 0 
2416000000.0000000000 0.159900188446044894119424384371 -0.063440978527069091796875000000 -0.003708701115101575851440429688 0.000765019329264760017395019531 0 0 0 0 
2416166666.6666665077 0.159875288605690002441406250000 -0.064780607819557189941406250000 -0.003781079081818460984470986475 0.000967952015344053506851196289 0 0 0 0 
2416333333.3333334923 0.159501880407333401779013115629 -0.065943986177444458007812500000 -0.003696047933772205872776650537 0.001147465780377388000488281250 0 0 0 0 
2416500000.0000000000 0.159272611141204806228799384371 -0.067160837352275848388671875000 -0.003904775949195026917698525537 0.001219873898662626960157084888 0 0 0 0 
2416666666.6666665077 0.158978059887886102874432481258 -0.068193890154361724853515625000 -0.003903947072103620009181357275 0.001662679249420762062072753906 0 0 0 0 
2416833333.3333334923 0.158880591392517089843750000000 -0.069362193346023559570312500000 -0.003664340591058135032653808594 0.001837757416069508032557822119 0 0 0 0 
2417000000.0000000000 0.158264547586441012283486884371 -0.070481605827808380126953125000 -0.003665226977318524880650185693 0.002130844863131641907932900537 0 0 0 0 
2417166666.6666665077 0.158045470714569091796875000000 -0.071460664272308349609375000000 -0.003677143948152660889866494287 0.002180366311222314834594726562 0 0 0 0 
2417333333.3333334923 0.157721504569053705413494981258 -0.072356700897216796875000000000 -0.003519073361530900001525878906 0.002419942291453481154200888525 0 0 0 0 
2417500000.0000000000 0.157258242368698092361611884371 -0.073579296469688415527343750000 -0.003335296409204601807835244287 0.002540097106248139901402138818 0 0 0 0 
2417666666.6666665077 0.157158657908439608474893134371 -0.074206650257110595703125000000 -0.003135797334834932847263955225 0.002800569171085954146144247900 0 0 0 0 
2417833333.3333334923 0.156806915998458890060263115629 -0.075024083256721496582031250000 -0.002840334782376884980442666162 0.002875309670343995094299316406 0 0 0 0 
2418000000.0000000000 0.156459078192710904220419365629 -0.076088018715381622314453125000 -0.002756359055638312859776162256 0.003085461910814046859741210938 0 0 0 0 
2418166666.6666665077 0.156167775392532404143963731258 -0.076723441481590270996093750000 -0.002560543129220604896545410156 0.003177181119099258942845009912 0 0 0 0 
2418333333.3333334923 0.156107947230339105804119981258 -0.077549934387207031250000000000 -0.002128329128026961846592568506 0.003289893269538878960850381006 0 0 0 0 
2418500000.0000000000 0.155601099133491488357705634371 -0.078305006027221679687500000000 -0.002058072481304407119750976562 0.003280899720266460938694619287 0 0 0 0 
2418666666.6666665077 0.155482724308967590332031250000 -0.079096116125583648681640625000 -0.001919410424306988932965922778 0.003370998660102487044093466650 0 0 0 0 
2418833333.3333334923 0.155194535851478604415731865629 -0.079655885696411132812500000000 -0.001582475728355347893358540112 0.003303450997918843789341591943 0 0 0 0 
2419000000.0000000000 0.154646068811416598220986884371 -0.080584943294525146484375000000 -0.001328229554928838989855122144 0.003236689604818820953369140625 0 0 0 0 
2419166666.6666665077 0.154527410864829989334268134371 -0.081310771405696868896484375000 -0.001042596762999892017961811597 0.003132001729682087898254394531 0 0 0 0 
2419333333.3333334923 0.154126435518264798263388115629 -0.081710822880268096923828125000 -0.001102650188840925910352397388 0.003026989754289389090297079932 0 0 0 0 
2419500000.0000000000 0.153807699680328396896200615629 -0.082510180771350860595703125000 -0.000932707567699253559112548828 0.002819967688992619948146201025 0 0 0 0 
2419666666.6666665077 0.153488367795944213867187500000 -0.083191387355327606201171875000 -0.000811454025097191333770751953 0.002824210794642568068263388525 0 0 0 0 
2419833333.3333334923 0.152982026338577298263388115629 -0.083637960255146026611328125000 -0.000704332720488309860229492188 0.002729461761191486878636025537 0 0 0 0 
