# Hz S RI R 50
2400000000.0000000000 0.167671546339988708496093750000 0.041132226586341857910156250000 0.003119659377261995835545205225 0.000885836721863597631454467773 0 0 0 0 
2400166666.6666665077 0.168395638465881403167401231258 0.040451887995004646991770158593 0.003172775264829397201538085938 0.000783199735451489686965942383 0 0 0 0 
2400333333.3333334923 0.168868765234947204589843750000 0.039584059268236160278320312500 0.002987678861245512962341308594 0.000467452191514894420474451886 0 0 0 0 
2400500000.0000000000 0.169387191534042386154013115629 0.038711212575435638427734375000 0.002953655319288372993469238281 0.000640142767224460840225219727 0 0 0 0 
2400666666.6666665077 0.169779896736144991775674384371 0.037679955363273620605468750000 0.002710664412006735801696777344 0.000481297582155093604892176495 0 0 0 0 
2400833333.3333334923 0.170140475034713800628338731258 0.036888346076011657714843750000 0.002778643975034356117248535156 0.000439521536463871598243713379 0 0 0 0 
2401000000.0000000000 0.170476675033569308181924384371 0.035848647356033332134206403907 0.002604411216452718214747763525 0.000354233168764039874076843262 0 0 0 0 
2401166666.6666665077 0.170676708221435602386151231258 0.034909371286630630493164062500 0.002682623220607637925388955225 0.000401734199840575510829371320 0 0 0 0 
2401333333.3333334923 0.170869082212448092361611884371 0.033942334353923797607421875000 0.002595999278128147125244140625 0.000405401544412598013877868652 0 0 0 0 
2401500000.0000000000 0.171180605888366699218750000000 0.033050909638404853130300153907 0.002622841158881783919093466650 0.000353068637195974588394165039 0 0 0 0 
2401666666.6666665077 0.171212434768676813323651231258 0.032228432595729827880859375000 0.002624141052365303039550781250 0.000308865710394456982612609863 0 0 0 0 
2401833333.3333334923 0.171440795063972500900106865629 0.031350735574960708618164062500 0.002346444176509975953343056787 0.000455926492577418684959411621 0 0 0 0 
2402000000.0000000000 0.171160280704498291015625000000 0.030436769127845760690709298046 0.002520196139812469916102743994 0.000491544371470808982849121094 0 0 0 0 
2402166666.6666665077 0.171519219875335693359375000000 0.029344070702791210519810860546 0.002435099799185990853550576318 0.000518955406732857227325439453 0 0 0 0 
2402333333.3333334923 0.171251922845840509612713731258 0.028384724631905559194544608204 0.002420488046482204957249306787 0.000531286874320358037948608398 0 0 0 0 
2402500000.0000000000 0.171609550714492797851562500000 0.027462558820843700063685233204 0.002216064371168613000157021631 0.000388212734833359718322753906 0 0 0 0 
2402666666.6666665077 0.171416759490966796875000000000 0.026598354801535609853724295704 0.002426797058433293862583779443 0.000533424434252083301544189453 0 0 0 0 
2402833333.3333334923 0.171307370066642788986044365629 0.025467120110988620412806326954 0.002591444645076990127563476562 0.000520700938068330287933349609 0 0 0 0 
2403000000.0000000000 0.171190261840820312500000000000 0.024449506774544719350794608204 0.002465405734255909919738769531 0.000559252104721963405609130859 0 0 0 0 
2403166666.6666665077 0.171473532915115411956463731258 0.023353496566414829599400704296 0.002417575335130095915553427588 0.000540817913133651018142700195 0 0 0 0 
2403333333.3333334923 0.171232610940933199783486884371 0.022184085100889209402064139454 0.002510236809030175209045410156 0.000643164152279496192932128906 0 0 0 0 
2403500000.0000000000 0.171057298779487609863281250000 0.020917300134897228586217110546 0.002691968809813261032104492188 0.000647876295261085033416748047 0 0 0 0 
2403666666.6666665077 0.170926749706268310546875000000 0.019678274169564250600794608204 0.002723320154473185972926474463 0.000690612418111413717269897461 0 0 0 0 
2403833333.3333334923 0.171029895544052096267861884371 0.018513249233365058898925781250 0.002926847897469996972324990381 0.000842758745420724153518676758 0 0 0 0 
2404000000.0000000000 0.170779153704643305022869981258 0.017311628907918930053710937500 0.003045872086659073829650878906 0.000851249496918171644210815430 0 0 0 0 
2404166666.6666665077 0.170542299747467013260049384371 0.015838589519262310373326485546 0.003074661595746874809265136719 0.000842546345666050910949707031 0 0 0 0 
2404333333.3333334923 0.170487254858016995529013115629 0.014477913267910480499267578125 0.003410653909668325944187783350 0.000676183844916522502899169922 0 0 0 0 
2404500000.0000000000 0.170326843857765197753906250000 0.013150248676538469141950038477 0.003630067687481642203090048682 0.000573567813262343406677246094 0 0 0 0 
2404666666.6666665077 0.170420289039611788650674384371 0.011863403022289279592493826954 0.003945891745388507843017578125 0.000625342596322298049926757812 0 0 0 0 
2404833333.3333334923 0.170248642563819913009481865629 0.010330982506275180471400076954 0.004290078766644001007080078125 0.000335106073180213624804896222 0 0 0 0 
2405000000.0000000000 0.170316904783248901367187500000 0.009052696637809276580810546875 0.004282590467482805252075195312 0.000216772779822349602549952374 0 0 0 0 
2405166666.6666665077 0.170359566807746887207031250000 0.007648874074220657348632812500 0.004709672648459672927856445312 -0.000298475672025233507156372070 0 0 0 0 
2405333333.3333334923 0.170417085289955111404580634371 0.005854307208210229873657226562 0.004672084469348192214965820312 -0.000401645491365343278080540790 0 0 0 0 
2405500000.0000000000 0.170213818550109891036825615629 0.004413416143506765365600585938 0.004746549762785434722900390625 -0.000701076292898505926132202148 0 0 0 0 
2405666666.6666665077 0.170373827219009399414062500000 0.002864601556211709976196289062 0.004851871635764837265014648438 -0.001023662392981349988224648584 0 0 0 0 
2405833333.3333334923 0.170126080513000488281250000000 0.001398588181473314978955913013 0.004751058761030436429495527051 -0.001217958168126642920850444263 0 0 0 0 
2406000000.0000000000 0.169986873865127591232138115629 -0.000446300051407888477474766864 0.004805539269000291824340820312 -0.001571792410686611912370991284 0 0 0 0 
2406166666.6666665077 0.169867262244224603850994981258 -0.001660984591580926938297890771 0.004760704003274440765380859375 -0.001874950947239995002746582031 0 0 0 0 
2406333333.3333334923 0.170080959796905489822549384371 -0.003433507867157458825352334131 0.004553842358291149139404296875 -0.002327766036614776091334677588 0 0 0 0 
2406500000.0000000000 0.169769614934921292404013115629 -0.004893364384770393371582031250 0.004572020843625068664550781250 -0.002619553590193390846252441406 0 0 0 0 
2406666666.6666665077 0.169567137956619290450888115629 -0.006419805809855461120605468750 0.004381780978292226791381835938 -0.002813347848132253126857138525 0 0 0 0 
2406833333.3333334923 0.169517442584037808517294365629 -0.007959289476275444030761718750 0.004208811093121767044067382812 -0.003016490722075105147120810400 0 0 0 0 
2407000000.0000000000 0.169395223259925786774005018742 -0.009340556338429450988769531250 0.004044326953589916229248046875 -0.003267022781074047088623046875 0 0 0 0 
2407166666.6666665077 0.169361919164657592773437500000 -0.010719330981373790395716483204 0.003853690344840288162231445312 -0.003596962429583073096034384619 0 0 0 0 
2407333333.3333334923 0.168995380401611300369424384371 -0.012127143330872060603131679102 0.003585887840017675919773720850 -0.003869785694405436949488974463 0 0 0 0 
2407500000.0000000000 0.168783694505691500564736884371 -0.013505945913493629800816719921 0.003392908954992889924290322412 -0.003925949335098266601562500000 0 0 0 0 
2407666666.6666665077 0.168754413723945589920205634371 -0.014469144865870479238489920704 0.002984568709507585005519247900 -0.003976421430706977844238281250 0 0 0 0 
2407833333.3333334923 0.168391808867454501053018134371 -0.015858106315135959279993826954 0.002756317844614386992213583838 -0.004083951935172080993652343750 0 0 0 0 
2408000000.0000000000 0.168273344635963412185830634371 -0.016929712146520621562917341407 0.002523336326703428788426064600 -0.004295444581657648086547851562 0 0 0 0 
2408166666.6666665077 0.168236330151557894607705634371 -0.017772795632481578481653983204 0.002179510425776243209838867188 -0.004108530934900045394897460938 0 0 0 0 
2408333333.3333334923 0.168367505073547391036825615629 -0.018777869641780849802037423046 0.002095554256811738014221191406 -0.004073583986610174179077148438 0 0 0 0 
2408500000.0000000000 0.168236240744590787032919365629 -0.019712397828698161733607108204 0.001641618553549051067949604565 -0.004213599022477865219116210938 0 0 0 0 
2408666666.6666665077 0.168277651071548489669638115629 -0.020708831027150150644322579296 0.001624855678528547070146870190 -0.004046031273901463422293378613 0 0 0 0 
2408833333.3333334923 0.168215870857238797286825615629 -0.021486867219209671020507812500 0.001279539661481976942775107275 -0.004109754227101802825927734375 0 0 0 0 
2409000000.0000000000 0.168423414230346707443075615629 -0.022253971546888351440429687500 0.001234419411048292896868061597 -0.004018114414066076278686523438 0 0 0 0 
2409166666.6666665077 0.168438553810119601150674384371 -0.023216113448143008840540701954 0.001045349286869168064714741284 -0.003926099743694067001342773438 0 0 0 0 
2409333333.3333334923 0.168795734643936212737713731258 -0.024087373167276378976842110546 0.000817001040559262037277221680 -0.003988128621131181716918945312 0 0 0 0 
2409500000.0000000000 0.168670848011970492263955634371 -0.025009756907820701599121093750 0.000841113098431378602981567383 -0.003975851926952601346487714551 0 0 0 0 
2409666666.6666665077 0.168934911489486694335937500000 -0.025950381532311439514160156250 0.000675842631608247756958007812 -0.003878755727782845930812216650 0 0 0 0 
2409833333.3333334923 0.169038340449333190917968750000 -0.026692928746342658996582031250 0.000435512716649100184440612793 -0.003691709367558360099792480469 0 0 0 0 
2410000000.0000000000 0.169218331575393704513388115629 -0.027631076052784919738769531250 0.000593728851526975631713867188 -0.003704013070091605186462402344 0 0 0 0 
2410166666.6666665077 0.169279873371124295333700615629 -0.028640486299991611135462576954 0.000338912068400532007217407227 -0.003705331124365330176112509619 0 0 0 0 
2410333333.3333334923 0.169186338782310513595419365629 -0.029356172308325770986536795704 0.000274663674645125920146387921 -0.003784554079174994988682412256 0 0 0 0 
2410500000.0000000000 0.169202834367752102950888115629 -0.030384352430701259267786795704 0.000312586140353232622146606445 -0.003623179625719786123988486182 0 0 0 0 
2410666666.6666665077 0.169107660651206997970419365629 -0.031560819596052169799804687500 0.000047469766286667443137576444 -0.003607571823522448973414755713 0 0 0 0 
2410833333.3333334923 0.169031053781509399414062500000 -0.032168537378311157226562500000 0.000101509926025755703449249268 -0.003697179956361650986912392725 0 0 0 0 
2411000000.0000000000 0.168859124183654812911825615629 -0.033194400370121002197265625000 -0.000025672874471638351678848267 -0.003563262056559323830845498193 0 0 0 0 
2411166666.6666665077 0.168683484196662902832031250000 -0.034047443419694900512695312500 -0.000199925532797351506635388785 -0.003600849537178874015808105469 0 0 0 0 
2411333333.3333334923 0.168505072593688992599325615629 -0.035098370164632797241210937500 -0.000240208595641888705178937369 -0.003517596283927559852600097656 0 0 0 0 
2411500000.0000000000 0.168116062879562405685263115629 -0.035924673080444342876393903907 -0.000340408325428143089443761005 -0.003626072779297829107997275244 0 0 0 0 
2411666666.6666665077 0.168008372187614413162393134371 -0.036891080439090728759765625000 -0.000441533600678667426109313965 -0.003437068080529571013209677588 0 0 0 0 
2411833333.3333334923 0.167714044451713589767294365629 -0.037723280489444732666015625000 -0.000460303446743637323379516602 -0.003319401061162352995631552588 0 0 0 0 
2412000000.0000000000 0.167503222823143005371093750000 -0.038796026259660720825195312500 -0.000440286588855087811320704327 -0.003265676554292439980747841943 0 0 0 0 
2412166666.6666665077 0.167139723896980313400106865629 -0.039628036320209503173828125000 -0.000473987223813310319751185284 -0.003114852355793118910548544775 0 0 0 0 
2412333333.3333334923 0.166968092322349603850994981258 -0.040500100702047348022460937500 -0.000589977891650050878524780273 -0.003159780520945786996128701318 0 0 0 0 
2412500000.0000000000 0.166510045528411892989950615629 -0.041530311107635498046875000000 -0.000800609705038368701934814453 -0.003196775913238524956944131006 0 0 0 0 
2412666666.6666665077 0.166247576475143404861611884371 -0.042682971805334091186523437500 -0.000722767552360892295837402344 -0.003264888422563672065734863281 0 0 0 0 
2412833333.3333334923 0.165826991200447110275106865629 -0.043822322040796279907226562500 -0.000714398571290075778961181641 -0.003161058295518159866333007812 0 0 0 0 
2413000000.0000000000 0.165433198213577298263388115629 -0.044704429805278778076171875000 -0.000841576082166284322738647461 -0.003339585848152637915370322119 0 0 0 0 
2413166666.6666665077 0.164919048547744806487713731258 -0.045640487223863601684570312500 -0.001026103156618773937225341797 -0.003270882181823254065272665869 0 0 0 0 
2413333333.3333334923 0.164374455809593200683593750000 -0.046896167099475860595703125000 -0.001089027966372668959973979419 -0.003464721143245697021484375000 0 0 0 0 
2413500000.0000000000 0.164089471101760892013388115629 -0.047626573592424392700195312500 -0.001351197832264005921007465894 -0.003324728691950439973118447412 0 0 0 0 
2413666666.6666665077 0.163555264472961398025674384371 -0.048816487193107611919362653907 -0.001444401801563798947575234521 -0.003288993379101157188415527344 0 0 0 0 
2413833333.3333334923 0.163049787282943697830361884371 -0.049829781055450439453125000000 -0.001558156334795057990430522388 -0.003342351410537958145141601562 0 0 0 0 
2414000000.0000000000 0.162455096840858487228231865629 -0.050715688616037368774414062500 -0.001734350225888193087336874854 -0.003282922552898526191711425781 0 0 0 0 
2414166666.6666665077 0.162298634648323086837606865629 -0.051717773079872131347656250000 -0.001994997262954711914062500000 -0.003085027448832989172694540869 0 0 0 0 
2414333333.3333334923 0.161826983094215393066406250000 -0.052551716566085822368581403907 -0.001956850755959748788120888818 -0.002770685125142335891723632812 0 0 0 0 
2414500000.0000000000 0.161619529128074701507244981258 -0.053556919097900390625000000000 -0.002184226177632809118983603369 -0.002683107741177082061767578125 0 0 0 0 
2414666666.6666665077 0.161243841052055386642294365629 -0.054342713207006447528879533593 -0.002173514105379581885096884619 -0.002666797488927841186523437500 0 0 0 0 
2414833333.3333334923 0.160928905010223388671875000000 -0.055400516837835311889648437500 -0.002269061282277106805088662256 -0.002323783701285719871520996094 0 0 0 0 
2415000000.0000000000 0.160767942667007501800213731258 -0.056457564234733581542968750000 -0.002144487109035253958461142432 -0.002222475130110979080200195312 0 0 0 0 
2415166666.6666665077 0.160564407706260708907919365629 -0.057619035243988037109375000000 -0.002294760430231689973118447412 -0.002007006434723734855651855469 0 0 0 0 
2415333333.3333334923 0.160536229610443087478799384371 -0.058748114854097373271901716407 -0.002118508564308286146876669775 -0.002032908378168940977809286963 0 0 0 0 
2415500000.0000000000 0.160357818007469205001669365629 -0.059702571481466293334960937500 -0.002074394607916473908665322412 -0.001864458317868411974665976416 0 0 0 0 
2415666666.6666665077 0.160205364227294894119424384371 -0.060816112905740737915039062500 -0.002133875619620085196254111182 -0.001664387062191962978960346753 0 0 0 0 
2415833333.3333334923 0.160170704126358004470986884371 -0.062151309102773673320729841407 -0.001951459329575299999834370190 -0.001787799876183270974400185693 0 0 0 0 
2416000000.0000000000 0.159750759601592989822549384371 -0.063304528594017028808593750000 -0.001880193129181862094281840747 -0.001721377018839121081708598560 0 0 0 0 
2416166666.6666665077 0.159720867872238186935263115629 -0.064500167965888977050781250000 -0.001880044001154602007624960791 -0.001408787327818572954890585791 0 0 0 0 
2416333333.3333334923 0.159502282738685607910156250000 -0.065610818564891815185546875000 -0.001802852493710815906524658203 -0.001549987937323749065399169922 0 0 0 0 
2416500000.0000000000 0.159240767359733609298544365629 -0.066892229020595550537109375000 -0.001819466240704060034510947119 -0.001727452385239302895189594800 0 0 0 0 
2416666666.6666665077 0.158961310982704190353231865629 -0.068043753504753112792968750000 -0.001708165276795625903485942310 -0.001619734102860092899919819409 0 0 0 0 
2416833333.3333334923 0.158670261502265902420205634371 -0.069309435784816741943359375000 -0.001715796301141381046892475659 -0.001511696260422467968584370190 0 0 0 0 
2417000000.0000000000 0.158135414123535211761151231258 -0.070316962897777557373046875000 -0.001704461988992989063262939453 -0.001552266650833189921138144385 0 0 0 0 
2417166666.6666665077 0.157875880599021911621093750000 -0.071308590471744537353515625000 -0.001784826861694454929949116284 -0.001611598068848252079607319409 0 0 0 0 
2417333333.3333334923 0.157589510083198602874432481258 -0.072268515825271606445312500000 -0.001830632216297090053558349609 -0.001699374057352543094037700122 0 0 0 0 
2417500000.0000000000 0.157287806272506713867187500000 -0.073404908180236816406250000000 -0.001854913309216498894932412256 -0.001574700116179883913752890479 0 0 0 0 
2417666666.6666665077 0.157036244869232205489950615629 -0.074137046933174133300781250000 -0.001925984630361198945286416162 -0.001745318411849438927294086987 0 0 0 0 
2417833333.3333334923 0.156731352210044888595419365629 -0.074992686510086059570312500000 -0.001983492868021130995509482275 -0.001637922949157655022264790112 0 0 0 0 
2418000000.0000000000 0.156493142247200012207031250000 -0.076048128306865692138671875000 -0.001959485467523335976841591943 -0.001780369319021702029584575122 0 0 0 0 
2418166666.6666665077 0.156111374497413607498330634371 -0.076659880578517913818359375000 -0.002091902773827313943150185693 -0.001589899766258894963505410303 0 0 0 0 
2418333333.3333334923 0.156053334474563598632812500000 -0.077523447573184967041015625000 -0.002291253767907619909999228369 -0.001614416018128395080566406250 0 0 0 0 
2418500000.0000000000 0.155564054846763610839843750000 -0.078285470604896545410156250000 -0.002012337325140833854675292969 -0.001730485702864825942395854419 0 0 0 0 
2418666666.6666665077 0.155424579977989196777343750000 -0.079076424241065979003906250000 -0.002186433179304004149196005713 -0.001488625886850059032440185547 0 0 0 0 
2418833333.3333334923 0.154981285333633395095986884371 -0.079955525696277618408203125000 -0.002195541979745029969456338037 -0.001409006654284894900081015479 0 0 0 0 
2419000000.0000000000 0.154608801007270812988281250000 -0.080484159290790557861328125000 -0.002192634623497724966761923682 -0.001298325718380511023877788013 0 0 0 0 
2419166666.6666665077 0.154390349984169006347656250000 -0.081293605268001556396484375000 -0.002188778482377529144287109375 -0.001375516643747686906101845850 0 0 0 0 
2419333333.3333334923 0.153940260410308810135049384371 -0.081647068262100219726562500000 -0.002065158216282724900486611475 -0.001263979123905301094055175781 0 0 0 0 
2419500000.0000000000 0.153661370277404812911825615629 -0.082639172673225402832031250000 -0.002240911358967423005345009912 -0.001407097908668220043182373047 0 0 0 0 
2419666666.6666665077 0.153334930539131192306356865629 -0.083259783685207366943359375000 -0.002133241854608058929443359375 -0.001463067252188920974731445312 0 0 0 0 
2419833333.3333334923 0.152896985411644009689169365629 -0.083659738302230834960937500000 -0.002153480891138315200805664062 -0.001275555696338414929033588940 0 0 0 0 
