# Hz S RI R 
2400000000.0000000000 0.169102981686592102050781250000 0.045963879674673080444335937500 0.000103394057077821303479610304 0.000173283217009156888157445087 0 0 0 0 
2400166666.6666665077 0.169957697391510009765625000000 0.045024625957012183452565778907 -0.000018679751519812270998954773 0.000075126336014363914728164673 0 0 0 0 
2400333333.3333334923 0.170927494764328002929687500000 0.043903194367885589599609375000 0.000085853411292191594839096069 0.000109307686216197894372124944 0 0 0 0 
2400500000.0000000000 0.171879991888999911209268134371 0.042952604591846473003347028907 -0.000002966533656945102848112583 0.000071955786552280187606811523 0 0 0 0 
2400666666.6666665077 0.172992229461669894119424384371 0.041897252202033996582031250000 -0.000104710088635329197771610399 0.000015311381503124721348285675 0 0 0 0 
2400833333.3333334923 0.173729941248893710037393134371 0.041100926697254180908203125000 -0.000040674211049918092112948759 -0.000087560445535928010940551758 0 0 0 0 
2401000000.0000000000 0.174569100141525296310263115629 0.040295612066984176635742187500 0.000017200443835463381629397733 -0.000009001061698654666543006897 0 0 0 0 
2401166666.6666665077 0.175333619117736788650674384371 0.039484433829784393310546875000 -0.000063701278122607618570327759 -0.000008449596862192265689373016 0 0 0 0 
2401333333.3333334923 0.175988674163818387130575615629 0.038809958845376968383789062500 -0.000048070003686007112264633179 0.000048347028496209532022476196 0 0 0 0 
2401500000.0000000000 0.176859870553016690353231865629 0.038362562656402587890625000000 -0.000059961683291476219892501831 -0.000125457343528978499487200327 0 0 0 0 
2401666666.6666665077 0.177490979433059692382812500000 0.037543389946222312236745466407 -0.000273919897153973579406738281 -0.000147920101881027194574633188 0 0 0 0 
2401833333.3333334923 0.178085669875144986251669365629 0.036958817392587661743164062500 -0.000212270591873675611898145132 0.000046723125706193968653678894 0 0 0 0 
2402000000.0000000000 0.178386256098747308929119981258 0.036470685154199600219726562500 -0.000268817675532773082882481708 -0.000091269852418918162584304810 0 0 0 0 
2402166666.6666665077 0.178874507546424893478231865629 0.035751868039369583129882812500 -0.000172644664417021003648480826 -0.000028687254598480649292469025 0 0 0 0 
2402333333.3333334923 0.179210454225540188888388115629 0.035260364413261406635324846093 0.000107944913906976594172339168 0.000024828972527757290413583449 0 0 0 0 
2402500000.0000000000 0.179754197597503689864950615629 0.034641604870557791973073591407 -0.000188728852663189199849805289 -0.000069294146669562906026840210 0 0 0 0 
2402666666.6666665077 0.179849863052368191818075615629 0.033891838043928153301198591407 -0.000050621114496607326645443575 -0.000135970869450829896047869272 0 0 0 0 
2402833333.3333334923 0.179970338940620394607705634371 0.033248618245124816894531250000 -0.000091382928076200187206268311 -0.000023346641683019701054300002 0 0 0 0 
2403000000.0000000000 0.179938539862632806975994981258 0.032565154135227203369140625000 -0.000203192394110374206870478497 -0.000038143221900099888443946838 0 0 0 0 
2403166666.6666665077 0.180067077279090909103231865629 0.031666576862335212017018903907 -0.000113273097667843103408813477 -0.000148263468872755793019971304 0 0 0 0 
2403333333.3333334923 0.180047988891601590255575615629 0.030877288430929180490513985546 -0.000192471547052264186456957407 -0.000117806135676801204681396484 0 0 0 0 
2403500000.0000000000 0.179510354995727511306924384371 0.029922191053628921508789062500 -0.000170443061506375697538098746 -0.000226496544200926992014208383 0 0 0 0 
2403666666.6666665077 0.179701566696166992187500000000 0.029167918488383289682408516796 -0.000165514851687476011827745981 -0.000356467819074168801307678223 0 0 0 0 
2403833333.3333334923 0.179257184267044095138388115629 0.027965962886810299264928048046 -0.000055794243962736800312995911 -0.000248090509558096473843175067 0 0 0 0 
2404000000.0000000000 0.178927645087242098709268134371 0.026968128979206088674525076954 -0.000158184717292897403240203857 -0.000277525221463292782932835712 0 0 0 0 
2404166666.6666665077 0.178428813815116910079794365629 0.025674009695649150503138358204 -0.000363863102393224781185704364 -0.000427642225986346602439880371 0 0 0 0 
2404333333.3333334923 0.178102701902389498611611884371 0.024432826787233349191685860546 -0.000248721917159855419963282452 -0.000469804654130712205737513409 0 0 0 0 
2404500000.0000000000 0.177405029535293606857138115629 0.023234544321894649160364920704 -0.000156991285621188608094891959 -0.000416822236729785799980163574 0 0 0 0 
2404666666.6666665077 0.177079334855079706390057481258 0.021775616332888599741002266796 -0.000287330825813114588886815204 -0.000440043368143960779339390887 0 0 0 0 
2404833333.3333334923 0.176466226577758789062500000000 0.020386949181556701660156250000 -0.000415007292758673375279027118 -0.000603975204285234212875366211 0 0 0 0 
2405000000.0000000000 0.176105991005897494217080634371 0.018868170678615570068359375000 -0.000499291752930730581283569336 -0.000831582350656390190124511719 0 0 0 0 
2405166666.6666665077 0.175602450966834994217080634371 0.017261480912566188467005545704 -0.000533267564605921506881713867 -0.000698177784215658903121948242 0 0 0 0 
2405333333.3333334923 0.175192862749099703689736884371 0.015589357353746889287005039648 -0.000515779829584062099456787109 -0.000763488409575074911117553711 0 0 0 0 
2405500000.0000000000 0.174647003412246704101562500000 0.014094333164393900090227695898 -0.000411997403716668486595153809 -0.000653244496788829565048217773 0 0 0 0 
2405666666.6666665077 0.174376532435417203048544365629 0.012245071120560169219970703125 -0.000578910636249929666519165039 -0.000719639298040419816970825195 0 0 0 0 
2405833333.3333334923 0.173699244856834411621093750000 0.010466264560818670445452305273 -0.000786120304837822914123535156 -0.000808432581834495067596435547 0 0 0 0 
2406000000.0000000000 0.173623457551002502441406250000 0.008443032391369342803955078125 -0.000795463449321687221527099609 -0.000728771672584116458892822266 0 0 0 0 
2406166666.6666665077 0.173188120126724187652911268742 0.006759632844477891921997070312 -0.000871942203957587480545043945 -0.000635786098428070653616750452 0 0 0 0 
2406333333.3333334923 0.173123434185981805999432481258 0.004689495079219341278076171875 -0.001096062944270669980290078271 -0.000701788405422121286392211914 0 0 0 0 
2406500000.0000000000 0.173034638166427612304687500000 0.002735242946073412895202636719 -0.001072835992090404033660888672 -0.000731831532903015613555908203 0 0 0 0 
2406666666.6666665077 0.172738090157508905608807481258 0.000713982270099222660064697266 -0.001133634592406451918958354419 -0.000611351511906832456588745117 0 0 0 0 
2406833333.3333334923 0.172732710838317898849325615629 -0.001286321901716291904449462891 -0.001089389668777585029602050781 -0.000492356717586517333984375000 0 0 0 0 
2407000000.0000000000 0.172821626067161587814169365629 -0.003554440336301922798156738281 -0.001106488169170916080474853516 -0.000457876216387376189231872559 0 0 0 0 
2407166666.6666665077 0.173000678420066805740518134371 -0.005495969206094741821289062500 -0.001297530485317111015319824219 -0.000546178722288459539413452148 0 0 0 0 
2407333333.3333334923 0.173020720481872586349325615629 -0.007638880982995033264160156250 -0.001283356454223393960240029443 -0.000377224583644419908523559570 0 0 0 0 
2407500000.0000000000 0.173340708017349187652911268742 -0.009718619287014007568359375000 -0.001312889624387026049970317310 -0.000312737509375438094139099121 0 0 0 0 
2407666666.6666665077 0.173512071371078491210937500000 -0.011804023757576940709124180273 -0.001328945625573396899579692310 -0.000430631771450862288475036621 0 0 0 0 
2407833333.3333334923 0.173718273639679010589276231258 -0.014053802937269210815429687500 -0.001513320137746632099151611328 -0.000364370091119781082302647723 0 0 0 0 
2408000000.0000000000 0.174154564738273592849893134371 -0.016040364280343059194544608204 -0.001392851700074970939038920825 -0.000363269442459568381309509277 0 0 0 0 
2408166666.6666665077 0.174430251121520996093750000000 -0.017808206379413611675222028907 -0.001585339545272290923474955981 -0.000270052696578204577595311298 0 0 0 0 
2408333333.3333334923 0.174935385584831210037393134371 -0.019952422007918361318568045704 -0.001733260927721858024597167969 -0.000412762863561510985523778094 0 0 0 0 
2408500000.0000000000 0.175316929817199707031250000000 -0.022025261074304580688476562500 -0.001579316216520965099334716797 -0.000308889400912448818057459698 0 0 0 0 
2408666666.6666665077 0.175698176026344299316406250000 -0.023896792903542518615722656250 -0.001762635190971195914624858325 -0.000069382804213091731071472168 0 0 0 0 
2408833333.3333334923 0.175900354981422396560830634371 -0.025570480152964588510533516796 -0.001828793669119477055193256909 -0.000174609347595833187729436053 0 0 0 0 
2409000000.0000000000 0.176294639706611605545205634371 -0.027291323989629748952845389454 -0.001756998011842370033264160156 -0.000012853548469138330017226372 0 0 0 0 
2409166666.6666665077 0.176729872822761507888955634371 -0.028800768777728080749511718750 -0.001892547705210744900944375146 0.000066576161771081387996673584 0 0 0 0 
2409333333.3333334923 0.177214011549949701507244981258 -0.030276974663138389587402343750 -0.001914917142130434946772910010 0.000215520893107168403550824576 0 0 0 0 
2409500000.0000000000 0.177382424473762512207031250000 -0.031733699142932891845703125000 -0.002143366262316703796386718750 0.000241203772020526203230181284 0 0 0 0 
2409666666.6666665077 0.177846327424049405196981865629 -0.032814126461744308471679687500 -0.002143311314284801916835165869 0.000401286932174116373062133789 0 0 0 0 
2409833333.3333334923 0.178219169378280611892861884371 -0.033757131546735756610910783593 -0.002132211811840534210205078125 0.000485564494738355278968811035 0 0 0 0 
2410000000.0000000000 0.178932666778564508636151231258 -0.034838303923606872558593750000 -0.002174549736082553863525390625 0.000571745622437447309494018555 0 0 0 0 
2410166666.6666665077 0.179266348481178311446981865629 -0.035735074430704116821289062500 -0.002315211575478314919712685693 0.000932467111852020025253295898 0 0 0 0 
2410333333.3333334923 0.179621994495391901214276231258 -0.036551363766193389892578125000 -0.002250330755487083955052041162 0.000811949605122208595275878906 0 0 0 0 
2410500000.0000000000 0.180246278643608093261718750000 -0.037187807261943817138671875000 -0.002325431909412146048304892432 0.001018702285364269993425678784 0 0 0 0 
2410666666.6666665077 0.180288001894950894454794365629 -0.037923261523246772075612653907 -0.002322513610124588012695312500 0.001156299957074224948883056641 0 0 0 0 
2410833333.3333334923 0.180813387036323602874432481258 -0.038553494960069663310964216407 -0.002219416899606585936305380713 0.001103621558286250071284628760 0 0 0 0 
2411000000.0000000000 0.181154474616050692459268134371 -0.039095785468816757202148437500 -0.002388543216511607170104980469 0.001549842068925499916076660156 0 0 0 0 
2411166666.6666665077 0.181358039379119900802450615629 -0.039733998477458946918527971093 -0.002193220658227800889256142725 0.001559241674840450070024799878 0 0 0 0 
2411333333.3333334923 0.181568503379821805099325615629 -0.040084231644868850708007812500 -0.002233134349808096885681152344 0.001798012759536504962323832935 0 0 0 0 
2411500000.0000000000 0.181419283151626586914062500000 -0.040584541857242577289621721093 -0.002291346201673150062561035156 0.002038917504251002831699990381 0 0 0 0 
2411666666.6666665077 0.181883960962295504470986884371 -0.040968149900436401367187500000 -0.002093866700306535200831747900 0.002025950700044631958007812500 0 0 0 0 
2411833333.3333334923 0.181717798113822909256143134371 -0.041328739374876022338867187500 -0.001979630673304200172424316406 0.002195814391598104996922158350 0 0 0 0 
2412000000.0000000000 0.181521534919738797286825615629 -0.041851624846458441997487653907 -0.002101714489981532096862792969 0.002479494316503406004664755713 0 0 0 0 
2412166666.6666665077 0.181126892566680908203125000000 -0.041990965604782097553293596093 -0.001834291033446789004682231372 0.002455537673085927963256835938 0 0 0 0 
2412333333.3333334923 0.181009784340858487228231865629 -0.042163964360952377319335937500 -0.001698655309155582947971963037 0.002685044892132281823399209131 0 0 0 0 
2412500000.0000000000 0.180363342165946988204794365629 -0.042679879814386367797851562500 -0.001548993517644702954533242334 0.002675087889656424956080771338 0 0 0 0 
2412666666.6666665077 0.179849594831466702560263115629 -0.043152455240488052368164062500 -0.001452107680961489894269633716 0.002869510790333151817321777344 0 0 0 0 
2412833333.3333334923 0.179365172982215909103231865629 -0.043431229889392852783203125000 -0.001295737805776298046112060547 0.003088136902078986167907714844 0 0 0 0 
2413000000.0000000000 0.178618669509887695312500000000 -0.043913166970014572143554687500 -0.001257552066817879893659282153 0.002852897625416516824009560693 0 0 0 0 
2413166666.6666665077 0.177791267633438110351562500000 -0.044061984866857528686523437500 -0.001123793073929846069933247144 0.003117458662018179893493652344 0 0 0 0 
2413333333.3333334923 0.176882714033126803299111884371 -0.044633768498897552490234375000 -0.001025107689201832034467387622 0.003266278654336928887608193506 0 0 0 0 
2413500000.0000000000 0.176075398921966608245526231258 -0.045117739588022232055664062500 -0.000988596235401928424835205078 0.003165486268699169158935546875 0 0 0 0 
2413666666.6666665077 0.175091564655304010589276231258 -0.045617625117301940917968750000 -0.000708947947714477777481079102 0.003366946475580335097071982275 0 0 0 0 
2413833333.3333334923 0.174117952585220309158486884371 -0.046242211014032356952707658593 -0.000571895216125994920730590820 0.003427463350817561149597167969 0 0 0 0 
2414000000.0000000000 0.172767192125320406814736884371 -0.046875327825546271587331403907 -0.000613281852565705776214599609 0.003423086600378156141993857275 0 0 0 0 
2414166666.6666665077 0.171615451574325589279013115629 -0.047644522041082382202148437500 -0.000273402023594826514094752179 0.003494038945063949064967490088 0 0 0 0 
2414333333.3333334923 0.170603930950164794921875000000 -0.048401676118373870849609375000 -0.000176545785507187301486414777 0.003573869355022906823399209131 0 0 0 0 
2414500000.0000000000 0.169662252068519592285156250000 -0.049273367971181869506835937500 -0.000034783246519509702920913696 0.003636618377640842957737588037 0 0 0 0 
2414666666.6666665077 0.168350517749786404708700615629 -0.050168097019195556640625000000 0.000089528410171624273061752319 0.003687367541715503172633505713 0 0 0 0 
2414833333.3333334923 0.167004853487014798263388115629 -0.051409531384706497192382812500 0.000391302542993798906176966534 0.003783349413424729867222451318 0 0 0 0 
2415000000.0000000000 0.165936544537544305999432481258 -0.052524644881486892700195312500 0.000635277479887008666992187500 0.003860254772007464928867959131 0 0 0 0 
2415166666.6666665077 0.164744541049003601074218750000 -0.053650610148906707763671875000 0.000843583198729902505874633789 0.003817636985331774191615439307 0 0 0 0 
2415333333.3333334923 0.163544893264770507812500000000 -0.055137831717729568481445312500 0.001021631760522722981096577222 0.003828641725704073905944824219 0 0 0 0 
2415500000.0000000000 0.162545025348663302322549384371 -0.056388836354017257690429687500 0.001341580646112561009050678784 0.003815246978774666786193847656 0 0 0 0 
2415666666.6666665077 0.161314502358436612228231865629 -0.057891461998224258422851562500 0.001384629867970944101449037866 0.003724452108144760131835937500 0 0 0 0 
2415833333.3333334923 0.160348623991012600997763115629 -0.059432238340377807617187500000 0.001585321151651442050933837891 0.003544107312336564064025878906 0 0 0 0 
2416000000.0000000000 0.159164726734161404708700615629 -0.061193216592073440551757812500 0.001781059545464813926099467700 0.003667491488158702850341796875 0 0 0 0 
2416166666.6666665077 0.158366695046424893478231865629 -0.062856577336788177490234375000 0.001953741302713751792907714844 0.003517776494845747947692871094 0 0 0 0 
2416333333.3333334923 0.157320618629455594161825615629 -0.064670294523239135742187500000 0.002134711015969514846801757812 0.003377168904989957809448242188 0 0 0 0 
2416500000.0000000000 0.156391173601150512695312500000 -0.066558927297592163085937500000 0.002241644309833645820617675781 0.003251747228205204010009765625 0 0 0 0 
2416666666.6666665077 0.155451938509941101074218750000 -0.068346716463565826416015625000 0.002495831111446022987365722656 0.003119920613244175910949707031 0 0 0 0 
2416833333.3333334923 0.154625087976455688476562500000 -0.070489831268787384033203125000 0.002497168490663170814514160156 0.003093399573117495016810751807 0 0 0 0 
2417000000.0000000000 0.153792843222618103027343750000 -0.072381712496280670166015625000 0.002814032370224595069885253906 0.002869052346795796914341591943 0 0 0 0 
2417166666.6666665077 0.153089821338653592208700615629 -0.074365854263305664062500000000 0.002850656397640705108642578125 0.002712706802412867979762411963 0 0 0 0 
2417333333.3333334923 0.152450501918792696853799384371 -0.076169081032276153564453125000 0.003039411501958965821507119287 0.002433587098494172096252441406 0 0 0 0 
2417500000.0000000000 0.151871770620346097091513115629 -0.078369513154029846191406250000 0.003040227340534328980686806787 0.002343169413506985144374228369 0 0 0 0 
2417666666.6666665077 0.151464954018592806717080634371 -0.080048449337482452392578125000 0.003183835418894886970520019531 0.002279253443703054948094033350 0 0 0 0 
2417833333.3333334923 0.150972843170165987869424384371 -0.081914611160755157470703125000 0.003302795579656959013697958838 0.002111121313646436171290732275 0 0 0 0 
2418000000.0000000000 0.150429502129554804046307481258 -0.083903558552265167236328125000 0.003607982303947209878208779443 0.001981795532628893852233886719 0 0 0 0 
2418166666.6666665077 0.150125756859779413421307481258 -0.085427083075046539306640625000 0.003374609863385558128356933594 0.001811332069337368011474609375 0 0 0 0 
2418333333.3333334923 0.150123327970504788497763115629 -0.087283365428447723388671875000 0.003420717548578978018519736182 0.001643499359488487026811909253 0 0 0 0 
2418500000.0000000000 0.149856448173523004729901231258 -0.088761121034622192382812500000 0.003470127237960695786717080225 0.001538910553790628910064697266 0 0 0 0 
2418666666.6666665077 0.149795651435852106292401231258 -0.090305089950561523437500000000 0.003521535079926251931431435693 0.001298310002312063953996967847 0 0 0 0 
2418833333.3333334923 0.149526089429855402190838731258 -0.091909542679786682128906250000 0.003601108444854617118835449219 0.001039764145389199040056538159 0 0 0 0 
2419000000.0000000000 0.149487689137458801269531250000 -0.093115538358688354492187500000 0.003620191942900418801548623193 0.000972517766058444976806640625 0 0 0 0 
2419166666.6666665077 0.149520814418792696853799384371 -0.094328731298446655273437500000 0.003496726509183644814732216943 0.000881813757587224353491628381 0 0 0 0 
2419333333.3333334923 0.149431318044662503341513115629 -0.095188617706298828125000000000 0.003692555939778686003444052588 0.000597671023570001125335693359 0 0 0 0 
2419500000.0000000000 0.149809569120407104492187500000 -0.096552856266498565673828125000 0.003640592331066728071925497900 0.000537725980393588542938232422 0 0 0 0 
2419666666.6666665077 0.150041773915290804763955634371 -0.097301647067070007324218750000 0.003411796409636735916137695312 0.000330850802129134481579381122 0 0 0 0 
2419833333.3333334923 0.150135770440101595779580634371 -0.098065353929996490478515625000 0.003561857854947448210475302588 0.000286729424260556697845458984 0 0 0 0 
