# Version 1.00
#
freq[Hz];re:Trc1_S11;im:Trc1_S11;re:Trc2_S21;im:Trc2_S21;
2.400000000000000E+009;1.696163415908814E-001;4.577867314219475E-002;-3.952551633119583E-003;-3.891802334692329E-004;
2.400166666666667E+009;1.704872995615006E-001;4.428189247846603E-002;-3.974997904151678E-003;4.645460285246372E-005;
2.400333333333334E+009;1.705890893936157E-001;4.388662800192833E-002;-3.692742204293609E-003;1.797223667381331E-004;
2.400500000000000E+009;1.724613010883331E-001;4.359482973814011E-002;-3.637144807726145E-003;-1.492762530688196E-004;
2.400666666666667E+009;1.737008839845657E-001;4.206892848014832E-002;-3.817199729382992E-003;-2.027998016274069E-005;
2.400833333333334E+009;1.745019555091858E-001;4.125368222594261E-002;-3.800010308623314E-003;4.930456052534282E-004;
2.401000000000000E+009;1.755450814962387E-001;4.105843231081963E-002;-3.715915139764547E-003;2.375890326220542E-004;
2.401166666666667E+009;1.747838407754898E-001;3.946774080395699E-002;-3.608927363529801E-003;1.056152861565352E-003;
2.401333333333334E+009;1.769006550312042E-001;3.925156220793724E-002;-3.607039572671056E-003;6.750785396434367E-004;
2.401500000000000E+009;1.770652532577515E-001;3.877084329724312E-002;-3.584438934922218E-003;9.619414922781289E-004;
2.401666666666667E+009;1.776133179664612E-001;3.793653845787048E-002;-3.594874171540141E-003;1.192402327433229E-003;
2.401833333333334E+009;1.783718168735504E-001;3.738807886838913E-002;-3.346038050949574E-003;1.351653947494924E-003;
2.402000000000000E+009;1.785381585359573E-001;3.683957457542419E-002;-3.282467601820827E-003;1.492600305937231E-003;
2.402166666666667E+009;1.790587455034256E-001;3.636887297034264E-002;-3.276275005191565E-003;1.658504479564726E-003;
2.402333333333334E+009;1.793512552976608E-001;3.563312068581581E-002;-3.104658098891377E-003;1.737759914249182E-003;
2.402500000000000E+009;1.797688305377960E-001;3.507424518465996E-002;-3.002560464665294E-003;1.813067006878555E-003;
2.402666666666667E+009;1.800536513328552E-001;3.451979532837868E-002;-2.877573715522885E-003;1.790787908248603E-003;
2.402833333333334E+009;1.799637079238892E-001;3.374714776873589E-002;-2.522109542042017E-003;1.917495275847614E-003;
2.403000000000000E+009;1.800592392683029E-001;3.325494378805161E-002;-2.437072340399027E-003;2.174562774598599E-003;
2.403166666666667E+009;1.801808923482895E-001;3.252965584397316E-002;-2.289636991918087E-003;2.157431095838547E-003;
2.403333333333334E+009;1.799681037664414E-001;3.165490925312042E-002;-2.210512291640043E-003;2.176944864913821E-003;
2.403500000000000E+009;1.796699613332748E-001;3.071285597980022E-002;-2.103396691381931E-003;2.151294145733118E-003;
2.403666666666667E+009;1.795345395803452E-001;2.976052463054657E-002;-1.934825559146702E-003;2.211614511907101E-003;
2.403833333333334E+009;1.792109608650208E-001;2.863135933876038E-002;-1.952283317223191E-003;2.022087341174483E-003;
2.404000000000000E+009;1.788468360900879E-001;2.766558155417442E-002;-1.635605236515403E-003;1.868001068942249E-003;
2.404166666666667E+009;1.783888339996338E-001;2.639544010162354E-002;-1.798043609596789E-003;1.890007988549769E-003;
2.404333333333334E+009;1.779378652572632E-001;2.513037435710430E-002;-1.674638711847365E-003;1.936152460984886E-003;
2.404500000000000E+009;1.772350221872330E-001;2.370094321668148E-002;-1.671245554462075E-003;1.805844018235803E-003;
2.404666666666667E+009;1.765328049659729E-001;2.250405028462410E-002;-1.645082491450012E-003;1.696317456662655E-003;
2.404833333333334E+009;1.762140691280365E-001;2.111269719898701E-002;-1.735149067826569E-003;1.950055360794067E-003;
2.405000000000000E+009;1.756497472524643E-001;1.940071582794190E-002;-1.645261072553694E-003;1.726333051919937E-003;
2.405166666666667E+009;1.751716136932373E-001;1.790457218885422E-002;-1.600186922587454E-003;1.833716407418251E-003;
2.405333333333334E+009;1.747247725725174E-001;1.612323336303234E-002;-1.551031600683928E-003;1.677266089245677E-003;
2.405500000000000E+009;1.743045002222061E-001;1.459059584885836E-002;-1.672639627940953E-003;1.832684967666864E-003;
2.405666666666667E+009;1.738227754831314E-001;1.283739507198334E-002;-1.658812630921602E-003;1.753720920532942E-003;
2.405833333333334E+009;1.733557432889938E-001;1.108883507549763E-002;-1.698932726867497E-003;1.639084774069488E-003;
2.406000000000000E+009;1.731700599193573E-001;9.021889418363571E-003;-1.719705993309617E-003;1.691017765551806E-003;
2.406166666666667E+009;1.727565526962280E-001;7.133491337299347E-003;-1.717257895506918E-003;1.780160120688379E-003;
2.406333333333334E+009;1.727969199419022E-001;5.243016872555018E-003;-1.705081551335752E-003;1.829737680964172E-003;
2.406500000000000E+009;1.724867820739746E-001;2.991067478433251E-003;-1.753049669787288E-003;1.995732309296727E-003;
2.406666666666667E+009;1.723170131444931E-001;1.167468726634979E-003;-1.823408412747085E-003;1.940775895491242E-003;
2.406833333333334E+009;1.722838431596756E-001;-1.028466154821217E-003;-1.936916843988001E-003;2.050905022770166E-003;
2.407000000000000E+009;1.724278628826141E-001;-3.205956192687154E-003;-1.950897276401520E-003;2.123158425092697E-003;
2.407166666666667E+009;1.726736724376679E-001;-5.344971548765898E-003;-1.930629834532738E-003;2.189539372920990E-003;
2.407333333333334E+009;1.728658676147461E-001;-7.475361693650484E-003;-1.913723768666387E-003;2.429481828585267E-003;
2.407500000000000E+009;1.729222238063812E-001;-9.583878330886364E-003;-1.838885131292045E-003;2.528251614421606E-003;
2.407666666666667E+009;1.732462942600250E-001;-1.160579640418291E-002;-1.865295227617025E-003;2.548274118453264E-003;
2.407833333333334E+009;1.735801547765732E-001;-1.393625512719154E-002;-2.035948215052486E-003;2.758926479145885E-003;
2.408000000000000E+009;1.739515215158463E-001;-1.612203940749168E-002;-1.854664529673755E-003;2.942502964287996E-003;
2.408166666666667E+009;1.743729859590530E-001;-1.785233616828919E-002;-1.920701935887337E-003;3.011019667610526E-003;
2.408333333333334E+009;1.749276816844940E-001;-1.989999972283840E-002;-1.717482809908688E-003;3.289167769253254E-003;
2.408500000000000E+009;1.752128303050995E-001;-2.197447046637535E-002;-1.730340998619795E-003;3.401160473003984E-003;
2.408666666666667E+009;1.757429391145706E-001;-2.386758476495743E-002;-1.772118033841252E-003;3.610675456002355E-003;
2.408833333333334E+009;1.760081201791763E-001;-2.559059858322144E-002;-1.430940465070307E-003;3.726159455254674E-003;
2.409000000000000E+009;1.765673309564591E-001;-2.735914662480354E-002;-1.313322107307613E-003;3.945820964872837E-003;
2.409166666666667E+009;1.771923005580902E-001;-2.882090583443642E-002;-1.072906074114144E-003;4.132342990487814E-003;
2.409333333333334E+009;1.777395308017731E-001;-3.028601966798306E-002;-9.596704621799290E-004;4.148758947849274E-003;
2.409500000000000E+009;1.779559850692749E-001;-3.176994994282723E-002;-7.543938118033111E-004;4.317414481192827E-003;
2.409666666666667E+009;1.783831864595413E-001;-3.279521316289902E-002;-5.104310112074018E-004;4.419177304953337E-003;
2.409833333333334E+009;1.789524704217911E-001;-3.392346575856209E-002;-3.479162696748972E-004;4.453092813491821E-003;
2.410000000000000E+009;1.794982254505158E-001;-3.494989499449730E-002;-1.469285634811968E-004;4.561131820082665E-003;
2.410166666666667E+009;1.800952255725861E-001;-3.592412546277046E-002;1.523476094007492E-004;4.605837631970644E-003;
2.410333333333334E+009;1.804413199424744E-001;-3.664451092481613E-002;3.852628287859261E-004;4.493573214858770E-003;
2.410500000000000E+009;1.808301806449890E-001;-3.746441006660461E-002;4.909015842713416E-004;4.497291520237923E-003;
2.410666666666667E+009;1.812230944633484E-001;-3.817942738533020E-002;7.440349436365068E-004;4.561800044029951E-003;
2.410833333333334E+009;1.817314475774765E-001;-3.869275748729706E-002;1.100587774999440E-003;4.585662856698036E-003;
2.411000000000000E+009;1.820348650217056E-001;-3.933638334274292E-002;1.335629844106734E-003;4.593777004629374E-003;
2.411166666666667E+009;1.822873055934906E-001;-3.993928432464600E-002;1.615419168956578E-003;4.593913443386555E-003;
2.411333333333334E+009;1.823415011167526E-001;-3.997977450489998E-002;1.735915313474834E-003;4.395931493490934E-003;
2.411500000000000E+009;1.823587119579315E-001;-4.073692858219147E-002;2.051535528153181E-003;4.418248310685158E-003;
2.411666666666667E+009;1.826405078172684E-001;-4.121088609099388E-002;2.119225217029452E-003;4.341081716120243E-003;
2.411833333333334E+009;1.822566688060761E-001;-4.130624234676361E-002;2.429086714982987E-003;4.042912740260363E-003;
2.412000000000000E+009;1.822621375322342E-001;-4.184857755899429E-002;2.681406680494547E-003;4.048796836286783E-003;
2.412166666666667E+009;1.817211210727692E-001;-4.211910068988800E-002;2.792734652757645E-003;3.730347380042076E-003;
2.412333333333334E+009;1.816214174032211E-001;-4.236612841486931E-002;3.002885263413191E-003;3.580173710361123E-003;
2.412500000000000E+009;1.808000952005386E-001;-4.277647286653519E-002;3.189548617228866E-003;3.577711293473840E-003;
2.412666666666667E+009;1.804647594690323E-001;-4.326580837368965E-002;3.283096710219979E-003;3.279936732724309E-003;
2.412833333333334E+009;1.797731816768646E-001;-4.344358295202255E-002;3.450863994657993E-003;3.075919346883893E-003;
2.413000000000000E+009;1.790089458227158E-001;-4.382131621241570E-002;3.614935325458646E-003;2.869506366550922E-003;
2.413166666666667E+009;1.781027019023895E-001;-4.420570656657219E-002;3.562914906069636E-003;2.665189327672124E-003;
2.413333333333334E+009;1.770680099725723E-001;-4.454379901289940E-002;3.735041012987495E-003;2.550794743001461E-003;
2.413500000000000E+009;1.761926412582398E-001;-4.501150175929070E-002;3.752695862203836E-003;2.389856381341815E-003;
2.413666666666667E+009;1.750447452068329E-001;-4.582239314913750E-002;3.758039092645049E-003;2.139870310202241E-003;
2.413833333333334E+009;1.738607883453369E-001;-4.604042693972588E-002;3.952129743993282E-003;2.094726078212261E-003;
2.414000000000000E+009;1.726009696722031E-001;-4.675107076764107E-002;3.939873073250055E-003;1.875505200587213E-003;
2.414166666666667E+009;1.715282201766968E-001;-4.741069674491882E-002;4.010942764580250E-003;1.661124755628407E-003;
2.414333333333334E+009;1.701907068490982E-001;-4.825391992926598E-002;4.093377850949764E-003;1.521749072708190E-003;
2.414500000000000E+009;1.691831648349762E-001;-4.894943535327911E-002;3.936792258173227E-003;1.333383959718049E-003;
2.414666666666667E+009;1.677717119455338E-001;-4.997638240456581E-002;4.044272471219301E-003;1.230190158821642E-003;
2.414833333333334E+009;1.663848757743835E-001;-5.101821199059486E-002;4.177431110292673E-003;1.023438060656190E-003;
2.415000000000000E+009;1.651850938796997E-001;-5.203134566545487E-002;4.164686892181635E-003;6.766256992705166E-004;
2.415166666666667E+009;1.638401597738266E-001;-5.319472029805183E-002;4.121688660234213E-003;5.091927014291287E-004;
2.415333333333334E+009;1.627631783485413E-001;-5.463051050901413E-002;4.223322495818138E-003;3.361168201081455E-004;
2.415500000000000E+009;1.616611629724503E-001;-5.595826730132103E-002;3.999816719442606E-003;1.063037489075214E-004;
2.415666666666667E+009;1.604200154542923E-001;-5.734676867723465E-002;4.072927404195070E-003;5.600351869361475E-005;
2.415833333333334E+009;1.593293398618698E-001;-5.905355513095856E-002;3.806152846664190E-003;-3.180853673256934E-004;
2.416000000000000E+009;1.580913960933685E-001;-6.073883548378944E-002;3.670564619824290E-003;-4.183708515483886E-004;
2.416166666666667E+009;1.573316305875778E-001;-6.229026988148689E-002;3.547394415363669E-003;-5.719680921174586E-004;
2.416333333333334E+009;1.562561392784119E-001;-6.413909792900085E-002;3.525675041601062E-003;-5.926205194555223E-004;
2.416500000000000E+009;1.553779691457748E-001;-6.612005084753037E-002;3.332944354042411E-003;-7.664664299227297E-004;
2.416666666666667E+009;1.544579267501831E-001;-6.784105300903320E-002;3.133162157610059E-003;-8.371272706426680E-004;
2.416833333333334E+009;1.537422984838486E-001;-6.995746493339539E-002;2.955964300781488E-003;-1.020154682919383E-003;
2.417000000000000E+009;1.527994126081467E-001;-7.197742909193039E-002;2.776069100946188E-003;-1.022457145154476E-003;
2.417166666666667E+009;1.522183567285538E-001;-7.376053929328919E-002;2.754742745310068E-003;-1.172618009150028E-003;
2.417333333333334E+009;1.516569703817368E-001;-7.563747465610504E-002;2.634205622598529E-003;-9.554849239066243E-004;
2.417500000000000E+009;1.510694921016693E-001;-7.774785906076431E-002;2.337849931791425E-003;-9.967472869902849E-004;
2.417666666666667E+009;1.508124172687531E-001;-7.953052967786789E-002;2.141391625627875E-003;-9.831659262999892E-004;
2.417833333333334E+009;1.504045873880386E-001;-8.134451508522034E-002;2.332582371309400E-003;-9.263435495086014E-004;
2.418000000000000E+009;1.499672830104828E-001;-8.341032266616821E-002;2.005135873332620E-003;-7.718055276200175E-004;
2.418166666666667E+009;1.496743708848953E-001;-8.508744090795517E-002;2.000428969040513E-003;-7.591648027300835E-004;
2.418333333333334E+009;1.498626172542572E-001;-8.682519197463989E-002;1.897339592687786E-003;-6.097069126553834E-004;
2.418500000000000E+009;1.495430767536163E-001;-8.837861567735672E-002;1.920142443850637E-003;-5.244963685981929E-004;
2.418666666666667E+009;1.496351510286331E-001;-9.016183763742447E-002;1.939800567924976E-003;-4.432865243870765E-004;
2.418833333333334E+009;1.494973748922348E-001;-9.146953374147415E-002;2.089553046971560E-003;-3.135046863462776E-004;
2.419000000000000E+009;1.496043205261231E-001;-9.281829744577408E-002;2.057974692434073E-003;-1.791528775356710E-004;
2.419166666666667E+009;1.496815085411072E-001;-9.420363605022430E-002;2.137947129085660E-003;-1.700088614597917E-004;
2.419333333333334E+009;1.495706886053085E-001;-9.507906436920166E-002;2.341414568945766E-003;-1.613421627553180E-004;
2.419500000000000E+009;1.498123407363892E-001;-9.632912278175354E-002;2.409867476671934E-003;-1.151087708421983E-004;
2.419666666666667E+009;1.504036337137222E-001;-9.715767949819565E-002;2.549830358475447E-003;-1.671463542152196E-004;
2.419833333333334E+009;1.503455787897110E-001;-9.798531979322434E-002;2.789980266243219E-003;-1.821539772208780E-004;
2.420000000000000E+009;1.507808268070221E-001;-9.862931072711945E-002;2.729824278503656E-003;-1.388623350067064E-004;
2.420166666666667E+009;1.510573923587799E-001;-9.908439964056015E-002;3.072879044339061E-003;-3.238001954741776E-004;
2.420333333333334E+009;1.513291895389557E-001;-9.972688555717468E-002;3.000460797920823E-003;-4.523319948930293E-004;
2.420500000000000E+009;1.518428325653076E-001;-9.980905801057816E-002;3.217193298041821E-003;-5.576033727265894E-004;
2.420666666666667E+009;1.519860476255417E-001;-1.001757308840752E-001;3.292148001492024E-003;-6.987747037783265E-004;
2.420833333333334E+009;1.522997915744782E-001;-1.002670004963875E-001;3.344608936458826E-003;-8.265259675681591E-004;
2.421000000000000E+009;1.524474471807480E-001;-1.003420576453209E-001;3.435978433117271E-003;-1.086672767996788E-003;
2.421166666666667E+009;1.527408212423325E-001;-1.002196669578552E-001;3.531967755407095E-003;-1.249551307410002E-003;
2.421333333333334E+009;1.529172658920288E-001;-1.002872884273529E-001;3.449519863352180E-003;-1.547335996292532E-003;
2.421500000000000E+009;1.528829634189606E-001;-1.000114083290100E-001;3.524553030729294E-003;-1.605118159204722E-003;
2.421666666666667E+009;1.530869007110596E-001;-1.000247672200203E-001;3.558409865945578E-003;-1.706660143099725E-003;
2.421833333333334E+009;1.529086232185364E-001;-9.952978789806366E-002;3.401973517611623E-003;-1.960585359483957E-003;
2.422000000000000E+009;1.526950895786285E-001;-9.941826760768890E-002;3.409177297726274E-003;-2.237508539110422E-003;
2.422166666666667E+009;1.525658816099167E-001;-9.938511252403259E-002;3.475476056337357E-003;-2.380390651524067E-003;
2.422333333333334E+009;1.521220803260803E-001;-9.869720786809921E-002;3.333910368382931E-003;-2.555951941758394E-003;
2.422500000000000E+009;1.517445743083954E-001;-9.833322465419769E-002;3.180270548909903E-003;-2.977775176987052E-003;
2.422666666666667E+009;1.510383784770966E-001;-9.806919842958450E-002;3.244532272219658E-003;-3.062114585191011E-003;
2.422833333333334E+009;1.506168544292450E-001;-9.772556275129318E-002;3.147643990814686E-003;-3.437006613239646E-003;
2.423000000000000E+009;1.497269123792648E-001;-9.721393883228302E-002;2.908358350396156E-003;-3.398961154744029E-003;
2.423166666666667E+009;1.489424109458923E-001;-9.709008783102036E-002;2.775010187178850E-003;-3.447434399276972E-003;
2.423333333333334E+009;1.480727642774582E-001;-9.652043879032135E-002;2.625694731250405E-003;-3.814381780102849E-003;
2.423500000000000E+009;1.469683051109314E-001;-9.625837206840515E-002;2.476411638781428E-003;-3.923393785953522E-003;
2.423666666666667E+009;1.455183476209641E-001;-9.608343988656998E-002;2.105310326442123E-003;-4.164613783359528E-003;
2.423833333333334E+009;1.444647759199143E-001;-9.578319638967514E-002;2.021586056798697E-003;-4.250763449817896E-003;
2.424000000000000E+009;1.431326866149902E-001;-9.552939981222153E-002;1.797003438696265E-003;-4.271674435585737E-003;
2.424166666666667E+009;1.416463404893875E-001;-9.534310549497604E-002;1.482465653680265E-003;-4.338362254202366E-003;
2.424333333333334E+009;1.402446925640106E-001;-9.517724066972733E-002;1.383765484206379E-003;-4.417901858687401E-003;
2.424500000000000E+009;1.388770937919617E-001;-9.528002142906189E-002;1.016197609715164E-003;-4.600723739713430E-003;
2.424666666666667E+009;1.375247389078140E-001;-9.517887234687805E-002;7.466482929885387E-004;-4.346345551311970E-003;
2.424833333333334E+009;1.358152478933334E-001;-9.549745172262192E-002;7.628385210409761E-004;-4.592597018927336E-003;
2.425000000000000E+009;1.343752741813660E-001;-9.582494199275971E-002;4.453871806617826E-004;-4.317926242947578E-003;
2.425166666666667E+009;1.327053159475327E-001;-9.634573012590408E-002;3.552263951860368E-004;-4.359757062047720E-003;
2.425333333333334E+009;1.312616318464279E-001;-9.674853831529617E-002;5.383092866395600E-005;-4.440247546881437E-003;
2.425500000000000E+009;1.298388242721558E-001;-9.764833748340607E-002;-1.427193637937307E-004;-4.227684345096350E-003;
2.425666666666667E+009;1.281764656305313E-001;-9.832733869552612E-002;-4.342877655290067E-004;-4.302704706788063E-003;
2.425833333333334E+009;1.268858462572098E-001;-9.922587126493454E-002;-3.918953298125416E-004;-4.205647390335798E-003;
2.426000000000000E+009;1.254068315029144E-001;-1.003635451197624E-001;-6.557368906214833E-004;-4.088594112545252E-003;
2.426166666666667E+009;1.242041513323784E-001;-1.014981418848038E-001;-7.017674506641924E-004;-3.805028274655342E-003;
2.426333333333334E+009;1.228125095367432E-001;-1.027053147554398E-001;-8.381573134101927E-004;-3.859114600345492E-003;
2.426500000000000E+009;1.216181740164757E-001;-1.040148437023163E-001;-1.068068435415626E-003;-3.753505181521177E-003;
2.426666666666667E+009;1.203936412930489E-001;-1.052346229553223E-001;-1.173113589175046E-003;-3.633866785094142E-003;
2.426833333333334E+009;1.193681210279465E-001;-1.069087386131287E-001;-1.034157117828727E-003;-3.664879128336906E-003;
2.427000000000000E+009;1.181616187095642E-001;-1.086926385760307E-001;-1.168856164440513E-003;-3.515603020787239E-003;
2.427166666666667E+009;1.170771270990372E-001;-1.100782603025436E-001;-1.249887747690082E-003;-3.312867833301425E-003;
2.427333333333334E+009;1.162919327616692E-001;-1.119082197546959E-001;-1.407511183060706E-003;-3.310901578515768E-003;
2.427500000000000E+009;1.155842766165733E-001;-1.136360466480255E-001;-1.248019514605403E-003;-3.329497762024403E-003;
2.427666666666667E+009;1.147004663944244E-001;-1.154612153768539E-001;-1.194569631479681E-003;-3.323070704936981E-003;
