# Hz S RI R 50
2400000000.0000000000 0.155982121825218200683593750000 0.108475700020790100097656250000 0.005396138411015272140502929688 -0.001342596369795501015306782300 0 0 0 0 
2400166666.6666665077 0.155646920204162597656250000000 0.106225453317165402511434990629 0.005374421365559101104736328125 -0.001688444055616856055018759619 0 0 0 0 
2400333333.3333334923 0.155517786741256713867187500000 0.103758074343204498291015625000 0.005218639969825744628906250000 -0.001826091669499873898149799878 0 0 0 0 
2400500000.0000000000 0.155288308858871487716513115629 0.101190410554408999344033759371 0.005350773688405752182006835938 -0.002185705583542584939243935693 0 0 0 0 
2400666666.6666665077 0.155229583382606506347656250000 0.098626345396041870117187500000 0.005177977029234170913696289062 -0.002430184045806527137756347656 0 0 0 0 
2400833333.3333334923 0.154912427067756708343182481258 0.095752470195293426513671875000 0.005121368914842605590820312500 -0.002665539039298892021179199219 0 0 0 0 
2401000000.0000000000 0.155030265450477600097656250000 0.092993929982185363769531250000 0.005054161883890628814697265625 -0.002900469349697231812718056787 0 0 0 0 
2401166666.6666665077 0.154962316155433710296307481258 0.090252645313739776611328125000 0.004980530589818955335135175488 -0.003102056682109833197352743994 0 0 0 0 
2401333333.3333334923 0.155309125781059292892294365629 0.087324112653732299804687500000 0.004784358199685811996459960938 -0.003274433081969618797302246094 0 0 0 0 
2401500000.0000000000 0.155674934387207003494424384371 0.084387630224227905273437500000 0.004791616462171077728271484375 -0.003614902030676602883579873193 0 0 0 0 
2401666666.6666665077 0.155834957957267788986044365629 0.081490166485309600830078125000 0.004461743868887425336355878613 -0.004004119895398616790771484375 0 0 0 0 
2401833333.3333334923 0.156056210398674011230468750000 0.078646704554557800292968750000 0.004442438948899508389944745801 -0.004152907058596611022949218750 0 0 0 0 
2402000000.0000000000 0.156979113817214993575888115629 0.075796991586685180664062500000 0.004453989211469888687133789062 -0.004297193605452775955200195312 0 0 0 0 
2402166666.6666665077 0.157724827527999905685263115629 0.073126107454299926757812500000 0.004173109773546457290649414062 -0.004608780611306428909301757812 0 0 0 0 
2402333333.3333334923 0.158543944358825711349325615629 0.070487782359123229980468750000 0.003872137749567627906799316406 -0.004848252050578594207763671875 0 0 0 0 
2402500000.0000000000 0.159464836120605496505575615629 0.067766666412353515625000000000 0.003550053806975483894348144531 -0.005231289193034172058105468750 0 0 0 0 
2402666666.6666665077 0.160571992397308405120526231258 0.065248109400272369384765625000 0.003309279214590787887573242188 -0.005246090237051249417776777051 0 0 0 0 
2402833333.3333334923 0.161935269832611111739950615629 0.062645189464092254638671875000 0.003082688432186841964721679688 -0.005493547301739454269409179688 0 0 0 0 
2403000000.0000000000 0.163266032934188787262286268742 0.060200225561857216571848283593 0.002679695375263690948486328125 -0.005744683090597391128540039062 0 0 0 0 
2403166666.6666665077 0.164859756827354403396768134371 0.057936646044254302978515625000 0.002163668163120747046229697119 -0.005696770735085011395926191113 0 0 0 0 
2403333333.3333334923 0.166287913918495205978231865629 0.055661413818597786640207658593 0.001859591691754757924320839990 -0.005866711027920246124267578125 0 0 0 0 
2403500000.0000000000 0.167975679039955111404580634371 0.053375214338302612304687500000 0.001480318023823202090022421729 -0.005898923147469758987426757812 0 0 0 0 
2403666666.6666665077 0.169728398323059109786825615629 0.051247358322143561626393903907 0.001050405669957398934605263818 -0.006047906819730997085571289062 0 0 0 0 
2403833333.3333334923 0.171346962451934786697549384371 0.049274533987045288085937500000 0.000740988471079617738723754883 -0.005837497767060995101928710938 0 0 0 0 
2404000000.0000000000 0.172892227768898010253906250000 0.047465935349464423442800153907 0.000302030413877219015925806866 -0.005854904651641845703125000000 0 0 0 0 
2404166666.6666665077 0.174572408199310302734375000000 0.045895468443632132793386091407 0.000061284998082555830478668213 -0.005681885406374931335449218750 0 0 0 0 
2404333333.3333334923 0.176257550716400201995526231258 0.044250585138797760009765625000 -0.000028025327992509119212627411 -0.005595558322966098785400390625 0 0 0 0 
2404500000.0000000000 0.177975177764892605880575615629 0.042810536921024322509765625000 -0.000469614838948473280102330341 -0.005255812313407660398001386426 0 0 0 0 
2404666666.6666665077 0.179624587297439602950888115629 0.041727501899003982543945312500 -0.000857834762427955865859985352 -0.005122904665768147382254316113 0 0 0 0 
2404833333.3333334923 0.181383296847343389313067518742 0.040540393441915512084960937500 -0.000913619820494204759597778320 -0.004985011182725430402273847363 0 0 0 0 
2405000000.0000000000 0.182696402072906494140625000000 0.039732933044433586811106096093 -0.000953659298829734325408935547 -0.004761804360896348953247070312 0 0 0 0 
2405166666.6666665077 0.184174969792366000076455634371 0.039018947631120681762695312500 -0.001394959515891968987108540112 -0.004537600558251143369192792676 0 0 0 0 
2405333333.3333334923 0.185628533363342312911825615629 0.038506664335727691650390625000 -0.001438276143744587898254394531 -0.004364763852208852767944335938 0 0 0 0 
2405500000.0000000000 0.187091782689094487945880018742 0.038148414343595511699636091407 -0.001440491294488311030744243091 -0.004143972415477037429809570312 0 0 0 0 
2405666666.6666665077 0.188419014215469388107138115629 0.037734627723693847656250000000 -0.001528309192508459091186523438 -0.003959417343139647570138262012 0 0 0 0 
2405833333.3333334923 0.189706817269325311858807481258 0.037565518170595169067382812500 -0.001712339813821017958997416919 -0.003907525911927223205566406250 0 0 0 0 
2406000000.0000000000 0.190916329622268704513388115629 0.037455301731824881816823591407 -0.001658858847804367975947714697 -0.003789318492636084990260458838 0 0 0 0 
2406166666.6666665077 0.191803514957428006271200615629 0.037280905991792678833007812500 -0.001792386174201964898350381006 -0.003567044623196125030517578125 0 0 0 0 
2406333333.3333334923 0.193016916513442993164062500000 0.037617217749357216571848283593 -0.001885815639980136914494179834 -0.003447728930041193962097167969 0 0 0 0 
2406500000.0000000000 0.193779841065406799316406250000 0.037619289010763168334960937500 -0.001750002731569110913517617334 -0.003124706214293837980983115088 0 0 0 0 
2406666666.6666665077 0.194439351558685302734375000000 0.037834517657756812358815778907 -0.002005727961659431891200400244 -0.002933034207671881155726767432 0 0 0 0 
2406833333.3333334923 0.195056736469268798828125000000 0.037947677075862891460378278907 -0.002064689295366406007053994287 -0.002905142027884722189662314307 0 0 0 0 
2407000000.0000000000 0.195415258407592801193075615629 0.038379136472940451885182966407 -0.001998056191951036886927939307 -0.002792610321193933920619345557 0 0 0 0 
2407166666.6666665077 0.195901855826377896407919365629 0.038356456905603408813476562500 -0.001910137361846864006639790112 -0.002751790918409823937657021631 0 0 0 0 
2407333333.3333334923 0.196046724915504511077557481258 0.038758791983127587055246721093 -0.001944682677276432947871542822 -0.002597362967208027839660644531 0 0 0 0 
2407500000.0000000000 0.196081325411796597579794365629 0.039023116230964660644531250000 -0.001971232471987605094909667969 -0.002624633954837917847874306787 0 0 0 0 
2407666666.6666665077 0.196141943335533086578692518742 0.039084982126951217651367187500 -0.001882816897705196900608681787 -0.002315740566700696945190429688 0 0 0 0 
2407833333.3333334923 0.195811077952385004241619981258 0.039209250360727310180664062500 -0.001847456675022840933558798682 -0.002144945552572607994079589844 0 0 0 0 
2408000000.0000000000 0.195751518011093111892861884371 0.039369758218526840209960937500 -0.001838869880884886004804301685 -0.002107806736603378815891884912 0 0 0 0 
2408166666.6666665077 0.195294708013534601409588731258 0.039170518517494201660156250000 -0.001890721963718533949611044775 -0.002078731311485170884373330225 0 0 0 0 
2408333333.3333334923 0.194881945848464993575888115629 0.038884449750185012817382812500 -0.001691871089860796928405761719 -0.002093627117574214935302734375 0 0 0 0 
2408500000.0000000000 0.194291532039642306228799384371 0.038783453404903411865234375000 -0.001691795303486288027522421729 -0.001839027623645961067797016675 0 0 0 0 
2408666666.6666665077 0.193819895386695889571981865629 0.038555212318897247314453125000 -0.001671087811700999953626323169 -0.001841877470724285082576132666 0 0 0 0 
2408833333.3333334923 0.193099424242973299881143134371 0.037937466055154800415039062500 -0.001533627742901444001438759912 -0.001723327557556330940843891675 0 0 0 0 
2409000000.0000000000 0.192074835300445612151776231258 0.037204675376415252685546875000 -0.001402446767315268950221396338 -0.001682827598415314934374165112 0 0 0 0 
2409166666.6666665077 0.191361129283905001541299384371 0.036533322185277938842773437500 -0.001420640968717634894727397388 -0.001852696994319557926775288159 0 0 0 0 
2409333333.3333334923 0.190489292144775390625000000000 0.035627637058496482158620466407 -0.001286174636334181048749614185 -0.001853889552876353047014545972 0 0 0 0 
2409500000.0000000000 0.189334943890571594238281250000 0.034511618316173553466796875000 -0.001149840070866047902348183740 -0.001920744427479803995845175635 0 0 0 0 
2409666666.6666665077 0.188420534133911105056924384371 0.033412653952836990356445312500 -0.001140514505095779895782470703 -0.001959658926352858977076865088 0 0 0 0 
2409833333.3333334923 0.187340408563613891601562500000 0.032056149095296859741210937500 -0.000951094203628599643707275391 -0.001915783854201436042785644531 0 0 0 0 
2410000000.0000000000 0.186311483383178710937500000000 0.030543100088834759103795235546 -0.000866464164573699235916137695 -0.002042797859758139090297079932 0 0 0 0 
2410166666.6666665077 0.185442984104156494140625000000 0.028800439089536670339564139454 -0.001085196970961987972259521484 -0.002291904762387276129481650244 0 0 0 0 
2410333333.3333334923 0.184234082698821993728799384371 0.027229882776737209665318673046 -0.000939713208936154842376708984 -0.002339189872145653204676962744 0 0 0 0 
2410500000.0000000000 0.183289557695388793945312500000 0.025289585813879970205286795704 -0.000988616258837282657623291016 -0.002480393042787909941432333838 0 0 0 0 
2410666666.6666665077 0.182619929313659695724325615629 0.022992054000496860849400704296 -0.001160062383860350088832236182 -0.002463266719132661819458007812 0 0 0 0 
2410833333.3333334923 0.181859359145164489746093750000 0.020976856350898739206334298046 -0.001215832773596047921421670068 -0.002626062138006091117858886719 0 0 0 0 
2411000000.0000000000 0.180999234318733187576455634371 0.018889952450990680349329764454 -0.001196242636069654984715127100 -0.002620777813717722892761230469 0 0 0 0 
2411166666.6666665077 0.180333808064460809905682481258 0.016721338033676150930384451954 -0.001241334015503525950788188403 -0.002608895534649490876438759912 0 0 0 0 
2411333333.3333334923 0.179811343550682095626669365629 0.014016133733093740290631679102 -0.001495774136856198094011616284 -0.002852877601981163024902343750 0 0 0 0 
2411500000.0000000000 0.179244503378868103027343750000 0.011821663007140159606933593750 -0.001579935080371797084808349609 -0.002844118280336260795593261719 0 0 0 0 
2411666666.6666665077 0.179043456912040710449218750000 0.009499951265752315521240234375 -0.001628325902856885953190468896 -0.002957437420263886885402060400 0 0 0 0 
2411833333.3333334923 0.178564801812171908279580634371 0.006943490821868181228637695312 -0.001790685695596039078356098706 -0.002846483374014496803283691406 0 0 0 0 
2412000000.0000000000 0.178673833608627291580361884371 0.004392356611788272857666015625 -0.002078596735373138947727822412 -0.003094732295721768899204873193 0 0 0 0 
2412166666.6666665077 0.178768008947372408767861884371 0.001896728528663516044616699219 -0.002185817807912826971766806494 -0.003057442139834166006800986182 0 0 0 0 
2412333333.3333334923 0.178921833634376498123330634371 -0.000429695879574865102767944336 -0.002162778517231345176696777344 -0.003089640056714415983912802588 0 0 0 0 
2412500000.0000000000 0.179349616169929504394531250000 -0.003254943061619997024536132812 -0.002426160266622900962829589844 -0.003097915789112449126002646338 0 0 0 0 
2412666666.6666665077 0.179684117436408996582031250000 -0.005741953384131193161010742188 -0.002590996213257313208339072119 -0.003195590805262327194213867188 0 0 0 0 
2412833333.3333334923 0.180374771356582613845986884371 -0.008347472175955772399902343750 -0.002778155263513327078578329932 -0.003088283585384488105773925781 0 0 0 0 
2413000000.0000000000 0.181205898523330688476562500000 -0.010724659077823160344133945898 -0.002951827598735690116882324219 -0.003129172138869761986973427881 0 0 0 0 
2413166666.6666665077 0.181942462921142605880575615629 -0.013033424504101279867152030079 -0.003296518698334693908691406250 -0.003134169848635793165919638525 0 0 0 0 
2413333333.3333334923 0.183039978146553011795205634371 -0.015438213013112550217598162305 -0.003425474977120757102966308594 -0.003013098379597067832946777344 0 0 0 0 
2413500000.0000000000 0.183941200375557001311932481258 -0.017940746620297428476353829296 -0.003808389417827128930332802881 -0.003039322094991803169250488281 0 0 0 0 
2413666666.6666665077 0.185097903013229397872763115629 -0.020204251632094379770299141796 -0.004024380818009377393240644238 -0.002708076266571878953220986475 0 0 0 0 
2413833333.3333334923 0.186122998595237704178018134371 -0.022280540317296978342076485546 -0.004150988999754189577584551074 -0.002684300066903233961818076025 0 0 0 0 
2414000000.0000000000 0.187241956591606112381143134371 -0.024368861690163608896275704296 -0.004344538785517215728759765625 -0.002397674368694425062892294775 0 0 0 0 
2414166666.6666665077 0.188568219542503412444744981258 -0.026396797969937331462819685157 -0.004662238061428070068359375000 -0.002059996826574205918553017725 0 0 0 0 
2414333333.3333334923 0.189629673957824707031250000000 -0.028518615290522578847864920704 -0.004786133300513029098510742188 -0.001864564022980629964115761865 0 0 0 0 
2414500000.0000000000 0.191078066825866699218750000000 -0.030086528509855270385742187500 -0.004767726175487042340750409863 -0.001704171416349709033966064453 0 0 0 0 
2414666666.6666665077 0.192343190312385586837606865629 -0.031764723360538482666015625000 -0.004864054732024669647216796875 -0.001422312692739069895503378760 0 0 0 0 
2414833333.3333334923 0.193557098507881192306356865629 -0.033213980495929718017578125000 -0.004937180317938327789306640625 -0.001234761904925107955932617188 0 0 0 0 
2415000000.0000000000 0.194768235087394686599893134371 -0.034546468406915671611745466407 -0.005043568555265665054321289062 -0.000960540783125907182693481445 0 0 0 0 
2415166666.6666665077 0.196019619703292902190838731258 -0.035913694649934768676757812500 -0.004993699491024017333984375000 -0.000627664732746779918670654297 0 0 0 0 
2415333333.3333334923 0.197335079312324496170205634371 -0.036930218338966369628906250000 -0.004985295701771975430960370801 -0.000362679653335362727015894757 0 0 0 0 
2415500000.0000000000 0.198535978794097900390625000000 -0.037782657891511917114257812500 -0.005077315960079432401175214551 -0.000272056349785998517840784894 0 0 0 0 
2415666666.6666665077 0.199672177433967590332031250000 -0.038807220757007598876953125000 -0.004956584889441728591918945312 -0.000091566471382975578308105469 0 0 0 0 
2415833333.3333334923 0.200733155012130709549111884371 -0.039300687611103057861328125000 -0.005120687652379274368286132812 0.000188243880984373390674591064 0 0 0 0 
2416000000.0000000000 0.201587364077568109710369981258 -0.039917916059494018554687500000 -0.005121292546391487121582031250 0.000348232744727283716201782227 0 0 0 0 
2416166666.6666665077 0.202364936470985412597656250000 -0.040645770728588097309152971093 -0.005175058264285326004028320312 0.000483351090224459821551722394 0 0 0 0 
2416333333.3333334923 0.203129246830940302093182481258 -0.040918126702308661724050153907 -0.005066380370408296585083007812 0.000649956811685115098953247070 0 0 0 0 
2416500000.0000000000 0.203492388129234286209268134371 -0.041287451982498168945312500000 -0.005045596044510602951049804688 0.001050345366820693016052246094 0 0 0 0 
2416666666.6666665077 0.203982815146446200271768134371 -0.041526719927787780761718750000 -0.004947290290147066116333007812 0.001335729612037539915797568213 0 0 0 0 
2416833333.3333334923 0.204258173704147311111611884371 -0.041525345295667648315429687500 -0.004845524206757546338553144238 0.001517099910415709018707275391 0 0 0 0 
2417000000.0000000000 0.204623237252235412597656250000 -0.041728965938091278076171875000 -0.004878661595284938812255859375 0.001767984009347856044769287109 0 0 0 0 
2417166666.6666665077 0.204373553395271301269531250000 -0.041588004678487777709960937500 -0.004846427589654923352713300488 0.001860489253886044025421142578 0 0 0 0 
2417333333.3333334923 0.204302296042442294021768134371 -0.041286673396825790405273437500 -0.004702690523117780685424804688 0.002080941572785377936122275244 0 0 0 0 
2417500000.0000000000 0.204055637121200589279013115629 -0.041269898414611823345143903907 -0.004572588019073010358328534863 0.002291643293574451966526650537 0 0 0 0 
2417666666.6666665077 0.203671902418136596679687500000 -0.041094362735748291015625000000 -0.004429781809449195861816406250 0.002433225046843289895298623193 0 0 0 0 
2417833333.3333334923 0.203384965658187893966513115629 -0.040783487260341637348215471093 -0.004339590668678283691406250000 0.002644133986905217170715332031 0 0 0 0 
2418000000.0000000000 0.202763229608535794357138115629 -0.040404912084341049194335937500 -0.004261675756424666318411542676 0.002755911089479922814610146631 0 0 0 0 
2418166666.6666665077 0.201986730098724392989950615629 -0.040334317833185202861745466407 -0.004248290788382291793823242188 0.002955733798444271087646484375 0 0 0 0 
2418333333.3333334923 0.201197206974029513260049384371 -0.040184844285249710083007812500 -0.003943295218050479888916015625 0.003050987143069506125209189307 0 0 0 0 
2418500000.0000000000 0.200300484895706204513388115629 -0.040070436894893653179128278907 -0.003947741352021694183349609375 0.003274582559242845015284872900 0 0 0 0 
2418666666.6666665077 0.199477881193161010742187500000 -0.039942268282175057148020158593 -0.003627152647823094887974404443 0.003456740872934461073634482275 0 0 0 0 
2418833333.3333334923 0.198168143630027798751669365629 -0.040052033960819237445871721093 -0.003472146578133105798008584131 0.003406811971217393875122070312 0 0 0 0 
2419000000.0000000000 0.196933835744857788085937500000 -0.040063995867967612529714216407 -0.003286391962319612936732626807 0.003746250178664923147914267432 0 0 0 0 
2419166666.6666665077 0.195693314075469998458700615629 -0.040348071604967117309570312500 -0.003195211291313170953037881006 0.003820403479039669036865234375 0 0 0 0 
2419333333.3333334923 0.194234207272529602050781250000 -0.040843363851308822631835937500 -0.002934392774477601051330566406 0.003934012260288000106811523438 0 0 0 0 
2419500000.0000000000 0.192799046635627802093182481258 -0.041200477629899978637695312500 -0.002761404495686293081996298682 0.003979825880378484725952148438 0 0 0 0 
2419666666.6666665077 0.191208481788635309417401231258 -0.041933514177799231792409528907 -0.002452918095514177842381142725 0.004183482378721237182617187500 0 0 0 0 
2419833333.3333334923 0.189461022615432711502236884371 -0.042513545602560043334960937500 -0.002311527729034423828125000000 0.004080207087099552154541015625 0 0 0 0 
