# Version 1.00
#
freq[Hz];re:Trc1_S11;im:Trc1_S11;re:Trc2_S21;im:Trc2_S21;
2.400000000000000E+009;1.553333699703217E-001;1.073393672704697E-001;-2.230491489171982E-003;3.492396324872971E-003;
2.400166666666667E+009;1.550732553005219E-001;1.047701910138130E-001;-1.884506200440228E-003;3.476301208138466E-003;
2.400333333333334E+009;1.551206856966019E-001;1.024531051516533E-001;-2.126951236277819E-003;3.634959226474166E-003;
2.400500000000000E+009;1.551309823989868E-001;9.962820261716843E-002;-1.876744907349348E-003;3.788047237321734E-003;
2.400666666666667E+009;1.552260220050812E-001;9.722086787223816E-002;-1.823297818191350E-003;3.913183696568012E-003;
2.400833333333334E+009;1.552398055791855E-001;9.421105682849884E-002;-1.760653569363058E-003;3.903078380972147E-003;
2.401000000000000E+009;1.554189324378967E-001;9.128330647945404E-002;-1.650447375141084E-003;3.996531479060650E-003;
2.401166666666667E+009;1.557280868291855E-001;8.849073946475983E-002;-1.539123128168285E-003;4.280044697225094E-003;
2.401333333333334E+009;1.560944467782974E-001;8.566043525934219E-002;-1.387758878991008E-003;4.218852613121271E-003;
2.401500000000000E+009;1.563662290573120E-001;8.287464827299118E-002;-1.169881667010486E-003;4.351282026618719E-003;
2.401666666666667E+009;1.568593829870224E-001;7.985367625951767E-002;-9.555032593198121E-004;4.447681829333305E-003;
2.401833333333334E+009;1.573849469423294E-001;7.711614668369293E-002;-6.610238924622536E-004;4.438865929841995E-003;
2.402000000000000E+009;1.581220477819443E-001;7.421664148569107E-002;-5.358007038012147E-004;4.377147648483515E-003;
2.402166666666667E+009;1.591465473175049E-001;7.163057476282120E-002;-4.104921536054462E-004;4.388810601085424E-003;
2.402333333333334E+009;1.600227952003479E-001;6.880271434783936E-002;-2.127690386259928E-004;4.318215418606997E-003;
2.402500000000000E+009;1.610074639320374E-001;6.630624830722809E-002;3.988509342889302E-005;4.182455129921436E-003;
2.402666666666667E+009;1.622330546379089E-001;6.384184211492539E-002;1.071158549166285E-004;4.038460552692413E-003;
2.402833333333334E+009;1.635144203901291E-001;6.145840138196945E-002;3.790384216699749E-004;3.936836495995522E-003;
2.403000000000000E+009;1.647000610828400E-001;5.913509428501129E-002;2.374254836468026E-004;3.979625646024942E-003;
2.403166666666667E+009;1.665906757116318E-001;5.677936226129532E-002;3.033348184544593E-004;3.853713860735297E-003;
2.403333333333334E+009;1.680388897657394E-001;5.455221235752106E-002;3.890673979185522E-004;3.873677225783467E-003;
2.403500000000000E+009;1.696670204401016E-001;5.254073441028595E-002;4.493212909437716E-004;3.809523535892367E-003;
2.403666666666667E+009;1.714373826980591E-001;5.062235519289970E-002;5.367049598135054E-004;3.721638116985560E-003;
2.403833333333334E+009;1.730776131153107E-001;4.878690838813782E-002;3.214635071344674E-004;3.714301856234670E-003;
2.404000000000000E+009;1.744707375764847E-001;4.686244204640389E-002;3.102549235336483E-004;3.800940467044711E-003;
2.404166666666667E+009;1.764792948961258E-001;4.545251280069351E-002;5.683959461748600E-004;3.898609662428498E-003;
2.404333333333334E+009;1.780245304107666E-001;4.402442276477814E-002;4.423612845130265E-004;4.104761406779289E-003;
2.404500000000000E+009;1.795649081468582E-001;4.248574748635292E-002;6.806746241636574E-004;3.972303122282028E-003;
2.404666666666667E+009;1.813178807497025E-001;4.137939214706421E-002;8.752333815209568E-004;4.128793254494667E-003;
2.404833333333334E+009;1.829064935445786E-001;4.031375795602799E-002;1.072683720849454E-003;4.133034963160753E-003;
2.405000000000000E+009;1.842259168624878E-001;3.965437412261963E-002;1.012864988297224E-003;4.145863000303507E-003;
2.405166666666667E+009;1.858378499746323E-001;3.898710384964943E-002;1.308602164499462E-003;4.205175675451756E-003;
2.405333333333334E+009;1.871864199638367E-001;3.831021860241890E-002;1.554263057187200E-003;4.188242368400097E-003;
2.405500000000000E+009;1.884931474924088E-001;3.791249170899391E-002;1.881080679595470E-003;4.194567911326885E-003;
2.405666666666667E+009;1.897763013839722E-001;3.751113638281822E-002;1.893845037557185E-003;4.169493913650513E-003;
2.405833333333334E+009;1.910355240106583E-001;3.729451075196266E-002;2.133163856342435E-003;3.965594340115786E-003;
2.406000000000000E+009;1.921139806509018E-001;3.714933991432190E-002;2.152297180145979E-003;3.789913142099977E-003;
2.406166666666667E+009;1.929277032613754E-001;3.698524832725525E-002;2.522050868719816E-003;3.951255697757006E-003;
2.406333333333334E+009;1.939913481473923E-001;3.698522597551346E-002;2.622753381729126E-003;3.646825207397342E-003;
2.406500000000000E+009;1.945503056049347E-001;3.699349611997604E-002;2.794217551127076E-003;3.588014282286167E-003;
2.406666666666667E+009;1.951809376478195E-001;3.707680478692055E-002;2.695415401831269E-003;3.447087714448571E-003;
2.406833333333334E+009;1.955714523792267E-001;3.693892434239388E-002;2.871368080377579E-003;3.403786802664399E-003;
2.407000000000000E+009;1.958322674036026E-001;3.725638240575790E-002;2.897497033700347E-003;3.189002629369497E-003;
2.407166666666667E+009;1.962248831987381E-001;3.696510195732117E-002;3.066754667088389E-003;3.044830402359366E-003;
2.407333333333334E+009;1.961219757795334E-001;3.721135854721069E-002;3.164537018164992E-003;2.936728065833449E-003;
2.407500000000000E+009;1.960588544607163E-001;3.735855221748352E-002;3.207653760910034E-003;2.961880061775446E-003;
2.407666666666667E+009;1.960275471210480E-001;3.726271167397499E-002;3.266417654231191E-003;2.832695608958602E-003;
2.407833333333334E+009;1.955040693283081E-001;3.735818341374397E-002;3.317662514746189E-003;2.653514267876744E-003;
2.408000000000000E+009;1.953378766775131E-001;3.712239861488342E-002;3.329694736748934E-003;2.633787458762527E-003;
2.408166666666667E+009;1.947410553693771E-001;3.677356988191605E-002;3.489086637273431E-003;2.365970285609365E-003;
2.408333333333334E+009;1.941520273685455E-001;3.652131929993630E-002;3.522558370605111E-003;2.336813835427165E-003;
2.408500000000000E+009;1.935178786516190E-001;3.616196662187576E-002;3.542211372405291E-003;2.086397958919406E-003;
2.408666666666667E+009;1.928220242261887E-001;3.572849556803703E-002;3.486911300569773E-003;2.014132449403405E-003;
2.408833333333334E+009;1.920653432607651E-001;3.504631668329239E-002;3.512385999783874E-003;1.818159245885909E-003;
2.409000000000000E+009;1.912415176630020E-001;3.408652544021606E-002;3.443517489358783E-003;1.771219423972070E-003;
2.409166666666667E+009;1.901042014360428E-001;3.320291265845299E-002;3.432392375543714E-003;1.620455062948167E-003;
2.409333333333334E+009;1.892339885234833E-001;3.224644064903259E-002;3.659217385575175E-003;1.466226996853948E-003;
2.409500000000000E+009;1.881911307573319E-001;3.094553388655186E-002;3.440747037529945E-003;1.534930779598653E-003;
2.409666666666667E+009;1.871515661478043E-001;2.952321432530880E-002;3.503775456920266E-003;1.394320628605783E-003;
2.409833333333334E+009;1.861180365085602E-001;2.812086232006550E-002;3.516034223139286E-003;1.518149860203266E-003;
2.410000000000000E+009;1.851604580879211E-001;2.652115002274513E-002;3.498593345284462E-003;1.380354166030884E-003;
2.410166666666667E+009;1.840977221727371E-001;2.468750812113285E-002;3.407255513593555E-003;1.413110992871225E-003;
2.410333333333334E+009;1.831522136926651E-001;2.303159981966019E-002;3.655218752101064E-003;1.187965739518404E-003;
2.410500000000000E+009;1.823386698961258E-001;2.108055725693703E-002;3.493257798254490E-003;1.277100876905024E-003;
2.410666666666667E+009;1.813582926988602E-001;1.870684884488583E-002;3.512483322992921E-003;1.263250480405986E-003;
2.410833333333334E+009;1.806176006793976E-001;1.661729998886585E-002;3.564850427210331E-003;1.339306239970028E-003;
2.411000000000000E+009;1.799438148736954E-001;1.438699010759592E-002;3.483046544715762E-003;1.245407853275538E-003;
2.411166666666667E+009;1.793318986892700E-001;1.222624722868204E-002;3.705095499753952E-003;1.201237202621996E-003;
2.411333333333334E+009;1.787786036729813E-001;9.765380062162876E-003;3.751716809347272E-003;1.170181203633547E-003;
2.411500000000000E+009;1.783303171396256E-001;7.273332215845585E-003;3.825914580374956E-003;1.097941538318992E-003;
2.411666666666667E+009;1.779962927103043E-001;4.981071222573519E-003;4.036200698465109E-003;9.301586542278528E-004;
2.411833333333334E+009;1.778479665517807E-001;2.474382985383272E-003;4.036801867187023E-003;1.021636649966240E-003;
2.412000000000000E+009;1.780165880918503E-001;-9.565342770656571E-005;4.212642554193735E-003;9.276417549699545E-004;
2.412166666666667E+009;1.779692918062210E-001;-2.400533296167851E-003;4.488840233534575E-003;7.923413068056107E-004;
2.412333333333334E+009;1.781726330518723E-001;-4.852817859500647E-003;4.457420203834772E-003;6.986630614846945E-004;
2.412500000000000E+009;1.788499802350998E-001;-7.230513729155064E-003;4.394049756228924E-003;6.578053580597043E-004;
2.412666666666667E+009;1.792196929454804E-001;-9.705369360744953E-003;4.641248844563961E-003;2.818345092236996E-004;
2.412833333333334E+009;1.799912750720978E-001;-1.226268988102675E-002;4.750458523631096E-003;1.780073798727244E-004;
2.413000000000000E+009;1.804948151111603E-001;-1.450167503207922E-002;4.714549519121647E-003;-7.182249828474596E-005;
2.413166666666667E+009;1.817113459110260E-001;-1.682989485561848E-002;4.858722444623709E-003;-3.622832882683724E-004;
2.413333333333334E+009;1.826977580785751E-001;-1.917424425482750E-002;4.814855754375458E-003;-4.064617969561368E-004;
2.413500000000000E+009;1.835407912731171E-001;-2.135607041418552E-002;4.827880300581455E-003;-7.006729720160365E-004;
2.413666666666667E+009;1.847061067819595E-001;-2.351707592606545E-002;4.850478377193213E-003;-1.101857051253319E-003;
2.413833333333334E+009;1.860296428203583E-001;-2.565165981650353E-002;4.656329285353422E-003;-1.142233726568520E-003;
2.414000000000000E+009;1.870690882205963E-001;-2.752411738038063E-002;4.783779382705689E-003;-1.335498760454357E-003;
2.414166666666667E+009;1.883856654167175E-001;-2.909944579005241E-002;4.538051784038544E-003;-1.494640251621604E-003;
2.414333333333334E+009;1.895239800214768E-001;-3.127204626798630E-002;4.468070808798075E-003;-1.694127218797803E-003;
2.414500000000000E+009;1.908003985881805E-001;-3.277249634265900E-002;4.427030216902494E-003;-2.097564516589046E-003;
2.414666666666667E+009;1.920128762722015E-001;-3.423034027218819E-002;4.423282574862242E-003;-2.094250638037920E-003;
2.414833333333334E+009;1.930857598781586E-001;-3.554721176624298E-002;4.298127256333828E-003;-2.277061343193054E-003;
2.415000000000000E+009;1.943188011646271E-001;-3.700518980622292E-002;4.025280475616455E-003;-2.447386737912893E-003;
2.415166666666667E+009;1.956309229135513E-001;-3.813960403203964E-002;4.016981925815344E-003;-2.529074903577566E-003;
2.415333333333334E+009;1.966940313577652E-001;-3.891546651721001E-002;3.858237061649561E-003;-2.780020004138351E-003;
2.415500000000000E+009;1.977871507406235E-001;-3.972999379038811E-002;3.753034863620997E-003;-2.770105842500925E-003;
2.415666666666667E+009;1.988229155540466E-001;-4.072993993759155E-002;3.619060385972261E-003;-3.097766777500510E-003;
2.415833333333334E+009;1.996856778860092E-001;-4.126991331577301E-002;3.431296208873391E-003;-3.036325564607978E-003;
2.416000000000000E+009;2.004796862602234E-001;-4.190182313323021E-002;3.269981592893601E-003;-3.294565016403794E-003;
2.416166666666667E+009;2.012462913990021E-001;-4.234862700104713E-002;3.098132787272334E-003;-3.376333042979240E-003;
2.416333333333334E+009;2.017347663640976E-001;-4.254208132624626E-002;3.048195037990809E-003;-3.554682480171323E-003;
2.416500000000000E+009;2.023262828588486E-001;-4.284650087356567E-002;2.964358543977141E-003;-3.532791510224342E-003;
2.416666666666667E+009;2.025490254163742E-001;-4.312495887279511E-002;2.815963234752417E-003;-3.514553653076291E-003;
2.416833333333334E+009;2.027001976966858E-001;-4.310622811317444E-002;2.678924705833197E-003;-3.695910098031163E-003;
2.417000000000000E+009;2.028956711292267E-001;-4.323277622461319E-002;2.612346084788442E-003;-3.598417853936553E-003;
2.417166666666667E+009;2.025595605373383E-001;-4.307575151324272E-002;2.426481340080500E-003;-3.717642975971103E-003;
2.417333333333334E+009;2.022501379251480E-001;-4.296269267797470E-002;2.173011191189289E-003;-3.889233106747270E-003;
2.417500000000000E+009;2.020600289106369E-001;-4.301536828279495E-002;2.217742614448071E-003;-3.887504572048783E-003;
2.417666666666667E+009;2.014729976654053E-001;-4.255716130137444E-002;2.062803367152810E-003;-3.869384294375777E-003;
2.417833333333334E+009;2.011272311210632E-001;-4.244388267397881E-002;1.900884555652738E-003;-3.909953404217959E-003;
2.418000000000000E+009;2.004265487194061E-001;-4.210400208830833E-002;1.804237719625235E-003;-3.954585641622543E-003;
2.418166666666667E+009;1.995150148868561E-001;-4.214687645435333E-002;1.605481491424143E-003;-4.084439482539892E-003;
2.418333333333334E+009;1.985750496387482E-001;-4.201615974307060E-002;1.403053174726665E-003;-4.100273828953505E-003;
2.418500000000000E+009;1.976584047079086E-001;-4.197647422552109E-002;1.173252123408020E-003;-4.149925429373980E-003;
2.418666666666667E+009;1.966666877269745E-001;-4.194545745849609E-002;1.147867529653013E-003;-4.106372129172087E-003;
2.418833333333334E+009;1.953129917383194E-001;-4.196402430534363E-002;8.909124298952520E-004;-4.113733768463135E-003;
2.419000000000000E+009;1.940752565860748E-001;-4.216120764613152E-002;9.529990493319929E-004;-4.144359380006790E-003;
2.419166666666667E+009;1.928866207599640E-001;-4.253523424267769E-002;6.728067528456450E-004;-4.040478728711605E-003;
2.419333333333334E+009;1.914538145065308E-001;-4.306340962648392E-002;5.764476372860372E-004;-3.895386354997754E-003;
2.419500000000000E+009;1.900036782026291E-001;-4.350062832236290E-002;3.338826936669648E-004;-4.051290452480316E-003;
2.419666666666667E+009;1.884135603904724E-001;-4.430969431996346E-002;2.437314396956936E-004;-3.898976137861610E-003;
2.419833333333334E+009;1.866800189018250E-001;-4.506002366542816E-002;1.898149785120040E-004;-3.863383317366242E-003;
2.420000000000000E+009;1.851297914981842E-001;-4.587152227759361E-002;4.054725195601350E-006;-3.730758326128125E-003;
2.420166666666667E+009;1.834426820278168E-001;-4.681663587689400E-002;1.955023253685795E-005;-3.666071686893702E-003;
2.420333333333334E+009;1.819332391023636E-001;-4.811430722475052E-002;-2.518891051295213E-005;-3.692750120535493E-003;
2.420500000000000E+009;1.800472438335419E-001;-4.940608516335487E-002;-2.400944213150069E-004;-3.714998485520482E-003;
2.420666666666667E+009;1.783963888883591E-001;-5.056238174438477E-002;-3.064978518523276E-004;-3.602025099098682E-003;
2.420833333333334E+009;1.768534779548645E-001;-5.203342810273171E-002;-2.839277731254697E-004;-3.529147943481803E-003;
2.421000000000000E+009;1.754221171140671E-001;-5.360213667154312E-002;-2.825896954163909E-004;-3.709610085934401E-003;
2.421166666666667E+009;1.739537119865418E-001;-5.526556819677353E-002;-3.532087721396238E-004;-3.529648995026946E-003;
2.421333333333334E+009;1.723212599754334E-001;-5.684150382876396E-002;-5.285888328216970E-004;-3.573373891413212E-003;
2.421500000000000E+009;1.708819717168808E-001;-5.875484272837639E-002;-5.281902849674225E-004;-3.560570534318686E-003;
2.421666666666667E+009;1.696510165929794E-001;-6.070374697446823E-002;-6.898214342072606E-004;-3.526241285726428E-003;
2.421833333333334E+009;1.685018837451935E-001;-6.244608759880066E-002;-8.619124419055879E-004;-3.565114224329591E-003;
2.422000000000000E+009;1.673019379377365E-001;-6.444738805294037E-002;-8.338205516338348E-004;-3.407105803489685E-003;
2.422166666666667E+009;1.663885116577148E-001;-6.655277311801910E-002;-9.644677047617734E-004;-3.262770827859640E-003;
2.422333333333334E+009;1.652685701847076E-001;-6.858496367931366E-002;-9.118675952777267E-004;-3.283047350123525E-003;
2.422500000000000E+009;1.645915359258652E-001;-7.052075117826462E-002;-1.003251061774790E-003;-3.239789046347141E-003;
2.422666666666667E+009;1.639388948678970E-001;-7.252578437328339E-002;-9.553990676067770E-004;-3.164198715239763E-003;
2.422833333333334E+009;1.637548059225082E-001;-7.454708218574524E-002;-1.158473081886768E-003;-3.200401784852147E-003;
2.423000000000000E+009;1.632128506898880E-001;-7.670775055885315E-002;-1.313577173277736E-003;-3.041806630790234E-003;
2.423166666666667E+009;1.628333181142807E-001;-7.860513776540756E-002;-1.296460395678878E-003;-3.054509870707989E-003;
2.423333333333334E+009;1.626709252595902E-001;-8.047790825366974E-002;-1.180493389256299E-003;-3.053175983950496E-003;
2.423500000000000E+009;1.626426130533218E-001;-8.236125111579895E-002;-1.371768303215504E-003;-3.184711327776313E-003;
2.423666666666667E+009;1.625536084175110E-001;-8.447404205799103E-002;-1.433862256817520E-003;-3.162664128467441E-003;
2.423833333333334E+009;1.625191569328308E-001;-8.622071892023087E-002;-1.513839815743268E-003;-3.067353973165155E-003;
2.424000000000000E+009;1.627930253744125E-001;-8.792821317911148E-002;-1.654442865401506E-003;-3.189370268955827E-003;
2.424166666666667E+009;1.627544313669205E-001;-8.950537443161011E-002;-1.796906464733183E-003;-3.068932564929128E-003;
2.424333333333334E+009;1.631173491477966E-001;-9.095933288335800E-002;-1.833215006627142E-003;-3.034434514120221E-003;
2.424500000000000E+009;1.634498238563538E-001;-9.292782098054886E-002;-2.090150723233819E-003;-2.908752998337150E-003;
2.424666666666667E+009;1.636337041854858E-001;-9.414689242839813E-002;-2.371399663388729E-003;-2.935571363195777E-003;
2.424833333333334E+009;1.643446087837219E-001;-9.542427211999893E-002;-2.295706653967500E-003;-2.704075770452619E-003;
2.425000000000000E+009;1.646979749202728E-001;-9.670316427946091E-002;-2.575061051174998E-003;-2.761740935966373E-003;
2.425166666666667E+009;1.649159789085388E-001;-9.774649143218994E-002;-2.522902563214302E-003;-2.507382538169622E-003;
2.425333333333334E+009;1.654080599546433E-001;-9.860247373580933E-002;-2.773157553747296E-003;-2.432294655591250E-003;
2.425500000000000E+009;1.659966707229614E-001;-9.953155368566513E-002;-2.836410189047456E-003;-2.348107751458883E-003;
2.425666666666667E+009;1.663082689046860E-001;-1.002150326967239E-001;-2.783040981739759E-003;-2.148122992366552E-003;
2.425833333333334E+009;1.666603833436966E-001;-1.011735126376152E-001;-2.792501356452704E-003;-1.986296148970723E-003;
2.426000000000000E+009;1.669902503490448E-001;-1.015081480145454E-001;-2.883265726268292E-003;-1.963496208190918E-003;
2.426166666666667E+009;1.676379591226578E-001;-1.020364537835121E-001;-2.871985081583262E-003;-1.795655000023544E-003;
2.426333333333334E+009;1.676878631114960E-001;-1.025975197553635E-001;-2.926789456978440E-003;-1.718604704365134E-003;
2.426500000000000E+009;1.680688112974167E-001;-1.027676910161972E-001;-2.928215311840177E-003;-1.593139953911305E-003;
2.426666666666667E+009;1.683507859706879E-001;-1.031715124845505E-001;-2.836649306118488E-003;-1.446201815269887E-003;
2.426833333333334E+009;1.684820055961609E-001;-1.034733206033707E-001;-2.848616801202297E-003;-1.346818404272199E-003;
2.427000000000000E+009;1.685431152582169E-001;-1.036145761609078E-001;-2.862381050363183E-003;-1.343830372206867E-003;
2.427166666666667E+009;1.685643643140793E-001;-1.036088913679123E-001;-2.823384711518884E-003;-1.256000366993249E-003;
2.427333333333334E+009;1.684602349996567E-001;-1.038904711604118E-001;-2.901314059272409E-003;-1.212208415381610E-003;
2.427500000000000E+009;1.681947410106659E-001;-1.040640026330948E-001;-2.765861107036471E-003;-9.666256955824792E-004;
2.427666666666667E+009;1.678790748119354E-001;-1.040576919913292E-001;-2.834383863955736E-003;-9.343953570351005E-004;
2.427833333333334E+009;1.674494892358780E-001;-1.042013242840767E-001;-2.867776434868574E-003;-8.845154079608619E-004;
