# Hz S RI R 50
2400000000.0000000000 0.156610623002052307128906250000 0.105998508632183102706747490629 0.003089065663516521887538290869 -0.001126292743720114014269184644 0 0 0 0 
2400166666.6666665077 0.156674087047576904296875000000 0.103722296655178097823934990629 0.003086929209530353979823447119 -0.001306560821831225915196084131 0 0 0 0 
2400333333.3333334923 0.156860798597335787674111884371 0.101507052779197706748881557814 0.003250253852456808090209960938 -0.001706041744910181002375937354 0 0 0 0 
2400500000.0000000000 0.157069161534309387207031250000 0.098962105810642242431640625000 0.003065802389755845069885253906 -0.001945089898072182915331196362 0 0 0 0 
2400666666.6666665077 0.157422319054603604415731865629 0.096647858619689941406250000000 0.003091225167736411094665527344 -0.002277623862028121948242187500 0 0 0 0 
2400833333.3333334923 0.157542318105697604080361884371 0.094079650938510894775390625000 0.002892619930207728905918740381 -0.002612916985526680946350097656 0 0 0 0 
2401000000.0000000000 0.157990217208862304687500000000 0.091366492211818695068359375000 0.002780963201075791878941201318 -0.002811879385262728171107626807 0 0 0 0 
2401166666.6666665077 0.158296853303909301757812500000 0.088819317519664764404296875000 0.002475587651133536858799599756 -0.003037505317479372024536132812 0 0 0 0 
2401333333.3333334923 0.158793047070503207107705634371 0.086202576756477355957031250000 0.002321244217455387115478515625 -0.003458150895312428908107138525 0 0 0 0 
2401500000.0000000000 0.159318506717681912521200615629 0.083352781832218170166015625000 0.001994849648326634927036904443 -0.003594795474782586097717285156 0 0 0 0 
2401666666.6666665077 0.159776732325553894042968750000 0.080816701054573059082031250000 0.001715814112685621001599955981 -0.003652529325336217880249023438 0 0 0 0 
2401833333.3333334923 0.160512357950210599044638115629 0.078168421983718872070312500000 0.001379318418912589983699179541 -0.003735173726454377174377441406 0 0 0 0 
2402000000.0000000000 0.161305993795394897460937500000 0.075644105672836303710937500000 0.000962598423939198255538940430 -0.003815463744103908972499228369 0 0 0 0 
2402166666.6666665077 0.162014782428741510589276231258 0.073197215795516967773437500000 0.000786345452070236206054687500 -0.003782305633649230003356933594 0 0 0 0 
2402333333.3333334923 0.163018196821212796310263115629 0.070817679166793823242187500000 0.000436527450801804715960902081 -0.003789871931076049804687500000 0 0 0 0 
2402500000.0000000000 0.164137944579124506194744981258 0.068393841385841369628906250000 0.000213609964703209698200225830 -0.003659843467175960974452353369 0 0 0 0 
2402666666.6666665077 0.165016785264015197753906250000 0.066236890852451324462890625000 0.000008161136975104454904794693 -0.003544145030900835990905761719 0 0 0 0 
2402833333.3333334923 0.166317880153656005859375000000 0.063846603035926818847656250000 -0.000302326690871268510818481445 -0.003450948512181640105006552588 0 0 0 0 
2403000000.0000000000 0.167616903781890896896200615629 0.061747726052999503398854841407 -0.000576450256630778312683105469 -0.003454376244917511940002441406 0 0 0 0 
2403166666.6666665077 0.169215887784957913497763115629 0.059729449450969702983815778907 -0.000463048403616994619369506836 -0.003281860845163464979884482275 0 0 0 0 
2403333333.3333334923 0.170557424426078796386718750000 0.057615362107753746723215471093 -0.000765025848522782325744628906 -0.003314932575449347929713583838 0 0 0 0 
2403500000.0000000000 0.171908810734748812576455634371 0.055815100669860839843750000000 -0.000814830942545086253821218225 -0.003152034943923354148864746094 0 0 0 0 
2403666666.6666665077 0.173439726233482388595419365629 0.053865537047386169433593750000 -0.001102760550566018061396933447 -0.003176681231707334952113486182 0 0 0 0 
2403833333.3333334923 0.174924790859222412109375000000 0.052026849240064620971679687500 -0.001267257379367948012111044775 -0.002942133462056518034694052588 0 0 0 0 
2404000000.0000000000 0.176180124282836886306924384371 0.050339695066213607788085937500 -0.001304567675106226964237832178 -0.002998986979946494102478027344 0 0 0 0 
2404166666.6666665077 0.177685499191284207443075615629 0.048910956829786300659179687500 -0.001447194139473140022875141675 -0.002755240071564912796020507812 0 0 0 0 
2404333333.3333334923 0.178962901234626797775106865629 0.047469288110733032226562500000 -0.001587582984939218001124716650 -0.002601791871711612181422568213 0 0 0 0 
2404500000.0000000000 0.180480718612670898437500000000 0.045988295227289199829101562500 -0.001753799966536462090135883862 -0.002509674755856395201442099463 0 0 0 0 
2404666666.6666665077 0.181848824024200411697549384371 0.044946856796741492534597028907 -0.001796224270947277979609824072 -0.002408640692010521888732910156 0 0 0 0 
2404833333.3333334923 0.183240443468093899825888115629 0.043863158673048019409179687500 -0.002042370615527033805847167969 -0.002252784324809908866882324219 0 0 0 0 
2405000000.0000000000 0.184266582131385803222656250000 0.043164595961570739746093750000 -0.002026023343205451965332031250 -0.002290420467033981843235634912 0 0 0 0 
2405166666.6666665077 0.185572043061256408691406250000 0.042359713464975357055664062500 -0.002280863001942635016200400244 -0.002009630668908358053920126807 0 0 0 0 
2405333333.3333334923 0.186705574393272399902343750000 0.041844192892312996601145158593 -0.002309147035703063011169433594 -0.001654320978559554056880331885 0 0 0 0 
2405500000.0000000000 0.187901079654693603515625000000 0.041176553815603263164479841407 -0.002459756797179580168483115088 -0.001660104840993881008745503003 0 0 0 0 
2405666666.6666665077 0.188848197460174588302450615629 0.040714837610721588134765625000 -0.002499494003131986098048544775 -0.001712242490611969990971230615 0 0 0 0 
2405833333.3333334923 0.189857631921768188476562500000 0.040178652852773673320729841407 -0.002601639134809374809265136719 -0.001470858231186866977094340747 0 0 0 0 
2406000000.0000000000 0.190784454345703097244424384371 0.039859954267740249633789062500 -0.002506263088434935049769736182 -0.001235909992828964970232319409 0 0 0 0 
2406166666.6666665077 0.191418781876563998123330634371 0.039643984287977218627929687500 -0.002571696881204843954799033057 -0.001011407934129237911821674878 0 0 0 0 
2406333333.3333334923 0.192233666777610806564169365629 0.039436694234609596942942033593 -0.002571956953033804893493652344 -0.000779658439569175243377685547 0 0 0 0 
2406500000.0000000000 0.192898973822593688964843750000 0.039317827671766281127929687500 -0.002587286056950687928440713037 -0.000715650618076324462890625000 0 0 0 0 
2406666666.6666665077 0.193290218710899408538494981258 0.039279285818338387226145158593 -0.002440769691020249886753701318 -0.000536406761966645717620849609 0 0 0 0 
2406833333.3333334923 0.193769514560699490646200615629 0.038931500166654586791992187500 -0.002399282529950141906738281250 -0.000380262237740680575370788574 0 0 0 0 
2407000000.0000000000 0.193977251648902893066406250000 0.039015185087919242168386091407 -0.002514984225854278044459677588 -0.000367086206097155809402465820 0 0 0 0 
2407166666.6666665077 0.194458961486816406250000000000 0.038618892431259162212331403907 -0.002340940525755286216735839844 -0.000096654839580878615379333496 0 0 0 0 
2407333333.3333334923 0.194328501820564297775106865629 0.038631241768598563457448591407 -0.002372968709096312956569052588 -0.000012082178727723659778935279 0 0 0 0 
2407500000.0000000000 0.194199264049530001541299384371 0.038395114243030548095703125000 -0.002250267425552010969874716650 0.000193316489458084106445312500 0 0 0 0 
2407666666.6666665077 0.194120123982429504394531250000 0.038163185119628913188893903907 -0.002215343294665216965916298975 0.000394336500903591513633728027 0 0 0 0 
2407833333.3333334923 0.193880245089530889313067518742 0.037824995815753936767578125000 -0.002161300042644143104553222656 0.000400389981223270297050476074 0 0 0 0 
2408000000.0000000000 0.193829253315925598144531250000 0.037554670125246047973632812500 -0.002017454011365770859959267725 0.000602140207774937152862548828 0 0 0 0 
2408166666.6666665077 0.193372547626495389083700615629 0.037152398377656936645507812500 -0.001942278351634741046308207935 0.000675188668537884950637817383 0 0 0 0 
2408333333.3333334923 0.192930012941360501388388115629 0.036354165524244308471679687500 -0.001768480404280126094818115234 0.000752709456719458103179931641 0 0 0 0 
2408500000.0000000000 0.192489624023437500000000000000 0.036026790738105766986887346093 -0.001586694503203033967259072412 0.000986438011750578880310058594 0 0 0 0 
2408666666.6666665077 0.192043200135230990310830634371 0.035378608852624893188476562500 -0.001585398684255779006360698169 0.001020438619889318943023681641 0 0 0 0 
2408833333.3333334923 0.191501364111900301834268134371 0.034538134932518012309987653907 -0.001343641662970185063005756909 0.001185633591376245021820068359 0 0 0 0 
2409000000.0000000000 0.190797388553619412521200615629 0.033367823809385299682617187500 -0.001237599761225282929064106519 0.001158344326540827968000102466 0 0 0 0 
2409166666.6666665077 0.190134093165397588531817518742 0.032495290040969848632812500000 -0.000982667552307248115539550781 0.001134242513217031955718994141 0 0 0 0 
2409333333.3333334923 0.189347416162490789215411268742 0.031484480947256088256835937500 -0.001007726765237749056575156104 0.001178381382487714073778461987 0 0 0 0 
2409500000.0000000000 0.188418552279472406585369981258 0.030186245217919349670410156250 -0.000607061549089848995208740234 0.001008868101052939891815185547 0 0 0 0 
2409666666.6666665077 0.187607049942016601562500000000 0.028764711692929271352747733204 -0.000567779585253447294235229492 0.001304232515394688086268759619 0 0 0 0 
2409833333.3333334923 0.186894118785858209808026231258 0.027216222137212749826451485546 -0.000284787034615874290466308594 0.000978984637185931205749511719 0 0 0 0 
2410000000.0000000000 0.186165302991867093185263115629 0.025853902101516720163365548046 -0.000252430734690278822749537335 0.000928717607166618108749389648 0 0 0 0 
2410166666.6666665077 0.185310557484626797775106865629 0.023958889767527580261230468750 -0.000068194356572348624467849731 0.000925124448258429765701293945 0 0 0 0 
2410333333.3333334923 0.184743732213973999023437500000 0.022291576489806178701380545704 -0.000046197492338251322507858276 0.000635936565231531858444213867 0 0 0 0 
2410500000.0000000000 0.183880776166915893554687500000 0.020564271137118339538574218750 0.000069761728809680789709091187 0.000603358726948499679565429688 0 0 0 0 
2410666666.6666665077 0.183100923895835904220419365629 0.018360717222094539297083670704 -0.000003367424596945057115282259 0.000488678109832108020782470703 0 0 0 0 
2410833333.3333334923 0.182768866419792203048544365629 0.016360366716980930673619454296 0.000147607483086176189497271127 0.000307361740851774811744689941 0 0 0 0 
2411000000.0000000000 0.182116806507110595703125000000 0.014420444145798679697056954296 0.000091026471636723726987838745 0.000234259947319515103667658673 0 0 0 0 
2411166666.6666665077 0.181613072752952603439169365629 0.012342394329607490194300467579 0.000056401986512355513196399076 0.000114795948320534093819479671 0 0 0 0 
2411333333.3333334923 0.181555241346359308440838731258 0.010181561112403869628906250000 0.000058011988585349172353744507 -0.000094294053269550204277038574 0 0 0 0 
2411500000.0000000000 0.181042954325675992111044365629 0.008005533367395401000976562500 0.000095962132036220282316207886 -0.000000125719665788892598357052 0 0 0 0 
2411666666.6666665077 0.180989131331443786621093750000 0.005876889917999505996704101562 -0.000101115670986473600990833421 -0.000025110279239015650341306993 0 0 0 0 
2411833333.3333334923 0.180884987115860013107138115629 0.003786013927310705184936523438 -0.000143889061291702091693878174 -0.000018344459022046070208753279 0 0 0 0 
2412000000.0000000000 0.180853694677352905273437500000 0.001325816498138010935542441260 -0.000103227866929955794058661189 -0.000125599588500335812568664551 0 0 0 0 
2412166666.6666665077 0.181116133928299005706463731258 -0.000678169773891568183898925781 -0.000190671809832565513536176138 -0.000186728735570795806959429330 0 0 0 0 
2412333333.3333334923 0.181286945939063998123330634371 -0.002911618677899241013767861475 -0.000225989933824166709750574933 -0.000190358361578546491548261099 0 0 0 0 
2412500000.0000000000 0.181876420974731500823651231258 -0.005221431143581867218017578125 -0.000237634158111177411958417349 -0.000025589930373826060781275102 0 0 0 0 
2412666666.6666665077 0.182302981615066500564736884371 -0.007441499736160039901733398438 -0.000178369475179351893350324088 -0.000233025552006438401624402457 0 0 0 0 
2412833333.3333334923 0.182983502745628412444744981258 -0.009628508239984512329101562500 -0.000220502741285599795266827994 -0.000307103327941149473190307617 0 0 0 0 
2413000000.0000000000 0.183536052703857394119424384371 -0.011671668849885460245152657421 -0.000250434153713285923004150391 -0.000228916906053200391217908316 0 0 0 0 
2413166666.6666665077 0.184442743659019497970419365629 -0.013644260354340079915980155079 -0.000151503525557927787303924561 -0.000215060223126783994123181754 0 0 0 0 
2413333333.3333334923 0.185351192951202392578125000000 -0.015691103413701060903528983204 -0.000189934100490063401773729868 -0.000166596815688535598203381949 0 0 0 0 
2413500000.0000000000 0.186165556311607388595419365629 -0.017853070050477981567382812500 -0.000195328044355846887260991229 -0.000459974486147984916537684308 0 0 0 0 
2413666666.6666665077 0.187087491154670687576455634371 -0.019715160131454471242884451954 -0.000071212918555829674005508423 -0.000272525649052113294601440430 0 0 0 0 
2413833333.3333334923 0.188223674893379211425781250000 -0.021695066243410110473632812500 -0.000166487297974526909276685172 -0.000352446892065927386283874512 0 0 0 0 
2414000000.0000000000 0.189138144254684503753338731258 -0.023688228800892829895019531250 -0.000188077057828195393085479736 -0.000581155007239431142807006836 0 0 0 0 
2414166666.6666665077 0.190187275409698486328125000000 -0.025207072496414191509206403907 -0.000275068246992304921150207520 -0.000476248183986172080039978027 0 0 0 0 
2414333333.3333334923 0.191111862659454401214276231258 -0.026991950348019599914550781250 -0.000395818438846617882877904071 -0.000665793369989842176437377930 0 0 0 0 
2414500000.0000000000 0.192215710878372192382812500000 -0.028386238962411880493164062500 -0.000358098710421472787857055664 -0.000741080555599182844161987305 0 0 0 0 
2414666666.6666665077 0.193215996026992797851562500000 -0.029778854921460151672363281250 -0.000318516045808792114257812500 -0.000791882805060595273971557617 0 0 0 0 
2414833333.3333334923 0.194074168801307705978231865629 -0.031138578429818149911900704296 -0.000529415556229650974273681641 -0.000786240096203982830047607422 0 0 0 0 
2415000000.0000000000 0.195007100701332092285156250000 -0.032507035881280899047851562500 -0.000723070465028285980224609375 -0.000875358644407242536544799805 0 0 0 0 
2415166666.6666665077 0.196068227291107205489950615629 -0.033481057733297348022460937500 -0.000882532680407166481018066406 -0.000935356016270816326141357422 0 0 0 0 
2415333333.3333334923 0.197075247764587402343750000000 -0.034469299018383033061940778907 -0.001008428749628365039825439453 -0.000968046893831342458724975586 0 0 0 0 
2415500000.0000000000 0.198002234101295498946981865629 -0.035373482853174209594726562500 -0.001215129392221570014953613281 -0.000881152460351586341857910156 0 0 0 0 
2415666666.6666665077 0.198824107646942110916299384371 -0.036235831677913672710378278907 -0.001410901546478271918055868994 -0.000915442709811031818389892578 0 0 0 0 
2415833333.3333334923 0.199512407183647211272869981258 -0.036888726055622100830078125000 -0.001542708952911197922350239331 -0.000759962305892258882522583008 0 0 0 0 
2416000000.0000000000 0.200040698051452608963174384371 -0.037620317190885536884348283593 -0.001596733694896101951599121094 -0.000784260977525264024734497070 0 0 0 0 
2416166666.6666665077 0.200747996568679809570312500000 -0.038294877856969833374023437500 -0.001761047053150833086726523291 -0.000441248645074665600627344952 0 0 0 0 
2416333333.3333334923 0.201020017266273498535156250000 -0.038766659796237952495534528907 -0.001929390709847212054608989185 -0.000312070449581369811862391339 0 0 0 0 
2416500000.0000000000 0.201520383358001708984375000000 -0.039211213588714599609375000000 -0.001981764798983931975123740088 -0.000144676814670674502849578857 0 0 0 0 
2416666666.6666665077 0.201792314648628207107705634371 -0.039686232805252082134206403907 -0.001919383183121680996538471753 0.000038997593946987763047218323 0 0 0 0 
2416833333.3333334923 0.201758116483688410003338731258 -0.039729349315166473388671875000 -0.002165833255276083946228027344 0.000310945441015064716339111328 0 0 0 0 
2417000000.0000000000 0.201850950717925997635049384371 -0.040181860327720642089843750000 -0.002113031689077616171595908057 0.000485188880702480673789978027 0 0 0 0 
2417166666.6666665077 0.201447144150734003265057481258 -0.040225379168987267231027971093 -0.001825946848839520974400185693 0.000642758619505912065505981445 0 0 0 0 
2417333333.3333334923 0.201247259974479703048544365629 -0.040335308760404586791992187500 -0.001806081738322973034502338940 0.000810515892226248979568481445 0 0 0 0 
2417500000.0000000000 0.200902476906776400467080634371 -0.040413282811641693115234375000 -0.001751156523823738098144531250 0.000816897198092192411422729492 0 0 0 0 
2417666666.6666665077 0.200392231345176696777343750000 -0.040577985346317291259765625000 -0.001649975194595753929735493237 0.000882659631315618753433227539 0 0 0 0 
2417833333.3333334923 0.200029611587524386306924384371 -0.040662087500095367431640625000 -0.001653356477618217901942587744 0.000969094922766089439392089844 0 0 0 0 
2418000000.0000000000 0.199422180652618408203125000000 -0.040549665689468376850168596093 -0.001387218362651764912846230615 0.001017630100250243923784565503 0 0 0 0 
2418166666.6666665077 0.198690772056579589843750000000 -0.040640883147716522216796875000 -0.001455402700230479023577045972 0.001116345287300646088243794019 0 0 0 0 
2418333333.3333334923 0.197770804166793795486611884371 -0.040714263916015631938893903907 -0.001440175925381482081172324072 0.001008023158647119998931884766 0 0 0 0 
2418500000.0000000000 0.196897506713867187500000000000 -0.041051730513572692871093750000 -0.001334913307800889015197753906 0.001323288190178572914720844800 0 0 0 0 
2418666666.6666665077 0.196126863360404996017294365629 -0.041171252727508551860768903907 -0.001246220665052532932878803784 0.001332779764197766997693705981 0 0 0 0 
2418833333.3333334923 0.195040062069892911056356865629 -0.041399598121643073345143903907 -0.001195383258163928985595703125 0.001313017564825714068171835791 0 0 0 0 
2419000000.0000000000 0.193879798054695101638955634371 -0.041813500225543982768972028907 -0.001217365497723221995710063403 0.001321662217378615899326943506 0 0 0 0 
2419166666.6666665077 0.192823305726051302810830634371 -0.042302276939153671264648437500 -0.001273052301257848956464457935 0.001476354431360960006713867188 0 0 0 0 
2419333333.3333334923 0.191615223884582491775674384371 -0.042891819030046463012695312500 -0.001059553702361881949781108325 0.001524023478850722096086811597 0 0 0 0 
2419500000.0000000000 0.190355703234672601897869981258 -0.043348759412765502929687500000 -0.001255658455193042971967387622 0.001795253483578562953351664966 0 0 0 0 
2419666666.6666665077 0.188928082585334805587606865629 -0.044362913817167282104492187500 -0.001013002591207623915431357275 0.001917607383802532932878803784 0 0 0 0 
2419833333.3333334923 0.187701165676116887848223768742 -0.044996112585067749023437500000 -0.000998908653855323791503906250 0.001992189558222889900207519531 0 0 0 0 
