# Version 1.00
#
freq[Hz];re:Trc1_S11;im:Trc1_S11;re:Trc2_S21;im:Trc2_S21;
2.400000000000000E+009;1.691434234380722E-001;4.020468145608902E-002;2.669512061402202E-003;5.954071530140936E-004;
2.400166666666667E+009;1.698462218046188E-001;3.957697004079819E-002;2.793862950056791E-003;6.013620295561850E-004;
2.400333333333334E+009;1.704203784465790E-001;3.875074908137322E-002;2.925350563600659E-003;5.425647250376642E-004;
2.400500000000000E+009;1.708323657512665E-001;3.802778944373131E-002;2.673801500350237E-003;4.716638068202883E-004;
2.400666666666667E+009;1.711843013763428E-001;3.721344098448753E-002;2.903256099671125E-003;4.054656601510942E-004;
2.400833333333334E+009;1.716872602701187E-001;3.648828715085983E-002;2.892986638471484E-003;4.958335775882006E-004;
2.401000000000000E+009;1.720223575830460E-001;3.579204156994820E-002;2.792646875604987E-003;2.081468119286001E-004;
2.401166666666667E+009;1.722782254219055E-001;3.491670265793800E-002;2.855910686776042E-003;1.193154093925841E-004;
2.401333333333334E+009;1.723151803016663E-001;3.425975888967514E-002;2.903076121583581E-003;2.247849988634698E-005;
2.401500000000000E+009;1.725821495056152E-001;3.360715508460999E-002;2.965350169688463E-003;-3.639540591393597E-005;
2.401666666666667E+009;1.726567000150681E-001;3.275551274418831E-002;2.842836314812303E-003;-1.912954758154228E-004;
2.401833333333334E+009;1.725734472274780E-001;3.207765519618988E-002;2.841595094650984E-003;-1.422955683665350E-004;
2.402000000000000E+009;1.724331974983215E-001;3.131446242332459E-002;2.846969291567802E-003;-2.022687258431688E-004;
2.402166666666667E+009;1.726069748401642E-001;3.020769357681274E-002;2.952385926619172E-003;-2.847876457963139E-004;
2.402333333333334E+009;1.723253726959229E-001;2.957284823060036E-002;2.919328399002552E-003;-3.148432588204742E-004;
2.402500000000000E+009;1.724480986595154E-001;2.855476178228855E-002;2.816041465848684E-003;-5.767341353930533E-004;
2.402666666666667E+009;1.723368763923645E-001;2.773839235305786E-002;2.714672125875950E-003;-4.278306732885540E-004;
2.402833333333334E+009;1.723299473524094E-001;2.664919383823872E-002;2.685183426365256E-003;-5.109042976982892E-004;
2.403000000000000E+009;1.721545755863190E-001;2.565015479922295E-002;2.762352814897895E-003;-4.677236138377339E-004;
2.403166666666667E+009;1.719129830598831E-001;2.467179484665394E-002;2.760151401162148E-003;-7.279986166395247E-004;
2.403333333333334E+009;1.716666370630264E-001;2.356781437993050E-002;2.653499366715550E-003;-5.892132176086307E-004;
2.403500000000000E+009;1.712886095046997E-001;2.241025492548943E-002;2.767085796222091E-003;-8.304833900183439E-004;
2.403666666666667E+009;1.710564494132996E-001;2.104039303958416E-002;2.851140685379505E-003;-8.105120505206287E-004;
2.403833333333334E+009;1.708147674798966E-001;1.975282095372677E-002;2.922288840636611E-003;-9.473843965679407E-004;
2.404000000000000E+009;1.707306802272797E-001;1.863220892846584E-002;2.993830945342779E-003;-1.060650683939457E-003;
2.404166666666667E+009;1.703012585639954E-001;1.716570556163788E-002;2.859920263290405E-003;-1.152751618064940E-003;
2.404333333333334E+009;1.701138019561768E-001;1.588510908186436E-002;2.988702384755015E-003;-1.043099560774863E-003;
2.404500000000000E+009;1.697677671909332E-001;1.443565823137760E-002;3.041459247469902E-003;-1.413720310665667E-003;
2.404666666666667E+009;1.697147488594055E-001;1.307061966508627E-002;2.931624650955200E-003;-1.514757052063942E-003;
2.404833333333334E+009;1.694073826074600E-001;1.152665261179209E-002;3.001312026754022E-003;-1.385005423799157E-003;
2.405000000000000E+009;1.693853437900543E-001;9.901076555252075E-003;2.811194863170385E-003;-1.774248550646007E-003;
2.405166666666667E+009;1.693981289863586E-001;8.256806060671806E-003;2.978841075673699E-003;-1.834102324210107E-003;
2.405333333333334E+009;1.693409383296967E-001;6.548190023750067E-003;2.837600652128458E-003;-2.113882219418883E-003;
2.405500000000000E+009;1.691884696483612E-001;4.966999404132366E-003;2.715725684538484E-003;-2.087670145556331E-003;
2.405666666666667E+009;1.691723614931107E-001;3.203573171049357E-003;2.794575178995729E-003;-2.190866274759173E-003;
2.405833333333334E+009;1.688427925109863E-001;1.754472963511944E-003;2.498618559911847E-003;-2.278240397572517E-003;
2.406000000000000E+009;1.689448654651642E-001;-2.138494164682925E-004;2.515855478122830E-003;-2.431276254355907E-003;
2.406166666666667E+009;1.687865257263184E-001;-1.738449442200363E-003;2.363290870562196E-003;-2.545793307945132E-003;
2.406333333333334E+009;1.687432229518890E-001;-3.565844381228089E-003;2.340740989893675E-003;-2.527323318645358E-003;
2.406500000000000E+009;1.685774028301239E-001;-5.200847517699003E-003;2.292807213962078E-003;-2.699731616303325E-003;
2.406666666666667E+009;1.683475673198700E-001;-6.769011262804270E-003;2.019908744841814E-003;-2.569402568042278E-003;
2.406833333333334E+009;1.684549003839493E-001;-8.531902916729450E-003;1.988578587770462E-003;-2.906149253249168E-003;
2.407000000000000E+009;1.683682799339294E-001;-1.012737862765789E-002;1.909942599013448E-003;-2.901117550209165E-003;
2.407166666666667E+009;1.683649569749832E-001;-1.151888631284237E-002;1.779008307494223E-003;-2.939436119049788E-003;
2.407333333333334E+009;1.681041419506073E-001;-1.307784859091044E-002;1.566558144986630E-003;-3.037099028006196E-003;
2.407500000000000E+009;1.680157333612442E-001;-1.445446815341711E-002;1.627922989428043E-003;-3.143461886793375E-003;
2.407666666666667E+009;1.681256741285324E-001;-1.578015461564064E-002;1.307664439082146E-003;-3.119753673672676E-003;
2.407833333333334E+009;1.679187417030335E-001;-1.704817451536655E-002;1.372591359540820E-003;-3.174210665747523E-003;
2.408000000000000E+009;1.678729504346848E-001;-1.829796098172665E-002;1.147086382843554E-003;-3.252397989854217E-003;
2.408166666666667E+009;1.679485440254211E-001;-1.913881115615368E-002;1.129879732616246E-003;-3.092507831752300E-003;
2.408333333333334E+009;1.681970804929733E-001;-2.018916048109531E-002;1.025113160721958E-003;-3.195975208655000E-003;
2.408500000000000E+009;1.682756990194321E-001;-2.112064324319363E-002;9.355499059893191E-004;-3.188372822478414E-003;
2.408666666666667E+009;1.683475971221924E-001;-2.218079939484596E-002;7.345179328694940E-004;-3.233220661059022E-003;
2.408833333333334E+009;1.683526486158371E-001;-2.309204824268818E-002;7.617413066327572E-004;-3.257381729781628E-003;
2.409000000000000E+009;1.684942990541458E-001;-2.394803985953331E-002;5.111544742248952E-004;-3.326154546812177E-003;
2.409166666666667E+009;1.689139157533646E-001;-2.476207353174686E-002;5.138655542396009E-004;-3.463658038526774E-003;
2.409333333333334E+009;1.691210865974426E-001;-2.551884762942791E-002;2.389158325968310E-004;-3.362792311236262E-003;
2.409500000000000E+009;1.693782210350037E-001;-2.652741968631744E-002;3.256134004914202E-005;-3.428907599300146E-003;
2.409666666666667E+009;1.694534868001938E-001;-2.741659246385098E-002;1.428426185157150E-004;-3.438067389652133E-003;
2.409833333333334E+009;1.695021539926529E-001;-2.807354740798473E-002;-1.804624771466479E-004;-3.394631436094642E-003;
2.410000000000000E+009;1.698899865150452E-001;-2.874761261045933E-002;-2.974629751406610E-004;-3.371183527633548E-003;
2.410166666666667E+009;1.701675057411194E-001;-2.959185838699341E-002;-4.990223096683621E-004;-3.272196045145392E-003;
2.410333333333334E+009;1.700644940137863E-001;-3.046580217778683E-002;-5.929745384491980E-004;-3.251536050811410E-003;
2.410500000000000E+009;1.701324731111527E-001;-3.133656829595566E-002;-6.455813418142498E-004;-3.171034390106797E-003;
2.410666666666667E+009;1.701339483261108E-001;-3.219752386212349E-002;-9.013332892209292E-004;-3.246390959247947E-003;
2.410833333333334E+009;1.700885593891144E-001;-3.284858167171478E-002;-1.128017203882337E-003;-3.038133494555950E-003;
2.411000000000000E+009;1.700422614812851E-001;-3.362371027469635E-002;-1.155118225142360E-003;-2.867995295673609E-003;
2.411166666666667E+009;1.698282212018967E-001;-3.431432694196701E-002;-1.260355929844081E-003;-2.939326455816627E-003;
2.411333333333334E+009;1.697215437889099E-001;-3.504396602511406E-002;-1.369614852592349E-003;-2.657018601894379E-003;
2.411500000000000E+009;1.694982647895813E-001;-3.586912155151367E-002;-1.474382821470499E-003;-2.549080643802881E-003;
2.411666666666667E+009;1.693327873945236E-001;-3.656905889511108E-002;-1.476304372772574E-003;-2.283197361975908E-003;
2.411833333333334E+009;1.689210832118988E-001;-3.727067261934280E-002;-1.299342606216669E-003;-2.209918340668082E-003;
2.412000000000000E+009;1.688584387302399E-001;-3.799387440085411E-002;-1.449646078981459E-003;-2.049183007329702E-003;
2.412166666666667E+009;1.684567630290985E-001;-3.892970085144043E-002;-1.517770113423467E-003;-2.108992543071508E-003;
2.412333333333334E+009;1.684036701917648E-001;-3.965356573462486E-002;-1.381897367537022E-003;-1.879411167465150E-003;
2.412500000000000E+009;1.677736341953278E-001;-4.053148999810219E-002;-1.229339744895697E-003;-1.909774029627442E-003;
2.412666666666667E+009;1.673594862222672E-001;-4.149023070931435E-002;-1.016075024381280E-003;-1.797489821910858E-003;
2.412833333333334E+009;1.668927520513535E-001;-4.260575398802757E-002;-9.597791358828545E-004;-1.828970620408654E-003;
2.413000000000000E+009;1.663762032985687E-001;-4.327596351504326E-002;-9.924722835421562E-004;-1.652423525229096E-003;
2.413166666666667E+009;1.659142971038818E-001;-4.432639852166176E-002;-7.111185113899410E-004;-1.906610443256795E-003;
2.413333333333334E+009;1.651327013969421E-001;-4.532232880592346E-002;-7.851539412513375E-004;-1.964832888916135E-003;
2.413500000000000E+009;1.646886020898819E-001;-4.624377563595772E-002;-6.774828652851284E-004;-2.116995630785823E-003;
2.413666666666667E+009;1.642419397830963E-001;-4.715878143906593E-002;-5.952558130957186E-004;-2.188588026911020E-003;
2.413833333333334E+009;1.635872274637222E-001;-4.830174148082733E-002;-8.876484353095293E-004;-2.138170413672924E-003;
2.414000000000000E+009;1.628237217664719E-001;-4.922825470566750E-002;-8.640607120469213E-004;-2.474820474162698E-003;
2.414166666666667E+009;1.626050770282745E-001;-5.015752837061882E-002;-1.088730525225401E-003;-2.378395525738597E-003;
2.414333333333334E+009;1.620138138532639E-001;-5.117234587669373E-002;-1.327008707448840E-003;-2.459321403875947E-003;
2.414500000000000E+009;1.616867631673813E-001;-5.207411199808121E-002;-1.267032697796822E-003;-2.442162018269301E-003;
2.414666666666667E+009;1.612186878919601E-001;-5.300073698163033E-002;-1.346141449175775E-003;-2.612085314467549E-003;
2.414833333333334E+009;1.607866734266281E-001;-5.438334122300148E-002;-1.509056193754077E-003;-2.657928038388491E-003;
2.415000000000000E+009;1.605655401945114E-001;-5.535290017724037E-002;-1.756157376803458E-003;-2.523488365113735E-003;
2.415166666666667E+009;1.601961553096771E-001;-5.651511996984482E-002;-1.846262603066862E-003;-2.530945464968681E-003;
2.415333333333334E+009;1.600669026374817E-001;-5.785647407174110E-002;-1.931796548888087E-003;-2.502936404198408E-003;
2.415500000000000E+009;1.598284244537354E-001;-5.903943255543709E-002;-2.118241041898727E-003;-2.200842835009098E-003;
2.415666666666667E+009;1.595178693532944E-001;-6.027744710445404E-002;-2.208176767453551E-003;-2.217541448771954E-003;
2.415833333333334E+009;1.593967676162720E-001;-6.161856651306152E-002;-2.355836797505617E-003;-2.186638535931706E-003;
2.416000000000000E+009;1.590019762516022E-001;-6.292196363210678E-002;-2.429411746561527E-003;-2.066293731331825E-003;
2.416166666666667E+009;1.589563488960266E-001;-6.430137902498245E-002;-2.466753590852022E-003;-1.893770182505250E-003;
2.416333333333334E+009;1.585981845855713E-001;-6.561095267534256E-002;-2.480203984305263E-003;-2.056326717138290E-003;
2.416500000000000E+009;1.583687663078308E-001;-6.701474636793137E-002;-2.772409934550524E-003;-1.783500425517559E-003;
2.416666666666667E+009;1.580431759357452E-001;-6.824624538421631E-002;-2.674270421266556E-003;-1.816654461435974E-003;
2.416833333333334E+009;1.578340083360672E-001;-6.962946802377701E-002;-2.696225186809897E-003;-1.787310466170311E-003;
2.417000000000000E+009;1.574224680662155E-001;-7.087803632020950E-002;-2.866127062588930E-003;-1.805813633836806E-003;
2.417166666666667E+009;1.571366339921951E-001;-7.200294733047485E-002;-2.899593673646450E-003;-1.624476630240679E-003;
2.417333333333334E+009;1.568132936954498E-001;-7.319845259189606E-002;-2.972799586132169E-003;-1.662309281527996E-003;
2.417500000000000E+009;1.566307693719864E-001;-7.436562329530716E-002;-3.021350828930736E-003;-1.377382199279964E-003;
2.417666666666667E+009;1.565759778022766E-001;-7.526276260614395E-002;-3.235579933971167E-003;-1.409682212397456E-003;
2.417833333333334E+009;1.561925560235977E-001;-7.630775123834610E-002;-3.387553384527564E-003;-1.449102070182562E-003;
2.418000000000000E+009;1.558680832386017E-001;-7.747841626405716E-002;-3.437981707975268E-003;-1.154737314209342E-003;
2.418166666666667E+009;1.556356698274612E-001;-7.819470018148422E-002;-3.455246333032847E-003;-9.491039672866464E-004;
2.418333333333334E+009;1.557398140430450E-001;-7.914843410253525E-002;-3.613786306232214E-003;-8.708680397830904E-004;
2.418500000000000E+009;1.553761065006256E-001;-8.000453561544418E-002;-3.710901131853461E-003;-7.871020352467895E-004;
2.418666666666667E+009;1.553162485361099E-001;-8.088792115449905E-002;-3.799509722739458E-003;-4.542875685729086E-004;
2.418833333333334E+009;1.549758762121201E-001;-8.163580298423767E-002;-3.666723845526576E-003;-2.940257545560598E-004;
2.419000000000000E+009;1.547040939331055E-001;-8.239770680665970E-002;-3.747512353584170E-003;-1.311236555920914E-004;
2.419166666666667E+009;1.544995456933975E-001;-8.303033560514450E-002;-3.847492393106222E-003;1.718030980555341E-004;
2.419333333333334E+009;1.542302370071411E-001;-8.360072970390320E-002;-3.682049224153161E-003;3.375320520717651E-004;
2.419500000000000E+009;1.539610326290131E-001;-8.435878902673721E-002;-3.792360657826066E-003;5.812729359604418E-004;
2.419666666666667E+009;1.537497788667679E-001;-8.495960384607315E-002;-3.645065007731319E-003;7.610353641211987E-004;
2.419833333333334E+009;1.533833146095276E-001;-8.534838259220123E-002;-3.557505784556270E-003;8.723089122213423E-004;
2.420000000000000E+009;1.533042639493942E-001;-8.596416562795639E-002;-3.466828493401408E-003;1.026208628900349E-003;
2.420166666666667E+009;1.529735922813416E-001;-8.638639003038406E-002;-3.454070538282394E-003;1.061322633177042E-003;
2.420333333333334E+009;1.528182923793793E-001;-8.693039417266846E-002;-3.318802220746875E-003;1.270124223083258E-003;
2.420500000000000E+009;1.525685042142868E-001;-8.737456798553467E-002;-3.186155343428254E-003;1.352031365968287E-003;
2.420666666666667E+009;1.521665453910828E-001;-8.767855167388916E-002;-3.081566188484430E-003;1.557512325234711E-003;
2.420833333333334E+009;1.519595384597778E-001;-8.833529800176621E-002;-3.047331934794784E-003;1.541934441775084E-003;
2.421000000000000E+009;1.514872759580612E-001;-8.894178271293640E-002;-2.787003759294748E-003;1.615370507352054E-003;
2.421166666666667E+009;1.512195318937302E-001;-8.948202431201935E-002;-2.629855647683144E-003;1.616192515939474E-003;
2.421333333333334E+009;1.506362557411194E-001;-9.016236662864685E-002;-2.659618854522705E-003;1.772033981978893E-003;
2.421500000000000E+009;1.501054912805557E-001;-9.071735292673111E-002;-2.384169725701213E-003;1.766772009432316E-003;
2.421666666666667E+009;1.496191620826721E-001;-9.114941209554672E-002;-2.385663334280253E-003;1.726159360259771E-003;
2.421833333333334E+009;1.492432504892349E-001;-9.181092679500580E-002;-2.149089705199003E-003;1.669075689278543E-003;
2.422000000000000E+009;1.485303938388825E-001;-9.241240471601486E-002;-2.134347101673484E-003;1.744257868267596E-003;
2.422166666666667E+009;1.477290987968445E-001;-9.317819029092789E-002;-1.936966087669134E-003;1.555389608256519E-003;
2.422333333333334E+009;1.474390476942062E-001;-9.359949082136154E-002;-2.024969086050987E-003;1.733214478008449E-003;
2.422500000000000E+009;1.464882045984268E-001;-9.403657168149948E-002;-1.967536052688956E-003;1.511232228949666E-003;
2.422666666666667E+009;1.457471251487732E-001;-9.484735876321793E-002;-1.957953907549381E-003;1.579226693138480E-003;
2.422833333333334E+009;1.450942456722260E-001;-9.557384252548218E-002;-1.858303090557456E-003;1.536698429845274E-003;
2.423000000000000E+009;1.446032673120499E-001;-9.633385390043259E-002;-2.036790596321225E-003;1.572751905769110E-003;
2.423166666666667E+009;1.439022123813629E-001;-9.721654653549194E-002;-1.960120862349868E-003;1.685527153313160E-003;
2.423333333333334E+009;1.432002037763596E-001;-9.772481024265289E-002;-2.010626485571265E-003;1.607960788533092E-003;
2.423500000000000E+009;1.423651278018951E-001;-9.874615818262100E-002;-2.044430002570152E-003;1.725622802041471E-003;
2.423666666666667E+009;1.414379477500916E-001;-9.969225525856018E-002;-1.975959632545710E-003;1.774873351678252E-003;
2.423833333333334E+009;1.408687680959702E-001;-1.007542163133621E-001;-2.175174886360765E-003;1.835374976508319E-003;
2.424000000000000E+009;1.398930847644806E-001;-1.013559252023697E-001;-2.008235547691584E-003;1.858216477558017E-003;
2.424166666666667E+009;1.391027420759201E-001;-1.023655012249947E-001;-1.996270148083568E-003;2.012185519561172E-003;
2.424333333333334E+009;1.385015696287155E-001;-1.031551361083984E-001;-1.976547762751579E-003;2.120892051607370E-003;
2.424500000000000E+009;1.377715617418289E-001;-1.042134240269661E-001;-2.076620468869805E-003;2.287642564624548E-003;
2.424666666666667E+009;1.370063871145248E-001;-1.050684228539467E-001;-2.039104001596570E-003;2.399825956672430E-003;
2.424833333333334E+009;1.361806392669678E-001;-1.061151251196861E-001;-2.071062335744500E-003;2.482512965798378E-003;
2.425000000000000E+009;1.356321722269058E-001;-1.072436273097992E-001;-1.796340220607817E-003;2.590203192085028E-003;
2.425166666666667E+009;1.348221898078919E-001;-1.081997379660606E-001;-1.705147209577262E-003;2.578976796939969E-003;
2.425333333333334E+009;1.343096643686295E-001;-1.091982051730156E-001;-1.752048265188932E-003;2.653320785611868E-003;
2.425500000000000E+009;1.339134126901627E-001;-1.103327274322510E-001;-1.542329555377364E-003;2.687315922230482E-003;
2.425666666666667E+009;1.331200152635574E-001;-1.113428026437759E-001;-1.423047855496407E-003;2.848355798050761E-003;
2.425833333333334E+009;1.325726956129074E-001;-1.123863533139229E-001;-1.415767124854028E-003;2.984183607622981E-003;
2.426000000000000E+009;1.320760101079941E-001;-1.135637760162354E-001;-1.424528891220689E-003;2.986038103699684E-003;
2.426166666666667E+009;1.316255778074265E-001;-1.145713627338409E-001;-1.183028565719724E-003;3.066050587221980E-003;
2.426333333333334E+009;1.310862153768539E-001;-1.157194003462791E-001;-1.163625041954219E-003;3.079599700868130E-003;
2.426500000000000E+009;1.306916028261185E-001;-1.165610328316689E-001;-1.016444060951471E-003;3.177439095452428E-003;
2.426666666666667E+009;1.303997039794922E-001;-1.174652725458145E-001;-8.297540480270982E-004;3.194746561348438E-003;
2.426833333333334E+009;1.298291981220245E-001;-1.185789629817009E-001;-6.195647874847055E-004;3.106501651927829E-003;
2.427000000000000E+009;1.294310241937637E-001;-1.195261850953102E-001;-5.311804707162082E-004;3.178918734192848E-003;
2.427166666666667E+009;1.291330903768539E-001;-1.203262656927109E-001;-4.021093191113323E-004;3.323622979223728E-003;
2.427333333333334E+009;1.287097036838532E-001;-1.212013959884644E-001;-3.150234406348318E-004;3.237462835386396E-003;
2.427500000000000E+009;1.285512596368790E-001;-1.220685243606567E-001;-2.099803386954591E-004;3.146797884255648E-003;
2.427666666666667E+009;1.281534582376480E-001;-1.229252740740776E-001;-2.178511022066232E-005;3.268572036176920E-003;
