# Version 1.00
#
freq[Hz];re:Trc1_S11;im:Trc1_S11;re:Trc2_S21;im:Trc2_S21;
2.400000000000000E+009;1.685355305671692E-001;4.046600684523583E-002;2.732641994953156E-003;2.254085993627086E-004;
2.400166666666667E+009;1.691713333129883E-001;3.994127362966538E-002;2.669116714969277E-003;1.533142785774544E-004;
2.400333333333334E+009;1.697229892015457E-001;3.887166827917099E-002;2.673053415492177E-003;7.147671567508951E-005;
2.400500000000000E+009;1.703948974609375E-001;3.824875503778458E-002;2.655091229826212E-003;-3.227432171115652E-005;
2.400666666666667E+009;1.707082092761993E-001;3.726364299654961E-002;2.678200369700790E-003;-2.679280296433717E-004;
2.400833333333334E+009;1.713529676198959E-001;3.671056032180786E-002;2.753691747784615E-003;-2.054369106190279E-004;
2.401000000000000E+009;1.716697365045548E-001;3.556571155786514E-002;2.847946481779218E-003;-4.487088299356401E-004;
2.401166666666667E+009;1.719765067100525E-001;3.483476117253304E-002;2.838578773662448E-003;-2.913188945967704E-004;
2.401333333333334E+009;1.720701009035111E-001;3.413109853863716E-002;2.841159701347351E-003;-5.677192239090800E-004;
2.401500000000000E+009;1.724471598863602E-001;3.335034102201462E-002;2.588874660432339E-003;-7.126972777768970E-004;
2.401666666666667E+009;1.725624948740006E-001;3.257954865694046E-002;2.623518230393529E-003;-9.888648055493832E-004;
2.401833333333334E+009;1.726158112287521E-001;3.172825276851654E-002;2.414482412859798E-003;-8.927728631533682E-004;
2.402000000000000E+009;1.729068607091904E-001;3.099190071225166E-002;2.570139942690730E-003;-8.966848836280406E-004;
2.402166666666667E+009;1.727152317762375E-001;3.006225824356079E-002;2.346293302252889E-003;-1.043598051182926E-003;
2.402333333333334E+009;1.726497709751129E-001;2.919050678610802E-002;2.377938712015748E-003;-1.156110898591578E-003;
2.402500000000000E+009;1.726418137550354E-001;2.844426222145557E-002;2.298792125657201E-003;-1.045003649778664E-003;
2.402666666666667E+009;1.726922243833542E-001;2.766084112226963E-002;2.340974751859903E-003;-1.059373724274337E-003;
2.402833333333334E+009;1.726427376270294E-001;2.674812823534012E-002;2.009209245443344E-003;-1.283683697693050E-003;
2.403000000000000E+009;1.724710911512375E-001;2.574386075139046E-002;2.058485290035605E-003;-1.274178270250559E-003;
2.403166666666667E+009;1.722992807626724E-001;2.461642585694790E-002;2.000005682930350E-003;-1.227030181325972E-003;
2.403333333333334E+009;1.721520721912384E-001;2.347826026380062E-002;2.080969978123903E-003;-1.440624706447125E-003;
2.403500000000000E+009;1.720047593116760E-001;2.242842689156532E-002;2.077004406601191E-003;-1.408686628565192E-003;
2.403666666666667E+009;1.718078106641769E-001;2.138547040522099E-002;1.979337772354484E-003;-1.498124096542597E-003;
2.403833333333334E+009;1.717668920755386E-001;1.999440044164658E-002;1.864508609287441E-003;-1.483814092352986E-003;
2.404000000000000E+009;1.714858412742615E-001;1.904818043112755E-002;1.835187315009534E-003;-1.542473095469177E-003;
2.404166666666667E+009;1.713215857744217E-001;1.750839129090309E-002;1.741234096698463E-003;-1.439502579160035E-003;
2.404333333333334E+009;1.711153388023377E-001;1.630640774965286E-002;1.590667874552310E-003;-1.413059420883656E-003;
2.404500000000000E+009;1.708725094795227E-001;1.469277124851942E-002;1.834222348406911E-003;-1.400079578161240E-003;
2.404666666666667E+009;1.707755327224731E-001;1.343319285660982E-002;1.695629674941301E-003;-1.551679684780538E-003;
2.404833333333334E+009;1.706048846244812E-001;1.205472089350224E-002;1.722860615700483E-003;-1.490171067416668E-003;
2.405000000000000E+009;1.705242842435837E-001;1.044752355664969E-002;1.844455488026142E-003;-1.521980739198625E-003;
2.405166666666667E+009;1.703099757432938E-001;8.911730721592903E-003;1.909420592710376E-003;-1.472853356972337E-003;
2.405333333333334E+009;1.703518033027649E-001;7.215456105768681E-003;1.670543919317424E-003;-1.608607824891806E-003;
2.405500000000000E+009;1.701112538576126E-001;5.568247288465500E-003;1.787978922948241E-003;-1.661699498072267E-003;
2.405666666666667E+009;1.700292676687241E-001;3.938613459467888E-003;1.845983439125121E-003;-1.517091179266572E-003;
2.405833333333334E+009;1.697802841663361E-001;2.285476308315992E-003;1.905568293295801E-003;-1.734984107315540E-003;
2.406000000000000E+009;1.696398407220841E-001;5.395456682890654E-004;1.928498037159443E-003;-2.007240662351251E-003;
2.406166666666667E+009;1.694180965423584E-001;-1.013892004266381E-003;2.004830865189433E-003;-1.936152344569564E-003;
2.406333333333334E+009;1.695266813039780E-001;-2.761243144050241E-003;1.908081932924688E-003;-2.149028470739722E-003;
2.406500000000000E+009;1.691561043262482E-001;-4.459326621145010E-003;1.971200341358781E-003;-2.245984273031354E-003;
2.406666666666667E+009;1.688779890537262E-001;-6.052373442798853E-003;1.919085741974413E-003;-2.362547907978296E-003;
2.406833333333334E+009;1.687065660953522E-001;-7.655860390514135E-003;1.723888446576893E-003;-2.528959419578314E-003;
2.407000000000000E+009;1.686275899410248E-001;-9.245989844202995E-003;1.729603391140699E-003;-2.609528135508299E-003;
2.407166666666667E+009;1.685469448566437E-001;-1.067196577787399E-002;1.716760918498039E-003;-2.785818185657263E-003;
2.407333333333334E+009;1.683499366044998E-001;-1.220906153321266E-002;1.535408780910075E-003;-2.931865630671382E-003;
2.407500000000000E+009;1.681234836578369E-001;-1.368098519742489E-002;1.554230460897088E-003;-3.060280578210950E-003;
2.407666666666667E+009;1.680123507976532E-001;-1.476594433188438E-002;1.475958153605461E-003;-3.116260981187224E-003;
2.407833333333334E+009;1.678771674633026E-001;-1.618166081607342E-002;1.262842444702983E-003;-3.160985885187984E-003;
2.408000000000000E+009;1.679275780916214E-001;-1.738069020211697E-002;1.065085409209132E-003;-3.359579481184483E-003;
2.408166666666667E+009;1.678668856620789E-001;-1.829968579113483E-002;9.837809484452009E-004;-3.450298449024558E-003;
2.408333333333334E+009;1.680627465248108E-001;-1.936763152480125E-002;7.909626001492143E-004;-3.587157465517521E-003;
2.408500000000000E+009;1.681147068738937E-001;-2.044641785323620E-002;8.342292858287692E-004;-3.663610201328993E-003;
2.408666666666667E+009;1.681723296642304E-001;-2.136297337710857E-002;5.174464313313365E-004;-3.861508565023542E-003;
2.408833333333334E+009;1.682877540588379E-001;-2.226572297513485E-002;4.443539655767381E-004;-4.033924080431461E-003;
2.409000000000000E+009;1.685752123594284E-001;-2.313706651329994E-002;8.356538455700502E-005;-3.895739791914821E-003;
2.409166666666667E+009;1.688522249460220E-001;-2.414021268486977E-002;-3.919459413737059E-005;-4.019826184958220E-003;
2.409333333333334E+009;1.692356914281845E-001;-2.509564161300659E-002;-2.135404065484181E-004;-4.186614882200956E-003;
2.409500000000000E+009;1.693698465824127E-001;-2.607269771397114E-002;-4.746244230773300E-004;-4.078400321304798E-003;
2.409666666666667E+009;1.694516688585281E-001;-2.684130147099495E-002;-6.709595327265561E-004;-4.067302681505680E-003;
2.409833333333334E+009;1.696584671735764E-001;-2.759764343500137E-002;-9.256146731786430E-004;-3.965150099247694E-003;
2.410000000000000E+009;1.700029969215393E-001;-2.873783558607101E-002;-1.298877177760005E-003;-4.029387608170509E-003;
2.410166666666667E+009;1.704064011573792E-001;-2.939174510538578E-002;-1.475544995628297E-003;-3.873236011713743E-003;
2.410333333333334E+009;1.702492386102676E-001;-3.044857643544674E-002;-1.586681464686990E-003;-3.851844230666757E-003;
2.410500000000000E+009;1.704218834638596E-001;-3.132063895463944E-002;-1.889204606413841E-003;-3.835069015622139E-003;
2.410666666666667E+009;1.703380346298218E-001;-3.228002414107323E-002;-2.155431313440204E-003;-3.643461735919118E-003;
2.410833333333334E+009;1.704267561435700E-001;-3.311539068818092E-002;-2.396974479779601E-003;-3.505372907966375E-003;
2.411000000000000E+009;1.703661531209946E-001;-3.386524319648743E-002;-2.589300042018294E-003;-3.278919728472829E-003;
2.411166666666667E+009;1.702043563127518E-001;-3.480697050690651E-002;-2.660034690052271E-003;-3.044496523216367E-003;
2.411333333333334E+009;1.701985299587250E-001;-3.535016998648644E-002;-2.927993657067418E-003;-2.770146587863565E-003;
2.411500000000000E+009;1.698453128337860E-001;-3.643657267093658E-002;-2.893342636525631E-003;-2.664868487045169E-003;
2.411666666666667E+009;1.698284000158310E-001;-3.714398294687271E-002;-2.886131405830383E-003;-2.592901699244976E-003;
2.411833333333334E+009;1.695433408021927E-001;-3.784652799367905E-002;-3.231468377634883E-003;-2.126907696947455E-003;
2.412000000000000E+009;1.693860292434692E-001;-3.879475593566895E-002;-3.190346527844667E-003;-1.901932875625789E-003;
2.412166666666667E+009;1.688413172960281E-001;-3.959105536341667E-002;-3.128036623820663E-003;-1.698182197287679E-003;
2.412333333333334E+009;1.688352376222611E-001;-4.022853076457977E-002;-3.024855628609657E-003;-1.483250991441310E-003;
2.412500000000000E+009;1.682466268539429E-001;-4.112312570214272E-002;-3.156593069434166E-003;-1.332134241238236E-003;
2.412666666666667E+009;1.680509150028229E-001;-4.224810376763344E-002;-3.157859900966287E-003;-1.046197023242712E-003;
2.412833333333334E+009;1.677395552396774E-001;-4.313661158084869E-002;-2.971869427710772E-003;-7.948625134304166E-004;
2.413000000000000E+009;1.670865714550018E-001;-4.374244436621666E-002;-3.110250923782587E-003;-9.090908570215106E-004;
2.413166666666667E+009;1.665493100881577E-001;-4.481253027915955E-002;-2.887584269046783E-003;-5.997963598929346E-004;
2.413333333333334E+009;1.658705174922943E-001;-4.572997614741325E-002;-2.840278437361121E-003;-6.443570018745959E-004;
2.413500000000000E+009;1.655184775590897E-001;-4.668799042701721E-002;-2.775269793346524E-003;-2.991830988321453E-004;
2.413666666666667E+009;1.651330441236496E-001;-4.767182469367981E-002;-2.747937105596066E-003;-3.751426120288670E-004;
2.413833333333334E+009;1.644899249076843E-001;-4.852151870727539E-002;-2.600895706564188E-003;-3.809359623119235E-004;
2.414000000000000E+009;1.638616919517517E-001;-4.950597509741783E-002;-2.575742546468973E-003;-1.279412390431389E-004;
2.414166666666667E+009;1.633722186088562E-001;-5.028690770268440E-002;-2.381583442911506E-003;-2.053866337519139E-004;
2.414333333333334E+009;1.628275215625763E-001;-5.132260546088219E-002;-2.564416034147143E-003;-2.340682549402118E-004;
2.414500000000000E+009;1.626311093568802E-001;-5.232531577348709E-002;-2.374972682446241E-003;-1.634804648347199E-004;
2.414666666666667E+009;1.621877402067184E-001;-5.318456888198853E-002;-2.422915538772941E-003;-1.202304920298047E-004;
2.414833333333334E+009;1.617402583360672E-001;-5.421477928757668E-002;-2.483834046870470E-003;-4.541611633612774E-005;
2.415000000000000E+009;1.613672226667404E-001;-5.527399852871895E-002;-2.419627737253904E-003;1.366835640510544E-004;
2.415166666666667E+009;1.611988246440888E-001;-5.619842186570168E-002;-2.283032285049558E-003;1.096749329008162E-004;
2.415333333333334E+009;1.610217988491058E-001;-5.754891037940979E-002;-2.258740598335862E-003;1.427432143827900E-004;
2.415500000000000E+009;1.606857925653458E-001;-5.876628682017326E-002;-2.080444479361177E-003;2.505125303287059E-004;
2.415666666666667E+009;1.604329198598862E-001;-5.983963608741760E-002;-1.968545839190483E-003;3.268876753281802E-004;
2.415833333333334E+009;1.602161675691605E-001;-6.112347915768623E-002;-2.083336468786001E-003;3.513756964821369E-004;
2.416000000000000E+009;1.597572267055512E-001;-6.246116384863854E-002;-1.970713259652257E-003;4.088546556886286E-004;
2.416166666666667E+009;1.596523970365524E-001;-6.377208232879639E-002;-1.790909096598625E-003;2.327658585272729E-004;
2.416333333333334E+009;1.591510772705078E-001;-6.511168926954269E-002;-1.594999455846846E-003;2.257463347632438E-004;
2.416500000000000E+009;1.589055955410004E-001;-6.634484976530075E-002;-1.607559737749398E-003;3.245486295782030E-004;
2.416666666666667E+009;1.585935354232788E-001;-6.770040839910507E-002;-1.534375944174826E-003;1.942799572134391E-004;
2.416833333333334E+009;1.583123654127121E-001;-6.907419115304947E-002;-1.373211736790836E-003;1.931653678184375E-004;
2.417000000000000E+009;1.578022986650467E-001;-7.028774917125702E-002;-1.467552501708269E-003;7.094770990079269E-005;
2.417166666666667E+009;1.574243158102036E-001;-7.130382955074310E-002;-1.570370281115174E-003;6.181077333167195E-005;
2.417333333333334E+009;1.571074873209000E-001;-7.243218272924423E-002;-1.418304629623890E-003;-1.183628046419472E-004;
2.417500000000000E+009;1.568275839090347E-001;-7.357825338840485E-002;-1.569237327203155E-003;-9.314070484833792E-005;
2.417666666666667E+009;1.566971987485886E-001;-7.449989020824432E-002;-1.629132544621825E-003;-2.038230595644563E-004;
2.417833333333334E+009;1.563718914985657E-001;-7.549904286861420E-002;-1.786908949725330E-003;-2.256118168588728E-004;
2.418000000000000E+009;1.560078561306000E-001;-7.653079926967621E-002;-1.860392629168928E-003;-3.974256687797606E-004;
2.418166666666667E+009;1.558329612016678E-001;-7.736127078533173E-002;-1.906417892314494E-003;-3.867248597089201E-004;
2.418333333333334E+009;1.559424847364426E-001;-7.838720083236694E-002;-1.963522983714938E-003;-3.947535587940365E-004;
2.418500000000000E+009;1.555352360010147E-001;-7.926502823829651E-002;-2.232833299785852E-003;-3.495201235637069E-004;
2.418666666666667E+009;1.554083228111267E-001;-8.025667071342468E-002;-2.384134568274021E-003;-2.924738510046154E-004;
2.418833333333334E+009;1.551356017589569E-001;-8.102308958768845E-002;-2.403655555099249E-003;-2.401740348432213E-004;
2.419000000000000E+009;1.547727286815643E-001;-8.175735920667648E-002;-2.577414037659764E-003;-1.901586074382067E-004;
2.419166666666667E+009;1.546625196933746E-001;-8.252780139446259E-002;-2.624365501105785E-003;-1.017644026433118E-004;
2.419333333333334E+009;1.543171405792236E-001;-8.314108103513718E-002;-2.837453270331025E-003;-8.633020479464904E-005;
2.419500000000000E+009;1.540626734495163E-001;-8.392358571290970E-002;-2.927765017375350E-003;1.660793495830149E-004;
2.419666666666667E+009;1.539158821105957E-001;-8.462365716695786E-002;-3.146620001643896E-003;2.478296519257128E-004;
2.419833333333334E+009;1.536035090684891E-001;-8.512613922357559E-002;-3.166950540617108E-003;4.270028730388731E-004;
2.420000000000000E+009;1.534373015165329E-001;-8.567381650209427E-002;-3.443620400503278E-003;7.198415696620941E-004;
2.420166666666667E+009;1.531361639499664E-001;-8.636613935232163E-002;-3.410391509532929E-003;9.818354155868292E-004;
2.420333333333334E+009;1.528213024139404E-001;-8.705502003431320E-002;-3.682401496917009E-003;1.164025510661304E-003;
2.420500000000000E+009;1.528279036283493E-001;-8.748710155487061E-002;-3.412717720493674E-003;1.444609952159226E-003;
2.420666666666667E+009;1.523472368717194E-001;-8.784726262092590E-002;-3.584216115996242E-003;1.744138775393367E-003;
2.420833333333334E+009;1.521141380071640E-001;-8.850500732660294E-002;-3.442484186962247E-003;1.817788113839924E-003;
2.421000000000000E+009;1.517049372196198E-001;-8.921368420124054E-002;-3.463355824351311E-003;2.353484975174069E-003;
2.421166666666667E+009;1.514662802219391E-001;-8.972349017858505E-002;-3.119642846286297E-003;2.629008144140244E-003;
2.421333333333334E+009;1.511646807193756E-001;-9.043277800083160E-002;-2.906207228079438E-003;2.794108353555203E-003;
2.421500000000000E+009;1.505842059850693E-001;-9.096108376979828E-002;-2.717824187129736E-003;2.930434653535485E-003;
2.421666666666667E+009;1.499835699796677E-001;-9.159876406192780E-002;-2.638812875375152E-003;3.200557082891464E-003;
2.421833333333334E+009;1.495960205793381E-001;-9.215517342090607E-002;-2.203219570219517E-003;3.482781350612640E-003;
2.422000000000000E+009;1.489991843700409E-001;-9.289900958538055E-002;-1.976360334083438E-003;3.480993676930666E-003;
2.422166666666667E+009;1.484124362468720E-001;-9.363503009080887E-002;-1.855916925705969E-003;3.570059780031443E-003;
2.422333333333334E+009;1.480989605188370E-001;-9.423766285181046E-002;-1.503413193859160E-003;3.458870807662606E-003;
2.422500000000000E+009;1.473376005887985E-001;-9.476266056299210E-002;-1.184487016871572E-003;3.502584062516689E-003;
2.422666666666667E+009;1.465247720479965E-001;-9.551461786031723E-002;-1.000590738840401E-003;3.426254261285067E-003;
2.422833333333334E+009;1.459237933158875E-001;-9.633524715900421E-002;-9.026615880429745E-004;3.424843074753881E-003;
2.423000000000000E+009;1.451757252216339E-001;-9.701022505760193E-002;-7.595627685077488E-004;3.364737844094634E-003;
2.423166666666667E+009;1.445834934711456E-001;-9.797316044569016E-002;-4.910688148811460E-004;3.103917930275202E-003;
2.423333333333334E+009;1.440580934286118E-001;-9.850870072841644E-002;-3.639400238171220E-004;3.152525518089533E-003;
2.423500000000000E+009;1.432840377092362E-001;-9.956381469964981E-002;-4.130447632633150E-004;3.095905529335141E-003;
2.423666666666667E+009;1.425228565931320E-001;-1.002666056156158E-001;-3.271784808021039E-004;3.061890369281173E-003;
2.423833333333334E+009;1.418437510728836E-001;-1.011553108692169E-001;-3.783803549595177E-004;2.982527017593384E-003;
2.424000000000000E+009;1.409341096878052E-001;-1.019601598381996E-001;-1.624888682272285E-004;2.923136577010155E-003;
2.424166666666667E+009;1.402229368686676E-001;-1.028835698962212E-001;-3.687037387862802E-004;2.988782245665789E-003;
2.424333333333334E+009;1.396344602108002E-001;-1.035926192998886E-001;-9.163338108919561E-005;3.067383542656899E-003;
2.424500000000000E+009;1.389050930738449E-001;-1.047464311122894E-001;3.085501157329418E-005;3.153102006763220E-003;
2.424666666666667E+009;1.383503228425980E-001;-1.053739264607430E-001;-3.997817475465126E-005;2.930109156295657E-003;
2.424833333333334E+009;1.374370157718658E-001;-1.063898801803589E-001;1.149204399553128E-004;2.938359044492245E-003;
2.425000000000000E+009;1.369003653526306E-001;-1.074463501572609E-001;2.077984536299482E-004;3.078452544286847E-003;
2.425166666666667E+009;1.359796524047852E-001;-1.083601489663124E-001;3.998728934675455E-004;3.053258638828993E-003;
2.425333333333334E+009;1.354345381259918E-001;-1.092882007360458E-001;6.031164666637778E-004;2.984520280733705E-003;
2.425500000000000E+009;1.349961906671524E-001;-1.104117408394814E-001;7.411884726025164E-004;2.935127355158329E-003;
2.425666666666667E+009;1.341995745897293E-001;-1.113789528608322E-001;8.705309592187405E-004;2.927184104919434E-003;
2.425833333333334E+009;1.336310803890228E-001;-1.122674047946930E-001;9.923032484948635E-004;2.793917432427406E-003;
2.426000000000000E+009;1.331714242696762E-001;-1.134682968258858E-001;9.651600848883390E-004;2.767562167719007E-003;
2.426166666666667E+009;1.328250765800476E-001;-1.144385039806366E-001;1.043100492097437E-003;2.702147001400590E-003;
2.426333333333334E+009;1.321370750665665E-001;-1.154754087328911E-001;1.063103787600994E-003;2.593511948361993E-003;
2.426500000000000E+009;1.317244172096252E-001;-1.163701787590981E-001;1.066990080289543E-003;2.498997841030359E-003;
2.426666666666667E+009;1.313374340534210E-001;-1.172368526458740E-001;1.187439193017781E-003;2.410838147625327E-003;
2.426833333333334E+009;1.307903677225113E-001;-1.183015480637550E-001;1.210298039950430E-003;2.314297482371330E-003;
2.427000000000000E+009;1.302868276834488E-001;-1.193048954010010E-001;1.248777145519853E-003;2.334873192012310E-003;
2.427166666666667E+009;1.299248039722443E-001;-1.198946312069893E-001;1.217706361785531E-003;2.123573794960976E-003;
2.427333333333334E+009;1.294973343610764E-001;-1.207153201103210E-001;1.237557735294104E-003;2.294140169396997E-003;
2.427500000000000E+009;1.291901320219040E-001;-1.215237602591515E-001;1.349452650174499E-003;2.332662930712104E-003;
2.427666666666667E+009;1.288767904043198E-001;-1.223814710974693E-001;1.311461790464819E-003;2.131353132426739E-003;
