# Hz S RI R 50
2400000000.0000000000 0.173228099942207308670205634371 0.048690933734178543090820312500 0.002205888973549007935764931787 0.006050171796232461929321289062 0 0 0 0 
2400166666.6666665077 0.173706889152526910979901231258 0.048112828284502029418945312500 0.002461080672219396071193076025 0.006032037548720836639404296875 0 0 0 0 
2400333333.3333334923 0.174144953489303588867187500000 0.047383639961481087421457658593 0.002576031954959034919738769531 0.005972359329462051391601562500 0 0 0 0 
2400500000.0000000000 0.174623250961303710937500000000 0.046809293329715728759765625000 0.002746519865468143983128213037 0.005976026877760887145996093750 0 0 0 0 
2400666666.6666665077 0.175038605928420992752236884371 0.046130120754241943359375000000 0.002941129729151726202723837744 0.005882921628654003143310546875 0 0 0 0 
2400833333.3333334923 0.175365686416626004318075615629 0.045496787875890731811523437500 0.003000665456056594848632812500 0.005881570745259523391723632812 0 0 0 0 
2401000000.0000000000 0.175315871834754888336505018742 0.044798366725444786762277971093 0.003322748234495521025416708838 0.005556692834943532943725585938 0 0 0 0 
2401166666.6666665077 0.175571441650390597244424384371 0.044365100562572479248046875000 0.003575726877897977828979492188 0.005525755695998668670654296875 0 0 0 0 
2401333333.3333334923 0.175726100802421597579794365629 0.043689243495464331890065778907 0.003563507692888379096984863281 0.005661525763571262359619140625 0 0 0 0 
2401500000.0000000000 0.175926715135574313064736884371 0.042954660952091217041015625000 0.003900581970810890197753906250 0.005477262660861015319824218750 0 0 0 0 
2401666666.6666665077 0.175983205437660189529580634371 0.042455725371837622905690778907 0.004137830343097448348999023438 0.005280020181089639663696289062 0 0 0 0 
2401833333.3333334923 0.175909265875816400725994981258 0.041520871222019202495534528907 0.004419230856001377105712890625 0.005226004403084517392630292676 0 0 0 0 
2402000000.0000000000 0.175702601671218899825888115629 0.040802516043186187744140625000 0.004446870181709527969360351562 0.005030825268477202329153730176 0 0 0 0 
2402166666.6666665077 0.175863519310951205154580634371 0.039765626192092902446706403907 0.004704793449491261568551347949 0.004948778543621301651000976562 0 0 0 0 
2402333333.3333334923 0.175538718700408907791299384371 0.038936685770750052715261091407 0.004859630949795246124267578125 0.004707819316536188125610351562 0 0 0 0 
2402500000.0000000000 0.175613179802894592285156250000 0.037963330745697021484375000000 0.005131167359650135040283203125 0.004326752852648496627807617188 0 0 0 0 
2402666666.6666665077 0.175286874175071688553018134371 0.036906454712152481079101562500 0.005095776636153460416311933301 0.004159508738666772842407226562 0 0 0 0 
2402833333.3333334923 0.174958080053329495529013115629 0.035601861774921417236328125000 0.005272248759865760803222656250 0.003841199912130833105800009619 0 0 0 0 
2403000000.0000000000 0.174678087234497098068075615629 0.034466862678527832031250000000 0.005358543712645769119262695312 0.003509255358949304060695029150 0 0 0 0 
2403166666.6666665077 0.174526274204254205901776231258 0.033223401755094528198242187500 0.005417080596089363098144531250 0.003579685464501380920410156250 0 0 0 0 
2403333333.3333334923 0.174069374799728393554687500000 0.031813167035579681396484375000 0.005592820234596729278564453125 0.003289158688858151002171181787 0 0 0 0 
2403500000.0000000000 0.173736169934272793868856865629 0.030297141522169109689732735546 0.005414832383394241333007812500 0.003006412647664546966552734375 0 0 0 0 
2403666666.6666665077 0.173222139477729797363281250000 0.028614064678549770009974295704 0.005279076285660266876220703125 0.002641539089381694793701171875 0 0 0 0 
2403833333.3333334923 0.173168450593948392013388115629 0.027153957635164260864257812500 0.005346180405467748641967773438 0.002381371567025781111476279150 0 0 0 0 
2404000000.0000000000 0.172644942998886108398437500000 0.025430722162127498281458670704 0.005308439489454030990600585938 0.002239678986370563940760947119 0 0 0 0 
2404166666.6666665077 0.172193273901939392089843750000 0.023477381095290180551549141796 0.005305932369083166122436523438 0.001903366297483443997026753003 0 0 0 0 
2404333333.3333334923 0.171827405691146906097088731258 0.021789217367768291128138358204 0.005218649748712778091430664062 0.001911810715682805018184042822 0 0 0 0 
2404500000.0000000000 0.171543270349502591232138115629 0.019743585959076881408691406250 0.005160783883184195432181073926 0.001747625530697404904606484521 0 0 0 0 
2404666666.6666665077 0.171162247657775906661825615629 0.018047958612442020071009451954 0.004776411224156618118286132812 0.001483579515479505062103271484 0 0 0 0 
2404833333.3333334923 0.171017125248908996582031250000 0.015959888696670528757115548046 0.004841707181185483932495117188 0.001290928339585662104962993091 0 0 0 0 
2405000000.0000000000 0.170793756842613192459268134371 0.013977771624922750645647617773 0.004778441973030567169189453125 0.001236998126842081980464316260 0 0 0 0 
2405166666.6666665077 0.170798942446708706954794365629 0.011952578090131279336949532421 0.004536084365099669370169355176 0.001229017041623591943028115381 0 0 0 0 
2405333333.3333334923 0.170743182301521301269531250000 0.009793709032237529754638671875 0.004228584934026002883911132812 0.001306896680034697055816650391 0 0 0 0 
2405500000.0000000000 0.170663163065910311599893134371 0.007825144566595554351806640625 0.004177521914243698120117187500 0.001304287929087877056719135815 0 0 0 0 
2405666666.6666665077 0.170799657702446011642294365629 0.005813579540699720382690429688 0.004196652676910161972045898438 0.001182824373245239040972065503 0 0 0 0 
2405833333.3333334923 0.170820340514182988922442518742 0.003856733441352843804600381006 0.004151194822043181333059980176 0.001319448929280043081996298682 0 0 0 0 
2406000000.0000000000 0.171231761574745205978231865629 0.001559308962896466038347553784 0.004231838975101709365844726562 0.001383626949973403973820351709 0 0 0 0 
2406166666.6666665077 0.171232134103774996658486884371 -0.000307586393319070284992772235 0.004123491700738667574410722949 0.001613389234989881949183798682 0 0 0 0 
2406333333.3333334923 0.171800583600997897049111884371 -0.002292678924277424812316894531 0.004032305907458066940307617188 0.001549925305880605957628559644 0 0 0 0 
2406500000.0000000000 0.172103166580200195312500000000 -0.004385731182992458343505859375 0.004324083216488361358642578125 0.001697417348623275973676371997 0 0 0 0 
2406666666.6666665077 0.172482997179031399825888115629 -0.006365092936903238296508789062 0.004343381151556968688964843750 0.001818293821997940973994589697 0 0 0 0 
2406833333.3333334923 0.173071116209030206878338731258 -0.008436832576990127563476562500 0.004511557053774595260620117188 0.001686908886767924048780131763 0 0 0 0 
2407000000.0000000000 0.173702806234359713455361884371 -0.010314312763512139756172381055 0.004526308272033929824829101562 0.001739773433655499978306435693 0 0 0 0 
2407166666.6666665077 0.174429252743721008300781250000 -0.012121031060814859217633632227 0.004850835539400578412527753613 0.001780449412763118960736918872 0 0 0 0 
2407333333.3333334923 0.174941211938858004470986884371 -0.014115352183580400294293788477 0.005003181751817464828491210938 0.001772077172063291072845458984 0 0 0 0 
2407500000.0000000000 0.175737842917442294021768134371 -0.015739616006612781179407889454 0.005187804810702800750732421875 0.001647901604883373000501323169 0 0 0 0 
2407666666.6666665077 0.176446273922920199295205634371 -0.017606256529688838613489920704 0.005441289395093917846679687500 0.001612522988580167076708149487 0 0 0 0 
2407833333.3333334923 0.176994696259498596191406250000 -0.019350258633494380605677420704 0.005707283969968557357788085938 0.001329310704022645950317382812 0 0 0 0 
2408000000.0000000000 0.177807986736297607421875000000 -0.020860867574810978281041329296 0.005853913724422454833984375000 0.001028530416078865961787558447 0 0 0 0 
2408166666.6666665077 0.178431898355484008789062500000 -0.022356076166033748281458670704 0.006139249075204133987426757812 0.000869208248332142829895019531 0 0 0 0 
2408333333.3333334923 0.179283440113067599197549384371 -0.023865943774580958974818045704 0.006141394842416048049926757812 0.000634300231467932462692260742 0 0 0 0 
2408500000.0000000000 0.179816588759422302246093750000 -0.025428954511880881572682966407 0.006360202562063932418823242188 0.000305832189042121226161402570 0 0 0 0 
2408666666.6666665077 0.180414959788322504241619981258 -0.026767626404762271535853201954 0.006250417325645685195922851562 -0.000040249629819300032477786405 0 0 0 0 
2408833333.3333334923 0.180890485644340487381143134371 -0.027916993945837020874023437500 0.006428607739508152008056640625 -0.000291158765321597511142176495 0 0 0 0 
2409000000.0000000000 0.181297212839126586914062500000 -0.029033215716481208801269531250 0.006482489872723817825317382812 -0.000505700358189642429351806641 0 0 0 0 
2409166666.6666665077 0.181822583079338101486044365629 -0.030009850859642028808593750000 0.006315939128398895263671875000 -0.000818848668131977319717407227 0 0 0 0 
2409333333.3333334923 0.182283297181129511077557481258 -0.030975522473454478872278983204 0.006492486689239740371704101562 -0.001100760651752352931379008716 0 0 0 0 
2409500000.0000000000 0.182560622692108209808026231258 -0.031766030937433242797851562500 0.006307291332632303237915039062 -0.001348733436316251971601176685 0 0 0 0 
2409666666.6666665077 0.182912141084670992752236884371 -0.032412063330411911010742187500 0.006259193643927574157714843750 -0.001556770643219351985334086841 0 0 0 0 
2409833333.3333334923 0.183055639266967801193075615629 -0.032954625785350799560546875000 0.006165622267872095108032226562 -0.001641307608224451975581503760 0 0 0 0 
2410000000.0000000000 0.183349058032035799881143134371 -0.033532138913869857788085937500 0.006035313475877046585083007812 -0.001932902727276087024091411060 0 0 0 0 
2410166666.6666665077 0.183652341365814208984375000000 -0.033864263445138931274414062500 0.005987740121781826019287109375 -0.002260754350572824911830283057 0 0 0 0 
2410333333.3333334923 0.183466747403144808670205634371 -0.034252721816301352764089216407 0.005734153557568789395804120801 -0.002501911018043756918666220557 0 0 0 0 
2410500000.0000000000 0.183563545346260098556356865629 -0.034589201211929321289062500000 0.005707733798772096633911132812 -0.002706677187234162850620888818 0 0 0 0 
2410666666.6666665077 0.183457568287849398513955634371 -0.035090707242488861083984375000 0.005576687399297952651977539062 -0.002792376093566418127772665869 0 0 0 0 
2410833333.3333334923 0.183349236845970209319744981258 -0.035302098840475082397460937500 0.005344673991203308105468750000 -0.002908301074057817892787314307 0 0 0 0 
2411000000.0000000000 0.183264568448066711425781250000 -0.035640012472867972637136091407 0.005204947665333747863769531250 -0.003297144314274191856384277344 0 0 0 0 
2411166666.6666665077 0.182751789689063998123330634371 -0.036007255315780639648437500000 0.005074500106275081634521484375 -0.003445137990638614134547568213 0 0 0 0 
2411333333.3333334923 0.182454690337181091308593750000 -0.036238480359315872192382812500 0.004933175630867481231689453125 -0.003632361767813562913181923975 0 0 0 0 
2411500000.0000000000 0.181861072778701809982138115629 -0.036796566098928451538085937500 0.004713144153356552124023437500 -0.003782627405598760084864951025 0 0 0 0 
2411666666.6666665077 0.181645184755325289627236884371 -0.036896228790283203125000000000 0.004377245437353849411010742188 -0.003802845021709800200221396338 0 0 0 0 
2411833333.3333334923 0.180833816528320312500000000000 -0.037137027829885482788085937500 0.004368020687252283096313476562 -0.003859740914776920838596963037 0 0 0 0 
2412000000.0000000000 0.180035755038261413574218750000 -0.037601210176944732666015625000 0.004111539106816053390502929688 -0.003778514219447969956638955225 0 0 0 0 
2412166666.6666665077 0.179287403821945190429687500000 -0.037953086197376251220703125000 0.003944088239222764968872070312 -0.004077299498021602630615234375 0 0 0 0 
2412333333.3333334923 0.178559288382530212402343750000 -0.038490928709506988525390625000 0.003835607785731554031372070312 -0.004190003033727408322806073926 0 0 0 0 
2412500000.0000000000 0.177349314093589810470419365629 -0.039133951067924499511718750000 0.003504505846649407906773232568 -0.004030925221741200360769941113 0 0 0 0 
2412666666.6666665077 0.176343053579330388824786268742 -0.039856489747762680053710937500 0.003399758599698543982264853369 -0.004048684146255254745483398438 0 0 0 0 
2412833333.3333334923 0.175216779112815912444744981258 -0.040385037660598761821706403907 0.003066289704293013052699423682 -0.004017035011202096939086914062 0 0 0 0 
2413000000.0000000000 0.173945292830467196365518134371 -0.040937129408121109008789062500 0.003022463060915470123291015625 -0.004077827557921409606933593750 0 0 0 0 
2413166666.6666665077 0.172491118311881991287393134371 -0.041834879666566848754882812500 0.002732174005359410805943154443 -0.003853035159409046173095703125 0 0 0 0 
2413333333.3333334923 0.171268254518508911132812500000 -0.042858466506004326557199846093 0.002587499329820274873020791162 -0.003752483753487468199488974463 0 0 0 0 
2413500000.0000000000 0.170159831643104608733807481258 -0.043641429394483573223073591407 0.002665605163201690153834677588 -0.003828794229775667190551757812 0 0 0 0 
2413666666.6666665077 0.168988734483718899825888115629 -0.044661026448011398315429687500 0.002651769667863845825195312500 -0.003797576297074555917027138818 0 0 0 0 
2413833333.3333334923 0.167503997683525113204794365629 -0.045685082674026489257812500000 0.002369693480432033972499228369 -0.003671220969408750967738486182 0 0 0 0 
2414000000.0000000000 0.166190668940544100662393134371 -0.046850692480802542949636091407 0.002447670325636864142176962744 -0.003574888920411467985865927588 0 0 0 0 
2414166666.6666665077 0.165127918124198913574218750000 -0.048022799193859100341796875000 0.002506880788132547898533486475 -0.003316962858662008805515908350 0 0 0 0 
2414333333.3333334923 0.163822606205940302093182481258 -0.049621939659118652343750000000 0.002503749681636691093444824219 -0.003240309655666350884678506006 0 0 0 0 
2414500000.0000000000 0.162884816527366610428018134371 -0.050729714334011077880859375000 0.002421302255243062973022460938 -0.003303821664303541183471679688 0 0 0 0 
2414666666.6666665077 0.161660075187683105468750000000 -0.052153352648019790649414062500 0.002472467487677931785583496094 -0.003552638692781329154968261719 0 0 0 0 
2414833333.3333334923 0.160515785217285211761151231258 -0.053858596831560141826589216407 0.002521022688597441153285361182 -0.003244126681238412857055664062 0 0 0 0 
2415000000.0000000000 0.159526959061622591873330634371 -0.055375427007675170898437500000 0.002648518187925219969508505713 -0.003258673474192618890049599756 0 0 0 0 
2415166666.6666665077 0.158513024449348505218182481258 -0.057047639042139053344726562500 0.002665969077497721152064658057 -0.003424151567742228941676474463 0 0 0 0 
2415333333.3333334923 0.157684877514839200118856865629 -0.058965150266885757446289062500 0.002866354770958424048182822119 -0.003253797767683864073512411963 0 0 0 0 
2415500000.0000000000 0.156820818781852694412393134371 -0.060612875968217849731445312500 0.002922663930803536935093545068 -0.003585020313039422035217285156 0 0 0 0 
2415666666.6666665077 0.156048774719238309005575615629 -0.062598831951618194580078125000 0.002748664701357483863830566406 -0.003657635068520904021022177588 0 0 0 0 
2415833333.3333334923 0.155417218804359408279580634371 -0.064486317336559295654296875000 0.002869644435122609138488769531 -0.003833830589428544044494628906 0 0 0 0 
2416000000.0000000000 0.154677823185920687576455634371 -0.066480837762355804443359375000 0.002962623024359345002415322412 -0.003816880052909255027770996094 0 0 0 0 
2416166666.6666665077 0.154220670461654690841513115629 -0.068457372486591339111328125000 0.002848944393917918205261230469 -0.004006587900221347808837890625 0 0 0 0 
2416333333.3333334923 0.153730273246765108963174384371 -0.070251673460006713867187500000 0.002921262988820672035217285156 -0.004172613844275475415701581738 0 0 0 0 
2416500000.0000000000 0.153352037072181701660156250000 -0.072463773190975189208984375000 0.002741513075307012037989951025 -0.004345902707427740097045898438 0 0 0 0 
2416666666.6666665077 0.152904450893402099609375000000 -0.074338912963867187500000000000 0.002732863184064627127406454932 -0.004529116675257682800292968750 0 0 0 0 
2416833333.3333334923 0.152703359723091097732705634371 -0.076330915093421936035156250000 0.002690680790692567825317382812 -0.004629748407751321792602539062 0 0 0 0 
2417000000.0000000000 0.152284979820251492599325615629 -0.078178890049457550048828125000 0.002734445966780186133143759619 -0.004582598339766263961791992188 0 0 0 0 
2417166666.6666665077 0.152094081044197110275106865629 -0.079928979277610778808593750000 0.002501625102013349966761923682 -0.004740564152598381042480468750 0 0 0 0 
2417333333.3333334923 0.152146711945533807952557481258 -0.081844113767147064208984375000 0.002335047814995049996616982568 -0.004999802447855473432059003613 0 0 0 0 
2417500000.0000000000 0.152004599571227999588174384371 -0.083706349134445190429687500000 0.002280500018969178199768066406 -0.005014472641050815582275390625 0 0 0 0 
2417666666.6666665077 0.152159109711647005935830634371 -0.085182756185531616210937500000 0.002125969855114818053004599463 -0.005096011795103549957275390625 0 0 0 0 
2417833333.3333334923 0.152124896645545987228231865629 -0.086811959743499755859375000000 0.002048430265858768983128213037 -0.005289112217724323272705078125 0 0 0 0 
2418000000.0000000000 0.151980116963386507888955634371 -0.088373862206935882568359375000 0.001913634245283901908277202075 -0.005424811039119958877563476562 0 0 0 0 
2418166666.6666665077 0.152233853936195401290731865629 -0.089534707367420196533203125000 0.001857844181358814022661518628 -0.005495216231793165206909179688 0 0 0 0 
2418333333.3333334923 0.152459263801574707031250000000 -0.090922728180885314941406250000 0.001838186872191726944567036206 -0.005577171221375465393066406250 0 0 0 0 
2418500000.0000000000 0.152582243084907503982705634371 -0.092114999890327453613281250000 0.001475401571951806978938437354 -0.005759078077971935272216796875 0 0 0 0 
2418666666.6666665077 0.152866512537002591232138115629 -0.093347705900669097900390625000 0.001387260737828909917118691553 -0.005812442861497402191162109375 0 0 0 0 
2418833333.3333334923 0.152935102581977788727130018742 -0.094294749200344085693359375000 0.001340241753496230082270956885 -0.005975202657282351580148027637 0 0 0 0 
2419000000.0000000000 0.153088018298149108886718750000 -0.095018506050109863281250000000 0.001075122505426407077191996997 -0.005946222692728042602539062500 0 0 0 0 
2419166666.6666665077 0.153390273451805086990518134371 -0.095728814601898193359375000000 0.000846944574732333421707153320 -0.006004357244819402694702148438 0 0 0 0 
2419333333.3333334923 0.153411909937858609298544365629 -0.096321426331996917724609375000 0.000760381633881479501724243164 -0.006114308722317218780517578125 0 0 0 0 
2419500000.0000000000 0.153701797127723693847656250000 -0.097020402550697326660156250000 0.000639043515548110008239746094 -0.006159636192023754119873046875 0 0 0 0 
2419666666.6666665077 0.153959617018699701507244981258 -0.097444497048854827880859375000 0.000530213408637791872024536133 -0.006070306990295648574829101562 0 0 0 0 
2419833333.3333334923 0.153942421078682001311932481258 -0.097596332430839538574218750000 0.000398429488996043801307678223 -0.006358352024108172330374433301 0 0 0 0 
