# Version 1.00
#
freq[Hz];re:Trc1_S11;im:Trc1_S11;re:Trc2_S21;im:Trc2_S21;
2.400000000000000E+009;1.551318317651749E-001;1.066331490874291E-001;-1.675562118180096E-003;-6.305587477982044E-003;
2.400166666666667E+009;1.548400521278381E-001;1.041456237435341E-001;-2.012626733630896E-003;-6.233879830688238E-003;
2.400333333333334E+009;1.549320966005325E-001;1.019219160079956E-001;-2.323169959709048E-003;-6.085998844355345E-003;
2.400500000000000E+009;1.548238247632980E-001;9.908297657966614E-002;-2.520669251680374E-003;-5.981991067528725E-003;
2.400666666666667E+009;1.547218859195709E-001;9.667708724737167E-002;-2.543559763580561E-003;-5.654759239405394E-003;
2.400833333333334E+009;1.548655033111572E-001;9.378318488597870E-002;-2.790038706734777E-003;-5.410520359873772E-003;
2.401000000000000E+009;1.550814062356949E-001;9.093510359525681E-002;-2.852295292541385E-003;-5.431228317320347E-003;
2.401166666666667E+009;1.551734954118729E-001;8.819663524627686E-002;-2.821280620992184E-003;-5.206272006034851E-003;
2.401333333333334E+009;1.554877907037735E-001;8.534498512744904E-002;-2.903086831793189E-003;-4.967853892594576E-003;
2.401500000000000E+009;1.559411436319351E-001;8.254670351743698E-002;-2.998278243467212E-003;-4.732781555503607E-003;
2.401666666666667E+009;1.562557965517044E-001;7.954224199056625E-002;-3.074880689382553E-003;-4.602898377925158E-003;
2.401833333333334E+009;1.568483412265778E-001;7.687152922153473E-002;-3.068585181608796E-003;-4.683549515902996E-003;
2.402000000000000E+009;1.575272083282471E-001;7.403171807527542E-002;-2.974124625325203E-003;-4.657182376831770E-003;
2.402166666666667E+009;1.584290415048599E-001;7.157723605632782E-002;-3.026032354682684E-003;-4.507140256464481E-003;
2.402333333333334E+009;1.592251211404800E-001;6.857447326183319E-002;-3.020674688741565E-003;-4.591230768710375E-003;
2.402500000000000E+009;1.604244410991669E-001;6.623187661170960E-002;-3.275733673945069E-003;-4.658562131226063E-003;
2.402666666666667E+009;1.614776253700256E-001;6.371194124221802E-002;-3.415117040276527E-003;-4.484291654080153E-003;
2.402833333333334E+009;1.629879474639893E-001;6.140985339879990E-002;-3.393720369786024E-003;-4.559636581689119E-003;
2.403000000000000E+009;1.643757075071335E-001;5.890327692031860E-002;-3.597124945372343E-003;-4.463430494070053E-003;
2.403166666666667E+009;1.660356819629669E-001;5.674619972705841E-002;-3.891336265951395E-003;-4.567196592688561E-003;
2.403333333333334E+009;1.672997772693634E-001;5.447455868124962E-002;-4.313501995056868E-003;-4.397046752274036E-003;
2.403500000000000E+009;1.692403703927994E-001;5.241183564066887E-002;-4.326423164457083E-003;-4.313058685511351E-003;
2.403666666666667E+009;1.709122359752655E-001;5.054949596524239E-002;-4.506500903517008E-003;-4.263844341039658E-003;
2.403833333333334E+009;1.725928634405136E-001;4.859962686896324E-002;-4.806479904800654E-003;-4.053676035255194E-003;
2.404000000000000E+009;1.739891022443771E-001;4.691819474101067E-002;-4.942593164741993E-003;-3.792924806475639E-003;
2.404166666666667E+009;1.759620755910873E-001;4.542204365134239E-002;-5.180013366043568E-003;-3.643533913418651E-003;
2.404333333333334E+009;1.775287836790085E-001;4.387965798377991E-002;-5.352604668587446E-003;-3.330157371237874E-003;
2.404500000000000E+009;1.791106313467026E-001;4.248300194740295E-002;-5.390573758631945E-003;-2.935836324468255E-003;
2.404666666666667E+009;1.808002740144730E-001;4.139095917344093E-002;-5.602732300758362E-003;-2.804224379360676E-003;
2.404833333333334E+009;1.825152337551117E-001;4.028811305761337E-002;-5.655386485159397E-003;-2.390376292169094E-003;
2.405000000000000E+009;1.838470101356506E-001;3.977776691317558E-002;-5.512381903827190E-003;-2.291783224791288E-003;
2.405166666666667E+009;1.854003071784973E-001;3.905196860432625E-002;-5.511472001671791E-003;-1.984007889404893E-003;
2.405333333333334E+009;1.867846846580505E-001;3.854675963521004E-002;-5.632839165627956E-003;-1.819788594730198E-003;
2.405500000000000E+009;1.881783753633499E-001;3.798941895365715E-002;-5.495366174727678E-003;-1.557747367769480E-003;
2.405666666666667E+009;1.894513070583344E-001;3.763266280293465E-002;-5.375651177018881E-003;-1.309038721956313E-003;
2.405833333333334E+009;1.907129436731339E-001;3.733443841338158E-002;-5.293337628245354E-003;-1.195095945149660E-003;
2.406000000000000E+009;1.917497813701630E-001;3.721807152032852E-002;-5.331750027835369E-003;-1.007275539450347E-003;
2.406166666666667E+009;1.926737725734711E-001;3.700425848364830E-002;-5.191492382436991E-003;-8.124328451231122E-004;
2.406333333333334E+009;1.934927254915237E-001;3.707934916019440E-002;-5.008712410926819E-003;-7.493024459108710E-004;
2.406500000000000E+009;1.942830830812454E-001;3.718186914920807E-002;-5.003447178751230E-003;-4.808945814147592E-004;
2.406666666666667E+009;1.948874741792679E-001;3.716034069657326E-002;-5.026456899940968E-003;-5.663053016178310E-004;
2.406833333333334E+009;1.954171359539032E-001;3.728896006941795E-002;-4.904199857264757E-003;-4.794009146280587E-004;
2.407000000000000E+009;1.956105530261993E-001;3.747638687491417E-002;-4.851932637393475E-003;-3.852518275380135E-004;
2.407166666666667E+009;1.959905177354813E-001;3.727903217077255E-002;-4.745417740195990E-003;-3.994097642134875E-004;
2.407333333333334E+009;1.958492398262024E-001;3.745601698756218E-002;-4.728516563773155E-003;-3.052625979762524E-004;
2.407500000000000E+009;1.958175450563431E-001;3.763733804225922E-002;-4.678752738982439E-003;-1.346468197880313E-004;
2.407666666666667E+009;1.956680417060852E-001;3.758763894438744E-002;-4.884027410298586E-003;-1.927430130308494E-004;
2.407833333333334E+009;1.953552812337875E-001;3.752806782722473E-002;-4.581854678690434E-003;-6.203508382895961E-005;
2.408000000000000E+009;1.950977891683579E-001;3.733476251363754E-002;-4.496878478676081E-003;-9.979107562685385E-005;
2.408166666666667E+009;1.944947838783264E-001;3.713298588991165E-002;-4.567292518913746E-003;-6.346004374790937E-005;
2.408333333333334E+009;1.939198374748230E-001;3.678682819008827E-002;-4.674309864640236E-003;-6.271355232456699E-005;
2.408500000000000E+009;1.933126151561737E-001;3.645543754100800E-002;-4.630902782082558E-003;4.467480903258547E-005;
2.408666666666667E+009;1.926247328519821E-001;3.590356931090355E-002;-4.786352161318064E-003;9.919701551552862E-005;
2.408833333333334E+009;1.919401735067368E-001;3.523144125938416E-002;-4.612680058926344E-003;2.501338021829724E-004;
2.409000000000000E+009;1.909817159175873E-001;3.442602977156639E-002;-4.779348149895668E-003;2.119465934811160E-004;
2.409166666666667E+009;1.899773776531220E-001;3.351932391524315E-002;-4.797264933586121E-003;2.604657493066043E-004;
2.409333333333334E+009;1.890383064746857E-001;3.251346200704575E-002;-4.930837545543909E-003;3.600330383051187E-004;
2.409500000000000E+009;1.879384666681290E-001;3.131396323442459E-002;-5.104062147438526E-003;6.286472198553383E-004;
2.409666666666667E+009;1.869629472494125E-001;2.979060634970665E-002;-5.052071996033192E-003;6.836161483079195E-004;
2.409833333333334E+009;1.860528439283371E-001;2.842533774673939E-002;-5.059305112808943E-003;7.115832995623350E-004;
2.410000000000000E+009;1.850622445344925E-001;2.692229673266411E-002;-5.022604949772358E-003;9.596420568414033E-004;
2.410166666666667E+009;1.840951293706894E-001;2.507092244923115E-002;-5.091156344860792E-003;1.033049309626222E-003;
2.410333333333334E+009;1.831465363502502E-001;2.328463271260262E-002;-5.234007723629475E-003;1.238975557498634E-003;
2.410500000000000E+009;1.820725947618485E-001;2.144579775631428E-002;-5.089842714369297E-003;1.523164566606283E-003;
2.410666666666667E+009;1.812794059514999E-001;1.911247707903385E-002;-5.069144070148468E-003;1.585726742632687E-003;
2.410833333333334E+009;1.805678606033325E-001;1.695838011801243E-002;-5.070090759545565E-003;1.745834364555776E-003;
2.411000000000000E+009;1.798311620950699E-001;1.483273971825838E-002;-4.884954541921616E-003;1.971583114936948E-003;
2.411166666666667E+009;1.791062206029892E-001;1.247620489448309E-002;-4.877595696598291E-003;2.218755194917321E-003;
2.411333333333334E+009;1.786027252674103E-001;1.011906843632460E-002;-4.869560245424509E-003;2.170739928260446E-003;
2.411500000000000E+009;1.783781349658966E-001;7.481230888515711E-003;-4.547246266156435E-003;2.351969946175814E-003;
2.411666666666667E+009;1.782020628452301E-001;5.115839652717114E-003;-4.600518848747015E-003;2.598303137347102E-003;
2.411833333333334E+009;1.778077036142349E-001;2.805198542773724E-003;-4.550256300717592E-003;2.505861455574632E-003;
2.412000000000000E+009;1.781741529703140E-001;1.851753477239981E-004;-4.353530704975128E-003;2.606927882879973E-003;
2.412166666666667E+009;1.781191676855087E-001;-2.081025857478380E-003;-4.340126179158688E-003;2.880071522668004E-003;
2.412333333333334E+009;1.783746927976608E-001;-4.542673472315073E-003;-4.263673909008503E-003;2.859977073967457E-003;
2.412500000000000E+009;1.787878870964050E-001;-7.128892932087183E-003;-4.271874669939280E-003;2.821043832227588E-003;
2.412666666666667E+009;1.792074143886566E-001;-9.510421194136143E-003;-4.161502700299025E-003;2.918668789789081E-003;
2.412833333333334E+009;1.798886209726334E-001;-1.179270166903734E-002;-4.148229956626892E-003;3.087137592956424E-003;
2.413000000000000E+009;1.809781491756439E-001;-1.415013149380684E-002;-4.038652405142784E-003;3.049266058951616E-003;
2.413166666666667E+009;1.817194819450378E-001;-1.664588972926140E-002;-4.118834622204304E-003;3.235797397792339E-003;
2.413333333333334E+009;1.826734542846680E-001;-1.887168921530247E-002;-4.202668089419603E-003;3.244748804718256E-003;
2.413500000000000E+009;1.835170984268189E-001;-2.109920047223568E-002;-4.046603105962277E-003;3.380841808393598E-003;
2.413666666666667E+009;1.849288046360016E-001;-2.332110330462456E-002;-4.110284615308046E-003;3.423831891268492E-003;
2.413833333333334E+009;1.859954744577408E-001;-2.539257705211639E-002;-4.034371580928564E-003;3.640776965767145E-003;
2.414000000000000E+009;1.871062666177750E-001;-2.736151032149792E-002;-4.061253275722265E-003;3.833206603303552E-003;
2.414166666666667E+009;1.883480101823807E-001;-2.903924323618412E-002;-4.045311361551285E-003;4.006026312708855E-003;
2.414333333333334E+009;1.895207464694977E-001;-3.115592524409294E-002;-3.979404922574759E-003;4.150598309934139E-003;
2.414500000000000E+009;1.908108294010162E-001;-3.265593573451042E-002;-3.865312552079558E-003;4.400792066007853E-003;
2.414666666666667E+009;1.919894665479660E-001;-3.407922014594078E-002;-3.694291692227125E-003;4.573123063892126E-003;
2.414833333333334E+009;1.931264698505402E-001;-3.549452871084213E-002;-3.614385146647692E-003;4.921095445752144E-003;
2.415000000000000E+009;1.942795664072037E-001;-3.683496639132500E-002;-3.437187289819121E-003;5.112029146403074E-003;
2.415166666666667E+009;1.955868005752564E-001;-3.783648833632469E-002;-3.175290534272790E-003;5.317163188010454E-003;
2.415333333333334E+009;1.966967880725861E-001;-3.882717713713646E-002;-2.972558606415987E-003;5.459388718008995E-003;
2.415500000000000E+009;1.978253424167633E-001;-3.946052119135857E-002;-2.907931804656982E-003;5.618671420961618E-003;
2.415666666666667E+009;1.989712715148926E-001;-4.050755873322487E-002;-2.681010635569692E-003;5.571538582444191E-003;
2.415833333333334E+009;1.997056007385254E-001;-4.095220565795898E-002;-2.344705862924457E-003;5.753573495894671E-003;
2.416000000000000E+009;2.005539983510971E-001;-4.167741164565086E-002;-2.146927639842033E-003;5.718082655221224E-003;
2.416166666666667E+009;2.012418657541275E-001;-4.215165972709656E-002;-2.041146857663989E-003;5.724518094211817E-003;
2.416333333333334E+009;2.019283324480057E-001;-4.243288561701775E-002;-1.724423142150044E-003;5.858562886714935E-003;
2.416500000000000E+009;2.023994475603104E-001;-4.255509003996849E-002;-1.489569200202823E-003;5.938518792390823E-003;
2.416666666666667E+009;2.026665508747101E-001;-4.294109717011452E-002;-1.254671369679272E-003;5.962398834526539E-003;
2.416833333333334E+009;2.027846574783325E-001;-4.293647035956383E-002;-1.037908485159278E-003;6.093892734497786E-003;
2.417000000000000E+009;2.030262798070908E-001;-4.308265075087547E-002;-8.500776602886617E-004;6.044527050107718E-003;
2.417166666666667E+009;2.026335000991821E-001;-4.305012524127960E-002;-5.250339163467288E-004;5.879128351807594E-003;
2.417333333333334E+009;2.024733424186707E-001;-4.279128834605217E-002;-2.620211453177035E-004;5.888627842068672E-003;
2.417500000000000E+009;2.022039443254471E-001;-4.280656576156616E-002;-4.242142313160002E-005;5.965932272374630E-003;
2.417666666666667E+009;2.015818506479263E-001;-4.254391416907311E-002;4.165208520134911E-005;5.809915717691183E-003;
2.417833333333334E+009;2.012234777212143E-001;-4.230143874883652E-002;2.478859387338162E-004;6.066932342946529E-003;
2.418000000000000E+009;2.006061226129532E-001;-4.203637316823006E-002;4.835864529013634E-004;5.796590819954872E-003;
2.418166666666667E+009;1.997886449098587E-001;-4.199410974979401E-002;7.018964970484376E-004;5.779383238404989E-003;
2.418333333333334E+009;1.987999528646469E-001;-4.177613556385040E-002;8.500673575326800E-004;5.662712268531323E-003;
2.418500000000000E+009;1.978089809417725E-001;-4.188329726457596E-002;9.608705877326429E-004;5.473751109093428E-003;
2.418666666666667E+009;1.969936639070511E-001;-4.179204255342484E-002;1.128159579820931E-003;5.417125765234232E-003;
2.418833333333334E+009;1.956835240125656E-001;-4.205315932631493E-002;1.246228581294417E-003;5.431500263512135E-003;
2.419000000000000E+009;1.942988634109497E-001;-4.216091334819794E-002;1.351939514279366E-003;5.340137053281069E-003;
2.419166666666667E+009;1.931786090135574E-001;-4.250383749604225E-002;1.675977371633053E-003;5.079647526144981E-003;
2.419333333333334E+009;1.915655583143234E-001;-4.309907555580139E-002;1.692912424914539E-003;5.070105660706759E-003;
2.419500000000000E+009;1.900929957628250E-001;-4.335902258753777E-002;1.858279341831803E-003;4.947117995470762E-003;
2.419666666666667E+009;1.884625703096390E-001;-4.421166330575943E-002;1.925346092320979E-003;4.737360402941704E-003;
2.419833333333334E+009;1.868291050195694E-001;-4.484786093235016E-002;1.863895566202700E-003;4.853493534028530E-003;
2.420000000000000E+009;1.852670609951019E-001;-4.563311859965324E-002;1.821537967771292E-003;4.677402786910534E-003;
2.420166666666667E+009;1.836697012186050E-001;-4.667674377560616E-002;2.132049994543195E-003;4.648794885724783E-003;
2.420333333333334E+009;1.819134652614594E-001;-4.799600690603256E-002;2.086210064589977E-003;4.491365514695644E-003;
2.420500000000000E+009;1.801783144474030E-001;-4.945839568972588E-002;2.182222902774811E-003;4.365715198218823E-003;
2.420666666666667E+009;1.787656396627426E-001;-5.057046934962273E-002;2.301795640960336E-003;4.299157764762640E-003;
2.420833333333334E+009;1.770113408565521E-001;-5.205241963267326E-002;2.403090707957745E-003;4.168039653450251E-003;
2.421000000000000E+009;1.755634248256683E-001;-5.351596698164940E-002;2.458114642649889E-003;4.054603632539511E-003;
2.421166666666667E+009;1.741119623184204E-001;-5.530329421162605E-002;2.396837575361133E-003;4.083452746272087E-003;
2.421333333333334E+009;1.722765117883682E-001;-5.684375017881393E-002;2.606122987344861E-003;3.956655040383339E-003;
2.421500000000000E+009;1.710386276245117E-001;-5.881329253315926E-002;2.561187837272883E-003;3.827818669378758E-003;
2.421666666666667E+009;1.699641793966293E-001;-6.066916510462761E-002;2.547719981521368E-003;3.631975268945098E-003;
2.421833333333334E+009;1.685869246721268E-001;-6.244305521249771E-002;2.617395017296076E-003;3.696041181683540E-003;
2.422000000000000E+009;1.674350649118424E-001;-6.432970613241196E-002;2.524134935811162E-003;3.667214419692755E-003;
2.422166666666667E+009;1.667566448450089E-001;-6.650783866643906E-002;2.483240561559796E-003;3.764589317142963E-003;
2.422333333333334E+009;1.655766814947128E-001;-6.857782602310181E-002;2.539227949455380E-003;3.624135395511985E-003;
2.422500000000000E+009;1.648623645305634E-001;-7.063430547714233E-002;2.723663346841931E-003;3.826323430985212E-003;
2.422666666666667E+009;1.641429364681244E-001;-7.256726920604706E-002;2.925013424828649E-003;3.881571814417839E-003;
2.422833333333334E+009;1.636826395988464E-001;-7.454008609056473E-002;2.820963039994240E-003;3.779403865337372E-003;
2.423000000000000E+009;1.631981283426285E-001;-7.672964036464691E-002;2.890452742576599E-003;3.716489532962441E-003;
2.423166666666667E+009;1.628862172365189E-001;-7.863432914018631E-002;2.925081644207239E-003;3.704587463289499E-003;
2.423333333333334E+009;1.627581119537354E-001;-8.055450022220612E-002;3.292170818895102E-003;3.563532140105963E-003;
2.423500000000000E+009;1.625350862741470E-001;-8.238016813993454E-002;3.251716494560242E-003;3.447073977440596E-003;
2.423666666666667E+009;1.626602858304977E-001;-8.427552133798599E-002;3.426622599363327E-003;3.725373186171055E-003;
2.423833333333334E+009;1.626709997653961E-001;-8.612807840108872E-002;3.597148228436709E-003;3.339364891871810E-003;
2.424000000000000E+009;1.627393364906311E-001;-8.787617087364197E-002;3.575239563360810E-003;3.391979029402137E-003;
2.424166666666667E+009;1.629311591386795E-001;-8.940888941287994E-002;3.694652812555432E-003;3.166823182255030E-003;
2.424333333333334E+009;1.631786227226257E-001;-9.096130728721619E-002;3.765901550650597E-003;3.142249304801226E-003;
2.424500000000000E+009;1.636137813329697E-001;-9.267357736825943E-002;3.817226737737656E-003;3.109816927462816E-003;
2.424666666666667E+009;1.637530177831650E-001;-9.408880770206451E-002;3.776123281568289E-003;3.116023959591985E-003;
2.424833333333334E+009;1.645088493824005E-001;-9.521381556987763E-002;3.922585863620043E-003;3.007196821272373E-003;
2.425000000000000E+009;1.648414880037308E-001;-9.653408080339432E-002;4.109821282327175E-003;2.921963343396783E-003;
2.425166666666667E+009;1.651188582181931E-001;-9.770033508539200E-002;4.131685011088848E-003;2.672164235264063E-003;
2.425333333333334E+009;1.655029356479645E-001;-9.877122193574905E-002;4.237978253513575E-003;2.648427151143551E-003;
2.425500000000000E+009;1.660272777080536E-001;-9.956872463226318E-002;4.218250513076782E-003;2.537158550694585E-003;
2.425666666666667E+009;1.665121465921402E-001;-1.001561358571053E-001;4.413066431879997E-003;2.642913721501827E-003;
2.425833333333334E+009;1.667333096265793E-001;-1.011622697114945E-001;4.392313305288553E-003;2.498813671991229E-003;
2.426000000000000E+009;1.671871244907379E-001;-1.015286147594452E-001;4.600588232278824E-003;2.559687709435821E-003;
2.426166666666667E+009;1.676925718784332E-001;-1.021248623728752E-001;4.673369228839874E-003;2.425057347863913E-003;
2.426333333333334E+009;1.677912026643753E-001;-1.025225594639778E-001;4.780947696417570E-003;2.329105976969004E-003;
2.426500000000000E+009;1.682268381118774E-001;-1.027797535061836E-001;4.912823904305697E-003;2.215485787019134E-003;
2.426666666666667E+009;1.684224754571915E-001;-1.031040698289871E-001;5.030215252190828E-003;2.128787338733673E-003;
2.426833333333334E+009;1.687456965446472E-001;-1.034835353493691E-001;4.958523903042078E-003;1.702291658148170E-003;
2.427000000000000E+009;1.686931401491165E-001;-1.035348996520042E-001;5.164786707609892E-003;1.804483006708324E-003;
2.427166666666667E+009;1.686423271894455E-001;-1.035766527056694E-001;5.348681472241879E-003;1.554475049488246E-003;
2.427333333333334E+009;1.686100214719772E-001;-1.039146333932877E-001;5.359774921089411E-003;1.376768690533936E-003;
2.427500000000000E+009;1.682902723550797E-001;-1.040869057178497E-001;5.351352971047163E-003;1.276935217902064E-003;
2.427666666666667E+009;1.680019944906235E-001;-1.041162610054016E-001;5.460392218083143E-003;1.087370561435819E-003;
2.427833333333334E+009;1.676022708415985E-001;-1.042094007134438E-001;5.626536905765533E-003;1.016462338156998E-003;
