# Hz S RI R 50
2400000000.0000000000 0.173118233680725097656250000000 0.049219645559787750244140625000 0.007574333343654870986938476562 0.002266966737806797027587890625 0 0 0 0 
2400166666.6666665077 0.173658251762390108963174384371 0.048663195222616202617604841407 0.007649842184036970138549804688 0.001752818585373461029650044019 0 0 0 0 
2400333333.3333334923 0.174059346318244906326455634371 0.047756068408489227294921875000 0.007686481345444917678833007812 0.001735562109388411045074462891 0 0 0 0 
2400500000.0000000000 0.174468994140625000000000000000 0.047202605754137039184570312500 0.007846964523196220397949218750 0.001431458396837115070940327222 0 0 0 0 
2400666666.6666665077 0.174790143966674804687500000000 0.046376634389162056659738908593 0.007867126725614070892333984375 0.001138712046667933897731161963 0 0 0 0 
2400833333.3333334923 0.174896746873855590820312500000 0.046000279486179351806640625000 0.008099628612399101257324218750 0.000858824991155415773391723633 0 0 0 0 
2401000000.0000000000 0.175028353929519708831463731258 0.045266956090927117084543596093 0.008063655346632003784179687500 0.000485733064124360680580139160 0 0 0 0 
2401166666.6666665077 0.175352811813354492187500000000 0.044636227190494537353515625000 0.007966385222971439361572265625 0.000262343994108959978252965106 0 0 0 0 
2401333333.3333334923 0.175177305936813410003338731258 0.043813828378915786743164062500 0.008122595958411693572998046875 0.000039687834942014887928962708 0 0 0 0 
2401500000.0000000000 0.175259485840797396560830634371 0.043273612856864929199218750000 0.008238243870437145233154296875 -0.000283117085928097421496790753 0 0 0 0 
2401666666.6666665077 0.175233617424964904785156250000 0.042546268552541732788085937500 0.008301761932671070098876953125 -0.000765262520872056484222412109 0 0 0 0 
2401833333.3333334923 0.175235018134117098709268134371 0.041755963116884231567382812500 0.008310801349580287933349609375 -0.001024868106469511985778808594 0 0 0 0 
2402000000.0000000000 0.174891740083694513518963731258 0.040839336812496192241628278907 0.008289297111332416534423828125 -0.001335746143013238906860351562 0 0 0 0 
2402166666.6666665077 0.174769774079322787185830634371 0.039988793432712561870534528907 0.008180933073163032531738281250 -0.001713963225483893914463662256 0 0 0 0 
2402333333.3333334923 0.174438327550888089279013115629 0.039016552269458770751953125000 0.008178799413144588470458984375 -0.002040649997070432142970419775 0 0 0 0 
2402500000.0000000000 0.174533590674400301834268134371 0.038209080696105957031250000000 0.008111748844385147094726562500 -0.002367814304307103157043457031 0 0 0 0 
2402666666.6666665077 0.174083545804023687164630018742 0.037243910133838646625559221093 0.007890635170042514801025390625 -0.002790371654555201964137411963 0 0 0 0 
2402833333.3333334923 0.173906460404396112640057481258 0.036041073501110076904296875000 0.007833620533347129821777343750 -0.003251448040828108787536621094 0 0 0 0 
2403000000.0000000000 0.173684626817703302581463731258 0.034682840108871459960937500000 0.007651853840798139572143554688 -0.003438584739342331886291503906 0 0 0 0 
2403166666.6666665077 0.173471003770828302581463731258 0.033198431134223937988281250000 0.007562892977148293581490801074 -0.003774901386350392861607216943 0 0 0 0 
2403333333.3333334923 0.173096537590026910979901231258 0.031853310763835906982421875000 0.007287968415766954421997070312 -0.004055736120790243148803710938 0 0 0 0 
2403500000.0000000000 0.172892048954963711837606865629 0.030240852385759350168248360546 0.006824955809861421585083007812 -0.004106637556105852127075195312 0 0 0 0 
2403666666.6666665077 0.172167122364044189453125000000 0.028614262118935588491419608204 0.006744365673512220382690429688 -0.004597049672156572341918945312 0 0 0 0 
2403833333.3333334923 0.172167748212814303299111884371 0.027066754177212718618372733204 0.006567167583853006362915039062 -0.004779453389346599578857421875 0 0 0 0 
2404000000.0000000000 0.171760737895965603927450615629 0.025414977222681049001673514454 0.006128966342657805356497480176 -0.005011828150600194931030273438 0 0 0 0 
2404166666.6666665077 0.171626120805740411956463731258 0.023374348878860470163365548046 0.006007118150591850280761718750 -0.004955516662448644638061523438 0 0 0 0 
2404333333.3333334923 0.171079501509666387359942518742 0.021775426343083381652832031250 0.005808538757264614105224609375 -0.005273390095680952072143554688 0 0 0 0 
2404500000.0000000000 0.170687749981880187988281250000 0.019706690683960921550710310157 0.005460632499307394027709960938 -0.005278567317873240384573652051 0 0 0 0 
2404666666.6666665077 0.170681729912757901290731865629 0.017665527760982509958287423046 0.005288533400744199752807617188 -0.005444615148007869720458984375 0 0 0 0 
2404833333.3333334923 0.170532956719398498535156250000 0.015705320984125140798548514454 0.005026458762586116790771484375 -0.005444638896733522415161132812 0 0 0 0 
2405000000.0000000000 0.170241564512252807617187500000 0.013726502656936650711982927930 0.004793242085725069046020507812 -0.005432039499282836914062500000 0 0 0 0 
2405166666.6666665077 0.170171007513999911209268134371 0.011752538383007049560546875000 0.004508333280682563781738281250 -0.005562703125178813934326171875 0 0 0 0 
2405333333.3333334923 0.170434057712554903885049384371 0.009624405764043331146240234375 0.004428388085216283798217773438 -0.005720053333789110183715820312 0 0 0 0 
2405500000.0000000000 0.170400932431221008300781250000 0.007726099342107772827148437500 0.004245833493769168853759765625 -0.005663981661200523376464843750 0 0 0 0 
2405666666.6666665077 0.170550957322120694259481865629 0.005687912926077842712402343750 0.004127029329538345336914062500 -0.005678196437656879425048828125 0 0 0 0 
2405833333.3333334923 0.170713335275649996658486884371 0.003658883040770887894871377100 0.004013258032500743865966796875 -0.005884367972612380981445312500 0 0 0 0 
2406000000.0000000000 0.170915067195892306228799384371 0.001481773448176681995391845703 0.003813557326793671087977743994 -0.005745398346334695816040039062 0 0 0 0 
2406166666.6666665077 0.171191111207008389571981865629 -0.000314716307912021875381469727 0.003867580788210033936741494287 -0.005994804669171571731567382812 0 0 0 0 
2406333333.3333334923 0.171844094991683987716513115629 -0.002367794513702393011805868994 0.003805861575528978867771767725 -0.005831202957779169082641601562 0 0 0 0 
2406500000.0000000000 0.172269076108932495117187500000 -0.004479305818676949414725019238 0.003613459644839168028590536963 -0.006097008939832448959350585938 0 0 0 0 
2406666666.6666665077 0.172496631741523687164630018742 -0.006348296534270048141479492188 0.003485460765659809112548828125 -0.006066101603209972381591796875 0 0 0 0 
2406833333.3333334923 0.173264607787132290939169365629 -0.008347253315150737762451171875 0.003480431390926241874694824219 -0.006208435632288455963134765625 0 0 0 0 
2407000000.0000000000 0.173934116959571810623330634371 -0.010232060216367249924629412305 0.003536032047122716903686523438 -0.006232284475117921829223632812 0 0 0 0 
2407166666.6666665077 0.174652442336082486251669365629 -0.012101742438971999776819998829 0.003304423531517386002781533350 -0.006364683620631694793701171875 0 0 0 0 
2407333333.3333334923 0.175257563591003390213174384371 -0.013913481496274469548235508398 0.003144973888993262810948037256 -0.006507023237645626068115234375 0 0 0 0 
2407500000.0000000000 0.175940364599227905273437500000 -0.015731755644083019601842110546 0.003148589050397276878356933594 -0.006697156932204961776733398438 0 0 0 0 
2407666666.6666665077 0.176668837666511507888955634371 -0.017289433628320690500279610546 0.002929249079898000197169638525 -0.006981980986893177032470703125 0 0 0 0 
2407833333.3333334923 0.177392780780792208572549384371 -0.019079662859439849853515625000 0.002795719308778644041774130713 -0.007055080495774745941162109375 0 0 0 0 
2408000000.0000000000 0.178048074245452908614950615629 -0.020675510168075561523437500000 0.002700911834836006164550781250 -0.007181459106504917144775390625 0 0 0 0 
2408166666.6666665077 0.178802937269210787674111884371 -0.022087680175900459289550781250 0.002520040608942509131190634619 -0.007451579906046391400809003613 0 0 0 0 
2408333333.3333334923 0.179690271615982111175213731258 -0.023451741784811019897460937500 0.002231849124655127959010458838 -0.007651280611753463745117187500 0 0 0 0 
2408500000.0000000000 0.180222854018211392501669365629 -0.024971883744001388549804687500 0.002172974403947592215297079932 -0.007867480628192424774169921875 0 0 0 0 
2408666666.6666665077 0.180962294340133694747763115629 -0.026261880993843078613281250000 0.001622327137738466045976948315 -0.008104691281914710998535156250 0 0 0 0 
2408833333.3333334923 0.181239590048790005782919365629 -0.027504196390509608877161795704 0.001528130378574132919311523438 -0.008355835452675819396972656250 0 0 0 0 
2409000000.0000000000 0.181885153055191012283486884371 -0.028498424217104908334752266796 0.001106486306525767066358256763 -0.008461668156087398529052734375 0 0 0 0 
2409166666.6666665077 0.182243704795837402343750000000 -0.029413752257823940622349923046 0.000706289836671203374862670898 -0.008661516942083835601806640625 0 0 0 0 
2409333333.3333334923 0.182763725519180297851562500000 -0.030236259102821350097656250000 0.000334110955009236877590733661 -0.008758582174777984619140625000 0 0 0 0 
2409500000.0000000000 0.182834565639495905120526231258 -0.031151425093412399291992187500 0.000065772750531323254108428955 -0.008953721262514591217041015625 0 0 0 0 
2409666666.6666665077 0.183217197656631497482138115629 -0.031763855367898941040039062500 -0.000276355800451710820198059082 -0.008904127404093742370605468750 0 0 0 0 
2409833333.3333334923 0.183436602354049710372763115629 -0.032211288809776313091237653907 -0.000754427223000675439834594727 -0.009094521403312683105468750000 0 0 0 0 
2410000000.0000000000 0.183803737163543701171875000000 -0.032740660011768341064453125000 -0.001186483772471546909929585034 -0.009059415198862552642822265625 0 0 0 0 
2410166666.6666665077 0.183813869953155489822549384371 -0.033205449581146240234375000000 -0.001596039743162692026851035010 -0.009123028255999088287353515625 0 0 0 0 
2410333333.3333334923 0.183872655034065302093182481258 -0.033535078167915337299387346093 -0.001918866881169378974317241138 -0.009012688882648944854736328125 0 0 0 0 
2410500000.0000000000 0.183920383453369112869424384371 -0.034058179706335067749023437500 -0.002378002041950821876525878906 -0.009110507555305957794189453125 0 0 0 0 
2410666666.6666665077 0.183889761567115811446981865629 -0.034442808479070663452148437500 -0.002892410382628440856933593750 -0.009109730832278728485107421875 0 0 0 0 
2410833333.3333334923 0.183634400367736788650674384371 -0.034774914383888251567800153907 -0.003511998103931546211242675781 -0.008923779241740703582763671875 0 0 0 0 
2411000000.0000000000 0.183415517210960388183593750000 -0.034873802214860923076589216407 -0.003728251904249190850498818506 -0.008758468553423881530761718750 0 0 0 0 
2411166666.6666665077 0.182942807674407986739950615629 -0.035368040204048156738281250000 -0.004267316311597824096679687500 -0.008694365620613098144531250000 0 0 0 0 
2411333333.3333334923 0.182486429810523986816406250000 -0.035478372126817703247070312500 -0.004671531263738870620727539062 -0.008323613554239273071289062500 0 0 0 0 
2411500000.0000000000 0.181855171918868990799111884371 -0.036265868693590157245676408593 -0.005041795317083597183227539062 -0.008230393752455711364746093750 0 0 0 0 
2411666666.6666665077 0.181493505835533086578692518742 -0.036474298685789108276367187500 -0.005506445653736591339111328125 -0.007936481386423110961914062500 0 0 0 0 
2411833333.3333334923 0.180605724453926086425781250000 -0.036886833608150482177734375000 -0.005854386370629072189331054688 -0.007670585066080093383789062500 0 0 0 0 
2412000000.0000000000 0.179727837443351801116619981258 -0.037186771631240851665456403907 -0.006377352401614189147949218750 -0.007395204622298479080200195312 0 0 0 0 
2412166666.6666665077 0.178917109966278103927450615629 -0.037576712667942047119140625000 -0.006688242778182029724121093750 -0.006987090688198804855346679688 0 0 0 0 
2412333333.3333334923 0.178234651684761102874432481258 -0.038223925977945327758789062500 -0.006853226106613873568063066699 -0.006618631072342395782470703125 0 0 0 0 
2412500000.0000000000 0.176882967352867098709268134371 -0.038905166089534759521484375000 -0.007293932605534791946411132812 -0.006164665333926677703857421875 0 0 0 0 
2412666666.6666665077 0.175797581672668512542401231258 -0.039492622017860412597656250000 -0.007494388148188591003417968750 -0.005681484006345272064208984375 0 0 0 0 
2412833333.3333334923 0.174694493412971496582031250000 -0.040100503712892532348632812500 -0.007674715481698513031005859375 -0.005293790251016616821289062500 0 0 0 0 
2413000000.0000000000 0.173446163535118103027343750000 -0.040847823023796081542968750000 -0.007701754104346036911010742188 -0.004878249019384384155273437500 0 0 0 0 
2413166666.6666665077 0.172024950385093688964843750000 -0.041759230196475982666015625000 -0.007933646440505981445312500000 -0.004462971817702054977416992188 0 0 0 0 
2413333333.3333334923 0.170790269970893887618856865629 -0.042719878256320953369140625000 -0.007887193933129310607910156250 -0.003970581572502852353567792676 0 0 0 0 
2413500000.0000000000 0.169535338878631591796875000000 -0.043612748384475708007812500000 -0.008220922201871871948242187500 -0.003642650088295340971705771338 0 0 0 0 
2413666666.6666665077 0.168399155139923095703125000000 -0.044713862240314476703684221093 -0.008143822662532329559326171875 -0.003079255344346166090724326025 0 0 0 0 
2413833333.3333334923 0.166927054524421691894531250000 -0.045744840055704116821289062500 -0.008123629726469516754150390625 -0.002638438949361443953273154150 0 0 0 0 
2414000000.0000000000 0.165447473526001004318075615629 -0.046994198113679892803151716407 -0.008172463625669479370117187500 -0.002446025842800735993626259912 0 0 0 0 
2414166666.6666665077 0.164490103721618707854901231258 -0.048314504325389862060546875000 -0.007967893965542316436767578125 -0.002059717895463109016418457031 0 0 0 0 
2414333333.3333334923 0.163286104798317011077557481258 -0.049597077071666717529296875000 -0.007862115278840065002441406250 -0.001663385541178286075592041016 0 0 0 0 
2414500000.0000000000 0.162251695990562411209268134371 -0.051025599241256706928293596093 -0.007851297967135906219482421875 -0.001252631889656186103820800781 0 0 0 0 
2414666666.6666665077 0.160860806703567504882812500000 -0.052512329071760177612304687500 -0.007674431893974542617797851562 -0.000947804190218448638916015625 0 0 0 0 
2414833333.3333334923 0.159826874732971191406250000000 -0.054101627320051193237304687500 -0.007802738342434167861938476562 -0.000613626732956618070602416992 0 0 0 0 
2415000000.0000000000 0.158809497952461187164630018742 -0.055683892220258712768554687500 -0.007418519817292690277099609375 -0.000311090989271178787380772723 0 0 0 0 
2415166666.6666665077 0.157901808619499206542968750000 -0.057431507855653762817382812500 -0.007220925297588109970092773438 -0.000105306229670532101958674298 0 0 0 0 
2415333333.3333334923 0.157231822609901400467080634371 -0.059403080493211753154714216407 -0.006938965991139411926269531250 0.000019265073206042870879173279 0 0 0 0 
2415500000.0000000000 0.156418353319168090820312500000 -0.060930851846933371807057966407 -0.006864757277071475982666015625 0.000282808614429086500972193585 0 0 0 0 
2415666666.6666665077 0.155560746788978604415731865629 -0.062751762568950653076171875000 -0.006839488167315722379202558301 0.000504238938447088003158569336 0 0 0 0 
2415833333.3333334923 0.155076801776885986328125000000 -0.064753316342830657958984375000 -0.006747224833816289901733398438 0.000582393200602382421493530273 0 0 0 0 
2416000000.0000000000 0.154251560568809509277343750000 -0.066628180444240570068359375000 -0.006590414792299270629882812500 0.000970639404840767383575439453 0 0 0 0 
2416166666.6666665077 0.153963193297386197189169365629 -0.068685099482536315917968750000 -0.006453774403780698776245117188 0.001205186243169009902356791919 0 0 0 0 
2416333333.3333334923 0.153431490063667297363281250000 -0.070599533617496490478515625000 -0.006347437389194965362548828125 0.001188971102237700982334756006 0 0 0 0 
2416500000.0000000000 0.153189525008201599121093750000 -0.072536922991275787353515625000 -0.006104648578912019729614257812 0.001374205457977951006648398291 0 0 0 0 
2416666666.6666665077 0.152723774313926696777343750000 -0.074338838458061218261718750000 -0.005951481405645608901977539062 0.001561458571814001040217734229 0 0 0 0 
2416833333.3333334923 0.152553573250770596603231865629 -0.076435908675193786621093750000 -0.005826256703585386276245117188 0.001844672951847315051435161060 0 0 0 0 
2417000000.0000000000 0.152276009321212796310263115629 -0.078379057347774505615234375000 -0.005625043064355850219726562500 0.001941593363881110928179096753 0 0 0 0 
2417166666.6666665077 0.152066171169281005859375000000 -0.080024585127830505371093750000 -0.005391365382820367813110351562 0.002174703171476722197291708838 0 0 0 0 
2417333333.3333334923 0.152041092514991788009481865629 -0.081741452217102050781250000000 -0.005206498783081769943237304688 0.002098261145874857902526855469 0 0 0 0 
2417500000.0000000000 0.152087613940239008147869981258 -0.083670258522033691406250000000 -0.004983724560588598251342773438 0.002307065762579441070556640625 0 0 0 0 
2417666666.6666665077 0.152208715677261408050213731258 -0.085086576640605926513671875000 -0.004764746874570847424978925488 0.002312274416908621788024902344 0 0 0 0 
2417833333.3333334923 0.152126640081405611892861884371 -0.086626589298248291015625000000 -0.004659502301365137100219726562 0.002357746707275509834289550781 0 0 0 0 
2418000000.0000000000 0.152308419346809387207031250000 -0.088203378021717071533203125000 -0.004535979591310024261474609375 0.002283250680193305015563964844 0 0 0 0 
2418166666.6666665077 0.152400538325309808929119981258 -0.089508041739463806152343750000 -0.004243264906108379364013671875 0.002363189123570919036865234375 0 0 0 0 
2418333333.3333334923 0.152734607458114596267861884371 -0.090750917792320251464843750000 -0.003966960590332747373099042676 0.002311421092599629922154091943 0 0 0 0 
2418500000.0000000000 0.152819573879241887848223768742 -0.091784909367561340332031250000 -0.003779145423322916030883789062 0.002292287303134799003601074219 0 0 0 0 
2418666666.6666665077 0.153021425008773803710937500000 -0.092986918985843658447265625000 -0.003853550180792808966395712744 0.002366277854889630837681435693 0 0 0 0 
2418833333.3333334923 0.153204515576362609863281250000 -0.093961082398891448974609375000 -0.003726744558662176132202148438 0.002213441301137208938598632812 0 0 0 0 
2419000000.0000000000 0.153377979993820190429687500000 -0.094692692160606384277343750000 -0.003781814360991119904759072412 0.002156390575692058043238974463 0 0 0 0 
2419166666.6666665077 0.153489053249359103103799384371 -0.095343291759490966796875000000 -0.003740397980436683134791708838 0.002239136490970849990844726562 0 0 0 0 
2419333333.3333334923 0.153631851077079800704794365629 -0.095686472952365875244140625000 -0.003835846902802586989161826025 0.002080888021737337112426757812 0 0 0 0 
2419500000.0000000000 0.153959229588508605957031250000 -0.096512123942375183105468750000 -0.003641952760517597198486328125 0.002186081139370799064636230469 0 0 0 0 
2419666666.6666665077 0.154160276055335998535156250000 -0.096906378865242004394531250000 -0.003758569946512579917907714844 0.002213003579527140097377158057 0 0 0 0 
2419833333.3333334923 0.154169648885726900955361884371 -0.096935383975505828857421875000 -0.003862331854179501967189169775 0.002254759427160025076625204932 0 0 0 0 
