# Hz S RI R 50
2400000000.0000000000 0.161662742495536804199218750000 0.052672635763883590698242187500 -0.003806781489402056174037314307 -0.004387977067381143569946289062 0 0 0 0 
2400166666.6666665077 0.161538049578666687011718750000 0.051164798438549041748046875000 -0.003914067521691322326660156250 -0.004245433490723372373099042676 0 0 0 0 
2400333333.3333334923 0.161433801054954501053018134371 0.049028165638446807861328125000 -0.004020573571324347582345293262 -0.004326606635004281997680664062 0 0 0 0 
2400500000.0000000000 0.161426708102226312835369981258 0.047150414437055587768554687500 -0.004140456207096576690673828125 -0.004188057966530323028564453125 0 0 0 0 
2400666666.6666665077 0.161267474293708801269531250000 0.045252699404954910278320312500 -0.004612138494849205017089843750 -0.004030170850455760955810546875 0 0 0 0 
2400833333.3333334923 0.161405920982360812088174384371 0.043293289840221411968190778907 -0.004762940574437379837036132812 -0.003911196719855070114135742188 0 0 0 0 
2401000000.0000000000 0.161490127444267300704794365629 0.041208207607269287109375000000 -0.004830542951822280883789062500 -0.003815206233412026925327920068 0 0 0 0 
2401166666.6666665077 0.161641195416450500488281250000 0.038946777582168579101562500000 -0.005028940737247467041015625000 -0.003806076012551784949061728369 0 0 0 0 
2401333333.3333334923 0.161744102835655212402343750000 0.036815028637647628784179687500 -0.005173150449991226196289062500 -0.003702386515215038819553994287 0 0 0 0 
2401500000.0000000000 0.161960095167160006424111884371 0.034622512757778167724609375000 -0.005404579453170300397391034863 -0.003541139885783195929286337744 0 0 0 0 
2401666666.6666665077 0.162420108914375305175781250000 0.032934468239545822143554687500 -0.005666073877364397048950195312 -0.003353231586515903906581259619 0 0 0 0 
2401833333.3333334923 0.162726372480392511565838731258 0.030719891190528869628906250000 -0.005817722063511610031127929688 -0.003101467387750744819641113281 0 0 0 0 
2402000000.0000000000 0.163089737296104403396768134371 0.028704311698675159109095389454 -0.005983928684145212173461914062 -0.003002988174557685852050781250 0 0 0 0 
2402166666.6666665077 0.163535282015800503829794365629 0.026520209386944770812988281250 -0.006183223333209753036499023438 -0.002663159044459462165832519531 0 0 0 0 
2402333333.3333334923 0.163876935839652987381143134371 0.024755299091339111328125000000 -0.006266380660235881805419921875 -0.002629477297887206077575683594 0 0 0 0 
2402500000.0000000000 0.164741188287735013107138115629 0.022815549746155738830566406250 -0.006580548826605082425589277051 -0.002309202915057539939880371094 0 0 0 0 
2402666666.6666665077 0.165098518133163507659588731258 0.021029522642493251455286795704 -0.007040768396109342575073242188 -0.002107783220708370208740234375 0 0 0 0 
2402833333.3333334923 0.165933907032012911697549384371 0.019387315958738330495814139454 -0.007094749715179204940795898438 -0.001642223563976586081861186450 0 0 0 0 
2403000000.0000000000 0.166656270623207092285156250000 0.017760675400495529174804687500 -0.007294822949916124343872070312 -0.001419839798472821929334330981 0 0 0 0 
2403166666.6666665077 0.167500048875808688064736884371 0.015928862616419788705846016796 -0.007435530424118041992187500000 -0.001151483971625566916224814307 0 0 0 0 
2403333333.3333334923 0.168473526835441589355468750000 0.014671777375042440241803554102 -0.007593963760882616043090820312 -0.000728183542378246784210205078 0 0 0 0 
2403500000.0000000000 0.169045582413673400878906250000 0.013175651431083679199218750000 -0.007770017720758914947509765625 -0.000492979306727647781372070312 0 0 0 0 
2403666666.6666665077 0.169977769255638094803018134371 0.011709347367286680394182774023 -0.007671265862882137298583984375 0.000009058729119715280830860138 0 0 0 0 
2403833333.3333334923 0.170908451080322293380575615629 0.010418993420898909132987775195 -0.007835458032786846160888671875 0.000392804708098992705345153809 0 0 0 0 
2404000000.0000000000 0.171780362725257901290731865629 0.009286046028137207031250000000 -0.007900718599557876586914062500 0.000695200928021222352981567383 0 0 0 0 
2404166666.6666665077 0.172645702958106994628906250000 0.008160192519426345825195312500 -0.007908645085990428924560546875 0.001121307723224163055419921875 0 0 0 0 
2404333333.3333334923 0.173511564731597900390625000000 0.007170365657657384872436523438 -0.007664389908313751220703125000 0.001344030490145087025286030347 0 0 0 0 
2404500000.0000000000 0.174131169915199307540731865629 0.006168511230498552322387695312 -0.007807710207998752593994140625 0.001974581042304635047912597656 0 0 0 0 
2404666666.6666665077 0.175211071968078613281250000000 0.005348158068954944610595703125 -0.007572710979729890823364257812 0.002206112723797560171840048682 0 0 0 0 
2404833333.3333334923 0.175920143723487909515057481258 0.004531014245003461837768554688 -0.007579371333122253417968750000 0.002777842339128255844116210938 0 0 0 0 
2405000000.0000000000 0.176801577210426302810830634371 0.003929429221898317337036132812 -0.007418649736791849136352539062 0.002935378812253475189208984375 0 0 0 0 
2405166666.6666665077 0.177529484033584594726562500000 0.003394630970433353944065713037 -0.007105906493961811065673828125 0.003412006190046668052673339844 0 0 0 0 
2405333333.3333334923 0.178250059485435513595419365629 0.002684527076780796051025390625 -0.006961231119930744171142578125 0.003817740362137556076049804688 0 0 0 0 
2405500000.0000000000 0.178884968161583002288494981258 0.002275199862197041945216513525 -0.006757890339940786361694335938 0.004239488858729600906372070312 0 0 0 0 
2405666666.6666665077 0.179493322968482998946981865629 0.002005883958190679983851767432 -0.006535906344652175903320312500 0.004409123677760362625122070312 0 0 0 0 
2405833333.3333334923 0.179762110114097595214843750000 0.001624646363779902891871786963 -0.006256598047912120819091796875 0.004700617399066686630249023438 0 0 0 0 
2406000000.0000000000 0.180516898632049588302450615629 0.001229707500897347927093505859 -0.006180148106068372726440429688 0.004879351705312728881835937500 0 0 0 0 
2406166666.6666665077 0.180625915527343805511151231258 0.001243288978002966100808168726 -0.005730714648962020874023437500 0.005199687089771032333374023438 0 0 0 0 
2406333333.3333334923 0.181135490536689813811932481258 0.000857203616760671138763427734 -0.005460392683744431409353925488 0.005428714212030172348022460938 0 0 0 0 
2406500000.0000000000 0.181253388524055508712606865629 0.000652714923489838838577270508 -0.005225682631134986877441406250 0.005673692561686038970947265625 0 0 0 0 
2406666666.6666665077 0.181088894605636596679687500000 0.000388332467991858720779418945 -0.004948641639202833175659179688 0.005902823526412248611450195312 0 0 0 0 
2406833333.3333334923 0.181441217660903902908486884371 0.000234389983233995708540239877 -0.004729131236672401428222656250 0.005927234422415494918823242188 0 0 0 0 
2407000000.0000000000 0.181426957249641390701455634371 -0.000156964422785676988676348276 -0.004584610462188720703125000000 0.006051137577742338180541992188 0 0 0 0 
2407166666.6666665077 0.181359171867370605468750000000 -0.000303147389786317890316563739 -0.004024584777653217315673828125 0.006140622776001691818237304688 0 0 0 0 
2407333333.3333334923 0.181084960699081393142861884371 -0.000638804573100060224533081055 -0.003840682096779346899745322119 0.006345313973724842071533203125 0 0 0 0 
2407500000.0000000000 0.180849686264991788009481865629 -0.000916700460948050022125244141 -0.003524348838254808945896767725 0.006522535346448422345633222363 0 0 0 0 
2407666666.6666665077 0.180570155382156399825888115629 -0.001238327240571380095240927588 -0.003228062763810158209559775244 0.006580003071576356887817382812 0 0 0 0 
2407833333.3333334923 0.179946452379226712325888115629 -0.001873161527328192970873188550 -0.003009820822626351876499795068 0.006696157157421112060546875000 0 0 0 0 
2408000000.0000000000 0.179569736123084994217080634371 -0.002347241388633846802952431787 -0.002624390413984655900242470850 0.006753019522875547409057617188 0 0 0 0 
2408166666.6666665077 0.178956061601638793945312500000 -0.002782154129818081855773925781 -0.002379350829869509176967001807 0.006641362328082323074340820312 0 0 0 0 
2408333333.3333334923 0.178485468029975891113281250000 -0.003526627086102962927577353369 -0.002100920770317316055297851562 0.006907632574439048767089843750 0 0 0 0 
2408500000.0000000000 0.177722424268722506424111884371 -0.004363702144473791122436523438 -0.001824082108214497999904013525 0.006779281422495841979980468750 0 0 0 0 
2408666666.6666665077 0.177040502429008511642294365629 -0.005227881483733654022216796875 -0.001544933416880666992784809644 0.006926403380930423736572265625 0 0 0 0 
2408833333.3333334923 0.176025480031967190841513115629 -0.006032224278897047042846679688 -0.001223904895596205971361469800 0.006811757571995258331298828125 0 0 0 0 
2409000000.0000000000 0.175190180540084811111611884371 -0.007074555847793818387503339551 -0.000950768706388771533966064453 0.006791830528527498245239257812 0 0 0 0 
2409166666.6666665077 0.174536213278770502288494981258 -0.008065010420978069305419921875 -0.000680589873809367418289184570 0.006723838392645120620727539062 0 0 0 0 
2409333333.3333334923 0.173710405826568603515625000000 -0.009431526064872741699218750000 -0.000495483051054179668426513672 0.006694931071251630783081054688 0 0 0 0 
2409500000.0000000000 0.172810286283492986481036268742 -0.010658341459929939615269844921 -0.000322329928167164325714111328 0.006564807146787643432617187500 0 0 0 0 
2409666666.6666665077 0.171994686126709012130575615629 -0.011976188048720359802246093750 0.000041391158447368070483207703 0.006646256893873214721679687500 0 0 0 0 
2409833333.3333334923 0.171096920967102106292401231258 -0.013224142603576179849644844921 0.000304627843433991074562072754 0.006529892329126597318167402051 0 0 0 0 
2410000000.0000000000 0.170468181371688787262286268742 -0.014754509553313260514229021680 0.000328654161421582102775573730 0.006465955171734094619750976562 0 0 0 0 
2410166666.6666665077 0.169636473059654208084268134371 -0.016259098425507548940638358204 0.000546187919098883867263793945 0.006376765668392181396484375000 0 0 0 0 
2410333333.3333334923 0.168980211019515991210937500000 -0.017854385077953338623046875000 0.000752428721170872449874877930 0.006285606417804955568795488574 0 0 0 0 
2410500000.0000000000 0.168211266398429898361044365629 -0.019784590229392051696777343750 0.001024923636578023000004433740 0.006195796187967061996459960938 0 0 0 0 
2410666666.6666665077 0.167577713727951105315838731258 -0.021585447713732719421386718750 0.001050518127158283970476460034 0.005988913122564554214477539062 0 0 0 0 
2410833333.3333334923 0.166988834738731412032919365629 -0.023292040452361110342005545704 0.001317809568718075969098735278 0.005953683517873287200927734375 0 0 0 0 
2411000000.0000000000 0.166511520743370111663494981258 -0.025063684210181239736536795704 0.001349570229649543979047465747 0.005956814158707857131958007812 0 0 0 0 
2411166666.6666665077 0.165960431098937988281250000000 -0.027195734903216358530064766796 0.001623869175091386058210063403 0.005801409482955932617187500000 0 0 0 0 
2411333333.3333334923 0.165556475520133999923544365629 -0.029193839058279991149902343750 0.001738568884320556900621723706 0.005711361300200223922729492188 0 0 0 0 
2411500000.0000000000 0.165246114134788513183593750000 -0.031411934643983840942382812500 0.001836387673392892100690532153 0.005669224541634321212768554688 0 0 0 0 
2411666666.6666665077 0.165223464369773892501669365629 -0.033210925757884979248046875000 0.001984700793400406837463378906 0.005611998960375785827636718750 0 0 0 0 
2411833333.3333334923 0.164986267685890197753906250000 -0.035134412348270423198659528907 0.002257380867376923994777060400 0.005656599998474121093750000000 0 0 0 0 
2412000000.0000000000 0.165013059973716708084268134371 -0.037251111119985580444335937500 0.002371237380430101914646767725 0.005471061915159226331228925488 0 0 0 0 
2412166666.6666665077 0.164931342005729703048544365629 -0.039306316524744026874582658593 0.002592813223600388006923056494 0.005412499420344830426687909863 0 0 0 0 
2412333333.3333334923 0.165343075990676907638388115629 -0.041122298687696456909179687500 0.002628191607072948975803994287 0.005432727746665477752685546875 0 0 0 0 
2412500000.0000000000 0.165158674120902987381143134371 -0.043137378990650177001953125000 0.002724709687754511833190917969 0.005290345288813114166259765625 0 0 0 0 
2412666666.6666665077 0.165401980280876187423544365629 -0.045237418264150619506835937500 0.003026172984391450881958007812 0.005252130329608917236328125000 0 0 0 0 
2412833333.3333334923 0.165656819939613286774005018742 -0.046970378607511520385742187500 0.003273576963692903952357626807 0.005296136252582073211669921875 0 0 0 0 
2413000000.0000000000 0.166081801056861905196981865629 -0.048887018114328377460520158593 0.003288191044703125953674316406 0.005125989671796560287475585938 0 0 0 0 
2413166666.6666665077 0.166374474763870211502236884371 -0.050652798265218741680104841407 0.003521249629557133154628134619 0.005047475453466176986694335938 0 0 0 0 
2413333333.3333334923 0.166668489575386102874432481258 -0.052365295588970177387277971093 0.003738523926585913138148642432 0.004952417220920324325561523438 0 0 0 0 
2413500000.0000000000 0.167203634977340698242187500000 -0.054073538631200790405273437500 0.004217519890516996383666992188 0.004825216252356767654418945312 0 0 0 0 
2413666666.6666665077 0.167799323797226007659588731258 -0.055685732513666152954101562500 0.004200194031000137329101562500 0.004570558667182922363281250000 0 0 0 0 
2413833333.3333334923 0.168413773179054288009481865629 -0.057073384523391716693918596093 0.004316461272537708282470703125 0.004536304622888565063476562500 0 0 0 0 
2414000000.0000000000 0.168776750564575195312500000000 -0.058626871556043631816823591407 0.004592286422848702344412519238 0.004342411179095506668090820312 0 0 0 0 
2414166666.6666665077 0.169351354241371210296307481258 -0.059883955866098396991770158593 0.004782834090292453765869140625 0.004187188111245632171630859375 0 0 0 0 
2414333333.3333334923 0.169793456792831393142861884371 -0.061110645532608032226562500000 0.004935268312692642211914062500 0.003867480671033263206481933594 0 0 0 0 
2414500000.0000000000 0.170756340026855496505575615629 -0.062059320509433753276784528907 0.005017231684178113937377929688 0.003857088275253773169276572119 0 0 0 0 
2414666666.6666665077 0.170977741479873712737713731258 -0.063157387077808380126953125000 0.005199388135224580764770507812 0.003563339589163661003112792969 0 0 0 0 
2414833333.3333334923 0.171583712100982693771200615629 -0.064224660396575927734375000000 0.005433712620288133621215820312 0.003302850993350148200988769531 0 0 0 0 
2415000000.0000000000 0.172030329704284695724325615629 -0.065084531903266906738281250000 0.005659131798893213272094726562 0.003021576441824436187744140625 0 0 0 0 
2415166666.6666665077 0.172484025359153803069744981258 -0.065696090459823608398437500000 0.005805245134979487332815839551 0.002892247866839170889613486182 0 0 0 0 
2415333333.3333334923 0.173108994960784912109375000000 -0.066400356590747833251953125000 0.005853896494954823580270097949 0.002731353743001819090602255713 0 0 0 0 
2415500000.0000000000 0.173435330390930203536825615629 -0.066946707665920257568359375000 0.005858927499502897262573242188 0.002678406890481710000279091943 0 0 0 0 
2415666666.6666665077 0.173768162727356012542401231258 -0.067337781190872192382812500000 0.006059308070689439773559570312 0.002238082233816384835484170068 0 0 0 0 
2415833333.3333334923 0.174095705151557894607705634371 -0.067792430520057678222656250000 0.006013701669871807098388671875 0.001832761568948626951930380713 0 0 0 0 
2416000000.0000000000 0.174232542514800997635049384371 -0.068268038332462310791015625000 0.006299079861491919431204511426 0.001614586566574871973750449072 0 0 0 0 
2416166666.6666665077 0.174495995044708307464276231258 -0.068554043769836425781250000000 0.006098855752497912320608808301 0.001304119825363158962847065503 0 0 0 0 
2416333333.3333334923 0.174355641007423400878906250000 -0.068749345839023590087890625000 0.006368513219058513641357421875 0.001027285587042569897295307690 0 0 0 0 
2416500000.0000000000 0.174317911267280606368856865629 -0.069052860140800476074218750000 0.006199128925800324353689862988 0.000674389419145882129669189453 0 0 0 0 
2416666666.6666665077 0.174099177122116088867187500000 -0.069076858460903167724609375000 0.006311036646366119384765625000 0.000486591132357716614573878156 0 0 0 0 
2416833333.3333334923 0.173909306526184109786825615629 -0.069281660020351409912109375000 0.006204046308994293212890625000 0.000228290096856653690338134766 0 0 0 0 
2417000000.0000000000 0.173590466380119295974893134371 -0.069526799023151397705078125000 0.006218674127012491226196289062 0.000096292053058277815580368042 0 0 0 0 
2417166666.6666665077 0.173047691583633395095986884371 -0.069377288222312927246093750000 0.006142146885395050048828125000 -0.000229055425734259188175201416 0 0 0 0 
2417333333.3333334923 0.172705128788948086837606865629 -0.069522581994533538818359375000 0.006016300991177558898925781250 -0.000646731408778578042984008789 0 0 0 0 
2417500000.0000000000 0.171870023012161310393963731258 -0.069859817624092102050781250000 0.005927363876253367337698652051 -0.000875210331287235021591186523 0 0 0 0 
2417666666.6666665077 0.171234220266342190841513115629 -0.069826237857341766357421875000 0.005772284697741270065307617188 -0.001084780669771135070203471606 0 0 0 0 
2417833333.3333334923 0.170384109020233209808026231258 -0.069954380393028259277343750000 0.005847595166414976119995117188 -0.001306389691308140971540141528 0 0 0 0 
2418000000.0000000000 0.169503569602966308593750000000 -0.070243284106254577636718750000 0.005645911209285259246826171875 -0.001588802435435354926465678638 0 0 0 0 
2418166666.6666665077 0.168456643819808987716513115629 -0.070387870073318481445312500000 0.005486777052283287048339843750 -0.001856861053965985991834330981 0 0 0 0 
2418333333.3333334923 0.167716220021247891525106865629 -0.070757120847702026367187500000 0.005456494633108378324026777051 -0.001941707800142467021942138672 0 0 0 0 
2418500000.0000000000 0.166475564241409301757812500000 -0.070858605206012725830078125000 0.005350176710635423660278320312 -0.002142776967957615852355957031 0 0 0 0 
2418666666.6666665077 0.165417388081550598144531250000 -0.071377925574779510498046875000 0.005072033498436213407034589551 -0.002343660686165093941929482568 0 0 0 0 
2418833333.3333334923 0.163980677723884610275106865629 -0.071808017790317535400390625000 0.004869781900197268399710370801 -0.002456665039062500000000000000 0 0 0 0 
2419000000.0000000000 0.162681922316551208496093750000 -0.072347849607467651367187500000 0.004895904101431369781494140625 -0.002646942622959613800048828125 0 0 0 0 
2419166666.6666665077 0.161484643816947909256143134371 -0.072947241365909576416015625000 0.004781012423336505889892578125 -0.002717963652685285048243857275 0 0 0 0 
2419333333.3333334923 0.159989833831787109375000000000 -0.073426038026809692382812500000 0.004568394273519515991210937500 -0.002857523970305920080897665869 0 0 0 0 
2419500000.0000000000 0.158664733171463012695312500000 -0.074284687638282775878906250000 0.004442001227289438247680664062 -0.003156076418235898017883300781 0 0 0 0 
2419666666.6666665077 0.157555788755416897872763115629 -0.075159288942813873291015625000 0.004117666278034448623657226562 -0.003284847130998969078063964844 0 0 0 0 
2419833333.3333334923 0.156091660261154202560263115629 -0.076063826680183410644531250000 0.004004806280136108398437500000 -0.003317666240036488013026572119 0 0 0 0 
