# Hz S RI R 
2400000000.0000000000 0.169023528695106506347656250000 0.040103707462549209594726562500 0.002179153496399521827697753906 0.001519703422673047022578574072 0 0 0 0 
2400166666.6666665077 0.169789612293243408203125000000 0.039438713341951370239257812500 0.002418490825220942930934286963 0.001468879985623062090632773291 0 0 0 0 
2400333333.3333334923 0.170321598649024991134481865629 0.038661334663629531860351562500 0.002565029542893170876743935693 0.001513130380772053978563618237 0 0 0 0 
2400500000.0000000000 0.170692533254623413085937500000 0.038024127483367919921875000000 0.002660877769812941984889365088 0.001423913985490798950195312500 0 0 0 0 
2400666666.6666665077 0.171175971627235412597656250000 0.037116724997758872295339216407 0.002828714437782764001133584131 0.001398835680447519042371440356 0 0 0 0 
2400833333.3333334923 0.171675682067871093750000000000 0.036440793424844741821289062500 0.002910128794610499902012490381 0.001256909803487360911128378760 0 0 0 0 
2401000000.0000000000 0.171959370374679593185263115629 0.035745486617088317871093750000 0.003154599340632557868957519531 0.001253753551281989054438925635 0 0 0 0 
2401166666.6666665077 0.172141835093498202224893134371 0.034778498113155371929128278907 0.003310050116851925849914550781 0.001183288521133363030077290112 0 0 0 0 
2401333333.3333334923 0.172109782695770291427450615629 0.034087523818016052246093750000 0.003327618585899471802952431787 0.001027513178996741988538432544 0 0 0 0 
2401500000.0000000000 0.172330439090728787521200615629 0.033526550978422171855886091407 0.003523327177390456199645996094 0.001081031048670410893083881909 0 0 0 0 
2401666666.6666665077 0.172499030828476007659588731258 0.032767131924629211425781250000 0.003509700531139969825744628906 0.000806438969448208808898925781 0 0 0 0 
2401833333.3333334923 0.172513514757156399825888115629 0.032107178121805191040039062500 0.003787272842600942091700888525 0.000550758442841470241546630859 0 0 0 0 
2402000000.0000000000 0.172503709793090792556924384371 0.031196065247058868408203125000 0.003936157096177340421194745801 0.000474752392619848305552882062 0 0 0 0 
2402166666.6666665077 0.172512412071227999588174384371 0.030119918286800391460378278907 0.003923104144632816314697265625 0.000190543927601538598537445068 0 0 0 0 
2402333333.3333334923 0.172309175133705111404580634371 0.029514439404010769235631173046 0.004116436932235956192016601562 -0.000161594856763258603498181754 0 0 0 0 
2402500000.0000000000 0.172560781240463312347088731258 0.028723163530230518686314766796 0.004062841180711984634399414062 -0.000270017684670165181159973145 0 0 0 0 
2402666666.6666665077 0.172223538160324096679687500000 0.027860397472977641714075858204 0.004182188306003808975219726562 -0.000557357619982212781906127930 0 0 0 0 
2402833333.3333334923 0.172102600336074801345986884371 0.026951733976602550851842110546 0.004125927574932575225830078125 -0.000796384236309677362442016602 0 0 0 0 
2403000000.0000000000 0.171970292925834711272869981258 0.025810692459344860422154610546 0.004093776922672986984252929688 -0.000969412969425320625305175781 0 0 0 0 
2403166666.6666665077 0.171722978353500393966513115629 0.024701885879039760934849923046 0.004190268926322460174560546875 -0.001219341414980589909794472803 0 0 0 0 
2403333333.3333334923 0.171526595950126703460369981258 0.023752117529511451721191406250 0.003878568997606635093688964844 -0.001397912972606718973872519385 0 0 0 0 
2403500000.0000000000 0.171239674091339111328125000000 0.022487429901957508432408516796 0.003847132436931132836582802881 -0.001574685564264654896379780347 0 0 0 0 
2403666666.6666665077 0.170990094542503412444744981258 0.021188035607337951660156250000 0.003725300310179591178894042969 -0.001635321648791431946995400537 0 0 0 0 
2403833333.3333334923 0.170984715223312405685263115629 0.020079240202903751028040701954 0.003582563484087585969212197412 -0.001811835332773626067517924731 0 0 0 0 
2404000000.0000000000 0.170662045478820800781250000000 0.018807513639330860483189766796 0.003514859592542051835301064600 -0.001903071417473257021663046729 0 0 0 0 
2404166666.6666665077 0.170501708984375000000000000000 0.017281163483858108520507812500 0.003316778223961592154261923682 -0.002102558501064776940586709131 0 0 0 0 
2404333333.3333334923 0.170165568590164212325888115629 0.016083056107163429260253906250 0.003336402587592602209803915869 -0.002295762067660688920262002100 0 0 0 0 
2404500000.0000000000 0.169899016618728609939736884371 0.014478771947324279439905936329 0.003265662351623177962062216650 -0.002235135762020945982692099463 0 0 0 0 
2404666666.6666665077 0.169713705778122003753338731258 0.013017992489039899653424647852 0.003281456418335438208339072119 -0.002500507980585097832920693506 0 0 0 0 
2404833333.3333334923 0.169547066092491205413494981258 0.011447073891758920496930507227 0.002853000769391655921936035156 -0.002692217240110040144679404150 0 0 0 0 
2405000000.0000000000 0.169568732380867004394531250000 0.010041549801826480520228201954 0.002851443365216255187988281250 -0.002830013865604997114894247900 0 0 0 0 
2405166666.6666665077 0.169394180178642300704794365629 0.008294257335364818572998046875 0.002685608807951211929321289062 -0.003019300289452075958251953125 0 0 0 0 
2405333333.3333334923 0.169228851795196505447549384371 0.006600191351026296615600585938 0.002483424497768282890319824219 -0.003023327793926001028773642432 0 0 0 0 
2405500000.0000000000 0.169265404343605013748330634371 0.005131287500262259569649980762 0.002406441140919924216029501807 -0.003062280593439937071559286963 0 0 0 0 
2405666666.6666665077 0.169092044234275790115518134371 0.003255527233704925017115927588 0.002178456168621778921840048682 -0.003144402755424379868748330225 0 0 0 0 
2405833333.3333334923 0.168905273079872103592080634371 0.001590129802934824986698769678 0.002166060032323002815246582031 -0.003138072555884718894958496094 0 0 0 0 
2406000000.0000000000 0.168941915035247802734375000000 -0.000058590361732058227062225342 0.001850699889473617076873779297 -0.003162451321259140968322753906 0 0 0 0 
2406166666.6666665077 0.168694362044334411621093750000 -0.001812211703509091897251748193 0.001658332534134387969970703125 -0.003229726338759065108058310400 0 0 0 0 
2406333333.3333334923 0.168834999203682001311932481258 -0.003434565383940935134887695312 0.001501513179391622977015829932 -0.003114638384431601004359579932 0 0 0 0 
2406500000.0000000000 0.168497890233993502517861884371 -0.005153228528797627362723066113 0.001231318456120789051055908203 -0.003090733429417014122009277344 0 0 0 0 
2406666666.6666665077 0.168414726853370694259481865629 -0.006717136129736900329589843750 0.001066410331986844973323202979 -0.003059588605538011030909872900 0 0 0 0 
2406833333.3333334923 0.168424859642982510665731865629 -0.008397662080824375152587890625 0.000848013965878635644912719727 -0.003043427364900708198547363281 0 0 0 0 
2407000000.0000000000 0.168343305587768610198651231258 -0.009968277998268604278564453125 0.000796222651842981576919555664 -0.003133724676445126967189169775 0 0 0 0 
2407166666.6666665077 0.168340429663658086578692518742 -0.011356860399246219289759451954 0.000796943495515733957290649414 -0.003045753808692098097560263525 0 0 0 0 
2407333333.3333334923 0.168125182390213012695312500000 -0.013058862648904320108433907421 0.000690471264533698558807373047 -0.002950689988210796876194619287 0 0 0 0 
2407500000.0000000000 0.168127834796905489822549384371 -0.014283931814134119206438633398 0.000472712330520153099864405499 -0.002805954078212379975559853662 0 0 0 0 
2407666666.6666665077 0.168100163340568486969317518742 -0.015604556538164620835273943555 0.000431356136687099879414158954 -0.002491151914000511169433593750 0 0 0 0 
2407833333.3333334923 0.167981296777725191970986884371 -0.016966802999377250671386718750 0.000292413664283230900764465332 -0.002642731182277203039882040869 0 0 0 0 
2408000000.0000000000 0.167901098728179903885049384371 -0.018071589991450309753417968750 0.000365217827493324875831604004 -0.002536048647016286849975585938 0 0 0 0 
2408166666.6666665077 0.167906075716018704513388115629 -0.019107511267065998422642891796 0.000295361503958702087402343750 -0.002382996724918485121486044775 0 0 0 0 
2408333333.3333334923 0.168254494667053194900674384371 -0.020050464197993278503417968750 0.000406435457989573478698730469 -0.002221723552793263955357216943 0 0 0 0 
2408500000.0000000000 0.168245553970336886306924384371 -0.021088114008307460439661795704 0.000559418869670480489730834961 -0.002202597679570316834690713037 0 0 0 0 
2408666666.6666665077 0.168406888842582702636718750000 -0.022178452461957931518554687500 0.000546686351299285888671875000 -0.002291578799486159844639443506 0 0 0 0 
2408833333.3333334923 0.168465837836265591720419365629 -0.023016136139631271362304687500 0.000506201526150107383728027344 -0.002320874016731977896449423682 0 0 0 0 
2409000000.0000000000 0.168497249484062194824218750000 -0.023945866152644160879114920704 0.000598027312662452459335327148 -0.002224183408543467955348349463 0 0 0 0 
2409166666.6666665077 0.169009357690811212737713731258 -0.024697395041584968566894531250 0.000578285311348736286163330078 -0.002202421659603714942932128906 0 0 0 0 
2409333333.3333334923 0.169314756989479092696981865629 -0.025615474209189418447474295704 0.000668209977447986602783203125 -0.002361000515520573096034384619 0 0 0 0 
2409500000.0000000000 0.169380545616149902343750000000 -0.026606814935803409921666329296 0.000744908466003835201263427734 -0.002378026954829692840576171875 0 0 0 0 
2409666666.6666665077 0.169659957289695711990518134371 -0.027441712096333500253697579296 0.000748252787161618471145629883 -0.002475749235600233078002929688 0 0 0 0 
2409833333.3333334923 0.169752180576324490646200615629 -0.027962390333414081228236014454 0.000664792372845113277435302734 -0.002490456681698561148402548682 0 0 0 0 
2410000000.0000000000 0.169946148991584805587606865629 -0.028823474422097209585169608204 0.000659307290334254503250122070 -0.002596952253952621979954384912 0 0 0 0 
2410166666.6666665077 0.170143678784370394607705634371 -0.029672548174858089792271798046 0.000839507265482097864151000977 -0.002506685443222523169276572119 0 0 0 0 
2410333333.3333334923 0.170259863138198908050213731258 -0.030405815690755840646763985546 0.000729345832951366901397705078 -0.002791449893265963034388876807 0 0 0 0 
2410500000.0000000000 0.170294165611267089843750000000 -0.031347896903753280639648437500 0.000753444153815507888793945312 -0.002930868417024611993076943506 0 0 0 0 
2410666666.6666665077 0.170149594545364407638388115629 -0.032085660845041281963307966407 0.000608431058935821056365966797 -0.003094044048339128927943564307 0 0 0 0 
2410833333.3333334923 0.170374050736427307128906250000 -0.032835427671670906757395158593 0.000674013630487024784088134766 -0.002986364066600799994227743994 0 0 0 0 
2411000000.0000000000 0.170119538903236389160156250000 -0.033679932355880737304687500000 0.000633323681540787220001220703 -0.003196142148226499991175986182 0 0 0 0 
2411166666.6666665077 0.170012965798377990722656250000 -0.034434475004672997211496721093 0.000441884854808449799388331281 -0.003475937759503722190856933594 0 0 0 0 
2411333333.3333334923 0.169865936040878295898437500000 -0.035225298255681991577148437500 0.000413280795328319126933497296 -0.003551176982000470161437988281 0 0 0 0 
2411500000.0000000000 0.169486075639724703689736884371 -0.035874895751476287841796875000 0.000282781984424218481213170184 -0.003752961056306958198547363281 0 0 0 0 
2411666666.6666665077 0.169513776898384094238281250000 -0.036667648702859878540039062500 0.000101471945527009706623615404 -0.003921039868146181106567382812 0 0 0 0 
2411833333.3333334923 0.169074580073356600662393134371 -0.037385366857051849365234375000 -0.000136258764541707905844011850 -0.004016739316284657392019941113 0 0 0 0 
2412000000.0000000000 0.168929398059844998458700615629 -0.038155134767293930053710937500 -0.000373693241272121722072047101 -0.004189051222056149569039629199 0 0 0 0 
2412166666.6666665077 0.168407782912254305740518134371 -0.039125561714172363281250000000 -0.000696843722835183143615722656 -0.004330652300268411636352539062 0 0 0 0 
2412333333.3333334923 0.168373838067054804046307481258 -0.039738524705171592021901716407 -0.000969981658272445201873779297 -0.004242897499352694425100995801 0 0 0 0 
2412500000.0000000000 0.167775228619575500488281250000 -0.040598832070827477191965471093 -0.001386401825584471008898090894 -0.004424802493304014205932617188 0 0 0 0 
2412666666.6666665077 0.167390391230583190917968750000 -0.041630212217569351196289062500 -0.001538696466013788960100483472 -0.004415127448737621307373046875 0 0 0 0 
2412833333.3333334923 0.166984319686889703948651231258 -0.042454533278942108154296875000 -0.001873622415587306022644042969 -0.004254491999745368957519531250 0 0 0 0 
2413000000.0000000000 0.166447490453720092773437500000 -0.043404974043369293212890625000 -0.002323408843949437141418457031 -0.004310313612222672376150800488 0 0 0 0 
2413166666.6666665077 0.165967091917991610428018134371 -0.044375527650117867206613908593 -0.002662265207618474960327148438 -0.004080748651176691055297851562 0 0 0 0 
2413333333.3333334923 0.165190592408180209060830634371 -0.045338086783885962749440778907 -0.003041781950742005868199013818 -0.003916357178241015347952558301 0 0 0 0 
2413500000.0000000000 0.164780586957931490799111884371 -0.046346187591552727436106096093 -0.003103585448116064071655273438 -0.003562294645234942002537392725 0 0 0 0 
2413666666.6666665077 0.164211690425872802734375000000 -0.047474872320890426635742187500 -0.003375706262886524200439453125 -0.003395387204363942146301269531 0 0 0 0 
2413833333.3333334923 0.163476273417472811599893134371 -0.048245593905448906635324846093 -0.003607474965974688963649130713 -0.003172072116285562948939658057 0 0 0 0 
2414000000.0000000000 0.162808999419212313553018134371 -0.049305025488138198852539062500 -0.003632555017247796058654785156 -0.002808341057971119880676269531 0 0 0 0 
2414166666.6666665077 0.162511274218559292892294365629 -0.050298560410737991333007812500 -0.003831075038760900931117392432 -0.002273184014484285874607705225 0 0 0 0 
2414333333.3333334923 0.161986768245696993728799384371 -0.051290560513734817504882812500 -0.003797475015744566917419433594 -0.002233178354799747900721884619 0 0 0 0 
2414500000.0000000000 0.161653503775596590896768134371 -0.052345991134643561626393903907 -0.004068993497639895352835370801 -0.001754104858264327049255371094 0 0 0 0 
2414666666.6666665077 0.161162078380584689041299384371 -0.053368877619504928588867187500 -0.003842652775347232818603515625 -0.001367224031127989075304340894 0 0 0 0 
2414833333.3333334923 0.160570651292800903320312500000 -0.054334018379449837421457658593 -0.003793117357417941093444824219 -0.001168492482975125095964741284 0 0 0 0 
2415000000.0000000000 0.160387173295021112640057481258 -0.055512700229883187030832658593 -0.003681418253108859062194824219 -0.000910693255718797553717458459 0 0 0 0 
2415166666.6666665077 0.160161048173904391189736884371 -0.056647270917892462993581403907 -0.003463402856141328811645507812 -0.000770642946008592844009399414 0 0 0 0 
2415333333.3333334923 0.160075128078460693359375000000 -0.057811789214611053466796875000 -0.003287718165665864944458007812 -0.000598448794335126876831054688 0 0 0 0 
2415500000.0000000000 0.159734219312667902190838731258 -0.059209123253822326660156250000 -0.003251680638641119003295898438 -0.000411304004956036806106567383 0 0 0 0 
2415666666.6666665077 0.159410819411277798751669365629 -0.060324970632791519165039062500 -0.002728305989876389937159872900 -0.000149709958350285887718200684 0 0 0 0 
2415833333.3333334923 0.159324914216995211502236884371 -0.061560206115245819091796875000 -0.002885096939280629158020019531 -0.000102538790088146897867479868 0 0 0 0 
2416000000.0000000000 0.158854275941848810393963731258 -0.062893703579902648925781250000 -0.002591085387393832206726074219 -0.000124018944916315403863629752 0 0 0 0 
2416166666.6666665077 0.158904701471328707595986884371 -0.064190737903118133544921875000 -0.002661886624991894201991415869 -0.000018622920833877291193212203 0 0 0 0 
2416333333.3333334923 0.158502712845802307128906250000 -0.065621085464954376220703125000 -0.002371718874201178984401083838 -0.000030730516300536692142486572 0 0 0 0 
2416500000.0000000000 0.158383935689926202972088731258 -0.066949754953384399414062500000 -0.002233157865703105926513671875 -0.000151818196172825992107391357 0 0 0 0 
2416666666.6666665077 0.158033356070518493652343750000 -0.068189397454261779785156250000 -0.002085806336253881888148642432 -0.000223490962525829699918469839 0 0 0 0 
2416833333.3333334923 0.157801464200019808670205634371 -0.069604650139808654785156250000 -0.001956674270331860022303915869 -0.000243312388192862299367627554 0 0 0 0 
2417000000.0000000000 0.157247453927993802169638115629 -0.070871926844120025634765625000 -0.001955645857378840012791298975 -0.000216272019315510988235473633 0 0 0 0 
2417166666.6666665077 0.157006934285163907150106865629 -0.071970179677009582519531250000 -0.001797469332814217047450400244 -0.000470375263830646926730555402 0 0 0 0 
2417333333.3333334923 0.156950950622558593750000000000 -0.073125287890434265136718750000 -0.001769646652974187894108437646 -0.000454550987342372482449132098 0 0 0 0 
2417500000.0000000000 0.156564399600028991699218750000 -0.074438512325286865234375000000 -0.001802413957193494059919047778 -0.000559155014343559741973876953 0 0 0 0 
2417666666.6666665077 0.156480193138122586349325615629 -0.075259059667587280273437500000 -0.001824288046918808980229043115 -0.000681522244121879339218139648 0 0 0 0 
2417833333.3333334923 0.156218960881233187576455634371 -0.076274834573268890380859375000 -0.001769684487953782081604003906 -0.000639923324342817068099975586 0 0 0 0 
2418000000.0000000000 0.155841037631034906585369981258 -0.077386163175106048583984375000 -0.001947725191712380106087709741 -0.000944138446357101202011108398 0 0 0 0 
2418166666.6666665077 0.155735418200492886642294365629 -0.078177191317081451416015625000 -0.001929035875946282906773232568 -0.000995374750345945358276367188 0 0 0 0 
2418333333.3333334923 0.155825376510620089431924384371 -0.079093173146247863769531250000 -0.002084834501147270202636718750 -0.000950036861468106508255004883 0 0 0 0 
2418500000.0000000000 0.155376508831977788727130018742 -0.079898200929164886474609375000 -0.002173542277887464003321982275 -0.000934673123992979526519775391 0 0 0 0 
2418666666.6666665077 0.155439078807830810546875000000 -0.080859974026679992675781250000 -0.002436164533719419999363564600 -0.000849027826916426420211791992 0 0 0 0 
2418833333.3333334923 0.154875025153160095214843750000 -0.081555746495723724365234375000 -0.002490779152140020890476845850 -0.000980309792794287204742431641 0 0 0 0 
2419000000.0000000000 0.154665842652320889571981865629 -0.082426019012928009033203125000 -0.002674794523045421080348349463 -0.001003975630737840912462544019 0 0 0 0 
2419166666.6666665077 0.154550924897193908691406250000 -0.083137847483158111572265625000 -0.002761265030130743980407714844 -0.000938999175559729337692260742 0 0 0 0 
2419333333.3333334923 0.154112145304679898361044365629 -0.083601303398609161376953125000 -0.002784440293908119201660156250 -0.000747507787309587001800537109 0 0 0 0 
2419500000.0000000000 0.153925061225891113281250000000 -0.084360338747501373291015625000 -0.002891997108235954804661416162 -0.000642885861452668905258178711 0 0 0 0 
2419666666.6666665077 0.153855428099632290939169365629 -0.084972530603408813476562500000 -0.003058437258005142211914062500 -0.000585531000979244709014892578 0 0 0 0 
2419833333.3333334923 0.153481632471084594726562500000 -0.085446439683437347412109375000 -0.003120439359918237166163779150 -0.000553636753465980291366577148 0 0 0 0 
