# Hz S RI R 50
2400000000.0000000000 0.173165991902351407150106865629 0.049021448940038681030273437500 0.002499417867511510848999023438 0.003809520974755287170410156250 0 0 0 0 
2400166666.6666665077 0.173837497830390902420205634371 0.048488959670066826557199846093 0.002570474054664372964146279443 0.003642528317868709997889853369 0 0 0 0 
2400333333.3333334923 0.174257010221481295486611884371 0.047496140003204352642018903907 0.002509718760848044915440224756 0.003675469662994145913365029443 0 0 0 0 
2400500000.0000000000 0.174876883625984191894531250000 0.046981699764728553081472028907 0.002610248979181050820591591943 0.003760046325623989105224609375 0 0 0 0 
2400666666.6666665077 0.175118088722229003906250000000 0.046207569539546966552734375000 0.002671301132068037986755371094 0.003670560428872704939601279150 0 0 0 0 
2400833333.3333334923 0.175412461161613492111044365629 0.045787706971168518066406250000 0.002744030673056840896606445312 0.003620682749897242026088095557 0 0 0 0 
2401000000.0000000000 0.175742894411087008377236884371 0.045004490762948989868164062500 0.002847425639629364013671875000 0.003562910016626120047328329932 0 0 0 0 
2401166666.6666665077 0.176050469279289301116619981258 0.044544763863086700439453125000 0.002866190858185290856602334131 0.003617308801040052933933877100 0 0 0 0 
2401333333.3333334923 0.175941199064254788497763115629 0.043611504137516021728515625000 0.003033404704183340072631835938 0.003604738274589180946350097656 0 0 0 0 
2401500000.0000000000 0.176226839423179598709268134371 0.043107174336910247802734375000 0.003245278494432568983790732275 0.003413571044802666144130087744 0 0 0 0 
2401666666.6666665077 0.176349267363548306564169365629 0.042326048016548156738281250000 0.003189125331118702888488769531 0.003390929196029901938197470557 0 0 0 0 
2401833333.3333334923 0.176268160343170193771200615629 0.041663441807031631469726562500 0.003300011623650788827183388818 0.003309263149276376204249716650 0 0 0 0 
2402000000.0000000000 0.176017269492149408538494981258 0.040924850851297378540039062500 0.003542585298418999151942587744 0.003225038526579738096949911963 0 0 0 0 
2402166666.6666665077 0.176051780581474304199218750000 0.040075346827507019042968750000 0.003561087884008883996250771631 0.003099983558058739142176962744 0 0 0 0 
2402333333.3333334923 0.175668984651565607268963731258 0.039243713021278381347656250000 0.003742849221453071074244833838 0.003106740536168218092677451025 0 0 0 0 
2402500000.0000000000 0.175591424107551602462606865629 0.038425859063863747333567033593 0.003855946240946650938746786963 0.002884095069020986990687704932 0 0 0 0 
2402666666.6666665077 0.175409644842147799392861884371 0.037314090877771377563476562500 0.003910087980329990386962890625 0.002800683258101344108581542969 0 0 0 0 
2402833333.3333334923 0.174892634153366088867187500000 0.036253936588764190673828125000 0.004062074236571788787841796875 0.002659449120983480973484658350 0 0 0 0 
2403000000.0000000000 0.174830019474029513260049384371 0.034910343587398529052734375000 0.004182070493698120117187500000 0.002638102741912006898167275537 0 0 0 0 
2403166666.6666665077 0.174405083060264587402343750000 0.033601868897676467895507812500 0.004120165947824716567993164062 0.002489202655851840972900390625 0 0 0 0 
2403333333.3333334923 0.174104392528533907791299384371 0.032442670315504067157785783593 0.004229846876114606857299804688 0.002165264450013637976405478369 0 0 0 0 
2403500000.0000000000 0.173594892024993896484375000000 0.030927015468478199350377266796 0.004211787600070238113403320312 0.002150661312043666839599609375 0 0 0 0 
2403666666.6666665077 0.173070192337036105056924384371 0.029201034456491470336914062500 0.004384956788271665573120117188 0.002080402104184031920192099463 0 0 0 0 
2403833333.3333334923 0.172828197479248102386151231258 0.027525329962372779846191406250 0.004373024683445692062377929688 0.001986798131838440895080566406 0 0 0 0 
2404000000.0000000000 0.172424703836441012283486884371 0.026012908667325970041295235546 0.004361126106232404708862304688 0.001642676768824457905412983472 0 0 0 0 
2404166666.6666665077 0.171999201178550692459268134371 0.024302259087562561035156250000 0.004388918168842793378348066113 0.001704252557829021973850869287 0 0 0 0 
2404333333.3333334923 0.171438023447990389724893134371 0.022445064038038250314732735546 0.004213384352624416351318359375 0.001509745488874614021898579175 0 0 0 0 
2404500000.0000000000 0.171153903007507296463174384371 0.020508244633674621582031250000 0.004424205515533685684204101562 0.001437754719518125057220458984 0 0 0 0 
2404666666.6666665077 0.170957863330841092208700615629 0.018637370318174358713170235546 0.004349164199084044370169355176 0.001356829307042062065721821362 0 0 0 0 
2404833333.3333334923 0.170636773109436007400674384371 0.016680402681231498718261718750 0.004230605438351631164550781250 0.001166793517768383026123046875 0 0 0 0 
2405000000.0000000000 0.170470431447029113769531250000 0.014497219584882259368896484375 0.004387752618640661239624023438 0.001059617614373564936994243091 0 0 0 0 
2405166666.6666665077 0.170143470168113708496093750000 0.012541123665869239461878592579 0.004447501618415117263793945312 0.000819847278762608766555786133 0 0 0 0 
2405333333.3333334923 0.170164421200752313811932481258 0.010496273636817930394182774023 0.004296658094972372055053710938 0.000914411735720932483673095703 0 0 0 0 
2405500000.0000000000 0.170271530747413607498330634371 0.008562589995563030242919921875 0.004066047724336385726928710938 0.000770048296544700860977172852 0 0 0 0 
2405666666.6666665077 0.170332297682762201507244981258 0.006470014341175556182861328125 0.004306793212890625000000000000 0.000683133082929998636245727539 0 0 0 0 
2405833333.3333334923 0.170285120606422396560830634371 0.004502116236835718154907226562 0.004481368698179721832275390625 0.000529938086401671171188354492 0 0 0 0 
2406000000.0000000000 0.170542687177658108810263115629 0.002302983077242970900294638525 0.004344869870692492398733808301 0.000530290009919553995132446289 0 0 0 0 
2406166666.6666665077 0.170601502060890197753906250000 0.000357186188921332413524073468 0.004434577655047178268432617188 0.000672399881295859813690185547 0 0 0 0 
2406333333.3333334923 0.171190336346626309493856865629 -0.001810334506444633007049560547 0.004491415340453386306762695312 0.000575676793232560157775878906 0 0 0 0 
2406500000.0000000000 0.171534821391105707366619981258 -0.003719153348356484933140420068 0.004406797699630261334891034863 0.000563198525924235582351684570 0 0 0 0 
2406666666.6666665077 0.171891450881958007812500000000 -0.005792675539851188659667968750 0.004540333524346351623535156250 0.000513889361172914505004882812 0 0 0 0 
2406833333.3333334923 0.172421321272850008865518134371 -0.007824153639376163482666015625 0.004613257944583892822265625000 0.000415953458286821787983494891 0 0 0 0 
2407000000.0000000000 0.173075750470161410232705634371 -0.009764994494616985321044921875 0.004767545033246278762817382812 0.000250171025982126593589782715 0 0 0 0 
2407166666.6666665077 0.173742935061454800704794365629 -0.011542277410626409703264805273 0.005048171151429414749145507812 0.000319647107971832210391444073 0 0 0 0 
2407333333.3333334923 0.174296453595161410232705634371 -0.013549107126891609537144844921 0.005085528362542390823364257812 0.000163812088430859202712458478 0 0 0 0 
2407500000.0000000000 0.175058349967002896407919365629 -0.015277306549251079559326171875 0.005198520608246325579171465137 -0.000222754097194410887643536978 0 0 0 0 
2407666666.6666665077 0.175821304321289090255575615629 -0.016966873779892921447753906250 0.005293989554047585401053144238 -0.000379646924557164311408996582 0 0 0 0 
2407833333.3333334923 0.176463931798934908767861884371 -0.018861763179302219045618826954 0.005346934311091899871826171875 -0.000538680935278534889221191406 0 0 0 0 
2408000000.0000000000 0.177180945873260498046875000000 -0.020533069968223568307896798046 0.005523578263819217681884765625 -0.000723866105545312166213989258 0 0 0 0 
2408166666.6666665077 0.177942022681236294845419365629 -0.022055190056562420236607735546 0.005525659304112195968627929688 -0.001104774652048944993260048975 0 0 0 0 
2408333333.3333334923 0.178732499480247497558593750000 -0.023528011515736579895019531250 0.005629177205264568328857421875 -0.001326771569438278891919780200 0 0 0 0 
2408500000.0000000000 0.179263755679130609710369981258 -0.024858910590410229074498360546 0.005658252164721488952636718750 -0.001629112637601793029187846606 0 0 0 0 
2408666666.6666665077 0.179934665560722406585369981258 -0.026236154139041900634765625000 0.005565140396356582641601562500 -0.001929776510223746082903217847 0 0 0 0 
2408833333.3333334923 0.180444285273551913162393134371 -0.027437696233391758310338204296 0.005450095050036907196044921875 -0.002223247429355978965759277344 0 0 0 0 
2409000000.0000000000 0.180772095918655395507812500000 -0.028570739552378651010533516796 0.005483345128595829010009765625 -0.002464155666530131860020302881 0 0 0 0 
2409166666.6666665077 0.181436166167259188553018134371 -0.029550498351454738271693045704 0.005166762042790651321411132812 -0.002774752676486968994140625000 0 0 0 0 
2409333333.3333334923 0.182046830654144287109375000000 -0.030360711738467219961146170704 0.005231051705777645111083984375 -0.003029780462384223937988281250 0 0 0 0 
2409500000.0000000000 0.182378157973289489746093750000 -0.031337920576333999633789062500 0.005080318544059991836547851562 -0.003115689614787697792053222656 0 0 0 0 
2409666666.6666665077 0.182596400380134610275106865629 -0.031887076795101172710378278907 0.004978086333721876144409179688 -0.003265759674832224845886230469 0 0 0 0 
2409833333.3333334923 0.182901144027709988693075615629 -0.032411247491836547851562500000 0.004829900804907084378714277051 -0.003463475964963436126708984375 0 0 0 0 
2410000000.0000000000 0.183328345417976407150106865629 -0.032926987856626510620117187500 0.004622432403266429901123046875 -0.003680665278807282014134072412 0 0 0 0 
2410166666.6666665077 0.183463126420974703689736884371 -0.033256255090236656879465471093 0.004467795137315989408011152051 -0.003857185598462820053100585938 0 0 0 0 
2410333333.3333334923 0.183635920286178588867187500000 -0.033648256212472922588307966407 0.004296694416552782058715820312 -0.004093304742127656936645507812 0 0 0 0 
2410500000.0000000000 0.183824032545089693924111884371 -0.034075912088155753398854841407 0.004228165373206138610839843750 -0.004255529493093490600585937500 0 0 0 0 
2410666666.6666665077 0.183663934469222994705361884371 -0.034501463174819953227956403907 0.004077566321939229965209960938 -0.004299809224903584393973066113 0 0 0 0 
2410833333.3333334923 0.183701157569885309417401231258 -0.034646715968847281719167341407 0.003680177032947539849522256006 -0.004515443928539752960205078125 0 0 0 0 
2411000000.0000000000 0.183490395545959500411825615629 -0.034921810030937201763112653907 0.003527992172166705131530761719 -0.004748007282614707946777343750 0 0 0 0 
2411166666.6666665077 0.183266386389732388595419365629 -0.035392548888921737670898437500 0.003540185047313570976257324219 -0.004853461869060993194580078125 0 0 0 0 
2411333333.3333334923 0.183001309633255004882812500000 -0.035551913082599639892578125000 0.003385134274139999909641884912 -0.004953174851834774017333984375 0 0 0 0 
2411500000.0000000000 0.182546198368072509765625000000 -0.035897012799978263164479841407 0.003158399369567633108851767432 -0.005136155523359776410574628613 0 0 0 0 
2411666666.6666665077 0.182026550173759488204794365629 -0.036077871918678276752512346093 0.002908701775595546202418661963 -0.005260983016341924667358398438 0 0 0 0 
2411833333.3333334923 0.181444391608238192459268134371 -0.036473266780376427387277971093 0.002744511701166629791259765625 -0.005518549587577581405639648438 0 0 0 0 
2412000000.0000000000 0.180835694074630709549111884371 -0.036868773400783538818359375000 0.002522715134546161131617880713 -0.005352746229618787765502929688 0 0 0 0 
2412166666.6666665077 0.179884150624275207519531250000 -0.037427920848131179809570312500 0.002154876245185732841491699219 -0.005592963192611932754516601562 0 0 0 0 
2412333333.3333334923 0.178988561034202603439169365629 -0.037653774023056030273437500000 0.002047260524705051942112588037 -0.005508516915142536163330078125 0 0 0 0 
2412500000.0000000000 0.177997678518295288085937500000 -0.038197338581085212017018903907 0.001721015665680170059204101562 -0.005790478084236382570748613574 0 0 0 0 
2412666666.6666665077 0.177181407809257507324218750000 -0.039084080606698989868164062500 0.001642222399823368029353476416 -0.005694722756743431091308593750 0 0 0 0 
2412833333.3333334923 0.176002115011215209960937500000 -0.039558682590723037719726562500 0.001218492398038506941554404150 -0.005605643615126609802246093750 0 0 0 0 
2413000000.0000000000 0.174713924527168301681356865629 -0.040374945849180221557617187500 0.000969763612374663352966308594 -0.005633054766803979873657226562 0 0 0 0 
2413166666.6666665077 0.173429280519485501388388115629 -0.041120924055576317523996721093 0.000733560824301093816757202148 -0.005660369992256165418142987988 0 0 0 0 
2413333333.3333334923 0.172118276357650812347088731258 -0.041974231600761406635324846093 0.000270420016022399122088831769 -0.005548287648707628250122070312 0 0 0 0 
2413500000.0000000000 0.170921474695205688476562500000 -0.042922385036945343017578125000 0.000229920158744789687082013541 -0.005633962806314229965209960938 0 0 0 0 
2413666666.6666665077 0.169714286923408508300781250000 -0.044158771634101867675781250000 -0.000131433102069422602653503418 -0.005523676052689552307128906250 0 0 0 0 
2413833333.3333334923 0.168313607573509188553018134371 -0.045051008462905876850168596093 -0.000234453589655458900049486703 -0.005292351823300123214721679688 0 0 0 0 
2414000000.0000000000 0.166904672980308504959268134371 -0.046293165534734732891042341407 -0.000567408278584480285644531250 -0.005354751367121934890747070312 0 0 0 0 
2414166666.6666665077 0.165595486760139493087606865629 -0.047351900488138198852539062500 -0.000597288773860782384872436523 -0.005254449788480997085571289062 0 0 0 0 
2414333333.3333334923 0.164458230137825012207031250000 -0.048808764666318893432617187500 -0.000684505328536033630371093750 -0.005081998184323310852050781250 0 0 0 0 
2414500000.0000000000 0.163416862487792996505575615629 -0.050196662545204162597656250000 -0.000946845102589577436447143555 -0.004951650276780129346365644238 0 0 0 0 
2414666666.6666665077 0.162050947546958895584268134371 -0.051835838705301291728932966407 -0.001183326938189565918566059644 -0.004897898528724908828735351562 0 0 0 0 
2414833333.3333334923 0.160922527313232394119424384371 -0.053411059081554412841796875000 -0.001333445659838617064832377856 -0.004654462449252604570870683887 0 0 0 0 
2415000000.0000000000 0.159836381673812893966513115629 -0.054965402930974960327148437500 -0.001286665559746325016021728516 -0.004710741806775332364554120801 0 0 0 0 
2415166666.6666665077 0.158765584230423001388388115629 -0.056551244109869003295898437500 -0.001337450812570750930188823169 -0.004321037791669368743896484375 0 0 0 0 
2415333333.3333334923 0.157999306917190607268963731258 -0.058496925979852683330495466407 -0.001391093479469418959376669775 -0.004348986782133579254150390625 0 0 0 0 
2415500000.0000000000 0.157027184963226290603799384371 -0.060204993933439261699636091407 -0.001426325528882443904876708984 -0.004330632742494344711303710938 0 0 0 0 
2415666666.6666665077 0.156366646289825411697549384371 -0.062061190605163567279856096093 -0.001534745912067591927172016675 -0.004151726141571998596191406250 0 0 0 0 
2415833333.3333334923 0.155645892024040194412393134371 -0.064002029597759246826171875000 -0.001536260824650526046752929688 -0.004232256207615137100219726562 0 0 0 0 
2416000000.0000000000 0.154778480529785211761151231258 -0.066151946783065795898437500000 -0.001678271219134330966352153247 -0.004040876869112253189086914062 0 0 0 0 
2416166666.6666665077 0.154283121228218106368856865629 -0.068074844777584075927734375000 -0.001649568788707256100298237378 -0.004050590097904205322265625000 0 0 0 0 
2416333333.3333334923 0.153777807950973510742187500000 -0.069913432002067565917968750000 -0.001729825162328779914258647388 -0.003823863109573721885681152344 0 0 0 0 
2416500000.0000000000 0.153353214263915987869424384371 -0.072055704891681671142578125000 -0.001746243331581353924394917065 -0.003823765786364675001857138525 0 0 0 0 
2416666666.6666665077 0.152715444564819308181924384371 -0.074038453400135040283203125000 -0.001743762870319188074824667822 -0.003779818769544363021850585938 0 0 0 0 
2416833333.3333334923 0.152599021792411804199218750000 -0.076128967106342315673828125000 -0.001672189566306770064710307544 -0.003903936361894011931178427588 0 0 0 0 
2417000000.0000000000 0.152115374803543090820312500000 -0.078124731779098510742187500000 -0.001942843198776244900347065503 -0.003859344404190779165980673682 0 0 0 0 
2417166666.6666665077 0.152089118957519503494424384371 -0.079875230789184570312500000000 -0.002021459164097905158996582031 -0.003905566642060875892639160156 0 0 0 0 
2417333333.3333334923 0.151882708072662409026776231258 -0.081780001521110534667968750000 -0.002067124238237739042994833838 -0.003829990979284048080444335938 0 0 0 0 
2417500000.0000000000 0.151828542351722689529580634371 -0.083654321730136871337890625000 -0.002083687577396630807163857568 -0.003946518059819936752319335938 0 0 0 0 
2417666666.6666665077 0.151861056685447692871093750000 -0.085222922265529632568359375000 -0.002367465756833552880528115381 -0.003970482386648654937744140625 0 0 0 0 
2417833333.3333334923 0.151824787259101895431356865629 -0.086842782795429229736328125000 -0.002496798522770404815673828125 -0.003825032385066152052638388525 0 0 0 0 
2418000000.0000000000 0.151820570230484008789062500000 -0.088408417999744415283203125000 -0.002545617055147885842564248193 -0.003873579669743775887730263818 0 0 0 0 
2418166666.6666665077 0.151874527335166903396768134371 -0.089622102677822113037109375000 -0.002836501691490412192103720557 -0.004010760225355625152587890625 0 0 0 0 
2418333333.3333334923 0.152327716350555392166299384371 -0.090977497398853302001953125000 -0.002995422575622797012329101562 -0.003896611277014017105102539062 0 0 0 0 
2418500000.0000000000 0.152304157614708002288494981258 -0.092218674719333648681640625000 -0.003302856115624309019801474463 -0.003802902298048139052150107275 0 0 0 0 
2418666666.6666665077 0.152568027377128601074218750000 -0.093453571200370788574218750000 -0.003322027157992124991175986182 -0.003715263213962316946742392432 0 0 0 0 
2418833333.3333334923 0.152605712413787786285723768742 -0.094389908015727996826171875000 -0.003515130840241909027099609375 -0.003470214083790779113769531250 0 0 0 0 
2419000000.0000000000 0.152805194258689908126669365629 -0.095149613916873931884765625000 -0.003814655821770430044886923682 -0.003427583025768398804905556787 0 0 0 0 
2419166666.6666665077 0.153145015239715603927450615629 -0.095946364104747772216796875000 -0.003855563700199127197265625000 -0.003378633642569183869602822412 0 0 0 0 
2419333333.3333334923 0.153148695826530512054119981258 -0.096400193870067596435546875000 -0.004133278969675303372854902051 -0.003223409643396735191345214844 0 0 0 0 
2419500000.0000000000 0.153587490320205688476562500000 -0.097178898751735687255859375000 -0.004095806740224361419677734375 -0.003094398882240056991577148438 0 0 0 0 
2419666666.6666665077 0.153805971145629910568075615629 -0.097660288214683532714843750000 -0.004301466047763825330252362988 -0.002922840649262071089503622900 0 0 0 0 
2419833333.3333334923 0.153761893510818509200888115629 -0.097796000540256500244140625000 -0.004430359695106744766235351562 -0.002630133414641023115870810400 0 0 0 0 
