# Hz S RI R 
2400000000.0000000000 0.163940995931625393966513115629 0.051917739212512969970703125000 0.000859861669596284627914428711 0.003347140969708561897277832031 0 0 0 0 
2400166666.6666665077 0.164281725883483886718750000000 0.050590645521879203105886091407 0.000947759777773171663284301758 0.003399958368390799002406454932 0 0 0 0 
2400333333.3333334923 0.164594516158103887359942518742 0.049087163060903549194335937500 0.001135350205004215023638081128 0.003531653201207519011256552588 0 0 0 0 
2400500000.0000000000 0.164893075823783902267294365629 0.047678295522928237915039062500 0.001261125202290714003919291919 0.003657523309811950163600302588 0 0 0 0 
2400666666.6666665077 0.165053084492683410644531250000 0.046030610799789428710937500000 0.001330721075646579048754047925 0.003401321591809391975402832031 0 0 0 0 
2400833333.3333334923 0.165670618414878900725994981258 0.044746972620487213134765625000 0.001432858407497406005859375000 0.003360469592735170884373330225 0 0 0 0 
2401000000.0000000000 0.166115194559097290039062500000 0.043136462569236762309987653907 0.001590935746207833073259663159 0.003294407390058041052577353369 0 0 0 0 
2401166666.6666665077 0.166425004601478604415731865629 0.041610021144151687622070312500 0.001788212335668504021288227612 0.003419556189328432083129882812 0 0 0 0 
2401333333.3333334923 0.166569143533706692794638115629 0.040194917470216751098632812500 0.002067161723971366882324218750 0.003365967189893126921412802588 0 0 0 0 
2401500000.0000000000 0.167065754532813998123330634371 0.038762509822845458984375000000 0.002014738740399479866027832031 0.003274224465712904930114746094 0 0 0 0 
2401666666.6666665077 0.167159378528594998458700615629 0.037311326712369918823242187500 0.002303103683516383171081542969 0.003044794313609600067138671875 0 0 0 0 
2401833333.3333334923 0.167659938335418701171875000000 0.035914637148380279541015625000 0.002290333388373256163356161963 0.003087496850639582113978720557 0 0 0 0 
2402000000.0000000000 0.167832508683204706390057481258 0.034640964120626449584960937500 0.002404587576165794892552041162 0.003069305326789617972133017432 0 0 0 0 
2402166666.6666665077 0.168294638395309503753338731258 0.033036865293979651714284528907 0.002641330007463694052455283057 0.003073954023420811133143759619 0 0 0 0 
2402333333.3333334923 0.168395623564720209319744981258 0.031642522662878043437917341407 0.002681787125766276879551552881 0.002899900777265429930446005713 0 0 0 0 
2402500000.0000000000 0.168982222676277188400106865629 0.030421599745750430715540701954 0.002638300182297825813293457031 0.002887965179979801177978515625 0 0 0 0 
2402666666.6666665077 0.169181033968925503829794365629 0.029124092310667041433314139454 0.002727924613282084898707724463 0.002660529920831323103663779150 0 0 0 0 
2402833333.3333334923 0.169529929757118197342080634371 0.028017442673444751394251639454 0.002733020344749093055725097656 0.002603606088086963133571005713 0 0 0 0 
2403000000.0000000000 0.170076683163642911056356865629 0.026805870234966281545618826954 0.002899977378547192053553915869 0.002568215830251574949977255713 0 0 0 0 
2403166666.6666665077 0.170345902442932101150674384371 0.025491256266832351684570312500 0.003415032522752881050109863281 0.002676345640793443159816122900 0 0 0 0 
2403333333.3333334923 0.170664161443710299392861884371 0.024464106187224391592005545704 0.003484326181933283805847167969 0.002387219574302434921264648438 0 0 0 0 
2403500000.0000000000 0.171014606952667208572549384371 0.023445673286914828908900076954 0.002981663448736072020289755713 0.002894913079217075867893838037 0 0 0 0 
2403666666.6666665077 0.171358525753021212478799384371 0.022150130942463878286341483204 0.002628799993544816970825195312 0.002330317394807935194728232275 0 0 0 0 
2403833333.3333334923 0.171732112765312194824218750000 0.021215366199612620962122733204 0.003063943935558199882507324219 0.002026823116466403007507324219 0 0 0 0 
2404000000.0000000000 0.172015905380248995681924384371 0.020061315968632701528528983204 0.003517407458275556998011923682 0.001581677817739546082140278394 0 0 0 0 
2404166666.6666665077 0.172403931617736788650674384371 0.019096488133072849618931954296 0.003173111705109477043151855469 0.002052286174148321151733398438 0 0 0 0 
2404333333.3333334923 0.172742962837219210525674384371 0.018431486561894420278528983204 0.002938321093097329139709472656 0.001654155552387237982508993994 0 0 0 0 
2404500000.0000000000 0.172816902399063110351562500000 0.017301626503467559814453125000 0.003370072459802031950709677588 0.001662074355408549091936420972 0 0 0 0 
2404666666.6666665077 0.173099771142005892654580634371 0.016201306134462360036829764454 0.003866157028824090957641601562 0.001521820900961756923078227466 0 0 0 0 
2404833333.3333334923 0.173264622688293512542401231258 0.015603532083332540339459804102 0.003090335987508296966552734375 0.001241611316800117926356650244 0 0 0 0 
2405000000.0000000000 0.173615336418151910979901231258 0.014555547386407850438128086523 0.003463060362264513969421386719 0.001439086860045791105983115088 0 0 0 0 
2405166666.6666665077 0.173750445246696499923544365629 0.013875725679099559783935546875 0.003092109691351652145385742188 0.000955189752858132123947143555 0 0 0 0 
2405333333.3333334923 0.174187615513801602462606865629 0.012857253663241859781285469921 0.003332197200506926016566611182 0.001753012766130269007441855322 0 0 0 0 
2405500000.0000000000 0.174349963665008489410723768742 0.012147404253482820338239100977 0.003797608660534023804905556787 0.001769667374901473955867148291 0 0 0 0 
2405666666.6666665077 0.174345687031745910644531250000 0.011438954621553419285784336523 0.003152654739096761183497763525 0.001188004040159285068511962891 0 0 0 0 
2405833333.3333334923 0.174317583441734286209268134371 0.010711412876844409597376639454 0.003109640674665569825413369287 0.000809512916021049022674560547 0 0 0 0 
2406000000.0000000000 0.174775004386901910979901231258 0.009715028107166290283203125000 0.004230103921145200729370117188 0.001164375455118715979932475513 0 0 0 0 
2406166666.6666665077 0.174560591578483609298544365629 0.009150248020887374877929687500 0.003670000704005361037013388525 0.001162833184935152964351035010 0 0 0 0 
2406333333.3333334923 0.174929425120353698730468750000 0.008441512472927570343017578125 0.003507303772494196891784667969 0.001122450106777250983594584888 0 0 0 0 
2406500000.0000000000 0.174761041998863192459268134371 0.007553816772997379302978515625 0.003551312955096364021301269531 0.000844745605718344449996948242 0 0 0 0 
2406666666.6666665077 0.174767374992370605468750000000 0.006896756589412689208984375000 0.003545840969309211210963583838 0.000894557277206331491470336914 0 0 0 0 
2406833333.3333334923 0.174818634986877413650674384371 0.005992751102894544601440429688 0.003592200111597775979282998193 0.000889868475496768951416015625 0 0 0 0 
2407000000.0000000000 0.174664184451103210449218750000 0.005147658754140138626098632812 0.003680973779410123825073242188 0.000745846657082438468933105469 0 0 0 0 
2407166666.6666665077 0.174773216247558593750000000000 0.004425333347171545028686523438 0.003804652718827127976658486475 0.000698845076840370893478393555 0 0 0 0 
2407333333.3333334923 0.174660533666610690017861884371 0.003495521843433380126953125000 0.003896387293934822082519531250 0.000633689458481967449188232422 0 0 0 0 
2407500000.0000000000 0.174501582980155889313067518742 0.002645927947014569802525185693 0.003766557667404412789585732568 0.000477419176604598814814967023 0 0 0 0 
2407666666.6666665077 0.174484089016914395431356865629 0.001718699000775814056396484375 0.003834873903542757034301757812 0.000424698315327987074851989746 0 0 0 0 
2407833333.3333334923 0.174178332090377807617187500000 0.000704483594745397567749023438 0.003890969790518283843994140625 0.000359318364644423072964268817 0 0 0 0 
2408000000.0000000000 0.174068808555602999588174384371 -0.000352834060322493314743041992 0.003895985893905162811279296875 0.000260556320426985621452331543 0 0 0 0 
2408166666.6666665077 0.173911020159721402267294365629 -0.001339278998784720897674560547 0.003814405295997858047485351562 0.000119283489766530706129889217 0 0 0 0 
2408333333.3333334923 0.173895850777626009842080634371 -0.002496871398761868910548544775 0.004056677222251892089843750000 -0.000041007991967489942908287048 0 0 0 0 
2408500000.0000000000 0.173619985580444308181924384371 -0.003510101465508341789245605469 0.003999691922217608365530683301 0.000021862675566808320581912994 0 0 0 0 
2408666666.6666665077 0.173435285687446594238281250000 -0.004756447859108448028564453125 0.004114696290343999862670898438 -0.000128181403852067887783050537 0 0 0 0 
2408833333.3333334923 0.173001185059547396560830634371 -0.005940263625234366330618573926 0.004043221008032560348510742188 -0.000175582768861204412862500601 0 0 0 0 
2409000000.0000000000 0.172798648476600702483807481258 -0.007056702859699726104736328125 0.004071190021932125091552734375 -0.000324473920045420473248082294 0 0 0 0 
2409166666.6666665077 0.172687381505966186523437500000 -0.008407932706177234649658203125 0.004040036350488662719726562500 -0.000445396290160715579986572266 0 0 0 0 
2409333333.3333334923 0.172517478466033907791299384371 -0.009788152761757373809814453125 0.003970508929342032346243573926 -0.000425067177275195717811584473 0 0 0 0 
2409500000.0000000000 0.172245487570762606521768134371 -0.011332248337566850834856602148 0.004197232425212860107421875000 -0.000603984633926302194595336914 0 0 0 0 
2409666666.6666665077 0.171880021691322298904580634371 -0.012442112900316720444648943555 0.003976428415626288327688886426 -0.000702812394592911005020141602 0 0 0 0 
2409833333.3333334923 0.171722203493118286132812500000 -0.013821742497384549921979335352 0.004091384820640087127685546875 -0.000880619452800601720809936523 0 0 0 0 
2410000000.0000000000 0.171639472246169988434161268742 -0.015212960541248319798479649023 0.004095303826034069061279296875 -0.001035763649269938902613974463 0 0 0 0 
2410166666.6666665077 0.171375453472137506683026231258 -0.016708891838788989675501639454 0.004029331263154745101928710938 -0.000908732879906892776489257812 0 0 0 0 
2410333333.3333334923 0.171300739049911499023437500000 -0.018245559185743328439732735546 0.004060333129018545150756835938 -0.000871899479534476995468139648 0 0 0 0 
2410500000.0000000000 0.171101525425911005218182481258 -0.019683569669723510742187500000 0.004012722987681627273559570312 -0.001023383811116219000575400244 0 0 0 0 
2410666666.6666665077 0.170979157090187100509481865629 -0.021141419187188148498535156250 0.004148898646235466003417968750 -0.001247062464244663932202983325 0 0 0 0 
2410833333.3333334923 0.170753613114356994628906250000 -0.022662911564111709594726562500 0.004092439077794551849365234375 -0.001381998532451689026476215894 0 0 0 0 
2411000000.0000000000 0.171091422438621493240518134371 -0.024133862927556041372278983204 0.004246421158313751220703125000 -0.001447009970434010028839111328 0 0 0 0 
2411166666.6666665077 0.170672699809074401855468750000 -0.025543604046106338500976562500 0.004120561759918928146362304688 -0.001580556854605674960492778247 0 0 0 0 
2411333333.3333334923 0.170701906085014287750567518742 -0.027185577899217609060267264454 0.004344426095485687255859375000 -0.001780902035534382083295512622 0 0 0 0 
2411500000.0000000000 0.170779943466186495681924384371 -0.028958918526768680917760079296 0.004280906170606613159179687500 -0.001847810344770550944684672778 0 0 0 0 
2411666666.6666665077 0.170927658677101107498330634371 -0.030339892953634258615513985546 0.004198510665446519851684570312 -0.001891378313302993991254496997 0 0 0 0 
2411833333.3333334923 0.170867204666137695312500000000 -0.031586628407239907001535783593 0.004322587046772241592407226562 -0.002254763385280967192408896338 0 0 0 0 
2412000000.0000000000 0.171320572495460510253906250000 -0.033457487821578979492187500000 0.004231958184391260147094726562 -0.002525634132325648827793740381 0 0 0 0 
2412166666.6666665077 0.171188309788703890701455634371 -0.034989956766366958618164062500 0.004276152234524487581734941699 -0.002420284319669007821324013818 0 0 0 0 
2412333333.3333334923 0.171509698033332796951455634371 -0.036302190274000167846679687500 0.004249058198183774948120117188 -0.002584311878308653831481933594 0 0 0 0 
2412500000.0000000000 0.171612814068794305999432481258 -0.037589382380247123027761091407 0.004158067516982555389404296875 -0.002869523363187909126281738281 0 0 0 0 
2412666666.6666665077 0.171732723712921087066973768742 -0.039190661162137992168386091407 0.004245653748512268066406250000 -0.003048279089853167967555380713 0 0 0 0 
2412833333.3333334923 0.172011658549308804611044365629 -0.040668364614248282695729841407 0.004082698374986649426932050488 -0.003246617969125508828404091943 0 0 0 0 
2413000000.0000000000 0.172090739011764498611611884371 -0.041946124285459518432617187500 0.004017660394310951232910156250 -0.003375581698492168946507119287 0 0 0 0 
2413166666.6666665077 0.172339439392089788238848768742 -0.043420009315013892436940778907 0.003880587872117757797241210938 -0.003446079790592194037196493994 0 0 0 0 
2413333333.3333334923 0.172345340251922607421875000000 -0.044915448874235153198242187500 0.003641464514657855033874511719 -0.003657491412013769149780273438 0 0 0 0 
2413500000.0000000000 0.172595530748367309570312500000 -0.046153075993061072612722028907 0.003559160279110074043273925781 -0.003994365222752094268798828125 0 0 0 0 
2413666666.6666665077 0.172802075743675204178018134371 -0.047396302223205573345143903907 0.003537888871505856947657919775 -0.004042531363666057586669921875 0 0 0 0 
2413833333.3333334923 0.172904968261718805511151231258 -0.048556413501501083374023437500 0.003233074210584164099452353369 -0.004315766040235757827758789062 0 0 0 0 
2414000000.0000000000 0.173054054379463195800781250000 -0.049759015440940856933593750000 0.002942532300949097113368368994 -0.004437420051544904708862304688 0 0 0 0 
2414166666.6666665077 0.173292726278305109222088731258 -0.050807259976863861083984375000 0.002922305371612309975865029443 -0.004410568624734879407400800488 0 0 0 0 
2414333333.3333334923 0.173409253358840886871661268742 -0.052015427500009536743164062500 0.002735798247158526940586709131 -0.004444535821676254272460937500 0 0 0 0 
2414500000.0000000000 0.173749849200248690506143134371 -0.052932448685169219970703125000 0.002577073173597455024719238281 -0.004782483447343111038208007812 0 0 0 0 
2414666666.6666665077 0.173565134406089810470419365629 -0.053815241903066642070729841407 0.002403164282441138787510537256 -0.004630452487617731094360351562 0 0 0 0 
2414833333.3333334923 0.173707708716392489334268134371 -0.054878957569599151611328125000 0.002154464600607752799987792969 -0.004814947955310344696044921875 0 0 0 0 
2415000000.0000000000 0.173775702714919988434161268742 -0.055627956986427307128906250000 0.002023332053795456886291503906 -0.004909446928650140762329101562 0 0 0 0 
2415166666.6666665077 0.173810914158821105957031250000 -0.056475471705198287963867187500 0.001788953202776611068128276294 -0.005074088461697101593017578125 0 0 0 0 
2415333333.3333334923 0.173954024910926791092080634371 -0.057324595749378197406809221093 0.001572167268022895076154399341 -0.004931945353746414184570312500 0 0 0 0 
2415500000.0000000000 0.173808187246322604080361884371 -0.058001130819320678710937500000 0.001526758307591081099269247900 -0.005024274811148644361014081738 0 0 0 0 
2415666666.6666665077 0.173650786280631991287393134371 -0.058781147003173828125000000000 0.001234095543622971014735556494 -0.005069526378065347671508789062 0 0 0 0 
2415833333.3333334923 0.173599779605865506271200615629 -0.059354245662689208984375000000 0.001090804929845035076141357422 -0.004950880073010922345633222363 0 0 0 0 
2416000000.0000000000 0.173230394721031188964843750000 -0.060001678764820098876953125000 0.000914106727577745914459228516 -0.005016892682760953903198242188 0 0 0 0 
2416166666.6666665077 0.173248112201690701583700615629 -0.060610722750425338745117187500 0.000687470717821270227432250977 -0.005107609555125237378592206738 0 0 0 0 
2416333333.3333334923 0.172852337360382107833700615629 -0.061157722026109702373464216407 0.000629894668236374855041503906 -0.004929202143102884292602539062 0 0 0 0 
2416500000.0000000000 0.172497600317001287262286268742 -0.061856247484683990478515625000 0.000520867877639830112457275391 -0.004884290043264628324026777051 0 0 0 0 
2416666666.6666665077 0.172174379229545593261718750000 -0.062420427799224846576731096093 0.000112608031486161093838276048 -0.004747621715068817138671875000 0 0 0 0 
2416833333.3333334923 0.171867966651916503906250000000 -0.063101045787334442138671875000 0.000259784836089238524436950684 -0.004879388492554426193237304688 0 0 0 0 
2417000000.0000000000 0.171170964837074307540731865629 -0.063658058643341064453125000000 0.000037485311622731387615203857 -0.004733544774353504180908203125 0 0 0 0 
2417166666.6666665077 0.170677408576011713225994981258 -0.064097620546817779541015625000 -0.000112847781565505997695107732 -0.004732144530862569808959960938 0 0 0 0 
2417333333.3333334923 0.170170724391937311370526231258 -0.064660601317882537841796875000 -0.000208807323360815590054112567 -0.004695164971053600311279296875 0 0 0 0 
2417500000.0000000000 0.169500604271888705154580634371 -0.065431244671344757080078125000 -0.000271482946118339896202087402 -0.004672157112509012222290039062 0 0 0 0 
2417666666.6666665077 0.168933063745498712737713731258 -0.065692223608493804931640625000 -0.000551672186702489852905273438 -0.004452523309737443923950195312 0 0 0 0 
2417833333.3333334923 0.168201550841331509689169365629 -0.066311247646808624267578125000 -0.000415180955315008813708704816 -0.004581734072417020797729492188 0 0 0 0 
2418000000.0000000000 0.167458102107048006912393134371 -0.067242152988910675048828125000 -0.000537007057573646306991577148 -0.004482145421206951141357421875 0 0 0 0 
2418166666.6666665077 0.166598290205001803299111884371 -0.067535199224948883056640625000 -0.000489752274006605148315429688 -0.004504687618464232358450605176 0 0 0 0 
2418333333.3333334923 0.166115462779998807052450615629 -0.068295232951641082763671875000 -0.000637626450043171644210815430 -0.004395946860313416394705487988 0 0 0 0 
2418500000.0000000000 0.165195673704147311111611884371 -0.068973407149314880371093750000 -0.000735742272809147834777832031 -0.004602187313139438629150390625 0 0 0 0 
2418666666.6666665077 0.164320841431617709060830634371 -0.069709278643131256103515625000 -0.000850087613798677921295166016 -0.004356196150183677673339843750 0 0 0 0 
2418833333.3333334923 0.163331434130668612381143134371 -0.070493742823600769042968750000 -0.000880784587934613227844238281 -0.004401430487632752332205487988 0 0 0 0 
2419000000.0000000000 0.162418544292450006683026231258 -0.071210667490959167480468750000 -0.001020990544930100007298134912 -0.004543235991150140762329101562 0 0 0 0 
2419166666.6666665077 0.161616027355194091796875000000 -0.071836784482002258300781250000 -0.001067039207555354075190878760 -0.004475784953683614730834960938 0 0 0 0 
2419333333.3333334923 0.160573139786720303634481865629 -0.072551675140857696533203125000 -0.001135594677180052020429301685 -0.004453772213310003280639648438 0 0 0 0 
2419500000.0000000000 0.159708440303802490234375000000 -0.073682263493537902832031250000 -0.001209117122925817966461181641 -0.004382668994367122650146484375 0 0 0 0 
2419666666.6666665077 0.158878922462463406661825615629 -0.074567519128322601318359375000 -0.001244476530700922012329101562 -0.004454483743757010373587323926 0 0 0 0 
2419833333.3333334923 0.158017292618751498123330634371 -0.075508393347263336181640625000 -0.001289678155444562001469277490 -0.004357103258371353149414062500 0 0 0 0 
