# Hz S RI R 
2400000000.0000000000 0.168536528944969205001669365629 0.040562171489000320434570312500 0.002639761660248041152954101562 0.000132290137116797295495709830 0 0 0 0 
2400166666.6666665077 0.169386789202690096756143134371 0.039831098169088356708567033593 0.002512415172532200813293457031 -0.000056657379900570958852767944 0 0 0 0 
2400333333.3333334923 0.169850543141365106780682481258 0.038945313543081276630442033593 0.002642319072037934823277138818 0.000043980824557365849614143372 0 0 0 0 
2400500000.0000000000 0.170288011431694003006143134371 0.038116928189992911601979841407 0.002777156187221407890319824219 -0.000063996056269388645887374878 0 0 0 0 
2400666666.6666665077 0.170884862542152404785156250000 0.037218742072582251811940778907 0.002842968096956611113307333838 -0.000244991097133606726497095929 0 0 0 0 
2400833333.3333334923 0.171315431594848605056924384371 0.036685246974229812622070312500 0.002727234037593007087707519531 -0.000391341221984475905269068585 0 0 0 0 
2401000000.0000000000 0.171763479709625188629473768742 0.035731792449951171875000000000 0.002796712098643184141871786963 -0.000420149124693125486373901367 0 0 0 0 
2401166666.6666665077 0.172061398625373812576455634371 0.034956496208906166767160783593 0.002721854019910097122192382812 -0.000405061058700084686279296875 0 0 0 0 
2401333333.3333334923 0.172086104750633211990518134371 0.034267872571945190429687500000 0.002709588967263699011561728369 -0.000461684830952435677677708759 0 0 0 0 
2401500000.0000000000 0.172428742051124600509481865629 0.033336937427520751953125000000 0.002743659773841499848606728662 -0.000787246332038193941116333008 0 0 0 0 
2401666666.6666665077 0.172629520297050503829794365629 0.032723218202590942382812500000 0.002595256315544248060939169775 -0.000893806631211191415786743164 0 0 0 0 
2401833333.3333334923 0.172616168856620788574218750000 0.031759999692440032958984375000 0.002423039637506008148193359375 -0.001054218970239162011387490381 0 0 0 0 
2402000000.0000000000 0.172572255134582491775674384371 0.031009156256914138793945312500 0.002533916383981705145594931494 -0.001012861495837569019914936597 0 0 0 0 
2402166666.6666665077 0.172685101628303500076455634371 0.030001727864146229135533516796 0.002352341078221797943115234375 -0.001155456760898232893702841650 0 0 0 0 
2402333333.3333334923 0.172720849514007596114950615629 0.029333759099245071411132812500 0.002300794702023268179652548682 -0.001138821593485773043391562354 0 0 0 0 
2402500000.0000000000 0.172908797860145596603231865629 0.028542429208755489694615548046 0.002358801662921905951258993994 -0.001228474080562591986415243994 0 0 0 0 
2402666666.6666665077 0.172735080122947692871093750000 0.027707744389772418630579764454 0.002212312538176774978637695312 -0.001223674742504953904392861475 0 0 0 0 
2402833333.3333334923 0.172456040978431701660156250000 0.026664584875106811523437500000 0.002236524363979696793797158350 -0.001229199348017572922947548975 0 0 0 0 
2403000000.0000000000 0.172397956252098111251669365629 0.025671876966953281057337576954 0.002046580426394938988926552881 -0.001384800067171453995945595850 0 0 0 0 
2403166666.6666665077 0.172440871596336392501669365629 0.024612566456198688852330391796 0.002047423971816896958592080225 -0.001314461464062333106994628906 0 0 0 0 
2403333333.3333334923 0.172021448612213107010049384371 0.023770198225975040090540701954 0.002104316139593720002415322412 -0.001453151111491024927852011572 0 0 0 0 
2403500000.0000000000 0.171967372298240689376669365629 0.022445598617196079599400704296 0.002096841810271143913269042969 -0.001427126233465969996211386572 0 0 0 0 
2403666666.6666665077 0.171686813235282897949218750000 0.021294374018907550466517264454 0.001884452416561543941497802734 -0.001510832109488547065137553638 0 0 0 0 
2403833333.3333334923 0.171754747629165704925213731258 0.020116886124014850961705391796 0.002008564770221710205078125000 -0.001477011013776063919067382812 0 0 0 0 
2404000000.0000000000 0.171459943056106595138388115629 0.019032871350646018981933593750 0.001746692229062319018720317310 -0.001514787087216973087908100659 0 0 0 0 
2404166666.6666665077 0.171239033341407803634481865629 0.017448695376515388488769531250 0.001620899653062223954441689600 -0.001565463957376777908922504956 0 0 0 0 
2404333333.3333334923 0.171075716614723205566406250000 0.016246799379587169992467110546 0.001712693483568727970123291016 -0.001529903733171523051020956885 0 0 0 0 
2404500000.0000000000 0.170891314744949313064736884371 0.014842261560261249542236328125 0.001615872723050415949580527197 -0.001557141309604048945783305591 0 0 0 0 
2404666666.6666665077 0.170755922794342013260049384371 0.013468699529767039907435233204 0.001720894942991435961482382666 -0.001533448812551796002628945459 0 0 0 0 
2404833333.3333334923 0.170557066798210088531817518742 0.012014744803309440612792968750 0.001692642690613866069196391528 -0.001552628003992140076280903394 0 0 0 0 
2405000000.0000000000 0.170472607016563387771768134371 0.010394511744380000722864920704 0.001452618977054954008815146338 -0.001444997498765588023542094653 0 0 0 0 
2405166666.6666665077 0.170327499508857699295205634371 0.008992309682071208953857421875 0.001744151930324733040453266675 -0.001692396355792880058288574219 0 0 0 0 
2405333333.3333334923 0.170288160443305996993856865629 0.007202360313385725021362304688 0.001827106112614274024963378906 -0.001577951596118509986280131763 0 0 0 0 
2405500000.0000000000 0.170130670070648193359375000000 0.005709158256649971008300781250 0.001673817983828485012054443359 -0.001708033843897283077239990234 0 0 0 0 
2405666666.6666665077 0.169984325766563387771768134371 0.003958213143050670623779296875 0.001652960199862719015834189307 -0.001682835863903165080426860278 0 0 0 0 
2405833333.3333334923 0.169858857989311190506143134371 0.002385040512308477921726845850 0.001979099819436668915989541162 -0.001777920988388359980342245947 0 0 0 0 
2406000000.0000000000 0.169695928692817687988281250000 0.000542786554433405399322509766 0.001594467437826097011566162109 -0.001868636114522814967511821216 0 0 0 0 
2406166666.6666665077 0.169499620795249911209268134371 -0.000952813541516661643981933594 0.001748580951243638992309570312 -0.002080268226563930945155478369 0 0 0 0 
2406333333.3333334923 0.169398993253707913497763115629 -0.002784759039059280915501259912 0.001892116968519985892652202075 -0.002077284269034862951991415869 0 0 0 0 
2406500000.0000000000 0.169219806790351895431356865629 -0.004456054884940385818481445312 0.001718832994811237075208354419 -0.002192797372117639021632529150 0 0 0 0 
2406666666.6666665077 0.168843477964401300628338731258 -0.005962837021797895431518554688 0.001774514908902347087860107422 -0.002297300146892666816711425781 0 0 0 0 
2406833333.3333334923 0.168847709894180297851562500000 -0.007654346525669097900390625000 0.001866034814156591892242431641 -0.002536399988457560972926474463 0 0 0 0 
2407000000.0000000000 0.168693333864212008377236884371 -0.009244376793503761291503906250 0.001787414774298667907714843750 -0.002589613664895296096801757812 0 0 0 0 
2407166666.6666665077 0.168633222579956110198651231258 -0.010578361339867120224922381055 0.001648154808208345933201455225 -0.002834654413163661956787109375 0 0 0 0 
2407333333.3333334923 0.168380498886108398437500000000 -0.012198853306472299748430820898 0.001576539827510714964625693213 -0.002907968359068036079406738281 0 0 0 0 
2407500000.0000000000 0.168353319168090792556924384371 -0.013496654108166699845283709180 0.001515239942818880081176757812 -0.003140432294458150863647460938 0 0 0 0 
2407666666.6666665077 0.168128162622451809982138115629 -0.014767280779778960836390311329 0.001449716859497129917144775391 -0.003067105542868376211879111182 0 0 0 0 
2407833333.3333334923 0.167844206094741793533486884371 -0.015997609123587608337402343750 0.001317309332080184979679726709 -0.003234747797250748114344931494 0 0 0 0 
2408000000.0000000000 0.167880818247795104980468750000 -0.017388908192515369760533516796 0.001130967051722109100939106519 -0.003290835767984389825108193506 0 0 0 0 
2408166666.6666665077 0.167875289916992187500000000000 -0.018296588212251659738560860546 0.000918717531021684408187866211 -0.003486931091174482865574502100 0 0 0 0 
2408333333.3333334923 0.168132111430168207366619981258 -0.019328512251377109182337576954 0.000795556814409792423248291016 -0.003554997034370899200439453125 0 0 0 0 
2408500000.0000000000 0.168027818202972412109375000000 -0.020404201000928878784179687500 0.000693495327141135931015014648 -0.003761964384466410116908408057 0 0 0 0 
2408666666.6666665077 0.168177202343940707107705634371 -0.021359052509069439279576485546 0.000491846411023288965225219727 -0.003678141161799430847167968750 0 0 0 0 
2408833333.3333334923 0.168245464563369806487713731258 -0.022246215492486950265904610546 0.000284919893601909279823303223 -0.003779338672757149176356650244 0 0 0 0 
2409000000.0000000000 0.168404564261436490157919365629 -0.023288348689675331115722656250 0.000029913146136095750739778212 -0.003788765752688049836399697412 0 0 0 0 
2409166666.6666665077 0.168823242187500000000000000000 -0.024083744734525680541992187500 -0.000025858082153717990627492598 -0.003966190386563540372366620801 0 0 0 0 
2409333333.3333334923 0.169072464108467102050781250000 -0.025085525587201118469238281250 -0.000372054375475272482067662372 -0.004072379320859909057617187500 0 0 0 0 
2409500000.0000000000 0.169474005699157687088174384371 -0.026122905313968658447265625000 -0.000507310964167118072509765625 -0.004067934583872556686401367188 0 0 0 0 
2409666666.6666665077 0.169354930520057705978231865629 -0.026908528059720989572545235546 -0.000829428434371948242187500000 -0.003999331500381231307983398438 0 0 0 0 
2409833333.3333334923 0.169648304581642206390057481258 -0.027753967791795730590820312500 -0.001051208702847361998317099463 -0.004095569252967835340017987988 0 0 0 0 
2410000000.0000000000 0.170020788908004788497763115629 -0.028598796576261520385742187500 -0.001210959744639694907544780200 -0.003919544164091348648071289062 0 0 0 0 
2410166666.6666665077 0.170158565044403103927450615629 -0.029474282637238499032994454296 -0.001426397007890046076533652197 -0.003998666536062955856323242188 0 0 0 0 
2410333333.3333334923 0.170413568615913391113281250000 -0.030459702014923099172571951954 -0.001647251541726290962816547925 -0.003801983082666993141174316406 0 0 0 0 
2410500000.0000000000 0.170510321855544988434161268742 -0.031253341585397720336914062500 -0.001849769148975610949872661060 -0.003726715920493007139918661963 0 0 0 0 
2410666666.6666665077 0.170294404029846191406250000000 -0.032334692776203162456472028907 -0.002148941159248352050781250000 -0.003646125318482518196105957031 0 0 0 0 
2410833333.3333334923 0.170418262481689508636151231258 -0.032967779785394668579101562500 -0.002283453941345214843750000000 -0.003671135986223816871643066406 0 0 0 0 
2411000000.0000000000 0.170457661151885986328125000000 -0.033756010234355933452565778907 -0.002628356683999300003051757812 -0.003244553692638874053955078125 0 0 0 0 
2411166666.6666665077 0.170351609587669400314169365629 -0.034700896590948111797292341407 -0.002850263845175505118129111182 -0.003059198614209889931919716943 0 0 0 0 
2411333333.3333334923 0.170170620083808898925781250000 -0.035415146499872207641601562500 -0.002901540370658040046691894531 -0.002790789818391203880310058594 0 0 0 0 
2411500000.0000000000 0.169696509838104303558026231258 -0.036205075681209557270090471093 -0.003144088666886090798618935693 -0.002577447099611163139343261719 0 0 0 0 
2411666666.6666665077 0.169941455125808688064736884371 -0.037053901702165596698801408593 -0.003121895249933003945591591943 -0.002449665451422334151027060400 0 0 0 0 
2411833333.3333334923 0.169457644224166897872763115629 -0.037786580622196197509765625000 -0.003250813111662865118739462744 -0.002275393577292561964747763525 0 0 0 0 
2412000000.0000000000 0.169408902525901794433593750000 -0.038875281810760498046875000000 -0.003171185730025171799900673975 -0.002025404945015906853916787256 0 0 0 0 
2412166666.6666665077 0.169053316116333007812500000000 -0.039522670209407813335378278907 -0.003185575595125555992126464844 -0.001794961281120776913286518628 0 0 0 0 
2412333333.3333334923 0.168875306844711303710937500000 -0.040315292775630950927734375000 -0.003265426028519868850708007812 -0.001501085353083908991572714697 0 0 0 0 
2412500000.0000000000 0.168353483080864008147869981258 -0.041265025734901428222656250000 -0.003127993084490298791172646631 -0.001303114113397896072985004956 0 0 0 0 
2412666666.6666665077 0.168038964271545410156250000000 -0.042217403650283806537668596093 -0.002947187982499599890467978369 -0.001154660363681613965275429834 0 0 0 0 
2412833333.3333334923 0.167675748467445401290731865629 -0.043025609105825417255442033593 -0.002965217223390936851501464844 -0.000951269292272627353668212891 0 0 0 0 
2413000000.0000000000 0.167170688509941101074218750000 -0.044025138020515441894531250000 -0.002943046623840928077697753906 -0.000800006673671305179595947266 0 0 0 0 
2413166666.6666665077 0.166591390967369107345419365629 -0.045091994106769561767578125000 -0.002786644035950303077697753906 -0.000702110526617616415023803711 0 0 0 0 
2413333333.3333334923 0.166146978735923794845419365629 -0.045692909508943557739257812500 -0.002807742916047573089599609375 -0.000646741362288594245910644531 0 0 0 0 
2413500000.0000000000 0.165479108691215487381143134371 -0.046665687114000320434570312500 -0.002704041311517357826232910156 -0.000370870664482936317294520245 0 0 0 0 
2413666666.6666665077 0.165081098675727788727130018742 -0.047712657600641250610351562500 -0.002517458982765675024745322119 -0.000390475819585844874382019043 0 0 0 0 
2413833333.3333334923 0.164319366216659601409588731258 -0.048551481217145919799804687500 -0.002605969086289405822753906250 -0.000377552030840888619422912598 0 0 0 0 
2414000000.0000000000 0.163674980401992797851562500000 -0.049540236592292792583425153907 -0.002520332345739006996154785156 -0.000257202831562608480453491211 0 0 0 0 
2414166666.6666665077 0.163309261202812194824218750000 -0.050318501889705657958984375000 -0.002380978316068648858311318506 -0.000345873617334291284710484637 0 0 0 0 
2414333333.3333334923 0.162876650691032409667968750000 -0.051386222243309020996093750000 -0.002257477492094039916992187500 -0.000152206994243897497653961182 0 0 0 0 
2414500000.0000000000 0.162700057029724093338174384371 -0.052130665630102157592773437500 -0.002634830772876739935633993994 -0.000171723848325200405999860220 0 0 0 0 
2414666666.6666665077 0.162117138504981994628906250000 -0.053129691630601882934570312500 -0.002389212371781467957737588037 -0.000120058000902645303450445857 0 0 0 0 
2414833333.3333334923 0.161713823676109286209268134371 -0.054230060428380973125417341407 -0.002339341910555959181544638525 -0.000110971232061274403899592267 0 0 0 0 
2415000000.0000000000 0.161395937204360989669638115629 -0.055211722850799560546875000000 -0.002250171732157468795776367188 0.000046150493290042511444499357 0 0 0 0 
2415166666.6666665077 0.161167159676551791092080634371 -0.056385587900876998901367187500 -0.002287932205945252938511513818 0.000139839859912171986982068472 0 0 0 0 
2415333333.3333334923 0.160889536142349187652911268742 -0.057562816888093948364257812500 -0.002140061231330037117004394531 0.000150665582623332711771288461 0 0 0 0 
2415500000.0000000000 0.160578951239585904220419365629 -0.058809977024793631816823591407 -0.002125855069607495827915810693 0.000216504049603827297687530518 0 0 0 0 
2415666666.6666665077 0.160392075777053805252236884371 -0.059906963258981711650807966407 -0.002117282478138804002049111475 0.000409445667173713499873560773 0 0 0 0 
2415833333.3333334923 0.160231173038482693771200615629 -0.061221569776535027240793596093 -0.001998549560084939002990722656 0.000291898730210959911346435547 0 0 0 0 
2416000000.0000000000 0.159873634576797513107138115629 -0.062560454010963439941406250000 -0.001838391297496855042101215894 0.000297276972560212016105651855 0 0 0 0 
2416166666.6666665077 0.159663587808609008789062500000 -0.063758477568626403808593750000 -0.001864781952463089986088418115 0.000334048469085246324539184570 0 0 0 0 
2416333333.3333334923 0.159219264984130887130575615629 -0.065017595887184143066406250000 -0.001706328359432518915889120947 0.000274270190857350826263427734 0 0 0 0 
2416500000.0000000000 0.158992409706115694900674384371 -0.066372662782669067382812500000 -0.001520570134744047901750874097 0.000259540160186588818400782452 0 0 0 0 
2416666666.6666665077 0.158558234572410611251669365629 -0.067772373557090759277343750000 -0.001650177408009767966029501807 0.000132939618197269710615435190 0 0 0 0 
2416833333.3333334923 0.158365100622177096267861884371 -0.069103702902793884277343750000 -0.001643177238292991898180317456 0.000112858833745121996529163499 0 0 0 0 
2417000000.0000000000 0.157915607094764709472656250000 -0.070362173020839691162109375000 -0.001524036633782088973401713794 0.000029450371584971438756192855 0 0 0 0 
2417166666.6666665077 0.157477214932441711425781250000 -0.071299120783805847167968750000 -0.001370380283333360931993794019 0.000077945493103470653295516968 0 0 0 0 
2417333333.3333334923 0.157164081931114196777343750000 -0.072478614747524261474609375000 -0.001428305637091398022295307690 -0.000006252659659367054700851440 0 0 0 0 
2417500000.0000000000 0.156806796789169311523437500000 -0.073610961437225341796875000000 -0.001571192988194525025011372144 -0.000167720732861198512002667838 0 0 0 0 
2417666666.6666665077 0.156733930110931396484375000000 -0.074546530842781066894531250000 -0.001662420923821628093719482422 -0.000227499433094635605812072754 0 0 0 0 
2417833333.3333334923 0.156255811452865600585937500000 -0.075412541627883911132812500000 -0.001793970935977994961979531396 -0.000276666949503123814433497296 0 0 0 0 
2418000000.0000000000 0.156045004725456210037393134371 -0.076624266803264617919921875000 -0.001916535547934472994563437354 -0.000274503137916326522827148438 0 0 0 0 
2418166666.6666665077 0.155889376997947692871093750000 -0.077389702200889587402343750000 -0.001874027657322586016414023291 -0.000361612503184005618095397949 0 0 0 0 
2418333333.3333334923 0.155797526240348788162393134371 -0.078380279242992401123046875000 -0.002068524481728672981262207031 -0.000303968379739671999782008038 0 0 0 0 
2418500000.0000000000 0.155530184507369995117187500000 -0.079200290143489837646484375000 -0.002201823284849524931666708838 -0.000314594770316034609645289288 0 0 0 0 
2418666666.6666665077 0.155447646975517300704794365629 -0.080075271427631378173828125000 -0.002300032647326589064357138525 -0.000307843962218612378269749774 0 0 0 0 
2418833333.3333334923 0.155032426118850708007812500000 -0.081106632947921752929687500000 -0.002497058361768722967860556494 -0.000321748957503587007522583008 0 0 0 0 
2419000000.0000000000 0.154744163155555697342080634371 -0.081683322787284851074218750000 -0.002652448602020740942714072119 -0.000022916876332601528951917955 0 0 0 0 
2419166666.6666665077 0.154544830322265597244424384371 -0.082523897290229797363281250000 -0.002695969073101878166198730469 -0.000063901999965310096740722656 0 0 0 0 
2419333333.3333334923 0.154269888997077886383380018742 -0.083121009171009063720703125000 -0.002823314396664499802830361475 0.000015983452612999830057824782 0 0 0 0 
2419500000.0000000000 0.154069483280181912521200615629 -0.083970904350280761718750000000 -0.002805779920890926881077431787 0.000134144618641585111618041992 0 0 0 0 
2419666666.6666665077 0.153920933604240389724893134371 -0.084615088999271392822265625000 -0.003075195476412773132324218750 0.000298407510854303782612401141 0 0 0 0 
2419833333.3333334923 0.153544813394546508789062500000 -0.085051320493221282958984375000 -0.003176100552082062201258993994 0.000451409083325415903895777570 0 0 0 0 
