# Hz S RI R 50
2400000000.0000000000 0.173390924930572509765625000000 0.049532275646924972534179687500 0.003971808589994907379150390625 0.005634623579680919647216796875 0 0 0 0 
2400166666.6666665077 0.173993766307830810546875000000 0.049109794199466712261159528907 0.003910869359970092773437500000 0.005456989631056785583496093750 0 0 0 0 
2400333333.3333334923 0.174439072608947809417401231258 0.048420052975416176532785783593 0.004089254420250654220581054688 0.005237003788352012634277343750 0 0 0 0 
2400500000.0000000000 0.174872756004333496093750000000 0.047633249312639243389089216407 0.004272906575351954373831464551 0.005110144615173339843750000000 0 0 0 0 
2400666666.6666665077 0.174930274486541803558026231258 0.046926565468311309814453125000 0.004340387415140867233276367188 0.004980238154530525207519531250 0 0 0 0 
2400833333.3333334923 0.175407975912094088455361884371 0.046439301222562789916992187500 0.004459930118173360824584960938 0.004688392393290997418875409863 0 0 0 0 
2401000000.0000000000 0.175548478960990905761718750000 0.045568220317363739013671875000 0.004395619034767150878906250000 0.004678356926888228330130292676 0 0 0 0 
2401166666.6666665077 0.175420150160789489746093750000 0.044802218675613403320312500000 0.004698557313531637191772460938 0.004470546729862689971923828125 0 0 0 0 
2401333333.3333334923 0.175582915544509887695312500000 0.044299036264419562602956403907 0.004860183689743280410766601562 0.004118824377655982971191406250 0 0 0 0 
2401500000.0000000000 0.175737768411636408050213731258 0.043654404580593109130859375000 0.004769295454025269422049237988 0.004045970737934113416189862988 0 0 0 0 
2401666666.6666665077 0.175545066595077486892861884371 0.042982097715139389038085937500 0.004866232629865407943725585938 0.003738837549462914900538779150 0 0 0 0 
2401833333.3333334923 0.175284817814826993087606865629 0.041935451328754431987722028907 0.005151285324245691299438476562 0.003441812237724661827087402344 0 0 0 0 
2402000000.0000000000 0.174964442849159212967080634371 0.041224528104066848754882812500 0.005250236950814723968505859375 0.003156631719321012930629111182 0 0 0 0 
2402166666.6666665077 0.174936667084693908691406250000 0.040034722536802291870117187500 0.005148023366928100585937500000 0.002890453441068530082702636719 0 0 0 0 
2402333333.3333334923 0.174622684717178289215411268742 0.039081718772649771953542341407 0.005173719022423028945922851562 0.002805012278258800940272665869 0 0 0 0 
2402500000.0000000000 0.174526914954185513595419365629 0.038309887051582343364675153907 0.005198604427278041839599609375 0.002602590713649988174438476562 0 0 0 0 
2402666666.6666665077 0.174380719661712701995526231258 0.036970321089029312133789062500 0.005262063816189765930175781250 0.002187937265262008146998740088 0 0 0 0 
2402833333.3333334923 0.173857107758522005935830634371 0.035883139818906777118723283593 0.005049729719758033752441406250 0.001981335459277033805847167969 0 0 0 0 
2403000000.0000000000 0.173580706119537409026776231258 0.034610345959663391113281250000 0.005155988037586212158203125000 0.001951428246684371991398476709 0 0 0 0 
2403166666.6666665077 0.173300549387931795974893134371 0.033151287585496902465820312500 0.005134579259902238845825195312 0.001560207572765647931339882959 0 0 0 0 
2403333333.3333334923 0.173068180680274991134481865629 0.031810626387596130371093750000 0.005020378623157739639282226562 0.001218296587467194037196493994 0 0 0 0 
2403500000.0000000000 0.172449603676795987228231865629 0.030276529490947719919224923046 0.004970515146851539611816406250 0.001162741100415586991551064600 0 0 0 0 
2403666666.6666665077 0.172080457210540799239950615629 0.028408147394657138479212576954 0.005043528042733669281005859375 0.001091940794140100912806845557 0 0 0 0 
2403833333.3333334923 0.171797588467597989181356865629 0.026794306933879848825474923046 0.004875353071838617324829101562 0.000817926309537142515182495117 0 0 0 0 
2404000000.0000000000 0.171383857727050809005575615629 0.025077527388930320739746093750 0.004830618854612112045288085938 0.000817442429251968860626220703 0 0 0 0 
2404166666.6666665077 0.171126127243041992187500000000 0.022890698164701458322545235546 0.004491075407713651657104492188 0.000570753531064838171005249023 0 0 0 0 
2404333333.3333334923 0.170783713459968594650106865629 0.021213395521044731140136718750 0.004284251481294631958007812500 0.000523482682183384895324707031 0 0 0 0 
2404500000.0000000000 0.170346170663833590408486884371 0.019155146554112430917760079296 0.004329887684434652328491210938 0.000380442565074190497398376465 0 0 0 0 
2404666666.6666665077 0.170289501547813387771768134371 0.017215944826602939260462576954 0.004232357256114482879638671875 0.000272910780040547305911463605 0 0 0 0 
2404833333.3333334923 0.170010596513748196700888115629 0.015277532860636709385881992773 0.004246086347848176956176757812 0.000191746526979841291904449463 0 0 0 0 
2405000000.0000000000 0.169853895902633694747763115629 0.013170079328119759995430193555 0.003877192968502641157862997900 0.000081055251939687877893447876 0 0 0 0 
2405166666.6666665077 0.169786304235458401779013115629 0.011108354665338989603062813671 0.004034115467220544815063476562 0.000065659085521474480628967285 0 0 0 0 
2405333333.3333334923 0.169818356633186312576455634371 0.008947499096393585205078125000 0.003778963349759579138514853369 0.000142526594572700587197980338 0 0 0 0 
2405500000.0000000000 0.169801011681556701660156250000 0.006951722782105206575875566699 0.003866794984787702994105673682 0.000165021090651862296179094858 0 0 0 0 
2405666666.6666665077 0.170093312859535189529580634371 0.005052424501627683639526367188 0.003729259362444282011744833838 0.000120571807201486094437460628 0 0 0 0 
2405833333.3333334923 0.170213490724563598632812500000 0.002977489493787289099452353369 0.003722065826877952055690146338 0.000247288960963487625122070312 0 0 0 0 
2406000000.0000000000 0.170508190989494295974893134371 0.000726108148228377103805541992 0.003572761081159114837646484375 0.000176632936927489909246721811 0 0 0 0 
2406166666.6666665077 0.170833125710487393478231865629 -0.001087263459339737892150878906 0.003642893163487315177917480469 0.000176898334757424890995025635 0 0 0 0 
2406333333.3333334923 0.171419471502304104904013115629 -0.003068814286962151961085654150 0.003701744135469197793247841943 0.000209817313589155701085767203 0 0 0 0 
2406500000.0000000000 0.171942755579948397537393134371 -0.005133346654474735260009765625 0.003800255246460438208339072119 0.000302938307868316823810023175 0 0 0 0 
2406666666.6666665077 0.172250211238861111739950615629 -0.007025132421404123306274414062 0.003897957736626266999485634912 0.000207412260351702598020276480 0 0 0 0 
2406833333.3333334923 0.172974094748497009277343750000 -0.009099966846406459808349609375 0.004035773687064647674560546875 0.000185323704499751302316942758 0 0 0 0 
2407000000.0000000000 0.173592001199722290039062500000 -0.010850434191524980717669102148 0.004100565332919359207153320312 0.000125166596262715811103266583 0 0 0 0 
2407166666.6666665077 0.174405217170715304275674384371 -0.012624439783394340169886405079 0.004283457994461059570312500000 -0.000074696741648949682712554932 0 0 0 0 
2407333333.3333334923 0.175028413534164400955361884371 -0.014547897502779960632324218750 0.004531735088676214218139648438 -0.000082367543654982000589370728 0 0 0 0 
2407500000.0000000000 0.175859645009040804763955634371 -0.016201701015233990060826485546 0.004513346124440431594848632812 -0.000162380703841336098596295767 0 0 0 0 
2407666666.6666665077 0.176644384860992403885049384371 -0.017764102667570110666295235546 0.004560377914458513259887695312 -0.000263715162873268073231297626 0 0 0 0 
2407833333.3333334923 0.177185714244842501541299384371 -0.019491679966449741018275076954 0.004696641582995653152465820312 -0.000672999653033912181854248047 0 0 0 0 
2408000000.0000000000 0.177943915128707913497763115629 -0.021123053506016731262207031250 0.004820893518626689910888671875 -0.000921017723158001899719238281 0 0 0 0 
2408166666.6666665077 0.178753495216369601150674384371 -0.022436236962676048278808593750 0.004945409018546342849731445312 -0.001065577496774495081660605322 0 0 0 0 
2408333333.3333334923 0.179524049162864712814169365629 -0.023799723014235499990443045704 0.005039183422923088073730468750 -0.001387979369610548019409179688 0 0 0 0 
2408500000.0000000000 0.180077418684959411621093750000 -0.025166731327772140502929687500 0.004953985102474690351004316113 -0.001596859423443675041198730469 0 0 0 0 
2408666666.6666665077 0.180771633982658386230468750000 -0.026544284075498580932617187500 0.004785351455211639404296875000 -0.001762830535881221077562641675 0 0 0 0 
2408833333.3333334923 0.181200951337814303299111884371 -0.027561094611883159982701485546 0.004777589347213506698608398438 -0.002032734686508775191066122900 0 0 0 0 
2409000000.0000000000 0.181684911251068087478799384371 -0.028552390635013580322265625000 0.004601546563208103179931640625 -0.002327522030100225968601845850 0 0 0 0 
2409166666.6666665077 0.182021901011467007736044365629 -0.029490329325199130666712576954 0.004423306789249181747436523438 -0.002511668251827359199523925781 0 0 0 0 
2409333333.3333334923 0.182473599910736111739950615629 -0.030277399346232410776158516796 0.004332215525209903717041015625 -0.002695551840588449998142861475 0 0 0 0 
2409500000.0000000000 0.182645186781883211990518134371 -0.031136918812990188598632812500 0.004159210715442895889282226562 -0.002813472645357251167297363281 0 0 0 0 
2409666666.6666665077 0.182958334684372003753338731258 -0.031543977558612816547434221093 0.003962636925280094146728515625 -0.003234079107642174200770712744 0 0 0 0 
2409833333.3333334923 0.183204188942909212967080634371 -0.031857367604970932006835937500 0.003931204322725533571725176074 -0.003205837681889533996582031250 0 0 0 0 
2410000000.0000000000 0.183587998151779202560263115629 -0.032418988645076751708984375000 0.003701437264680861993076943506 -0.003292653011158109144923544775 0 0 0 0 
2410166666.6666665077 0.183553516864776611328125000000 -0.032865215092897422100026716407 0.003460152074694633917567587744 -0.003628428792580962181091308594 0 0 0 0 
2410333333.3333334923 0.183767169713973999023437500000 -0.033039193600416176532785783593 0.003349220380187035040614462744 -0.003678158624097704887390136719 0 0 0 0 
2410500000.0000000000 0.183609679341316195388955634371 -0.033408153802156448364257812500 0.003348132595419884161708212744 -0.003646901575848460197448730469 0 0 0 0 
2410666666.6666665077 0.183361813426017788986044365629 -0.033825431019067757343332658593 0.002876563929021358923671103369 -0.003846438368782401084899902344 0 0 0 0 
2410833333.3333334923 0.183341816067695589920205634371 -0.034010045230388641357421875000 0.002776237670332192940952920068 -0.003753106109797954993007040869 0 0 0 0 
2411000000.0000000000 0.183072134852409390548544365629 -0.034303545951843261718750000000 0.002584374742582439942600869287 -0.004024052061140537261962890625 0 0 0 0 
2411166666.6666665077 0.182803347706794711013955634371 -0.034687433391809456562082658593 0.002401980804279447035548544775 -0.003998553846031427383422851562 0 0 0 0 
2411333333.3333334923 0.182334423065185602386151231258 -0.034764960408210747455637346093 0.002039763145148754119873046875 -0.004135708790272474288940429688 0 0 0 0 
2411500000.0000000000 0.181760594248771695236044365629 -0.035205733031034469604492187500 0.002029908122494817213771201025 -0.004239317961037158966064453125 0 0 0 0 
2411666666.6666665077 0.181241899728774996658486884371 -0.035553846508264541625976562500 0.001791383954696357033373188550 -0.004248259123414754867553710938 0 0 0 0 
2411833333.3333334923 0.180526882410049410720986884371 -0.035806633532047271728515625000 0.001650220016017555973650288159 -0.004083878360688686370849609375 0 0 0 0 
2412000000.0000000000 0.179707214236259488204794365629 -0.036473721265792846679687500000 0.001406152499839663939235068213 -0.004017161671072244644165039062 0 0 0 0 
2412166666.6666665077 0.178842097520828302581463731258 -0.036870319396257400512695312500 0.001174716977402568080304789966 -0.004067479632794857025146484375 0 0 0 0 
2412333333.3333334923 0.177911758422851590255575615629 -0.037301652133464813232421875000 0.001096282619982958056806254810 -0.004039632156491279602050781250 0 0 0 0 
2412500000.0000000000 0.176787033677101107498330634371 -0.037810627371072769165039062500 0.000699299853295087814331054688 -0.004164661280810832977294921875 0 0 0 0 
2412666666.6666665077 0.175757437944412203689736884371 -0.038744214922189712524414062500 0.000565373280551284551620483398 -0.003956325817853212356567382812 0 0 0 0 
2412833333.3333334923 0.174626469612121609786825615629 -0.039257757365703582763671875000 0.000342015177011489922374171124 -0.003734332043677568001988076318 0 0 0 0 
2413000000.0000000000 0.173393011093139703948651231258 -0.040260992944240570068359375000 0.000287294766167178804248255597 -0.003802308579906820817234658350 0 0 0 0 
2413166666.6666665077 0.172064945101738003829794365629 -0.041106566786766052246093750000 0.000278256338788196390301304950 -0.003652494167909026145935058594 0 0 0 0 
2413333333.3333334923 0.170862451195716913421307481258 -0.041929934173822402954101562500 0.000177572524989955100134172983 -0.003459400730207562012913369287 0 0 0 0 
2413500000.0000000000 0.169549658894538907150106865629 -0.043169587850570678710937500000 -0.000195353364688344299793243408 -0.003334541339427233175990439307 0 0 0 0 
2413666666.6666665077 0.168364703655242892166299384371 -0.044136907905340201641042341407 -0.000116226452519185800425945143 -0.003137937746942042870762490381 0 0 0 0 
2413833333.3333334923 0.166982114315032986739950615629 -0.045403316617012016986887346093 -0.000272643344942480325698852539 -0.002847466850653291182277060400 0 0 0 0 
2414000000.0000000000 0.165653422474861200530682481258 -0.046577617526054382324218750000 -0.000162635958986356908648890363 -0.002877268008887767791748046875 0 0 0 0 
2414166666.6666665077 0.164510920643806513030682481258 -0.047935824841260910034179687500 -0.000220234665903262794017791748 -0.002730981213971972899196005713 0 0 0 0 
2414333333.3333334923 0.163218691945075988769531250000 -0.049497354775667190551757812500 -0.000036624234780902042984962463 -0.002645316533744335174560546875 0 0 0 0 
2414500000.0000000000 0.162187844514846801757812500000 -0.050902020186185836791992187500 -0.000249750330112874507904052734 -0.002523620845749973817112588037 0 0 0 0 
2414666666.6666665077 0.161055833101272610763388115629 -0.052534166723489761352539062500 -0.000053573516197502613067626953 -0.002343202941119670867919921875 0 0 0 0 
2414833333.3333334923 0.159976512193679809570312500000 -0.054054409265518188476562500000 0.000021192088752286508679389954 -0.002378881443291902975795126807 0 0 0 0 
2415000000.0000000000 0.158922940492630004882812500000 -0.055743038654327392578125000000 -0.000017727172235026958992685012 -0.002256672130897641181945800781 0 0 0 0 
2415166666.6666665077 0.158008798956871004959268134371 -0.057500511407852172851562500000 0.000196830878849141299724578857 -0.002225837204605340957641601562 0 0 0 0 
2415333333.3333334923 0.157209292054176302810830634371 -0.059481557458639151836354841407 0.000231367288506589802816668100 -0.002126089995726943016052246094 0 0 0 0 
2415500000.0000000000 0.156495705246925409515057481258 -0.061221905052661902690847028907 0.000358942052116617614596766339 -0.002243840135633945898768759619 0 0 0 0 
2415666666.6666665077 0.155688375234603909591513115629 -0.063103564083576202392578125000 0.000330559938447549884945469989 -0.002188363112509251074550009619 0 0 0 0 
2415833333.3333334923 0.155114844441413907150106865629 -0.065070062875747680664062500000 0.000377741409465670585632324219 -0.002292117569595574898960732568 0 0 0 0 
2416000000.0000000000 0.154424667358398409744424384371 -0.067211888730525970458984375000 0.000548879907000809907913208008 -0.002370502101257442994358681787 0 0 0 0 
2416166666.6666665077 0.153966978192329406738281250000 -0.069220647215843200683593750000 0.000560696993488818407058715820 -0.002347206464037299156188964844 0 0 0 0 
2416333333.3333334923 0.153621599078178405761718750000 -0.071043133735656738281250000000 0.000686039798893034458160400391 -0.002365298569202423095703125000 0 0 0 0 
2416500000.0000000000 0.153189808130264309982138115629 -0.073069289326667785644531250000 0.000598872487898916006088256836 -0.002536563901230692863464355469 0 0 0 0 
2416666666.6666665077 0.152846753597259493728799384371 -0.075109817087650299072265625000 0.000562135886866599321365356445 -0.002663283841684461073634482275 0 0 0 0 
2416833333.3333334923 0.152673035860061701018963731258 -0.077015563845634460449218750000 0.000584492285270243883132934570 -0.002965849591419101195094443213 0 0 0 0 
2417000000.0000000000 0.152298182249069213867187500000 -0.078942269086837768554687500000 0.000605863810051232576370239258 -0.002967154840007423920872353662 0 0 0 0 
2417166666.6666665077 0.152227252721786499023437500000 -0.080621674656867980957031250000 0.000431459804531186819076538086 -0.003036326961591839790344238281 0 0 0 0 
2417333333.3333334923 0.152198553085327203948651231258 -0.082377821207046508789062500000 0.000350575865013524889945983887 -0.003247426357120275931117392432 0 0 0 0 
2417500000.0000000000 0.152070164680481012542401231258 -0.084157668054103851318359375000 0.000206182070542126893997192383 -0.003402651986107230186462402344 0 0 0 0 
2417666666.6666665077 0.152172982692718505859375000000 -0.085695348680019378662109375000 0.000260040484135970473289489746 -0.003613870823755859894993447412 0 0 0 0 
2417833333.3333334923 0.152235910296440096756143134371 -0.087119236588478088378906250000 -0.000010267323887092059646742974 -0.003590820357203484015223837744 0 0 0 0 
2418000000.0000000000 0.152281090617179898361044365629 -0.088812835514545440673828125000 -0.000039215388824231922626495361 -0.003727898234501481056213378906 0 0 0 0 
2418166666.6666665077 0.152445897459983797928018134371 -0.089816771447658538818359375000 -0.000239435161347501007005414420 -0.003768063848838210105895996094 0 0 0 0 
2418333333.3333334923 0.152754634618759210784588731258 -0.091172352433204650878906250000 -0.000360873440513387322425842285 -0.003782063955441116853001259912 0 0 0 0 
2418500000.0000000000 0.152862027287483187576455634371 -0.092268772423267364501953125000 -0.000576500780880451202392578125 -0.003865831997245550155639648438 0 0 0 0 
2418666666.6666665077 0.153037041425705011565838731258 -0.093227975070476531982421875000 -0.000679168908391147851943969727 -0.003801726270467042922973632812 0 0 0 0 
2418833333.3333334923 0.153101116418838500976562500000 -0.094181962311267852783203125000 -0.001010845764540136077283549731 -0.003798945806920527978184365381 0 0 0 0 
2419000000.0000000000 0.153267726302146911621093750000 -0.094860985875129699707031250000 -0.001277462812140583992004394531 -0.003782770363613963127136230469 0 0 0 0 
2419166666.6666665077 0.153733313083648709396200615629 -0.095492132008075714111328125000 -0.001415506005287169976475381006 -0.003681804286316037178039550781 0 0 0 0 
2419333333.3333334923 0.153755694627761813064736884371 -0.095795385539531707763671875000 -0.001558530726470052979112934644 -0.003830379806458950042724609375 0 0 0 0 
2419500000.0000000000 0.153976544737815912444744981258 -0.096484154462814331054687500000 -0.001834552153013647036311484229 -0.003488718764856458143946982275 0 0 0 0 
2419666666.6666665077 0.154090076684951809982138115629 -0.096853159368038177490234375000 -0.002044323366135358810424804688 -0.003642627969384192986729287256 0 0 0 0 
2419833333.3333334923 0.154184952378273010253906250000 -0.096873886883258819580078125000 -0.002030502306297421889064169775 -0.003600312164053320884704589844 0 0 0 0 
