# Hz S RI R 
2400000000.0000000000 0.156839668750762911697549384371 0.061027634888887412334401716407 -0.005203933920711278915405273438 0.001890740357339381954790424878 0 0 0 0 
2400166666.6666665077 0.157045125961303710937500000000 0.059293881058692932128906250000 -0.005101306829601526260375976562 0.002006066264584660963771201025 0 0 0 0 
2400333333.3333334923 0.156997635960578890701455634371 0.057323575019836432720143903907 -0.005053533241152763366699218750 0.002217253204435110092163085938 0 0 0 0 
2400500000.0000000000 0.157139688730239895919638115629 0.055426303297281272197682966407 -0.004965260159224271774291992188 0.002279933309182525114772177588 0 0 0 0 
2400666666.6666665077 0.157339826226234408279580634371 0.053368084132671363140065778907 -0.005027293227612972259521484375 0.002487979363650083975550986182 0 0 0 0 
2400833333.3333334923 0.157727375626563998123330634371 0.051295358687639243389089216407 -0.004913364071398974332327558301 0.002503233961760998205897665869 0 0 0 0 
2401000000.0000000000 0.157996714115142794510049384371 0.049269884824752807617187500000 -0.004821791313588619232177734375 0.002870591590180993080139160156 0 0 0 0 
2401166666.6666665077 0.158376500010490389724893134371 0.047161538153886801982839216407 -0.004691028967499732971191406250 0.002882974222302436828613281250 0 0 0 0 
2401333333.3333334923 0.158465892076492309570312500000 0.045152083039283752441406250000 -0.004765800200402736663818359375 0.003041094634681940078735351562 0 0 0 0 
2401500000.0000000000 0.159194990992546109298544365629 0.043047945946455001831054687500 -0.004481874871999025344848632812 0.003308092243969440893885947119 0 0 0 0 
2401666666.6666665077 0.159656107425689697265625000000 0.041308928281068801879882812500 -0.004417110700160264968872070312 0.003215828910470008850097656250 0 0 0 0 
2401833333.3333334923 0.160188809037208612640057481258 0.039199609309434890747070312500 -0.004245794843882322311401367188 0.003540992038324474854710244287 0 0 0 0 
2402000000.0000000000 0.160714849829673794845419365629 0.037305671721696846698801408593 -0.004315542522817850112915039062 0.003540952457115054130554199219 0 0 0 0 
2402166666.6666665077 0.161496892571449307540731865629 0.035294726490974433208425153907 -0.004192974884063004580025957324 0.003601586678996682167053222656 0 0 0 0 
2402333333.3333334923 0.162178367376327486892861884371 0.033636055886745452880859375000 -0.004076089244335889816284179688 0.003739228472113608880283974756 0 0 0 0 
2402500000.0000000000 0.163175463676452608963174384371 0.031869396567344672466237653907 -0.003956386353820562362670898438 0.003899386152625083923339843750 0 0 0 0 
2402666666.6666665077 0.163841292262077303787393134371 0.030140437185764309274693673046 -0.003906542435288429260253906250 0.004084266256541013717651367188 0 0 0 0 
2402833333.3333334923 0.164596542716026306152343750000 0.028601244091987609863281250000 -0.003702704561874270005467080225 0.004114964511245489120483398438 0 0 0 0 
2403000000.0000000000 0.165619611740112304687500000000 0.027189280837774280202845389454 -0.003502077655866742134094238281 0.004411384463310241699218750000 0 0 0 0 
2403166666.6666665077 0.166668564081191988845986884371 0.025831732898950580251673514454 -0.003372552804648876190185546875 0.004311908502131701383108808301 0 0 0 0 
2403333333.3333334923 0.167454376816749600509481865629 0.024448418989777568471888358204 -0.003203917527571320967433310400 0.004594290163367986679077148438 0 0 0 0 
2403500000.0000000000 0.168384179472923306564169365629 0.023056289181113239633580391796 -0.003125610761344432830810546875 0.004639736842364072799682617188 0 0 0 0 
2403666666.6666665077 0.169334158301353510100994981258 0.022010672837495800363560860546 -0.002966197673231362862827920068 0.004654280841350555419921875000 0 0 0 0 
2403833333.3333334923 0.170314282178878811935263115629 0.020876865833997729909876639454 -0.002873081946745514869689941406 0.004779572598636150360107421875 0 0 0 0 
2404000000.0000000000 0.171304792165756197830361884371 0.019944792613387111318568045704 -0.002500778296962379975559853662 0.004918720573186874389648437500 0 0 0 0 
2404166666.6666665077 0.172075524926185607910156250000 0.018764307722449299203892891796 -0.002447224222123622894287109375 0.005015453323721885681152343750 0 0 0 0 
2404333333.3333334923 0.173073276877403287032919365629 0.018108705058693889272669608204 -0.002311790594831109046936035156 0.004993830807507038116455078125 0 0 0 0 
2404500000.0000000000 0.173900738358497591873330634371 0.017096159979701038705846016796 -0.002075086347758769989013671875 0.005226589273661375045776367188 0 0 0 0 
2404666666.6666665077 0.174747005105018587967080634371 0.016312159597873691213587576954 -0.001906587509438395933863974463 0.005306372418999671936035156250 0 0 0 0 
2404833333.3333334923 0.175477817654609707931356865629 0.015912657603621479379674141796 -0.001724791945889591953874897534 0.005325024481862783432006835938 0 0 0 0 
2405000000.0000000000 0.176304221153259305099325615629 0.015242181718349460256556326954 -0.001375940046273171901702880859 0.005359863396733999252319335938 0 0 0 0 
2405166666.6666665077 0.176983758807182312011718750000 0.014783532358705999201764491602 -0.001232267008163034915924072266 0.005578738171607255935668945312 0 0 0 0 
2405333333.3333334923 0.177720561623573303222656250000 0.014106710441410539799700352148 -0.001002057339064776897430419922 0.005504266358911991119384765625 0 0 0 0 
2405500000.0000000000 0.178253158926963806152343750000 0.013803585432469850022285662305 -0.000830156554002314805984497070 0.005695090163499116897583007812 0 0 0 0 
2405666666.6666665077 0.178762495517730712890625000000 0.013375748880207540339459804102 -0.000638476631138473749160766602 0.005552927963435649871826171875 0 0 0 0 
2405833333.3333334923 0.178968578577041598220986884371 0.013096835464239120483398437500 -0.000399311946239322423934936523 0.005740673281252384185791015625 0 0 0 0 
2406000000.0000000000 0.179552525281906100174111884371 0.012457742355763910466204258398 -0.000087291693489532917737960815 0.005728206597268581390380859375 0 0 0 0 
2406166666.6666665077 0.179667979478836087325888115629 0.012481356039643289393414882227 0.000181628216523677110671997070 0.005504729226231575012207031250 0 0 0 0 
2406333333.3333334923 0.180070415139198303222656250000 0.012090764939785000192662423046 0.000300679501378908807605189191 0.005647107027471066388601972363 0 0 0 0 
2406500000.0000000000 0.180196851491928100585937500000 0.011858007870614530390729335352 0.000473956402856856584548950195 0.005535237956792116165161132812 0 0 0 0 
2406666666.6666665077 0.180033460259437588790731865629 0.011463048867881299799909022852 0.000917361991014331579208374023 0.005611990578472614288330078125 0 0 0 0 
2406833333.3333334923 0.180246949195861788650674384371 0.011007275432348249608049961523 0.000957686221227049827575683594 0.005388487596064805984497070312 0 0 0 0 
2407000000.0000000000 0.180130913853645296951455634371 0.010638748295605179178258126171 0.001234026392921804948094033350 0.005247140303254128369803144238 0 0 0 0 
2407166666.6666665077 0.179985359311103793045205634371 0.010281560011208059138287929102 0.001379719353280961947200156104 0.005216575693339109420776367188 0 0 0 0 
2407333333.3333334923 0.179654210805892888824786268742 0.009730616584420204162597656250 0.001721718697808682918548583984 0.005062563810497522354125976562 0 0 0 0 
2407500000.0000000000 0.179386720061302212814169365629 0.009279569610953330993652343750 0.001866221078671514987945556641 0.004843041766434907913208007812 0 0 0 0 
2407666666.6666665077 0.178881362080574007888955634371 0.008730486966669559478759765625 0.001895328168757260062574077075 0.004778309725224971771240234375 0 0 0 0 
2407833333.3333334923 0.178399801254272488693075615629 0.007904468104243278503417968750 0.002252550097182393074035644531 0.004642211832106112566476152637 0 0 0 0 
2408000000.0000000000 0.178066715598106412032919365629 0.007270131260156632337088300488 0.002314751734957098960876464844 0.004536452237516641616821289062 0 0 0 0 
2408166666.6666665077 0.177375644445419311523437500000 0.006529932841658592224121093750 0.002417558804154396057128906250 0.004379795864224433898925781250 0 0 0 0 
2408333333.3333334923 0.177119731903076199630575615629 0.005731076933443546295166015625 0.002616272075101733207702636719 0.004063759464770556363577558301 0 0 0 0 
2408500000.0000000000 0.176374033093452509124432481258 0.004549569450318813323974609375 0.002546075265854597091674804688 0.003985329065471887588500976562 0 0 0 0 
2408666666.6666665077 0.175666570663452203948651231258 0.003571716602891684012172079932 0.002637849189341067834141396631 0.003850602079182862801792763818 0 0 0 0 
2408833333.3333334923 0.175033733248710604568643134371 0.002490708138793706893920898438 0.002714902628213167190551757812 0.003741131629794836044311523438 0 0 0 0 
2409000000.0000000000 0.174224212765693692306356865629 0.001239993143826723098754882812 0.002901674481108785109279013525 0.003480813000351191000697470557 0 0 0 0 
2409166666.6666665077 0.173642992973327608963174384371 -0.000088133980170823633670806885 0.003015618771314620971679687500 0.003470181953161954879760742188 0 0 0 0 
2409333333.3333334923 0.172931209206581087967080634371 -0.001461936975829303047777485425 0.003008456435054541067836142432 0.003290790831670165061950683594 0 0 0 0 
2409500000.0000000000 0.172192484140396090408486884371 -0.002971694106236100196838378906 0.003040909999981522993800497900 0.003129078308120369911193847656 0 0 0 0 
2409666666.6666665077 0.171607181429863003829794365629 -0.004567363765090703964233398438 0.003064780728891491889953613281 0.002851517172530293898341513525 0 0 0 0 
2409833333.3333334923 0.170958489179611206054687500000 -0.005933706648647785186767578125 0.003224917687475680871250771631 0.002911237534135580062866210938 0 0 0 0 
2410000000.0000000000 0.170438677072524996658486884371 -0.007623054552823305130004882812 0.003349727252498269081115722656 0.002753523876890540122985839844 0 0 0 0 
2410166666.6666665077 0.169908717274665804763955634371 -0.009269708767533302307128906250 0.003263138234615325927734375000 0.002626073313876986937281943213 0 0 0 0 
2410333333.3333334923 0.169347763061523409744424384371 -0.011031808331608770543108555273 0.003314379835501313209533691406 0.002507330384105443954467773438 0 0 0 0 
2410500000.0000000000 0.168933227658271789550781250000 -0.012863413430750370025634765625 0.003318152856081724166870117188 0.002380239777266978783848427881 0 0 0 0 
2410666666.6666665077 0.168500408530235290527343750000 -0.014809699729084970301618007227 0.003215305274352430863621377100 0.002159060677513480186462402344 0 0 0 0 
2410833333.3333334923 0.168207153677940396407919365629 -0.016703318804502490652064139454 0.003406424773856997923610068213 0.002127270447090268135070800781 0 0 0 0 
2411000000.0000000000 0.167947828769683810135049384371 -0.018621195107698440551757812500 0.003323809942230581803562783350 0.001924977055750787041307758862 0 0 0 0 
2411166666.6666665077 0.167727291584014892578125000000 -0.020436534658074378967285156250 0.003474163124337791962864541162 0.001902206568047404072405170972 0 0 0 0 
2411333333.3333334923 0.167654931545257596114950615629 -0.022426297888159748422642891796 0.003335641929879785017726279150 0.001488538458943367004394531250 0 0 0 0 
2411500000.0000000000 0.167676776647567804534588731258 -0.024458760395646098745325858204 0.003303128760308026833775185693 0.001500641577877104065538715894 0 0 0 0 
2411666666.6666665077 0.167887583374977111816406250000 -0.026132704690098759042760079296 0.003339455928653479056117392432 0.001213491894304751916172646631 0 0 0 0 
2411833333.3333334923 0.168061390519142206390057481258 -0.028160782530903819692591483204 0.003246066626161336898803710938 0.001255276380106806971906352466 0 0 0 0 
2412000000.0000000000 0.168064966797828702071981865629 -0.030176742002367969858189766796 0.003300672629848123030421591650 0.001144459587521851062774658203 0 0 0 0 
2412166666.6666665077 0.168170958757400512695312500000 -0.032048795372247702861745466407 0.003213061252608894868137978662 0.000907230481971055269241333008 0 0 0 0 
2412333333.3333334923 0.168868586421012906173544365629 -0.033878441900014877319335937500 0.003352755215018988089320517432 0.000771650695241987705230712891 0 0 0 0 
2412500000.0000000000 0.169181153178214999099893134371 -0.035607106983661651611328125000 0.003172535914927721023559570312 0.000794775434769690036773681641 0 0 0 0 
2412666666.6666665077 0.169595673680305508712606865629 -0.037580460309982299804687500000 0.003168320050463079972508095850 0.000561832799576222896575927734 0 0 0 0 
2412833333.3333334923 0.170007422566413907150106865629 -0.039207849651575088500976562500 0.003081097966060041947605752100 0.000468071404611691778332310809 0 0 0 0 
2413000000.0000000000 0.170437574386596707443075615629 -0.040813941508531570434570312500 0.003138876752927898926975869287 0.000461316871223971301883143292 0 0 0 0 
2413166666.6666665077 0.171083003282546997070312500000 -0.042598392814397811889648437500 0.003164332360029221014735556494 0.000215444844798184904173174448 0 0 0 0 
2413333333.3333334923 0.171519920229911804199218750000 -0.044057141989469528198242187500 0.002916723024100064797642373193 0.000157089583808556199073791504 0 0 0 0 
2413500000.0000000000 0.172215119004249600509481865629 -0.045674256980419158935546875000 0.002825352828949689865112304688 0.000085351392044685781002044678 0 0 0 0 
2413666666.6666665077 0.172728687524795504470986884371 -0.047072902321815490722656250000 0.002991938963532447814941406250 0.000066866836277768015861511230 0 0 0 0 
2413833333.3333334923 0.173404470086097689529580634371 -0.048353940248489379882812500000 0.002773425541818141937255859375 -0.000012902767593914180656875304 0 0 0 0 
2414000000.0000000000 0.173801496624946594238281250000 -0.049678623676300048828125000000 0.002704856684431434111354208838 -0.000171971492818556698873797006 0 0 0 0 
2414166666.6666665077 0.174472391605377197265625000000 -0.050920691341161727905273437500 0.002564657712355256080627441406 -0.000018193342839367691090310744 0 0 0 0 
2414333333.3333334923 0.175031125545501708984375000000 -0.051883600652217871929128278907 0.002502222079783678054809570312 -0.000230876918067224296644487924 0 0 0 0 
2414500000.0000000000 0.175781235098838806152343750000 -0.052703920751810066913645158593 0.002326202578842639923095703125 -0.000250965327722951824038905011 0 0 0 0 
2414666666.6666665077 0.176235571503639193435830634371 -0.053737904876470572734792341407 0.002438843250274658203125000000 -0.000332969997543841600418090820 0 0 0 0 
2414833333.3333334923 0.176599234342575100997763115629 -0.054548189043998718261718750000 0.002482397947460412979125976562 -0.000410165928769856691360473633 0 0 0 0 
2415000000.0000000000 0.176958054304122897049111884371 -0.055175680667161941528320312500 0.002295349026098846955540322412 -0.000348971865605562925338745117 0 0 0 0 
2415166666.6666665077 0.177440896630287198165731865629 -0.056042041629552841186523437500 0.002236437285318971113917685400 -0.000278600840829312801361083984 0 0 0 0 
2415333333.3333334923 0.177877277135848999023437500000 -0.056618411093950271606445312500 0.002224285854026674790623330225 -0.000333812495227903073460179462 0 0 0 0 
2415500000.0000000000 0.177976325154304504394531250000 -0.056983016431331641460378278907 0.002121869241818786101100302588 -0.000299102161079645211070460187 0 0 0 0 
2415666666.6666665077 0.178122207522392300704794365629 -0.057386040687561042095143903907 0.002014838159084320068359375000 -0.000364921899745240807533264160 0 0 0 0 
2415833333.3333334923 0.178315892815589904785156250000 -0.057892825454473502422292341407 0.002076175762340426011326455225 -0.000409641856094822287559509277 0 0 0 0 
2416000000.0000000000 0.178105637431144686599893134371 -0.058134205639362342143972028907 0.001931554288603364987614297021 -0.000483140785945579409599304199 0 0 0 0 
2416166666.6666665077 0.178166523575782803634481865629 -0.058452133089303970336914062500 0.001863085315562785105464316260 -0.000328610360156744718551635742 0 0 0 0 
2416333333.3333334923 0.178060263395309503753338731258 -0.058652818202972412109375000000 0.001857083640061319091199565356 -0.000386091996915638501017969952 0 0 0 0 
2416500000.0000000000 0.177699968218803405761718750000 -0.058995842933654792095143903907 0.002057024277746676965000771631 -0.000383281527319922989040928973 0 0 0 0 
2416666666.6666665077 0.177372336387634305099325615629 -0.059077922254800803447682966407 0.001928985118865967013715434497 -0.000342006009304895997047424316 0 0 0 0 
2416833333.3333334923 0.177097097039222689529580634371 -0.059438329190015792846679687500 0.002029806375503540039062500000 -0.000448866456281393820613306866 0 0 0 0 
2417000000.0000000000 0.176429048180580111404580634371 -0.059619605541229248046875000000 0.001883184304460882923723530347 -0.000387426698580384308665675031 0 0 0 0 
2417166666.6666665077 0.175816282629966708084268134371 -0.059815034270286560058593750000 0.001959881046786903901341103662 -0.000490447448100894689559936523 0 0 0 0 
2417333333.3333334923 0.175229191780090304275674384371 -0.060086097568273537372629533593 0.001692616497166455008863139575 -0.000554792874027043581008911133 0 0 0 0 
2417500000.0000000000 0.174432143568992586990518134371 -0.060450788587331771850585937500 0.001948847784660757021663046729 -0.000437010981841012781292515887 0 0 0 0 
2417666666.6666665077 0.173625051975250188629473768742 -0.060640033334493637084960937500 0.001768644782714545943616557544 -0.000552070152480155229568481445 0 0 0 0 
2417833333.3333334923 0.172808021306991604904013115629 -0.060767710208892822265625000000 0.001835631672292947986005473560 -0.000504777010064572095870971680 0 0 0 0 
2418000000.0000000000 0.171575054526329012771768134371 -0.061333082616329193115234375000 0.001844289596192538955091166919 -0.000546858645975589752197265625 0 0 0 0 
2418166666.6666665077 0.170740425586700411697549384371 -0.061560265719890587543527971093 0.001876620575785636901855468750 -0.000617303943727165460586547852 0 0 0 0 
2418333333.3333334923 0.169794932007789611816406250000 -0.062189310789108283306081403907 0.001693382626399398066877055591 -0.000543436210136860609054565430 0 0 0 0 
2418500000.0000000000 0.168563261628150912185830634371 -0.062630146741867065429687500000 0.001572805107571185068843222510 -0.000630956841632723808288574219 0 0 0 0 
2418666666.6666665077 0.167485877871513394454794365629 -0.063182070851325988769531250000 0.001752573298290371894836425781 -0.000743659853469580411911010742 0 0 0 0 
2418833333.3333334923 0.166060790419578607757244981258 -0.064066879451274871826171875000 0.001626133453100919940351176685 -0.000777340261265635490417480469 0 0 0 0 
2419000000.0000000000 0.164754062891006497482138115629 -0.064712420105934143066406250000 0.001672233687713742039324116284 -0.000773558451328426599502563477 0 0 0 0 
2419166666.6666665077 0.163587734103202792068643134371 -0.065700158476829528808593750000 0.001587196369655430100084614331 -0.000812338781543076038360595703 0 0 0 0 
2419333333.3333334923 0.162262454628944396972656250000 -0.066269420087337493896484375000 0.001433859928511082909227680737 -0.000770754239056259393692016602 0 0 0 0 
2419500000.0000000000 0.161148980259895296951455634371 -0.067373119294643402099609375000 0.001417189836502074978472065503 -0.000879610714036971330642700195 0 0 0 0 
2419666666.6666665077 0.160188332200050409515057481258 -0.068491294980049133300781250000 0.001498414902016520933863974463 -0.000727240461856126785278320312 0 0 0 0 
2419833333.3333334923 0.158710703253746004959268134371 -0.069260507822036743164062500000 0.001416972838342190005658793872 -0.000758333888370543718338012695 0 0 0 0 
2420000000.0000000000 0.157789438962936401367187500000 -0.070479057729244232177734375000 0.001478326856158673980115580981 -0.000955742958467453718185424805 0 0 0 0 
