# Version 1.00
#
freq[Hz];re:Trc1_S11;im:Trc1_S11;re:Trc2_S21;im:Trc2_S21;
2.400000000000000E+009;1.627576351165772E-001;5.272262170910835E-002;-3.022547112777829E-003;3.138700267300010E-003;
2.400166666666667E+009;1.627378761768341E-001;5.111544951796532E-002;-3.054813249036670E-003;3.254689741879702E-003;
2.400333333333334E+009;1.626438200473785E-001;4.931888729333878E-002;-3.007442923262715E-003;3.462238237261772E-003;
2.400500000000000E+009;1.627088189125061E-001;4.744840040802956E-002;-3.027249360457063E-003;3.530766582116485E-003;
2.400666666666667E+009;1.624374091625214E-001;4.553226754069328E-002;-2.874788828194141E-003;3.736440790817142E-003;
2.400833333333334E+009;1.627535969018936E-001;4.371389001607895E-002;-2.716628834605217E-003;3.866133047267795E-003;
2.401000000000000E+009;1.626899689435959E-001;4.154495894908905E-002;-2.688252367079258E-003;3.891653148457408E-003;
2.401166666666667E+009;1.628028750419617E-001;3.960257023572922E-002;-2.615812700241804E-003;4.160000011324883E-003;
2.401333333333334E+009;1.630062609910965E-001;3.742704540491104E-002;-2.427153522148728E-003;4.251742735505104E-003;
2.401500000000000E+009;1.631002128124237E-001;3.552146628499031E-002;-2.477384405210614E-003;4.482544958591461E-003;
2.401666666666667E+009;1.631861329078674E-001;3.356825560331345E-002;-2.220771741122007E-003;4.704158287495375E-003;
2.401833333333334E+009;1.635300070047379E-001;3.150178864598274E-002;-1.907246070913971E-003;4.657161887735128E-003;
2.402000000000000E+009;1.636294573545456E-001;2.954613789916039E-002;-1.838505268096924E-003;4.772018641233444E-003;
2.402166666666667E+009;1.641614735126495E-001;2.748735249042511E-002;-1.493824296630919E-003;5.086632911115885E-003;
2.402333333333334E+009;1.646322458982468E-001;2.565622329711914E-002;-1.414560480043292E-003;5.071433261036873E-003;
2.402500000000000E+009;1.654129922389984E-001;2.392533607780933E-002;-1.113427802920342E-003;5.238214507699013E-003;
2.402666666666667E+009;1.656720638275147E-001;2.221108227968216E-002;-9.106665384024382E-004;5.120914429426193E-003;
2.402833333333334E+009;1.663605272769928E-001;2.029551751911640E-002;-6.618971819989383E-004;5.519503261893988E-003;
2.403000000000000E+009;1.669303625822067E-001;1.856538839638233E-002;-1.985871494980529E-004;5.285128951072693E-003;
2.403166666666667E+009;1.675781756639481E-001;1.695418730378151E-002;-2.614688673929777E-005;5.451653152704239E-003;
2.403333333333334E+009;1.684727370738983E-001;1.530546788126230E-002;2.996153780259192E-004;5.442057270556688E-003;
2.403500000000000E+009;1.691080033779144E-001;1.394767500460148E-002;3.397083492018282E-004;5.433546844869852E-003;
2.403666666666667E+009;1.698769927024841E-001;1.260739378631115E-002;7.861061603762209E-004;5.329154431819916E-003;
2.403833333333334E+009;1.708981096744537E-001;1.114006061106920E-002;9.963120101019740E-004;5.398473702371121E-003;
2.404000000000000E+009;1.715962439775467E-001;1.009794604033232E-002;1.284551457501948E-003;5.247480235993862E-003;
2.404166666666667E+009;1.723524630069733E-001;8.743992075324059E-003;1.508544199168682E-003;5.139854270964861E-003;
2.404333333333334E+009;1.731150597333908E-001;7.627189625054598E-003;1.838764408603311E-003;5.091732367873192E-003;
2.404500000000000E+009;1.738215982913971E-001;6.471495609730482E-003;2.021564636379480E-003;4.917433485388756E-003;
2.404666666666667E+009;1.746700853109360E-001;5.745570641011000E-003;2.181352116167545E-003;4.606085829436779E-003;
2.404833333333334E+009;1.752873510122299E-001;4.723513964563608E-003;2.378804376348853E-003;4.681174643337727E-003;
2.405000000000000E+009;1.760776042938232E-001;3.940246999263763E-003;2.834482816979289E-003;4.444647580385208E-003;
2.405166666666667E+009;1.767727583646774E-001;3.280123695731163E-003;3.028997220098972E-003;4.348967224359512E-003;
2.405333333333334E+009;1.776108443737030E-001;2.535094507038593E-003;3.201303305104375E-003;4.018438979983330E-003;
2.405500000000000E+009;1.780607998371124E-001;2.160512376576662E-003;3.265505656599999E-003;3.893101355060935E-003;
2.405666666666667E+009;1.785793304443359E-001;1.639169408008456E-003;3.453015116974711E-003;3.742757719010115E-003;
2.405833333333334E+009;1.789199411869049E-001;1.334687462076545E-003;3.739138133823872E-003;3.333688713610172E-003;
2.406000000000000E+009;1.795195639133453E-001;6.741936085745692E-004;3.837572410702705E-003;3.394645638763905E-003;
2.406166666666667E+009;1.798360198736191E-001;5.726389354094863E-004;3.806159133091569E-003;3.127064555883408E-003;
2.406333333333334E+009;1.802893280982971E-001;1.161626933026128E-004;3.863682970404625E-003;2.906060079112649E-003;
2.406500000000000E+009;1.805428117513657E-001;-1.372332772007212E-004;4.030514042824507E-003;2.516619861125946E-003;
2.406666666666667E+009;1.804026365280151E-001;-3.710913879331201E-004;4.095317795872688E-003;2.499922411516309E-003;
2.406833333333334E+009;1.805219948291779E-001;-8.200070005841553E-004;4.134620074182749E-003;2.156540751457214E-003;
2.407000000000000E+009;1.807040274143219E-001;-1.109121832996607E-003;4.242074675858021E-003;1.893621985800564E-003;
2.407166666666667E+009;1.806850135326386E-001;-1.431445474736393E-003;4.232222680002451E-003;1.742395106703043E-003;
2.407333333333334E+009;1.804247498512268E-001;-1.687540207058191E-003;4.178240895271301E-003;1.416454673744738E-003;
2.407500000000000E+009;1.803693175315857E-001;-2.032549120485783E-003;4.143032710999250E-003;1.224235165864229E-003;
2.407666666666667E+009;1.800447404384613E-001;-2.270497847348452E-003;4.279721993952990E-003;1.099479384720326E-003;
2.407833333333334E+009;1.795952469110489E-001;-2.970231696963310E-003;4.253726452589035E-003;8.590602083131671E-004;
2.408000000000000E+009;1.791972517967224E-001;-3.400163725018501E-003;4.225100856274366E-003;6.745820282958448E-004;
2.408166666666667E+009;1.786825209856033E-001;-3.835014300420880E-003;4.162353463470936E-003;3.710970631800592E-004;
2.408333333333334E+009;1.784378886222839E-001;-4.572436213493347E-003;3.978408407419920E-003;2.745329693425447E-004;
2.408500000000000E+009;1.777468472719193E-001;-5.313739646226168E-003;3.987379837781191E-003;1.649515979806893E-005;
2.408666666666667E+009;1.772369146347046E-001;-6.062981672585011E-003;3.871693508699536E-003;-3.580732663976960E-005;
2.408833333333334E+009;1.763702929019928E-001;-6.841045804321766E-003;3.823954379186034E-003;-3.766578738577664E-004;
2.409000000000000E+009;1.757542490959168E-001;-7.722664624452591E-003;3.739756299182773E-003;-4.764991754200310E-004;
2.409166666666667E+009;1.750121563673019E-001;-8.730445057153702E-003;3.512877039611340E-003;-4.817136505153030E-004;
2.409333333333334E+009;1.743427813053131E-001;-9.961225092411041E-003;3.350237617269158E-003;-6.499383016489446E-004;
2.409500000000000E+009;1.734936684370041E-001;-1.115313824266195E-002;3.290529362857342E-003;-7.066457765176892E-004;
2.409666666666667E+009;1.726458221673966E-001;-1.238398160785437E-002;3.267084248363972E-003;-9.081186726689339E-004;
2.409833333333334E+009;1.719565689563751E-001;-1.356454472988844E-002;3.168468363583088E-003;-9.751914185471833E-004;
2.410000000000000E+009;1.713337600231171E-001;-1.486872788518667E-002;3.007585415616632E-003;-1.085373689420521E-003;
2.410166666666667E+009;1.705821007490158E-001;-1.653476059436798E-002;2.765038982033730E-003;-1.312926877290011E-003;
2.410333333333334E+009;1.696911901235580E-001;-1.796280033886433E-002;2.927773632109165E-003;-1.150036114268005E-003;
2.410500000000000E+009;1.693419963121414E-001;-1.969444938004017E-002;2.699654083698988E-003;-1.244658255018294E-003;
2.410666666666667E+009;1.686606854200363E-001;-2.146663144230843E-002;2.577677601948381E-003;-1.372344675473869E-003;
2.410833333333334E+009;1.682019531726837E-001;-2.312348410487175E-002;2.507319673895836E-003;-1.285344595089555E-003;
2.411000000000000E+009;1.675043255090714E-001;-2.490481920540333E-002;2.367646666243672E-003;-1.475017634220421E-003;
2.411166666666667E+009;1.671567112207413E-001;-2.678467519581318E-002;2.259805565699935E-003;-1.400212873704732E-003;
2.411333333333334E+009;1.667172610759735E-001;-2.882553264498711E-002;2.184650627896190E-003;-1.428067800588906E-003;
2.411500000000000E+009;1.663828939199448E-001;-3.061431460082531E-002;2.043946180492640E-003;-1.384392264299095E-003;
2.411666666666667E+009;1.661883443593979E-001;-3.254290670156479E-002;2.129838103428483E-003;-1.540816039778292E-003;
2.411833333333334E+009;1.660591512918472E-001;-3.447415679693222E-002;2.116208197548986E-003;-1.494730357080698E-003;
2.412000000000000E+009;1.659318357706070E-001;-3.647125884890556E-002;2.151623135432601E-003;-1.513955299742520E-003;
2.412166666666667E+009;1.658015698194504E-001;-3.841296955943108E-002;2.012230455875397E-003;-1.566641847603023E-003;
2.412333333333334E+009;1.661019176244736E-001;-4.040974378585815E-002;1.906594727188349E-003;-1.632285653613508E-003;
2.412500000000000E+009;1.658489108085632E-001;-4.230391234159470E-002;1.763128791935742E-003;-1.680866465903819E-003;
2.412666666666667E+009;1.662936210632324E-001;-4.428076744079590E-002;1.684735179878771E-003;-1.797031378373504E-003;
2.412833333333334E+009;1.664012521505356E-001;-4.607935622334480E-002;1.557664712890983E-003;-1.915932632982731E-003;
2.413000000000000E+009;1.666166037321091E-001;-4.787040501832962E-002;1.654474181123078E-003;-1.886116107925773E-003;
2.413166666666667E+009;1.667899489402771E-001;-4.979786649346352E-002;1.577485818415880E-003;-1.899783150292933E-003;
2.413333333333334E+009;1.670484840869904E-001;-5.151155591011047E-002;1.497219898737967E-003;-1.884269062429667E-003;
2.413500000000000E+009;1.675228327512741E-001;-5.317043513059616E-002;1.345642493106425E-003;-2.020248910412192E-003;
2.413666666666667E+009;1.678347438573837E-001;-5.484259873628616E-002;1.222230610437691E-003;-2.099936129525304E-003;
2.413833333333334E+009;1.683360636234283E-001;-5.616500228643417E-002;1.198405050672591E-003;-2.151523949578404E-003;
2.414000000000000E+009;1.687170714139938E-001;-5.788868665695190E-002;1.063230796717107E-003;-2.199414884671569E-003;
2.414166666666667E+009;1.694038808345795E-001;-5.911335721611977E-002;7.956129848025739E-004;-2.311699092388153E-003;
2.414333333333334E+009;1.698133945465088E-001;-6.050207093358040E-002;7.670041522942483E-004;-2.291697310283780E-003;
2.414500000000000E+009;1.702739596366882E-001;-6.157200038433075E-002;7.380098104476929E-004;-2.273095771670342E-003;
2.414666666666667E+009;1.709927767515183E-001;-6.276234239339829E-002;6.484657060354948E-004;-2.176557667553425E-003;
2.414833333333334E+009;1.712728142738342E-001;-6.382291018962860E-002;4.766546771861613E-004;-2.253155224025250E-003;
2.415000000000000E+009;1.716308742761612E-001;-6.464481353759766E-002;2.616072306409478E-004;-2.277148189023137E-003;
2.415166666666667E+009;1.720948219299316E-001;-6.555112451314926E-002;6.951045361347497E-005;-2.168627688661218E-003;
2.415333333333334E+009;1.725820899009705E-001;-6.638657301664352E-002;-4.042470027343370E-005;-2.001868328079581E-003;
2.415500000000000E+009;1.728273928165436E-001;-6.701159477233887E-002;-1.255643001059070E-004;-2.186099532991648E-003;
2.415666666666667E+009;1.732128858566284E-001;-6.757448613643646E-002;-3.810653870459646E-004;-2.024266403168440E-003;
2.415833333333334E+009;1.734426617622376E-001;-6.796190142631531E-002;-3.608338302001357E-004;-2.002524212002754E-003;
2.416000000000000E+009;1.734578609466553E-001;-6.856686621904373E-002;-4.578827647492290E-004;-1.822013873606920E-003;
2.416166666666667E+009;1.736716777086258E-001;-6.889076530933380E-002;-5.777465994469822E-004;-1.794481766410172E-003;
2.416333333333334E+009;1.736359000205994E-001;-6.920344382524490E-002;-6.930951494723558E-004;-1.658214372582734E-003;
2.416500000000000E+009;1.736377030611038E-001;-6.960994005203247E-002;-7.418969762511551E-004;-1.574732712469995E-003;
2.416666666666667E+009;1.734368354082108E-001;-6.981913000345230E-002;-8.281390764750540E-004;-1.600399613380432E-003;
2.416833333333334E+009;1.732898801565170E-001;-7.008973509073257E-002;-7.786844507791102E-004;-1.547518884763122E-003;
2.417000000000000E+009;1.727494746446610E-001;-7.036466151475906E-002;-8.679369348101318E-004;-1.370393438264728E-003;
2.417166666666667E+009;1.724819988012314E-001;-7.039172947406769E-002;-8.996970718726516E-004;-1.412028912454844E-003;
2.417333333333334E+009;1.719955801963806E-001;-7.052691280841827E-002;-9.595376905053854E-004;-1.126084593124688E-003;
2.417500000000000E+009;1.713884621858597E-001;-7.083794474601746E-002;-1.207433757372201E-003;-1.115839579142630E-003;
2.417666666666667E+009;1.707987934350967E-001;-7.088560611009598E-002;-1.129940617829561E-003;-9.059862350113690E-004;
2.417833333333334E+009;1.700583547353745E-001;-7.112152129411697E-002;-1.190882991068065E-003;-9.324568673036993E-004;
2.418000000000000E+009;1.692011207342148E-001;-7.135124504566193E-002;-1.312364125624299E-003;-7.265275344252586E-004;
2.418166666666667E+009;1.682725995779038E-001;-7.141020148992539E-002;-1.243953010998666E-003;-7.222637650556862E-004;
2.418333333333334E+009;1.675843000411987E-001;-7.180342078208923E-002;-1.391903846524656E-003;-5.077744717709720E-004;
2.418500000000000E+009;1.663054823875427E-001;-7.217787951231003E-002;-1.329203718341887E-003;-4.413593560457230E-004;
2.418666666666667E+009;1.654150187969208E-001;-7.253740727901459E-002;-1.265146303921938E-003;-2.841044624801725E-004;
2.418833333333334E+009;1.640169918537140E-001;-7.294541597366333E-002;-1.232352340593934E-003;-2.388724242337048E-004;
2.419000000000000E+009;1.627866774797440E-001;-7.333272695541382E-002;-1.183852087706327E-003;7.234446820802987E-005;
2.419166666666667E+009;1.615586280822754E-001;-7.405404001474381E-002;-1.225762418471277E-003;1.184581851703115E-004;
2.419333333333334E+009;1.603291332721710E-001;-7.441138476133347E-002;-1.297776354476810E-003;6.778696115361527E-005;
2.419500000000000E+009;1.590306907892227E-001;-7.525341957807541E-002;-1.092705526389182E-003;3.783129504881799E-004;
2.419666666666667E+009;1.579041928052902E-001;-7.613945007324219E-002;-1.149042625911534E-003;3.609849954955280E-004;
2.419833333333334E+009;1.565436422824860E-001;-7.675600796937943E-002;-1.096065156161785E-003;4.624460707418621E-004;
2.420000000000000E+009;1.554863601922989E-001;-7.768187671899796E-002;-9.849413763731718E-004;5.761450156569481E-004;
2.420166666666667E+009;1.541219800710678E-001;-7.881762832403183E-002;-8.725388324819505E-004;6.925248308107257E-004;
2.420333333333334E+009;1.530283242464066E-001;-7.995530962944031E-002;-8.144269231706858E-004;8.181864977814257E-004;
2.420500000000000E+009;1.519025713205338E-001;-8.088331669569016E-002;-6.846794858574867E-004;7.674124790355563E-004;
2.420666666666667E+009;1.507422626018524E-001;-8.218950033187866E-002;-6.591251585632563E-004;9.163627400994301E-004;
2.420833333333334E+009;1.496277004480362E-001;-8.349823206663132E-002;-5.262611084617674E-004;1.065687625668943E-003;
2.421000000000000E+009;1.486372798681259E-001;-8.497294038534164E-002;-2.721553319133818E-004;1.269113738089800E-003;
2.421166666666667E+009;1.476325541734695E-001;-8.625733852386475E-002;-4.237715329509229E-004;1.119255088269711E-003;
2.421333333333334E+009;1.468787789344788E-001;-8.778912574052811E-002;-2.649223315529525E-004;1.316389883868396E-003;
2.421500000000000E+009;1.460481435060501E-001;-8.945345878601074E-002;4.388333036331460E-005;1.279502408578992E-003;
2.421666666666667E+009;1.453651040792465E-001;-9.119013696908951E-002;1.014375302474946E-004;1.221355050802231E-003;
2.421833333333334E+009;1.447418034076691E-001;-9.272086620330811E-002;1.305837649852037E-004;1.341811032034457E-003;
2.422000000000000E+009;1.441626697778702E-001;-9.430460631847382E-002;1.819473545765504E-004;1.298162853345275E-003;
2.422166666666667E+009;1.437194645404816E-001;-9.638503193855286E-002;3.998762695118785E-004;1.219436875544488E-003;
2.422333333333334E+009;1.433361023664475E-001;-9.794841706752777E-002;5.020797252655029E-004;1.401729416102171E-003;
2.422500000000000E+009;1.431124061346054E-001;-9.958125650882721E-002;8.158507407642901E-004;1.150483847595751E-003;
2.422666666666667E+009;1.428921073675156E-001;-1.014861986041069E-001;8.974682423286140E-004;1.202891347929835E-003;
2.422833333333334E+009;1.427509188652039E-001;-1.033308431506157E-001;9.643055382184684E-004;1.152153592556715E-003;
2.423000000000000E+009;1.428043544292450E-001;-1.048364937305450E-001;1.076217042282224E-003;1.142405206337571E-003;
2.423166666666667E+009;1.427133828401566E-001;-1.065886169672012E-001;1.244870247319341E-003;1.205163775011897E-003;
2.423333333333334E+009;1.430169641971588E-001;-1.081622540950775E-001;1.367446966469288E-003;1.016562920995057E-003;
2.423500000000000E+009;1.430822461843491E-001;-1.099368929862976E-001;1.387816853821278E-003;8.008424192667007E-004;
2.423666666666667E+009;1.431764811277390E-001;-1.114445775747299E-001;1.501919701695442E-003;7.297738338820636E-004;
2.423833333333334E+009;1.436709910631180E-001;-1.130671277642250E-001;1.642216928303242E-003;5.484865978360176E-004;
2.424000000000000E+009;1.438210457563400E-001;-1.144297197461128E-001;1.754277036525309E-003;5.799664068035781E-004;
2.424166666666667E+009;1.440604329109192E-001;-1.157760471105576E-001;1.784112188033760E-003;3.846045583486557E-004;
2.424333333333334E+009;1.445595473051071E-001;-1.170623153448105E-001;1.894031418487430E-003;3.324910649098456E-004;
2.424500000000000E+009;1.449776291847229E-001;-1.183404624462128E-001;1.732014119625092E-003;7.393353007500991E-005;
2.424666666666667E+009;1.455549001693726E-001;-1.193793118000031E-001;1.839975477196276E-003;6.720747933286475E-006;
2.424833333333334E+009;1.457077711820602E-001;-1.205483302474022E-001;2.055781427770853E-003;-1.227025495609269E-004;
2.425000000000000E+009;1.462741643190384E-001;-1.215592026710510E-001;2.110077999532223E-003;-1.653423969401047E-004;
2.425166666666667E+009;1.465430557727814E-001;-1.224681958556175E-001;2.052703639492393E-003;-3.359089605510235E-004;
2.425333333333334E+009;1.468927115201950E-001;-1.232270225882530E-001;2.023764885962009E-003;-4.019737825728953E-004;
2.425500000000000E+009;1.473399698734283E-001;-1.239892616868019E-001;1.879516057670116E-003;-6.432622321881354E-004;
2.425666666666667E+009;1.474908143281937E-001;-1.246513202786446E-001;2.066922374069691E-003;-6.797371315769851E-004;
2.425833333333334E+009;1.477373838424683E-001;-1.251585334539414E-001;1.844719401560724E-003;-9.004132007248700E-004;
2.426000000000000E+009;1.480135172605515E-001;-1.256505250930786E-001;1.921848626807332E-003;-7.534006726928055E-004;
2.426166666666667E+009;1.483417153358460E-001;-1.260992288589478E-001;1.848467625677586E-003;-8.489665342494845E-004;
2.426333333333334E+009;1.483312100172043E-001;-1.263328939676285E-001;1.785052707418799E-003;-1.035735476762056E-003;
2.426500000000000E+009;1.483982652425766E-001;-1.265247762203217E-001;1.948658959008753E-003;-1.229299232363701E-003;
2.426666666666667E+009;1.484639942646027E-001;-1.265656799077988E-001;1.906323130242527E-003;-1.221808488480747E-003;
2.426833333333334E+009;1.481924653053284E-001;-1.266878247261047E-001;1.740979496389628E-003;-1.306788180954754E-003;
2.427000000000000E+009;1.479656994342804E-001;-1.269252449274063E-001;1.755175529979169E-003;-1.436006510630250E-003;
2.427166666666667E+009;1.476175785064697E-001;-1.267422586679459E-001;1.705638132989407E-003;-1.485219807364047E-003;
2.427333333333334E+009;1.473397016525269E-001;-1.267948895692825E-001;1.551708439365029E-003;-1.635888591408730E-003;
2.427500000000000E+009;1.468648016452789E-001;-1.269033104181290E-001;1.510147238150239E-003;-1.619413145817816E-003;
2.427666666666667E+009;1.462348252534866E-001;-1.268540769815445E-001;1.535239629447460E-003;-1.639169408008456E-003;
