# Hz S RI R 50
2400000000.0000000000 0.167652994394302395919638115629 0.041207209229469299316406250000 -0.001752960728481411933898925781 0.001384039293043314976933144678 0 0 0 0 
2400166666.6666665077 0.168256044387817410568075615629 0.040457729250192642211914062500 -0.001624145545065402984619140625 0.001465574139729141972185444409 0 0 0 0 
2400333333.3333334923 0.168667256832122802734375000000 0.039351407438516616821289062500 -0.001654008869081736044642783057 0.001298494986258446953417133862 0 0 0 0 
2400500000.0000000000 0.169277474284172113616619981258 0.038490928709506988525390625000 -0.001636149594560265974757529150 0.001134736812673508904100727612 0 0 0 0 
2400666666.6666665077 0.169659093022346496582031250000 0.037519950419664382934570312500 -0.001752782496623694896697998047 0.001295270747505127949955605615 0 0 0 0 
2400833333.3333334923 0.169971808791160611251669365629 0.036754310131072998046875000000 -0.001747058238834142901776957935 0.001041319454088807106018066406 0 0 0 0 
2401000000.0000000000 0.170175984501838711837606865629 0.035727590322494506835937500000 -0.001672457437962294058558798682 0.001089429133571683926823281396 0 0 0 0 
2401166666.6666665077 0.170467615127563504318075615629 0.034895550459623336791992187500 -0.001750614959746598980547260815 0.001189294504001737074611044775 0 0 0 0 
2401333333.3333334923 0.170637309551239013671875000000 0.033890657126903526996652971093 -0.001814935123547912077662802588 0.001087555894628166935564350659 0 0 0 0 
2401500000.0000000000 0.170792236924171503265057481258 0.033075641840696341777761091407 -0.001727057620882987976074218750 0.001107565010897815010668110425 0 0 0 0 
2401666666.6666665077 0.171082034707069396972656250000 0.032227762043476111675222028907 -0.001766154658980668024775839697 0.001095317071303725025774311597 0 0 0 0 
2401833333.3333334923 0.171179458498954800704794365629 0.031270947307348251342773437500 -0.001688113436102866909624409253 0.001093841739930212931392050635 0 0 0 0 
2402000000.0000000000 0.171059265732765197753906250000 0.030462050810456279409388358204 -0.001696160412393509907963418115 0.001338471658527851104736328125 0 0 0 0 
2402166666.6666665077 0.171210676431655911544638115629 0.029308682307600978506068045704 -0.001473455224186182022094726562 0.001185068045742809989331889575 0 0 0 0 
2402333333.3333334923 0.171147182583808898925781250000 0.028366414830088618886927420704 -0.001625451492145657973048544775 0.001262093195691704966901469653 0 0 0 0 
2402500000.0000000000 0.171493709087371798416299384371 0.027688113972544670104980468750 -0.001537966541945934078813862378 0.001341421622782946066615439307 0 0 0 0 
2402666666.6666665077 0.171357154846191406250000000000 0.026337387040257450449010079296 -0.001391252619214355945587158203 0.001401945715770124955418252100 0 0 0 0 
2402833333.3333334923 0.171257406473159790039062500000 0.025570042431354519235631173046 -0.001271823886781930923461914062 0.001227474771440028927446674878 0 0 0 0 
2403000000.0000000000 0.171124279499054010589276231258 0.024446327239274978637695312500 -0.001201654202304780916926718604 0.001171723823063075976130820166 0 0 0 0 
2403166666.6666665077 0.171217098832130404373330634371 0.023196930065751079214075858204 -0.001201242790557444095611572266 0.000971672183368355035781860352 0 0 0 0 
2403333333.3333334923 0.171153604984283502776776231258 0.022215988487005230295201485546 -0.001221803715452552058576274341 0.000964013102930039167404174805 0 0 0 0 
2403500000.0000000000 0.170786693692207308670205634371 0.021059282124042510986328125000 -0.001301318756304681084276508862 0.000939897960051894187927246094 0 0 0 0 
2403666666.6666665077 0.170845523476600702483807481258 0.019612180069088939321497733204 -0.000983096077106893062591552734 0.000774491112679243087768554688 0 0 0 0 
2403833333.3333334923 0.170940071344375610351562500000 0.018416427075862891460378278907 -0.001318945200182497935054160010 0.000914794160053133964538574219 0 0 0 0 
2404000000.0000000000 0.170785695314407404143963731258 0.017321299761533740652064139454 -0.001371987746097147898433066260 0.000814833329059183597564697266 0 0 0 0 
2404166666.6666665077 0.170703798532485989669638115629 0.015827644616365429269810860546 -0.001599295646883547089220356519 0.000829263473860919475555419922 0 0 0 0 
2404333333.3333334923 0.170571818947792108733807481258 0.014533786103129390371302420704 -0.001509404624812304973602294922 0.000697663810569792985916137695 0 0 0 0 
2404500000.0000000000 0.170525491237640408614950615629 0.013169550336897369730015938671 -0.001717002131044865088221884619 0.000716059759724885225296020508 0 0 0 0 
2404666666.6666665077 0.170457109808921786209268134371 0.011961790733039380854596522852 -0.001829094602726399898529052734 0.000807324948254972696304321289 0 0 0 0 
2404833333.3333334923 0.170482531189918490310830634371 0.010546547360718250274658203125 -0.001981833251193166212794638525 0.001043663709424436092376708984 0 0 0 0 
2405000000.0000000000 0.170355528593063410003338731258 0.008929053321480751037597656250 -0.002006527269259095191955566406 0.000984339625574648380279541016 0 0 0 0 
2405166666.6666665077 0.170306131243705805022869981258 0.007484002504497767362112714551 -0.002025916008278727965113974463 0.001320984098128974004032754053 0 0 0 0 
2405333333.3333334923 0.170343130826950100997763115629 0.005688870791345834732055664062 -0.001977667445316911177394247900 0.001151359407231212095973349463 0 0 0 0 
2405500000.0000000000 0.170376077294349698165731865629 0.004292370751500129699707031250 -0.002062443876639008955714560400 0.001208511879667639949201274341 0 0 0 0 
2405666666.6666665077 0.170503050088882501800213731258 0.002847831463441253142115927588 -0.002157432725653051896336220850 0.001377934822812675996067666162 0 0 0 0 
2405833333.3333334923 0.170169800519943209549111884371 0.001277506118640304045436240088 -0.002370174042880535125732421875 0.001596502377651632048963237231 0 0 0 0 
2406000000.0000000000 0.170226350426673889160156250000 -0.000444873119704425280720311298 -0.002046152949333190917968750000 0.001647764816880225918413471753 0 0 0 0 
2406166666.6666665077 0.169954195618629511077557481258 -0.001771153067238629081128764575 -0.002191425999626516862156533350 0.001873317523859441063524555737 0 0 0 0 
2406333333.3333334923 0.170158773660659790039062500000 -0.003378179622814058823826455225 -0.001997683197259902954101562500 0.001971730031073092980625771631 0 0 0 0 
2406500000.0000000000 0.169852942228317288497763115629 -0.005078789778053761395926191113 -0.002008791314437984986546181787 0.001944138784892857074737548828 0 0 0 0 
2406666666.6666665077 0.169541537761688204666299384371 -0.006554676685482264432425214551 -0.002052258467301725907566689600 0.002192994346842170195338583838 0 0 0 0 
2406833333.3333334923 0.169576272368431091308593750000 -0.008092143572866916656494140625 -0.002331656403839588165283203125 0.002269101329147816138026572119 0 0 0 0 
2407000000.0000000000 0.169353395700454711914062500000 -0.009568481706082820892333984375 -0.002121262252330780029296875000 0.002486775629222393035888671875 0 0 0 0 
2407166666.6666665077 0.169279903173446710784588731258 -0.010925021953880790365198905079 -0.002088239416480063958408974756 0.002535446546971797943115234375 0 0 0 0 
2407333333.3333334923 0.168831378221511813064736884371 -0.012285571545362470799456211523 -0.002041349420323967933654785156 0.002612049924209713935852050781 0 0 0 0 
2407500000.0000000000 0.168767318129539489746093750000 -0.013431989587843419856061366602 -0.001916366512887180068372416919 0.002909716218709946112391806494 0 0 0 0 
2407666666.6666665077 0.168550074100494412521200615629 -0.014600127935409549367884451954 -0.001865490572527050971984863281 0.003128049662336707115173339844 0 0 0 0 
2407833333.3333334923 0.168350264430046109298544365629 -0.015826981514692309988001639454 -0.001701784902252257087110209888 0.003033005399629474119899130713 0 0 0 0 
2408000000.0000000000 0.168208092451095608810263115629 -0.016949452459812160837193673046 -0.001577617716975509903551411206 0.003186595393344759941101074219 0 0 0 0 
2408166666.6666665077 0.168049529194831903655682481258 -0.017720997333526611328125000000 -0.001372845028527081012725830078 0.003392031649127603010890341650 0 0 0 0 
2408333333.3333334923 0.168173849582672091385049384371 -0.018739545717835429800013358204 -0.001147082773968576951267861475 0.003418021136894822120666503906 0 0 0 0 
2408500000.0000000000 0.167954117059707613845986884371 -0.019557274878025058401087576954 -0.001093466533347964069963764722 0.003312551649287343025207519531 0 0 0 0 
2408666666.6666665077 0.167990028858184786697549384371 -0.020524343475699431682546247657 -0.000835259445011615753173828125 0.003411606187000871138331747900 0 0 0 0 
2408833333.3333334923 0.167980045080184908767861884371 -0.021390417590737339365025704296 -0.000660696590784937143325805664 0.003490260802209376855137490381 0 0 0 0 
2409000000.0000000000 0.168134853243827792068643134371 -0.022096725180745128286341483204 -0.000657806289382278919219970703 0.003506030188873409791233681787 0 0 0 0 
2409166666.6666665077 0.168390139937400790115518134371 -0.022973967716097831726074218750 -0.000428731378633529002040308820 0.003492205636575818061828613281 0 0 0 0 
2409333333.3333334923 0.168584018945693997482138115629 -0.023971462622284889221191406250 -0.000536530511453747749328613281 0.003661493305116891860961914062 0 0 0 0 
2409500000.0000000000 0.168577805161476107498330634371 -0.024814872071146968496302420704 -0.000334093230776488780975341797 0.003488690126687287850620888818 0 0 0 0 
2409666666.6666665077 0.168654426932334899902343750000 -0.025749877095222469675084298046 -0.000306343106785789077908116473 0.003629246028140186829807900537 0 0 0 0 
2409833333.3333334923 0.168792277574539212325888115629 -0.026535591110587120056152343750 -0.000012459054232749620621102486 0.003514618845656514167785644531 0 0 0 0 
2410000000.0000000000 0.168931677937507601638955634371 -0.027580304071307178842564766796 0.000073822899139486253261566162 0.003567699808627367019653320312 0 0 0 0 
2410166666.6666665077 0.168995290994644192794638115629 -0.028397087007761001586914062500 0.000003259495542806690050985060 0.003573127789422870115992880713 0 0 0 0 
2410333333.3333334923 0.168895289301872308929119981258 -0.029335120692849159240722656250 0.000075617273978423327207565308 0.003702543443068861961364746094 0 0 0 0 
2410500000.0000000000 0.168893799185752896407919365629 -0.030326230451464649545689766796 0.000079028759500943124294281006 0.003675751155242323875427246094 0 0 0 0 
2410666666.6666665077 0.168907031416893005371093750000 -0.031350512057542800903320312500 0.000505643954966217279434204102 0.003623267868533730940577841650 0 0 0 0 
2410833333.3333334923 0.168812796473503112792968750000 -0.032225769013166427612304687500 0.000491861952468752861022949219 0.003645778400823473930358886719 0 0 0 0 
2411000000.0000000000 0.168660953640937805175781250000 -0.033135619014501571655273437500 0.000650639762170612812042236328 0.003629147075116633935215615381 0 0 0 0 
2411166666.6666665077 0.168346703052520807464276231258 -0.033894933760166168212890625000 0.000779725844040513038635253906 0.003636551322415471076965332031 0 0 0 0 
2411333333.3333334923 0.168260440230369595626669365629 -0.034780859947204589843750000000 0.000795645581092685461044311523 0.003702332964166998863220214844 0 0 0 0 
2411500000.0000000000 0.167856201529502896407919365629 -0.035730175673961639404296875000 0.000921281869523227214813232422 0.003707787953317164941074990381 0 0 0 0 
2411666666.6666665077 0.167779788374900790115518134371 -0.036679852753877639770507812500 0.001040600705891848044154501807 0.003773451782763003869297646631 0 0 0 0 
2411833333.3333334923 0.167620226740837097167968750000 -0.037566155195236212993581403907 0.001131232827901839993120503003 0.003743401030078529877903603662 0 0 0 0 
2412000000.0000000000 0.167381852865219088455361884371 -0.038585316389799118041992187500 0.001350478734821080944658588940 0.003778364975005387826206826318 0 0 0 0 
2412166666.6666665077 0.166932478547096307952557481258 -0.039460271596908569335937500000 0.001516841119155287959455180591 0.003721177577972412109375000000 0 0 0 0 
2412333333.3333334923 0.166913598775863702972088731258 -0.040340770035982131958007812500 0.001720922533422708945033408057 0.003837024560198187828063964844 0 0 0 0 
2412500000.0000000000 0.166422441601753207107705634371 -0.041297495365142822265625000000 0.001839220989495516040204692310 0.003625424113124608993530273438 0 0 0 0 
2412666666.6666665077 0.166204065084457397460937500000 -0.042449068278074271465261091407 0.002197478665038942857029580225 0.003626445541158318953273154150 0 0 0 0 
2412833333.3333334923 0.165875598788261413574218750000 -0.043581008911132812500000000000 0.002267773030325769944431923975 0.003645368386059999899623251807 0 0 0 0 
2413000000.0000000000 0.165288940072059603592080634371 -0.044422861188650131225585937500 0.002428197301924229101893759619 0.003537208773195743994471884619 0 0 0 0 
2413166666.6666665077 0.165074080228805486481036268742 -0.045470576733350746845285783593 0.002591702621430159048793173682 0.003402503672987223105189658057 0 0 0 0 
2413333333.3333334923 0.164323329925537109375000000000 -0.046609945595264441753347028907 0.002858285326510667800903320312 0.003268156433477998213527060400 0 0 0 0 
2413500000.0000000000 0.164130493998527499099893134371 -0.047527723014354712749440778907 0.003110878402367233796360634912 0.003070956328883767127990722656 0 0 0 0 
2413666666.6666665077 0.163818180561065701583700615629 -0.048658452928066246723215471093 0.003179830498993397192714072119 0.002835717983543872833251953125 0 0 0 0 
2413833333.3333334923 0.163309946656227111816406250000 -0.049571875482797622680664062500 0.003307341132313013076782226562 0.002704794285818934006931923975 0 0 0 0 
2414000000.0000000000 0.162554472684860201736611884371 -0.050643250346183776855468750000 0.003583651268854736848118447412 0.002562927547842264175415039062 0 0 0 0 
2414166666.6666665077 0.162430092692375210861044365629 -0.051418203860521323467214216407 0.003638300113379954858067177881 0.002296510152518748803379677881 0 0 0 0 
2414333333.3333334923 0.162008285522460909744424384371 -0.052586667239665992046315778907 0.003769233822822570800781250000 0.002139455871656537055969238281 0 0 0 0 
2414500000.0000000000 0.161927014589309692382812500000 -0.053465582430362701416015625000 0.003649903461337089972255087744 0.001867698505520821051356650244 0 0 0 0 
2414666666.6666665077 0.161569505929946899414062500000 -0.054463479667901992797851562500 0.003738773288205265998840332031 0.001669659628532826900482177734 0 0 0 0 
2414833333.3333334923 0.161237880587577792068643134371 -0.055589180439710617065429687500 0.003755479352548718886134482275 0.001391297439113259098650288159 0 0 0 0 
2415000000.0000000000 0.161033838987350491622763115629 -0.056544099003076553344726562500 0.003666684729978442192077636719 0.001315283123403788046595908057 0 0 0 0 
2415166666.6666665077 0.160858526825904901702557481258 -0.057605743408203131938893903907 0.003732248675078154043910361182 0.001024526660330594019648886572 0 0 0 0 
2415333333.3333334923 0.160843625664710998535156250000 -0.058752439916133880615234375000 0.003707721130922437147853232275 0.000719002389814704656600952148 0 0 0 0 
2415500000.0000000000 0.160612970590591402908486884371 -0.059751864522695541381835937500 0.003616336965933442115783691406 0.000696301925927400588989257812 0 0 0 0 
2415666666.6666665077 0.160410493612289400955361884371 -0.060969196259975433349609375000 0.003414468839764595031738281250 0.000460360955912619774967747821 0 0 0 0 
2415833333.3333334923 0.160386040806770296951455634371 -0.062180649489164352416992187500 0.003367286408320068879368447412 0.000245736533543094992637634277 0 0 0 0 
2416000000.0000000000 0.159985974431037902832031250000 -0.063354276120662689208984375000 0.003164221765473484992980957031 0.000152692809933796497896471567 0 0 0 0 
2416166666.6666665077 0.159879595041274996658486884371 -0.064626224339008331298828125000 0.002986804815009235902073525537 0.000005436748324427753686904907 0 0 0 0 
2416333333.3333334923 0.159782037138938903808593750000 -0.065735690295696258544921875000 0.002962712664157152175903320312 -0.000064839834521990269422531128 0 0 0 0 
2416500000.0000000000 0.159417256712913513183593750000 -0.067039586603641510009765625000 0.002730974229052662849426269531 0.000105045393866021199665884700 0 0 0 0 
2416666666.6666665077 0.159193098545074490646200615629 -0.068094313144683837890625000000 0.002643056912347673936131142725 -0.000099413351563271135091781616 0 0 0 0 
2416833333.3333334923 0.158899113535880986969317518742 -0.069300808012485504150390625000 0.002623066538944839997532509912 0.000208285957342013689592638559 0 0 0 0 
2417000000.0000000000 0.158446267247200012207031250000 -0.070422098040580749511718750000 0.002529931487515569166896201025 0.000065847707446664571762084961 0 0 0 0 
2417166666.6666665077 0.158152058720588711837606865629 -0.071399264037609100341796875000 0.002503330586478114128112792969 0.000021195633962634019553661346 0 0 0 0 
2417333333.3333334923 0.157751232385635403732138115629 -0.072334386408329010009765625000 0.002467823214828968048095703125 0.000173866210388951003551483154 0 0 0 0 
2417500000.0000000000 0.157454177737235995193643134371 -0.073471613228321075439453125000 0.002444539684802294211146689307 0.000138634641189128187581738882 0 0 0 0 
2417666666.6666665077 0.157199651002883911132812500000 -0.074187725782394409179687500000 0.002523209666833281950709677588 0.000216482658288441598415374756 0 0 0 0 
2417833333.3333334923 0.156849384307861300369424384371 -0.075039997696876525878906250000 0.002508748322725296020507812500 0.000170425220858305692672729492 0 0 0 0 
2418000000.0000000000 0.156575322151184109786825615629 -0.075997874140739440917968750000 0.002575977938249706788303994287 0.000124372454592958092689514160 0 0 0 0 
2418166666.6666665077 0.156177282333373995681924384371 -0.076636128127574920654296875000 0.002543317386880517005920410156 -0.000062659943068865686655044556 0 0 0 0 
2418333333.3333334923 0.156124532222747802734375000000 -0.077513940632343292236328125000 0.002579788910225034193751669775 -0.000081907375715672969818115234 0 0 0 0 
2418500000.0000000000 0.155688598752021789550781250000 -0.078243494033813476562500000000 0.002650430426001549200770712744 0.000054693769925506792288234098 0 0 0 0 
2418666666.6666665077 0.155390411615371704101562500000 -0.079100854694843292236328125000 0.002574939280748366875889443506 -0.000060990503698121763091494901 0 0 0 0 
2418833333.3333334923 0.155115768313407897949218750000 -0.079825282096862792968750000000 0.002754749264568090005161904443 -0.000194248292245902093961992807 0 0 0 0 
2419000000.0000000000 0.154574602842330904861611884371 -0.080604441463947296142578125000 0.002737120259553194046020507812 -0.000154954090248793390676221304 0 0 0 0 
2419166666.6666665077 0.154296711087226895431356865629 -0.081193491816520690917968750000 0.002729772357270122008082724463 -0.000215270265471190187052050180 0 0 0 0 
2419333333.3333334923 0.153807029128074701507244981258 -0.081653669476509094238281250000 0.002686743624508380889892578125 -0.000256226980127394199371337891 0 0 0 0 
2419500000.0000000000 0.153541237115860013107138115629 -0.082489930093288421630859375000 0.002754990011453628973719931494 -0.000332901050569489598274230957 0 0 0 0 
2419666666.6666665077 0.153351768851280212402343750000 -0.083134293556213378906250000000 0.002619139151647686958312988281 -0.000381390389520674889713841571 0 0 0 0 
2419833333.3333334923 0.152732521295547513107138115629 -0.083453945815563201904296875000 0.002739321207627654075622558594 -0.000562765868380665779113769531 0 0 0 0 
