# Hz S RI R 
2400000000.0000000000 0.168388828635215787032919365629 0.039481125771999359130859375000 0.002245601732283831076381064307 0.000090427551185712218284606934 0 0 0 0 
2400166666.6666665077 0.169151246547699002364950615629 0.038811456412076950073242187500 0.002298831474035977883579873193 0.000070780224632471799850463867 0 0 0 0 
2400333333.3333334923 0.169809371232986505706463731258 0.037891604006290442729909528907 0.002192867221310735182521201025 0.000023698308723396621644496918 0 0 0 0 
2400500000.0000000000 0.170347258448600796798544365629 0.037112526595592498779296875000 0.002147496445104479789733886719 0.000138318573590368005350390024 0 0 0 0 
2400666666.6666665077 0.170979082584381103515625000000 0.036189887672662741924245466407 0.002171541098505258993861533057 0.000032072643080027767200062411 0 0 0 0 
2400833333.3333334923 0.171492069959640502929687500000 0.035532128065824508666992187500 0.002150489483028649850132607568 0.000136680580908432602882385254 0 0 0 0 
2401000000.0000000000 0.171724289655685397049111884371 0.034665342420339577411692033593 0.002353288466110825972316122900 0.000123573539895005497053423471 0 0 0 0 
2401166666.6666665077 0.172102943062782287597656250000 0.033917795866727828979492187500 0.002310607116669415993931435693 -0.000004972733222530222582170086 0 0 0 0 
2401333333.3333334923 0.172417894005775507171307481258 0.033237688243389129638671875000 0.002260202076286077933070517432 -0.000009001130820252001285552979 0 0 0 0 
2401500000.0000000000 0.172842592000961303710937500000 0.032443810254335403442382812500 0.002227314282208681106567382812 -0.000028134951207903210410867997 0 0 0 0 
2401666666.6666665077 0.172851696610450689117755018742 0.031924609094858169555664062500 0.002203536219894886016845703125 0.000105669882032088894717632155 0 0 0 0 
2401833333.3333334923 0.173112854361534090896768134371 0.030993018299341198312779610546 0.002291340846568346023559570312 0.000047026249376358457583973544 0 0 0 0 
2402000000.0000000000 0.173076853156089810470419365629 0.030413221567869189870814139454 0.002336916513741015954258584131 -0.000124412516015581786632537842 0 0 0 0 
2402166666.6666665077 0.173275798559188787262286268742 0.029500942677259448659876639454 0.002500175265595316886901855469 -0.000079773919424042105674743652 0 0 0 0 
2402333333.3333334923 0.173419222235679598709268134371 0.028725044801831248891810233204 0.002448429353535174889805459131 -0.000187207682756707099363049918 0 0 0 0 
2402500000.0000000000 0.173420056700706509689169365629 0.027878278866410258901575858204 0.002493002917617558999302529443 -0.000383926962967962026596069336 0 0 0 0 
2402666666.6666665077 0.173460587859153803069744981258 0.027067584916949268686314766796 0.002437864663079380989074707031 -0.000323784624924883300631922589 0 0 0 0 
2402833333.3333334923 0.173130229115486200530682481258 0.026360988616943359375000000000 0.002482116688042879104614257812 -0.000530700257513672113418579102 0 0 0 0 
2403000000.0000000000 0.173003792762756403167401231258 0.025398459285497668874720389454 0.002510905265808105902430868994 -0.000596567289903759956359863281 0 0 0 0 
2403166666.6666665077 0.173154160380363492111044365629 0.024355033412575718271275704296 0.002561789471656084060668945312 -0.000688039232045412063598632812 0 0 0 0 
2403333333.3333334923 0.172884851694107111175213731258 0.023441292345523830759068673046 0.002576230326667428016662597656 -0.000902427709661424160003662109 0 0 0 0 
2403500000.0000000000 0.172574639320373507400674384371 0.022492077201604839670201485546 0.002513323444873094992396689307 -0.000980079523287713527679443359 0 0 0 0 
2403666666.6666665077 0.172377943992614801604901231258 0.021238379180431369436243826954 0.002536932472139596939086914062 -0.001010284293442964987513876807 0 0 0 0 
2403833333.3333334923 0.172408312559127807617187500000 0.020052969455718990671178048046 0.002505435608327389197108603369 -0.001111623132601379914524697412 0 0 0 0 
2404000000.0000000000 0.172024995088577298263388115629 0.018976747989654541015625000000 0.002406001789495348930358886719 -0.001121244509704411029815673828 0 0 0 0 
2404166666.6666665077 0.171646669507026700118856865629 0.017609186470508578908900076954 0.002482789335772395133972167969 -0.001201951527036726908442831885 0 0 0 0 
2404333333.3333334923 0.171344220638275201995526231258 0.016519626602530479431152343750 0.002405497711151837868931435693 -0.001292342669330537102342915112 0 0 0 0 
2404500000.0000000000 0.171127513051032992263955634371 0.015092972666025160008440586523 0.002514354186132549805882119287 -0.001425427384674549102783203125 0 0 0 0 
2404666666.6666665077 0.171005234122276306152343750000 0.013798877596855160104771798046 0.002473307307809590859654091943 -0.001418845378793776035308837891 0 0 0 0 
2404833333.3333334923 0.170678973197937011718750000000 0.012250889092683790379534336523 0.002400524448603392081019736182 -0.001621581497602164962171245044 0 0 0 0 
2405000000.0000000000 0.170433714985847500900106865629 0.010816190391778949392298514454 0.002320274477824569182154990088 -0.001606278936378658034681010669 0 0 0 0 
2405166666.6666665077 0.170340687036514309982138115629 0.009376762434840202331542968750 0.002272252459079027175903320312 -0.001716669648885726928710937500 0 0 0 0 
2405333333.3333334923 0.170238852500915499588174384371 0.007585247512906789779663085938 0.002325471956282854080200195312 -0.002028523944318294958827353369 0 0 0 0 
2405500000.0000000000 0.169909909367561312576455634371 0.006096483208239079389090253613 0.002219864167273045019862509619 -0.002077057724818586869480752100 0 0 0 0 
2405666666.6666665077 0.169874027371406610686932481258 0.004474089015275239944458007812 0.002096754964441061019897460938 -0.002174132969230413003208779443 0 0 0 0 
2405833333.3333334923 0.169544011354446411132812500000 0.002824186813086270852329873193 0.002004769863560795783996582031 -0.002429643413051962852478027344 0 0 0 0 
2406000000.0000000000 0.169402271509170504470986884371 0.000983508070930838584899902344 0.002149842679500579833984375000 -0.002304049441590905189514160156 0 0 0 0 
2406166666.6666665077 0.169080361723899813553018134371 -0.000497090222779661417007446289 0.001784722786396742083905864185 -0.002509121550247073173522949219 0 0 0 0 
2406333333.3333334923 0.168955996632575988769531250000 -0.002334404969587922096252441406 0.001886408077552915053126669775 -0.002721960190683602853062295068 0 0 0 0 
2406500000.0000000000 0.168699830770492609222088731258 -0.004072166047990322113037109375 0.001552612753584980964660644531 -0.002743006916716694831848144531 0 0 0 0 
2406666666.6666665077 0.168327555060386713225994981258 -0.005626874044537544250488281250 0.001544848899357021071790385669 -0.002962598344311118125915527344 0 0 0 0 
2406833333.3333334923 0.168285265564918490310830634371 -0.007324823644012212753295898438 0.001327166450209916071650839697 -0.002877292223274707794189453125 0 0 0 0 
2407000000.0000000000 0.168015956878662109375000000000 -0.009028129279613494873046875000 0.001277785864658653952954936450 -0.002891638083383440971374511719 0 0 0 0 
2407166666.6666665077 0.167870327830314608474893134371 -0.010566783137619500596016131055 0.001191459479741751930834126050 -0.002968493616208434104919433594 0 0 0 0 
2407333333.3333334923 0.167537093162536593338174384371 -0.012143708765506739180595197070 0.000915780838113278150558471680 -0.002830859739333391189575195312 0 0 0 0 
2407500000.0000000000 0.167393326759338406661825615629 -0.013466075994074349839180193555 0.000806926342193037271499633789 -0.002958768978714942932128906250 0 0 0 0 
2407666666.6666665077 0.167314752936363192459268134371 -0.014900443144142629450787929102 0.000692912843078374862670898438 -0.003147022565826774077174521338 0 0 0 0 
2407833333.3333334923 0.166992217302322387695312500000 -0.016373619437217708932896798046 0.000492693332489579916000366211 -0.002888889983296393914463662256 0 0 0 0 
2408000000.0000000000 0.167019844055175809005575615629 -0.017531134188175201416015625000 0.000407336454372852986485081805 -0.002969784662127494812011718750 0 0 0 0 
2408166666.6666665077 0.166975468397140502929687500000 -0.018587917089462280273437500000 0.000181343100848607691839495248 -0.002923071151599287986755371094 0 0 0 0 
2408333333.3333334923 0.167131543159484891036825615629 -0.019763607531785968435267264454 0.000038697267882525920867919922 -0.003005273872986435890197753906 0 0 0 0 
2408500000.0000000000 0.167163863778114291092080634371 -0.020937317982316020620325858204 -0.000137424198328517404481610709 -0.002816990017890930175781250000 0 0 0 0 
2408666666.6666665077 0.167368903756141690353231865629 -0.021852698177099231374720389454 -0.000216290674870833808749598370 -0.002810617908835411071777343750 0 0 0 0 
2408833333.3333334923 0.167521774768829401214276231258 -0.022897357121109958993931954296 -0.000382611469831317717402857648 -0.002659147838130592866184853662 0 0 0 0 
2409000000.0000000000 0.167620778083801297286825615629 -0.023734916001558300363560860546 -0.000369106681318953579098302020 -0.002609359798952937126159667969 0 0 0 0 
2409166666.6666665077 0.167973414063453702071981865629 -0.024818733334541320800781250000 -0.000687977182678878307342529297 -0.002627076581120491027832031250 0 0 0 0 
2409333333.3333334923 0.168498739600181607345419365629 -0.025986550375819209707239920704 -0.000669465283863246440887451172 -0.002442078664898871941807412256 0 0 0 0 
2409500000.0000000000 0.168605700135230990310830634371 -0.026886669918894771230677420704 -0.000854257144965231418609619141 -0.002332181669771670861485146631 0 0 0 0 
2409666666.6666665077 0.168796673417091397384481865629 -0.027746040374040600168248360546 -0.000923050101846456527709960938 -0.002285110298544168905970908057 0 0 0 0 
2409833333.3333334923 0.168998792767524691482705634371 -0.028641132637858390808105468750 -0.000832279154565185308456420898 -0.002130014123395084901096963037 0 0 0 0 
2410000000.0000000000 0.169274508953094510177450615629 -0.029523933306336399423619454296 -0.000984813319519162178039550781 -0.001790410722605884075164794922 0 0 0 0 
2410166666.6666665077 0.169446781277656610686932481258 -0.030490290373563769948939139454 -0.000949821609538048505783081055 -0.001687420299276709990260458838 0 0 0 0 
2410333333.3333334923 0.169634699821472195724325615629 -0.031438734382390982891042341407 -0.000804530864115804433822631836 -0.001705232774838804981828999097 0 0 0 0 
2410500000.0000000000 0.169875890016555786132812500000 -0.032225381582975387573242187500 -0.000850593205541372299194335938 -0.001530094072222710089442587744 0 0 0 0 
2410666666.6666665077 0.169829130172729492187500000000 -0.033132351934909820556640625000 -0.000629030400887131690979003906 -0.001556212548166513009312295068 0 0 0 0 
2410833333.3333334923 0.169889420270919799804687500000 -0.033701859414577477191965471093 -0.000694523041602224111557006836 -0.001367388875223696015001606519 0 0 0 0 
2411000000.0000000000 0.169844552874565096756143134371 -0.034736242145299911499023437500 -0.000530799792613834142684936523 -0.001424985122866929011103964697 0 0 0 0 
2411166666.6666665077 0.169744983315467806717080634371 -0.035516016185283660888671875000 -0.000602428859565407037734985352 -0.001340227550826966979383159106 0 0 0 0 
2411333333.3333334923 0.169881299138069208343182481258 -0.036293268203735351562500000000 -0.000360005185939371585845947266 -0.001391794416122138933894492041 0 0 0 0 
2411500000.0000000000 0.169631063938140896896200615629 -0.037157993763685233379323591407 -0.000263893918599933385848999023 -0.001634977408684789917589497144 0 0 0 0 
2411666666.6666665077 0.169759809970855712890625000000 -0.037802979350090026855468750000 -0.000267743656877428293228149414 -0.001649418962188065052032470703 0 0 0 0 
2411833333.3333334923 0.169628366827964810470419365629 -0.038470987230539321899414062500 -0.000207193428650498390197753906 -0.001575483707711101011988974463 0 0 0 0 
2412000000.0000000000 0.169444695115089388748330634371 -0.039435200393199920654296875000 -0.000127799561596475487381535663 -0.001872106920927762985229492188 0 0 0 0 
2412166666.6666665077 0.169250547885894803146200615629 -0.040111567825078957294504533593 -0.000249245174927636981010437012 -0.001861305208876729011535644531 0 0 0 0 
2412333333.3333334923 0.169215947389602688888388115629 -0.040917623788118362426757812500 -0.000278078514384105801582336426 -0.001820194418542087078094482422 0 0 0 0 
2412500000.0000000000 0.168613851070404108245526231258 -0.041580770164728171611745466407 -0.000412408262491226196289062500 -0.002036760328337550163269042969 0 0 0 0 
2412666666.6666665077 0.168511003255844088455361884371 -0.042633406817913062358815778907 -0.000380522134946659207344055176 -0.002222557086497544808628701318 0 0 0 0 
2412833333.3333334923 0.167987644672393798828125000000 -0.043448191136121749877929687500 -0.000612767937127500772476196289 -0.002203985583037137985229492188 0 0 0 0 
2413000000.0000000000 0.167471557855606106857138115629 -0.044121369719505310058593750000 -0.000761173607315868139266967773 -0.002230823971331119971034384619 0 0 0 0 
2413166666.6666665077 0.166939601302146911621093750000 -0.045137695968151092529296875000 -0.000721333140973001718521118164 -0.002423168392851949171779013525 0 0 0 0 
2413333333.3333334923 0.166477546095848111251669365629 -0.045955173671245581890065778907 -0.000775641063228249549865722656 -0.002383631188422441916224814307 0 0 0 0 
2413500000.0000000000 0.165956839919090298751669365629 -0.046942722052335739135742187500 -0.000855608261190354824066162109 -0.002386180683970450921299599756 0 0 0 0 
2413666666.6666665077 0.165526792407035799881143134371 -0.047818362712860107421875000000 -0.001061907387338578917859721606 -0.002417370211333035989048623193 0 0 0 0 
2413833333.3333334923 0.164815634489059503753338731258 -0.048748668283224112773854841407 -0.001218267250806092999101948315 -0.002427810570225120024440146338 0 0 0 0 
2414000000.0000000000 0.164273068308830288986044365629 -0.049797307699918746948242187500 -0.001344624091871082999585795825 -0.002545485273003578186035156250 0 0 0 0 
2414166666.6666665077 0.163844376802444513518963731258 -0.050303265452384948730468750000 -0.001478330232203006961225200122 -0.002505876356735825972316122900 0 0 0 0 
2414333333.3333334923 0.163292467594146700760049384371 -0.051317118108272552490234375000 -0.001510572270490228912950825269 -0.002419434953480958938598632812 0 0 0 0 
2414500000.0000000000 0.163046672940254211425781250000 -0.052233196794986731792409528907 -0.001736061298288404941558837891 -0.002487869001924992041346884619 0 0 0 0 
2414666666.6666665077 0.162408471107482910156250000000 -0.053110525012016303325612653907 -0.002028575167059897942783974756 -0.002417175332084298133850097656 0 0 0 0 
2414833333.3333334923 0.162049338221549987792968750000 -0.054176602512598037719726562500 -0.002116821473464370207545615088 -0.002489017322659492926356650244 0 0 0 0 
2415000000.0000000000 0.161566823720932006835937500000 -0.055123023688793182373046875000 -0.002186017576605081991908408057 -0.002326473826542497114894247900 0 0 0 0 
2415166666.6666665077 0.161173284053802490234375000000 -0.056144054979085922241210937500 -0.002246243413537741141078329932 -0.002331544877961277961730957031 0 0 0 0 
2415333333.3333334923 0.161033913493156405349893134371 -0.057271178811788558959960937500 -0.002411019522696733908412314307 -0.002147878287360072135925292969 0 0 0 0 
2415500000.0000000000 0.160727530717849703689736884371 -0.058404117822647101665456403907 -0.002709781751036643981933593750 -0.002035045064985752105712890625 0 0 0 0 
2415666666.6666665077 0.160326659679412786285723768742 -0.059568088501691818237304687500 -0.002786401659250258965733193506 -0.002109320368617773056030273438 0 0 0 0 
2415833333.3333334923 0.160110741853713989257812500000 -0.060822736471891403198242187500 -0.003043888136744499206542968750 -0.001799398567527533011195517432 0 0 0 0 
2416000000.0000000000 0.159572467207908602615518134371 -0.062078613787889480590820312500 -0.003038493217900394959690713037 -0.001751676434651016972185444409 0 0 0 0 
2416166666.6666665077 0.159465000033378601074218750000 -0.063432171940803527832031250000 -0.003037045709788798852207802881 -0.001634197891689836978912353516 0 0 0 0 
2416333333.3333334923 0.158941701054573086837606865629 -0.064624100923538208007812500000 -0.003220230340957642035243368994 -0.001347862998954951979993510669 0 0 0 0 
2416500000.0000000000 0.158651933073997497558593750000 -0.066014796495437622070312500000 -0.003244577208533883094787597656 -0.001227145199663937091827392578 0 0 0 0 
2416666666.6666665077 0.158228665590286310393963731258 -0.067347474396228790283203125000 -0.003174742450937629179713583838 -0.001092118676751852035522460938 0 0 0 0 
2416833333.3333334923 0.157870888710022000411825615629 -0.068795926868915557861328125000 -0.003344720927998424010035849463 -0.000813273421954363584518432617 0 0 0 0 
2417000000.0000000000 0.157345741987228393554687500000 -0.069951631128787994384765625000 -0.003385703079402447180507040869 -0.000632104231044650077819824219 0 0 0 0 
2417166666.6666665077 0.156902834773063687423544365629 -0.070981062948703765869140625000 -0.003461798187345265908482216943 -0.000444032310042530298233032227 0 0 0 0 
2417333333.3333334923 0.156530782580375699142294365629 -0.072117917239665985107421875000 -0.003322062082588673071620322119 -0.000307728972984477877616882324 0 0 0 0 
2417500000.0000000000 0.156136482954025296310263115629 -0.073416821658611297607421875000 -0.003153675468638538880589150537 -0.000185923956451006206587114877 0 0 0 0 
2417666666.6666665077 0.155935153365135192871093750000 -0.074352398514747619628906250000 -0.003399194451048969788792275537 0.000026637468181434090843404464 0 0 0 0 
2417833333.3333334923 0.155549660325050409515057481258 -0.075383700430393218994140625000 -0.003272741334512830214259482275 0.000055194461310748010873794556 0 0 0 0 
2418000000.0000000000 0.155214026570320101638955634371 -0.076479487121105194091796875000 -0.003111264435574411912205361475 0.000275247672107070684432983398 0 0 0 0 
2418166666.6666665077 0.154950022697448702713174384371 -0.077391371130943298339843750000 -0.003140850225463509993312216650 0.000389106513466686010360717773 0 0 0 0 
2418333333.3333334923 0.154925584793090792556924384371 -0.078325130045413970947265625000 -0.002941287355497479005100869287 0.000419323187088593786388951434 0 0 0 0 
2418500000.0000000000 0.154630005359649713714276231258 -0.079371511936187744140625000000 -0.002950806403532623811009072412 0.000556825543753802776336669922 0 0 0 0 
2418666666.6666665077 0.154446929693222101409588731258 -0.080250263214111328125000000000 -0.002813404658809303803684853662 0.000638216384686529636383056641 0 0 0 0 
2418833333.3333334923 0.154105409979820306975994981258 -0.081150226294994354248046875000 -0.002762986114248632951023720850 0.000743321026675403118133544922 0 0 0 0 
2419000000.0000000000 0.153811648488044711013955634371 -0.081861846148967742919921875000 -0.002748057479038835005519247900 0.000868406146764755249023437500 0 0 0 0 
2419166666.6666665077 0.153744712471962002853231865629 -0.082894191145896911621093750000 -0.002675198018550872802734375000 0.000922449107747524976730346680 0 0 0 0 
2419333333.3333334923 0.153385445475578308105468750000 -0.083375714719295501708984375000 -0.002604640088975429968592978369 0.000923222803976386785507202148 0 0 0 0 
2419500000.0000000000 0.153252378106117304046307481258 -0.084329575300216674804687500000 -0.002597904065623878998997353662 0.001049704966135323047637939453 0 0 0 0 
2419666666.6666665077 0.153013870120048495193643134371 -0.085046395659446716308593750000 -0.002506397431716322898864746094 0.001049212994985281987431191553 0 0 0 0 
2419833333.3333334923 0.152835771441459711272869981258 -0.085497155785560607910156250000 -0.002425219630822538895847939600 0.000952644564677029848098754883 0 0 0 0 
