# Hz S RI R 50
2400000000.0000000000 0.168310821056365994552450615629 0.039415463805198669433593750000 0.002263972302898765043971396338 0.000072127251769416034221649170 0 0 0 0 
2400166666.6666665077 0.169213637709617586990518134371 0.038804981857538223266601562500 0.002443829318508505821228027344 0.000138137358590029207154950552 0 0 0 0 
2400333333.3333334923 0.169708311557769803146200615629 0.037977002561092376708984375000 0.002444437472149730162379599463 0.000031225932616507641296794279 0 0 0 0 
2400500000.0000000000 0.170401379466056795974893134371 0.037068802863359451293945312500 0.002198158763349055810215615381 -0.000020361210772534828970228502 0 0 0 0 
2400666666.6666665077 0.170990630984306307693643134371 0.036139186471700668334960937500 0.002301813103258610205409384619 0.000093168637249618768692016602 0 0 0 0 
2400833333.3333334923 0.171493783593177795410156250000 0.035624764859676361083984375000 0.002240432891994715170619345557 -0.000044702170271193608641624451 0 0 0 0 
2401000000.0000000000 0.171973079442977905273437500000 0.034740116447210311889648437500 0.002080167178064585165736533057 0.000059640100516844540834426880 0 0 0 0 
2401166666.6666665077 0.172295361757278386871661268742 0.033913593739271157001535783593 0.002183944685384631156921386719 0.000074467119702603667974472046 0 0 0 0 
2401333333.3333334923 0.172537535429000910003338731258 0.033124055713415152812917341407 0.002066981978714466094970703125 -0.000150989799294620806544703351 0 0 0 0 
2401500000.0000000000 0.172910213470459012130575615629 0.032482124865055077289621721093 0.002194602042436600165126181494 -0.000098333985079079866409301758 0 0 0 0 
2401666666.6666665077 0.173037663102149991134481865629 0.031955599784851067279856096093 0.002329760929569602012634277344 -0.000064259205828420817852020264 0 0 0 0 
2401833333.3333334923 0.173035204410553006271200615629 0.030955575406551361083984375000 0.002245224080979824066162109375 -0.000069511268520727753639221191 0 0 0 0 
2402000000.0000000000 0.173249125480651910979901231258 0.030182471498847011220911795704 0.002379927551373838944676064600 -0.000180332208401523503378191537 0 0 0 0 
2402166666.6666665077 0.173183903098106412032919365629 0.029349388554692268371582031250 0.002298641484230757193324423682 -0.000177044406882487210348406381 0 0 0 0 
2402333333.3333334923 0.173256799578666687011718750000 0.028652152046561241149902343750 0.002485119504854083061218261719 -0.000246965966653078794479370117 0 0 0 0 
2402500000.0000000000 0.173433959484100286285723768742 0.027903571724891659128209298046 0.002436588052660226821899414062 -0.000286695372778922319412231445 0 0 0 0 
2402666666.6666665077 0.173098146915435791015625000000 0.027105199173092838632603829296 0.002516025910153985023498535156 -0.000401532655814662575721740723 0 0 0 0 
2402833333.3333334923 0.173130691051483209808026231258 0.026184696704149249685267264454 0.002606731140986084938049316406 -0.000453192245913669521182459698 0 0 0 0 
2403000000.0000000000 0.173055574297904996017294365629 0.025354202836751941335657889454 0.002586013637483119964599609375 -0.000591241288930177688598632812 0 0 0 0 
2403166666.6666665077 0.172939807176589993575888115629 0.024471018463373180734654610546 0.002582282060757278962376259912 -0.000748137070331722497940063477 0 0 0 0 
2403333333.3333334923 0.172958418726921109298544365629 0.023368513211607929574986641796 0.002506860531866550011875771631 -0.000802820606622844934463500977 0 0 0 0 
2403500000.0000000000 0.172518596053123501876669365629 0.022482123225927349435826485546 0.002531793434172869162318564307 -0.000916610064450651407241821289 0 0 0 0 
2403666666.6666665077 0.172337204217910794357138115629 0.021322021260857578622838204296 0.002475354354828596115112304688 -0.001008255407214164950727153247 0 0 0 0 
2403833333.3333334923 0.172053411602973910232705634371 0.020079063251614570617675781250 0.002624799031764268875122070312 -0.001123525318689643903019570459 0 0 0 0 
2404000000.0000000000 0.171898931264877291580361884371 0.018894243985414508474329764454 0.002264405367895960807800292969 -0.001070121186785399913787841797 0 0 0 0 
2404166666.6666665077 0.171535581350326510330361884371 0.017743866890668869018554687500 0.002335809404030441804173134912 -0.001049688551574945016148232568 0 0 0 0 
2404333333.3333334923 0.171348601579666109939736884371 0.016650944948196411132812500000 0.002450882690027356147766113281 -0.001394158112816513018367148291 0 0 0 0 
2404500000.0000000000 0.171057671308517511565838731258 0.015132050029933449136754219921 0.002454298315569757981541298975 -0.001380177447572350935695029150 0 0 0 0 
2404666666.6666665077 0.170738995075225802322549384371 0.013703767210245130711565586523 0.002519880887120962142944335938 -0.001614087843336164951324462891 0 0 0 0 
2404833333.3333334923 0.170630499720573397537393134371 0.012285449542105199641217616602 0.002330327406525611877441406250 -0.001595500041730701923370361328 0 0 0 0 
2405000000.0000000000 0.170466616749763488769531250000 0.010945498943328859156598475977 0.002361307386308908896205283057 -0.001600089948624372915980673682 0 0 0 0 
2405166666.6666665077 0.170244738459587097167968750000 0.009408531710505485534667968750 0.002267763949930667877197265625 -0.001975271850824356079101562500 0 0 0 0 
2405333333.3333334923 0.170286938548088101486044365629 0.007685528602451086044311523438 0.002331275260075927214381552588 -0.001949032419361174106597900391 0 0 0 0 
2405500000.0000000000 0.170132219791412409026776231258 0.006183163262903690338134765625 0.002302173757925630049464560400 -0.001906347926706076102015829932 0 0 0 0 
2405666666.6666665077 0.169638559222221402267294365629 0.004414829425513744354248046875 0.002151900669559835953953408350 -0.002074930351227521896362304688 0 0 0 0 
2405833333.3333334923 0.169441133737564086914062500000 0.002782594179734588103053427588 0.001918100868351757960078574072 -0.002364547457545996145961142432 0 0 0 0 
2406000000.0000000000 0.169341787695884704589843750000 0.001027760212309658961055136572 0.002079254947602748870849609375 -0.002399223856627941131591796875 0 0 0 0 
2406166666.6666665077 0.169050410389900207519531250000 -0.000511540216393768787384033203 0.001951596699655055999755859375 -0.002466056961566209793090820312 0 0 0 0 
2406333333.3333334923 0.169011265039443997482138115629 -0.002300195628777145905735634912 0.001809758250601589896558452075 -0.002549342811107635931727743994 0 0 0 0 
2406500000.0000000000 0.168718248605728204925213731258 -0.004041941370815038681030273438 0.001508154789917171001434326172 -0.002717231865972280936000204932 0 0 0 0 
2406666666.6666665077 0.168278187513351412674111884371 -0.005749301984906196594238281250 0.001474935212172568061231303638 -0.002907929476350545883178710938 0 0 0 0 
2406833333.3333334923 0.168149411678314208984375000000 -0.007507260888814926147460937500 0.001331778708845376968383789062 -0.002973915543407202200648642432 0 0 0 0 
2407000000.0000000000 0.167993962764739990234375000000 -0.009134794585406780242919921875 0.001307409838773309967638325269 -0.003059033770114182992222451318 0 0 0 0 
2407166666.6666665077 0.167905971407890292068643134371 -0.010534101165831090754498866602 0.000915668730158358812332153320 -0.003000151133164763884303427588 0 0 0 0 
2407333333.3333334923 0.167584359645843505859375000000 -0.012224738486111160623570626171 0.000855064194183796644210815430 -0.002993849106132984161376953125 0 0 0 0 
2407500000.0000000000 0.167378798127174405196981865629 -0.013595687225461009633997733204 0.000718449067790061235427856445 -0.002984626451507211165187216650 0 0 0 0 
2407666666.6666665077 0.167222708463668795486611884371 -0.014904335141181949270228201954 0.000500327034387737512588500977 -0.002990261884406208992004394531 0 0 0 0 
2407833333.3333334923 0.167067438364028902908486884371 -0.016450401395559310913085937500 0.000474203057819977402687072754 -0.003006522776558994813206338037 0 0 0 0 
2408000000.0000000000 0.167067945003509493728799384371 -0.017677722498774528503417968750 0.000330100243445485776096898212 -0.002866219729185103936436318506 0 0 0 0 
2408166666.6666665077 0.166971892118454007247763115629 -0.018627217039465900766392891796 0.000022913096472620960662161180 -0.002898635575547813935520791162 0 0 0 0 
2408333333.3333334923 0.167106553912162808517294365629 -0.019771018996834758413294608204 -0.000002364681449762429110705853 -0.002895046025514603094813681494 0 0 0 0 
2408500000.0000000000 0.167196631431579589843750000000 -0.020952565595507618295689766796 -0.000168146114447154104709625244 -0.003045435762032866911647177588 0 0 0 0 
2408666666.6666665077 0.167451143264770507812500000000 -0.021951233968138701702077497657 -0.000337969657266512513160705566 -0.002838768297806382179260253906 0 0 0 0 
2408833333.3333334923 0.167420625686645507812500000000 -0.022881796583533290517786795704 -0.000399966607801616191864013672 -0.002783635631203650994541787256 0 0 0 0 
2409000000.0000000000 0.167740732431411687652911268742 -0.023862054571509361267089843750 -0.000526647490914911031723022461 -0.002655304968357086181640625000 0 0 0 0 
2409166666.6666665077 0.167999118566513089279013115629 -0.024863485246896740304967110546 -0.000682107580360025167465209961 -0.002555740298703312873840332031 0 0 0 0 
2409333333.3333334923 0.168378204107284601409588731258 -0.025959931313991550100306326954 -0.000720019626896828413009643555 -0.002421087352558970885035849463 0 0 0 0 
2409500000.0000000000 0.168653652071952792068643134371 -0.026975365355610850942591483204 -0.000786681135650724172592163086 -0.002377009484916924996616982568 0 0 0 0 
2409666666.6666665077 0.168823719024658203125000000000 -0.027753541246056560171107108204 -0.000837647530715912580490112305 -0.002134025329723954200744628906 0 0 0 0 
2409833333.3333334923 0.169092357158660888671875000000 -0.028686137869954109191894531250 -0.000899001257494091987609863281 -0.001933486200869082970860146631 0 0 0 0 
2410000000.0000000000 0.169345185160636901855468750000 -0.029645863920450210571289062500 -0.000879123574122786521911621094 -0.001860947115346788926365517725 0 0 0 0 
2410166666.6666665077 0.169567391276359613616619981258 -0.030636571347713470458984375000 -0.000937580072786659002304077148 -0.001943182083778083107591938550 0 0 0 0 
2410333333.3333334923 0.169703349471092196365518134371 -0.031559169292449951171875000000 -0.000917569384910166263580322266 -0.001630544895306230025050497900 0 0 0 0 
2410500000.0000000000 0.169794693589210510253906250000 -0.032326117157936103130300153907 -0.000765578530263155698776245117 -0.001712297555059194998500204932 0 0 0 0 
2410666666.6666665077 0.169879242777824401855468750000 -0.033230025321245186542551408593 -0.000835505838040262460708618164 -0.001533066155388951084734272534 0 0 0 0 
2410833333.3333334923 0.169914945960044888595419365629 -0.033869896084070212627370466407 -0.000676741474308073520660400391 -0.001475199707783759073970175635 0 0 0 0 
2411000000.0000000000 0.170051336288452203948651231258 -0.034826323390007019042968750000 -0.000431867723818868398666381836 -0.001461696112528442902805947412 0 0 0 0 
2411166666.6666665077 0.169943794608116205413494981258 -0.035492412745952613140065778907 -0.000630744849331676959991455078 -0.001388195203617214939714741284 0 0 0 0 
2411333333.3333334923 0.169925183057785006424111884371 -0.036296941339969641948659528907 -0.000533330778125673532485961914 -0.001427396549843251922010112231 0 0 0 0 
2411500000.0000000000 0.169746547937393188476562500000 -0.037121154367923736572265625000 -0.000333720730850473100512904034 -0.001460000639781356074689555591 0 0 0 0 
2411666666.6666665077 0.169824287295341491699218750000 -0.037723105400800711894948591407 -0.000409615284297615289688110352 -0.001568668521940707943559956128 0 0 0 0 
2411833333.3333334923 0.169537797570228604415731865629 -0.038421306759119026874582658593 -0.000219849665882065892219543457 -0.001643304829485714001896523584 0 0 0 0 
2412000000.0000000000 0.169471010565757806975994981258 -0.039354078471660607074777971093 -0.000220692512812092900276184082 -0.001685961731709540107129741138 0 0 0 0 
2412166666.6666665077 0.169113188982009887695312500000 -0.040136076509952552104909528907 -0.000327933870721608400344848633 -0.001866389880888164043426513672 0 0 0 0 
2412333333.3333334923 0.169164448976516695877236884371 -0.040844216942787170410156250000 -0.000212348415516316890716552734 -0.001938808709383011081098246997 0 0 0 0 
2412500000.0000000000 0.168458968400955200195312500000 -0.041479282081127166748046875000 -0.000338081066729500889778137207 -0.001951432088389992930768657153 0 0 0 0 
2412666666.6666665077 0.168136268854141207595986884371 -0.042685601860284812236745466407 -0.000415427348343655521243494855 -0.002155761932954192161560058594 0 0 0 0 
2412833333.3333334923 0.167955055832862909515057481258 -0.043407946825027472759206403907 -0.000576507416553795337677001953 -0.002187301870435475869419716943 0 0 0 0 
2413000000.0000000000 0.167536348104476900955361884371 -0.044195987284183502197265625000 -0.000583951594308018684387207031 -0.002198781352490187124965048682 0 0 0 0 
2413166666.6666665077 0.166996538639068603515625000000 -0.045008201152086257934570312500 -0.000828468415420502424240112305 -0.002356509910896420912501669775 0 0 0 0 
2413333333.3333334923 0.166425436735153198242187500000 -0.045836683362722396850585937500 -0.000781073467805981636047363281 -0.002307900460436940193176269531 0 0 0 0 
2413500000.0000000000 0.165869966149330111404580634371 -0.046834222972393042827565778907 -0.001008400227874517007115029443 -0.002259542001411319212672568213 0 0 0 0 
2413666666.6666665077 0.165419012308120699783486884371 -0.047700338065624237060546875000 -0.001072249026037753062007285010 -0.002499782480299472808837890625 0 0 0 0 
2413833333.3333334923 0.164678424596786499023437500000 -0.048474039882421486591379533593 -0.001219846191816031932830810547 -0.002498030429705977006199502100 0 0 0 0 
2414000000.0000000000 0.164165616035461398025674384371 -0.049434389919042587280273437500 -0.001345662050880491950391459888 -0.002382823731750249862670898438 0 0 0 0 
2414166666.6666665077 0.163928180932998712737713731258 -0.050172675400972373271901716407 -0.001360320602543652057647705078 -0.002403137041255832152125693213 0 0 0 0 
2414333333.3333334923 0.163266822695732088943643134371 -0.051120121031999588012695312500 -0.001504115178249775929691933740 -0.002426578430458902879002236475 0 0 0 0 
2414500000.0000000000 0.162853896617889404296875000000 -0.052014425396919250488281250000 -0.001699966494925319931627583081 -0.002517908345907926993129111182 0 0 0 0 
2414666666.6666665077 0.162230163812637301345986884371 -0.052905600517988211894948591407 -0.001885338220745325088500976562 -0.002477648202329874038696289062 0 0 0 0 
2414833333.3333334923 0.161840096116066006759481865629 -0.053931884467601783061940778907 -0.002005277434363960786106728662 -0.002391679910942912101745605469 0 0 0 0 
2415000000.0000000000 0.161488011479377802093182481258 -0.054928462952375411987304687500 -0.002211965387687087059020996094 -0.002437558490782976150512695312 0 0 0 0 
2415166666.6666665077 0.161138281226158086578692518742 -0.056025721132755279541015625000 -0.002195125678554176850559853662 -0.002286824397742747826817177881 0 0 0 0 
2415333333.3333334923 0.160938620567321805099325615629 -0.057253208011388778686523437500 -0.002462083240970969200134277344 -0.002320970874279737906215048682 0 0 0 0 
2415500000.0000000000 0.160623371601104708572549384371 -0.058209728449583046649973283593 -0.002642721170559525923487997900 -0.002158946590498089790344238281 0 0 0 0 
2415666666.6666665077 0.160177484154701205154580634371 -0.059441898018121719360351562500 -0.002735485322773457007167197119 -0.002005204558372497992274618994 0 0 0 0 
2415833333.3333334923 0.159926772117614801604901231258 -0.060754727572202682495117187500 -0.002878025872632861137390136719 -0.001903717056848108985303569263 0 0 0 0 
2416000000.0000000000 0.159581243991851806640625000000 -0.062069617211818702007253278907 -0.003100976813584566116333007812 -0.001644341624341904900194477612 0 0 0 0 
2416166666.6666665077 0.159412071108818109710369981258 -0.063318729400634765625000000000 -0.003198934253305197195765829932 -0.001643464551307260990142822266 0 0 0 0 
2416333333.3333334923 0.159049212932586697677450615629 -0.064582146704196929931640625000 -0.003113991348072886900660849463 -0.001382483169436454989789653247 0 0 0 0 
2416500000.0000000000 0.158574223518371609786825615629 -0.066057853400707244873046875000 -0.003453171811997890906092978369 -0.001348670921288430907605815356 0 0 0 0 
2416666666.6666665077 0.158093780279159601409588731258 -0.067194886505603790283203125000 -0.003409758210182189941406250000 -0.000908615882508456707000732422 0 0 0 0 
2416833333.3333334923 0.157820299267768887618856865629 -0.068738207221031188964843750000 -0.003382673254236578941345214844 -0.000772743427660316228866577148 0 0 0 0 
2417000000.0000000000 0.157073527574539212325888115629 -0.069882631301879882812500000000 -0.003511984134092926979064941406 -0.000615429307799786329269409180 0 0 0 0 
2417166666.6666665077 0.156801894307136507888955634371 -0.071035966277122497558593750000 -0.003310830798000096841099404443 -0.000353463226929306983947753906 0 0 0 0 
2417333333.3333334923 0.156365573406219510177450615629 -0.072209350764751434326171875000 -0.003342368640005588965175009619 -0.000327698478940874283939915790 0 0 0 0 
2417500000.0000000000 0.156030088663101196289062500000 -0.073504187166690826416015625000 -0.003317588474601507186889648438 -0.000222111295443028211593627930 0 0 0 0 
2417666666.6666665077 0.155871987342834500411825615629 -0.074381574988365173339843750000 -0.003309936961159110069274902344 -0.000009672802661953028291463852 0 0 0 0 
2417833333.3333334923 0.155513390898704501053018134371 -0.075474560260772705078125000000 -0.003154918784275650978088378906 0.000223923489102162393644609995 0 0 0 0 
2418000000.0000000000 0.155041173100471496582031250000 -0.076656669378280639648437500000 -0.003160614753141998811009072412 0.000361953687388449907302856445 0 0 0 0 
2418166666.6666665077 0.154803171753883389571981865629 -0.077407807111740112304687500000 -0.003034435678273438973667763818 0.000384712155209854299395960675 0 0 0 0 
2418333333.3333334923 0.154826477169990511795205634371 -0.078362964093685150146484375000 -0.002897856989875435829162597656 0.000460718234535306692123413086 0 0 0 0 
2418500000.0000000000 0.154415979981422396560830634371 -0.079314596951007843017578125000 -0.002875945065170526938197470557 0.000505787204019725322723388672 0 0 0 0 
2418666666.6666665077 0.154269412159919711013955634371 -0.080199725925922393798828125000 -0.002834137994796038107631064307 0.000596476078499108552932739258 0 0 0 0 
2418833333.3333334923 0.153983607888221712967080634371 -0.081172712147235870361328125000 -0.002811306389048695997950888525 0.000670633686240762472152709961 0 0 0 0 
2419000000.0000000000 0.153638347983360290527343750000 -0.082037776708602905273437500000 -0.002713290043175220923182822119 0.000807057193014770746231079102 0 0 0 0 
2419166666.6666665077 0.153655424714088412185830634371 -0.082825757563114166259765625000 -0.002641896484419703917262411963 0.000879626779351383447647094727 0 0 0 0 
2419333333.3333334923 0.153305798768997192382812500000 -0.083430372178554534912109375000 -0.002611263422295451164245605469 0.000940300407819449901580810547 0 0 0 0 
2419500000.0000000000 0.153170645236968994140625000000 -0.084451273083686828613281250000 -0.002568620257079600854160927881 0.000923271174542605876922607422 0 0 0 0 
2419666666.6666665077 0.152978703379630986969317518742 -0.085100769996643066406250000000 -0.002579608466476202011108398438 0.000964998849667608737945556641 0 0 0 0 
2419833333.3333334923 0.152685806155204800704794365629 -0.085603855550289154052734375000 -0.002440622542053461074829101562 0.000823778333142399787902832031 0 0 0 0 
