# Hz S RI R 50
2400000000.0000000000 0.155993849039077786544638115629 0.111112639307975796798544365629 0.001795021584257483916041708838 -0.000329718925058841705322265625 0 0 0 0 
2400166666.6666665077 0.155465707182884188553018134371 0.108772568404674502273721259371 0.001860495307482779026031494141 -0.000284615758573636412620544434 0 0 0 0 
2400333333.3333334923 0.155321419239044189453125000000 0.106690056622028406341229356258 0.001993248471990228132960654150 -0.000303539331071078777313232422 0 0 0 0 
2400500000.0000000000 0.154951438307762201507244981258 0.103985287249088301231303432814 0.002233712468296289010288857568 -0.000401209457777440602153223859 0 0 0 0 
2400666666.6666665077 0.154652714729309109786825615629 0.101469084620475796798544365629 0.002242231741547584967372275244 -0.000436909031122922897338867188 0 0 0 0 
2400833333.3333334923 0.154563277959823608398437500000 0.098416119813919067382812500000 0.002535937586799263954162597656 -0.000492410326842218637466430664 0 0 0 0 
2401000000.0000000000 0.154299005866050692459268134371 0.095763415098190307617187500000 0.002517740707844496206996298682 -0.000726610072888433933258056641 0 0 0 0 
2401166666.6666665077 0.154125720262527493575888115629 0.092692337930202484130859375000 0.002446813043206930160522460938 -0.000775776978116482496261596680 0 0 0 0 
2401333333.3333334923 0.154256135225295992752236884371 0.089836381375789642333984375000 0.002635917393490672111511230469 -0.000812123413197696208953857422 0 0 0 0 
2401500000.0000000000 0.154448747634887695312500000000 0.086852148175239562988281250000 0.002772298408672213988063193213 -0.000931840331759303808212280273 0 0 0 0 
2401666666.6666665077 0.154480457305908203125000000000 0.083886474370956420898437500000 0.002767108613625168800354003906 -0.001219187281094491915461874854 0 0 0 0 
2401833333.3333334923 0.154946997761726407150106865629 0.080908603966236114501953125000 0.002677771961316465897801064600 -0.001125762122683227062225341797 0 0 0 0 
2402000000.0000000000 0.155501857399940490722656250000 0.078015059232711791992187500000 0.002833047183230518861057900537 -0.001367469900287687995313334888 0 0 0 0 
2402166666.6666665077 0.156002596020698602874432481258 0.075257435441017150878906250000 0.002680592937394977049586630713 -0.001692648394964634938480996240 0 0 0 0 
2402333333.3333334923 0.156836733222007806975994981258 0.072316169738769531250000000000 0.002838055137544869942906045068 -0.001769780181348324038861918872 0 0 0 0 
2402500000.0000000000 0.157915383577346801757812500000 0.069461770355701446533203125000 0.002849151147529482841491699219 -0.001716425409540534019470214844 0 0 0 0 
2402666666.6666665077 0.158979877829551696777343750000 0.066936098039150238037109375000 0.002867964562028646902797079932 -0.002076428150758146806004189600 0 0 0 0 
2402833333.3333334923 0.160196959972381591796875000000 0.064093381166458129882812500000 0.002763151889666914939880371094 -0.002141199074685574011561728369 0 0 0 0 
2403000000.0000000000 0.161493107676505986969317518742 0.061519633978605270385742187500 0.002770880004391074180603027344 -0.002271127887070178985595703125 0 0 0 0 
2403166666.6666665077 0.163202822208404513260049384371 0.059049051254987716674804687500 0.002688997890800238089320517432 -0.002433384070172905921936035156 0 0 0 0 
2403333333.3333334923 0.164647191762924194335937500000 0.056562323123216629028320312500 0.002631408162415028052089072119 -0.002605609828606247901916503906 0 0 0 0 
2403500000.0000000000 0.166378960013389587402343750000 0.054281905293464660644531250000 0.002222060458734631972071982275 -0.002962689148262143135070800781 0 0 0 0 
2403666666.6666665077 0.168109402060508700271768134371 0.052080173045396811748464216407 0.002275843406096100807189941406 -0.002834314946085215048549033057 0 0 0 0 
2403833333.3333334923 0.169888362288475008865518134371 0.050036121159791953350026716407 0.002285231370478868918177939307 -0.003272684756666421890258789062 0 0 0 0 
2404000000.0000000000 0.171348646283149691482705634371 0.047985102981328957294504533593 0.001945555210113524956944131006 -0.003419231157749890847447060693 0 0 0 0 
2404166666.6666665077 0.173268303275108309646768134371 0.046161793172359466552734375000 0.001616859342902899005292582935 -0.003539876313880085945129394531 0 0 0 0 
2404333333.3333334923 0.175141513347625704666299384371 0.044469334185123436664621721093 0.001682336325757205919978476416 -0.003646459663286805152893066406 0 0 0 0 
2404500000.0000000000 0.176942691206932095626669365629 0.042864963412284851074218750000 0.001422062632627784989000629956 -0.003671437734737991853001259912 0 0 0 0 
2404666666.6666665077 0.178708463907241793533486884371 0.041455712169408798217773437500 0.001167931011877954006195068359 -0.003698805114254354996922158350 0 0 0 0 
2404833333.3333334923 0.180580228567123413085937500000 0.040272466838359832763671875000 0.001006678096018732027766562354 -0.003695151768624782995936728369 0 0 0 0 
2405000000.0000000000 0.182051092386245699783486884371 0.039512064307928092266042341407 0.000651368172839283943176269531 -0.003653751220554112954380654443 0 0 0 0 
2405166666.6666665077 0.183912813663482693771200615629 0.038668252527713782573659528907 0.000435328227467835003703516827 -0.003770899260416626930236816406 0 0 0 0 
2405333333.3333334923 0.185491219162941006759481865629 0.038084734231233596801757812500 0.000298864295473322326510828839 -0.003637213259935379028320312500 0 0 0 0 
2405500000.0000000000 0.187259852886200006683026231258 0.037565451115369796752929687500 0.000203504983801394701004028320 -0.003787897061556578116175986182 0 0 0 0 
2405666666.6666665077 0.188553646206855801681356865629 0.037161715328693389892578125000 -0.000025861065296339799055849382 -0.003680953523144125938415527344 0 0 0 0 
2405833333.3333334923 0.189957156777381896972656250000 0.036838121712207787250559221093 -0.000185000593774020698949536734 -0.003582610981538891792297363281 0 0 0 0 
2406000000.0000000000 0.191323652863502502441406250000 0.036663282662630081176757812500 -0.000318018282996490597724914551 -0.003490488743409513993504189600 0 0 0 0 
2406166666.6666665077 0.192654013633727999588174384371 0.036733966320753097534179687500 -0.000649313209578394889831542969 -0.003335830522701143784763955225 0 0 0 0 
2406333333.3333334923 0.193719416856765802581463731258 0.036777723580598831176757812500 -0.000743653043173253536224365234 -0.003384843003004788918736123193 0 0 0 0 
2406500000.0000000000 0.194608375430107088943643134371 0.036899484694004058837890625000 -0.000915960350539535284042358398 -0.003304066136479378180262900244 0 0 0 0 
2406666666.6666665077 0.195530205965042086502236884371 0.037115696817636489868164062500 -0.001131547964178025939344096606 -0.003130891826003789901733398438 0 0 0 0 
2406833333.3333334923 0.196189120411872891525106865629 0.037294574081897742534597028907 -0.001241569290868937969207763672 -0.003072204301133751869201660156 0 0 0 0 
2407000000.0000000000 0.196799337863922091385049384371 0.037807296961545937274973283593 -0.001338883768767119104500795679 -0.002974692266434431076049804688 0 0 0 0 
2407166666.6666665077 0.197402402758598299881143134371 0.038027316331863403320312500000 -0.001401064801029860973358154297 -0.002906543668359518051147460938 0 0 0 0 
2407333333.3333334923 0.197484508156776400467080634371 0.038452841341495506977121721093 -0.001599863520823419094085693359 -0.002639886457473040060756064307 0 0 0 0 
2407500000.0000000000 0.197621211409568786621093750000 0.038757037371397018432617187500 -0.001649637822993099906324077075 -0.002622978063300251960754394531 0 0 0 0 
2407666666.6666665077 0.197692736983299310882244981258 0.039017308503389358520507812500 -0.001635384978726506016374897534 -0.002371968468651175932643271338 0 0 0 0 
2407833333.3333334923 0.197368890047073392013388115629 0.039166107773780822753906250000 -0.001739538856782018921495747144 -0.002120223361998796896693564307 0 0 0 0 
2408000000.0000000000 0.197283878922462491134481865629 0.039476059377193450927734375000 -0.001871372456662357070325541919 -0.002119457116350532011744833838 0 0 0 0 
2408166666.6666665077 0.196967318654060391525106865629 0.039484664797782897949218750000 -0.001884203054942191080806113135 -0.001907110796310008005854941260 0 0 0 0 
2408333333.3333334923 0.196388915181160000900106865629 0.039336312562227249145507812500 -0.001939263544045388915418315356 -0.001884457771666347980499267578 0 0 0 0 
2408500000.0000000000 0.195831254124641390701455634371 0.039625655859708792949636091407 -0.001893786364234983921051025391 -0.001826090621761978106257773291 0 0 0 0 
2408666666.6666665077 0.195118322968482998946981865629 0.039153326302766799926757812500 -0.001892849686555563969853066553 -0.001468183356337249062181782300 0 0 0 0 
2408833333.3333334923 0.194463536143302889724893134371 0.039028238505125052715261091407 -0.001900692936033010916468954932 -0.001360978931188582940342568506 0 0 0 0 
2409000000.0000000000 0.193366438150405911544638115629 0.038435939699411392211914062500 -0.001798526616767049052594829028 -0.001150495256297290108324360425 0 0 0 0 
2409166666.6666665077 0.192361176013946505447549384371 0.037746038287878043437917341407 -0.001764226122759283022639609229 -0.001092280843295156955718994141 0 0 0 0 
2409333333.3333334923 0.191298142075538607498330634371 0.036966577172279357910156250000 -0.001715329941362142996547079932 -0.000849338481202721595764160156 0 0 0 0 
2409500000.0000000000 0.190110772848129300216513115629 0.036111243069171912456472028907 -0.001609837869182229042053222656 -0.000978203373961150646209716797 0 0 0 0 
2409666666.6666665077 0.188906133174896212478799384371 0.034999456256628043437917341407 -0.001528519554994999928715371240 -0.000759601651225239038467407227 0 0 0 0 
2409833333.3333334923 0.187816858291626004318075615629 0.033874817192554466938059221093 -0.001538850017823278903961181641 -0.000823336362373083829879760742 0 0 0 0 
2410000000.0000000000 0.186611175537109402755575615629 0.032500211149454116821289062500 -0.001574274618178606033325195312 -0.000727853737771511077880859375 0 0 0 0 
2410166666.6666665077 0.185339242219924899002236884371 0.030891664326190948486328125000 -0.001191930496133863925933837891 -0.000756520312279462814331054688 0 0 0 0 
2410333333.3333334923 0.184242889285087613204794365629 0.029410161077976230276087576954 -0.001363133313134313063380576025 -0.000624731590505689382553100586 0 0 0 0 
2410500000.0000000000 0.183078274130821200271768134371 0.027544168755412098276158516796 -0.001337772235274315097211528247 -0.000636088196188211441040039062 0 0 0 0 
2410666666.6666665077 0.182039335370063809493856865629 0.025600116699934009206751639454 -0.001113635720685123963596963037 -0.000470976927317678874165135516 0 0 0 0 
2410833333.3333334923 0.181066229939460809905682481258 0.023494701832532879220982735546 -0.001053365762345493056653666919 -0.000425186968641355579525548114 0 0 0 0 
2411000000.0000000000 0.180078461766243008712606865629 0.021379983052611351013183593750 -0.001074245781637727997423481519 -0.000667398446239531040191650391 0 0 0 0 
2411166666.6666665077 0.179151028394699096679687500000 0.019219411537051200866699218750 -0.001121979672461747906328510815 -0.000453706394182518124580383301 0 0 0 0 
2411333333.3333334923 0.178380325436592102050781250000 0.016563845798373218881627266796 -0.001043646829202770969988178784 -0.000453324842965230399936121808 0 0 0 0 
2411500000.0000000000 0.177832216024398803710937500000 0.014270964078605180222480974805 -0.000899426988326013088226318359 -0.000440060422988608479499816895 0 0 0 0 
2411666666.6666665077 0.177477300167083712478799384371 0.012049401178956030064592930273 -0.000791718484833836555480957031 -0.000482589617604389786720275879 0 0 0 0 
2411833333.3333334923 0.176983490586280794998330634371 0.009451000951230525970458984375 -0.000749258557334542274475097656 -0.000490071484819054603576660156 0 0 0 0 
2412000000.0000000000 0.177051290869712801834268134371 0.006760632619261741638183593750 -0.000592221273109316825866699219 -0.000381465477403253316879272461 0 0 0 0 
2412166666.6666665077 0.176835432648658807952557481258 0.004400628618896008405203534863 -0.000543327711056917905807495117 -0.000450461549917236024707239972 0 0 0 0 
2412333333.3333334923 0.177066043019294711013955634371 0.001642892137169837951660156250 -0.000583414745051413774490356445 -0.000545008224435150623321533203 0 0 0 0 
2412500000.0000000000 0.177315637469291687011718750000 -0.000950948218815028667449951172 -0.000461488729342818314402979718 -0.000466767000034451484680175781 0 0 0 0 
2412666666.6666665077 0.177863210439682006835937500000 -0.003540041856467723846435546875 -0.000316801451845094615786951886 -0.000583141634706407785415649414 0 0 0 0 
2412833333.3333334923 0.178381800651550292968750000000 -0.006166047882288694381713867188 -0.000230221907258965102121076041 -0.000646767148282378911972045898 0 0 0 0 
2413000000.0000000000 0.179089143872261102874432481258 -0.008833807893097400665283203125 -0.000133656460093334290102282114 -0.000656193937174975872039794922 0 0 0 0 
2413166666.6666665077 0.179802969098091097732705634371 -0.011059537529945370065709298046 -0.000010640229447744790127481154 -0.000899863836821168661117553711 0 0 0 0 
2413333333.3333334923 0.180817708373069790939169365629 -0.013730084523558620107630545704 0.000048631954996380961757113798 -0.001004494028165936903712607275 0 0 0 0 
2413500000.0000000000 0.181727737188339205642861884371 -0.016156235709786418569544608204 -0.000051491726480890072207858427 -0.001226494438014924959895468604 0 0 0 0 
2413666666.6666665077 0.183003321290016202071981865629 -0.018693601712584499013880545704 0.000009433851118956226855516434 -0.001105040661059319972991943359 0 0 0 0 
2413833333.3333334923 0.184035077691078213790731865629 -0.021100986748933788644810860546 -0.000104846665635704994201660156 -0.001478622900322080092189169775 0 0 0 0 
2414000000.0000000000 0.185328200459480313400106865629 -0.023224685341119769704798514454 -0.000237755593843758106231689453 -0.001515310606919229030609130859 0 0 0 0 
2414166666.6666665077 0.186784774065017700195312500000 -0.025287287309765819204310233204 -0.000368859007721766775280552997 -0.001551864319480956034419394385 0 0 0 0 
2414333333.3333334923 0.187954306602477999588174384371 -0.027502557262778278696080391796 -0.000504673109389841556549072266 -0.001770998700521885915043496240 0 0 0 0 
2414500000.0000000000 0.189342230558395413497763115629 -0.029220379889011379587193673046 -0.000726466416381299495697021484 -0.001760467072017491080640483325 0 0 0 0 
2414666666.6666665077 0.190856069326400812347088731258 -0.031072892248630520212193673046 -0.000689906766638159751892089844 -0.001820517471060157039045024341 0 0 0 0 
2414833333.3333334923 0.192202374339103698730468750000 -0.032594747841358191753347028907 -0.000907736539375036954879760742 -0.001791844260878860950469970703 0 0 0 0 
2415000000.0000000000 0.193483635783195495605468750000 -0.034178253263235092163085937500 -0.000921206024941056966781616211 -0.001989181153476237817051552881 0 0 0 0 
2415166666.6666665077 0.195085689425468389313067518742 -0.035528603941202156757395158593 -0.001005880651064217090606689453 -0.001809332054108381054521870190 0 0 0 0 
2415333333.3333334923 0.196532517671585110763388115629 -0.036630529910325997089426408593 -0.001021361560560763099073100513 -0.001941077527590095996856689453 0 0 0 0 
2415500000.0000000000 0.197903275489807101150674384371 -0.037452533841133117675781250000 -0.001250977278687060096143413013 -0.002110461704432963891270302881 0 0 0 0 
2415666666.6666665077 0.199230551719665499588174384371 -0.038533411920070648193359375000 -0.001459434046410023949266743237 -0.002053928561508655981776572119 0 0 0 0 
2415833333.3333334923 0.200231716036796597579794365629 -0.039214007556438452983815778907 -0.001592086977325380065320659106 -0.001916422508656979040858603369 0 0 0 0 
2416000000.0000000000 0.201305776834487887283486884371 -0.039912737905979163433034528907 -0.001649728859774767918827675928 -0.001916268840432167053222656250 0 0 0 0 
2416166666.6666665077 0.202445358037948608398437500000 -0.040630221366882317279856096093 -0.001709052477963268973706889575 -0.001960802124813199043273925781 0 0 0 0 
2416333333.3333334923 0.203290805220603887359942518742 -0.040892314165830612182617187500 -0.001996765378862618966343545068 -0.001985559705644845962524414062 0 0 0 0 
2416500000.0000000000 0.204026952385902404785156250000 -0.041164580732583999633789062500 -0.002160929609090089797973632812 -0.001811155234463512897491455078 0 0 0 0 
2416666666.6666665077 0.204688385128974886795205634371 -0.041571490466594702983815778907 -0.002248895820230246023890829932 -0.001759473467245697975158691406 0 0 0 0 
2416833333.3333334923 0.205156072974204989334268134371 -0.041605640202760703350026716407 -0.002494995715096592903137207031 -0.001664568320848047950147319263 0 0 0 0 
2417000000.0000000000 0.205450832843780489822549384371 -0.041559394448995590209960937500 -0.002476713387295604185817099463 -0.001580202719196676991106342847 0 0 0 0 
2417166666.6666665077 0.205553755164146395584268134371 -0.041459970176219940185546875000 -0.002860356122255324883701943506 -0.001473705284297466061235737378 0 0 0 0 
2417333333.3333334923 0.205525219440460205078125000000 -0.041184671223163611675222028907 -0.002713046967983245849609375000 -0.001347067416645586924311972510 0 0 0 0 
2417500000.0000000000 0.205508098006248501876669365629 -0.041073348373174667358398437500 -0.003152124583721160888671875000 -0.001150272204540669918060302734 0 0 0 0 
2417666666.6666665077 0.205104649066925104339276231258 -0.040632326155900962139089216407 -0.003311913227662444114685058594 -0.001089881989173590920091938550 0 0 0 0 
2417833333.3333334923 0.205007046461105402190838731258 -0.040411558002233512187917341407 -0.003147121053189038796665810693 -0.001036855741403996944427490234 0 0 0 0 
2418000000.0000000000 0.204580724239349392989950615629 -0.039878703653812408447265625000 -0.003136273007839918136596679688 -0.000798816385213285684585571289 0 0 0 0 
2418166666.6666665077 0.203991875052452087402343750000 -0.039639350026845932006835937500 -0.003245075466111301942112588037 -0.000605321838520467281341552734 0 0 0 0 
2418333333.3333334923 0.203256979584693908691406250000 -0.039408493787050247192382812500 -0.003402724862098693847656250000 -0.000431432272307574803203028546 0 0 0 0 
2418500000.0000000000 0.202319711446762112716513115629 -0.039144568145275122905690778907 -0.003323184791952372030970908057 -0.000101291218015831004507602831 0 0 0 0 
2418666666.6666665077 0.201611608266830388824786268742 -0.038811400532722473144531250000 -0.003429359989240766005275107275 -0.000006572695383511018007993698 0 0 0 0 
2418833333.3333334923 0.200457021594047601897869981258 -0.038801502436399459838867187500 -0.003393728053197265105006552588 0.000052962372137699282985141142 0 0 0 0 
2419000000.0000000000 0.199253112077713012695312500000 -0.038695298135280609130859375000 -0.003284049453213810920715332031 0.000270965771051123684078770770 0 0 0 0 
2419166666.6666665077 0.197934836149215698242187500000 -0.038866080343723297119140625000 -0.003290917025879025892970419775 0.000367000000551343018382471906 0 0 0 0 
2419333333.3333334923 0.196632564067840603927450615629 -0.039068315178155899047851562500 -0.003192385891452432112452841650 0.000489175727125257253646850586 0 0 0 0 
2419500000.0000000000 0.195138901472091702560263115629 -0.039370007812976837158203125000 -0.003156072925776243209838867188 0.000499396410305052995681762695 0 0 0 0 
2419666666.6666665077 0.193463593721389798263388115629 -0.040008645504713058471679687500 -0.003172373864799737930297851562 0.000853062316309660673141479492 0 0 0 0 
2419833333.3333334923 0.191772818565368707854901231258 -0.040464438498020172119140625000 -0.003177545266225934028625488281 0.000878746737726032733917236328 0 0 0 0 
