# Hz S RI R 
2400000000.0000000000 0.169440194964408902267294365629 0.045876480638980872417409528907 -0.001715362421236932060839008862 -0.006696956697851418581490801074 0 0 0 0 
2400166666.6666665077 0.170394703745842007736044365629 0.044917892664670937274973283593 -0.001913500018417835018755268628 -0.006736642215400934219360351562 0 0 0 0 
2400333333.3333334923 0.171311587095260592361611884371 0.043568715453147888183593750000 -0.002105205552652477784397744287 -0.006508079357445240020751953125 0 0 0 0 
2400500000.0000000000 0.172307148575782803634481865629 0.042785312980413436889648437500 -0.002089953748509287834167480469 -0.006443365011364221572875976562 0 0 0 0 
2400666666.6666665077 0.173134639859199496170205634371 0.041802681982517242431640625000 -0.002496518427506089210510253906 -0.006440328434109687805175781250 0 0 0 0 
2400833333.3333334923 0.174083247780799893478231865629 0.041232742369174957275390625000 -0.002678115619346499009373330225 -0.006206598132848739624023437500 0 0 0 0 
2401000000.0000000000 0.174862757325172396560830634371 0.040398638695478439331054687500 -0.002893085591495037078857421875 -0.006267043761909008026123046875 0 0 0 0 
2401166666.6666665077 0.175815686583519009689169365629 0.039519622921943671489675153907 -0.003121793735772370858433388818 -0.006102973595261573791503906250 0 0 0 0 
2401333333.3333334923 0.176451638340950012207031250000 0.038997136056423187255859375000 -0.003356062574312090873718261719 -0.005958670750260353088378906250 0 0 0 0 
2401500000.0000000000 0.177192926406860407073651231258 0.038391876965761191631276716407 -0.003543470753356813950779580225 -0.005799723323434591293334960938 0 0 0 0 
2401666666.6666665077 0.177659854292869595626669365629 0.037873461842536933208425153907 -0.003826949978247284889221191406 -0.005940923467278481397146894238 0 0 0 0 
2401833333.3333334923 0.178052082657813998123330634371 0.037208698689937591552734375000 -0.004164785612374544143676757812 -0.005763948429375886917114257812 0 0 0 0 
2402000000.0000000000 0.178747549653053311446981865629 0.036721784621477127075195312500 -0.004372137598693370819091796875 -0.005576624535024166107177734375 0 0 0 0 
2402166666.6666665077 0.179169490933418301681356865629 0.036041095852851867675781250000 -0.004478379152715206146240234375 -0.005347770173102617263793945312 0 0 0 0 
2402333333.3333334923 0.179339811205864008147869981258 0.035539831966161727905273437500 -0.004888521041721105575561523438 -0.005205693654716014862060546875 0 0 0 0 
2402500000.0000000000 0.179856762290000887771768134371 0.034962050616741180419921875000 -0.005091022700071334838867187500 -0.005023102276027202606201171875 0 0 0 0 
2402666666.6666665077 0.179915606975555392166299384371 0.034318778663873672485351562500 -0.005223275162279605865478515625 -0.004789575468748807907104492188 0 0 0 0 
2402833333.3333334923 0.179952189326286288162393134371 0.033687140792608261108398437500 -0.005547542124986649426932050488 -0.004449960775673388567452715137 0 0 0 0 
2403000000.0000000000 0.180221840739250210861044365629 0.032921299338340759277343750000 -0.005688328761607409390921308301 -0.004388395231217145919799804688 0 0 0 0 
2403166666.6666665077 0.180210337042808504959268134371 0.032138809561729431152343750000 -0.005901925731450319290161132812 -0.003903766628354787826538085938 0 0 0 0 
2403333333.3333334923 0.179806217551231412032919365629 0.031361091881990432739257812500 -0.006020945031195878982543945312 -0.003781705861911178068873740088 0 0 0 0 
2403500000.0000000000 0.179401263594627408126669365629 0.030488040298223498952845389454 -0.006215324625372886657714843750 -0.003311932086944580078125000000 0 0 0 0 
2403666666.6666665077 0.179422765970230102539062500000 0.029393393546342849731445312500 -0.006210234481841325759887695312 -0.002792190993204712867736816406 0 0 0 0 
2403833333.3333334923 0.179195791482925387283486884371 0.028619186952710151672363281250 -0.006369669456034898757934570312 -0.002561782719567418098449707031 0 0 0 0 
2404000000.0000000000 0.178617954254150390625000000000 0.027549607679247859609583670704 -0.006367928348481655120849609375 -0.002396858762949705123901367188 0 0 0 0 
2404166666.6666665077 0.178250923752784701248330634371 0.026235224679112430917760079296 -0.006375687662512063980102539062 -0.002021993976086378097534179688 0 0 0 0 
2404333333.3333334923 0.177669659256935091873330634371 0.025127775967121120798131173046 -0.006347176618874073028564453125 -0.001776632503606379032135009766 0 0 0 0 
2404500000.0000000000 0.177132859826088007171307481258 0.023721242323517799377441406250 -0.006340573076158761978149414062 -0.001436359481886029026628803784 0 0 0 0 
2404666666.6666665077 0.176781281828880310058593750000 0.022355658933520320547083670704 -0.006283228751271963119506835938 -0.001099869492463767962214804541 0 0 0 0 
2404833333.3333334923 0.176110476255416897872763115629 0.020910250023007389413853829296 -0.006370837800204753875732421875 -0.000853489153087139129638671875 0 0 0 0 
2405000000.0000000000 0.175633803009986905196981865629 0.019416024908423420297642891796 -0.006260995753109455108642578125 -0.000595975900068879127502441406 0 0 0 0 
2405166666.6666665077 0.175121694803237887283486884371 0.017870647832751270639439766796 -0.006260434631258249282836914062 -0.000400241115130484104156494141 0 0 0 0 
2405333333.3333334923 0.174609556794166592696981865629 0.016166934743523601186732108204 -0.005934269633144140243530273438 -0.000258611253229901194572448730 0 0 0 0 
2405500000.0000000000 0.174330085515976007659588731258 0.014543018303811550140380859375 -0.005919768940657377243041992188 -0.000036647787055699161510875089 0 0 0 0 
2405666666.6666665077 0.173842266201972989181356865629 0.012737605720758439845075038477 -0.005881613120436668395996093750 0.000156604364747181507662096567 0 0 0 0 
2405833333.3333334923 0.173248112201690701583700615629 0.010879886336624620610247227148 -0.005823206156492233276367187500 0.000446529331384226679801940918 0 0 0 0 
2406000000.0000000000 0.173146918416023309905682481258 0.008873880840837955474853515625 -0.005728338379412890347952558301 0.000482657109387219006389063702 0 0 0 0 
2406166666.6666665077 0.172785356640815707107705634371 0.007021064404398202896118164062 -0.005696334410458803176879882812 0.000757225789129734039306640625 0 0 0 0 
2406333333.3333334923 0.172599792480468805511151231258 0.005037308204919099807739257812 -0.005560848861932755383963300488 0.000895532313734292984008789062 0 0 0 0 
2406500000.0000000000 0.172424569725990295410156250000 0.002939120633527636961696005713 -0.005398100242018699645996093750 0.000926408974919468164443969727 0 0 0 0 
2406666666.6666665077 0.172244802117347689529580634371 0.001001962111331522898433066260 -0.005449049174785614013671875000 0.001051448052749037959455180591 0 0 0 0 
2406833333.3333334923 0.172316282987594604492187500000 -0.001216404954902827956556010669 -0.005296313669532538327688886426 0.001208343543112277984619140625 0 0 0 0 
2407000000.0000000000 0.172386109828949002364950615629 -0.003257873235270380973815917969 -0.005205419845879077911376953125 0.001547885127365588925005268628 0 0 0 0 
2407166666.6666665077 0.172628760337829589843750000000 -0.005363453179597854614257812500 -0.005189190153032541275024414062 0.001517630298621952967402792822 0 0 0 0 
2407333333.3333334923 0.172573789954185513595419365629 -0.007611618842929601669311523438 -0.005105787888169288635253906250 0.001766322297044097943546914209 0 0 0 0 
2407500000.0000000000 0.172961890697479303558026231258 -0.009642372839152812957763671875 -0.005117248743772506713867187500 0.001880375435575843074201274341 0 0 0 0 
2407666666.6666665077 0.173086240887641906738281250000 -0.011746028438210490835169608204 -0.005057949572801589965820312500 0.002063593594357370896580361475 0 0 0 0 
2407833333.3333334923 0.173402339220046997070312500000 -0.013964178040623670060127459180 -0.004706582985818386077880859375 0.002151733264327048821690224756 0 0 0 0 
2408000000.0000000000 0.173903435468673706054687500000 -0.016055956482887271535853201954 -0.004686865024268627166748046875 0.002356506185606122016906738281 0 0 0 0 
2408166666.6666665077 0.174200519919395502288494981258 -0.018065132200717929494837576954 -0.004653329961001873016357421875 0.002642100444063543839695595850 0 0 0 0 
2408333333.3333334923 0.174713507294654901702557481258 -0.019938290119171139108678048046 -0.004559094551950693130493164062 0.002869283314794301986694335938 0 0 0 0 
2408500000.0000000000 0.175149649381637600997763115629 -0.022011874243617061269739920704 -0.004456744063645601272583007812 0.003082474227994679970982216943 0 0 0 0 
2408666666.6666665077 0.175639852881431607345419365629 -0.023821655660867691040039062500 -0.004277671221643686294555664062 0.003174021141603589057922363281 0 0 0 0 
2408833333.3333334923 0.175931930541992187500000000000 -0.025636918842792510986328125000 -0.004274313803762198361868573926 0.003415369428694248199462890625 0 0 0 0 
2409000000.0000000000 0.176290705800056513030682481258 -0.027247810736298561096191406250 -0.004063728265464305877685546875 0.003512122202664614157435751807 0 0 0 0 
2409166666.6666665077 0.176723018288612393478231865629 -0.028801113367080688476562500000 -0.003574355505406856970546103369 0.003719729604199529127833701025 0 0 0 0 
2409333333.3333334923 0.177325204014778109451455634371 -0.030146993696689609182337576954 -0.003479371313005685806274414062 0.003768538357689977125880576025 0 0 0 0 
2409500000.0000000000 0.177725359797477694412393134371 -0.031704585999250411987304687500 -0.003372101811692119078395224463 0.003832868533208965821507119287 0 0 0 0 
2409666666.6666665077 0.178177490830421503265057481258 -0.032787051051855087280273437500 -0.003224312793463468985316611182 0.003807557048276067213771201025 0 0 0 0 
2409833333.3333334923 0.178684502840042086502236884371 -0.033717993646860122680664062500 -0.002962889615446329116821289062 0.004055561963468790054321289062 0 0 0 0 
2410000000.0000000000 0.179361656308174105545205634371 -0.034740101546049118041992187500 -0.002720295451581478118896484375 0.003976956941187381744384765625 0 0 0 0 
2410166666.6666665077 0.179642990231514004806356865629 -0.035634607076644897460937500000 -0.002649096539244056181666708838 0.004070321097970008850097656250 0 0 0 0 
2410333333.3333334923 0.180097371339798001388388115629 -0.036516811698675162578542341407 -0.002401925157755612893345498193 0.004219885449856519699096679688 0 0 0 0 
2410500000.0000000000 0.180615961551666287521200615629 -0.037254072725772857666015625000 -0.002253405982628465132472372900 0.004286191426217555999755859375 0 0 0 0 
2410666666.6666665077 0.181095644831657409667968750000 -0.037896018475294113159179687500 -0.001988227013498545126674033057 0.004103597253561019897460937500 0 0 0 0 
2410833333.3333334923 0.181487321853637695312500000000 -0.038432650268077850341796875000 -0.001754769473336637020111083984 0.004222834017127752304077148438 0 0 0 0 
2411000000.0000000000 0.181686952710151700118856865629 -0.038974557071924209594726562500 -0.001755038974806665940525673975 0.004187823273241519927978515625 0 0 0 0 
2411166666.6666665077 0.181863427162170410156250000000 -0.039565846323966979980468750000 -0.001545259845443069934844970703 0.004198661539703608426565839551 0 0 0 0 
2411333333.3333334923 0.182244092226028386871661268742 -0.039847947657108306884765625000 -0.001381522859446703953983925928 0.004299284424632787704467773438 0 0 0 0 
2411500000.0000000000 0.182373270392417907714843750000 -0.040453404188156127929687500000 -0.001070319209247827963588095557 0.004284252412617206573486328125 0 0 0 0 
2411666666.6666665077 0.182119622826576205154580634371 -0.040828410536050803447682966407 -0.000979828648269176483154296875 0.004171608015894889831542968750 0 0 0 0 
2411833333.3333334923 0.182217165827751187423544365629 -0.041048035025596618652343750000 -0.000684551720041781663894653320 0.004212627187371253967285156250 0 0 0 0 
2412000000.0000000000 0.182195335626602200607138115629 -0.041409049183130257343332658593 -0.000556826067622750997543334961 0.004084655083715915679931640625 0 0 0 0 
2412166666.6666665077 0.181767195463180486481036268742 -0.041791144758462912822682966407 -0.000561585358809679746627807617 0.003989670425653457641601562500 0 0 0 0 
2412333333.3333334923 0.181524798274040194412393134371 -0.042129825800657272338867187500 -0.000231853584409691393375396729 0.004081887658685445785522460938 0 0 0 0 
2412500000.0000000000 0.180919662117958096603231865629 -0.042405243963003158569335937500 -0.000234267587075009887844639911 0.003991744015365839004516601562 0 0 0 0 
2412666666.6666665077 0.180441960692405700683593750000 -0.042860716581344597553293596093 -0.000043488631490617990493774414 0.003937460947781801223754882812 0 0 0 0 
2412833333.3333334923 0.179577305912971496582031250000 -0.043164175003767006610910783593 0.000104038401332218199968338013 0.003689683275297284126281738281 0 0 0 0 
2413000000.0000000000 0.178990453481674194335937500000 -0.043297152966260910034179687500 0.000098318021628074347972869873 0.003679719520732759995701455225 0 0 0 0 
2413166666.6666665077 0.178106173872947692871093750000 -0.043698269873857498168945312500 0.000292781711323186809390467511 0.003636689158156514167785644531 0 0 0 0 
2413333333.3333334923 0.176985234022140502929687500000 -0.044227499514818191528320312500 0.000497038243338465690612792969 0.003382944501936436133143759619 0 0 0 0 
2413500000.0000000000 0.176143243908882113357705634371 -0.044666502624750137329101562500 0.000434977933764457702636718750 0.003258440177887678146362304688 0 0 0 0 
2413666666.6666665077 0.175186648964881896972656250000 -0.045088373124599456787109375000 0.000406730454415082877308446063 0.003242363920435308976414345850 0 0 0 0 
2413833333.3333334923 0.173919111490249606033486884371 -0.045638851821422576904296875000 0.000733400054741650819778442383 0.003204235341399908065795898438 0 0 0 0 
2414000000.0000000000 0.172838106751442011077557481258 -0.046497188508510589599609375000 0.000589248957112431526184082031 0.002741351025179028944728232275 0 0 0 0 
2414166666.6666665077 0.171603068709373501876669365629 -0.047048948705196380615234375000 0.000550383527297526597976684570 0.002830919111147522926330566406 0 0 0 0 
2414333333.3333334923 0.170545890927314813811932481258 -0.047930624336004257202148437500 0.000629178248345851898193359375 0.002896222053095697922947548975 0 0 0 0 
2414500000.0000000000 0.169347152113914489746093750000 -0.048704177141189582134206403907 0.000610782881267368793487548828 0.002765137003734707832336425781 0 0 0 0 
2414666666.6666665077 0.168034911155700711349325615629 -0.049675364047288901592214216407 0.000523563008755445480346679688 0.002805287484079598946812295068 0 0 0 0 
2414833333.3333334923 0.166889056563377408126669365629 -0.050542537122964859008789062500 0.000743735348805785179138183594 0.002816104795783758163452148438 0 0 0 0 
2415000000.0000000000 0.165586933493614196777343750000 -0.051923658698797232891042341407 0.000836146122310310602188110352 0.002593324054032564163208007812 0 0 0 0 
2415166666.6666665077 0.164351627230644198318643134371 -0.053089167922735207294504533593 0.000753574946429580450057983398 0.002532550133764743804931640625 0 0 0 0 
2415333333.3333334923 0.163282275199890108963174384371 -0.054516471922397606586496721093 0.000665948027744889259338378906 0.002516170497983694076538085938 0 0 0 0 
2415500000.0000000000 0.162161052227020291427450615629 -0.055934630334377288818359375000 0.000873307930305600166320800781 0.002557863714173436164855957031 0 0 0 0 
2415666666.6666665077 0.160872086882591303069744981258 -0.057350046932697303081472028907 0.000722667609807103872299194336 0.002510985825210810141322470557 0 0 0 0 
2415833333.3333334923 0.159839093685150201995526231258 -0.059111095964908599853515625000 0.000820950081106275320053100586 0.002517774002626537842991494287 0 0 0 0 
2416000000.0000000000 0.158759519457817105392294365629 -0.060756187885999679565429687500 0.000706398452166467905044555664 0.002550663426518439812901162256 0 0 0 0 
2416166666.6666665077 0.157998114824294988434161268742 -0.062490493059158332134206403907 0.000758886861149221658706665039 0.002511978149414062933680868994 0 0 0 0 
2416333333.3333334923 0.156816974282264709472656250000 -0.064278043806552886962890625000 0.001066942815668880939483642578 0.002475660061463714079615927588 0 0 0 0 
2416500000.0000000000 0.155738756060600308517294365629 -0.066210463643074035644531250000 0.000996894086711108684539794922 0.002401273231953382925746298682 0 0 0 0 
2416666666.6666665077 0.154814466834068298339843750000 -0.068001136183738708496093750000 0.000979193486273288726806640625 0.002149141160771251158473349463 0 0 0 0 
2416833333.3333334923 0.154269888997077886383380018742 -0.070198811590671539306640625000 0.000998451956547796726226806641 0.002251973608508706092834472656 0 0 0 0 
2417000000.0000000000 0.153123572468757601638955634371 -0.072125904262065887451171875000 0.000999128911644220352172851562 0.002238658489659429030177451025 0 0 0 0 
2417166666.6666665077 0.152634769678115789215411268742 -0.073960535228252410888671875000 0.001035853638313710906385112231 0.002066193148493766784667968750 0 0 0 0 
2417333333.3333334923 0.151892110705375699142294365629 -0.076035112142562866210937500000 0.001050479360856116034864116138 0.002147256629541515870335244287 0 0 0 0 
2417500000.0000000000 0.151431947946548489669638115629 -0.078067488968372344970703125000 0.001051492756232619068743061597 0.002109886612743138833286904443 0 0 0 0 
2417666666.6666665077 0.151055976748466491699218750000 -0.079781353473663330078125000000 0.000959684432018548250198364258 0.002058853395283222198486328125 0 0 0 0 
2417833333.3333334923 0.150652989745140103439169365629 -0.081744879484176635742187500000 0.000963388301897794008255004883 0.002093642717227340178248740088 0 0 0 0 
2418000000.0000000000 0.150133088231086703201455634371 -0.083724983036518096923828125000 0.000892241660039871931076049805 0.002091818489134312109706259619 0 0 0 0 
2418166666.6666665077 0.149928122758865411956463731258 -0.085401721298694610595703125000 0.000988635933026671409606933594 0.002104499144479631943943642725 0 0 0 0 
2418333333.3333334923 0.149983868002891512771768134371 -0.087068922817707061767578125000 0.000905037275515496730804443359 0.002020598854869604110717773438 0 0 0 0 
2418500000.0000000000 0.149524867534637506683026231258 -0.088745370507240295410156250000 0.000996504677459597587585449219 0.002030129078775643868687295068 0 0 0 0 
2418666666.6666665077 0.149643689393997192382812500000 -0.090275645256042480468750000000 0.000956444826442748308181762695 0.002071327762678266005275107275 0 0 0 0 
2418833333.3333334923 0.149528115987777709960937500000 -0.091694615781307220458984375000 0.000912251940462738275527954102 0.002206915291026235060450888525 0 0 0 0 
2419000000.0000000000 0.149431839585304288009481865629 -0.093017742037773132324218750000 0.000979625387117266654968261719 0.002195561304688454107997275244 0 0 0 0 
2419166666.6666665077 0.149721413850784301757812500000 -0.094422839581966400146484375000 0.001022959477268158955814980615 0.002233041217550634904148720850 0 0 0 0 
2419333333.3333334923 0.149679809808731106857138115629 -0.095331296324729919433593750000 0.001057226792909204959869384766 0.002372683258727192878723144531 0 0 0 0 
2419500000.0000000000 0.150008201599121093750000000000 -0.096540942788124084472656250000 0.000929492176510393619537353516 0.002347858622670174078700400244 0 0 0 0 
2419666666.6666665077 0.150380343198776300628338731258 -0.097319848835468292236328125000 0.001166802481748163916944194263 0.002331393305212258858921670068 0 0 0 0 
2419833333.3333334923 0.150492340326309204101562500000 -0.098032638430595397949218750000 0.001180417137220501899719238281 0.002410578541457653045654296875 0 0 0 0 
