# Version 1.00
#
freq[Hz];re:Trc1_S11;im:Trc1_S11;re:Trc2_S21;im:Trc2_S21;
2.400000000000000E+009;1.559755206108093E-001;5.989129096269608E-002;2.920902101323009E-003;7.061239448376000E-004;
2.400166666666667E+009;1.561770439147949E-001;5.794124305248261E-002;3.142989939078689E-003;6.788901519030333E-004;
2.400333333333334E+009;1.562028378248215E-001;5.589235946536064E-002;3.181826323270798E-003;5.653736297972500E-004;
2.400500000000000E+009;1.565224081277847E-001;5.383632332086563E-002;3.139729378744960E-003;3.501360770314932E-004;
2.400666666666667E+009;1.565301716327667E-001;5.183584988117218E-002;2.982947276905179E-003;4.066195979248732E-004;
2.400833333333334E+009;1.569399088621140E-001;4.985884577035904E-002;3.060824004933238E-003;3.798031539190561E-004;
2.401000000000000E+009;1.573920398950577E-001;4.768612235784531E-002;3.073322353884578E-003;1.061666189343669E-004;
2.401166666666667E+009;1.578313857316971E-001;4.578097537159920E-002;3.209868678823113E-003;-6.612926881643944E-006;
2.401333333333334E+009;1.580397188663483E-001;4.348389059305191E-002;2.986270235851407E-003;-1.794763448970116E-007;
2.401500000000000E+009;1.589082330465317E-001;4.158916324377060E-002;2.991822548210621E-003;-8.511968189850450E-005;
2.401666666666667E+009;1.594304889440537E-001;3.974674642086029E-002;2.998922253027558E-003;-1.996609935304150E-004;
2.401833333333334E+009;1.600545644760132E-001;3.778788447380066E-002;2.987617393955588E-003;-4.266710893716663E-004;
2.402000000000000E+009;1.605597287416458E-001;3.590145707130432E-002;2.912108087912202E-003;-3.471889649517834E-004;
2.402166666666667E+009;1.612646430730820E-001;3.388088941574097E-002;2.820042893290520E-003;-4.145244602113962E-004;
2.402333333333334E+009;1.620016843080521E-001;3.229549899697304E-002;2.766262274235487E-003;-5.640442832373083E-004;
2.402500000000000E+009;1.630240231752396E-001;3.062713891267777E-002;2.729601226747036E-003;-6.876437109895051E-004;
2.402666666666667E+009;1.636194437742233E-001;2.916912920773029E-002;2.775844652205706E-003;-6.215009489096701E-004;
2.402833333333334E+009;1.648101657629013E-001;2.784533239901066E-002;2.684656297788024E-003;-8.028307929635048E-004;
2.403000000000000E+009;1.656601577997208E-001;2.632958814501762E-002;2.461188705638051E-003;-7.689963094890118E-004;
2.403166666666667E+009;1.667550802230835E-001;2.496523410081863E-002;2.614470431581140E-003;-7.547546410933137E-004;
2.403333333333334E+009;1.677580922842026E-001;2.379490062594414E-002;2.643278101459146E-003;-8.906475850380957E-004;
2.403500000000000E+009;1.686799973249435E-001;2.270000800490379E-002;2.342420862987638E-003;-9.585591615177691E-004;
2.403666666666667E+009;1.695310175418854E-001;2.144371718168259E-002;2.398387761786580E-003;-7.864028448238969E-004;
2.403833333333334E+009;1.707256138324738E-001;2.056939527392387E-002;2.462800825014710E-003;-1.054767984896898E-003;
2.404000000000000E+009;1.716353744268417E-001;1.965051144361496E-002;2.370091620832682E-003;-9.262932580895722E-004;
2.404166666666667E+009;1.726271808147430E-001;1.879222504794598E-002;2.288586925715208E-003;-8.619947475381196E-004;
2.404333333333334E+009;1.732830405235291E-001;1.803705282509327E-002;2.100342884659767E-003;-1.025491510517895E-003;
2.404500000000000E+009;1.739562302827835E-001;1.735423877835274E-002;2.231006510555744E-003;-1.114681945182383E-003;
2.404666666666667E+009;1.752121001482010E-001;1.664618588984013E-002;2.176741836592555E-003;-1.076357788406313E-003;
2.404833333333334E+009;1.759085655212402E-001;1.631622388958931E-002;2.197263529524207E-003;-1.054474734701216E-003;
2.405000000000000E+009;1.766693741083145E-001;1.586165465414524E-002;2.205339027568698E-003;-1.106635900214315E-003;
2.405166666666667E+009;1.773645728826523E-001;1.543338131159544E-002;2.249862067401409E-003;-1.119195250794292E-003;
2.405333333333334E+009;1.778677850961685E-001;1.475408673286438E-002;2.125840634107590E-003;-1.286393962800503E-003;
2.405500000000000E+009;1.783956289291382E-001;1.456322986632586E-002;2.133399480953813E-003;-1.144393114373088E-003;
2.405666666666667E+009;1.788479685783386E-001;1.428483799099922E-002;2.111818408593535E-003;-1.142725348472595E-003;
2.405833333333334E+009;1.790506988763809E-001;1.408896502107382E-002;2.017936902120709E-003;-1.255907467566431E-003;
2.406000000000000E+009;1.794269233942032E-001;1.368198916316032E-002;2.068463712930679E-003;-1.150882802903652E-003;
2.406166666666667E+009;1.796605736017227E-001;1.359875127673149E-002;1.946996431797743E-003;-1.258586649782956E-003;
2.406333333333334E+009;1.798839122056961E-001;1.333828084170818E-002;2.022528788074851E-003;-1.353023224510253E-003;
2.406500000000000E+009;1.798091083765030E-001;1.300043985247612E-002;2.034004079177976E-003;-1.478803576901555E-003;
2.406666666666667E+009;1.797311753034592E-001;1.271955482661724E-002;2.028723247349262E-003;-1.482792198657990E-003;
2.406833333333334E+009;1.797323822975159E-001;1.226473413407803E-002;1.925961230881512E-003;-1.480987644754350E-003;
2.407000000000000E+009;1.795615553855896E-001;1.184860244393349E-002;2.082310616970062E-003;-1.554359449073672E-003;
2.407166666666667E+009;1.793819814920425E-001;1.156770717352629E-002;2.081546001136303E-003;-1.489031245000660E-003;
2.407333333333334E+009;1.789620071649551E-001;1.084119547158480E-002;2.144967904314399E-003;-1.513556577265263E-003;
2.407500000000000E+009;1.785795837640762E-001;1.041012443602085E-002;1.957093598321080E-003;-1.647167257033289E-003;
2.407666666666667E+009;1.781000792980194E-001;9.797039441764355E-003;2.045405795797706E-003;-1.831233617849648E-003;
2.407833333333334E+009;1.774512529373169E-001;9.065320715308189E-003;1.946868840605021E-003;-1.648208708502352E-003;
2.408000000000000E+009;1.769772469997406E-001;8.175029419362545E-003;1.901655923575163E-003;-1.741442014463246E-003;
2.408166666666667E+009;1.764483302831650E-001;7.485295180231333E-003;1.981147564947605E-003;-1.735060126520693E-003;
2.408333333333334E+009;1.760241985321045E-001;6.488468497991562E-003;1.979643013328314E-003;-1.851075212471187E-003;
2.408500000000000E+009;1.752122044563294E-001;5.394629202783108E-003;1.872178167104721E-003;-2.036120742559433E-003;
2.408666666666667E+009;1.746649593114853E-001;4.149206448346376E-003;1.881500473245978E-003;-2.079341793432832E-003;
2.408833333333334E+009;1.736909598112106E-001;3.098579123616219E-003;1.832557143643498E-003;-2.064995933324099E-003;
2.409000000000000E+009;1.729795038700104E-001;1.930302358232439E-003;1.856509945355356E-003;-2.072516130283475E-003;
2.409166666666667E+009;1.723505109548569E-001;3.418843261897564E-004;1.787167275324464E-003;-2.234434476122260E-003;
2.409333333333334E+009;1.718307584524155E-001;-1.186982379294932E-003;1.711977878585458E-003;-2.271415665745735E-003;
2.409500000000000E+009;1.710818260908127E-001;-2.677434124052525E-003;1.827148720622063E-003;-2.372099086642265E-003;
2.409666666666667E+009;1.705312877893448E-001;-4.355635493993759E-003;1.710574724711478E-003;-2.564697293564677E-003;
2.409833333333334E+009;1.699889451265335E-001;-6.021333392709494E-003;1.869480940513313E-003;-2.642214065417647E-003;
2.410000000000000E+009;1.693929880857468E-001;-7.569785229861736E-003;1.583811710588634E-003;-2.533095655962825E-003;
2.410166666666667E+009;1.689853817224503E-001;-9.427426382899284E-003;1.543435151688755E-003;-2.852893900126219E-003;
2.410333333333334E+009;1.685511916875839E-001;-1.125568989664316E-002;1.470024930313230E-003;-2.904656808823347E-003;
2.410500000000000E+009;1.683525890111923E-001;-1.305925659835339E-002;1.380191650241613E-003;-2.861540997400880E-003;
2.410666666666667E+009;1.678319573402405E-001;-1.523382775485516E-002;1.359020359814167E-003;-2.812871709465981E-003;
2.410833333333334E+009;1.676201224327087E-001;-1.706469990313053E-002;1.251452951692045E-003;-3.033340442925692E-003;
2.411000000000000E+009;1.674863100051880E-001;-1.913138665258884E-002;1.159253180958331E-003;-3.151870099827647E-003;
2.411166666666667E+009;1.673735529184341E-001;-2.107711508870125E-002;1.118954853154719E-003;-3.119192551821470E-003;
2.411333333333334E+009;1.674133390188217E-001;-2.311770059168339E-002;8.516417583450675E-004;-3.314615925773978E-003;
2.411500000000000E+009;1.671985089778900E-001;-2.519600465893745E-002;8.488669991493225E-004;-3.286331659182906E-003;
2.411666666666667E+009;1.675489544868469E-001;-2.708188816905022E-002;6.553308921866119E-004;-3.472837153822184E-003;
2.411833333333334E+009;1.678422689437866E-001;-2.905345149338245E-002;4.759019357152283E-004;-3.505779895931482E-003;
2.412000000000000E+009;1.681621968746185E-001;-3.098436258733273E-002;3.311477194074541E-004;-3.348008031025529E-003;
2.412166666666667E+009;1.681673675775528E-001;-3.294302523136139E-002;2.391803864156827E-004;-3.425900824368000E-003;
2.412333333333334E+009;1.689744293689728E-001;-3.461332991719246E-002;1.063235031324439E-004;-3.476927988231182E-003;
2.412500000000000E+009;1.692850291728973E-001;-3.641398996114731E-002;-2.591916017991025E-005;-3.437269013375044E-003;
2.412666666666667E+009;1.697953343391419E-001;-3.833233192563057E-002;-1.731223601382226E-004;-3.449045820161700E-003;
2.412833333333334E+009;1.704213023185730E-001;-3.988118842244148E-002;-2.195647539338097E-004;-3.407026408240199E-003;
2.413000000000000E+009;1.708353459835053E-001;-4.156577587127686E-002;-5.697631277143955E-004;-3.431043820455670E-003;
2.413166666666667E+009;1.715157926082611E-001;-4.313063621520996E-002;-6.196444155648351E-004;-3.493431955575943E-003;
2.413333333333334E+009;1.720387339591980E-001;-4.467681795358658E-002;-7.571688038296998E-004;-3.250849200412631E-003;
2.413500000000000E+009;1.728789061307907E-001;-4.607313126325607E-002;-8.028611773625016E-004;-3.233474446460605E-003;
2.413666666666667E+009;1.733286827802658E-001;-4.735613986849785E-002;-1.066152122803032E-003;-3.308249870315194E-003;
2.413833333333334E+009;1.740285456180573E-001;-4.870049282908440E-002;-9.623386431485415E-004;-3.162321867421269E-003;
2.414000000000000E+009;1.745975315570831E-001;-4.987954720854759E-002;-1.189291477203369E-003;-2.982949838042259E-003;
2.414166666666667E+009;1.753796935081482E-001;-5.086116120219231E-002;-1.158139901235700E-003;-3.006951883435249E-003;
2.414333333333334E+009;1.758448183536530E-001;-5.184501782059670E-002;-1.368592842482030E-003;-2.956602023914456E-003;
2.414500000000000E+009;1.765057295560837E-001;-5.268603190779686E-002;-1.460399129427970E-003;-2.866190625354648E-003;
2.414666666666667E+009;1.769461482763290E-001;-5.347600951790810E-002;-1.519568031653762E-003;-2.819808665663004E-003;
2.414833333333334E+009;1.772769987583160E-001;-5.430759489536285E-002;-1.521011465229094E-003;-2.622115425765514E-003;
2.415000000000000E+009;1.778500974178314E-001;-5.484094470739365E-002;-1.589890336617827E-003;-2.596657024696469E-003;
2.415166666666667E+009;1.779882460832596E-001;-5.550089478492737E-002;-1.627421588636935E-003;-2.374197589233518E-003;
2.415333333333334E+009;1.784214973449707E-001;-5.601295828819275E-002;-1.888141268864274E-003;-2.540431916713715E-003;
2.415500000000000E+009;1.785838901996613E-001;-5.630622431635857E-002;-1.816848875023425E-003;-2.347344998270273E-003;
2.415666666666667E+009;1.785880625247955E-001;-5.665531381964684E-002;-1.857394236139953E-003;-2.233840990811586E-003;
2.415833333333334E+009;1.787033379077911E-001;-5.710880830883980E-002;-1.889827777631581E-003;-2.270549535751343E-003;
2.416000000000000E+009;1.785630434751511E-001;-5.725674331188202E-002;-1.842517754994333E-003;-2.177209826186299E-003;
2.416166666666667E+009;1.787193566560745E-001;-5.754559114575386E-002;-1.925019780173898E-003;-2.074293559417129E-003;
2.416333333333334E+009;1.782785058021545E-001;-5.770309269428253E-002;-1.988029805943370E-003;-2.132110297679901E-003;
2.416500000000000E+009;1.780903041362763E-001;-5.794407427310944E-002;-2.085900632664561E-003;-1.872668624855578E-003;
2.416666666666667E+009;1.775705367326737E-001;-5.820832774043083E-002;-2.068494679406285E-003;-1.826461870223284E-003;
2.416833333333334E+009;1.772444844245911E-001;-5.835770070552826E-002;-1.948024379089475E-003;-1.817712560296059E-003;
2.417000000000000E+009;1.764221042394638E-001;-5.863162502646446E-002;-2.210294129326940E-003;-1.666333060711622E-003;
2.417166666666667E+009;1.757626086473465E-001;-5.871955305337906E-002;-2.046883339062333E-003;-1.586342928931117E-003;
2.417333333333334E+009;1.750443428754807E-001;-5.891274288296700E-002;-2.117570489645004E-003;-1.504595158621669E-003;
2.417500000000000E+009;1.740919798612595E-001;-5.935938283801079E-002;-2.017598366364837E-003;-1.557247131131589E-003;
2.417666666666667E+009;1.733643710613251E-001;-5.944429710507393E-002;-1.956908730790019E-003;-1.487098634243012E-003;
2.417833333333334E+009;1.723519712686539E-001;-5.993663519620895E-002;-2.164564328268170E-003;-1.437623053789139E-003;
2.418000000000000E+009;1.711668670177460E-001;-6.047553569078445E-002;-2.132033929228783E-003;-1.350328675471246E-003;
2.418166666666667E+009;1.701285839080811E-001;-6.070725247263908E-002;-1.975549384951592E-003;-1.495996373705566E-003;
2.418333333333334E+009;1.691620349884033E-001;-6.145596131682396E-002;-2.171629341319203E-003;-1.371267484501004E-003;
2.418500000000000E+009;1.678043007850647E-001;-6.200846657156944E-002;-2.157020615413785E-003;-1.295290188863874E-003;
2.418666666666667E+009;1.667330265045166E-001;-6.254481524229050E-002;-2.065999200567603E-003;-1.329462043941021E-003;
2.418833333333334E+009;1.652351170778275E-001;-6.344515830278397E-002;-2.238419605419040E-003;-1.221429789438844E-003;
2.419000000000000E+009;1.639191508293152E-001;-6.412548571825028E-002;-2.109190216287971E-003;-1.274809590540826E-003;
2.419166666666667E+009;1.626520901918411E-001;-6.510744243860245E-002;-2.113621449097991E-003;-1.234870753251016E-003;
2.419333333333334E+009;1.613293737173080E-001;-6.581775099039078E-002;-2.215957967564464E-003;-1.265910337679088E-003;
2.419500000000000E+009;1.603911072015762E-001;-6.706406921148300E-002;-2.271116245537996E-003;-1.282400451600552E-003;
2.419666666666667E+009;1.592186540365219E-001;-6.827403604984283E-002;-2.420840319246054E-003;-1.198466285131872E-003;
2.419833333333334E+009;1.579564809799194E-001;-6.925934553146362E-002;-2.233131788671017E-003;-1.183045678772032E-003;
2.420000000000000E+009;1.568951457738876E-001;-7.057641446590424E-002;-2.143796300515533E-003;-1.081130001693964E-003;
2.420166666666667E+009;1.558534651994705E-001;-7.188662886619568E-002;-2.388544147834182E-003;-1.133083831518889E-003;
2.420333333333334E+009;1.549886763095856E-001;-7.349654287099838E-002;-2.360691316425800E-003;-9.897305862978101E-004;
2.420500000000000E+009;1.539067775011063E-001;-7.461351156234741E-002;-2.467188751325011E-003;-9.308504522778094E-004;
2.420666666666667E+009;1.530062109231949E-001;-7.606457918882370E-002;-2.566092181950808E-003;-1.002092612907291E-003;
2.420833333333334E+009;1.522658914327622E-001;-7.774416357278824E-002;-2.473006490617991E-003;-1.043875701725483E-003;
2.421000000000000E+009;1.516206711530685E-001;-7.936580479145050E-002;-2.585017122328281E-003;-1.005723024718463E-003;
2.421166666666667E+009;1.510778069496155E-001;-8.093256503343582E-002;-2.723547164350748E-003;-9.724606061354280E-004;
2.421333333333334E+009;1.506504416465759E-001;-8.262365311384201E-002;-2.582092769443989E-003;-8.123663137666881E-004;
2.421500000000000E+009;1.501598060131073E-001;-8.430339395999908E-002;-2.847392810508609E-003;-6.912489770911634E-004;
2.421666666666667E+009;1.498985439538956E-001;-8.603040874004364E-002;-2.878220286220312E-003;-9.572957060299814E-004;
2.421833333333334E+009;1.496725380420685E-001;-8.776843547821045E-002;-2.978800330311060E-003;-5.866452120244503E-004;
2.422000000000000E+009;1.494222283363342E-001;-8.939959108829498E-002;-3.183365100994706E-003;-6.232566083781421E-004;
2.422166666666667E+009;1.493516415357590E-001;-9.133363515138626E-002;-3.225682768970728E-003;-4.781609168276191E-004;
2.422333333333334E+009;1.494997739791870E-001;-9.305296838283539E-002;-3.204179462045431E-003;-2.997653791680932E-004;
2.422500000000000E+009;1.493472754955292E-001;-9.451420605182648E-002;-3.222908824682236E-003;-2.734678564593196E-004;
2.422666666666667E+009;1.496239900588989E-001;-9.632288664579392E-002;-3.392499173060060E-003;-8.984832675196230E-005;
2.422833333333334E+009;1.498710364103317E-001;-9.796266257762909E-002;-3.420792054384947E-003;9.122213668888435E-005;
2.423000000000000E+009;1.501681059598923E-001;-9.950050711631775E-002;-3.425376489758492E-003;3.161847998853773E-004;
2.423166666666667E+009;1.506729274988174E-001;-1.009608507156372E-001;-3.604906843975186E-003;2.347826957702637E-004;
2.423333333333334E+009;1.510097086429596E-001;-1.022181659936905E-001;-3.460275474935770E-003;5.548781482502818E-004;
2.423500000000000E+009;1.514575928449631E-001;-1.036923378705978E-001;-3.465117188170552E-003;8.626424241811037E-004;
2.423666666666667E+009;1.516895890235901E-001;-1.053066179156303E-001;-3.577913623303175E-003;8.834169129841030E-004;
2.423833333333334E+009;1.525139510631561E-001;-1.064584180712700E-001;-3.558724187314510E-003;1.009363564662635E-003;
2.424000000000000E+009;1.529230773448944E-001;-1.074732467532158E-001;-3.214521799236536E-003;1.318633439950645E-003;
2.424166666666667E+009;1.532862484455109E-001;-1.087384000420570E-001;-3.240961348637939E-003;1.338501460850239E-003;
2.424333333333334E+009;1.539858877658844E-001;-1.097975596785545E-001;-3.224671119824052E-003;1.611893763765693E-003;
2.424500000000000E+009;1.544223129749298E-001;-1.108185499906540E-001;-3.249262226745486E-003;1.590944943018258E-003;
2.424666666666667E+009;1.550413668155670E-001;-1.114820912480354E-001;-2.967437030747533E-003;1.821403391659260E-003;
2.424833333333334E+009;1.554105877876282E-001;-1.122158691287041E-001;-2.962639788165689E-003;1.947391545400024E-003;
2.425000000000000E+009;1.558963805437088E-001;-1.130551770329475E-001;-2.784269861876965E-003;1.970561919733882E-003;
2.425166666666667E+009;1.560292541980743E-001;-1.136206388473511E-001;-2.845740178599954E-003;2.191118430346251E-003;
2.425333333333334E+009;1.564831584692001E-001;-1.143302097916603E-001;-2.616345649585128E-003;2.284310292452574E-003;
2.425500000000000E+009;1.568601280450821E-001;-1.147936508059502E-001;-2.426146995276213E-003;2.264995127916336E-003;
2.425666666666667E+009;1.569499671459198E-001;-1.152814626693726E-001;-2.420008881017566E-003;2.457541180774570E-003;
2.425833333333334E+009;1.570228487253189E-001;-1.155657619237900E-001;-2.147567225620151E-003;2.480850089341402E-003;
2.426000000000000E+009;1.571511924266815E-001;-1.159483566880226E-001;-2.032853662967682E-003;2.422496443614364E-003;
2.426166666666667E+009;1.572813242673874E-001;-1.162197291851044E-001;-2.067164983600378E-003;2.700408920645714E-003;
2.426333333333334E+009;1.570938676595688E-001;-1.163719147443771E-001;-1.916761975735426E-003;2.732482738792896E-003;
2.426500000000000E+009;1.569524109363556E-001;-1.164987906813622E-001;-1.729886513203383E-003;2.645858330652118E-003;
2.426666666666667E+009;1.566948741674423E-001;-1.164632514119148E-001;-1.534576993435621E-003;2.700525335967541E-003;
2.426833333333334E+009;1.562470644712448E-001;-1.167132109403610E-001;-1.352866413071752E-003;2.655175980180502E-003;
2.427000000000000E+009;1.558645367622376E-001;-1.168473213911057E-001;-1.306984340772033E-003;2.675446216017008E-003;
2.427166666666667E+009;1.551901251077652E-001;-1.168782189488411E-001;-1.110449200496078E-003;2.704153768718243E-003;
2.427333333333334E+009;1.545433253049851E-001;-1.169711276888847E-001;-1.227963599376380E-003;2.540305722504854E-003;
2.427500000000000E+009;1.539905965328217E-001;-1.170713305473328E-001;-9.091289248317480E-004;2.698419848456979E-003;
2.427666666666667E+009;1.529698073863983E-001;-1.172462627291679E-001;-8.424546103924513E-004;2.585646230727434E-003;
