# Hz S RI R 50
2400000000.0000000000 0.155719667673110989669638115629 0.111343704164028195480184990629 -0.003358609508723020987269736182 0.004035410936921834945678710938 0 0 0 0 
2400166666.6666665077 0.155117437243461608886718750000 0.109034568071365398078675923443 -0.003352991072461009025573730469 0.004179268144071102142333984375 0 0 0 0 
2400333333.3333334923 0.154943674802780206878338731258 0.106985531747341197639222798443 -0.003363165305927395820617675781 0.004543298389762639999389648438 0 0 0 0 
2400500000.0000000000 0.154684498906135586837606865629 0.104235500097274794151225307814 -0.003107075812295078797581338037 0.004558480344712734222412109375 0 0 0 0 
2400666666.6666665077 0.154400274157524108886718750000 0.101786315441131605674662807814 -0.002924423897638916969299316406 0.004972718656063079833984375000 0 0 0 0 
2400833333.3333334923 0.154006198048591613769531250000 0.098826579749584197998046875000 -0.002605723915621637864353798975 0.005284845829010009765625000000 0 0 0 0 
2401000000.0000000000 0.154169738292694091796875000000 0.095996536314487457275390625000 -0.002596319420263171195983886719 0.005275411531329154968261718750 0 0 0 0 
2401166666.6666665077 0.153898403048515292068643134371 0.093024842441082000732421875000 -0.002298259409144521193263388525 0.005674280226230621337890625000 0 0 0 0 
2401333333.3333334923 0.153914287686347989181356865629 0.090081103146076202392578125000 -0.002108461456373333930969238281 0.005797534249722957611083984375 0 0 0 0 
2401500000.0000000000 0.154045566916465787032919365629 0.086864553391933441162109375000 -0.001889326376840472004534077222 0.005788734648376703262329101562 0 0 0 0 
2401666666.6666665077 0.154396593570709200760049384371 0.084099367260932922363281250000 -0.001523735350929201082942343604 0.005971995647996664047241210938 0 0 0 0 
2401833333.3333334923 0.154635667800903292556924384371 0.081033132970333099365234375000 -0.001310825813561677932739257812 0.005889223422855138778686523438 0 0 0 0 
2402000000.0000000000 0.155323088169097900390625000000 0.078190490603446960449218750000 -0.001017606700770556926727294922 0.006051090545952320098876953125 0 0 0 0 
2402166666.6666665077 0.155789107084274291992187500000 0.075345247983932495117187500000 -0.000685905455611646175384521484 0.006062153261154890060424804688 0 0 0 0 
2402333333.3333334923 0.156795367598533602615518134371 0.072414644062519073486328125000 -0.000255686842137947678565979004 0.005979184061288833618164062500 0 0 0 0 
2402500000.0000000000 0.157738953828811701018963731258 0.069606661796569824218750000000 -0.000024621411284897479822839431 0.006025800947099924087524414062 0 0 0 0 
2402666666.6666665077 0.158528670668601989746093750000 0.067201584577560424804687500000 0.000235581203014589900344294415 0.006104228086769580841064453125 0 0 0 0 
2402833333.3333334923 0.159741699695587213714276231258 0.064306080341339111328125000000 0.000506096170283854007720947266 0.006009448785334826383108808301 0 0 0 0 
2403000000.0000000000 0.161205887794494601150674384371 0.061821233481168746948242187500 0.000706351769622415304183959961 0.006034483667463064193725585938 0 0 0 0 
2403166666.6666665077 0.162839367985725402832031250000 0.059448536485433578491210937500 0.000957952404860407114028930664 0.005827688146382570266723632812 0 0 0 0 
2403333333.3333334923 0.164346396923065213302450615629 0.056845497339963912963867187500 0.001161949941888452009913779150 0.005860721226781606674194335938 0 0 0 0 
2403500000.0000000000 0.166078746318817110916299384371 0.054672505706548690795898437500 0.001444778288714587905286479419 0.005606209859251976013183593750 0 0 0 0 
2403666666.6666665077 0.167849749326705904861611884371 0.052663400769233696674387346093 0.001752512529492378018022846753 0.005611484870314598083496093750 0 0 0 0 
2403833333.3333334923 0.169652834534645108321981865629 0.050337359309196472167968750000 0.001838346594013273932813334888 0.005416700150817632675170898438 0 0 0 0 
2404000000.0000000000 0.171216979622840909103231865629 0.048517502844333648681640625000 0.002021878492087126211879111182 0.005417254753410816192626953125 0 0 0 0 
2404166666.6666665077 0.173238813877105712890625000000 0.046831302344799041748046875000 0.002313884440809487862827920068 0.005299371667206287384033203125 0 0 0 0 
2404333333.3333334923 0.174948304891586303710937500000 0.045235358178615570068359375000 0.002326497575268148942234658350 0.005145088769495487213134765625 0 0 0 0 
2404500000.0000000000 0.176638066768646212478799384371 0.043419305235147483135182966407 0.002492026425898075103759765625 0.005018643569201231002807617188 0 0 0 0 
2404666666.6666665077 0.178736478090286310393963731258 0.042337734252214431762695312500 0.002658533863723278045654296875 0.004939890932291746139526367188 0 0 0 0 
2404833333.3333334923 0.180529385805130004882812500000 0.041082561016082756732981096093 0.002888882998377085165736533057 0.004757926799356937408447265625 0 0 0 0 
2405000000.0000000000 0.182147085666656494140625000000 0.040307033807039260864257812500 0.002911920426413416862487792969 0.004705056082457304000854492188 0 0 0 0 
2405166666.6666665077 0.183741465210914611816406250000 0.039507381618022918701171875000 0.003009309759363532066345214844 0.004676085896790027618408203125 0 0 0 0 
2405333333.3333334923 0.185480967164039611816406250000 0.039097335189580917358398437500 0.003098122542724012894871377100 0.004530902486294507980346679688 0 0 0 0 
2405500000.0000000000 0.187197238206863403320312500000 0.038418866693973541259765625000 0.003483108012005687193629599463 0.004358613397926092147827148438 0 0 0 0 
2405666666.6666665077 0.188685148954391507247763115629 0.038147389888763427734375000000 0.003584576537832618193385458838 0.004334298893809319409842206738 0 0 0 0 
2405833333.3333334923 0.190332278609275790115518134371 0.037762016057968139648437500000 0.003658503061160445213317871094 0.004167762584984303388113691113 0 0 0 0 
2406000000.0000000000 0.191564589738845797439736884371 0.037705540657043457031250000000 0.003850578796118497848510742188 0.003910565283149480819702148438 0 0 0 0 
2406166666.6666665077 0.192931145429611206054687500000 0.037509880959987640380859375000 0.003934864420443773269653320312 0.003735685255378485159633017432 0 0 0 0 
2406333333.3333334923 0.194020912051200894454794365629 0.037829522043466567993164062500 0.003960332367569208145141601562 0.003579671029001473946812295068 0 0 0 0 
2406500000.0000000000 0.195202097296714810470419365629 0.037880096584558486938476562500 0.004002545028924942016601562500 0.003212151816114782853367470850 0 0 0 0 
2406666666.6666665077 0.195978671312332208831463731258 0.038098517805337912822682966407 0.004214593209326267242431640625 0.003067912533879280090332031250 0 0 0 0 
2406833333.3333334923 0.196811079978942898849325615629 0.038380745798349380493164062500 0.004330263938754796981811523438 0.002849784679710865020751953125 0 0 0 0 
2407000000.0000000000 0.197258144617080688476562500000 0.038728643208742141723632812500 0.004276151768863201141357421875 0.002623487729579209847691201318 0 0 0 0 
2407166666.6666665077 0.198047488927841186523437500000 0.038854651153087622905690778907 0.004398869350552558898925781250 0.002545478986576199965236044775 0 0 0 0 
2407333333.3333334923 0.198033526539802606780682481258 0.039256703108549118041992187500 0.004247048869729042053222656250 0.002430289052426815032958984375 0 0 0 0 
2407500000.0000000000 0.198227509856224087814169365629 0.039683170616626739501953125000 0.004302307032048702239990234375 0.002088305773213506178614951025 0 0 0 0 
2407666666.6666665077 0.198530644178390502929687500000 0.039923593401908881450612653907 0.004312295001000165939331054688 0.002108712913468480110168457031 0 0 0 0 
2407833333.3333334923 0.198198854923248291015625000000 0.040077794343233108520507812500 0.004202814307063817977905273438 0.001958808163180946870091103662 0 0 0 0 
2408000000.0000000000 0.198192343115806607345419365629 0.040160052478313452983815778907 0.004145503975450992584228515625 0.001737655256874858899357461084 0 0 0 0 
2408166666.6666665077 0.197800010442733792404013115629 0.040221080183982849121093750000 0.004323333967477083206176757812 0.001725298818200827078578329932 0 0 0 0 
2408333333.3333334923 0.197347193956375094314736884371 0.040156424045562737201731096093 0.004227151628583669662475585938 0.001594408997334540107129741138 0 0 0 0 
2408500000.0000000000 0.196843758225441006759481865629 0.040070850402116782451589216407 0.004098650999367237091064453125 0.001294626155868173079249716650 0 0 0 0 
2408666666.6666665077 0.196211501955985995193643134371 0.039886325597763061523437500000 0.004194271750748158368582441113 0.001296941656619309945347451318 0 0 0 0 
2408833333.3333334923 0.195608004927635192871093750000 0.039500556886196143413503278907 0.004242888186126947402954101562 0.001071076840162277004839253003 0 0 0 0 
2409000000.0000000000 0.194643780589103698730468750000 0.038904022425413131713867187500 0.004087198525667191419119550488 0.001062912400811911062953329932 0 0 0 0 
2409166666.6666665077 0.193516746163368197342080634371 0.038156740367412567138671875000 0.004135016351938247680664062500 0.001008644350804388956782675635 0 0 0 0 
2409333333.3333334923 0.192698374390602111816406250000 0.037441104650497443462331403907 0.004129013046622276306152343750 0.000860630825627595186233520508 0 0 0 0 
2409500000.0000000000 0.191456854343414306640625000000 0.036418367177248001098632812500 0.003966515418142080307006835938 0.000854127749335020780563354492 0 0 0 0 
2409666666.6666665077 0.190412774682045010665731865629 0.035141296684741966938059221093 0.003971021156758069992065429688 0.000910282775294035673141479492 0 0 0 0 
2409833333.3333334923 0.189049050211906405349893134371 0.033862084150314331054687500000 0.003891255008056759834289550781 0.000761343224439769983291625977 0 0 0 0 
2410000000.0000000000 0.187934786081314086914062500000 0.032509595155715942382812500000 0.003894058754667640166041708838 0.000801932765170931816101074219 0 0 0 0 
2410166666.6666665077 0.186722233891487093826455634371 0.030653839930891990661621093750 0.004086316563189029693603515625 0.000828318123240023851394653320 0 0 0 0 
2410333333.3333334923 0.185532450675964410979901231258 0.029055178165435791015625000000 0.004025943577289581298828125000 0.000843014917336404323577880859 0 0 0 0 
2410500000.0000000000 0.184278398752212496658486884371 0.027196891605854030954381173046 0.003865438979119061990025185693 0.000654650328215211629867553711 0 0 0 0 
2410666666.6666665077 0.183193311095237704178018134371 0.025127695873379710805872733204 0.004142707679420709609985351562 0.000552867655642330646514892578 0 0 0 0 
2410833333.3333334923 0.182167053222656305511151231258 0.022829594090580940246582031250 0.004192642867565155029296875000 0.000676125229801982641220092773 0 0 0 0 
2411000000.0000000000 0.181114718317985506912393134371 0.020774744451045989990234375000 0.004183364566415548324584960938 0.000578009232413023710250854492 0 0 0 0 
2411166666.6666665077 0.180369734764099093338174384371 0.018612734973430630075474923046 0.004310878459364175796508789062 0.000404373160563409274250584735 0 0 0 0 
2411333333.3333334923 0.179488271474838312347088731258 0.016123147681355479848841483204 0.004318822640925645828247070312 0.000422382843680679798126220703 0 0 0 0 
2411500000.0000000000 0.178873583674430902679119981258 0.013477507047355180222480974805 0.004353071562945842742919921875 0.000270653370535001212924403058 0 0 0 0 
2411666666.6666665077 0.178337275981903103927450615629 0.011215593665838239842424961523 0.004396887496113777160644531250 0.000278828170849010402530115948 0 0 0 0 
2411833333.3333334923 0.177995949983596801757812500000 0.008762519806623458862304687500 0.004466098267585039138793945312 0.000044380329200066632848193510 0 0 0 0 
2412000000.0000000000 0.177882000803947504241619981258 0.006073651369661092758178710938 0.004427570383995771408081054688 0.000001490600084252946967955074 0 0 0 0 
2412166666.6666665077 0.177791893482208307464276231258 0.003426732262596487998962402344 0.004519278649240732192993164062 -0.000251518096774816513061523438 0 0 0 0 
2412333333.3333334923 0.177695676684379605392294365629 0.000790844671428203582763671875 0.004561731591820716857910156250 -0.000398069620132446289062500000 0 0 0 0 
2412500000.0000000000 0.178154855966567993164062500000 -0.001822296064347028949140239185 0.004624612629413604736328125000 -0.000434235378634184598922729492 0 0 0 0 
2412666666.6666665077 0.178491860628128107268963731258 -0.004485426004976034164428710938 0.004738749004900456342215253613 -0.000616636942140758037567138672 0 0 0 0 
2412833333.3333334923 0.178956523537635803222656250000 -0.007244388107210397720336914062 0.004667971748858690261840820312 -0.000711623230017721652984619141 0 0 0 0 
2413000000.0000000000 0.179802760481834411621093750000 -0.009729794226586818695068359375 0.004859490320086479187011718750 -0.000887253263499587774276733398 0 0 0 0 
2413166666.6666665077 0.180499404668808011154013115629 -0.012244461104273799550989920704 0.004894523415714502334594726562 -0.001152739860117436105843569116 0 0 0 0 
2413333333.3333334923 0.181493937969207791427450615629 -0.014815995469689369201660156250 0.004709618631750345230102539062 -0.001311353989876806952832866138 0 0 0 0 
2413500000.0000000000 0.182426869869232205489950615629 -0.017317432910203930246373360546 0.004874139558523893356323242188 -0.001515130046755076105233217554 0 0 0 0 
2413666666.6666665077 0.183615967631339999099893134371 -0.019865714013576511037806326954 0.004850904457271099090576171875 -0.001637434470467268986942910303 0 0 0 0 
2413833333.3333334923 0.184629440307617187500000000000 -0.022145010530948638916015625000 0.004972503520548343658447265625 -0.001899068360216916041133261572 0 0 0 0 
2414000000.0000000000 0.185749560594558688064736884371 -0.024295601993799209594726562500 0.004726868122816085815429687500 -0.002277786610648036003112792969 0 0 0 0 
2414166666.6666665077 0.187356889247894287109375000000 -0.026345744729042049753209298046 0.004730981774628162384033203125 -0.002565397880971432165858603369 0 0 0 0 
2414333333.3333334923 0.188403815031051607986611884371 -0.028582001104950908315638358204 0.004541303031146526336669921875 -0.002773696091026068167445517432 0 0 0 0 
2414500000.0000000000 0.189700782299041803558026231258 -0.030270129442214969289759451954 0.004390061367303133010864257812 -0.002865386428311467170715332031 0 0 0 0 
2414666666.6666665077 0.191095635294914301116619981258 -0.032023116946220397949218750000 0.004425755236297845840454101562 -0.003016176400706171989440917969 0 0 0 0 
2414833333.3333334923 0.192399799823760986328125000000 -0.033636875450611121440847028907 0.004149837885051965713500976562 -0.003318821778520942167994833838 0 0 0 0 
2415000000.0000000000 0.193641722202300997635049384371 -0.035066042095422751689870466407 0.004089120775461196899414062500 -0.003333654487505555152893066406 0 0 0 0 
2415166666.6666665077 0.195221453905105590820312500000 -0.036316297948360443115234375000 0.003906742203980684280395507812 -0.003489193040877581076381064307 0 0 0 0 
2415333333.3333334923 0.196530491113662691970986884371 -0.037566635757684707641601562500 0.003617247566580771966221474756 -0.003500829916447401046752929688 0 0 0 0 
2415500000.0000000000 0.197823658585548400878906250000 -0.038299363106489181518554687500 0.003530756337568163871765136719 -0.003801153739914298057556152344 0 0 0 0 
2415666666.6666665077 0.199245080351829501053018134371 -0.039443291723728179931640625000 0.003597948001697659926173544775 -0.003779264166951179938075400244 0 0 0 0 
2415833333.3333334923 0.200336024165153503417968750000 -0.039982322603464126586914062500 0.003305759280920029120204306494 -0.003911063540726900100708007812 0 0 0 0 
2416000000.0000000000 0.201433241367340087890625000000 -0.040790047496557242656667341407 0.003312629647552967071533203125 -0.004254348110407590866088867188 0 0 0 0 
2416166666.6666665077 0.202453568577766390701455634371 -0.041458453983068473125417341407 0.003151013515889645056483603369 -0.004343518055975437164306640625 0 0 0 0 
2416333333.3333334923 0.203352361917495699783486884371 -0.041683871299028396606445312500 0.003000981872901320891139365088 -0.004442413337528705596923828125 0 0 0 0 
2416500000.0000000000 0.204121097922325106521768134371 -0.041991729289293289184570312500 0.002650623442605137825012207031 -0.004543788265436887741088867188 0 0 0 0 
2416666666.6666665077 0.204689845442771911621093750000 -0.042112093418836586689035783593 0.002531323581933974786045693506 -0.004760340321809053421020507812 0 0 0 0 
2416833333.3333334923 0.205138728022575406173544365629 -0.042411625385284416889231096093 0.002359027042984962897059775244 -0.004812537692487239837646484375 0 0 0 0 
2417000000.0000000000 0.205505430698394803146200615629 -0.042399927973747253417968750000 0.001980715896934270858764648438 -0.004888547584414482116699218750 0 0 0 0 
2417166666.6666665077 0.205512568354606600662393134371 -0.042229391634464256977121721093 0.001712908502668142101885151440 -0.004944084212183952331542968750 0 0 0 0 
2417333333.3333334923 0.205576002597808810135049384371 -0.041987888514995581890065778907 0.001420400454662740013719868237 -0.004770572762936353683471679688 0 0 0 0 
2417500000.0000000000 0.205615773797035189529580634371 -0.041878573596477508544921875000 0.001198982703499495983123779297 -0.004902209155261516571044921875 0 0 0 0 
2417666666.6666665077 0.205246046185493496993856865629 -0.041469525545835501934011091407 0.000890819821506738662719726562 -0.004772372078150510787963867188 0 0 0 0 
2417833333.3333334923 0.205017104744911193847656250000 -0.041252180933952331542968750000 0.000938952260185033082962036133 -0.004755638539791107177734375000 0 0 0 0 
2418000000.0000000000 0.204558506608009310623330634371 -0.040859833359718322753906250000 0.000696540228091180324554443359 -0.004672265145927667617797851562 0 0 0 0 
2418166666.6666665077 0.203802838921546908279580634371 -0.040452431887388229370117187500 0.000571385433431714773178100586 -0.004629622213542461395263671875 0 0 0 0 
2418333333.3333334923 0.203023388981819208343182481258 -0.040199331939220428466796875000 0.000509410747326910495758056641 -0.004485053010284900665283203125 0 0 0 0 
2418500000.0000000000 0.202196761965751703460369981258 -0.040075264871120452880859375000 0.000203876479645259705468854361 -0.004446660168468952178955078125 0 0 0 0 
2418666666.6666665077 0.201395601034164400955361884371 -0.039734311401844031597097028907 0.000353949872078373973995762958 -0.004312269389629364013671875000 0 0 0 0 
2418833333.3333334923 0.200107663869857788085937500000 -0.039720833301544189453125000000 0.000213207706110552007525843488 -0.004459385294467210769653320312 0 0 0 0 
2419000000.0000000000 0.198801562190055902679119981258 -0.039587378501892089843750000000 -0.000013773801583738530223267708 -0.004493770655244588851928710938 0 0 0 0 
2419166666.6666665077 0.197428420186042813400106865629 -0.039817485958337776874582658593 0.000109231026726774898454389029 -0.004277627915143966674804687500 0 0 0 0 
2419333333.3333334923 0.196051105856895502288494981258 -0.039984922856092453002929687500 -0.000027380749088479209354127578 -0.004303751979023218154907226562 0 0 0 0 
2419500000.0000000000 0.194606825709343012054119981258 -0.040186293423175811767578125000 -0.000298849976388737613528651105 -0.004316574428230524063110351562 0 0 0 0 
2419666666.6666665077 0.192855387926101712325888115629 -0.040716845542192459106445312500 -0.000364452629582956379086094989 -0.004316847771406173706054687500 0 0 0 0 
2419833333.3333334923 0.191113680601119995117187500000 -0.041272502392530441284179687500 -0.000494195730425417423248291016 -0.004423755686730146408081054688 0 0 0 0 
2420000000.0000000000 0.189471483230590792556924384371 -0.042012974619865417480468750000 -0.000529151526279747486114501953 -0.004470431245863437652587890625 0 0 0 0 
