# Hz S RI R 
2400000000.0000000000 0.171384394168853787521200615629 0.039991002529859542846679687500 0.000785150798037648200988769531 -0.001977173378691076798679970850 0 0 0 0 
2400166666.6666665077 0.171954765915870694259481865629 0.039651729166507720947265625000 0.000591791467741131782531738281 -0.002302287146449089050292968750 0 0 0 0 
2400333333.3333334923 0.172473147511482211013955634371 0.039121408015489578247070312500 0.000615306315012276172637939453 -0.002200826536864041848423623193 0 0 0 0 
2400500000.0000000000 0.172734916210174588302450615629 0.038471281528472900390625000000 0.000515452295076102018356323242 -0.002461166353896259827854775537 0 0 0 0 
2400666666.6666665077 0.173233479261398287674111884371 0.037785749882459640502929687500 0.000353344948962330818176269531 -0.002473230473697185950038290869 0 0 0 0 
2400833333.3333334923 0.173458680510520907303018134371 0.037534773349761962890625000000 0.000361283280653879100650233136 -0.002808962017297745184657431494 0 0 0 0 
2401000000.0000000000 0.173401162028312710861044365629 0.036678738892078399658203125000 0.000266946532065048813819885254 -0.002898520557209848923924111475 0 0 0 0 
2401166666.6666665077 0.173640623688697787185830634371 0.036270063370466232299804687500 0.000008145335414155852049589157 -0.003053437685593963103053427588 0 0 0 0 
2401333333.3333334923 0.173783674836158807952557481258 0.035354368388652801513671875000 -0.000018085882402374409139156342 -0.003248210763558744950535439600 0 0 0 0 
2401500000.0000000000 0.173710465431213406661825615629 0.034743010997772216796875000000 -0.000333167117787525112002772198 -0.003220109967514872984645224463 0 0 0 0 
2401666666.6666665077 0.173677116632461603362713731258 0.034235455095767981792409528907 -0.000567305891308933496475219727 -0.003175409045070410208461142432 0 0 0 0 
2401833333.3333334923 0.173301428556442288497763115629 0.033487241715192801738698591407 -0.000863416411448270082473754883 -0.003360653994604945182800292969 0 0 0 0 
2402000000.0000000000 0.173243418335914611816406250000 0.032627295702695846557617187500 -0.000735837675165385007858276367 -0.003364709904417396025416708838 0 0 0 0 
2402166666.6666665077 0.173040002584457397460937500000 0.031682886183261871337890625000 -0.001189164933748543045641254956 -0.003259405726566911177394247900 0 0 0 0 
2402333333.3333334923 0.172681957483291598220986884371 0.031071424484252929687500000000 -0.001248966320417820973637246240 -0.003130395663902163939235068213 0 0 0 0 
2402500000.0000000000 0.172578975558280889313067518742 0.030000770464539531362513358204 -0.001352139166556298949598002856 -0.003146889153867959976196289062 0 0 0 0 
2402666666.6666665077 0.172217041254043606857138115629 0.029160687699913978576660156250 -0.001654720632359385924098349463 -0.002875484991818666891810751807 0 0 0 0 
2402833333.3333334923 0.171919986605644198318643134371 0.028262814506888389587402343750 -0.001603482291102408929112099756 -0.003025410231202840805053710938 0 0 0 0 
2403000000.0000000000 0.171318784356117304046307481258 0.026929553598165508615513985546 -0.001781185972504317977307963794 -0.002950716530904173851013183594 0 0 0 0 
2403166666.6666665077 0.171360030770301791092080634371 0.025779260322451591491699218750 -0.001964817289263010025024414062 -0.002746941521763802008387900244 0 0 0 0 
2403333333.3333334923 0.170840829610824612716513115629 0.024627536535263061523437500000 -0.002062528161332010789158486475 -0.002669175155460834936854697119 0 0 0 0 
2403500000.0000000000 0.170180350542068509200888115629 0.023431224748492240905761718750 -0.001982071436941624121425009619 -0.002741621108725666999816894531 0 0 0 0 
2403666666.6666665077 0.169930890202522305587606865629 0.021940674632787700998326485546 -0.002355171833187342123744345557 -0.002700955606997013092041015625 0 0 0 0 
2403833333.3333334923 0.169727042317390386383380018742 0.020732529461383819580078125000 -0.002356562064960598945617675781 -0.002588785020634531974792480469 0 0 0 0 
2404000000.0000000000 0.169355675578117398361044365629 0.019249634817242618906041329296 -0.002678019227460027174708701025 -0.002477793954312800927403115381 0 0 0 0 
2404166666.6666665077 0.169049248099327087402343750000 0.017696600407361980783482735546 -0.002779327332973479790928506006 -0.002308303723111749129054404150 0 0 0 0 
2404333333.3333334923 0.168642416596412686446981865629 0.016137761995196338998814766796 -0.002943546511232852935791015625 -0.002185638761147857146022177588 0 0 0 0 
2404500000.0000000000 0.168479546904563903808593750000 0.014560339041054250544537929102 -0.002933610463514924049377441406 -0.002008152892813086943385458838 0 0 0 0 
2404666666.6666665077 0.168193936347961398025674384371 0.013042323291301730764368826954 -0.003020779695361853079554892432 -0.001787531771697103977203369141 0 0 0 0 
2404833333.3333334923 0.168002024292945889571981865629 0.011270154267549519974678240430 -0.003200790379196404977085732568 -0.001745817600749433040618896484 0 0 0 0 
2405000000.0000000000 0.167922019958496093750000000000 0.009411230683326721191406250000 -0.003036797745153307914733886719 -0.001451307791285217025159526294 0 0 0 0 
2405166666.6666665077 0.167839407920837402343750000000 0.007723598275333642959594726562 -0.003075567772611976103541708838 -0.001414554310031235001207661206 0 0 0 0 
2405333333.3333334923 0.167951688170432988922442518742 0.005748508498072624206542968750 -0.003135299310088158087489462744 -0.001186621142551302909851074219 0 0 0 0 
2405500000.0000000000 0.167701065540313692947549384371 0.004017318133264780044555664062 -0.003141925903037190003636025537 -0.001081873313523828983306884766 0 0 0 0 
2405666666.6666665077 0.167828410863876287262286268742 0.002111698267981410026550292969 -0.003157617524266242980957031250 -0.000901435851119458675384521484 0 0 0 0 
2405833333.3333334923 0.167520254850387600997763115629 0.000164477183716371709674280988 -0.003017695853486657142639160156 -0.000850045005790889263153076172 0 0 0 0 
2406000000.0000000000 0.167592123150825500488281250000 -0.001684081973507999940159463037 -0.002873942023143171830418252100 -0.000654571864288300275802612305 0 0 0 0 
2406166666.6666665077 0.167605355381965609451455634371 -0.003491709707304834885838173975 -0.002736897673457860946655273438 -0.000662671227473765611648559570 0 0 0 0 
2406333333.3333334923 0.167755335569381713867187500000 -0.005240566562861204147338867188 -0.002814125502482057051417685400 -0.000580924563109874725341796875 0 0 0 0 
2406500000.0000000000 0.167656660079956110198651231258 -0.007171678356826305389404296875 -0.002784962765872478918788290869 -0.000627657398581504821777343750 0 0 0 0 
2406666666.6666665077 0.167489990592002896407919365629 -0.008910590782761573791503906250 -0.002736976137384771867039345850 -0.000497571891173720359802246094 0 0 0 0 
2406833333.3333334923 0.167697802186012295821981865629 -0.010674468241631989914863787305 -0.002706510946154593987705849756 -0.000377886521164327914088648663 0 0 0 0 
2407000000.0000000000 0.167782261967658996582031250000 -0.012204512953758239746093750000 -0.002484371885657310919520712744 -0.000467496400233358090550023212 0 0 0 0 
2407166666.6666665077 0.167999014258384704589843750000 -0.013693827204406259709368320898 -0.002546631032600998878479003906 -0.000461354997241869623034876691 0 0 0 0 
2407333333.3333334923 0.167883381247520502288494981258 -0.015308479778468610590924647852 -0.002670353278517723083496093750 -0.000420830590883269906044006348 0 0 0 0 
2407500000.0000000000 0.167959332466125488281250000000 -0.016658110544085499155064766796 -0.002644038293510674996616982568 -0.000569068302866071462631225586 0 0 0 0 
2407666666.6666665077 0.167979046702385004241619981258 -0.017925340682268139230748360546 -0.002764702541753650145289755713 -0.000446709251264110207557678223 0 0 0 0 
2407833333.3333334923 0.168003514409065302093182481258 -0.019191211089491840707799141796 -0.002724252175539731979370117188 -0.000492873485200107097625732422 0 0 0 0 
2408000000.0000000000 0.168266847729682894607705634371 -0.020213771611452099191685860546 -0.002875133417546749114990234375 -0.000386038445867598111003321515 0 0 0 0 
2408166666.6666665077 0.168459162116050692459268134371 -0.021061286330223080026646798046 -0.002740807831287384033203125000 -0.000317363213980570381313878192 0 0 0 0 
2408333333.3333334923 0.168915152549743707854901231258 -0.022137073799967769277552420704 -0.003072849242016673088073730469 -0.000173889580764807787820538931 0 0 0 0 
2408500000.0000000000 0.169084861874580411056356865629 -0.022887876257300380361536795704 -0.003086304059252142906188964844 -0.000160824056365527212619781494 0 0 0 0 
2408666666.6666665077 0.169254854321479797363281250000 -0.023900203406810760498046875000 -0.003149662865325808958766318213 0.000049415095418225967068264620 0 0 0 0 
2408833333.3333334923 0.169329330325126703460369981258 -0.024530420079827308654785156250 -0.003159870859235525131225585938 0.000141040349262766512945452280 0 0 0 0 
2409000000.0000000000 0.169741183519363403320312500000 -0.025133879855275150644322579296 -0.003274140181019901795628213037 0.000249881704803556203842163086 0 0 0 0 
2409166666.6666665077 0.170254468917846707443075615629 -0.025926170870661739004114920704 -0.003429932985454798178431845557 0.000398962059989571625560206281 0 0 0 0 
2409333333.3333334923 0.170756623148918207366619981258 -0.026709919795393940317174141796 -0.003370189340785146193263388525 0.000483963260194286704063415527 0 0 0 0 
2409500000.0000000000 0.170848488807678194900674384371 -0.027423480525612831115722656250 -0.003288537962362169785740517725 0.000723294971976429224014282227 0 0 0 0 
2409666666.6666665077 0.171077460050582913497763115629 -0.028132574632763859140416329296 -0.003416708903387188911437988281 0.000997387571260333061218261719 0 0 0 0 
2409833333.3333334923 0.171456724405288696289062500000 -0.028708284720778468740443045704 -0.003354143584147096113917685400 0.000946088752243667840957641602 0 0 0 0 
2410000000.0000000000 0.171865120530128506759481865629 -0.029400371015071868896484375000 -0.003117462852969766096827841650 0.001127783209085464911219931494 0 0 0 0 
2410166666.6666665077 0.171862334012985201736611884371 -0.030096245929598808288574218750 -0.003360018134117126898524618994 0.001246596104465425014495849609 0 0 0 0 
2410333333.3333334923 0.171834155917167691329794365629 -0.030653681606054309499720389454 -0.003079829970374702973606728662 0.001318201771937310912488627856 0 0 0 0 
2410500000.0000000000 0.171793714165687588790731865629 -0.031416919082403182983398437500 -0.003125756047666072845458984375 0.001386777614243329005000449072 0 0 0 0 
2410666666.6666665077 0.171880915760994013030682481258 -0.032136976718902587890625000000 -0.003015774767845869064331054688 0.001562465680763124985935830225 0 0 0 0 
2410833333.3333334923 0.171812340617179898361044365629 -0.032645639032125473022460937500 -0.003152133896946907043457031250 0.001748079666867851994158100659 0 0 0 0 
2411000000.0000000000 0.171529620885848999023437500000 -0.033204957842826843261718750000 -0.002849378390237689018249511719 0.001832887530326843044878315503 0 0 0 0 
2411166666.6666665077 0.171282693743705805022869981258 -0.033997789025306701660156250000 -0.002888528164476155801060341943 0.001956728752702475027797079932 0 0 0 0 
2411333333.3333334923 0.170896723866462707519531250000 -0.034470491111278526996652971093 -0.002745457459241151809692382812 0.002171569503843783898594521631 0 0 0 0 
2411500000.0000000000 0.170703232288360595703125000000 -0.035135731101036071777343750000 -0.002688596723601222038269042969 0.002218319568783044815063476562 0 0 0 0 
2411666666.6666665077 0.170575961470603887359942518742 -0.035845436155796051025390625000 -0.002620720071718097166774130713 0.002447263337671757178065634619 0 0 0 0 
2411833333.3333334923 0.170069396495819091796875000000 -0.036560900509357452392578125000 -0.002548026153817772865295410156 0.002498962217941879792454384912 0 0 0 0 
2412000000.0000000000 0.169593244791030911544638115629 -0.037283409386873252178151716407 -0.002257979009300469918491982568 0.002532208571210504011866904150 0 0 0 0 
2412166666.6666665077 0.169025123119354303558026231258 -0.037971798330545432353932966407 -0.002116081537678838209864951025 0.002435571746900678114650107275 0 0 0 0 
2412333333.3333334923 0.168737322092056302169638115629 -0.038699287921190261840820312500 -0.002082303864881395859959267725 0.002585435984656215147731161963 0 0 0 0 
2412500000.0000000000 0.167962223291397094726562500000 -0.039502810686826712871511091407 -0.001784681226126850085017538916 0.002638890175148845152613974463 0 0 0 0 
2412666666.6666665077 0.167359665036201504806356865629 -0.040475439280271530151367187500 -0.001661888905800879001617431641 0.002645599655807017846348427881 0 0 0 0 
2412833333.3333334923 0.166987583041191101074218750000 -0.041534028947353363037109375000 -0.001629599020816385962842631763 0.002617788268253207206726074219 0 0 0 0 
2413000000.0000000000 0.166277661919593811035156250000 -0.042225223034620291973073591407 -0.001476224511861800930620503003 0.002473858185112475915196084131 0 0 0 0 
2413166666.6666665077 0.165405258536338806152343750000 -0.043266978114843368530273437500 -0.001311999163590372042414999854 0.002644123975187540054321289062 0 0 0 0 
2413333333.3333334923 0.164693638682365389724893134371 -0.044267665594816207885742187500 -0.001082300092093646960017538916 0.002582875313237309889552451025 0 0 0 0 
2413500000.0000000000 0.164193734526634188553018134371 -0.045462045818567282939870466407 -0.001162880216725171046016074072 0.002554593374952673912048339844 0 0 0 0 
2413666666.6666665077 0.163457140326499911209268134371 -0.046425841748714447021484375000 -0.000961311918217688798904418945 0.002669402165338397026062011719 0 0 0 0 
2413833333.3333334923 0.162687405943870488922442518742 -0.047617886215448379516601562500 -0.000998181174509227275848388672 0.002628177637234330177307128906 0 0 0 0 
2414000000.0000000000 0.161935374140739413162393134371 -0.048779107630252838134765625000 -0.000937422737479209899902343750 0.002552954247221351103541708838 0 0 0 0 
2414166666.6666665077 0.161288633942604092696981865629 -0.049837131053209311748464216407 -0.000879531027749180793762207031 0.002508512465283275084254599463 0 0 0 0 
2414333333.3333334923 0.160719767212867709060830634371 -0.051010224968194961547851562500 -0.000820773420855402946472167969 0.002550223376601933999302529443 0 0 0 0 
2414500000.0000000000 0.160462543368339510818643134371 -0.052123825997114181518554687500 -0.000700704869814217090606689453 0.002278577070683240890502929688 0 0 0 0 
2414666666.6666665077 0.159770488739013699630575615629 -0.053117752075195312500000000000 -0.000681601581163704395294189453 0.002382290083914995193481445312 0 0 0 0 
2414833333.3333334923 0.159285977482795687576455634371 -0.054445859044790267944335937500 -0.000546810624655336141586303711 0.002340717473998665809631347656 0 0 0 0 
2415000000.0000000000 0.158684328198432894607705634371 -0.055613044649362557148020158593 -0.000657854485325515270233154297 0.002521251328289508819580078125 0 0 0 0 
2415166666.6666665077 0.158564299345016507247763115629 -0.056987836956977837299387346093 -0.000468835554784163778454381122 0.002380466321483253998997353662 0 0 0 0 
2415333333.3333334923 0.158349424600601196289062500000 -0.058465305715799331665039062500 -0.000641769787762314081192016602 0.002270382829010487036464072119 0 0 0 0 
2415500000.0000000000 0.158253014087677001953125000000 -0.059606127440929412841796875000 -0.000433648674516007304191589355 0.002210511593148111863377236475 0 0 0 0 
2415666666.6666665077 0.157947435975074795821981865629 -0.061092451214790337299387346093 -0.000439823896158486604690551758 0.002223515184596180915832519531 0 0 0 0 
2415833333.3333334923 0.157798841595649691482705634371 -0.062563501298427581787109375000 -0.000343686202540993690490722656 0.002177952788770198822021484375 0 0 0 0 
2416000000.0000000000 0.157386615872383089920205634371 -0.064049102365970611572265625000 -0.000363441999070346409648341046 0.002158837858587502999546670068 0 0 0 0 
2416166666.6666665077 0.157419502735137911697549384371 -0.065451189875602722167968750000 -0.000322548206895589774281102313 0.002084681531414390043971396338 0 0 0 0 
2416333333.3333334923 0.157202094793319702148437500000 -0.066890202462673187255859375000 -0.000016359334040316749701296159 0.001989283366128801865818642725 0 0 0 0 
2416500000.0000000000 0.157088801264762906173544365629 -0.068498365581035614013671875000 -0.000482968491269275600284022198 0.002204380230978130860569619287 0 0 0 0 
2416666666.6666665077 0.156818866729736300369424384371 -0.069762289524078369140625000000 -0.000358556950232014114230555402 0.002117032418027520179748535156 0 0 0 0 
2416833333.3333334923 0.156723007559776306152343750000 -0.071206137537956237792968750000 -0.000453750340966507792472839355 0.002079574856907128854038857568 0 0 0 0 
2417000000.0000000000 0.156561136245727511306924384371 -0.072554439306259155273437500000 -0.000486652686959132606357020245 0.002079002559185028076171875000 0 0 0 0 
2417166666.6666665077 0.156388163566589410979901231258 -0.073698759078979492187500000000 -0.000527243828400969505310058594 0.002047250280156732039210654150 0 0 0 0 
2417333333.3333334923 0.156208917498588589767294365629 -0.074916258454322814941406250000 -0.000461172283394262194633483887 0.002097555436193943023681640625 0 0 0 0 
2417500000.0000000000 0.156010851263999911209268134371 -0.076175667345523834228515625000 -0.000545820279512554407119750977 0.002215939806774259047267294775 0 0 0 0 
2417666666.6666665077 0.156101450324058504959268134371 -0.077161647379398345947265625000 -0.000545192509889602661132812500 0.002367237117141485214233398438 0 0 0 0 
2417833333.3333334923 0.155910462141036987304687500000 -0.078172653913497924804687500000 -0.000496580207254737615585327148 0.002346751745790243148803710938 0 0 0 0 
2418000000.0000000000 0.155770465731620788574218750000 -0.079231090843677520751953125000 -0.000512676138896495103836059570 0.002466068137437105178833007812 0 0 0 0 
2418166666.6666665077 0.155689463019371004959268134371 -0.079892717301845550537109375000 -0.000452425505500286817550659180 0.002489079255610703988316201318 0 0 0 0 
2418333333.3333334923 0.155898988246917696853799384371 -0.080932840704917907714843750000 -0.000436290545621886903613489972 0.002717603696510196165797568213 0 0 0 0 
2418500000.0000000000 0.155670762062072809417401231258 -0.081620551645755767822265625000 -0.000258078944170847480923253192 0.002792801940813661055323935400 0 0 0 0 
2418666666.6666665077 0.155864611268043490310830634371 -0.082447014749050140380859375000 -0.000184067903319373699739733286 0.002642054343596100807189941406 0 0 0 0 
2418833333.3333334923 0.155468076467514010330361884371 -0.083255313336849212646484375000 -0.000171148145454935702398577280 0.002780098235234618186950683594 0 0 0 0 
2419000000.0000000000 0.155422449111938504318075615629 -0.083808638155460357666015625000 -0.000055939206504262977022717135 0.002807993441820145087001181494 0 0 0 0 
2419166666.6666665077 0.155219614505767794510049384371 -0.084328688681125640869140625000 -0.000007374491815426154062151909 0.002961510093882679939270019531 0 0 0 0 
2419333333.3333334923 0.154847875237464904785156250000 -0.084748364984989166259765625000 0.000176377856405451893806457520 0.002981569385156034989597939600 0 0 0 0 
2419500000.0000000000 0.154977485537528991699218750000 -0.085359431803226470947265625000 0.000250306038651615381240844727 0.003030694788321853117701865088 0 0 0 0 
2419666666.6666665077 0.154749736189842196365518134371 -0.085855014622211456298828125000 0.000346295651979744380146580829 0.003042966127395629882812500000 0 0 0 0 
2419833333.3333334923 0.154461994767188998123330634371 -0.086146891117095947265625000000 0.000404818390961736386448460712 0.003221331862732768058776855469 0 0 0 0 
