# Version 1.00
#
freq[Hz];re:Trc1_S11;im:Trc1_S11;re:Trc2_S21;im:Trc2_S21;
2.400000000000000E+009;1.509290337562561E-001;1.140387281775475E-001;9.849679190665484E-004;-4.315676167607307E-003;
2.400166666666667E+009;1.508164852857590E-001;1.117164865136147E-001;8.966814493760467E-004;-4.158244933933020E-003;
2.400333333333334E+009;1.509299427270889E-001;1.094617396593094E-001;8.413869072683156E-004;-4.318739753216505E-003;
2.400500000000000E+009;1.508678793907166E-001;1.068226471543312E-001;7.811869145371020E-004;-4.451154731214047E-003;
2.400666666666667E+009;1.511330455541611E-001;1.042096018791199E-001;8.110328344628215E-004;-4.471362102776766E-003;
2.400833333333334E+009;1.513201743364334E-001;1.015210822224617E-001;7.390860118903220E-004;-4.587360657751560E-003;
2.401000000000000E+009;1.515363305807114E-001;9.858521074056625E-002;6.376046221703291E-004;-4.762842785567045E-003;
2.401166666666667E+009;1.516757607460022E-001;9.572521597146988E-002;5.009531159885228E-004;-4.965394269675016E-003;
2.401333333333334E+009;1.521237045526505E-001;9.283817559480667E-002;3.623208904173225E-004;-5.158608313649893E-003;
2.401500000000000E+009;1.526935249567032E-001;9.013572335243225E-002;-5.391992453951389E-005;-5.181160755455494E-003;
2.401666666666667E+009;1.531016975641251E-001;8.730040490627289E-002;-2.550921344663948E-004;-5.312414374202490E-003;
2.401833333333334E+009;1.538481265306473E-001;8.443782478570938E-002;-5.972491344437003E-004;-5.420585162937641E-003;
2.402000000000000E+009;1.546679735183716E-001;8.180892467498779E-002;-6.286387797445059E-004;-5.326145794242621E-003;
2.402166666666667E+009;1.556526720523834E-001;7.924015074968338E-002;-1.123556867241859E-003;-5.450474563986063E-003;
2.402333333333334E+009;1.567727774381638E-001;7.647922635078430E-002;-1.450270181521773E-003;-5.323085933923721E-003;
2.402500000000000E+009;1.581485569477081E-001;7.387080043554306E-002;-1.735456520691514E-003;-5.153002683073282E-003;
2.402666666666667E+009;1.592855751514435E-001;7.185268402099609E-002;-1.981356181204319E-003;-5.032096058130264E-003;
2.402833333333334E+009;1.608906388282776E-001;6.916639208793640E-002;-2.232220256701112E-003;-4.898354876786470E-003;
2.403000000000000E+009;1.624254286289215E-001;6.679166853427887E-002;-2.364470390602946E-003;-4.630371462553740E-003;
2.403166666666667E+009;1.646058857440949E-001;6.453250348567963E-002;-2.659655408933759E-003;-4.424094688147306E-003;
2.403333333333334E+009;1.661141663789749E-001;6.232040375471115E-002;-2.784039592370391E-003;-4.412249661982060E-003;
2.403500000000000E+009;1.679984927177429E-001;6.037656217813492E-002;-2.906240988522768E-003;-4.249964375048876E-003;
2.403666666666667E+009;1.699449270963669E-001;5.832590907812119E-002;-3.001008415594697E-003;-3.937123343348503E-003;
2.403833333333334E+009;1.718266904354096E-001;5.637082457542419E-002;-2.966575091704726E-003;-3.745715599507093E-003;
2.404000000000000E+009;1.735007911920548E-001;5.467507615685463E-002;-3.295456292107701E-003;-3.787489607930183E-003;
2.404166666666667E+009;1.755288988351822E-001;5.300670862197876E-002;-3.300094278529286E-003;-3.443104214966297E-003;
2.404333333333334E+009;1.774243712425232E-001;5.135324224829674E-002;-3.344937460497022E-003;-3.451858647167683E-003;
2.404500000000000E+009;1.791787147521973E-001;4.973674565553665E-002;-3.403105074539781E-003;-3.210573224350810E-003;
2.404666666666667E+009;1.811165660619736E-001;4.884409904479981E-002;-3.484438406303525E-003;-3.340707859024406E-003;
2.404833333333334E+009;1.826838105916977E-001;4.762637987732887E-002;-3.493850119411945E-003;-3.119437256827951E-003;
2.405000000000000E+009;1.843055635690689E-001;4.694780334830284E-002;-3.523138817399740E-003;-3.179047955200076E-003;
2.405166666666667E+009;1.860125064849854E-001;4.617044702172279E-002;-3.551729721948504E-003;-2.992608351632953E-003;
2.405333333333334E+009;1.875731348991394E-001;4.564820602536202E-002;-3.797517390921712E-003;-2.915507648140192E-003;
2.405500000000000E+009;1.891774833202362E-001;4.527834430336952E-002;-3.862309735268354E-003;-2.843885449692607E-003;
2.405666666666667E+009;1.904647797346115E-001;4.478388652205467E-002;-3.978659398853779E-003;-2.748016035184264E-003;
2.405833333333334E+009;1.918068677186966E-001;4.453060030937195E-002;-4.150971304625273E-003;-2.397569594904780E-003;
2.406000000000000E+009;1.930735111236572E-001;4.428401216864586E-002;-4.033500794321299E-003;-2.438850933685899E-003;
2.406166666666667E+009;1.942301392555237E-001;4.397051781415939E-002;-4.314833320677280E-003;-2.247147727757692E-003;
2.406333333333334E+009;1.952469050884247E-001;4.405000805854797E-002;-4.544183146208525E-003;-2.151272492483258E-003;
2.406500000000000E+009;1.960129290819168E-001;4.406829550862312E-002;-4.396571777760983E-003;-2.021763473749161E-003;
2.406666666666667E+009;1.968284547328949E-001;4.405422136187553E-002;-4.602422937750816E-003;-1.566950813867152E-003;
2.406833333333334E+009;1.973803192377091E-001;4.396104440093041E-002;-4.481001757085323E-003;-1.535975141450763E-003;
2.407000000000000E+009;1.976874172687531E-001;4.400926828384399E-002;-4.662645049393177E-003;-1.357067725621164E-003;
2.407166666666667E+009;1.982664912939072E-001;4.389394819736481E-002;-4.844230134040117E-003;-9.840797865763307E-004;
2.407333333333334E+009;1.982627958059311E-001;4.394711926579475E-002;-4.555380903184414E-003;-9.236018522642553E-004;
2.407500000000000E+009;1.983136832714081E-001;4.383680596947670E-002;-4.661578685045242E-003;-8.602308225817978E-004;
2.407666666666667E+009;1.982701569795609E-001;4.383547604084015E-002;-4.717201925814152E-003;-6.599006592296064E-004;
2.407833333333334E+009;1.978277564048767E-001;4.362398013472557E-002;-4.609959665685892E-003;-4.587918228935450E-004;
2.408000000000000E+009;1.976318657398224E-001;4.350944235920906E-002;-4.730995278805494E-003;-2.262465568492189E-004;
2.408166666666667E+009;1.971949338912964E-001;4.313243180513382E-002;-4.790730774402618E-003;-5.686136137228459E-005;
2.408333333333334E+009;1.966981291770935E-001;4.256045445799828E-002;-4.548704251646996E-003;1.096509877243079E-004;
2.408500000000000E+009;1.959666460752487E-001;4.213932156562805E-002;-4.561326466500759E-003;1.762032770784572E-004;
2.408666666666667E+009;1.952372342348099E-001;4.166507348418236E-002;-4.551706369966269E-003;3.571425040718168E-004;
2.408833333333334E+009;1.944878846406937E-001;4.090390354394913E-002;-4.526352509856224E-003;4.362550389487296E-004;
2.409000000000000E+009;1.934169083833695E-001;3.981469944119453E-002;-4.396669566631317E-003;5.874637863598764E-004;
2.409166666666667E+009;1.924522966146469E-001;3.886765986680985E-002;-4.300287459045649E-003;7.121691596694291E-004;
2.409333333333334E+009;1.915529817342758E-001;3.785333409905434E-002;-4.324747249484062E-003;9.167197858914733E-004;
2.409500000000000E+009;1.903572231531143E-001;3.648401796817780E-002;-4.127801861613989E-003;1.007010927423835E-003;
2.409666666666667E+009;1.893072873353958E-001;3.510727360844612E-002;-3.954129759222269E-003;9.092621039599180E-004;
2.409833333333334E+009;1.879165917634964E-001;3.362810611724854E-002;-3.868209663778544E-003;1.118031679652631E-003;
2.410000000000000E+009;1.870443373918533E-001;3.210552409291267E-002;-3.687755903229117E-003;1.235706731677055E-003;
2.410166666666667E+009;1.858094632625580E-001;3.026185184717178E-002;-3.649577032774687E-003;1.213265815749764E-003;
2.410333333333334E+009;1.849008947610855E-001;2.833190374076366E-002;-3.620096249505878E-003;1.392134581692517E-003;
2.410500000000000E+009;1.838175207376480E-001;2.642962895333767E-002;-3.555856645107269E-003;1.189052010886371E-003;
2.410666666666667E+009;1.827056407928467E-001;2.406874299049377E-002;-3.405190771445632E-003;1.214025658555329E-003;
2.410833333333334E+009;1.821265369653702E-001;2.191402763128281E-002;-3.420779947191477E-003;1.277665491215885E-003;
2.411000000000000E+009;1.811681985855103E-001;1.949414797127247E-002;-3.338609356433153E-003;1.283639459870756E-003;
2.411166666666667E+009;1.806442439556122E-001;1.754513382911682E-002;-3.309988649562001E-003;1.222190796397626E-003;
2.411333333333334E+009;1.799408495426178E-001;1.482984051108360E-002;-3.365464508533478E-003;1.318277209065855E-003;
2.411500000000000E+009;1.794980019330978E-001;1.259589008986950E-002;-3.447624389082193E-003;1.228002831339836E-003;
2.411666666666667E+009;1.792600154876709E-001;1.010239962488413E-002;-3.602933837100864E-003;1.265573548153043E-003;
2.411833333333334E+009;1.787834614515305E-001;7.716225925832987E-003;-3.618359798565507E-003;1.428225776180625E-003;
2.412000000000000E+009;1.788417994976044E-001;5.025690887123346E-003;-3.811367554590106E-003;1.322760363109410E-003;
2.412166666666667E+009;1.790586709976196E-001;2.751563908532262E-003;-3.852714784443378E-003;1.641084556467831E-003;
2.412333333333334E+009;1.792883425951004E-001;6.132423004601151E-005;-3.865051548928022E-003;1.621977658942342E-003;
2.412500000000000E+009;1.796098649501801E-001;-2.462272997945547E-003;-3.991339355707169E-003;1.718557323329151E-003;
2.412666666666667E+009;1.800543963909149E-001;-4.891423042863607E-003;-4.187835846096277E-003;1.913010026328266E-003;
2.412833333333334E+009;1.805401295423508E-001;-7.355851121246815E-003;-4.183529410511255E-003;2.162154298275709E-003;
2.413000000000000E+009;1.813086569309235E-001;-9.616977535188198E-003;-4.215873777866364E-003;2.520097186788917E-003;
2.413166666666667E+009;1.820831894874573E-001;-1.198769174516201E-002;-4.248298238962889E-003;2.684893552213907E-003;
2.413333333333334E+009;1.832540035247803E-001;-1.446387916803360E-002;-4.127442836761475E-003;2.981318859383464E-003;
2.413500000000000E+009;1.840945184230804E-001;-1.675046235322952E-002;-4.137269221246243E-003;3.418177366256714E-003;
2.413666666666667E+009;1.851875334978104E-001;-1.897653937339783E-002;-4.079751204699278E-003;3.674540435895324E-003;
2.413833333333334E+009;1.863130480051041E-001;-2.086975052952766E-002;-3.945778589695692E-003;3.832156537100673E-003;
2.414000000000000E+009;1.874296069145203E-001;-2.297194488346577E-002;-3.579842625185847E-003;4.034618847072125E-003;
2.414166666666667E+009;1.888397186994553E-001;-2.492116764187813E-002;-3.530055982992053E-003;4.422204103320837E-003;
2.414333333333334E+009;1.898771822452545E-001;-2.674169279634953E-002;-3.220196114853025E-003;4.632744938135147E-003;
2.414500000000000E+009;1.910762488842011E-001;-2.825876325368881E-002;-2.947000786662102E-003;4.851160570979118E-003;
2.414666666666667E+009;1.924088597297669E-001;-2.971805818378925E-002;-2.701719291508198E-003;5.048017483204603E-003;
2.414833333333334E+009;1.934953778982163E-001;-3.114622458815575E-002;-2.489831065759063E-003;5.167339928448200E-003;
2.415000000000000E+009;1.947662681341171E-001;-3.249128162860870E-002;-2.267639385536313E-003;5.173344630748034E-003;
2.415166666666667E+009;1.958838850259781E-001;-3.347429260611534E-002;-1.871892483904958E-003;5.180099513381720E-003;
2.415333333333334E+009;1.971071213483810E-001;-3.453829512000084E-002;-1.558682066388428E-003;5.113779567182064E-003;
2.415500000000000E+009;1.981858611106873E-001;-3.524072095751762E-002;-1.375293941237032E-003;5.429825279861689E-003;
2.415666666666667E+009;1.993418335914612E-001;-3.605356812477112E-002;-1.310057006776333E-003;5.366580095142126E-003;
2.415833333333334E+009;2.001747488975525E-001;-3.670425340533257E-002;-9.829412447288632E-004;5.364899057894945E-003;
2.416000000000000E+009;2.009307742118835E-001;-3.728465735912323E-002;-7.378407171927393E-004;5.369550548493862E-003;
2.416166666666667E+009;2.016522586345673E-001;-3.770569711923599E-002;-3.365904849488288E-004;5.422025453299284E-003;
2.416333333333334E+009;2.022721618413925E-001;-3.796682506799698E-002;-2.155835536541417E-004;5.414787214249373E-003;
2.416500000000000E+009;2.027589231729507E-001;-3.819724544882774E-002;-2.676613621588331E-005;5.308272782713175E-003;
2.416666666666667E+009;2.030462920665741E-001;-3.840862959623337E-002;9.617409523343667E-005;5.337739828974009E-003;
2.416833333333334E+009;2.032080590724945E-001;-3.827904909849167E-002;3.332092310301960E-004;5.444356240332127E-003;
2.417000000000000E+009;2.034446299076080E-001;-3.834188356995583E-002;7.215159130282700E-004;5.316715221852064E-003;
2.417166666666667E+009;2.032489776611328E-001;-3.815783187747002E-002;8.464994025416672E-004;5.402469541877508E-003;
2.417333333333334E+009;2.028917968273163E-001;-3.795979917049408E-002;1.279548974707723E-003;5.214496050029993E-003;
2.417500000000000E+009;2.027038186788559E-001;-3.798801824450493E-002;1.405647140927613E-003;5.140954628586769E-003;
2.417666666666667E+009;2.021685689687729E-001;-3.759821876883507E-002;1.596150221303105E-003;5.125910509377718E-003;
2.417833333333334E+009;2.017570436000824E-001;-3.734108060598373E-002;1.989347161725164E-003;4.939508158713579E-003;
2.418000000000000E+009;2.011316418647766E-001;-3.694905713200569E-002;2.123544225469232E-003;4.733815789222717E-003;
2.418166666666667E+009;2.003450393676758E-001;-3.679269924759865E-002;2.416092669591308E-003;4.718403797596693E-003;
2.418333333333334E+009;1.995907276868820E-001;-3.657827898859978E-002;2.502571558579803E-003;4.476316738873720E-003;
2.418500000000000E+009;1.985913962125778E-001;-3.642293065786362E-002;2.738836221396923E-003;4.244561307132244E-003;
2.418666666666667E+009;1.976348757743835E-001;-3.628430515527725E-002;2.782046096399427E-003;4.134003538638353E-003;
2.418833333333334E+009;1.964583694934845E-001;-3.637559339404106E-002;2.927773632109165E-003;3.960236441344023E-003;
2.419000000000000E+009;1.952253580093384E-001;-3.656332939863205E-002;3.047670004889369E-003;3.687065327540040E-003;
2.419166666666667E+009;1.938742250204086E-001;-3.679163381457329E-002;3.177981125190854E-003;3.556597512215376E-003;
2.419333333333334E+009;1.926279962062836E-001;-3.722585365176201E-002;3.312587970867753E-003;3.228789661079645E-003;
2.419500000000000E+009;1.912219822406769E-001;-3.754707053303719E-002;3.170636249706149E-003;3.169266972690821E-003;
2.419666666666667E+009;1.897211372852325E-001;-3.841797634959221E-002;3.245791420340538E-003;2.815885934978724E-003;
2.419833333333334E+009;1.880031377077103E-001;-3.893904760479927E-002;3.189811483025551E-003;2.695951377972961E-003;
2.420000000000000E+009;1.864337027072907E-001;-3.987885266542435E-002;3.211939707398415E-003;2.441033953800798E-003;
2.420166666666667E+009;1.848429590463638E-001;-4.082148894667625E-002;3.200377570465207E-003;2.438515890389681E-003;
2.420333333333334E+009;1.832583099603653E-001;-4.184428974986076E-002;3.266549669206142E-003;2.233920618891716E-003;
2.420500000000000E+009;1.815224140882492E-001;-4.339343309402466E-002;3.146566217765212E-003;2.089496236294508E-003;
2.420666666666667E+009;1.799065917730331E-001;-4.435114562511444E-002;3.066008444875479E-003;2.081543207168579E-003;
2.420833333333334E+009;1.782531589269638E-001;-4.584601521492004E-002;3.155976533889771E-003;2.034187316894531E-003;
2.421000000000000E+009;1.766297221183777E-001;-4.752539098262787E-002;3.191549796611071E-003;2.019461710005999E-003;
2.421166666666667E+009;1.752410084009171E-001;-4.911664500832558E-002;3.088662168011069E-003;1.956950174644589E-003;
2.421333333333334E+009;1.735097616910934E-001;-5.071438476443291E-002;3.157993080094457E-003;1.772937248460949E-003;
2.421500000000000E+009;1.721436828374863E-001;-5.270069465041161E-002;3.139811567962170E-003;1.670386176556349E-003;
2.421666666666667E+009;1.708745062351227E-001;-5.451978743076325E-002;3.384656039997935E-003;1.803389401175082E-003;
2.421833333333334E+009;1.697886586189270E-001;-5.622373148798943E-002;3.297397168353200E-003;1.585945137776434E-003;
2.422000000000000E+009;1.685097068548203E-001;-5.809282511472702E-002;3.424988826736808E-003;1.506687491200864E-003;
2.422166666666667E+009;1.676335930824280E-001;-6.006653979420662E-002;3.444783156737685E-003;1.390533871017397E-003;
2.422333333333334E+009;1.667390018701553E-001;-6.205463781952858E-002;3.270360175520182E-003;1.200238359160721E-003;
2.422500000000000E+009;1.660310924053192E-001;-6.393690407276154E-002;3.387832781299949E-003;9.977552108466625E-004;
2.422666666666667E+009;1.653565466403961E-001;-6.586052477359772E-002;3.367448458448052E-003;1.069126883521676E-003;
2.422833333333334E+009;1.649986803531647E-001;-6.802865117788315E-002;3.427710384130478E-003;9.211783763021231E-004;
2.423000000000000E+009;1.644044369459152E-001;-7.000643759965897E-002;3.413063706830144E-003;7.864498184062541E-004;
2.423166666666667E+009;1.642854958772659E-001;-7.196205109357834E-002;3.259667428210378E-003;7.716706022620201E-004;
2.423333333333334E+009;1.640442907810211E-001;-7.391341030597687E-002;3.165686503052712E-003;6.538985762745142E-004;
2.423500000000000E+009;1.640528142452240E-001;-7.566095888614655E-002;3.258691634982824E-003;5.313269211910665E-004;
2.423666666666667E+009;1.642993539571762E-001;-7.765499502420425E-002;3.351567080244422E-003;5.063299322500825E-004;
2.423833333333334E+009;1.643555611371994E-001;-7.942081242799759E-002;3.244337625801563E-003;4.859447944909334E-004;
2.424000000000000E+009;1.645804643630981E-001;-8.122570067644119E-002;3.305577673017979E-003;4.060389765072614E-004;
2.424166666666667E+009;1.647658050060272E-001;-8.283742517232895E-002;3.291474189609289E-003;2.102706203004345E-004;
2.424333333333334E+009;1.651404649019241E-001;-8.429982513189316E-002;3.402972826734185E-003;3.432161174714565E-004;
2.424500000000000E+009;1.654899567365646E-001;-8.603625744581223E-002;3.511170856654644E-003;1.589676139701624E-005;
2.424666666666667E+009;1.659080386161804E-001;-8.724658191204071E-002;3.346208017319441E-003;-2.806339352900977E-006;
2.424833333333334E+009;1.667090952396393E-001;-8.878020197153091E-002;3.422691253945231E-003;-9.903196769300848E-005;
2.425000000000000E+009;1.672420948743820E-001;-9.000080823898315E-002;3.331882413476706E-003;-1.402621710440144E-004;
2.425166666666667E+009;1.678080111742020E-001;-9.086260199546814E-002;3.359972732141614E-003;-2.543175942264497E-004;
2.425333333333334E+009;1.681611984968185E-001;-9.201272577047348E-002;3.336062887683511E-003;-4.691760404966772E-004;
2.425500000000000E+009;1.688366681337357E-001;-9.298241138458252E-002;3.250649431720376E-003;-4.693188238888979E-004;
2.425666666666667E+009;1.694081425666809E-001;-9.362566471099854E-002;3.140857443213463E-003;-6.000870489515364E-004;
2.425833333333334E+009;1.699366867542267E-001;-9.443605691194534E-002;3.289993852376938E-003;-6.686612032353878E-004;
2.426000000000000E+009;1.704729944467545E-001;-9.491918981075287E-002;3.217195626348257E-003;-7.229523616842926E-004;
2.426166666666667E+009;1.711035817861557E-001;-9.543024748563767E-002;3.165014088153839E-003;-8.125581080093980E-004;
2.426333333333334E+009;1.713908463716507E-001;-9.606839716434479E-002;3.079541493207216E-003;-8.558819536119700E-004;
2.426500000000000E+009;1.719545274972916E-001;-9.629567712545395E-002;2.956073498353362E-003;-1.024569850414991E-003;
2.426666666666667E+009;1.723171025514603E-001;-9.667380154132843E-002;3.106617601588368E-003;-1.018064212985337E-003;
2.426833333333334E+009;1.728853136301041E-001;-9.714221954345703E-002;2.968106418848038E-003;-1.135179190896452E-003;
2.427000000000000E+009;1.729600429534912E-001;-9.733078628778458E-002;2.963235368952155E-003;-1.086495933122933E-003;
2.427166666666667E+009;1.731391549110413E-001;-9.739346057176590E-002;2.850737888365984E-003;-1.332762651145458E-003;
2.427333333333334E+009;1.732226014137268E-001;-9.777595847845078E-002;2.772141713649035E-003;-1.220652717165649E-003;
2.427500000000000E+009;1.731711477041245E-001;-9.815420210361481E-002;2.967905718833208E-003;-1.334155211225152E-003;
2.427666666666667E+009;1.729996651411057E-001;-9.815973788499832E-002;2.730574924498797E-003;-1.361109898425639E-003;
2.427833333333334E+009;1.726654469966888E-001;-9.833279252052307E-002;2.880615182220936E-003;-1.427286304533482E-003;
