# Hz S RI R 
2400000000.0000000000 0.170938462018966702560263115629 0.039960041642189032817800153907 0.001140449079684912941576313550 -0.002047939458861947059631347656 0 0 0 0 
2400166666.6666665077 0.171489506959915188888388115629 0.039620310068130493164062500000 0.000951674883253872394561767578 -0.001969157019630074934718466650 0 0 0 0 
2400333333.3333334923 0.172015935182571411132812500000 0.038895908743143081665039062500 0.000856872997246682643890380859 -0.001930880709551274993299174731 0 0 0 0 
2400500000.0000000000 0.172534167766570989410723768742 0.038069911301136016845703125000 0.000880198669619858264923095703 -0.001658560009673238017438579028 0 0 0 0 
2400666666.6666665077 0.172818824648857088943643134371 0.037514656782150268554687500000 0.000603342137765139341354370117 -0.001650021062232553958892822266 0 0 0 0 
2400833333.3333334923 0.173074439167976407150106865629 0.037049353122711181640625000000 0.000665500236209481954574584961 -0.001409947755746542973759316553 0 0 0 0 
2401000000.0000000000 0.173355787992477389236611884371 0.036305651068687438964843750000 0.000672206690069288015365600586 -0.001318570110015570900560688550 0 0 0 0 
2401166666.6666665077 0.173393547534942599197549384371 0.035633262246847152709960937500 0.000641056918539106845855712891 -0.001303869765251874923706054688 0 0 0 0 
2401333333.3333334923 0.173470884561538696289062500000 0.034950472414493560791015625000 0.000849846401251852512359619141 -0.000980398035608232021331787109 0 0 0 0 
2401500000.0000000000 0.173450082540512112716513115629 0.034428238868713378906250000000 0.000781326496507972478866577148 -0.000951991300098598003387451172 0 0 0 0 
2401666666.6666665077 0.173453405499458312988281250000 0.033736500889062881469726562500 0.000818936910945922136306762695 -0.000942502461839467287063598633 0 0 0 0 
2401833333.3333334923 0.173361763358116205413494981258 0.032868839800357818603515625000 0.000866410846356302499771118164 -0.000930226466152817010879516602 0 0 0 0 
2402000000.0000000000 0.173243612051010104080361884371 0.032294265925884246826171875000 0.001019822317175566933275532300 -0.000982740777544677257537841797 0 0 0 0 
2402166666.6666665077 0.172972992062568692306356865629 0.031455907970666892314870466407 0.001210609218105674006818461841 -0.000953185372054576873779296875 0 0 0 0 
2402333333.3333334923 0.172501131892204312423544365629 0.030640184879302978515625000000 0.001210575923323631069780659253 -0.000943836581427603960037231445 0 0 0 0 
2402500000.0000000000 0.172627374529838589767294365629 0.029784573242068290710449218750 0.001350794802419841072679829175 -0.001163462293334305069567036206 0 0 0 0 
2402666666.6666665077 0.172132879495620699783486884371 0.028912521898746490478515625000 0.001460505882278084971784282153 -0.001054296502843498966814350659 0 0 0 0 
2402833333.3333334923 0.171706855297088595291299384371 0.027815606445074081420898437500 0.001543666352517903067945170825 -0.001198508543893695094464946216 0 0 0 0 
2403000000.0000000000 0.171565800905227688888388115629 0.026967879384756091726282889454 0.001510698581114410920384072412 -0.001543241087347269058227539062 0 0 0 0 
2403166666.6666665077 0.171356439590454101562500000000 0.025793196633458140981653983204 0.001523218350484967014910053784 -0.001526670763269067027448344653 0 0 0 0 
2403333333.3333334923 0.170943111181259210784588731258 0.024463200941681858407994454296 0.001627696095965803103206015479 -0.001634540269151329994201660156 0 0 0 0 
2403500000.0000000000 0.170485928654670687576455634371 0.023322040215134620666503906250 0.001517604570835828997968364185 -0.001759359729476273059844970703 0 0 0 0 
2403666666.6666665077 0.170203894376754788497763115629 0.021895620971918109548548514454 0.001405816641636193015454936450 -0.001822131103835999965667724609 0 0 0 0 
2403833333.3333334923 0.169995337724685696700888115629 0.020438861101865768432617187500 0.001502055791206658103345561450 -0.001927922479808330969569540869 0 0 0 0 
2404000000.0000000000 0.169576779007911709884481865629 0.019105281680822368967076485546 0.001254040165804326967952109229 -0.002202054020017385916468954932 0 0 0 0 
2404166666.6666665077 0.169375151395797701736611884371 0.017665820196270939218541329296 0.001223470200784503979923867334 -0.002117275493219494819641113281 0 0 0 0 
2404333333.3333334923 0.169020205736160306075888115629 0.016108302399516109121302420704 0.000963141152169555425643920898 -0.002384928986430168151855468750 0 0 0 0 
2404500000.0000000000 0.168535754084587097167968750000 0.014514320529997350520123866602 0.001067157019861042933223105322 -0.002436418784782290892360068213 0 0 0 0 
2404666666.6666665077 0.168458297848701504806356865629 0.012987607158720489847203438671 0.000809186429250985383987426758 -0.002305980306118727164027548682 0 0 0 0 
2404833333.3333334923 0.168354183435440091232138115629 0.011222439818084239959716796875 0.000682193436659872531890869141 -0.002260745735839008851292275537 0 0 0 0 
2405000000.0000000000 0.168202146887779208084268134371 0.009505752474069595336914062500 0.000786791613791137933731079102 -0.002181546529754995866062783350 0 0 0 0 
2405166666.6666665077 0.168277502059936495681924384371 0.007719691377133131027221679688 0.000809946621302515268325805664 -0.002249456010758876800537109375 0 0 0 0 
2405333333.3333334923 0.168223291635513305664062500000 0.005809310823678970336914062500 0.000518169777933508157730102539 -0.002333110198378562927246093750 0 0 0 0 
2405500000.0000000000 0.168233841657638605315838731258 0.004083926789462566375732421875 0.000497035041917115449905395508 -0.002355738542973995208740234375 0 0 0 0 
2405666666.6666665077 0.168010890483856201171875000000 0.002241295762360095977783203125 0.000441906740888953208923339844 -0.002315442543476819992065429688 0 0 0 0 
2405833333.3333334923 0.168061122298240689376669365629 0.000395130424294620806544703351 0.000569968717172741889953613281 -0.002449672203511000113246298682 0 0 0 0 
2406000000.0000000000 0.167978718876838711837606865629 -0.001521615195088088946101523291 0.000445005862275138497352600098 -0.002553383354097605185267783057 0 0 0 0 
2406166666.6666665077 0.167866751551628112792968750000 -0.003294855356216431097743368994 0.000446940335677936673164367676 -0.002551498357206583023071289062 0 0 0 0 
2406333333.3333334923 0.168094173073768587967080634371 -0.005147776566445828351492597363 0.000210950034670531803935450421 -0.002420142991468309922459267725 0 0 0 0 
2406500000.0000000000 0.168094560503959711272869981258 -0.007065775338560342788696289062 0.000076375297794584184885025024 -0.002632545540109277205226279150 0 0 0 0 
2406666666.6666665077 0.167850017547607394119424384371 -0.008755405433475971221923828125 -0.000006054738150851335376501083 -0.002613687654957174821140908350 0 0 0 0 
2406833333.3333334923 0.167927876114845303634481865629 -0.010509642772376540792444998829 0.000028363785531837489793096849 -0.002665508538484572930576943506 0 0 0 0 
2407000000.0000000000 0.168147101998329190353231865629 -0.012080336920917030679722969921 -0.000088933338702190667390823364 -0.002671657362952827973606728662 0 0 0 0 
2407166666.6666665077 0.168190956115722711761151231258 -0.013506987132132049905797188671 -0.000223549170186743113115587778 -0.002723392331972717805149697412 0 0 0 0 
2407333333.3333334923 0.167946472764015197753906250000 -0.015184924006462100637415701954 -0.000207296936423517790719708853 -0.002717460505664349035975790869 0 0 0 0 
2407500000.0000000000 0.168132305145263699630575615629 -0.016464874148368838918665701954 -0.000389440916478633880615234375 -0.002869300544261931939366006006 0 0 0 0 
2407666666.6666665077 0.168237775564193697830361884371 -0.017691554501652721059778983204 -0.000338243466103449518054407941 -0.002655199030414224104640341650 0 0 0 0 
2407833333.3333334923 0.168170332908630398849325615629 -0.019073134288191798818568045704 -0.000495520886033773422241210938 -0.002784966723993421034571982275 0 0 0 0 
2408000000.0000000000 0.168418064713478088378906250000 -0.020184984430670741689661795704 -0.000632316863629966974258422852 -0.002690084511414169831516884912 0 0 0 0 
2408166666.6666665077 0.168578803539276095291299384371 -0.021184671670198440551757812500 -0.000721592805348336696624755859 -0.002639924176037311987635947119 0 0 0 0 
2408333333.3333334923 0.168715476989746093750000000000 -0.022058524191379550588587576954 -0.000817881838884204626083374023 -0.002761841984465717835667275537 0 0 0 0 
2408500000.0000000000 0.168959990143775912185830634371 -0.023056413978338241577148437500 -0.001087427372112869999529194409 -0.002708098851144313812255859375 0 0 0 0 
2408666666.6666665077 0.169316843152046203613281250000 -0.023881673812866210937500000000 -0.001101906062103807926177978516 -0.002723807236179709000828408350 0 0 0 0 
2408833333.3333334923 0.169548004865646390060263115629 -0.024614678695797920227050781250 -0.001180279417894781069514609229 -0.002808701479807496070861816406 0 0 0 0 
2409000000.0000000000 0.169771134853363009353799384371 -0.025363085791468620300292968750 -0.001251370762474834918975830078 -0.002771475818008183999302529443 0 0 0 0 
2409166666.6666665077 0.170267239212989807128906250000 -0.026121105998754501342773437500 -0.001460262807086109898210835034 -0.002815264277160168127772665869 0 0 0 0 
2409333333.3333334923 0.170633465051651000976562500000 -0.026947464793920520437220389454 -0.001477010897360742092132568359 -0.002719549927860497994663857568 0 0 0 0 
2409500000.0000000000 0.170781895518302889724893134371 -0.027785373851656910287877266796 -0.001722844550386070988298725659 -0.002679126570001244978663779150 0 0 0 0 
2409666666.6666665077 0.171006456017494201660156250000 -0.028359120711684230459193045704 -0.002002120250836015181300497900 -0.002617976861074566841125488281 0 0 0 0 
2409833333.3333334923 0.171243637800216702560263115629 -0.028948310762643810617467110546 -0.002108910353854299025294638525 -0.002604423323646188215968466650 0 0 0 0 
2410000000.0000000000 0.171466603875160189529580634371 -0.029586013406515121459960937500 -0.002102155005559324784519814600 -0.002228088676929473876953125000 0 0 0 0 
2410166666.6666665077 0.171578541398048400878906250000 -0.030490897595882419240931326954 -0.002197042573243380026576376807 -0.002242823829874395890476845850 0 0 0 0 
2410333333.3333334923 0.171630010008812006194744981258 -0.031156029552221301687220389454 -0.002489615697413682937622070312 -0.002263911766931415037867880713 0 0 0 0 
2410500000.0000000000 0.171694993972778292556924384371 -0.031784314662218086933176408593 -0.002527343807742000059840536963 -0.002082034014165401892421103369 0 0 0 0 
2410666666.6666665077 0.171430960297584505935830634371 -0.032552205026149749755859375000 -0.002590029034763575033900595557 -0.001705742324702441909192729419 0 0 0 0 
2410833333.3333334923 0.171426966786384610275106865629 -0.033095739781856536865234375000 -0.002633847063407301902770996094 -0.001646070159040391011479043115 0 0 0 0 
2411000000.0000000000 0.171295449137687710861044365629 -0.033697433769702911376953125000 -0.002685333834961057142970419775 -0.001538225682452321052551269531 0 0 0 0 
2411166666.6666665077 0.171126022934913607498330634371 -0.034474119544029242778737653907 -0.002599044237285851998570107568 -0.001366273034363985061645507812 0 0 0 0 
2411333333.3333334923 0.170590147376060513595419365629 -0.035141512751579291606862653907 -0.002685651648789643807652138818 -0.001218628836795687892316508716 0 0 0 0 
2411500000.0000000000 0.170279726386070306975994981258 -0.035812284797430038452148437500 -0.002545596566051245169398642432 -0.001099642366170882961870503003 0 0 0 0 
2411666666.6666665077 0.170054674148559598068075615629 -0.036337085068225860595703125000 -0.002792853163555264906642294775 -0.000931757502257823944091796875 0 0 0 0 
2411833333.3333334923 0.169734314084053011795205634371 -0.036886692047119140625000000000 -0.002581687411293386979344033350 -0.000846649578306823968887329102 0 0 0 0 
2412000000.0000000000 0.169248849153518704513388115629 -0.037749052047729492187500000000 -0.002693403512239456176757812500 -0.000660310790408402681350708008 0 0 0 0 
2412166666.6666665077 0.168811991810798700530682481258 -0.038476899266242980957031250000 -0.002483304357156157927272177588 -0.000577360973693430423736572266 0 0 0 0 
2412333333.3333334923 0.168548673391342190841513115629 -0.039242930710315697406809221093 -0.002385910367593169212341308594 -0.000508357421495020389556884766 0 0 0 0 
2412500000.0000000000 0.167802050709724398513955634371 -0.040064938366413123393972028907 -0.002217208733782172203063964844 -0.000399854965507984215587061749 0 0 0 0 
2412666666.6666665077 0.167205423116683987716513115629 -0.041045267134904861450195312500 -0.002214408712461591200587607275 -0.000748776947148144353567922327 0 0 0 0 
2412833333.3333334923 0.166621088981628390213174384371 -0.042022820562124252319335937500 -0.001997071085497736930847167969 -0.000639957317616790533065795898 0 0 0 0 
2413000000.0000000000 0.165939897298812893966513115629 -0.042886875569820397113840471093 -0.002201386960223317146301269531 -0.000674087728839367628097534180 0 0 0 0 
2413166666.6666665077 0.165271416306495694259481865629 -0.043860275298357009887695312500 -0.002083163941279054121730185400 -0.000790078716818243265151977539 0 0 0 0 
2413333333.3333334923 0.164542153477668789962606865629 -0.044771086424589157104492187500 -0.002081513172015548186061240088 -0.000703246332705020904541015625 0 0 0 0 
2413500000.0000000000 0.163814708590507507324218750000 -0.045900218188762671733815778907 -0.002234298735857009887695312500 -0.000958644144702702760696411133 0 0 0 0 
2413666666.6666665077 0.163302704691886901855468750000 -0.046993456780910491943359375000 -0.002480193274095654921290732275 -0.000924911932088434696197509766 0 0 0 0 
2413833333.3333334923 0.162429958581924410720986884371 -0.047865863889455802226979841407 -0.002667497145012021064758300781 -0.001021484145894647078273154150 0 0 0 0 
2414000000.0000000000 0.161681517958641107757244981258 -0.048997826874256127094309221093 -0.002865029266104102134704589844 -0.001119550783187150955200195312 0 0 0 0 
2414166666.6666665077 0.161174878478050204178018134371 -0.050098042935132980346679687500 -0.002995644463226199150085449219 -0.000958395190536975860595703125 0 0 0 0 
2414333333.3333334923 0.160610795021057101150674384371 -0.051154002547264099121093750000 -0.003097909502685070037841796875 -0.000838021165691316127777099609 0 0 0 0 
2414500000.0000000000 0.160138055682182312011718750000 -0.052262622863054282451589216407 -0.003655102569609880013706826318 -0.000586798298172652721405029297 0 0 0 0 
2414666666.6666665077 0.159546643495559692382812500000 -0.053199041634798049926757812500 -0.003816639771685003800633095850 -0.000387567182769998908042907715 0 0 0 0 
2414833333.3333334923 0.159139424562454195877236884371 -0.054504733532667160034179687500 -0.003808929817751049995422363281 0.000082300808571744710206985474 0 0 0 0 
2415000000.0000000000 0.158869564533233587066973768742 -0.055763788521289832378347028907 -0.003898677183315157890319824219 0.000373603601474314873844700946 0 0 0 0 
2415166666.6666665077 0.158540353178977994064169365629 -0.057030148804187781597097028907 -0.003939629998058080673217773438 0.000562269007787108421325683594 0 0 0 0 
2415333333.3333334923 0.158455997705459594726562500000 -0.058380354195833213115651716407 -0.003867996390908956961390829932 0.000963568454608321189880371094 0 0 0 0 
2415500000.0000000000 0.158081024885177612304687500000 -0.059733349829912192607839216407 -0.003915488719940186414236737988 0.001304250909015536091448139722 0 0 0 0 
2415666666.6666665077 0.157936647534370394607705634371 -0.061119824647903442382812500000 -0.003825237974524497985839843750 0.001667742384597658894182514722 0 0 0 0 
2415833333.3333334923 0.157707437872886713225994981258 -0.062435928732156746601145158593 -0.003576962277293204827549599756 0.001863725250586866898777627100 0 0 0 0 
2416000000.0000000000 0.157438844442367609222088731258 -0.063841633498668670654296875000 -0.003498919075354934172389365088 0.002264813985675572915318154443 0 0 0 0 
2416166666.6666665077 0.157497763633727999588174384371 -0.065317921340465545654296875000 -0.003197682555764913992640829932 0.002292434684932231903076171875 0 0 0 0 
2416333333.3333334923 0.157294943928718594650106865629 -0.066793896257877349853515625000 -0.002975721843540668921229697119 0.002495753113180398941040039062 0 0 0 0 
2416500000.0000000000 0.157158553600311307052450615629 -0.068219900131225585937500000000 -0.002683107508346437974217080225 0.002671071793884038925170898438 0 0 0 0 
2416666666.6666665077 0.156843900680541992187500000000 -0.069660373032093048095703125000 -0.002419415395706892013549804688 0.002876067534089088006260537256 0 0 0 0 
2416833333.3333334923 0.156818807125091608245526231258 -0.071055546402931213378906250000 -0.002088373061269522146937704932 0.002981519093737006187438964844 0 0 0 0 
2417000000.0000000000 0.156320169568061800857705634371 -0.072379380464553833007812500000 -0.001666403841227293014526367188 0.002876129699870944023132324219 0 0 0 0 
2417166666.6666665077 0.156296312808990506271200615629 -0.073654972016811370849609375000 -0.001473388634622097015380859375 0.003012975677847861809971474756 0 0 0 0 
2417333333.3333334923 0.156169891357421902755575615629 -0.074622720479965209960937500000 -0.001375468098558485941645956885 0.002886023605242371992823935400 0 0 0 0 
2417500000.0000000000 0.155941620469093294998330634371 -0.075981140136718750000000000000 -0.001018848619423807101008749854 0.002759525785222650007960654150 0 0 0 0 
2417666666.6666665077 0.155882239341735812088174384371 -0.076744996011257171630859375000 -0.000822878966573625802993774414 0.002866532886400818824768066406 0 0 0 0 
2417833333.3333334923 0.155877947807312011718750000000 -0.077844262123107910156250000000 -0.000558025029022246599197387695 0.002544773975387216047999716650 0 0 0 0 
2418000000.0000000000 0.155664771795272799392861884371 -0.078822158277034759521484375000 -0.000447122030891478115886134015 0.002482224488630890846252441406 0 0 0 0 
2418166666.6666665077 0.155535742640495300292968750000 -0.079717807471752166748046875000 -0.000312182033667340874671936035 0.002222049282863736152648925781 0 0 0 0 
2418333333.3333334923 0.155782759189605712890625000000 -0.080545872449874877929687500000 -0.000326961715472862124443054199 0.002155265305191278891322470557 0 0 0 0 
2418500000.0000000000 0.155480742454528808593750000000 -0.081340819597244262695312500000 -0.000092944123025517910718917847 0.002066929358988999886753701318 0 0 0 0 
2418666666.6666665077 0.155464217066764803787393134371 -0.082050442695617675781250000000 -0.000167834179592318805769243784 0.001771486597135663032531738281 0 0 0 0 
2418833333.3333334923 0.155295550823211697677450615629 -0.082766965031623840332031250000 0.000037651589082088321447372437 0.001601926051080226898193359375 0 0 0 0 
2419000000.0000000000 0.154933661222457913497763115629 -0.083515569567680358886718750000 -0.000067879154812544584274291992 0.001699527376331388950347900391 0 0 0 0 
2419166666.6666665077 0.154944553971290588378906250000 -0.084086358547210693359375000000 -0.000306278670905157923698425293 0.001446281094104052023646689307 0 0 0 0 
2419333333.3333334923 0.154661297798156710525674384371 -0.084487535059452056884765625000 -0.000167413862072862711831769400 0.001285278354771435043932270581 0 0 0 0 
2419500000.0000000000 0.154499337077140808105468750000 -0.085186339914798736572265625000 -0.000392762187402695417404174805 0.001338986447080970027326274341 0 0 0 0 
2419666666.6666665077 0.154493167996406610686932481258 -0.085680067539215087890625000000 -0.000507235701661556959152221680 0.001266410108655690930010151440 0 0 0 0 
2419833333.3333334923 0.154248833656311007400674384371 -0.085831671953201293945312500000 -0.000417768518673255985409337177 0.001198928803205489895464253003 0 0 0 0 
