# Hz S RI R 
2400000000.0000000000 0.158091351389885004241619981258 0.062606289982795715332031250000 0.000098786331363953649997711182 -0.000835354207083582878112792969 0 0 0 0 
2400166666.6666665077 0.158004909753799410720986884371 0.060781672596931457519531250000 -0.000078961806138977408409118652 -0.000981193152256309986114501953 0 0 0 0 
2400333333.3333334923 0.157829686999321011642294365629 0.058835074305534362792968750000 -0.000053981941164238378405570984 -0.001173838740214705900904990088 0 0 0 0 
2400500000.0000000000 0.157770454883575411697549384371 0.056985542178153991699218750000 0.000129036940052174004629412241 -0.001086055068299174091936420972 0 0 0 0 
2400666666.6666665077 0.157816007733345003982705634371 0.055018335580825812602956403907 0.000075641983130481094121932983 -0.001031024614349008040187216650 0 0 0 0 
2400833333.3333334923 0.158069729804992703536825615629 0.053194805979728698730468750000 -0.000011847111636598130519491996 -0.001086101285181940035579062354 0 0 0 0 
2401000000.0000000000 0.158298686146736200530682481258 0.051077984273433692241628278907 0.000137664072099141803666791373 -0.001056883134879172065137553638 0 0 0 0 
2401166666.6666665077 0.158348336815834100921307481258 0.048972275108098976825754533593 0.000054892829211894422769546509 -0.001156780519522726969477988135 0 0 0 0 
2401333333.3333334923 0.158630087971687289138955634371 0.046885315328836441040039062500 0.000141689626616425812244415283 -0.001045500510372221903560019385 0 0 0 0 
2401500000.0000000000 0.158977374434471102615518134371 0.044754259288311011577565778907 0.000029179314879002049565315247 -0.001164586865343153910395956885 0 0 0 0 
2401666666.6666665077 0.159201994538307189941406250000 0.042939014732837677001953125000 0.000212008846574463004439753400 -0.001217660144902765967725444263 0 0 0 0 
2401833333.3333334923 0.159606829285621587555255018742 0.040801078081130981445312500000 0.000088327484263572841882705688 -0.001166712958365679004071879810 0 0 0 0 
2402000000.0000000000 0.160011768341064508636151231258 0.038745708763599402690847028907 0.000103113517980091300889691763 -0.001159725128673017024993896484 0 0 0 0 
2402166666.6666665077 0.160539522767067011077557481258 0.036821611225605010986328125000 0.000115605522296391400411882944 -0.001221238286234437985661172021 0 0 0 0 
2402333333.3333334923 0.161039054393768310546875000000 0.035026468336582176898996721093 0.000179512426257133510991773062 -0.001162690576165914969203329932 0 0 0 0 
2402500000.0000000000 0.161931842565536499023437500000 0.033177785575389862060546875000 0.000049977694288827478885650635 -0.001208321307785809040069580078 0 0 0 0 
2402666666.6666665077 0.162503480911254910568075615629 0.031299620866775512695312500000 0.000255683844443410580784398212 -0.001348362653516232967376708984 0 0 0 0 
2402833333.3333334923 0.163520634174346896072549384371 0.029595404863357540475865548046 0.000157314556417986804812830792 -0.001299183699302375099779438550 0 0 0 0 
2403000000.0000000000 0.164161741733550997635049384371 0.027995841577649119985560233204 0.000305344263324513977200108661 -0.001513627124950289943097758716 0 0 0 0 
2403166666.6666665077 0.165063530206680297851562500000 0.026508606970310211181640625000 0.000247391959419474005699157715 -0.001520984456874429962755512769 0 0 0 0 
2403333333.3333334923 0.166016101837158203125000000000 0.025078076869249340402623360546 0.000111158748040907098494391170 -0.001539977267384528896929096753 0 0 0 0 
2403500000.0000000000 0.166885688900947598556356865629 0.023618994280695918691614920704 0.000258119223872199708789271222 -0.001463018823415040969848632812 0 0 0 0 
2403666666.6666665077 0.167714521288871792892294365629 0.022410167381167408334752266796 0.000172159401699900600031176157 -0.001516152173280715942382812500 0 0 0 0 
2403833333.3333334923 0.168843746185302706619424384371 0.021079223603010181081751639454 0.000226740710786543786525726318 -0.001547219580970704989192343604 0 0 0 0 
2404000000.0000000000 0.169793620705604608733807481258 0.019764672964811328542689139454 0.000392220506910234689712524414 -0.001576995942741632895228720557 0 0 0 0 
2404166666.6666665077 0.170533761382102994064169365629 0.018745357170701030385950858204 0.000277646846370771473080235614 -0.001750670140609144947649311597 0 0 0 0 
2404333333.3333334923 0.171653375029563903808593750000 0.017854098230600360525111014454 0.000215312058571726110860547476 -0.001772532355971633954289101709 0 0 0 0 
2404500000.0000000000 0.172384217381477411468182481258 0.016776381060481071472167968750 0.000265210866928100585937500000 -0.001889217761345207908033061450 0 0 0 0 
2404666666.6666665077 0.173456370830535888671875000000 0.015847526490688320505162423046 0.000042865005525527521967887878 -0.002036315621808170838596963037 0 0 0 0 
2404833333.3333334923 0.174352258443832397460937500000 0.015332064591348169499407383398 0.000064012150687631219625473022 -0.002233298262581229209899902344 0 0 0 0 
2405000000.0000000000 0.175192266702652005294638115629 0.014565887860953809565534022852 -0.000097592448582872748374938965 -0.002154453890398145155665732275 0 0 0 0 
2405166666.6666665077 0.175971627235412597656250000000 0.013846489600837230682373046875 -0.000149101295392028987407684326 -0.002329265465959907011744833838 0 0 0 0 
2405333333.3333334923 0.176766544580459594726562500000 0.013182715512812139338483241602 -0.000160120718646794611781519757 -0.002498610876500606970546103369 0 0 0 0 
2405500000.0000000000 0.177382871508598299881143134371 0.012890880927443500864049141796 -0.000179996015504002598211011343 -0.002503526164218782944920205225 0 0 0 0 
2405666666.6666665077 0.178195163607597406585369981258 0.012292206287384029733678048046 -0.000384602986741810982853490009 -0.002561135916039348082301474463 0 0 0 0 
2405833333.3333334923 0.178566977381706210037393134371 0.011977980844676499802559099805 -0.000492807419504970312118530273 -0.002664996311068534851074218750 0 0 0 0 
2406000000.0000000000 0.179167300462722806075888115629 0.011519995518028739583948905079 -0.000571338285226374864578247070 -0.002716156188398600058314658057 0 0 0 0 
2406166666.6666665077 0.179526284337043789962606865629 0.011368743143975739914863787305 -0.000755044980905950069427490234 -0.002652351511642336845397949219 0 0 0 0 
2406333333.3333334923 0.180025339126586886306924384371 0.010910532437264919281005859375 -0.000993573456071317195892333984 -0.002739675343036652045008993994 0 0 0 0 
2406500000.0000000000 0.180184707045555086990518134371 0.010741862468421459197998046875 -0.001153138466179371096967387622 -0.003032521810382605032679892432 0 0 0 0 
2406666666.6666665077 0.180321514606475802322549384371 0.010328406468033790588378906250 -0.001155241741798817894579243237 -0.002804406918585300011875771631 0 0 0 0 
2406833333.3333334923 0.180655956268310602386151231258 0.010077154263854030263880545704 -0.001418843283317982933641743237 -0.002771843690425157980677939307 0 0 0 0 
2407000000.0000000000 0.180788651108741788009481865629 0.009640832431614398956298828125 -0.001480064820498228073120117188 -0.002734667388722300963160849463 0 0 0 0 
2407166666.6666665077 0.180677175521850613693075615629 0.009536874480545520782470703125 -0.001747121685184537930729531396 -0.002908201422542334036586142432 0 0 0 0 
2407333333.3333334923 0.180561989545822088043536268742 0.008943034335970878601074218750 -0.001848711981438099904301308740 -0.002865946618840097947361611475 0 0 0 0 
2407500000.0000000000 0.180340692400932312011718750000 0.008593656122684478759765625000 -0.002126287203282117843627929688 -0.002735976129770278930664062500 0 0 0 0 
2407666666.6666665077 0.180225670337677001953125000000 0.008007382974028587341308593750 -0.002285333583131432966945029150 -0.002579457825049757957458496094 0 0 0 0 
2407833333.3333334923 0.179657161235809298416299384371 0.007511161733418703079223632812 -0.002329969080165029005763388525 -0.002521089743822813034057617188 0 0 0 0 
2408000000.0000000000 0.179354041814804104904013115629 0.006857717875391244888305664062 -0.002331679454073309898376464844 -0.002534450031816958947422646631 0 0 0 0 
2408166666.6666665077 0.178929343819618197342080634371 0.006227413658052682876586914062 -0.002464051591232419013977050781 -0.002338328631594777107238769531 0 0 0 0 
2408333333.3333334923 0.178508400917053194900674384371 0.005489028058946132659912109375 -0.002713117282837628884556435693 -0.002372072543948889212367392432 0 0 0 0 
2408500000.0000000000 0.177890568971633911132812500000 0.004632595926523208618164062500 -0.002718976931646465821507119287 -0.002076931297779082818272256006 0 0 0 0 
2408666666.6666665077 0.177359730005264309982138115629 0.003607877995818852944615029443 -0.002861285349354147911071777344 -0.002222125884145497842075966943 0 0 0 0 
2408833333.3333334923 0.176704972982406588455361884371 0.002714114030823111967799521338 -0.002981662284582852883579873193 -0.002002773573622107939479208838 0 0 0 0 
2409000000.0000000000 0.175862774252891512771768134371 0.001734120771288871981977153247 -0.003194277873262763023376464844 -0.001829081214964390017865825122 0 0 0 0 
2409166666.6666665077 0.175283163785934503753338731258 0.000457777525298297405242919922 -0.003116321982815862135646201025 -0.001759478705935179970384907300 0 0 0 0 
2409333333.3333334923 0.174726098775863702972088731258 -0.000797208223957568407058715820 -0.003265992738306521935703896631 -0.001738487975671886964085244287 0 0 0 0 
2409500000.0000000000 0.173927396535873413085937500000 -0.002168391831219195885899209131 -0.003338346490636467933654785156 -0.001628009253181516907335590894 0 0 0 0 
2409666666.6666665077 0.173155665397643987457598768742 -0.003432839410379528999328613281 -0.003333014901727437973022460938 -0.001469127717427908940556191553 0 0 0 0 
2409833333.3333334923 0.172513753175735501388388115629 -0.004859384149312973022460937500 -0.003538385033607482910156250000 -0.001315950066782533905626606519 0 0 0 0 
2410000000.0000000000 0.171849027276039095779580634371 -0.006495599634945392608642578125 -0.003609272651374340057373046875 -0.001259696204215287945391010815 0 0 0 0 
2410166666.6666665077 0.171370193362235995193643134371 -0.008122931234538555145263671875 -0.003638854715973138809204101562 -0.001249931985512376048444438403 0 0 0 0 
2410333333.3333334923 0.170654445886611910720986884371 -0.009781070053577423095703125000 -0.003735222853720188140869140625 -0.000979229691438376903533935547 0 0 0 0 
2410500000.0000000000 0.170249417424201993087606865629 -0.011400243267416950571080391796 -0.003830864327028394179103232275 -0.000945017789490520954132080078 0 0 0 0 
2410666666.6666665077 0.169674843549728393554687500000 -0.013454510830342769622802734375 -0.003869298612698913054225302588 -0.000768595433328300714492797852 0 0 0 0 
2410833333.3333334923 0.169294714927673312088174384371 -0.015186032280325889587402343750 -0.004101111087948083877563476562 -0.000830275355838239192962646484 0 0 0 0 
2411000000.0000000000 0.168988227844238309005575615629 -0.016947589814662929880162423046 -0.004096340388059616088867187500 -0.000572885212022811174392700195 0 0 0 0 
2411166666.6666665077 0.168737590312957791427450615629 -0.019041387364268299448033516796 -0.004076320677995681762695312500 -0.000347377063008025288581848145 0 0 0 0 
2411333333.3333334923 0.168418467044830294510049384371 -0.020826023072004321706751639454 -0.004232035949826241406912519238 -0.000405067024985328316688537598 0 0 0 0 
2411500000.0000000000 0.168120309710502596756143134371 -0.023018803447484970092773437500 -0.004212479572743177413940429688 -0.000179763854248449206352233887 0 0 0 0 
2411666666.6666665077 0.168167546391487093826455634371 -0.024703077971935268747349923046 -0.004252100829035043716430664062 -0.000124998085084371295854291373 0 0 0 0 
2411833333.3333334923 0.168228358030319213867187500000 -0.026644311845302578317662423046 -0.004300330299884080886840820312 0.000134832051116973188802442007 0 0 0 0 
2412000000.0000000000 0.168250083923339788238848768742 -0.028651554137468341482142264454 -0.004371183924376964569091796875 0.000361726153641939217418116437 0 0 0 0 
2412166666.6666665077 0.168281912803649902343750000000 -0.030676161870360370981236641796 -0.004513221327215433120727539062 0.000518186774570494890213012695 0 0 0 0 
2412333333.3333334923 0.168588340282440213302450615629 -0.032398436218500137329101562500 -0.004449981730431318283081054688 0.000584193039685487747192382812 0 0 0 0 
2412500000.0000000000 0.168605476617813110351562500000 -0.034228738397359848022460937500 -0.004583865869790315628051757812 0.000931278977077454328536987305 0 0 0 0 
2412666666.6666665077 0.169061020016670199295205634371 -0.036329165101051330566406250000 -0.004488155711442232131958007812 0.001120298984460533098933554541 0 0 0 0 
2412833333.3333334923 0.169477760791778592208700615629 -0.038064520806074142456054687500 -0.004569625016301870346069335938 0.001263186568394303104997944409 0 0 0 0 
2413000000.0000000000 0.169873714447021512130575615629 -0.039856616407632827758789062500 -0.004624441266059876355642987988 0.001518707838840783076045370947 0 0 0 0 
2413166666.6666665077 0.170224487781524713714276231258 -0.041646014899015426635742187500 -0.004527602810412645339965820312 0.001731977565214037895202636719 0 0 0 0 
2413333333.3333334923 0.170755788683891296386718750000 -0.043124571442604071880300153907 -0.004523292649537324905395507812 0.002034483943134545846226357568 0 0 0 0 
2413500000.0000000000 0.171369925141334505935830634371 -0.044803388416767120361328125000 -0.004416973795741797360892011426 0.002268669661134480996372841943 0 0 0 0 
2413666666.6666665077 0.171946823596954401214276231258 -0.046306811273097991943359375000 -0.004396042786538600921630859375 0.002441223012283443970921181787 0 0 0 0 
2413833333.3333334923 0.172427222132682800292968750000 -0.047793902456760413433034528907 -0.004267104901373386383056640625 0.002593992510810493989231728662 0 0 0 0 
2414000000.0000000000 0.172713056206703213790731865629 -0.049326196312904357910156250000 -0.004133048467338085174560546875 0.002841507550328969955444335938 0 0 0 0 
2414166666.6666665077 0.173456192016601590255575615629 -0.050620056688785552978515625000 -0.004100386053323745727539062500 0.003125612856820226149318076025 0 0 0 0 
2414333333.3333334923 0.174181833863258389571981865629 -0.051772423088550567626953125000 -0.003992113750427961349487304688 0.003287616418674588203430175781 0 0 0 0 
2414500000.0000000000 0.174840733408927889724893134371 -0.052814483642578131938893903907 -0.003688727971166371865513466943 0.003493859898298978805541992188 0 0 0 0 
2414666666.6666665077 0.175351977348327608963174384371 -0.053831290453672409057617187500 -0.003659184323623776002171181787 0.003783590625971556143519736182 0 0 0 0 
2414833333.3333334923 0.175751239061355590820312500000 -0.054973896592855446552317033593 -0.003380866488441824913024902344 0.003642898984253406958339072119 0 0 0 0 
2415000000.0000000000 0.176212772727012606521768134371 -0.055574696511030197143554687500 -0.003218414960429071946385048975 0.003860783530399202866795205225 0 0 0 0 
2415166666.6666665077 0.176621690392494201660156250000 -0.056428436189889907836914062500 -0.003041661344468594031092978369 0.004033104982227087020874023438 0 0 0 0 
2415333333.3333334923 0.176999673247337313553018134371 -0.057294394820928566669504533593 -0.002850161632522941069362021338 0.004219254478812217712402343750 0 0 0 0 
2415500000.0000000000 0.177403122186660794357138115629 -0.057806823402643196796457658593 -0.002692614682018756866455078125 0.004419469274580478668212890625 0 0 0 0 
2415666666.6666665077 0.177609592676162691970986884371 -0.058207530528306961059570312500 -0.002541294321417808966395712744 0.004538081586360931396484375000 0 0 0 0 
2415833333.3333334923 0.177894666790962191482705634371 -0.058817729353904717182199846093 -0.002500122413039207892176962744 0.004448683001101016998291015625 0 0 0 0 
2416000000.0000000000 0.177920535206794711013955634371 -0.059216599911451339721679687500 -0.002137755276635289192199707031 0.004695734474807977676391601562 0 0 0 0 
2416166666.6666665077 0.178050383925437899490518134371 -0.059433195739984512329101562500 -0.001905222539789974906324077075 0.004851575475186110410208417676 0 0 0 0 
2416333333.3333334923 0.177970632910728510100994981258 -0.059875652194023132324218750000 -0.001817431533709168000462197412 0.004870041739195585250854492188 0 0 0 0 
2416500000.0000000000 0.177886277437210110763388115629 -0.060188885778188712383229841407 -0.001387143624015153104897524194 0.004878031555563210573678301074 0 0 0 0 
2416666666.6666665077 0.177635237574577303787393134371 -0.060375876724720001220703125000 -0.001367748714983463070513081128 0.005021272692829371366018964551 0 0 0 0 
2416833333.3333334923 0.177473813295364407638388115629 -0.060720626264810562133789062500 -0.001264589023776351971867226709 0.005026640836149454116821289062 0 0 0 0 
2417000000.0000000000 0.176989093422889709472656250000 -0.060889367014169692993164062500 -0.000851769640576094388961791992 0.005041970405727624893188476562 0 0 0 0 
2417166666.6666665077 0.176429271697998102386151231258 -0.061016075313091278076171875000 -0.000837328843772411346435546875 0.005107636563479900360107421875 0 0 0 0 
2417333333.3333334923 0.176021173596382113357705634371 -0.061259344220161437988281250000 -0.000585816800594329833984375000 0.005189833231270313262939453125 0 0 0 0 
2417500000.0000000000 0.175335779786109896560830634371 -0.061605948954820632934570312500 -0.000417319155531004125445765363 0.005154447630047798156738281250 0 0 0 0 
2417666666.6666665077 0.174619734287261990646200615629 -0.061633750796318047260324846093 -0.000093839211331214755773544312 0.005162327550351619720458984375 0 0 0 0 
2417833333.3333334923 0.173740610480308504959268134371 -0.062006324529647827148437500000 -0.000013560722436523070053167837 0.005072183441370725631713867188 0 0 0 0 
2418000000.0000000000 0.172789111733436612228231865629 -0.062386270612478263164479841407 0.000265858310740441083908081055 0.005136234220117331418509198926 0 0 0 0 
2418166666.6666665077 0.171948626637458801269531250000 -0.062508493661880493164062500000 0.000495605170726776123046875000 0.005007379222661256790161132812 0 0 0 0 
2418333333.3333334923 0.171194270253181513030682481258 -0.062926121056079864501953125000 0.000530761666595935821533203125 0.005008916836231946945190429688 0 0 0 0 
2418500000.0000000000 0.170023873448371887207031250000 -0.063351109623908996582031250000 0.000706296763382852077484130859 0.005015392787754535675048828125 0 0 0 0 
2418666666.6666665077 0.168941974639892605880575615629 -0.063933320343494415283203125000 0.001003389246761799075483012622 0.005055311601608991622924804688 0 0 0 0 
2418833333.3333334923 0.167507410049438504318075615629 -0.064506337046623229980468750000 0.001255142502486705996869731372 0.005004158243536949157714843750 0 0 0 0 
2419000000.0000000000 0.166384771466255187988281250000 -0.065053872764110565185546875000 0.001271688845008611895917582935 0.004909874405711889266967773438 0 0 0 0 
2419166666.6666665077 0.165219902992248507400674384371 -0.065585069358348846435546875000 0.001599063863977790095685649341 0.004777219146490097045898437500 0 0 0 0 
2419333333.3333334923 0.163906455039977999588174384371 -0.066348239779472351074218750000 0.001556052942760288932202983325 0.004891050513833761215209960938 0 0 0 0 
2419500000.0000000000 0.162640526890754699707031250000 -0.067495279014110565185546875000 0.001987023046240210966822958838 0.004680242855101823806762695312 0 0 0 0 
2419666666.6666665077 0.161748990416526794433593750000 -0.068313777446746826171875000000 0.002009544754400848908665322412 0.004674517549574375152587890625 0 0 0 0 
2419833333.3333334923 0.160357877612114008147869981258 -0.069120332598686218261718750000 0.002198952483013271851780556787 0.004620890133082866668701171875 0 0 0 0 
