# Hz S RI R 50
2400000000.0000000000 0.167841017246246310135049384371 0.046666011214256286621093750000 -0.002163635101169348196742392432 -0.001988852629438043074366904150 0 0 0 0 
2400166666.6666665077 0.168923512101173400878906250000 0.045756909996271133422851562500 -0.002314951037988067106959677588 -0.002046412089839578108546591650 0 0 0 0 
2400333333.3333334923 0.169551551342010498046875000000 0.044548936188220977783203125000 -0.002525994554162025885341025244 -0.002102033235132693810703896631 0 0 0 0 
2400500000.0000000000 0.170498222112655611892861884371 0.043518453836441040039062500000 -0.002723566489294170899632119287 -0.002102062338963150978088378906 0 0 0 0 
2400666666.6666665077 0.171521857380867004394531250000 0.042484849691390991210937500000 -0.003102666465565561814549111475 -0.002023300854489206834080361475 0 0 0 0 
2400833333.3333334923 0.172330111265182495117187500000 0.041628729552030563354492187500 -0.003269783686846495108363486182 -0.002162499586120247840881347656 0 0 0 0 
2401000000.0000000000 0.172941848635673495193643134371 0.040814165025949478149414062500 -0.003552653826773167090175009619 -0.002005936345085502104518271338 0 0 0 0 
2401166666.6666665077 0.173911437392234802246093750000 0.039949484169483191753347028907 -0.003882851917296648025512695312 -0.002029452240094542937037802588 0 0 0 0 
2401333333.3333334923 0.174582138657569913009481865629 0.039236128330230712890625000000 -0.004085475113242864608764648438 -0.001712458208203315951703715747 0 0 0 0 
2401500000.0000000000 0.175377473235130310058593750000 0.038610909134149551391601562500 -0.004477472975850105285644531250 -0.001893939450383185906651162256 0 0 0 0 
2401666666.6666665077 0.175973698496818486969317518742 0.037955064326524727558176408593 -0.004747867584228515625000000000 -0.001538036274723709063289023291 0 0 0 0 
2401833333.3333334923 0.176659390330314608474893134371 0.037232130765914916992187500000 -0.005082541145384311676025390625 -0.001282088924199342944501567310 0 0 0 0 
2402000000.0000000000 0.176938772201538113693075615629 0.036684732884168631816823591407 -0.005386604927480220794677734375 -0.001135364407673477909685444409 0 0 0 0 
2402166666.6666665077 0.177602976560592706878338731258 0.035877678543329238891601562500 -0.005502141546458005905151367188 -0.000789016310591250658035278320 0 0 0 0 
2402333333.3333334923 0.177888289093971307952557481258 0.035381529480218887329101562500 -0.005828686989843845367431640625 -0.000545513175893574953079223633 0 0 0 0 
2402500000.0000000000 0.178592786192894009689169365629 0.034618869423866271972656250000 -0.005920814815908670425415039062 -0.000192130915820598602294921875 0 0 0 0 
2402666666.6666665077 0.178701490163803100585937500000 0.034092616289854049682617187500 -0.006046224385499954223632812500 0.000056417251471430063247680664 0 0 0 0 
2402833333.3333334923 0.178729683160781888107138115629 0.033351566642522811889648437500 -0.006113587412983179092407226562 0.000377041840692982077598571777 0 0 0 0 
2403000000.0000000000 0.178888574242591913421307481258 0.032730445265769958496093750000 -0.006325090304017066955566406250 0.000745001947507262229919433594 0 0 0 0 
2403166666.6666665077 0.179191142320632906814736884371 0.031765304505825042724609375000 -0.006366793997585774335379316113 0.001024755183607340075849223560 0 0 0 0 
2403333333.3333334923 0.179183065891265896896200615629 0.030995640903711318969726562500 -0.006392973940819501876831054688 0.001645107637159525914433144678 0 0 0 0 
2403500000.0000000000 0.178859591484069796463174384371 0.030062366276979449880579764454 -0.006380466278642416000366210938 0.002198866102844477133509970557 0 0 0 0 
2403666666.6666665077 0.178755134344101007659588731258 0.028938125818967819213867187500 -0.006423245184123516082763671875 0.002375902608036994934082031250 0 0 0 0 
2403833333.3333334923 0.178768023848533602615518134371 0.027868531644344329833984375000 -0.006246289703994989395141601562 0.002863388042896986007690429688 0 0 0 0 
2404000000.0000000000 0.178378462791442898849325615629 0.026867965236306190490722656250 -0.006368867587298154830932617188 0.003233330091461538834812783350 0 0 0 0 
2404166666.6666665077 0.178043141961097689529580634371 0.025798164308071139944056326954 -0.006139860954135656356811523438 0.003571128938347101211547851562 0 0 0 0 
2404333333.3333334923 0.177598416805267306228799384371 0.024647889658808711660364920704 -0.006182454060763120651245117188 0.004057078156620264053344726562 0 0 0 0 
2404500000.0000000000 0.177054911851882906814736884371 0.023341467604041099548339843750 -0.005810361355543136596679687500 0.004443097859621047973632812500 0 0 0 0 
2404666666.6666665077 0.176728487014770507812500000000 0.022023789584636691701868826954 -0.005537380464375019073486328125 0.004827222786843776702880859375 0 0 0 0 
2404833333.3333334923 0.176304906606674194335937500000 0.020473515614867210388183593750 -0.005295079201459884643554687500 0.005199773702770471572875976562 0 0 0 0 
2405000000.0000000000 0.175890311598777798751669365629 0.019103655591607090341588204296 -0.005080693867057561874389648438 0.005496726837009192380423261426 0 0 0 0 
2405166666.6666665077 0.175541594624519403655682481258 0.017442060634493831289271170704 -0.004888511728495359420776367188 0.005826735403388738632202148438 0 0 0 0 
2405333333.3333334923 0.175189018249511690994424384371 0.015907432883977890014648437500 -0.004571575205773115158081054688 0.005998757667839527130126953125 0 0 0 0 
2405500000.0000000000 0.174677640199661310393963731258 0.014360127039253709965715977148 -0.004004446323961020383352948926 0.006319724954664707183837890625 0 0 0 0 
2405666666.6666665077 0.174364030361175509353799384371 0.012788960710167890030830584180 -0.003523109946399927139282226562 0.006658751517534255981445312500 0 0 0 0 
2405833333.3333334923 0.173852905631065396407919365629 0.011068111285567280160924141796 -0.003351351479068398909327841650 0.006769474130123853683471679688 0 0 0 0 
2406000000.0000000000 0.173695921897888211349325615629 0.009048036299645900726318359375 -0.002878720872104167938232421875 0.006875778082758188247680664062 0 0 0 0 
2406166666.6666665077 0.173383742570877102950888115629 0.007382998708635568618774414062 -0.002531727310270071029663085938 0.007033805828541517257690429688 0 0 0 0 
2406333333.3333334923 0.173343628644943209549111884371 0.005459207110106945037841796875 -0.002172231441363691849949502100 0.007158524822443723678588867188 0 0 0 0 
2406500000.0000000000 0.173186272382736206054687500000 0.003616101574152708053588867188 -0.001869567437097430012346577222 0.007239318918436765670776367188 0 0 0 0 
2406666666.6666665077 0.172911375761032104492187500000 0.001522389706224202892900776440 -0.001374880550429224967956542969 0.007239491213113070401663495801 0 0 0 0 
2406833333.3333334923 0.173077091574668912032919365629 -0.000485438475152477622032165527 -0.001023132121190428950666118091 0.007222617045044898986816406250 0 0 0 0 
2407000000.0000000000 0.173196032643318204025106865629 -0.002463324228301643891575478662 -0.000636813812889158725738525391 0.007295641116797924041748046875 0 0 0 0 
2407166666.6666665077 0.173452928662300109863281250000 -0.004401767626404762268066406250 -0.000348295463481917977333068848 0.007234842982143163681030273438 0 0 0 0 
2407333333.3333334923 0.173301026225089999099893134371 -0.006644888781011104583740234375 0.000147096143336966606691637582 0.007205510977655649185180664062 0 0 0 0 
2407500000.0000000000 0.173493802547454806228799384371 -0.008582071401178836822509765625 0.000518317625392228364944458008 0.007038306444883347424978925488 0 0 0 0 
2407666666.6666665077 0.173868373036384610275106865629 -0.010549588128924369812011718750 0.000840146094560623168945312500 0.006919525563716888427734375000 0 0 0 0 
2407833333.3333334923 0.173899218440055902679119981258 -0.012786692939698699605921561329 0.001279865275137126012089394678 0.006622530519962310791015625000 0 0 0 0 
2408000000.0000000000 0.174590244889259310623330634371 -0.014891600236296650278111641796 0.001393824815750122070312500000 0.006571947596967220306396484375 0 0 0 0 
2408166666.6666665077 0.174761861562728909591513115629 -0.016715060919523239135742187500 0.001827480155043303966522216797 0.006374780088663101196289062500 0 0 0 0 
2408333333.3333334923 0.175323247909545898437500000000 -0.018807983025908470153808593750 0.002154879504814743995666503906 0.005978703033179044723510742188 0 0 0 0 
2408500000.0000000000 0.175546184182167108733807481258 -0.020741239190101620065709298046 0.002318684244528412818908691406 0.005875501781702041625976562500 0 0 0 0 
2408666666.6666665077 0.175987958908081110198651231258 -0.022658370435237891460378278907 0.002487126272171736197230673682 0.005685178562998771667480468750 0 0 0 0 
2408833333.3333334923 0.176302671432495089431924384371 -0.024297155439853671682337576954 0.002589003648608922958374023438 0.005396199878305196762084960938 0 0 0 0 
2409000000.0000000000 0.176603779196739196777343750000 -0.025954565033316608774205391796 0.002670850604772568182704306494 0.005194781813770532608032226562 0 0 0 0 
2409166666.6666665077 0.177091851830482510665731865629 -0.027609901502728458749791329296 0.002975605893880128860473632812 0.004972999449819326400756835938 0 0 0 0 
2409333333.3333334923 0.177683949470519991775674384371 -0.029114786535501480102539062500 0.003020102623850107192993164062 0.004773373715579509735107421875 0 0 0 0 
2409500000.0000000000 0.177837491035461398025674384371 -0.030541721731424331665039062500 0.002974430797621608214137411963 0.004723036661744117736816406250 0 0 0 0 
2409666666.6666665077 0.178207755088806207854901231258 -0.031692352145910263061523437500 0.003082678420469164848327636719 0.004556757397949695587158203125 0 0 0 0 
2409833333.3333334923 0.178553089499473599532919365629 -0.032602701336145401000976562500 0.003147983225062489943263388525 0.004359971266239882382864667676 0 0 0 0 
2410000000.0000000000 0.179430425167083712478799384371 -0.033697329461574547504465471093 0.003142313100397586822509765625 0.004223854281008244428152753613 0 0 0 0 
2410166666.6666665077 0.179533645510673495193643134371 -0.034883931279182427143137346093 0.003205885645002127127406454932 0.004020038060843945416922284863 0 0 0 0 
2410333333.3333334923 0.179868027567863492111044365629 -0.035596590489149086689035783593 0.003159008687362074851989746094 0.004024024587124586105346679688 0 0 0 0 
2410500000.0000000000 0.180354341864585904220419365629 -0.036545295268297202373464216407 0.003502170555293560028076171875 0.003944003023207187652587890625 0 0 0 0 
2410666666.6666665077 0.180766090750694302657919365629 -0.037446919828653342510182966407 0.003431232413277029991149902344 0.003638385329395533041713095557 0 0 0 0 
2410833333.3333334923 0.181162044405937194824218750000 -0.037951465696096420288085937500 0.003562347497791051864624023438 0.003589441999793053107020712744 0 0 0 0 
2411000000.0000000000 0.181509852409362792968750000000 -0.038549669086933142925222028907 0.003493709256872535185572958838 0.003534697229042648835423134912 0 0 0 0 
2411166666.6666665077 0.181547656655311612228231865629 -0.039232082664966583251953125000 0.003736861981451510949375771631 0.003575098700821400122401572119 0 0 0 0 
2411333333.3333334923 0.181683704257011413574218750000 -0.039754513651132576679270158593 0.003577589523047208786010742188 0.003447995986789464950561523438 0 0 0 0 
2411500000.0000000000 0.181736990809440612792968750000 -0.040304701775312416767160783593 0.003752064425498247146606445312 0.003334795124828815893885947119 0 0 0 0 
2411666666.6666665077 0.181749522686004610916299384371 -0.040727540850639343261718750000 0.003920620307326316833496093750 0.003210041206330060958862304688 0 0 0 0 
2411833333.3333334923 0.181713446974754305740518134371 -0.041069734841585159301757812500 0.003925140481442213058471679688 0.003173243952915072007420205225 0 0 0 0 
2412000000.0000000000 0.181530833244323702713174384371 -0.041680101305246353149414062500 0.003975878935307264328002929688 0.003090392332524061203002929688 0 0 0 0 
2412166666.6666665077 0.181189075112342806717080634371 -0.042061239480972290039062500000 0.004053049255162478360647870801 0.002928104018792510032653808594 0 0 0 0 
2412333333.3333334923 0.181000813841819790939169365629 -0.042348444461822509765625000000 0.004250119905918836593627929688 0.002789416583254932923557900537 0 0 0 0 
2412500000.0000000000 0.180410012602806091308593750000 -0.042704883962869637226145158593 0.004207351244986057281494140625 0.002695284783840179009678506006 0 0 0 0 
2412666666.6666665077 0.179821386933326693435830634371 -0.043198011815547943115234375000 0.004447854124009609222412109375 0.002744401106610894203186035156 0 0 0 0 
2412833333.3333334923 0.179234862327575711349325615629 -0.043756246566772460937500000000 0.004379239398986101150512695312 0.002574080601334571838378906250 0 0 0 0 
2413000000.0000000000 0.178545981645584106445312500000 -0.044026508927345282817800153907 0.004423355683684349060058593750 0.002418214920908213095424033057 0 0 0 0 
2413166666.6666665077 0.177782520651817294021768134371 -0.044449668377637863159179687500 0.004725447855889797210693359375 0.002285725204274057908299111475 0 0 0 0 
2413333333.3333334923 0.176549300551414489746093750000 -0.044868841767311103130300153907 0.004677781835198402404785156250 0.002237059874460101127624511719 0 0 0 0 
2413500000.0000000000 0.175527557730674688141192518742 -0.045362152159214019775390625000 0.004776482935994864377493573926 0.002114894334226847128627158057 0 0 0 0 
2413666666.6666665077 0.174888029694557189941406250000 -0.046026617288589477539062500000 0.004889692645519971847534179688 0.002085961168631910844090127100 0 0 0 0 
2413833333.3333334923 0.173536449670791598220986884371 -0.046509034931659698486328125000 0.004992457572370767593383789062 0.001840423094108700969098735278 0 0 0 0 
2414000000.0000000000 0.172475606203079195877236884371 -0.047119569033384323120117187500 0.004948850721120834350585937500 0.001711737248115241961238242041 0 0 0 0 
2414166666.6666665077 0.171295717358589200118856865629 -0.047897212207317352294921875000 0.004981599282473325729370117188 0.001431871904060244993922568213 0 0 0 0 
2414333333.3333334923 0.170204505324363708496093750000 -0.048597779124975197528879533593 0.005152186844497919082641601562 0.001597279217094182968139648438 0 0 0 0 
2414500000.0000000000 0.169222116470336886306924384371 -0.049420285969972610473632812500 0.005355923902243375778198242188 0.001290318439714611010310507666 0 0 0 0 
2414666666.6666665077 0.167961478233337402343750000000 -0.050320506095886230468750000000 0.005395569838583469390869140625 0.000974128313828259706497192383 0 0 0 0 
2414833333.3333334923 0.166607931256294305999432481258 -0.051471233367919921875000000000 0.005433668848127126693725585938 0.000909757043700665235519409180 0 0 0 0 
2415000000.0000000000 0.165449187159538296798544365629 -0.052501577883958823467214216407 0.005395321641117334365844726562 0.000794109830167144536972045898 0 0 0 0 
2415166666.6666665077 0.164262115955352810958700615629 -0.053737074136734008789062500000 0.005531948059797286987304687500 0.000384728715289384126663208008 0 0 0 0 
2415333333.3333334923 0.163248136639595003982705634371 -0.055035464465618126606027971093 0.005615252535790205001831054688 0.000422798184445127790600377216 0 0 0 0 
2415500000.0000000000 0.162031903862953213790731865629 -0.056341569870710372924804687500 0.005581053905189037322998046875 0.000330499868141487186581212177 0 0 0 0 
2415666666.6666665077 0.160900160670280512054119981258 -0.057793546468019492412526716407 0.005706306081265211105346679688 0.000003512086095724952914987364 0 0 0 0 
2415833333.3333334923 0.159862712025642395019531250000 -0.059409033507108688354492187500 0.005764796864241361618041992188 -0.000178069196408614489153185434 0 0 0 0 
2416000000.0000000000 0.158638104796409606933593750000 -0.060963466763496398925781250000 0.005861553829163312911987304688 -0.000456669571576640009880065918 0 0 0 0 
2416166666.6666665077 0.157808005809783907791299384371 -0.062612012028694152832031250000 0.005870178341865540418142987988 -0.000609195267315953969955444336 0 0 0 0 
2416333333.3333334923 0.156851559877395602127236884371 -0.064282126724720001220703125000 0.005812915973365306854248046875 -0.000936350203119218349456787109 0 0 0 0 
2416500000.0000000000 0.155799195170402499099893134371 -0.066231593489646911621093750000 0.005880631506443023681640625000 -0.001173749333247541947605752100 0 0 0 0 
2416666666.6666665077 0.154844582080841092208700615629 -0.067998401820659637451171875000 0.005801882594823837280273437500 -0.001511528855189681053161621094 0 0 0 0 
2416833333.3333334923 0.154179304838180486481036268742 -0.069927603006362915039062500000 0.005780813284218311309814453125 -0.001711971359327435927150107275 0 0 0 0 
2417000000.0000000000 0.153047621250152587890625000000 -0.071724131703376770019531250000 0.005783029366284608840942382812 -0.001875553047284483909606933594 0 0 0 0 
2417166666.6666665077 0.152523264288902310470419365629 -0.073537394404411315917968750000 0.005634036380797624588012695312 -0.002261876128613948822021484375 0 0 0 0 
2417333333.3333334923 0.151982814073562594314736884371 -0.075442336499691009521484375000 0.005563593935221433639526367188 -0.002477871486917138099670410156 0 0 0 0 
2417500000.0000000000 0.151259496808052090743856865629 -0.077541492879390716552734375000 0.005445954389870166778564453125 -0.002819812623783946037292480469 0 0 0 0 
2417666666.6666665077 0.150895252823829706390057481258 -0.079263314604759216308593750000 0.005354269407689571380615234375 -0.003122909925878047943115234375 0 0 0 0 
2417833333.3333334923 0.150456011295318603515625000000 -0.080972388386726379394531250000 0.005082292947918176651000976562 -0.003293863497674465179443359375 0 0 0 0 
2418000000.0000000000 0.149880245327949496170205634371 -0.082878120243549346923828125000 0.004878988023847342404837323926 -0.003567540086805820898768759619 0 0 0 0 
2418166666.6666665077 0.149662822484970092773437500000 -0.084438897669315338134765625000 0.004782122559845448407644941113 -0.003681619884446262879612588037 0 0 0 0 
2418333333.3333334923 0.149678409099578912933026231258 -0.086266852915287017822265625000 0.004505710210651159286499023438 -0.003947379998862743377685546875 0 0 0 0 
2418500000.0000000000 0.149373814463615389724893134371 -0.087801009416580200195312500000 0.004353524185717105865478515625 -0.004221178125590085983276367188 0 0 0 0 
2418666666.6666665077 0.149440869688987704178018134371 -0.089329600334167480468750000000 0.004054227843880653381347656250 -0.004371040966361761093139648438 0 0 0 0 
2418833333.3333334923 0.149213656783103887359942518742 -0.090731106698513031005859375000 0.003850030945613979859593056787 -0.004417788702994585037231445312 0 0 0 0 
2419000000.0000000000 0.149125441908836392501669365629 -0.091990537941455841064453125000 0.003435836406424642042872763525 -0.004519551061093807220458984375 0 0 0 0 
2419166666.6666665077 0.149347648024558993240518134371 -0.093267805874347686767578125000 0.003218857338652015166041708838 -0.004694577772170305252075195312 0 0 0 0 
2419333333.3333334923 0.149216756224632290939169365629 -0.094175502657890319824218750000 0.002911067567765713171717978369 -0.004701533820480108261108398438 0 0 0 0 
2419500000.0000000000 0.149451196193695096114950615629 -0.095514282584190368652343750000 0.002772571286186575889587402344 -0.004778773989528417587280273438 0 0 0 0 
2419666666.6666665077 0.149753689765930203536825615629 -0.096450656652450561523437500000 0.002382006030529737906215048682 -0.004846597556024789810180664062 0 0 0 0 
2419833333.3333334923 0.149820566177368191818075615629 -0.096977345645427703857421875000 0.002064451109617948965785361182 -0.004826450720429421338553144238 0 0 0 0 
