# Version 1.00
#
freq[Hz];re:Trc1_S11;im:Trc1_S11;re:Trc2_S21;im:Trc2_S21;
2.400000000000000E+009;1.680831909179688E-001;4.066719487309456E-002;3.417957806959748E-003;1.076796674169600E-003;
2.400166666666667E+009;1.688844859600067E-001;4.014683887362480E-002;3.496344201266766E-003;9.264315594919026E-004;
2.400333333333334E+009;1.691274493932724E-001;3.922848030924797E-002;3.570280969142914E-003;7.622821722179651E-004;
2.400500000000000E+009;1.697691977024078E-001;3.820797055959702E-002;3.516089636832476E-003;6.592720746994019E-004;
2.400666666666667E+009;1.699577122926712E-001;3.740665689110756E-002;3.640520619228482E-003;6.404528976418078E-004;
2.400833333333334E+009;1.703234910964966E-001;3.656624630093575E-002;3.679769579321146E-003;5.555269308388233E-004;
2.401000000000000E+009;1.706693917512894E-001;3.562691435217857E-002;3.807827131822705E-003;2.814880572259426E-004;
2.401166666666667E+009;1.709563583135605E-001;3.482200577855110E-002;3.714134218171239E-003;1.920520298881456E-004;
2.401333333333334E+009;1.709507703781128E-001;3.390882164239883E-002;3.840960562229157E-003;1.154896381194703E-004;
2.401500000000000E+009;1.712609231472015E-001;3.323224186897278E-002;3.904830431565642E-003;-3.491164170554839E-005;
2.401666666666667E+009;1.713188588619232E-001;3.227395564317703E-002;3.769608680158854E-003;-2.829685981851071E-004;
2.401833333333334E+009;1.714775711297989E-001;3.126993402838707E-002;3.789673559367657E-003;-5.516707315109670E-004;
2.402000000000000E+009;1.712807416915894E-001;3.054251335561276E-002;3.647788660600781E-003;-7.772810058668256E-004;
2.402166666666667E+009;1.713682711124420E-001;2.949674986302853E-002;3.736051730811596E-003;-8.331840508617461E-004;
2.402333333333334E+009;1.712570935487747E-001;2.861465699970722E-002;3.780124941840768E-003;-8.578713168390095E-004;
2.402500000000000E+009;1.717138290405273E-001;2.778464928269386E-002;3.753531491383910E-003;-1.027343911118805E-003;
2.402666666666667E+009;1.715231388807297E-001;2.675503678619862E-002;3.608581144362688E-003;-1.220266334712505E-003;
2.402833333333334E+009;1.712585687637329E-001;2.584298141300678E-002;3.748072544112802E-003;-1.346951001323760E-003;
2.403000000000000E+009;1.713025718927383E-001;2.475629001855850E-002;3.620266448706389E-003;-1.500941114500165E-003;
2.403166666666667E+009;1.712689697742462E-001;2.363509312272072E-002;3.572856308892369E-003;-1.839543809182942E-003;
2.403333333333334E+009;1.712086796760559E-001;2.242695540189743E-002;3.483621403574944E-003;-1.854784437455237E-003;
2.403500000000000E+009;1.709883809089661E-001;2.148525416851044E-002;3.455350175499916E-003;-2.127536805346608E-003;
2.403666666666667E+009;1.707736104726791E-001;2.003740705549717E-002;3.164786146953702E-003;-2.229201840236783E-003;
2.403833333333334E+009;1.707956343889237E-001;1.878747157752514E-002;3.117202548310161E-003;-2.508003963157535E-003;
2.404000000000000E+009;1.707182228565216E-001;1.766169443726540E-002;2.885132329538465E-003;-2.556165680289269E-003;
2.404166666666667E+009;1.705263704061508E-001;1.634947583079338E-002;2.695584902539849E-003;-2.466989215463400E-003;
2.404333333333334E+009;1.704623103141785E-001;1.507676485925913E-002;2.606503199785948E-003;-2.628381364047527E-003;
2.404500000000000E+009;1.701955050230026E-001;1.348118949681521E-002;2.355487318709493E-003;-2.790892729535699E-003;
2.404666666666667E+009;1.704031527042389E-001;1.216554734855890E-002;2.015708945691586E-003;-2.969609107822180E-003;
2.404833333333334E+009;1.702874451875687E-001;1.068750675767660E-002;1.859558746218681E-003;-2.973497845232487E-003;
2.405000000000000E+009;1.702979952096939E-001;9.209840558469296E-003;1.676801941357553E-003;-2.860647393390536E-003;
2.405166666666667E+009;1.702182888984680E-001;7.846071384847164E-003;1.603485783562064E-003;-2.745532430708408E-003;
2.405333333333334E+009;1.702954322099686E-001;6.051906384527683E-003;1.257234951481223E-003;-2.629474271088839E-003;
2.405500000000000E+009;1.702117472887039E-001;4.465925041586161E-003;1.161388005129993E-003;-2.726845443248749E-003;
2.405666666666667E+009;1.701827645301819E-001;2.959629753604531E-003;9.684619726613164E-004;-2.309818286448717E-003;
2.405833333333334E+009;1.699276119470596E-001;1.546964165754616E-003;7.995897904038429E-004;-2.363265026360750E-003;
2.406000000000000E+009;1.701493561267853E-001;-3.324975550640374E-004;8.877405780367553E-004;-2.340201754122973E-003;
2.406166666666667E+009;1.698848158121109E-001;-1.780021237209439E-003;8.480391115881503E-004;-2.155499765649438E-003;
2.406333333333334E+009;1.700195372104645E-001;-3.527292516082525E-003;9.523535263724625E-004;-2.091729547828436E-003;
2.406500000000000E+009;1.696928590536118E-001;-5.059132818132639E-003;8.835143526084721E-004;-1.965796574950218E-003;
2.406666666666667E+009;1.694416254758835E-001;-6.543086841702461E-003;1.059601665474474E-003;-1.978029729798436E-003;
2.406833333333334E+009;1.694875955581665E-001;-8.325668051838875E-003;1.170367933809757E-003;-1.784782507456839E-003;
2.407000000000000E+009;1.693381369113922E-001;-9.641021490097046E-003;1.090631936676800E-003;-1.873139524832368E-003;
2.407166666666667E+009;1.691759973764420E-001;-1.100108586251736E-002;1.236363197676837E-003;-1.896736212074757E-003;
2.407333333333334E+009;1.689642965793610E-001;-1.245147176086903E-002;1.178840058855712E-003;-2.165528247132897E-003;
2.407500000000000E+009;1.687518060207367E-001;-1.369091682136059E-002;1.205038977786899E-003;-2.151066204532981E-003;
2.407666666666667E+009;1.686952710151672E-001;-1.485929731279612E-002;1.324942451901734E-003;-2.185118151828647E-003;
2.407833333333334E+009;1.683206409215927E-001;-1.624830625951290E-002;1.359217683784664E-003;-2.392988884821534E-003;
2.408000000000000E+009;1.683429330587387E-001;-1.732386089861393E-002;1.265503233298659E-003;-2.539515495300293E-003;
2.408166666666667E+009;1.682094335556030E-001;-1.814913935959339E-002;1.164693851023912E-003;-2.663742052391172E-003;
2.408333333333334E+009;1.683082580566406E-001;-1.921424455940723E-002;1.136736827902496E-003;-2.605883870273829E-003;
2.408500000000000E+009;1.682289391756058E-001;-2.015136741101742E-002;8.768602274358273E-004;-2.746152691543102E-003;
2.408666666666667E+009;1.683480888605118E-001;-2.111018821597099E-002;8.007744909264147E-004;-2.690280787646771E-003;
2.408833333333334E+009;1.683582812547684E-001;-2.206511236727238E-002;7.069961866363883E-004;-3.052821848541498E-003;
2.409000000000000E+009;1.684620380401611E-001;-2.278424613177776E-002;3.607979451771826E-004;-2.957488875836134E-003;
2.409166666666667E+009;1.686258912086487E-001;-2.371342666447163E-002;2.801443042699248E-004;-2.910726470872760E-003;
2.409333333333334E+009;1.687607169151306E-001;-2.453717030584812E-002;3.198640479240567E-005;-2.784714335575700E-003;
2.409500000000000E+009;1.688685715198517E-001;-2.563033439218998E-002;-1.418097817804664E-004;-2.694555791094899E-003;
2.409666666666667E+009;1.688462644815445E-001;-2.633140422403812E-002;-3.250544541515410E-004;-2.649655565619469E-003;
2.409833333333334E+009;1.689530760049820E-001;-2.728200517594814E-002;-1.904045639093965E-004;-2.474136883392930E-003;
2.410000000000000E+009;1.691627502441406E-001;-2.827729843556881E-002;-2.684569044504315E-004;-2.334480406716466E-003;
2.410166666666667E+009;1.691729575395584E-001;-2.898184955120087E-002;-4.069507995154709E-004;-2.217306522652507E-003;
2.410333333333334E+009;1.690736263990402E-001;-2.977740764617920E-002;-5.227413494139910E-004;-2.164286095649004E-003;
2.410500000000000E+009;1.690858453512192E-001;-3.064537979662418E-002;-2.835277700796723E-004;-1.955843763425946E-003;
2.410666666666667E+009;1.690286397933960E-001;-3.165096417069435E-002;-3.890628286171705E-004;-1.872233697213233E-003;
2.410833333333334E+009;1.690746545791626E-001;-3.252400830388069E-002;-4.567401192616671E-004;-1.797467237338424E-003;
2.411000000000000E+009;1.690149605274200E-001;-3.335163369774818E-002;-3.698809305205941E-004;-1.797154545783997E-003;
2.411166666666667E+009;1.685703247785568E-001;-3.435078635811806E-002;-3.077950677834451E-004;-1.688086776994169E-003;
2.411333333333334E+009;1.684112548828125E-001;-3.510265797376633E-002;-1.787729270290583E-004;-1.789564499631524E-003;
2.411500000000000E+009;1.681055724620819E-001;-3.604388982057571E-002;-1.759317383402959E-004;-1.725862035527825E-003;
2.411666666666667E+009;1.681975424289703E-001;-3.683283179998398E-002;-8.075959340203553E-005;-1.808329136110842E-003;
2.411833333333334E+009;1.677907407283783E-001;-3.773992508649826E-002;-2.078326069749892E-004;-1.739017548970878E-003;
2.412000000000000E+009;1.676206141710281E-001;-3.857140615582466E-002;-2.682633057702333E-004;-1.871183747425675E-003;
2.412166666666667E+009;1.672554314136505E-001;-3.969148918986321E-002;-2.848756557796150E-004;-1.851591747254133E-003;
2.412333333333334E+009;1.672899425029755E-001;-4.041258990764618E-002;-1.011443018796854E-004;-1.817761338315904E-003;
2.412500000000000E+009;1.666234731674194E-001;-4.129706323146820E-002;-1.406047376804054E-004;-1.838079188019037E-003;
2.412666666666667E+009;1.663208454847336E-001;-4.251211881637573E-002;-1.775577256921679E-004;-1.882784767076373E-003;
2.412833333333334E+009;1.659487187862396E-001;-4.341077804565430E-002;-2.847760915756226E-004;-1.905319746583700E-003;
2.413000000000000E+009;1.655412316322327E-001;-4.439801350235939E-002;-1.422567584086210E-004;-1.938537112437189E-003;
2.413166666666667E+009;1.649612933397293E-001;-4.538707435131073E-002;-1.565140410093591E-004;-1.831093803048134E-003;
2.413333333333334E+009;1.644870489835739E-001;-4.625682905316353E-002;7.036204351607012E-006;-1.872758497484028E-003;
2.413500000000000E+009;1.641093194484711E-001;-4.736515879631043E-002;1.150495736510493E-004;-1.880808500573039E-003;
2.413666666666667E+009;1.636488288640976E-001;-4.843901097774506E-002;1.732413948047906E-004;-2.271736040711403E-003;
2.413833333333334E+009;1.631415933370590E-001;-4.926912859082222E-002;1.004060104605742E-004;-2.184713259339333E-003;
2.414000000000000E+009;1.626949608325958E-001;-5.046441406011581E-002;1.303396420553327E-004;-2.549612428992987E-003;
2.414166666666667E+009;1.622951626777649E-001;-5.127012357115746E-002;5.306547973304987E-005;-2.567447023466229E-003;
2.414333333333334E+009;1.618133187294006E-001;-5.246761068701744E-002;-1.757098070811480E-004;-2.710349159315229E-003;
2.414500000000000E+009;1.617841273546219E-001;-5.323258414864540E-002;-1.353877887595445E-004;-2.724076155573130E-003;
2.414666666666667E+009;1.613322198390961E-001;-5.426232889294624E-002;-3.087685327045620E-004;-3.005983773618937E-003;
2.414833333333334E+009;1.609960049390793E-001;-5.540136620402336E-002;-7.762121385894716E-004;-2.992751076817513E-003;
2.415000000000000E+009;1.608174145221710E-001;-5.634092167019844E-002;-6.129693356342614E-004;-3.143944544717670E-003;
2.415166666666667E+009;1.605803668498993E-001;-5.741834267973900E-002;-8.884679991751909E-004;-3.292369656264782E-003;
2.415333333333334E+009;1.605125963687897E-001;-5.873380973935127E-002;-1.253556110896170E-003;-3.210223279893398E-003;
2.415500000000000E+009;1.603257358074188E-001;-5.970016121864319E-002;-1.274267444387078E-003;-3.024909645318985E-003;
2.415666666666667E+009;1.600262522697449E-001;-6.088882312178612E-002;-1.387831871397793E-003;-3.043005941435695E-003;
2.415833333333334E+009;1.600879877805710E-001;-6.218029186129570E-002;-1.950252801179886E-003;-3.105028532445431E-003;
2.416000000000000E+009;1.596349030733109E-001;-6.340906769037247E-002;-1.927217585034668E-003;-2.995788119733334E-003;
2.416166666666667E+009;1.596347838640213E-001;-6.450139731168747E-002;-1.968744210898876E-003;-2.780003473162651E-003;
2.416333333333334E+009;1.593351811170578E-001;-6.576295942068100E-002;-2.474259119480848E-003;-2.612547017633915E-003;
2.416500000000000E+009;1.589211076498032E-001;-6.703583151102066E-002;-2.480776514858007E-003;-2.560305176302791E-003;
2.416666666666667E+009;1.586267203092575E-001;-6.819986552000046E-002;-2.614729106426239E-003;-2.513897372409701E-003;
2.416833333333334E+009;1.585489064455032E-001;-6.952785700559616E-002;-2.739286748692393E-003;-2.126456703990698E-003;
2.417000000000000E+009;1.580500006675720E-001;-7.063805311918259E-002;-2.854395424947143E-003;-1.968285068869591E-003;
2.417166666666667E+009;1.577793359756470E-001;-7.153756916522980E-002;-2.838806482031941E-003;-1.828297390602529E-003;
2.417333333333334E+009;1.575164198875427E-001;-7.256767153739929E-002;-2.726567676290870E-003;-1.751168514601886E-003;
2.417500000000000E+009;1.570754200220108E-001;-7.378441095352173E-002;-2.942927647382021E-003;-1.491997740231454E-003;
2.417666666666667E+009;1.568943113088608E-001;-7.440388202667236E-002;-2.789699239656329E-003;-1.311606727540493E-003;
2.417833333333334E+009;1.564328819513321E-001;-7.536236196756363E-002;-2.642247825860977E-003;-1.135217142291367E-003;
2.418000000000000E+009;1.562293469905853E-001;-7.631681859493256E-002;-2.762597287073731E-003;-1.092109247110784E-003;
2.418166666666667E+009;1.559070497751236E-001;-7.688906043767929E-002;-2.613456454128027E-003;-1.010299194604158E-003;
2.418333333333334E+009;1.559249460697174E-001;-7.797995954751968E-002;-2.413043752312660E-003;-8.776639588177204E-004;
2.418500000000000E+009;1.555872410535812E-001;-7.866016775369644E-002;-2.358275000005961E-003;-9.768162854015827E-004;
2.418666666666667E+009;1.554225981235504E-001;-7.952417433261871E-002;-2.265812596306205E-003;-1.019208924844861E-003;
2.418833333333334E+009;1.549670547246933E-001;-8.026728034019470E-002;-2.176153706386685E-003;-1.039946451783180E-003;
2.419000000000000E+009;1.545683145523071E-001;-8.094386011362076E-002;-2.180837094783783E-003;-1.097452826797962E-003;
2.419166666666667E+009;1.543613374233246E-001;-8.169475197792053E-002;-2.155498368665576E-003;-1.036892295815051E-003;
2.419333333333334E+009;1.539601385593414E-001;-8.208208531141281E-002;-2.185249235481024E-003;-1.257432973943651E-003;
2.419500000000000E+009;1.536002010107040E-001;-8.283565193414688E-002;-2.267454285174608E-003;-1.228034961968660E-003;
2.419666666666667E+009;1.534665822982788E-001;-8.359050005674362E-002;-2.428373321890831E-003;-1.285380334593356E-003;
2.419833333333334E+009;1.529752165079117E-001;-8.407791703939438E-002;-2.643592655658722E-003;-1.414372818544507E-003;
2.420000000000000E+009;1.528409123420715E-001;-8.454800397157669E-002;-2.880062675103545E-003;-1.476648147217929E-003;
2.420166666666667E+009;1.524489820003510E-001;-8.513175696134567E-002;-3.066053148359060E-003;-1.452939701266587E-003;
2.420333333333334E+009;1.519711613655090E-001;-8.573340624570847E-002;-3.119875444099307E-003;-1.391223631799221E-003;
2.420500000000000E+009;1.517827659845352E-001;-8.619814366102219E-002;-3.426352050155401E-003;-1.158436876721680E-003;
2.420666666666667E+009;1.513357311487198E-001;-8.673682808876038E-002;-3.667527576908469E-003;-1.031578867696226E-003;
2.420833333333334E+009;1.509507745504379E-001;-8.745233714580536E-002;-3.813098883256316E-003;-7.287685875780881E-004;
2.421000000000000E+009;1.504523307085037E-001;-8.799422532320023E-002;-3.923920914530754E-003;-6.764099816791713E-004;
2.421166666666667E+009;1.501018702983856E-001;-8.882863074541092E-002;-3.988064359873533E-003;-3.392203943803906E-004;
2.421333333333334E+009;1.496424674987793E-001;-8.950173109769821E-002;-4.026305396109819E-003;4.185302896075882E-005;
2.421500000000000E+009;1.490836590528488E-001;-9.003362804651260E-002;-3.994178958237171E-003;2.244340066681616E-006;
2.421666666666667E+009;1.484336256980896E-001;-9.071129560470581E-002;-4.043495282530785E-003;4.201243573334068E-004;
2.421833333333334E+009;1.479605287313461E-001;-9.121559560298920E-002;-3.969914745539427E-003;7.400822942145169E-004;
2.422000000000000E+009;1.474133431911469E-001;-9.211578965187073E-002;-3.774681594222784E-003;9.360809344798327E-004;
2.422166666666667E+009;1.467187255620956E-001;-9.305518865585327E-002;-3.664549440145493E-003;1.119191641919315E-003;
2.422333333333334E+009;1.462772786617279E-001;-9.364745020866394E-002;-3.683280898258090E-003;1.174012431874871E-003;
2.422500000000000E+009;1.454182267189026E-001;-9.431388229131699E-002;-3.406618721783161E-003;1.394964405335486E-003;
2.422666666666667E+009;1.447572112083435E-001;-9.524383395910263E-002;-3.369273617863655E-003;1.422985573299229E-003;
2.422833333333334E+009;1.441834867000580E-001;-9.614849835634232E-002;-3.229202469810844E-003;1.516400603577495E-003;
2.423000000000000E+009;1.435154080390930E-001;-9.692300111055374E-002;-3.059585811570287E-003;1.630310667678714E-003;
2.423166666666667E+009;1.429118067026138E-001;-9.766159951686859E-002;-3.025022102519870E-003;1.612526830285788E-003;
2.423333333333334E+009;1.422922015190125E-001;-9.848918020725250E-002;-2.902143634855747E-003;1.656010630540550E-003;
2.423500000000000E+009;1.416993886232376E-001;-9.958517551422119E-002;-2.935846103355289E-003;1.893663429655135E-003;
2.423666666666667E+009;1.406987607479096E-001;-1.005131155252457E-001;-2.750065410509706E-003;1.647375291213393E-003;
2.423833333333334E+009;1.403139084577560E-001;-1.014249771833420E-001;-2.717028604820371E-003;1.982423709705472E-003;
2.424000000000000E+009;1.394209712743759E-001;-1.023150309920311E-001;-2.669682726264000E-003;2.056853845715523E-003;
2.424166666666667E+009;1.387252658605576E-001;-1.032842323184013E-001;-2.670527203008533E-003;2.068872563540936E-003;
2.424333333333334E+009;1.382748037576675E-001;-1.042473986744881E-001;-2.418507356196642E-003;2.055894117802382E-003;
2.424500000000000E+009;1.375744789838791E-001;-1.050638332962990E-001;-2.369097201153636E-003;2.177001908421516E-003;
2.424666666666667E+009;1.370536684989929E-001;-1.059242933988571E-001;-2.352224197238684E-003;2.267503645271063E-003;
2.424833333333334E+009;1.363296508789063E-001;-1.070670336484909E-001;-2.103181555867195E-003;2.162339864298701E-003;
2.425000000000000E+009;1.360008716583252E-001;-1.079856827855110E-001;-1.993314130231738E-003;2.302028238773346E-003;
2.425166666666667E+009;1.350993663072586E-001;-1.090667620301247E-001;-2.005560090765357E-003;2.371494891121984E-003;
2.425333333333334E+009;1.346820592880249E-001;-1.099469661712647E-001;-1.877534785307944E-003;2.334978431463242E-003;
2.425500000000000E+009;1.342184096574783E-001;-1.110605522990227E-001;-1.823267550207675E-003;2.286636503413320E-003;
2.425666666666667E+009;1.336384415626526E-001;-1.119837462902069E-001;-1.715501071885228E-003;2.441685181111097E-003;
2.425833333333334E+009;1.332842707633972E-001;-1.129465177655220E-001;-1.715951948426664E-003;2.396295778453350E-003;
2.426000000000000E+009;1.327490210533142E-001;-1.140377297997475E-001;-1.574208494275808E-003;2.465972211211920E-003;
2.426166666666667E+009;1.325744390487671E-001;-1.149494275450707E-001;-1.614015200175345E-003;2.510421210899949E-003;
2.426333333333334E+009;1.319520920515060E-001;-1.159595549106598E-001;-1.463524880819023E-003;2.478297566995025E-003;
2.426500000000000E+009;1.315677016973496E-001;-1.167852878570557E-001;-1.477380283176899E-003;2.552749123424292E-003;
2.426666666666667E+009;1.311836689710617E-001;-1.176269724965096E-001;-1.404931768774986E-003;2.724431455135346E-003;
2.426833333333334E+009;1.308947950601578E-001;-1.185305640101433E-001;-1.224947394803166E-003;2.593497978523374E-003;
2.427000000000000E+009;1.304402947425842E-001;-1.194577068090439E-001;-1.144991256296635E-003;2.739043440669775E-003;
2.427166666666667E+009;1.301175057888031E-001;-1.201302036643028E-001;-1.093522063456476E-003;2.764125354588032E-003;
2.427333333333334E+009;1.297096759080887E-001;-1.209583953022957E-001;-9.990601101890206E-004;2.887123962864280E-003;
2.427500000000000E+009;1.294664144515991E-001;-1.215843632817268E-001;-7.235389784909785E-004;2.779995789751411E-003;
2.427666666666667E+009;1.291581392288208E-001;-1.223070621490479E-001;-5.840238882228732E-004;2.714304486289620E-003;
