# Version 1.00
#
freq[Hz];re:Trc1_S11;im:Trc1_S11;re:Trc2_S21;im:Trc2_S21;
2.400000000000000E+009;1.681352257728577E-001;4.074307903647423E-002;3.462543245404959E-003;1.006712205708027E-003;
2.400166666666667E+009;1.688620448112488E-001;4.012576490640640E-002;3.519094083458185E-003;1.065868884325028E-003;
2.400333333333334E+009;1.692072004079819E-001;3.922152891755104E-002;3.588593332096934E-003;9.264244581572712E-004;
2.400500000000000E+009;1.697107702493668E-001;3.827341273427010E-002;3.612333210185170E-003;7.221737760119140E-004;
2.400666666666667E+009;1.700113713741303E-001;3.732131421566010E-002;3.655591746792197E-003;6.786978919990361E-004;
2.400833333333334E+009;1.703695505857468E-001;3.662850335240364E-002;3.798709716647863E-003;4.306106420699507E-004;
2.401000000000000E+009;1.708159595727921E-001;3.560787811875343E-002;3.710584249347448E-003;3.247427230235189E-004;
2.401166666666667E+009;1.709934026002884E-001;3.477817028760910E-002;3.911941312253475E-003;3.010242944583297E-004;
2.401333333333334E+009;1.709778308868408E-001;3.380222618579865E-002;3.775925608351827E-003;1.245338498847559E-004;
2.401500000000000E+009;1.713348776102066E-001;3.306836634874344E-002;3.989018965512514E-003;-2.078681136481464E-004;
2.401666666666667E+009;1.714404672384262E-001;3.226282447576523E-002;3.973664715886116E-003;-2.801071095746011E-004;
2.401833333333334E+009;1.714976429939270E-001;3.126021102070808E-002;3.750232513993979E-003;-4.026768147014082E-004;
2.402000000000000E+009;1.713567376136780E-001;3.036818467080593E-002;3.866268787533045E-003;-4.979449440725148E-004;
2.402166666666667E+009;1.712429523468018E-001;2.937102876603603E-002;3.761655185371637E-003;-7.923560333438218E-004;
2.402333333333334E+009;1.714041829109192E-001;2.857810258865356E-002;3.695531515404582E-003;-8.463357225991786E-004;
2.402500000000000E+009;1.716079860925674E-001;2.770281210541725E-002;3.978448919951916E-003;-1.017378293909133E-003;
2.402666666666667E+009;1.713414341211319E-001;2.676866017282009E-002;3.880077740177512E-003;-1.304427511058748E-003;
2.402833333333334E+009;1.713268905878067E-001;2.572273090481758E-002;3.773547941818833E-003;-1.504695625044406E-003;
2.403000000000000E+009;1.714072227478027E-001;2.463404089212418E-002;3.649991238489747E-003;-1.694164006039500E-003;
2.403166666666667E+009;1.713138818740845E-001;2.351829223334789E-002;3.503607818856835E-003;-1.719476073049009E-003;
2.403333333333334E+009;1.709881424903870E-001;2.247685194015503E-002;3.472573822364211E-003;-1.842041267082095E-003;
2.403500000000000E+009;1.708648949861527E-001;2.121787704527378E-002;3.438360290601850E-003;-2.001429907977581E-003;
2.403666666666667E+009;1.707849204540253E-001;2.018249034881592E-002;3.216010984033346E-003;-2.287409035488963E-003;
2.403833333333334E+009;1.708466261625290E-001;1.878982968628407E-002;3.038884373381734E-003;-2.348913345485926E-003;
2.404000000000000E+009;1.705892086029053E-001;1.759389974176884E-002;3.074251580983400E-003;-2.551543526351452E-003;
2.404166666666667E+009;1.704354584217072E-001;1.613898016512394E-002;2.700164448469877E-003;-2.681798534467816E-003;
2.404333333333334E+009;1.703824549913406E-001;1.504190638661385E-002;2.733603352680802E-003;-2.934585558250547E-003;
2.404500000000000E+009;1.703157722949982E-001;1.351238694041967E-002;2.282950095832348E-003;-2.867227420210838E-003;
2.404666666666667E+009;1.702871024608612E-001;1.218816172331572E-002;2.077160868793726E-003;-2.823336282745004E-003;
2.404833333333334E+009;1.702031344175339E-001;1.082937326282263E-002;1.960903871804476E-003;-2.949259011074901E-003;
2.405000000000000E+009;1.703351587057114E-001;9.228687733411789E-003;1.672852435149252E-003;-2.810328500345349E-003;
2.405166666666667E+009;1.702264398336411E-001;7.756721228361130E-003;1.679715467616916E-003;-2.978181466460228E-003;
2.405333333333334E+009;1.701164841651917E-001;5.967725533992052E-003;1.363535295240581E-003;-2.697363961488009E-003;
2.405500000000000E+009;1.700985729694367E-001;4.598301369696856E-003;1.078899833373725E-003;-2.798584522679448E-003;
2.405666666666667E+009;1.702086031436920E-001;3.052587853744626E-003;9.018843411467969E-004;-2.471388783305883E-003;
2.405833333333334E+009;1.699994057416916E-001;1.497383695095778E-003;9.684602846391499E-004;-2.435138681903482E-003;
2.406000000000000E+009;1.700660288333893E-001;-3.648725396487862E-004;9.610506240278482E-004;-2.334097400307655E-003;
2.406166666666667E+009;1.697682887315750E-001;-1.820739242248237E-003;8.450921159237623E-004;-2.274671103805304E-003;
2.406333333333334E+009;1.698623746633530E-001;-3.467389149591327E-003;9.290546295233071E-004;-2.108978806063533E-003;
2.406500000000000E+009;1.696563363075256E-001;-5.192268639802933E-003;1.053574495017529E-003;-1.990989549085498E-003;
2.406666666666667E+009;1.693040132522583E-001;-6.660909857600927E-003;9.857899276539683E-004;-1.794465817511082E-003;
2.406833333333334E+009;1.693970710039139E-001;-8.075010031461716E-003;1.050349092110992E-003;-1.979564549401403E-003;
2.407000000000000E+009;1.692635118961334E-001;-9.560267440974712E-003;1.229986781254411E-003;-1.941156806424260E-003;
2.407166666666667E+009;1.692037880420685E-001;-1.106833200901747E-002;1.273197820410132E-003;-1.911005354486406E-003;
2.407333333333334E+009;1.689184010028839E-001;-1.246567536145449E-002;1.279020914807916E-003;-2.079362049698830E-003;
2.407500000000000E+009;1.688369512557983E-001;-1.376158650964499E-002;1.211678492836654E-003;-2.132440218701959E-003;
2.407666666666667E+009;1.686532199382782E-001;-1.488202158361673E-002;1.246651750989258E-003;-2.109922934323549E-003;
2.407833333333334E+009;1.683446317911148E-001;-1.627186127007008E-002;1.168802729807794E-003;-2.165185054764152E-003;
2.408000000000000E+009;1.683474779129028E-001;-1.744864881038666E-002;1.253908034414053E-003;-2.373952651396394E-003;
2.408166666666667E+009;1.682803779840469E-001;-1.821296662092209E-002;1.209002919495106E-003;-2.447449136525393E-003;
2.408333333333334E+009;1.684026122093201E-001;-1.916103437542915E-002;9.607835672795773E-004;-2.655925462022424E-003;
2.408500000000000E+009;1.682724952697754E-001;-2.013491094112396E-002;9.953579865396023E-004;-2.809010911732912E-003;
2.408666666666667E+009;1.683089435100555E-001;-2.109958417713642E-002;7.373282569460571E-004;-2.964496845379472E-003;
2.408833333333334E+009;1.683493405580521E-001;-2.194847352802753E-002;7.009521941654384E-004;-3.044397803023458E-003;
2.409000000000000E+009;1.683899462223053E-001;-2.275045774877071E-002;4.847878008149564E-004;-2.858105115592480E-003;
2.409166666666667E+009;1.685605347156525E-001;-2.373836375772953E-002;1.606306177563965E-004;-2.698607044294477E-003;
2.409333333333334E+009;1.688992232084274E-001;-2.469022758305073E-002;-5.297138159221504E-006;-2.779058180749416E-003;
2.409500000000000E+009;1.688503026962280E-001;-2.555727586150169E-002;-7.912260480225086E-005;-2.539294771850109E-003;
2.409666666666667E+009;1.688655167818070E-001;-2.635973133146763E-002;-2.427863219054416E-004;-2.637712517753243E-003;
2.409833333333334E+009;1.690010279417038E-001;-2.714502252638340E-002;-3.157191094942391E-004;-2.482508309185505E-003;
2.410000000000000E+009;1.691994071006775E-001;-2.819900587201119E-002;-4.278422275092453E-004;-2.205887110903859E-003;
2.410166666666667E+009;1.692311465740204E-001;-2.906887419521809E-002;-3.461686719674617E-004;-2.114525297656655E-003;
2.410333333333334E+009;1.691715568304062E-001;-2.977957203984261E-002;-5.347864935174584E-004;-2.137970179319382E-003;
2.410500000000000E+009;1.691716760396957E-001;-3.075942024588585E-002;-4.441682249307632E-004;-2.117207506671548E-003;
2.410666666666667E+009;1.690010130405426E-001;-3.191427886486054E-002;-3.379792615305632E-004;-1.961020287126303E-003;
2.410833333333334E+009;1.691221892833710E-001;-3.242652490735054E-002;-2.815524931065738E-004;-2.003830857574940E-003;
2.411000000000000E+009;1.686990261077881E-001;-3.330699726939201E-002;-3.743410343304277E-004;-1.730349147692323E-003;
2.411166666666667E+009;1.686732023954392E-001;-3.431493416428566E-002;-3.006006591022015E-004;-1.883092685602605E-003;
2.411333333333334E+009;1.684792488813400E-001;-3.504778072237968E-002;-1.492646551923826E-004;-1.751103787682951E-003;
2.411500000000000E+009;1.683828979730606E-001;-3.593262657523155E-002;-2.207383367931470E-004;-1.697820727713406E-003;
2.411666666666667E+009;1.681070923805237E-001;-3.690226748585701E-002;-1.460139028495178E-004;-1.729468582198024E-003;
2.411833333333334E+009;1.678209900856018E-001;-3.747150301933289E-002;-1.089088182197884E-004;-1.761523890309036E-003;
2.412000000000000E+009;1.676216572523117E-001;-3.857117891311646E-002;-1.481802974012680E-005;-1.815694500692189E-003;
2.412166666666667E+009;1.672587394714356E-001;-3.945754095911980E-002;-1.790251699276269E-004;-2.033564494922757E-003;
2.412333333333334E+009;1.671246141195297E-001;-4.034147039055824E-002;-1.889455306809396E-004;-1.859513227827847E-003;
2.412500000000000E+009;1.666223257780075E-001;-4.131681472063065E-002;-2.301506610820070E-004;-1.797887030988932E-003;
2.412666666666667E+009;1.663141995668411E-001;-4.231626167893410E-002;-2.003539848374203E-004;-1.782814273610711E-003;
2.412833333333334E+009;1.659060716629028E-001;-4.332032054662705E-002;-2.610277733765543E-004;-1.714693265967071E-003;
2.413000000000000E+009;1.654491275548935E-001;-4.419611021876335E-002;-1.084273026208393E-004;-1.776539371348918E-003;
2.413166666666667E+009;1.649507284164429E-001;-4.517213255167007E-002;5.289904947858304E-005;-2.114371396601200E-003;
2.413333333333334E+009;1.645428240299225E-001;-4.643048718571663E-002;-2.798236528178677E-005;-2.054772572591901E-003;
2.413500000000000E+009;1.641309112310410E-001;-4.742610454559326E-002;-8.026089199120179E-005;-1.937655964866281E-003;
2.413666666666667E+009;1.637588143348694E-001;-4.846178740262985E-002;-4.855872703046771E-006;-2.059015445411205E-003;
2.413833333333334E+009;1.633830666542053E-001;-4.948958009481430E-002;7.860700861783698E-005;-2.301454311236739E-003;
2.414000000000000E+009;1.625247001647949E-001;-5.043236911296845E-002;7.426514639519155E-005;-2.516271546483040E-003;
2.414166666666667E+009;1.623880565166473E-001;-5.125785991549492E-002;-4.768514372699428E-006;-2.505274023860693E-003;
2.414333333333334E+009;1.618365496397018E-001;-5.234337598085403E-002;-1.114781043725088E-004;-2.620855811983347E-003;
2.414500000000000E+009;1.617228090763092E-001;-5.314471200108528E-002;-2.157803100999445E-004;-2.910691779106855E-003;
2.414666666666667E+009;1.613072454929352E-001;-5.437396839261055E-002;-4.007317766081542E-004;-2.971962094306946E-003;
2.414833333333334E+009;1.610139906406403E-001;-5.534671247005463E-002;-5.429177545011044E-004;-3.251392627134919E-003;
2.415000000000000E+009;1.607867926359177E-001;-5.638123303651810E-002;-7.359170704148710E-004;-3.291694680228829E-003;
2.415166666666667E+009;1.605217456817627E-001;-5.744286254048348E-002;-9.356640512123704E-004;-3.229660447686911E-003;
2.415333333333334E+009;1.605745702981949E-001;-5.879538506269455E-002;-1.208330271765590E-003;-3.197823185473681E-003;
2.415500000000000E+009;1.602995395660400E-001;-5.960010364651680E-002;-1.407207921147347E-003;-3.325835335999727E-003;
2.415666666666667E+009;1.601294577121735E-001;-6.073459982872009E-002;-1.724475645460188E-003;-3.120943903923035E-003;
2.415833333333334E+009;1.600212603807449E-001;-6.209931522607803E-002;-1.859728479757905E-003;-3.199558937922120E-003;
2.416000000000000E+009;1.596204787492752E-001;-6.321846693754196E-002;-2.113476395606995E-003;-3.138971747830510E-003;
2.416166666666667E+009;1.596575379371643E-001;-6.466257572174072E-002;-2.180579351261258E-003;-2.900202525779605E-003;
2.416333333333334E+009;1.592584103345871E-001;-6.575579196214676E-002;-2.362996106967330E-003;-2.585959620773792E-003;
2.416500000000000E+009;1.591948866844177E-001;-6.707903742790222E-002;-2.540152054280043E-003;-2.591980854049325E-003;
2.416666666666667E+009;1.588517725467682E-001;-6.818320602178574E-002;-2.591192489489913E-003;-2.383763669058681E-003;
2.416833333333334E+009;1.585899740457535E-001;-6.939667463302612E-002;-2.781904302537441E-003;-2.258738037198782E-003;
2.417000000000000E+009;1.580188125371933E-001;-7.057461887598038E-002;-2.996283117681742E-003;-2.196359448134899E-003;
2.417166666666667E+009;1.578090786933899E-001;-7.156369835138321E-002;-2.809329889714718E-003;-1.818828983232379E-003;
2.417333333333334E+009;1.575146168470383E-001;-7.259020954370499E-002;-2.896544057875872E-003;-1.732562435790896E-003;
2.417500000000000E+009;1.571075469255447E-001;-7.365390658378601E-002;-2.872138051316142E-003;-1.513744820840657E-003;
2.417666666666667E+009;1.569701284170151E-001;-7.447466999292374E-002;-2.887401962652803E-003;-1.414534985087812E-003;
2.417833333333334E+009;1.565365940332413E-001;-7.531578093767166E-002;-2.840719884261489E-003;-1.195703051052988E-003;
2.418000000000000E+009;1.562520265579224E-001;-7.640210539102554E-002;-2.758991206064820E-003;-1.124239992350340E-003;
2.418166666666667E+009;1.559808999300003E-001;-7.707752287387848E-002;-2.678283024579287E-003;-9.848722256720066E-004;
2.418333333333334E+009;1.559416800737381E-001;-7.792851328849793E-002;-2.436545910313726E-003;-8.165846811607480E-004;
2.418500000000000E+009;1.555562466382980E-001;-7.867675274610519E-002;-2.283193403854966E-003;-9.154528379440308E-004;
2.418666666666667E+009;1.553128510713577E-001;-7.946252077817917E-002;-2.292600693181157E-003;-8.857191423885524E-004;
2.418833333333334E+009;1.548740714788437E-001;-8.020289242267609E-002;-2.242548158392310E-003;-9.068765793927014E-004;
2.419000000000000E+009;1.546706408262253E-001;-8.086503297090530E-002;-2.122249454259872E-003;-1.075129373930395E-003;
2.419166666666667E+009;1.543091535568237E-001;-8.156492561101914E-002;-2.215708605945110E-003;-1.114023732952774E-003;
2.419333333333334E+009;1.539583206176758E-001;-8.206441253423691E-002;-2.218710258603096E-003;-1.283420599065721E-003;
2.419500000000000E+009;1.536460667848587E-001;-8.297771960496903E-002;-2.345652785152197E-003;-1.229069777764380E-003;
2.419666666666667E+009;1.534637808799744E-001;-8.351831138134003E-002;-2.542108763009310E-003;-1.395381172187626E-003;
2.419833333333334E+009;1.528045386075974E-001;-8.406151831150055E-002;-2.539588371291757E-003;-1.273795263841748E-003;
2.420000000000000E+009;1.526288241147995E-001;-8.452006429433823E-002;-2.714971546083689E-003;-1.306448364630342E-003;
2.420166666666667E+009;1.522907912731171E-001;-8.518267422914505E-002;-2.932643983513117E-003;-1.418315223418176E-003;
2.420333333333334E+009;1.519735306501389E-001;-8.585911989212036E-002;-3.243048442527652E-003;-1.321440562605858E-003;
2.420500000000000E+009;1.516504883766174E-001;-8.632259815931320E-002;-3.354979911819100E-003;-1.146586611866951E-003;
2.420666666666667E+009;1.513248682022095E-001;-8.674559742212296E-002;-3.584306221455336E-003;-1.056971494108439E-003;
2.420833333333334E+009;1.509609371423721E-001;-8.743505179882050E-002;-3.889272222295404E-003;-8.257583249360323E-004;
2.421000000000000E+009;1.505644917488098E-001;-8.815179020166397E-002;-3.872322151437402E-003;-4.889302654191852E-004;
2.421166666666667E+009;1.500864624977112E-001;-8.879122138023377E-002;-3.922962583601475E-003;-3.221734368707985E-004;
2.421333333333334E+009;1.496643871068955E-001;-8.937146514654160E-002;-4.047816619277000E-003;-2.376473639742471E-005;
2.421500000000000E+009;1.490582227706909E-001;-9.002379328012466E-002;-4.058414604514837E-003;1.293990790145472E-004;
2.421666666666667E+009;1.483200043439865E-001;-9.091657400131226E-002;-3.918935079127550E-003;2.299062762176618E-004;
2.421833333333334E+009;1.479292362928391E-001;-9.133747965097427E-002;-3.904144978150725E-003;6.173127912916243E-004;
2.422000000000000E+009;1.473098397254944E-001;-9.205888956785202E-002;-3.846356878057122E-003;8.295536972582340E-004;
2.422166666666667E+009;1.468078196048737E-001;-9.305566549301148E-002;-3.751113312318921E-003;1.057655084878206E-003;
2.422333333333334E+009;1.461430341005325E-001;-9.362461417913437E-002;-3.553261281922460E-003;1.230471883900464E-003;
2.422500000000000E+009;1.454272270202637E-001;-9.420073777437210E-002;-3.531764261424542E-003;1.324723125435412E-003;
2.422666666666667E+009;1.447524577379227E-001;-9.506231546401978E-002;-3.334810957312584E-003;1.556575181894004E-003;
2.422833333333334E+009;1.442165523767471E-001;-9.613153338432312E-002;-3.159475279971957E-003;1.586717320606113E-003;
2.423000000000000E+009;1.435008794069290E-001;-9.681547433137894E-002;-3.126832423731685E-003;1.778745092451572E-003;
2.423166666666667E+009;1.430291682481766E-001;-9.785017371177673E-002;-2.926953835412860E-003;1.694908249191940E-003;
2.423333333333334E+009;1.423087269067764E-001;-9.841227531433106E-002;-2.891036914661527E-003;1.721400534734130E-003;
2.423500000000000E+009;1.416202634572983E-001;-9.955465793609619E-002;-2.903557848185301E-003;1.842751749791205E-003;
2.423666666666667E+009;1.407435983419418E-001;-1.005072444677353E-001;-2.809718484058976E-003;2.006597584113479E-003;
2.423833333333334E+009;1.402061432600021E-001;-1.015528067946434E-001;-2.932697767391801E-003;2.062565647065640E-003;
2.424000000000000E+009;1.393984705209732E-001;-1.023940145969391E-001;-2.702427329495549E-003;1.988186035305262E-003;
2.424166666666667E+009;1.387790739536285E-001;-1.032566502690315E-001;-2.682360121980310E-003;2.055831719189882E-003;
2.424333333333334E+009;1.381390243768692E-001;-1.041170880198479E-001;-2.355409320443869E-003;2.267834497615695E-003;
2.424500000000000E+009;1.375765949487686E-001;-1.052804961800575E-001;-2.497921697795391E-003;2.098620869219303E-003;
2.424666666666667E+009;1.371018141508102E-001;-1.059816852211952E-001;-2.263039350509644E-003;2.445780206471682E-003;
2.424833333333334E+009;1.363249570131302E-001;-1.070475950837135E-001;-2.223427873104811E-003;2.394870854914188E-003;
2.425000000000000E+009;1.358405798673630E-001;-1.080491170287132E-001;-1.927893143147230E-003;2.406799467280507E-003;
2.425166666666667E+009;1.351686418056488E-001;-1.090450212359428E-001;-1.888980623334646E-003;2.476487308740616E-003;
2.425333333333334E+009;1.347513496875763E-001;-1.099841222167015E-001;-1.779436832293868E-003;2.328381640836597E-003;
2.425500000000000E+009;1.343221217393875E-001;-1.110890358686447E-001;-1.730789314024150E-003;2.471080981194973E-003;
2.425666666666667E+009;1.335663497447968E-001;-1.119632199406624E-001;-1.635189983062446E-003;2.470164792612195E-003;
2.425833333333334E+009;1.331709325313568E-001;-1.130357235670090E-001;-1.562078483402729E-003;2.576042897999287E-003;
2.426000000000000E+009;1.328700184822083E-001;-1.140881106257439E-001;-1.608858467079699E-003;2.434232039377093E-003;
2.426166666666667E+009;1.324594169855118E-001;-1.150136888027191E-001;-1.537159667350352E-003;2.388084307312965E-003;
2.426333333333334E+009;1.318687349557877E-001;-1.159663721919060E-001;-1.383955357596278E-003;2.485653618350625E-003;
2.426500000000000E+009;1.315799504518509E-001;-1.168277785181999E-001;-1.416215323843062E-003;2.693972550332546E-003;
2.426666666666667E+009;1.312776952981949E-001;-1.176422983407974E-001;-1.288205152377486E-003;2.660851925611496E-003;
2.426833333333334E+009;1.308368295431137E-001;-1.185535639524460E-001;-1.291621709242463E-003;2.752105472609401E-003;
2.427000000000000E+009;1.303999125957489E-001;-1.194385215640068E-001;-1.140553737059236E-003;2.760991919785738E-003;
2.427166666666667E+009;1.300138235092163E-001;-1.201308220624924E-001;-1.030240091495216E-003;2.789181657135487E-003;
2.427333333333334E+009;1.295857578516007E-001;-1.209428980946541E-001;-8.049019961617887E-004;2.901443047448993E-003;
2.427500000000000E+009;1.295325160026550E-001;-1.216280534863472E-001;-8.584905299358070E-004;2.915046177804470E-003;
2.427666666666667E+009;1.291937083005905E-001;-1.223328039050102E-001;-6.034782854840159E-004;2.757895039394498E-003;
