# Hz S RI R 
2400000000.0000000000 0.158018574118614196777343750000 0.061824910342693328857421875000 -0.003071840154007076783421181787 0.000775726512074470520019531250 0 0 0 0 
2400166666.6666665077 0.158073633909225491622763115629 0.060223747044801712036132812500 -0.003027558559551835060119628906 0.000725623220205307006835937500 0 0 0 0 
2400333333.3333334923 0.157814845442771911621093750000 0.058417610824108116840402971093 -0.002853094832971692085266113281 0.000882554857525974512100219727 0 0 0 0 
2400500000.0000000000 0.157974332571029690841513115629 0.056384272873401641845703125000 -0.002912922296673059897181845557 0.001005733967758714935900044019 0 0 0 0 
2400666666.6666665077 0.157815814018249511718750000000 0.054537918418645858764648437500 -0.002670360961928964094874716650 0.001191025483421980901005410303 0 0 0 0 
2400833333.3333334923 0.158191993832588195800781250000 0.052647780627012252807617187500 -0.002686577616259456114528036963 0.001056033419445157051086425781 0 0 0 0 
2401000000.0000000000 0.158043652772903386871661268742 0.050598520785570151592214216407 -0.002782354829832911925074911963 0.000967209693044424057006835938 0 0 0 0 
2401166666.6666665077 0.158317685127258300781250000000 0.048638448119163513183593750000 -0.002447237493470311164855957031 0.001256225514225661971448588794 0 0 0 0 
2401333333.3333334923 0.158422827720642089843750000000 0.046516697853803641582448591407 -0.002575794933363794846775673975 0.001134721678681672053096152197 0 0 0 0 
2401500000.0000000000 0.158929750323295593261718750000 0.044509209692478179931640625000 -0.002157060429453849792480468750 0.001164349727332592010498046875 0 0 0 0 
2401666666.6666665077 0.159228071570396395584268134371 0.042580783367156982421875000000 -0.002179362811148167090175009619 0.001215232536196708896039653247 0 0 0 0 
2401833333.3333334923 0.159551486372947692871093750000 0.040562245994806289672851562500 -0.002218877896666526794433593750 0.001391060533933341936824179541 0 0 0 0 
2402000000.0000000000 0.160000711679458590408486884371 0.038685590028762817382812500000 -0.002099758945405482812168740381 0.001217732322402299100991274194 0 0 0 0 
2402166666.6666665077 0.160491809248924310882244981258 0.036526646465063102031667341407 -0.001995881088078022003173828125 0.001266343984752893014195107568 0 0 0 0 
2402333333.3333334923 0.160966366529464693924111884371 0.034686248749494552612304687500 -0.001920182490721344947814941406 0.001256393967196344895603798975 0 0 0 0 
2402500000.0000000000 0.161891236901283291915731865629 0.033075135201215737079660783593 -0.001810003886930644945857382666 0.001207976951263844966888427734 0 0 0 0 
2402666666.6666665077 0.162566527724266107757244981258 0.031460139900445938110351562500 -0.001791865332052112059352255713 0.001251877052709460041643452222 0 0 0 0 
2402833333.3333334923 0.163179993629455594161825615629 0.029584996402263641357421875000 -0.001815063995309174060821533203 0.001280308584682642979862832178 0 0 0 0 
2403000000.0000000000 0.163823291659355191329794365629 0.028072126209735870361328125000 -0.001687438692897557995439838940 0.001220340840518475012538290869 0 0 0 0 
2403166666.6666665077 0.164925426244735690017861884371 0.026549583300948139535924141796 -0.001718950225040317015406943213 0.001266086590476334095001220703 0 0 0 0 
2403333333.3333334923 0.165753781795501708984375000000 0.024996541440486911428431326954 -0.001708905212581157901166606372 0.001253827824257313988329243237 0 0 0 0 
2403500000.0000000000 0.166546270251274108886718750000 0.023642349988222118722935860546 -0.001721592270769179084180522388 0.001219081692397595102425600366 0 0 0 0 
2403666666.6666665077 0.167482897639274597167968750000 0.022280147299170490610142891796 -0.001800690079107881026027060400 0.001162381377071141979814838940 0 0 0 0 
2403833333.3333334923 0.168365031480789212325888115629 0.020905021578073501586914062500 -0.001745473709888756058336567456 0.001362983253784477927564311450 0 0 0 0 
2404000000.0000000000 0.169422179460525512695312500000 0.019855707883834838867187500000 -0.001853530295193194909336709131 0.001226894790306686921360634912 0 0 0 0 
2404166666.6666665077 0.170355811715126009842080634371 0.018745345994830131530761718750 -0.001778650097548962073085165869 0.001459628809243441061732626807 0 0 0 0 
2404333333.3333334923 0.171185120940208407303018134371 0.017777619883418079721471016796 -0.001659073284827172973035502856 0.001457473030313849015476845850 0 0 0 0 
2404500000.0000000000 0.172061115503311212737713731258 0.016707194969058040273646170704 -0.001818905118852853991864848560 0.001355531625449657006504677881 0 0 0 0 
2404666666.6666665077 0.173144355416297912597656250000 0.016055082902312278747558593750 -0.001667192671447992107988667065 0.001538616721518337943433452075 0 0 0 0 
2404833333.3333334923 0.173989251255989102462606865629 0.014996684156358240300188633398 -0.001737176906317473108407045679 0.001540806726552546024322509766 0 0 0 0 
2405000000.0000000000 0.174748539924621609786825615629 0.014253263361752029764195626171 -0.001565976766869425990461039966 0.001752522308379411914228129810 0 0 0 0 
2405166666.6666665077 0.175578042864799499511718750000 0.013599285855889320373535156250 -0.001608561258763075091718364185 0.001721793320029973983764648438 0 0 0 0 
2405333333.3333334923 0.176394596695899991134481865629 0.012992579489946370560615740430 -0.001688786083832382938982319409 0.001802883693017065958735800635 0 0 0 0 
2405500000.0000000000 0.176991567015647888183593750000 0.012529157102107999974260899023 -0.001503607956692575974705361475 0.001924209762364625930786132812 0 0 0 0 
2405666666.6666665077 0.177781626582145690917968750000 0.012094411998987199610700038477 -0.001354292035102844021440815503 0.002050694078207015991210937500 0 0 0 0 
2405833333.3333334923 0.178198978304863003829794365629 0.011742493137717250478724295704 -0.001392274512909352996228862231 0.001897080685012042956111288916 0 0 0 0 
2406000000.0000000000 0.178841203451156588455361884371 0.011195539496839049947718436329 -0.001271720975637435913085937500 0.002255105180665851073024130713 0 0 0 0 
2406166666.6666665077 0.179207935929298400878906250000 0.011029289104044439143170741602 -0.001187760266475379900691367041 0.002337980549782515005824423682 0 0 0 0 
2406333333.3333334923 0.179661765694618197342080634371 0.010723827406764030456542968750 -0.001126390998251735947252583081 0.002217441564425826072692871094 0 0 0 0 
2406500000.0000000000 0.179877594113349886795205634371 0.010333694517612460744837576954 -0.001020799158141016960144042969 0.002325539942830801010131835938 0 0 0 0 
2406666666.6666665077 0.179888129234313992599325615629 0.009990762919187545776367187500 -0.000995576498098671436309814453 0.002295242622494698004481650244 0 0 0 0 
2406833333.3333334923 0.180202811956405611892861884371 0.009615332819521427154541015625 -0.000913030293304473161697387695 0.002304476220160723166224814307 0 0 0 0 
2407000000.0000000000 0.180329337716102600097656250000 0.009172346442937850952148437500 -0.000890249619260430335998535156 0.002273106714710592789890908350 0 0 0 0 
2407166666.6666665077 0.180385649204254205901776231258 0.008907246403396129608154296875 -0.000554017489776015281677246094 0.002250024816021323204040527344 0 0 0 0 
2407333333.3333334923 0.180164352059364291092080634371 0.008561900816857814788818359375 -0.000535249826498329639434814453 0.002444691490381956100463867188 0 0 0 0 
2407500000.0000000000 0.179952591657638605315838731258 0.007956880144774913787841796875 -0.000546234485227614641189575195 0.002254361286759376959559775244 0 0 0 0 
2407666666.6666665077 0.179858103394508389571981865629 0.007648281287401914596557617188 -0.000328814756358042413562220441 0.002240919275209308104274130713 0 0 0 0 
2407833333.3333334923 0.179349318146705599685830634371 0.006986389402300119400024414062 -0.000331398594425991177558898926 0.002290323143824934959411621094 0 0 0 0 
2408000000.0000000000 0.179148748517036410232705634371 0.006248452700674533843994140625 -0.000241991583607159609168452130 0.002198985544964671134948730469 0 0 0 0 
2408166666.6666665077 0.178722575306892395019531250000 0.005721097812056540575509355762 -0.000195420376257970902040758676 0.002162763150408864021301269531 0 0 0 0 
2408333333.3333334923 0.178437352180481012542401231258 0.004918656777590513229370117188 -0.000174053595401346710607251578 0.002110310131683946089503622900 0 0 0 0 
2408500000.0000000000 0.177796676754951504806356865629 0.004113692324608564376831054688 -0.000045834865886718041520526273 0.002189586404711008071899414062 0 0 0 0 
2408666666.6666665077 0.177139356732368496993856865629 0.003115107072517275810241699219 0.000090284447651356458663940430 0.002167624421417713165283203125 0 0 0 0 
2408833333.3333334923 0.176465332508087213714276231258 0.002273051999509334997889853369 -0.000067806591687258332967758179 0.002084662206470965905430459131 0 0 0 0 
2409000000.0000000000 0.175907865166664095779580634371 0.001150418072938919067382812500 0.000076608594099525362253189087 0.001988959033042192892787314307 0 0 0 0 
2409166666.6666665077 0.175316020846366910079794365629 -0.000046639579522889107465744019 0.000033929529308807111602237089 0.002101545454934238953831338037 0 0 0 0 
2409333333.3333334923 0.174725487828254699707031250000 -0.001322974450886249975917197119 -0.000017697246221359819173812866 0.002039331942796707153320312500 0 0 0 0 
2409500000.0000000000 0.173958405852317810058593750000 -0.002866323338821529908421181787 0.000113157861051149693414411002 0.002197701949626206918003701318 0 0 0 0 
2409666666.6666665077 0.173332422971725491622763115629 -0.003985496237874031066894531250 0.000114757785922847701750616756 0.001997198676690458817722939600 0 0 0 0 
2409833333.3333334923 0.172791719436645507812500000000 -0.005289294756948947906494140625 0.000227676151553168892860412598 0.002183055039495230154750204932 0 0 0 0 
2410000000.0000000000 0.172038033604621887207031250000 -0.006932890973985195159912109375 0.000269498472334817106097620831 0.001842008554376661994336772388 0 0 0 0 
2410166666.6666665077 0.171499028801918002029580634371 -0.008455904200673103332519531250 0.000214660205529071390628814697 0.001935275387950241999385214697 0 0 0 0 
2410333333.3333334923 0.170951411128044100662393134371 -0.010105684399604800832728201954 0.000149935280205681892946520395 0.002057298319414258003234863281 0 0 0 0 
2410500000.0000000000 0.170486032962799100021200615629 -0.011819833889603620011299334180 0.000315755198244005387455540790 0.001976583153009415106532431494 0 0 0 0 
2410666666.6666665077 0.169783890247344998458700615629 -0.013630552217364309483538242773 0.000488574325572699308395385742 0.002001018961891531944274902344 0 0 0 0 
2410833333.3333334923 0.169613286852836608886718750000 -0.015455618500709530221959298046 0.000448717211838811581760960712 0.002002867870032786889317177881 0 0 0 0 
2411000000.0000000000 0.169123128056526211837606865629 -0.017274301499128341674804687500 0.000369236862752586603164672852 0.001985674258321524100062704932 0 0 0 0 
2411166666.6666665077 0.168868899345398004729901231258 -0.019124094396829608571986014454 0.000485704455059021711349487305 0.002112743910402059988734579932 0 0 0 0 
2411333333.3333334923 0.168549373745918301681356865629 -0.020902227610349658620814139454 0.000562328787054866552352905273 0.002045524772256613211390829932 0 0 0 0 
2411500000.0000000000 0.168454244732856805999432481258 -0.023136408999562260019322579296 0.000639712205156683921813964844 0.002165426034480332894566201318 0 0 0 0 
2411666666.6666665077 0.168248474597930908203125000000 -0.024981375783681869506835937500 0.000559070671442896127700805664 0.002066195476800202889683388818 0 0 0 0 
2411833333.3333334923 0.168320819735527010818643134371 -0.026772886514663699758509451954 0.000720030220691114664077758789 0.002180939540266991095301962744 0 0 0 0 
2412000000.0000000000 0.168342605233192388336505018742 -0.028755974024534228933314139454 0.000825602852273732423782348633 0.002099164295941590829136513818 0 0 0 0 
2412166666.6666665077 0.168395072221756009200888115629 -0.030627425760030749929407889454 0.001001318683847784996032714844 0.002059307647868990898132324219 0 0 0 0 
2412333333.3333334923 0.168764427304267911056356865629 -0.032445054501295089721679687500 0.000936980359256267547607421875 0.002216116758063435988185263525 0 0 0 0 
2412500000.0000000000 0.168614685535430908203125000000 -0.034176141023635857318918596093 0.000981168588623404502868652344 0.001895500463433563926099467700 0 0 0 0 
2412666666.6666665077 0.169206216931343106368856865629 -0.036384951323270797729492187500 0.001207902678288518948795937646 0.001910646795295179107068705981 0 0 0 0 
2412833333.3333334923 0.169445544481277493575888115629 -0.038033250719308853149414062500 0.001321790390647948005078959888 0.002097888616845012144801474463 0 0 0 0 
2413000000.0000000000 0.169732451438903808593750000000 -0.039808116853237152099609375000 0.001426412723958492062212299878 0.002044438151642680168151855469 0 0 0 0 
2413166666.6666665077 0.170171722769737188141192518742 -0.041466645896434776996652971093 0.001377827255055307908299111475 0.001984437461942433877232216943 0 0 0 0 
2413333333.3333334923 0.170584201812744112869424384371 -0.043098419904708862304687500000 0.001584893674589693979976035010 0.001808153698220849037170410156 0 0 0 0 
2413500000.0000000000 0.171241000294685391525106865629 -0.044838301837444312358815778907 0.001576122362166642925859760815 0.001851517008617519898655556787 0 0 0 0 
2413666666.6666665077 0.171645373106002807617187500000 -0.046347569674253456806223283593 0.001594463712535798983332968604 0.001531084068119525909423828125 0 0 0 0 
2413833333.3333334923 0.172130241990089388748330634371 -0.047766454517841339111328125000 0.001769076799973845915553427588 0.001750506344251335100886679541 0 0 0 0 
2414000000.0000000000 0.172574058175087002853231865629 -0.049152746796607971191406250000 0.001826502033509314060211181641 0.001563544268719851970672607422 0 0 0 0 
2414166666.6666665077 0.173196971416473388671875000000 -0.050464682281017303466796875000 0.001750199007801711992976523291 0.001762285595759748978855752100 0 0 0 0 
2414333333.3333334923 0.173816159367561312576455634371 -0.051622483879327767108957658593 0.001839650329202413992640829932 0.001502738799899816946742392432 0 0 0 0 
2414500000.0000000000 0.174383193254470797439736884371 -0.052727069705724723125417341407 0.002030913950875401930568076025 0.001321861287578939957859658350 0 0 0 0 
2414666666.6666665077 0.174845650792121887207031250000 -0.053763512521982192993164062500 0.002086892491206527189967490088 0.001336921704933047077776264722 0 0 0 0 
2414833333.3333334923 0.175261914730071993728799384371 -0.054834160953760147094726562500 0.002036355901509522958042763818 0.001213270239531994082807231372 0 0 0 0 
2415000000.0000000000 0.175592243671417208572549384371 -0.055567860603332519531250000000 0.002182088792324066162109375000 0.001033303327858448028564453125 0 0 0 0 
2415166666.6666665077 0.176082134246826199630575615629 -0.056349378079175949096679687500 0.002104357350617647171020507812 0.001041487324982881979701376807 0 0 0 0 
2415333333.3333334923 0.176482424139976501464843750000 -0.057190813124179840087890625000 0.002128809457644820213317871094 0.000746695906855165958404541016 0 0 0 0 
2415500000.0000000000 0.176820680499076787750567518742 -0.057790707796812057495117187500 0.002227336633950471878051757812 0.000907996029127389192581176758 0 0 0 0 
2415666666.6666665077 0.177020534873008700271768134371 -0.058272205293178558349609375000 0.002146847080439329147338867188 0.000645467487629503011703491211 0 0 0 0 
2415833333.3333334923 0.177295610308647211272869981258 -0.058784686028957366943359375000 0.002230321522802114920375204932 0.000554547645151615142822265625 0 0 0 0 
2416000000.0000000000 0.177171051502227810958700615629 -0.059294298291206359863281250000 0.002236765576526523070094443213 0.000504413037560880184173583984 0 0 0 0 
2416166666.6666665077 0.177498325705528287032919365629 -0.059491444379091262817382812500 0.002235226565971970991847372900 0.000311848620185628479153233661 0 0 0 0 
2416333333.3333334923 0.177312329411506708343182481258 -0.059921212494373321533203125000 0.002181588439270853996276855469 0.000086507097876165062189102173 0 0 0 0 
2416500000.0000000000 0.177215844392776489257812500000 -0.060283340513706207275390625000 0.002197617432102560997009277344 0.000031917697924654930830001831 0 0 0 0 
2416666666.6666665077 0.176913037896156311035156250000 -0.060455877333879470825195312500 0.002243592636659740967991494287 -0.000060815676988568156957626343 0 0 0 0 
2416833333.3333334923 0.176701903343200711349325615629 -0.060843840241432189941406250000 0.002092881593853234811070107568 -0.000208788173040375113487243652 0 0 0 0 
2417000000.0000000000 0.176157161593437194824218750000 -0.061102233827114112163503278907 0.002012254903092979951145791162 -0.000131373308249749189049321307 0 0 0 0 
2417166666.6666665077 0.175757274031639099121093750000 -0.061267171055078513408620466407 0.001877259812317789034602499854 -0.000238163949688896509722033090 0 0 0 0 
2417333333.3333334923 0.175186291337013189117755018742 -0.061551224440336227416992187500 0.001868129475042223930358886719 -0.000445514393504709005355834961 0 0 0 0 
2417500000.0000000000 0.174628794193267794510049384371 -0.061902314424514770507812500000 0.001881868578493594906450581128 -0.000390048546250909621089381085 0 0 0 0 
2417666666.6666665077 0.174049586057662991622763115629 -0.062122486531734466552734375000 0.001772828167304397063014365088 -0.000416622555349022204249781476 0 0 0 0 
2417833333.3333334923 0.173274546861648587325888115629 -0.062360096722841262817382812500 0.001657376880757511095759726416 -0.000411666289437562173039036884 0 0 0 0 
2418000000.0000000000 0.172196999192237909515057481258 -0.062799856066703796386718750000 0.001568339415825902981999062646 -0.000371368310879916006892603741 0 0 0 0 
2418166666.6666665077 0.171232089400291387359942518742 -0.063096806406974792480468750000 0.001660862122662365002873086084 -0.000531585421413183212280273438 0 0 0 0 
2418333333.3333334923 0.170542150735855102539062500000 -0.063606284558773040771484375000 0.001533768721856177070020366138 -0.000520273169968277215957641602 0 0 0 0 
2418500000.0000000000 0.169307976961135892013388115629 -0.064008362591266632080078125000 0.001502003520727158026454306494 -0.000534986495040357112884521484 0 0 0 0 
2418666666.6666665077 0.168503805994987487792968750000 -0.064527660608291625976562500000 0.001293726032599807002423930591 -0.000597914855461567640304565430 0 0 0 0 
2418833333.3333334923 0.167159765958786010742187500000 -0.065039269626140594482421875000 0.001280540251173079013824462891 -0.000490698555950075387954711914 0 0 0 0 
2419000000.0000000000 0.165905907750129699707031250000 -0.065724402666091918945312500000 0.001397385029122232957127236475 -0.000510330777615308761596679688 0 0 0 0 
2419166666.6666665077 0.164631739258766202071981865629 -0.066375479102134704589843750000 0.001275221817195415930507040869 -0.000532699225004762411117553711 0 0 0 0 
2419333333.3333334923 0.163503304123878506759481865629 -0.067196413874626159667968750000 0.001206332468427717902539897388 -0.000619720201939344406127929688 0 0 0 0 
2419500000.0000000000 0.162387892603874206542968750000 -0.068144716322422027587890625000 0.001203661668114363930345844800 -0.000488617049995809793472290039 0 0 0 0 
2419666666.6666665077 0.161314740777015713790731865629 -0.068945027887821197509765625000 0.001131519326008856079698872144 -0.000384956336347386186749058856 0 0 0 0 
2419833333.3333334923 0.160039618611335809905682481258 -0.069817177951335906982421875000 0.001197190373204648928401327979 -0.000520466535817831754684448242 0 0 0 0 
2420000000.0000000000 0.159031629562377901931924384371 -0.070880092680454254150390625000 0.001215768745169043974635458838 -0.000543562287930399179458618164 0 0 0 0 
