# Version 1.00
#
freq[Hz];re:Trc1_S11;im:Trc1_S11;re:Trc2_S21;im:Trc2_S21;
2.400000000000000E+009;1.676352322101593E-001;4.101844504475594E-002;1.481089158914983E-003;-1.213786075823009E-003;
2.400166666666667E+009;1.684556603431702E-001;4.040393605828285E-002;1.488639856688678E-003;-1.268218737095594E-003;
2.400333333333334E+009;1.689235419034958E-001;3.945590555667877E-002;1.341981580480933E-003;-1.229208195582032E-003;
2.400500000000000E+009;1.691572666168213E-001;3.840039297938347E-002;1.380885601975024E-003;-1.269812113605440E-003;
2.400666666666667E+009;1.696007698774338E-001;3.733554854989052E-002;1.263913000002503E-003;-1.062853378243744E-003;
2.400833333333334E+009;1.702309697866440E-001;3.670540824532509E-002;1.338787260465324E-003;-1.011109678074718E-003;
2.401000000000000E+009;1.702221781015396E-001;3.586587682366371E-002;1.360127818770707E-003;-1.022245618514717E-003;
2.401166666666667E+009;1.706987172365189E-001;3.478033095598221E-002;1.282729092054069E-003;-9.401068091392517E-004;
2.401333333333334E+009;1.708762496709824E-001;3.398893401026726E-002;1.402403693646193E-003;-8.442445541732013E-004;
2.401500000000000E+009;1.711985915899277E-001;3.306089341640472E-002;1.547329826280475E-003;-8.678370504640043E-004;
2.401666666666667E+009;1.711875200271606E-001;3.234997391700745E-002;1.502466388046742E-003;-9.579835459589958E-004;
2.401833333333334E+009;1.711621582508087E-001;3.136141225695610E-002;1.746447873301804E-003;-1.044226810336113E-003;
2.402000000000000E+009;1.712391823530197E-001;3.054323978722096E-002;1.815049792639911E-003;-1.008243765681982E-003;
2.402166666666667E+009;1.711774617433548E-001;2.951200492680073E-002;1.941027469001710E-003;-1.102264970541000E-003;
2.402333333333334E+009;1.712919026613236E-001;2.873674035072327E-002;2.265224466100335E-003;-1.232630922459066E-003;
2.402500000000000E+009;1.713465899229050E-001;2.766667120158672E-002;2.298524370416999E-003;-1.466009183786809E-003;
2.402666666666667E+009;1.713695079088211E-001;2.673619240522385E-002;2.235754625871778E-003;-1.571002183482051E-003;
2.402833333333334E+009;1.713554412126541E-001;2.570565789937973E-002;2.225853735581040E-003;-1.649432815611363E-003;
2.403000000000000E+009;1.712013781070709E-001;2.474139817059040E-002;2.253080951049924E-003;-1.959565095603466E-003;
2.403166666666667E+009;1.712897419929504E-001;2.359599992632866E-002;2.263529459014535E-003;-2.154633169993758E-003;
2.403333333333334E+009;1.713265627622604E-001;2.250935509800911E-002;2.376992255449295E-003;-2.510225633159280E-003;
2.403500000000000E+009;1.709935814142227E-001;2.145291492342949E-002;2.183328149840236E-003;-2.741350093856454E-003;
2.403666666666667E+009;1.709993481636047E-001;2.013770677149296E-002;1.962873619049788E-003;-2.992860972881317E-003;
2.403833333333334E+009;1.709437817335129E-001;1.888034492731094E-002;1.863198471255601E-003;-3.142072120681405E-003;
2.404000000000000E+009;1.708478629589081E-001;1.763884723186493E-002;1.823495957069099E-003;-3.411440178751946E-003;
2.404166666666667E+009;1.707295775413513E-001;1.625924371182919E-002;1.561610610224307E-003;-3.383629489690065E-003;
2.404333333333334E+009;1.706482917070389E-001;1.511580217629671E-002;1.293907174840570E-003;-3.758360864594579E-003;
2.404500000000000E+009;1.704938560724258E-001;1.352755073457956E-002;1.268492778763175E-003;-3.918312024325132E-003;
2.404666666666667E+009;1.705523431301117E-001;1.243587397038937E-002;7.378855952993035E-004;-3.917336463928223E-003;
2.404833333333334E+009;1.705027222633362E-001;1.084444299340248E-002;6.015182007104158E-004;-3.966792952269316E-003;
2.405000000000000E+009;1.705754846334457E-001;9.425192140042782E-003;3.029553627129644E-004;-4.093984607607126E-003;
2.405166666666667E+009;1.705337911844254E-001;7.882463745772839E-003;-1.099737419281155E-004;-4.067914560437203E-003;
2.405333333333334E+009;1.705713868141174E-001;6.223531439900398E-003;-2.762677031569183E-004;-4.143989644944668E-003;
2.405500000000000E+009;1.704898774623871E-001;4.744872450828552E-003;-6.786740850657225E-004;-3.993546590209007E-003;
2.405666666666667E+009;1.704074442386627E-001;3.171270946040750E-003;-9.241421357728541E-004;-3.870829241350293E-003;
2.405833333333334E+009;1.703456491231918E-001;1.865080674178898E-003;-1.056007225997746E-003;-3.870459506288171E-003;
2.406000000000000E+009;1.702513396739960E-001;-1.076778862625361E-004;-1.325009390711784E-003;-3.741906955838203E-003;
2.406166666666667E+009;1.699905097484589E-001;-1.519563607871532E-003;-1.499715610407293E-003;-3.494829870760441E-003;
2.406333333333334E+009;1.699738204479218E-001;-3.131124423816800E-003;-1.665904186666012E-003;-3.200450912117958E-003;
2.406500000000000E+009;1.699683517217636E-001;-4.789683036506176E-003;-2.062395447865129E-003;-3.074794774875045E-003;
2.406666666666667E+009;1.695670485496521E-001;-6.122820079326630E-003;-1.883944380097091E-003;-2.992181805893779E-003;
2.406833333333334E+009;1.694805175065994E-001;-7.824130356311798E-003;-2.081609331071377E-003;-2.815906889736652E-003;
2.407000000000000E+009;1.694405674934387E-001;-9.347099810838699E-003;-2.168454229831696E-003;-2.687030471861363E-003;
2.407166666666667E+009;1.693180352449417E-001;-1.055529154837132E-002;-2.238760702311993E-003;-2.361516701057553E-003;
2.407333333333334E+009;1.690353155136108E-001;-1.197275705635548E-002;-2.326095243915916E-003;-2.381253056228161E-003;
2.407500000000000E+009;1.688048541545868E-001;-1.332199107855558E-002;-2.290372736752033E-003;-2.036598976701498E-003;
2.407666666666667E+009;1.686611324548721E-001;-1.450355444103479E-002;-2.201798139140010E-003;-1.898353919386864E-003;
2.407833333333334E+009;1.684424430131912E-001;-1.566771790385246E-002;-2.130212960764766E-003;-1.834975089877844E-003;
2.408000000000000E+009;1.683943867683411E-001;-1.684506982564926E-002;-2.225787844508886E-003;-1.493701827712357E-003;
2.408166666666667E+009;1.682278215885162E-001;-1.769897900521755E-002;-2.066249493509531E-003;-1.434758189134300E-003;
2.408333333333334E+009;1.685121804475784E-001;-1.868943311274052E-002;-1.958043314516544E-003;-1.276571885682643E-003;
2.408500000000000E+009;1.682828366756439E-001;-1.974089443683624E-002;-2.012460492551327E-003;-1.312082982622087E-003;
2.408666666666667E+009;1.684875339269638E-001;-2.061065658926964E-002;-1.977603882551193E-003;-1.245014485903084E-003;
2.408833333333334E+009;1.683771908283234E-001;-2.153038419783115E-002;-1.825208193622530E-003;-1.185427769087255E-003;
2.409000000000000E+009;1.684249937534332E-001;-2.231837436556816E-002;-1.865036669187248E-003;-1.165405847132206E-003;
2.409166666666667E+009;1.685508489608765E-001;-2.332836389541626E-002;-1.917597139254212E-003;-1.082022557966411E-003;
2.409333333333334E+009;1.688930839300156E-001;-2.419919893145561E-002;-1.718008890748024E-003;-1.083570532500744E-003;
2.409500000000000E+009;1.689277440309525E-001;-2.517637610435486E-002;-1.709509990178049E-003;-1.077720196917653E-003;
2.409666666666667E+009;1.688660085201263E-001;-2.594089880585671E-002;-1.785830128937960E-003;-1.010393374599516E-003;
2.409833333333334E+009;1.690828800201416E-001;-2.683725766837597E-002;-1.649250276386738E-003;-1.127823488786817E-003;
2.410000000000000E+009;1.691027134656906E-001;-2.773075550794601E-002;-1.644389820285142E-003;-1.206616521812975E-003;
2.410166666666667E+009;1.692676544189453E-001;-2.867126092314720E-002;-1.802829559892416E-003;-1.187456422485411E-003;
2.410333333333334E+009;1.692859232425690E-001;-2.949968352913857E-002;-1.916926470585167E-003;-1.175301964394748E-003;
2.410500000000000E+009;1.692687124013901E-001;-3.040850721299648E-002;-1.972418045625091E-003;-1.205395441502333E-003;
2.410666666666667E+009;1.690999269485474E-001;-3.152995184063911E-002;-1.864373800344765E-003;-1.035998458974063E-003;
2.410833333333334E+009;1.690998375415802E-001;-3.211824595928192E-002;-2.095581265166402E-003;-9.997232118621469E-004;
2.411000000000000E+009;1.689116805791855E-001;-3.303959220647812E-002;-2.000880427658558E-003;-1.126716379076242E-003;
2.411166666666667E+009;1.687970012426376E-001;-3.407080844044685E-002;-2.059925580397248E-003;-9.154932340607047E-004;
2.411333333333334E+009;1.687784790992737E-001;-3.478123992681503E-002;-2.153741195797920E-003;-8.469352032989264E-004;
2.411500000000000E+009;1.684738248586655E-001;-3.598527982831001E-002;-2.182620344683528E-003;-7.053336012177169E-004;
2.411666666666667E+009;1.684849113225937E-001;-3.659857437014580E-002;-2.138117561116815E-003;-6.373966461978853E-004;
2.411833333333334E+009;1.681408286094666E-001;-3.756850212812424E-002;-2.120064105838537E-003;-6.844567251391709E-004;
2.412000000000000E+009;1.678804159164429E-001;-3.841051086783409E-002;-2.000787295401096E-003;-6.647097179666162E-004;
2.412166666666667E+009;1.676101088523865E-001;-3.943801298737526E-002;-2.045101951807737E-003;-6.419041892513633E-004;
2.412333333333334E+009;1.673688143491745E-001;-4.023107141256332E-002;-1.863113488070667E-003;-6.375504308380187E-004;
2.412500000000000E+009;1.670937687158585E-001;-4.109038040041924E-002;-2.034199424088001E-003;-7.774804253131151E-004;
2.412666666666667E+009;1.666270792484283E-001;-4.216264188289642E-002;-1.939563429914415E-003;-7.591226021759212E-004;
2.412833333333334E+009;1.664345413446426E-001;-4.346114397048950E-002;-2.137248171493411E-003;-7.467331597581506E-004;
2.413000000000000E+009;1.657233834266663E-001;-4.415938258171082E-002;-1.964627066627145E-003;-8.791150175966322E-004;
2.413166666666667E+009;1.653654873371124E-001;-4.516242444515228E-002;-2.310549840331078E-003;-9.851822396740317E-004;
2.413333333333334E+009;1.649574786424637E-001;-4.620428755879402E-002;-2.277796622365713E-003;-8.523779688403010E-004;
2.413500000000000E+009;1.646453738212585E-001;-4.731915891170502E-002;-2.447102451696992E-003;-8.214018307626247E-004;
2.413666666666667E+009;1.640538424253464E-001;-4.830976203083992E-002;-2.581782406195998E-003;-9.787462186068296E-004;
2.413833333333334E+009;1.637495160102844E-001;-4.938544705510140E-002;-2.747686346992850E-003;-8.310487610287964E-004;
2.414000000000000E+009;1.631849557161331E-001;-5.035863816738129E-002;-2.991664921864867E-003;-7.773007964715362E-004;
2.414166666666667E+009;1.628568619489670E-001;-5.124323442578316E-002;-3.221972845494747E-003;-4.195075307507068E-004;
2.414333333333334E+009;1.624249666929245E-001;-5.232481285929680E-002;-3.360099159181118E-003;-4.782222385983914E-004;
2.414500000000000E+009;1.621698886156082E-001;-5.321618914604187E-002;-3.478013444691896E-003;-1.509069697931409E-004;
2.414666666666667E+009;1.617629230022430E-001;-5.416089296340942E-002;-3.489252179861069E-003;-2.673195740499068E-005;
2.414833333333334E+009;1.613018363714218E-001;-5.539214611053467E-002;-3.528268774971366E-003;2.874766068998724E-004;
2.415000000000000E+009;1.610960066318512E-001;-5.622511729598045E-002;-3.494785167276859E-003;5.850924062542617E-004;
2.415166666666667E+009;1.609314233064652E-001;-5.734022334218025E-002;-3.723910078406334E-003;8.025846327655017E-004;
2.415333333333334E+009;1.607896387577057E-001;-5.852875113487244E-002;-3.624757751822472E-003;9.746999130584300E-004;
2.415500000000000E+009;1.605985164642334E-001;-5.965047329664230E-002;-3.597357776015997E-003;1.259895972907543E-003;
2.415666666666667E+009;1.604123413562775E-001;-6.075851619243622E-002;-3.494822187349200E-003;1.545189647004008E-003;
2.415833333333334E+009;1.603407859802246E-001;-6.197107583284378E-002;-3.389246296137571E-003;1.743199303746223E-003;
2.416000000000000E+009;1.599578261375427E-001;-6.331679970026016E-002;-3.099456429481506E-003;1.970660872757435E-003;
2.416166666666667E+009;1.600238531827927E-001;-6.441297382116318E-002;-2.994581125676632E-003;2.179160481318831E-003;
2.416333333333334E+009;1.597102582454681E-001;-6.565510481595993E-002;-2.847096184268594E-003;2.446604659780860E-003;
2.416500000000000E+009;1.594095528125763E-001;-6.693854182958603E-002;-2.554557751864195E-003;2.472137799486518E-003;
2.416666666666667E+009;1.591315269470215E-001;-6.808464974164963E-002;-2.362612867727876E-003;2.562295412644744E-003;
2.416833333333334E+009;1.588672846555710E-001;-6.930022686719894E-002;-2.131156157702208E-003;2.526471158489585E-003;
2.417000000000000E+009;1.584258377552033E-001;-7.047500461339951E-002;-1.891958527266979E-003;2.566777402535081E-003;
2.417166666666667E+009;1.580851972103119E-001;-7.142588496208191E-002;-1.814841874875128E-003;2.719459123909473E-003;
2.417333333333334E+009;1.578223556280136E-001;-7.241822779178619E-002;-1.578778726980090E-003;2.500669099390507E-003;
2.417500000000000E+009;1.574363261461258E-001;-7.354309409856796E-002;-1.449904753826559E-003;2.522982191294432E-003;
2.417666666666667E+009;1.572009474039078E-001;-7.436693459749222E-002;-1.327801262959838E-003;2.374447882175446E-003;
2.417833333333334E+009;1.569635123014450E-001;-7.533158361911774E-002;-1.194896060042083E-003;2.434466499835253E-003;
2.418000000000000E+009;1.565025299787521E-001;-7.623137533664703E-002;-1.082252128981054E-003;2.458940027281642E-003;
2.418166666666667E+009;1.562706977128983E-001;-7.676930725574493E-002;-1.110819866880775E-003;2.334567252546549E-003;
2.418333333333334E+009;1.562411636114121E-001;-7.785214483737946E-002;-1.056132721714675E-003;2.205438911914825E-003;
2.418500000000000E+009;1.558253616094589E-001;-7.860526442527771E-002;-1.043177209794521E-003;2.258125692605972E-003;
2.418666666666667E+009;1.556550115346909E-001;-7.938220351934433E-002;-8.359255152754486E-004;2.301398664712906E-003;
2.418833333333334E+009;1.552925407886505E-001;-8.028834313154221E-002;-9.502653847448528E-004;2.199565293267369E-003;
2.419000000000000E+009;1.548116058111191E-001;-8.085899800062180E-002;-9.485377813689411E-004;2.168182749301195E-003;
2.419166666666667E+009;1.546145230531693E-001;-8.158616721630096E-002;-8.248717058449984E-004;2.161661395803094E-003;
2.419333333333334E+009;1.540632545948029E-001;-8.202077448368073E-002;-9.371741325594485E-004;2.055991208180785E-003;
2.419500000000000E+009;1.539667546749115E-001;-8.304037153720856E-002;-8.016030769795179E-004;2.334271091967821E-003;
2.419666666666667E+009;1.537961661815643E-001;-8.351517468690872E-002;-7.361279567703605E-004;2.353551099076867E-003;
2.419833333333334E+009;1.532777398824692E-001;-8.410198241472244E-002;-6.623635999858379E-004;2.310338430106640E-003;
2.420000000000000E+009;1.529711931943893E-001;-8.459160476922989E-002;-6.225955439731479E-004;2.270375378429890E-003;
2.420166666666667E+009;1.527036875486374E-001;-8.508950471878052E-002;-5.231014802120626E-004;2.325806766748428E-003;
2.420333333333334E+009;1.522696167230606E-001;-8.587888628244400E-002;-4.552670579869300E-004;2.434735186398029E-003;
2.420500000000000E+009;1.518929898738861E-001;-8.632571250200272E-002;-3.528282686602324E-004;2.315825549885631E-003;
2.420666666666667E+009;1.516363620758057E-001;-8.679780364036560E-002;-3.481773601379246E-004;2.204945776611567E-003;
2.420833333333334E+009;1.512231975793839E-001;-8.758054673671722E-002;-2.668206871021539E-004;2.312236465513706E-003;
2.421000000000000E+009;1.507089734077454E-001;-8.829789608716965E-002;-4.474078887142241E-004;2.277579391375184E-003;
2.421166666666667E+009;1.504339575767517E-001;-8.883672207593918E-002;-3.387241740711033E-004;2.131043700501323E-003;
2.421333333333334E+009;1.500690430402756E-001;-8.958756923675537E-002;-1.452906872145832E-004;2.290538512170315E-003;
2.421500000000000E+009;1.494584381580353E-001;-9.032142907381058E-002;-2.635949640534818E-004;2.405872568488121E-003;
2.421666666666667E+009;1.488848775625229E-001;-9.089545905590057E-002;-2.462198026478291E-004;2.369997324422002E-003;
2.421833333333334E+009;1.482939273118973E-001;-9.155607223510742E-002;-1.967271819012240E-004;2.443433273583651E-003;
2.422000000000000E+009;1.477400064468384E-001;-9.240585565567017E-002;-6.023913010722026E-005;2.354716416448355E-003;
2.422166666666667E+009;1.471193879842758E-001;-9.319730848073959E-002;-1.546851854072884E-004;2.363917184993625E-003;
2.422333333333334E+009;1.466460973024368E-001;-9.380649030208588E-002;1.573464578541461E-005;2.220241352915764E-003;
2.422500000000000E+009;1.457078903913498E-001;-9.444019943475723E-002;-1.572520122863352E-004;2.450074069201946E-003;
2.422666666666667E+009;1.452139317989349E-001;-9.537730365991592E-002;2.781441617116798E-005;2.408091677352786E-003;
2.422833333333334E+009;1.446057707071304E-001;-9.631834924221039E-002;8.543072908651084E-005;2.584859263151884E-003;
2.423000000000000E+009;1.440933793783188E-001;-9.709061682224274E-002;1.967144780792296E-004;2.503639552742243E-003;
2.423166666666667E+009;1.433773636817932E-001;-9.793124347925186E-002;2.509908226784319E-004;2.700798213481903E-003;
2.423333333333334E+009;1.427889466285706E-001;-9.870389848947525E-002;3.463754546828568E-004;2.767200581729412E-003;
2.423500000000000E+009;1.420689523220062E-001;-9.968524426221848E-002;5.529047339223325E-004;2.779588336125016E-003;
2.423666666666667E+009;1.412586718797684E-001;-1.006878316402435E-001;5.697077722288668E-004;2.667985623702407E-003;
2.423833333333334E+009;1.407402157783508E-001;-1.014183908700943E-001;9.196971659548581E-004;2.695501083508134E-003;
2.424000000000000E+009;1.400180459022522E-001;-1.023707389831543E-001;8.555597160011530E-004;2.776737557724118E-003;
2.424166666666667E+009;1.392085701227188E-001;-1.033129468560219E-001;1.018694136291742E-003;2.708907704800367E-003;
2.424333333333334E+009;1.386717706918716E-001;-1.043277159333229E-001;1.085782889276743E-003;2.583464141935110E-003;
2.424500000000000E+009;1.381371319293976E-001;-1.052948161959648E-001;1.303386408835650E-003;2.595719415694475E-003;
2.424666666666667E+009;1.375506818294525E-001;-1.060396209359169E-001;1.456863246858120E-003;2.413625363260508E-003;
2.424833333333334E+009;1.366616785526276E-001;-1.070600971579552E-001;1.509925117716193E-003;2.509081503376365E-003;
2.425000000000000E+009;1.362801194190979E-001;-1.081225797533989E-001;1.691056764684618E-003;2.162100048735738E-003;
2.425166666666667E+009;1.355426162481308E-001;-1.089876219630241E-001;1.752151991240680E-003;1.962404930964112E-003;
2.425333333333334E+009;1.351471692323685E-001;-1.099406182765961E-001;1.804109546355903E-003;2.104602754116058E-003;
2.425500000000000E+009;1.346415728330612E-001;-1.109943836927414E-001;1.791759044863284E-003;1.961854519322515E-003;
2.425666666666667E+009;1.339731216430664E-001;-1.119751781225205E-001;1.709607313387096E-003;1.873463392257690E-003;
2.425833333333334E+009;1.335530281066895E-001;-1.129804700613022E-001;1.700390363112092E-003;1.757793128490448E-003;
2.426000000000000E+009;1.329765021800995E-001;-1.141200065612793E-001;1.983141060918570E-003;1.803075429052115E-003;
2.426166666666667E+009;1.328338831663132E-001;-1.148742586374283E-001;1.870492123998702E-003;1.588528277352452E-003;
2.426333333333334E+009;1.322136819362640E-001;-1.158113330602646E-001;1.952568185515702E-003;1.652191742323339E-003;
2.426500000000000E+009;1.317474246025085E-001;-1.166386529803276E-001;1.779340556822717E-003;1.784622785635293E-003;
2.426666666666667E+009;1.315444409847260E-001;-1.174820289015770E-001;2.006397582590580E-003;1.616374240256846E-003;
2.426833333333334E+009;1.309991925954819E-001;-1.183324754238129E-001;1.908051664941013E-003;1.469316426664591E-003;
2.427000000000000E+009;1.306505352258682E-001;-1.192292422056198E-001;1.951113692484796E-003;1.493330695666373E-003;
2.427166666666667E+009;1.301973611116409E-001;-1.199611797928810E-001;2.049150411039591E-003;1.375100924633443E-003;
2.427333333333334E+009;1.297732889652252E-001;-1.206459477543831E-001;1.954029779881239E-003;1.349457888863981E-003;
2.427500000000000E+009;1.296555995941162E-001;-1.213907450437546E-001;1.853815279901028E-003;1.504294225014746E-003;
2.427666666666667E+009;1.292732954025269E-001;-1.221778988838196E-001;2.055345801636577E-003;1.197732053697109E-003;
