# Version 1.00
#
freq[Hz];re:Trc1_S11;im:Trc1_S11;re:Trc2_S21;im:Trc2_S21;
2.400000000000000E+009;1.733782440423966E-001;4.948456957936287E-002;8.246328681707382E-003;8.965046727098525E-004;
2.400166666666667E+009;1.739109009504318E-001;4.890844970941544E-002;8.353161625564098E-003;4.880399501416832E-004;
2.400333333333334E+009;1.740853190422058E-001;4.821509122848511E-002;8.391102775931358E-003;4.587308922054945E-006;
2.400500000000000E+009;1.746662259101868E-001;4.756868630647659E-002;8.424418978393078E-003;-4.018016625195742E-004;
2.400666666666667E+009;1.747542321681976E-001;4.689254611730576E-002;8.329807780683041E-003;-8.590212091803551E-004;
2.400833333333334E+009;1.750906407833099E-001;4.652424156665802E-002;8.312278427183628E-003;-1.401877496391535E-003;
2.401000000000000E+009;1.751508116722107E-001;4.578746855258942E-002;8.320411667227745E-003;-1.758650294505060E-003;
2.401166666666667E+009;1.755284667015076E-001;4.492456838488579E-002;8.049485273659229E-003;-2.186000812798739E-003;
2.401333333333334E+009;1.752855777740479E-001;4.442125186324120E-002;8.028898388147354E-003;-2.413101494312286E-003;
2.401500000000000E+009;1.754336357116699E-001;4.375144094228745E-002;7.694196421653032E-003;-2.824146999046207E-003;
2.401666666666667E+009;1.753241270780563E-001;4.312994331121445E-002;7.632730994373560E-003;-3.366886172443628E-003;
2.401833333333334E+009;1.752425283193588E-001;4.211947694420815E-002;7.375041022896767E-003;-3.699265420436859E-003;
2.402000000000000E+009;1.749515980482101E-001;4.141454398632050E-002;7.027359679341316E-003;-4.140183795243502E-003;
2.402166666666667E+009;1.749654412269592E-001;4.035893827676773E-002;6.859002169221640E-003;-4.443104844540358E-003;
2.402333333333334E+009;1.746540665626526E-001;3.934499248862267E-002;6.442029960453510E-003;-4.730427172034979E-003;
2.402500000000000E+009;1.746661067008972E-001;3.832074254751205E-002;6.218602880835533E-003;-4.885142203420401E-003;
2.402666666666667E+009;1.743869185447693E-001;3.723013028502464E-002;5.866415333002806E-003;-5.154676735401154E-003;
2.402833333333334E+009;1.740192025899887E-001;3.624389693140984E-002;5.546211265027523E-003;-5.346874240785837E-003;
2.403000000000000E+009;1.737909764051437E-001;3.473501652479172E-002;5.020974669605494E-003;-5.704754963517189E-003;
2.403166666666667E+009;1.733091771602631E-001;3.300349786877632E-002;4.814385436475277E-003;-5.509853363037109E-003;
2.403333333333334E+009;1.729728132486343E-001;3.170475736260414E-002;4.314317833632231E-003;-5.641861353069544E-003;
2.403500000000000E+009;1.724434196949005E-001;3.023950569331646E-002;3.906339872628450E-003;-5.737132392823696E-003;
2.403666666666667E+009;1.722273677587509E-001;2.840576507151127E-002;3.506422275677323E-003;-5.930003710091114E-003;
2.403833333333334E+009;1.717056334018707E-001;2.646267600357533E-002;3.114420222118497E-003;-5.856390111148357E-003;
2.404000000000000E+009;1.715578436851502E-001;2.503195963799954E-002;2.812855411320925E-003;-5.574261769652367E-003;
2.404166666666667E+009;1.711734831333160E-001;2.313008531928062E-002;2.493010368198156E-003;-5.729187745600939E-003;
2.404333333333334E+009;1.707303822040558E-001;2.131156250834465E-002;2.269863151013851E-003;-5.533554591238499E-003;
2.404500000000000E+009;1.703910827636719E-001;1.914665661752224E-002;1.998117426410317E-003;-5.512308795005083E-003;
2.404666666666667E+009;1.701440513134003E-001;1.720773242413998E-002;1.821069279685617E-003;-5.430750548839569E-003;
2.404833333333334E+009;1.698301285505295E-001;1.526158489286900E-002;1.519089215435088E-003;-5.210689734667540E-003;
2.405000000000000E+009;1.698047965764999E-001;1.326470635831356E-002;1.481999293901026E-003;-4.985726438462734E-003;
2.405166666666667E+009;1.695424020290375E-001;1.113413553684950E-002;1.400748151354492E-003;-4.864556249231100E-003;
2.405333333333334E+009;1.696697473526001E-001;9.005708619952202E-003;1.207881839945912E-003;-4.890291020274162E-003;
2.405500000000000E+009;1.698091179132462E-001;7.160234730690718E-003;1.073179184459150E-003;-4.799322225153446E-003;
2.405666666666667E+009;1.699032187461853E-001;5.083497613668442E-003;1.052205800078809E-003;-4.527969285845757E-003;
2.405833333333334E+009;1.698604822158814E-001;3.144323825836182E-003;8.622206514701247E-004;-4.391206428408623E-003;
2.406000000000000E+009;1.702264398336411E-001;1.019495073705912E-003;8.420167723670602E-004;-4.358196631073952E-003;
2.406166666666667E+009;1.704942137002945E-001;-8.929649484343827E-004;7.709586643613875E-004;-4.253024701029062E-003;
2.406333333333334E+009;1.712029129266739E-001;-2.914694370701909E-003;7.396246655844152E-004;-4.216961562633514E-003;
2.406500000000000E+009;1.714768111705780E-001;-4.972005262970924E-003;8.180133299902082E-004;-4.313892684876919E-003;
2.406666666666667E+009;1.719761043787003E-001;-6.731275469064713E-003;7.971563609316945E-004;-4.156516864895821E-003;
2.406833333333334E+009;1.726889014244080E-001;-8.732620626688004E-003;6.362583953887224E-004;-4.179908894002438E-003;
2.407000000000000E+009;1.732674539089203E-001;-1.060931570827961E-002;6.537142326124013E-004;-4.284757655113936E-003;
2.407166666666667E+009;1.740463823080063E-001;-1.230992935597897E-002;6.162939826026559E-004;-4.049982875585556E-003;
2.407333333333334E+009;1.746274381875992E-001;-1.417820900678635E-002;5.065867444500327E-004;-4.047276452183723E-003;
2.407500000000000E+009;1.754449009895325E-001;-1.592086814343929E-002;5.071399500593543E-004;-4.318600520491600E-003;
2.407666666666667E+009;1.762905269861221E-001;-1.744485273957253E-002;5.898892995901406E-004;-4.277219530194998E-003;
2.407833333333334E+009;1.768389344215393E-001;-1.920147985219955E-002;4.571300523821265E-004;-4.321589134633541E-003;
2.408000000000000E+009;1.777392029762268E-001;-2.070807665586472E-002;3.590537235140801E-004;-4.306014627218247E-003;
2.408166666666667E+009;1.783557385206223E-001;-2.194078080356121E-002;3.558624302968383E-004;-4.548321943730116E-003;
2.408333333333334E+009;1.793749928474426E-001;-2.342650108039379E-002;2.526653115637600E-004;-4.641545936465263E-003;
2.408500000000000E+009;1.799483895301819E-001;-2.460823021829128E-002;1.363853662041947E-004;-4.803157877177000E-003;
2.408666666666667E+009;1.806512624025345E-001;-2.596044354140759E-002;-8.055456419242546E-005;-4.921846557408571E-003;
2.408833333333334E+009;1.810646951198578E-001;-2.695472538471222E-002;-2.935870143119246E-004;-4.883605521172285E-003;
2.409000000000000E+009;1.815070062875748E-001;-2.795345336198807E-002;-3.502564213704318E-004;-4.935951437801123E-003;
2.409166666666667E+009;1.821847409009934E-001;-2.883559837937355E-002;-8.644200861454010E-004;-5.046422127634287E-003;
2.409333333333334E+009;1.826537251472473E-001;-2.978135086596012E-002;-9.403850999660790E-004;-5.049530416727066E-003;
2.409500000000000E+009;1.828748285770416E-001;-3.047468140721321E-002;-1.102427602745593E-003;-5.026441533118486E-003;
2.409666666666667E+009;1.832355260848999E-001;-3.114035353064537E-002;-1.283661811612546E-003;-4.831869155168533E-003;
2.409833333333334E+009;1.834150105714798E-001;-3.156300634145737E-002;-1.532814698293805E-003;-4.861290100961924E-003;
2.410000000000000E+009;1.837568432092667E-001;-3.200275450944901E-002;-1.879813964478672E-003;-4.863108508288860E-003;
2.410166666666667E+009;1.837148964405060E-001;-3.240813314914703E-002;-2.054582117125392E-003;-4.713387694209814E-003;
2.410333333333334E+009;1.839392036199570E-001;-3.288906067609787E-002;-2.163650235161185E-003;-4.441812168806791E-003;
2.410500000000000E+009;1.838793754577637E-001;-3.311393782496452E-002;-2.421719720587134E-003;-4.269340541213751E-003;
2.410666666666667E+009;1.837218105792999E-001;-3.364279866218567E-002;-2.594614867120981E-003;-4.233201034367085E-003;
2.410833333333334E+009;1.837884187698364E-001;-3.379236906766892E-002;-2.709585940465331E-003;-3.984625451266766E-003;
2.411000000000000E+009;1.834562569856644E-001;-3.417550399899483E-002;-2.893924247473478E-003;-3.860278520733118E-003;
2.411166666666667E+009;1.830440908670425E-001;-3.442792966961861E-002;-2.963987877592444E-003;-3.638430964201689E-003;
2.411333333333334E+009;1.825552880764008E-001;-3.457289934158325E-002;-3.245470579713583E-003;-3.516965080052614E-003;
2.411500000000000E+009;1.820025593042374E-001;-3.520670533180237E-002;-3.167978487908840E-003;-3.326942445710301E-003;
2.411666666666667E+009;1.816575229167938E-001;-3.552823886275291E-002;-3.286004764959216E-003;-3.071156330406666E-003;
2.411833333333334E+009;1.809111982584000E-001;-3.581887483596802E-002;-3.371539060026407E-003;-2.899726154282689E-003;
2.412000000000000E+009;1.801938116550446E-001;-3.621948882937431E-002;-3.385958028957248E-003;-2.510986756533384E-003;
2.412166666666667E+009;1.791345179080963E-001;-3.699883818626404E-002;-3.355420893058181E-003;-2.354964148253202E-003;
2.412333333333334E+009;1.783905625343323E-001;-3.729435428977013E-002;-3.419804852455854E-003;-2.106999978423119E-003;
2.412500000000000E+009;1.771344542503357E-001;-3.775952383875847E-002;-3.292387817054987E-003;-2.083334838971496E-003;
2.412666666666667E+009;1.759599149227142E-001;-3.868821263313294E-002;-3.258760785683990E-003;-1.919880276545882E-003;
2.412833333333334E+009;1.748689711093903E-001;-3.947244584560394E-002;-3.139938460662961E-003;-1.672409009188414E-003;
2.413000000000000E+009;1.734396368265152E-001;-4.021700099110603E-002;-3.057883353903890E-003;-1.675495645031333E-003;
2.413166666666667E+009;1.723544746637344E-001;-4.106029495596886E-002;-3.016038332134485E-003;-1.472841831855476E-003;
2.413333333333334E+009;1.710051149129868E-001;-4.218644648790360E-002;-2.779609989374876E-003;-1.298519549891353E-003;
2.413500000000000E+009;1.697737574577332E-001;-4.307498410344124E-002;-2.860429929569364E-003;-1.315863453783095E-003;
2.413666666666667E+009;1.684813052415848E-001;-4.423158243298531E-002;-2.750062616541982E-003;-1.137488987296820E-003;
2.413833333333334E+009;1.671330332756043E-001;-4.532252252101898E-002;-2.517714165151119E-003;-1.085862983018160E-003;
2.414000000000000E+009;1.657988876104355E-001;-4.659361392259598E-002;-2.327202353626490E-003;-1.102834474295378E-003;
2.414166666666667E+009;1.645619273185730E-001;-4.788580536842346E-002;-2.358868485316634E-003;-1.099253655411303E-003;
2.414333333333334E+009;1.634382307529450E-001;-4.923506453633308E-002;-2.203443087637425E-003;-8.550591883249581E-004;
2.414500000000000E+009;1.624308377504349E-001;-5.074204504489899E-002;-2.320245839655399E-003;-1.203107298351824E-003;
2.414666666666667E+009;1.612454801797867E-001;-5.232596769928932E-002;-2.216657390818000E-003;-9.927250212058425E-004;
2.414833333333334E+009;1.600258797407150E-001;-5.397153273224831E-002;-2.049825852736831E-003;-1.028361497446895E-003;
2.415000000000000E+009;1.590448021888733E-001;-5.566394701600075E-002;-1.946946606040001E-003;-1.110478420741856E-003;
2.415166666666667E+009;1.581101566553116E-001;-5.752050131559372E-002;-1.886732410639525E-003;-1.257623196579516E-003;
2.415333333333334E+009;1.572576761245728E-001;-5.921485275030136E-002;-1.971577294170857E-003;-1.318424241617322E-003;
2.415500000000000E+009;1.566382497549057E-001;-6.118631362915039E-002;-1.925296382978559E-003;-1.342535833828151E-003;
2.415666666666667E+009;1.557567566633225E-001;-6.284158676862717E-002;-2.029819414019585E-003;-1.439184416085482E-003;
2.415833333333334E+009;1.551755964756012E-001;-6.487882882356644E-002;-1.901236129924655E-003;-1.638573710806668E-003;
2.416000000000000E+009;1.544794440269470E-001;-6.683520227670670E-002;-1.967314165085554E-003;-1.646653166972101E-003;
2.416166666666667E+009;1.541357934474945E-001;-6.887932866811752E-002;-1.971177058294416E-003;-1.646030577830970E-003;
2.416333333333334E+009;1.537426561117172E-001;-7.076779007911682E-002;-2.003394765779376E-003;-1.618969952687621E-003;
2.416500000000000E+009;1.533149480819702E-001;-7.277659326791763E-002;-2.130616921931505E-003;-1.766498200595379E-003;
2.416666666666667E+009;1.530428528785706E-001;-7.467678934335709E-002;-2.191131934523583E-003;-1.898818067274988E-003;
2.416833333333334E+009;1.528508514165878E-001;-7.680470496416092E-002;-2.468292135745287E-003;-1.853351015597582E-003;
2.417000000000000E+009;1.524852961301804E-001;-7.863309979438782E-002;-2.393936738371849E-003;-1.697266241535544E-003;
2.417166666666667E+009;1.524310410022736E-001;-8.025467395782471E-002;-2.426840132102370E-003;-1.743410830385983E-003;
2.417333333333334E+009;1.524846255779266E-001;-8.198043704032898E-002;-2.474386943504214E-003;-1.759604434482753E-003;
2.417500000000000E+009;1.523964256048203E-001;-8.403698354959488E-002;-2.659066813066602E-003;-1.814800780266523E-003;
2.417666666666667E+009;1.525444686412811E-001;-8.534689992666245E-002;-2.759067108854652E-003;-1.772710820659995E-003;
2.417833333333334E+009;1.525387018918991E-001;-8.692298084497452E-002;-2.790050348266959E-003;-1.721299253404141E-003;
2.418000000000000E+009;1.526144444942474E-001;-8.852705359458923E-002;-2.989891450852156E-003;-1.866201870143414E-003;
2.418166666666667E+009;1.527700573205948E-001;-8.972278982400894E-002;-3.025537822395563E-003;-1.805120031349361E-003;
2.418333333333334E+009;1.532259434461594E-001;-9.097754210233688E-002;-3.138625528663397E-003;-1.564105739817023E-003;
2.418500000000000E+009;1.532634794712067E-001;-9.220849722623825E-002;-3.228114452213049E-003;-1.858306117355824E-003;
2.418666666666667E+009;1.535023152828217E-001;-9.332083910703659E-002;-3.268165513873100E-003;-1.777060795575380E-003;
2.418833333333334E+009;1.536215841770172E-001;-9.421409666538239E-002;-3.502258798107505E-003;-1.726968330331147E-003;
2.419000000000000E+009;1.536731868982315E-001;-9.494990855455399E-002;-3.761405590921640E-003;-1.685799332335591E-003;
2.419166666666667E+009;1.539661288261414E-001;-9.574142843484879E-002;-3.780292114242911E-003;-1.553365029394627E-003;
2.419333333333334E+009;1.540777534246445E-001;-9.599544107913971E-002;-3.967256285250187E-003;-1.615906250663102E-003;
2.419500000000000E+009;1.542195230722427E-001;-9.685476124286652E-002;-4.220325499773026E-003;-1.498548430390656E-003;
2.419666666666667E+009;1.546027362346649E-001;-9.706234186887741E-002;-4.478631075471640E-003;-1.288520987145603E-003;
2.419833333333334E+009;1.545333415269852E-001;-9.726291894912720E-002;-4.545794799923897E-003;-1.243481412529945E-003;
2.420000000000000E+009;1.547487229108810E-001;-9.739924967288971E-002;-4.604505375027657E-003;-1.035434077493846E-003;
2.420166666666667E+009;1.547402143478394E-001;-9.747052937746048E-002;-4.798178095370531E-003;-7.715221727266908E-004;
2.420333333333334E+009;1.548074483871460E-001;-9.741559624671936E-002;-4.791532177478075E-003;-6.734295748174191E-004;
2.420500000000000E+009;1.547677814960480E-001;-9.727504849433899E-002;-5.193790886551142E-003;-4.463153018150479E-004;
2.420666666666667E+009;1.545736193656921E-001;-9.700335562229157E-002;-5.119333043694496E-003;-3.041200689040124E-004;
2.420833333333334E+009;1.546223610639572E-001;-9.674838930368424E-002;-5.308750551193953E-003;-2.170966763515025E-005;
2.421000000000000E+009;1.542456448078156E-001;-9.650463610887528E-002;-5.282650236040354E-003;1.379155146423727E-004;
2.421166666666667E+009;1.539361923933029E-001;-9.617636352777481E-002;-5.514306481927633E-003;3.345131699461490E-004;
2.421333333333334E+009;1.536452919244766E-001;-9.596871584653854E-002;-5.523123778402805E-003;6.003442103974521E-004;
2.421500000000000E+009;1.530610024929047E-001;-9.542976319789887E-002;-5.412502214312553E-003;8.076680242083967E-004;
2.421666666666667E+009;1.525225639343262E-001;-9.509826451539993E-002;-5.559508688747883E-003;9.743099799379706E-004;
2.421833333333334E+009;1.519564986228943E-001;-9.475800395011902E-002;-5.662922747433186E-003;1.494575524702668E-003;
2.422000000000000E+009;1.512185633182526E-001;-9.447460621595383E-002;-5.630481056869030E-003;1.506263273768127E-003;
2.422166666666667E+009;1.504976451396942E-001;-9.434263408184052E-002;-5.570151377469301E-003;1.842436962760985E-003;
2.422333333333334E+009;1.494392156600952E-001;-9.410186111927033E-002;-5.562841892242432E-003;2.133377594873309E-003;
2.422500000000000E+009;1.484408527612686E-001;-9.381748735904694E-002;-5.416754633188248E-003;2.449726918712258E-003;
2.422666666666667E+009;1.472916603088379E-001;-9.357331693172455E-002;-5.294317379593849E-003;2.675093710422516E-003;
2.422833333333334E+009;1.462650895118713E-001;-9.347382187843323E-002;-5.184974055737257E-003;2.869918011128902E-003;
2.423000000000000E+009;1.448176354169846E-001;-9.341808408498764E-002;-5.187775939702988E-003;3.192786127328873E-003;
2.423166666666667E+009;1.435575187206268E-001;-9.338619560003281E-002;-4.893107805401087E-003;3.531150054186583E-003;
2.423333333333334E+009;1.421403437852860E-001;-9.331529587507248E-002;-4.724524449557066E-003;3.583327634260058E-003;
2.423500000000000E+009;1.407023817300797E-001;-9.352927654981613E-002;-4.607267212122679E-003;3.870945423841476E-003;
2.423666666666667E+009;1.391175836324692E-001;-9.366307407617569E-002;-4.364988766610622E-003;4.066450521349907E-003;
2.423833333333334E+009;1.378878951072693E-001;-9.396623075008392E-002;-4.181301221251488E-003;4.037839360535145E-003;
2.424000000000000E+009;1.361676007509232E-001;-9.421731531620026E-002;-4.143748898059130E-003;4.242218099534512E-003;
2.424166666666667E+009;1.345276683568955E-001;-9.455776959657669E-002;-4.009623546153307E-003;4.184199497103691E-003;
2.424333333333334E+009;1.332193464040756E-001;-9.494294226169586E-002;-3.716559149324894E-003;4.295207560062408E-003;
2.424500000000000E+009;1.317928135395050E-001;-9.558282792568207E-002;-3.450009273365140E-003;4.552448634058237E-003;
2.424666666666667E+009;1.303927600383759E-001;-9.606400132179260E-002;-3.528670175001025E-003;4.467656370252371E-003;
2.424833333333334E+009;1.288811862468720E-001;-9.697184711694717E-002;-3.111703554168344E-003;4.621771164238453E-003;
2.425000000000000E+009;1.276236176490784E-001;-9.788820147514343E-002;-3.022116143256426E-003;4.624846391379833E-003;
2.425166666666667E+009;1.261500716209412E-001;-9.880186617374420E-002;-2.937146928161383E-003;4.862720612436533E-003;
2.425333333333334E+009;1.248500049114227E-001;-9.974599629640579E-002;-2.866394352167845E-003;4.721782635897398E-003;
2.425500000000000E+009;1.237090528011322E-001;-1.010236665606499E-001;-2.673655049875379E-003;4.856673534959555E-003;
2.425666666666667E+009;1.225061044096947E-001;-1.022740006446838E-001;-2.664439612999558E-003;5.040399264544249E-003;
2.425833333333334E+009;1.214742287993431E-001;-1.034932881593704E-001;-2.496260451152921E-003;4.986242856830359E-003;
2.426000000000000E+009;1.205036267638207E-001;-1.049568429589272E-001;-2.317636040970683E-003;5.136277060955763E-003;
2.426166666666667E+009;1.198685467243195E-001;-1.064647734165192E-001;-2.150255255401135E-003;5.236905533820391E-003;
2.426333333333334E+009;1.188528165221214E-001;-1.078303903341293E-001;-1.899617491289973E-003;5.352270323783159E-003;
2.426500000000000E+009;1.182250604033470E-001;-1.093548387289047E-001;-1.813331269659102E-003;5.372019018977881E-003;
2.426666666666667E+009;1.176973134279251E-001;-1.107070893049240E-001;-1.753314514644444E-003;5.409272853285074E-003;
2.426833333333334E+009;1.170642971992493E-001;-1.125782132148743E-001;-1.501155202277005E-003;5.480810534209013E-003;
2.427000000000000E+009;1.164613664150238E-001;-1.142073348164558E-001;-1.324105542153120E-003;5.679271649569273E-003;
2.427166666666667E+009;1.160670667886734E-001;-1.156112179160118E-001;-1.202678657136858E-003;5.691027268767357E-003;
2.427333333333334E+009;1.156977340579033E-001;-1.172947585582733E-001;-9.509447263553739E-004;5.805319640785456E-003;
2.427500000000000E+009;1.155599430203438E-001;-1.189782842993736E-001;-7.387903751805425E-004;5.760246887803078E-003;
2.427666666666667E+009;1.153282299637795E-001;-1.204991340637207E-001;-5.309676635079086E-004;5.858814809471369E-003;
