# Version 1.00
#
freq[Hz];re:Trc1_S11;im:Trc1_S11;re:Trc2_S21;im:Trc2_S21;
2.400000000000000E+009;1.504179984331131E-001;1.134373918175697E-001;1.785547356121242E-003;-2.244997303932905E-003;
2.400166666666667E+009;1.501899808645248E-001;1.110517010092735E-001;1.858299365267158E-003;-2.348620211705566E-003;
2.400333333333334E+009;1.505472958087921E-001;1.088044717907906E-001;1.965283416211605E-003;-2.375379903241992E-003;
2.400500000000000E+009;1.503437757492065E-001;1.063213571906090E-001;1.949472236447036E-003;-2.425814047455788E-003;
2.400666666666667E+009;1.505453288555145E-001;1.037567630410194E-001;1.918721478432417E-003;-2.560922643169761E-003;
2.400833333333334E+009;1.505255103111267E-001;1.009118854999542E-001;1.964258961379528E-003;-2.860864391550422E-003;
2.401000000000000E+009;1.509888172149658E-001;9.823956340551376E-002;1.859740703366697E-003;-2.819685963913798E-003;
2.401166666666667E+009;1.510365903377533E-001;9.555730223655701E-002;1.715762540698052E-003;-3.018794581294060E-003;
2.401333333333334E+009;1.515803039073944E-001;9.281042218208313E-002;1.507227192632854E-003;-3.017217153683305E-003;
2.401500000000000E+009;1.519906818866730E-001;8.992267400026321E-002;1.459061983041465E-003;-3.329631639644504E-003;
2.401666666666667E+009;1.525652259588242E-001;8.719564974308014E-002;1.344728982076049E-003;-3.469233633950353E-003;
2.401833333333334E+009;1.532731205224991E-001;8.448144793510437E-002;1.116275438107550E-003;-3.487559966742992E-003;
2.402000000000000E+009;1.542383283376694E-001;8.183145523071289E-002;8.508105529472232E-004;-3.647330449894071E-003;
2.402166666666667E+009;1.549564898014069E-001;7.919122278690338E-002;5.550861824303865E-004;-3.595125628635287E-003;
2.402333333333334E+009;1.562985032796860E-001;7.653266191482544E-002;5.138146225363016E-004;-3.571952693164349E-003;
2.402500000000000E+009;1.575793474912643E-001;7.398606836795807E-002;2.032462507486343E-004;-3.468042938038707E-003;
2.402666666666667E+009;1.589953005313873E-001;7.167255878448486E-002;1.610031467862427E-004;-3.468071110546589E-003;
2.402833333333334E+009;1.602860838174820E-001;6.942664086818695E-002;-1.529585279058665E-005;-3.209118731319904E-003;
2.403000000000000E+009;1.622989773750305E-001;6.702723354101181E-002;-2.166413905797526E-004;-3.272318979725242E-003;
2.403166666666667E+009;1.640873700380325E-001;6.475850939750671E-002;-5.689891986548901E-004;-3.047400852665305E-003;
2.403333333333334E+009;1.656887382268906E-001;6.261046975851059E-002;-5.742170033045113E-004;-3.074205946177244E-003;
2.403500000000000E+009;1.676039993762970E-001;6.058654934167862E-002;-6.055164267309010E-004;-2.815771847963333E-003;
2.403666666666667E+009;1.697053611278534E-001;5.872891470789909E-002;-5.959410336799920E-004;-2.664371160790324E-003;
2.403833333333334E+009;1.716042459011078E-001;5.675735697150230E-002;-6.495274719782174E-004;-2.506307791918516E-003;
2.404000000000000E+009;1.731572747230530E-001;5.484616383910179E-002;-5.551502690650523E-004;-2.477084519341588E-003;
2.404166666666667E+009;1.752219051122665E-001;5.352701619267464E-002;-5.126126343384385E-004;-2.530339639633894E-003;
2.404333333333334E+009;1.770001649856567E-001;5.179301649332047E-002;-6.074354751035571E-004;-2.392990747466683E-003;
2.404500000000000E+009;1.788436770439148E-001;5.033588409423828E-002;-6.407003966160119E-004;-2.328219823539257E-003;
2.404666666666667E+009;1.808041185140610E-001;4.924843832850456E-002;-6.252761813811958E-004;-2.336096251383424E-003;
2.404833333333334E+009;1.826740801334381E-001;4.811173304915428E-002;-4.815607680939138E-004;-2.332980046048760E-003;
2.405000000000000E+009;1.842245012521744E-001;4.741835221648216E-002;-5.846408894285560E-004;-2.372271614149213E-003;
2.405166666666667E+009;1.858849972486496E-001;4.661876335740089E-002;-5.502128624357283E-004;-2.525587100535631E-003;
2.405333333333334E+009;1.874277740716934E-001;4.611253738403320E-002;-5.809162976220250E-004;-2.435714937746525E-003;
2.405500000000000E+009;1.889739185571671E-001;4.559934511780739E-002;-7.800746243447065E-004;-2.278962405398488E-003;
2.405666666666667E+009;1.903592199087143E-001;4.529723897576332E-002;-7.581112440675497E-004;-2.431197324767709E-003;
2.405833333333334E+009;1.917948126792908E-001;4.485400021076202E-002;-6.986651569604874E-004;-2.483222633600235E-003;
2.406000000000000E+009;1.929361671209335E-001;4.478302225470543E-002;-8.065873989835382E-004;-2.494621090590954E-003;
2.406166666666667E+009;1.941241770982742E-001;4.454427212476730E-002;-8.777086040936410E-004;-2.365152351558209E-003;
2.406333333333334E+009;1.952646821737289E-001;4.448975995182991E-002;-9.847988840192556E-004;-2.385060070082545E-003;
2.406500000000000E+009;1.961567252874374E-001;4.444608092308044E-002;-1.212592120282352E-003;-2.427857834845781E-003;
2.406666666666667E+009;1.968138068914414E-001;4.445705935359001E-002;-1.289823441766202E-003;-2.174891065806150E-003;
2.406833333333334E+009;1.974716335535049E-001;4.435373470187187E-002;-1.340699731372297E-003;-2.243507420644164E-003;
2.407000000000000E+009;1.979821622371674E-001;4.462416842579842E-002;-1.480589155107737E-003;-2.204627729952335E-003;
2.407166666666667E+009;1.984513998031616E-001;4.431014135479927E-002;-1.398643362335861E-003;-2.294404665008187E-003;
2.407333333333334E+009;1.984742283821106E-001;4.437019675970078E-002;-1.363536110147834E-003;-2.117024268954992E-003;
2.407500000000000E+009;1.983518749475479E-001;4.426917806267738E-002;-1.529775443486869E-003;-2.025441732257605E-003;
2.407666666666667E+009;1.984727978706360E-001;4.410486668348312E-002;-1.552650588564575E-003;-1.964679220691323E-003;
2.407833333333334E+009;1.980735510587692E-001;4.395070299506187E-002;-1.697448315098882E-003;-2.041698200628161E-003;
2.408000000000000E+009;1.979922354221344E-001;4.361361265182495E-002;-1.681197434663773E-003;-1.835706061683595E-003;
2.408166666666667E+009;1.974750608205795E-001;4.322142899036408E-002;-1.715861610136926E-003;-1.813889713957906E-003;
2.408333333333334E+009;1.969062238931656E-001;4.268562048673630E-002;-1.834271592088044E-003;-1.719518564641476E-003;
2.408500000000000E+009;1.961072236299515E-001;4.231234267354012E-002;-1.868534833192825E-003;-1.679735491052270E-003;
2.408666666666667E+009;1.954690217971802E-001;4.169207066297531E-002;-1.804963103495538E-003;-1.625710166990757E-003;
2.408833333333334E+009;1.947634667158127E-001;4.092559963464737E-002;-1.884359866380692E-003;-1.652442035265267E-003;
2.409000000000000E+009;1.936371773481369E-001;3.984972089529038E-002;-1.849710824899375E-003;-1.461986335925758E-003;
2.409166666666667E+009;1.927245259284973E-001;3.895095363259316E-002;-1.733178738504648E-003;-1.384165021590889E-003;
2.409333333333334E+009;1.916390210390091E-001;3.794270008802414E-002;-1.824614126235247E-003;-1.367257907986641E-003;
2.409500000000000E+009;1.905047744512558E-001;3.638026118278503E-002;-1.780606806278229E-003;-1.399366999976337E-003;
2.409666666666667E+009;1.894358992576599E-001;3.517056256532669E-002;-1.697304076515138E-003;-1.372081576846540E-003;
2.409833333333334E+009;1.881845444440842E-001;3.362173587083817E-002;-1.845146878622472E-003;-1.250549219548702E-003;
2.410000000000000E+009;1.870763301849365E-001;3.198869526386261E-002;-1.712821424007416E-003;-1.276273047551513E-003;
2.410166666666667E+009;1.859275549650192E-001;2.999750711023808E-002;-1.741472864523530E-003;-1.342614297755063E-003;
2.410333333333334E+009;1.849140524864197E-001;2.837571874260902E-002;-1.741734915412962E-003;-1.422057277522981E-003;
2.410500000000000E+009;1.836800426244736E-001;2.633911557495594E-002;-1.686830655671656E-003;-1.588741200976074E-003;
2.410666666666667E+009;1.828751116991043E-001;2.419094182550907E-002;-1.879286137409508E-003;-1.452600117772818E-003;
2.410833333333334E+009;1.820797920227051E-001;2.181840315461159E-002;-1.897177891805768E-003;-1.708414638414979E-003;
2.411000000000000E+009;1.815294772386551E-001;1.960824429988861E-002;-1.965942326933146E-003;-1.777569646947086E-003;
2.411166666666667E+009;1.804715096950531E-001;1.742686890065670E-002;-1.954023260623217E-003;-1.606493955478072E-003;
2.411333333333334E+009;1.801117807626724E-001;1.484550721943378E-002;-2.165739424526691E-003;-1.574560068547726E-003;
2.411500000000000E+009;1.793992817401886E-001;1.251712162047625E-002;-2.371845766901970E-003;-1.723907422274351E-003;
2.411666666666667E+009;1.791239082813263E-001;9.919846430420876E-003;-2.562420675531030E-003;-1.793366391211748E-003;
2.411833333333334E+009;1.788136512041092E-001;7.616026327013969E-003;-2.587771043181419E-003;-1.794539042748511E-003;
2.412000000000000E+009;1.787933260202408E-001;4.793964792042971E-003;-2.936651697382331E-003;-1.644148025661707E-003;
2.412166666666667E+009;1.790972948074341E-001;2.641604747623205E-003;-3.050290513783693E-003;-1.577620860189199E-003;
2.412333333333334E+009;1.792026907205582E-001;5.605957630905323E-005;-3.272908274084330E-003;-1.600801013410091E-003;
2.412500000000000E+009;1.796199977397919E-001;-2.458643401041627E-003;-3.473076270893216E-003;-1.406313152983785E-003;
2.412666666666667E+009;1.800042539834976E-001;-4.896850325167179E-003;-3.495250362902880E-003;-1.230114023201168E-003;
2.412833333333334E+009;1.807040572166443E-001;-7.469213102012873E-003;-3.760317107662559E-003;-1.104659400880337E-003;
2.413000000000000E+009;1.813173741102219E-001;-9.842795319855213E-003;-3.965874202549458E-003;-8.683209307491779E-004;
2.413166666666667E+009;1.821207404136658E-001;-1.197556871920824E-002;-3.815471194684506E-003;-6.267325952649117E-004;
2.413333333333334E+009;1.832327693700790E-001;-1.451262366026640E-002;-3.952558152377605E-003;-3.413408412598074E-004;
2.413500000000000E+009;1.839963495731354E-001;-1.662824116647244E-002;-3.942927811294794E-003;-7.535037730121985E-005;
2.413666666666667E+009;1.852768063545227E-001;-1.890928111970425E-002;-4.052947275340557E-003;1.179284445242956E-004;
2.413833333333334E+009;1.863347589969635E-001;-2.069416455924511E-002;-3.958203364163637E-003;3.359707188792527E-004;
2.414000000000000E+009;1.874531656503677E-001;-2.281947992742062E-002;-3.877131268382072E-003;5.249298992566764E-004;
2.414166666666667E+009;1.887824535369873E-001;-2.468020841479302E-002;-3.963599912822247E-003;8.442820981144905E-004;
2.414333333333334E+009;1.896298676729202E-001;-2.662901021540165E-002;-3.754903795197606E-003;9.899343131110072E-004;
2.414500000000000E+009;1.910395175218582E-001;-2.810255810618401E-002;-3.567281411960721E-003;1.300800591707230E-003;
2.414666666666667E+009;1.919743418693543E-001;-2.962034940719605E-002;-3.679201705381274E-003;1.279354328289628E-003;
2.414833333333334E+009;1.933610141277313E-001;-3.093676269054413E-002;-3.594983601942658E-003;1.594643574208021E-003;
2.415000000000000E+009;1.945118606090546E-001;-3.215979412198067E-002;-3.482846776023507E-003;1.709967968054116E-003;
2.415166666666667E+009;1.957965791225433E-001;-3.345732763409615E-002;-3.353064646944404E-003;1.792819588445127E-003;
2.415333333333334E+009;1.968215256929398E-001;-3.431461378931999E-002;-3.142422065138817E-003;1.835883944295347E-003;
2.415500000000000E+009;1.980205476284027E-001;-3.487724438309670E-002;-2.978936070576310E-003;2.052436349913478E-003;
2.415666666666667E+009;1.991373896598816E-001;-3.565140068531036E-002;-3.029040293768048E-003;2.148452447727323E-003;
2.415833333333334E+009;1.999990940093994E-001;-3.634050861001015E-002;-2.807548036798835E-003;2.208093646913767E-003;
2.416000000000000E+009;2.008506059646606E-001;-3.680478036403656E-002;-2.785919699817896E-003;2.413693582639098E-003;
2.416166666666667E+009;2.015748471021652E-001;-3.727062419056892E-002;-2.584886038675904E-003;2.531674923375249E-003;
2.416333333333334E+009;2.021993547677994E-001;-3.754948452115059E-002;-2.434299327433109E-003;2.656437922269106E-003;
2.416500000000000E+009;2.026594877243042E-001;-3.769952058792114E-002;-2.407206688076258E-003;2.690409077331424E-003;
2.416666666666667E+009;2.030137777328491E-001;-3.801555186510086E-002;-2.150615677237511E-003;2.767604542896152E-003;
2.416833333333334E+009;2.032373547554016E-001;-3.798715770244598E-002;-2.122677629813552E-003;3.007682971656323E-003;
2.417000000000000E+009;2.034167796373367E-001;-3.806885331869125E-002;-1.909124548546970E-003;2.988603897392750E-003;
2.417166666666667E+009;2.032629549503326E-001;-3.781371563673019E-002;-1.710249576717615E-003;2.998494543135166E-003;
2.417333333333334E+009;2.029882073402405E-001;-3.750037774443626E-002;-1.571876113303006E-003;2.870678436011076E-003;
2.417500000000000E+009;2.027779668569565E-001;-3.747191652655602E-002;-1.198155921883881E-003;3.016557078808546E-003;
2.417666666666667E+009;2.022666782140732E-001;-3.718951717019081E-002;-1.152817858383060E-003;3.111241152510047E-003;
2.417833333333334E+009;2.019561380147934E-001;-3.686845675110817E-002;-9.247769485227764E-004;3.001733217388392E-003;
2.418000000000000E+009;2.013337165117264E-001;-3.652101010084152E-002;-9.552267147228122E-004;3.025565994903445E-003;
2.418166666666667E+009;2.005314677953720E-001;-3.643872588872910E-002;-8.076948579400778E-004;2.887889975681901E-003;
2.418333333333334E+009;1.996868550777435E-001;-3.613413497805595E-002;-5.996305844746530E-004;2.897622063755989E-003;
2.418500000000000E+009;1.987048685550690E-001;-3.609886765480042E-002;-4.052710137329996E-004;2.794878091663122E-003;
2.418666666666667E+009;1.979865431785584E-001;-3.594092652201653E-002;-5.948530742898583E-004;2.773358952254057E-003;
2.418833333333334E+009;1.967516541481018E-001;-3.601186722517014E-002;-2.491299528628588E-004;2.760004019364715E-003;
2.419000000000000E+009;1.954908072948456E-001;-3.608991205692291E-002;-1.211900016642176E-004;2.672744682058692E-003;
2.419166666666667E+009;1.943931579589844E-001;-3.634670749306679E-002;-1.317330024903640E-004;2.584151690825820E-003;
2.419333333333334E+009;1.929792910814285E-001;-3.680925443768501E-002;-6.000567009323277E-005;2.454015426337719E-003;
2.419500000000000E+009;1.914840191602707E-001;-3.723628073930740E-002;-1.366962096653879E-004;2.407441148534417E-003;
2.419666666666667E+009;1.900556534528732E-001;-3.786602616310120E-002;2.548694737924961E-006;2.183409873396158E-003;
2.419833333333334E+009;1.883388608694077E-001;-3.869068250060082E-002;-5.119195066072280E-006;2.147778403013945E-003;
2.420000000000000E+009;1.869175881147385E-001;-3.950692340731621E-002;-2.165335172321647E-004;2.182207070291042E-003;
2.420166666666667E+009;1.853951662778854E-001;-4.052923247218132E-002;-1.153146222350188E-004;1.999507425352931E-003;
2.420333333333334E+009;1.837857216596603E-001;-4.168757051229477E-002;-2.437646908219904E-004;2.064234344288707E-003;
2.420500000000000E+009;1.821444481611252E-001;-4.309866949915886E-002;-2.373636380070821E-004;2.120045945048332E-003;
2.420666666666667E+009;1.805199980735779E-001;-4.413071274757385E-002;-2.708934771362692E-004;2.034328877925873E-003;
2.420833333333334E+009;1.788584142923355E-001;-4.564567282795906E-002;-3.031861560884863E-004;2.155143767595291E-003;
2.421000000000000E+009;1.774120330810547E-001;-4.742558300495148E-002;-2.451323962304741E-004;2.143951598554850E-003;
2.421166666666667E+009;1.759581714868546E-001;-4.903076961636543E-002;-1.973795733647421E-004;2.277148887515068E-003;
2.421333333333334E+009;1.742891073226929E-001;-5.056909844279289E-002;-1.677576074143872E-004;2.300589578226209E-003;
2.421500000000000E+009;1.729041039943695E-001;-5.249860510230064E-002;-1.553278525534552E-005;2.363192616030574E-003;
2.421666666666667E+009;1.718401461839676E-001;-5.431740731000900E-002;-2.212569779658224E-005;2.291218843311071E-003;
2.421833333333334E+009;1.705032587051392E-001;-5.609270930290222E-002;1.057796325767413E-004;2.387493150308728E-003;
2.422000000000000E+009;1.693777441978455E-001;-5.806752666831017E-002;3.209735950804316E-005;2.323280321434140E-003;
2.422166666666667E+009;1.685257852077484E-001;-6.030651926994324E-002;1.878465700428933E-004;2.411899855360389E-003;
2.422333333333334E+009;1.675898730754852E-001;-6.240422651171684E-002;3.136936575174332E-004;2.299290383234620E-003;
2.422500000000000E+009;1.669958233833313E-001;-6.427272409200668E-002;2.669562527444214E-004;2.357397461310029E-003;
2.422666666666667E+009;1.662595272064209E-001;-6.634031236171722E-002;4.372093244455755E-004;2.285329159349203E-003;
2.422833333333334E+009;1.656504720449448E-001;-6.840433180332184E-002;3.621927171479911E-004;2.327633323147893E-003;
2.423000000000000E+009;1.653100103139877E-001;-7.045645266771317E-002;4.703939484898001E-004;2.355018164962530E-003;
2.423166666666667E+009;1.649998575448990E-001;-7.237491756677628E-002;4.940611543133855E-004;2.334146294742823E-003;
2.423333333333334E+009;1.649035960435867E-001;-7.442931085824966E-002;5.267066881060600E-004;2.503034193068743E-003;
2.423500000000000E+009;1.649367809295654E-001;-7.623060047626495E-002;5.818129866383970E-004;2.457716036587954E-003;
2.423666666666667E+009;1.650038659572601E-001;-7.826077193021774E-002;7.610484026372433E-004;2.431359374895692E-003;
2.423833333333334E+009;1.648655980825424E-001;-7.994902133941650E-002;8.390598231926560E-004;2.497562440112233E-003;
2.424000000000000E+009;1.652312576770783E-001;-8.180952817201614E-002;9.655878529883921E-004;2.397353062406182E-003;
2.424166666666667E+009;1.653253287076950E-001;-8.347991108894348E-002;8.851186139509082E-004;2.290953416377306E-003;
2.424333333333334E+009;1.657404750585556E-001;-8.497940003871918E-002;1.020996831357479E-003;2.339203841984272E-003;
2.424500000000000E+009;1.661065518856049E-001;-8.685476332902908E-002;9.471320663578808E-004;2.231103600934148E-003;
2.424666666666667E+009;1.664666980504990E-001;-8.824804425239563E-002;1.222646096721292E-003;2.440416719764471E-003;
2.424833333333334E+009;1.671292781829834E-001;-8.939281851053238E-002;1.267405226826668E-003;2.316279336810112E-003;
2.425000000000000E+009;1.676236242055893E-001;-9.060928225517273E-002;1.183296903036535E-003;2.275978680700064E-003;
2.425166666666667E+009;1.680546849966049E-001;-9.167660027742386E-002;1.286969520151615E-003;2.228449564427137E-003;
2.425333333333334E+009;1.685502529144287E-001;-9.263117611408234E-002;1.390389632433653E-003;2.282716101035476E-003;
2.425500000000000E+009;1.691380292177200E-001;-9.361431747674942E-002;1.627860474400222E-003;2.125465311110020E-003;
2.425666666666667E+009;1.697019934654236E-001;-9.435398131608963E-002;1.628264435566962E-003;2.172929001972079E-003;
2.425833333333334E+009;1.701249182224274E-001;-9.526792168617249E-002;1.599070732481778E-003;2.138429088518024E-003;
2.426000000000000E+009;1.706479638814926E-001;-9.568651765584946E-002;1.667909440584481E-003;2.017537131905556E-003;
2.426166666666667E+009;1.712059229612351E-001;-9.618870168924332E-002;1.859068288467825E-003;1.994709717109799E-003;
2.426333333333334E+009;1.715188622474670E-001;-9.680475294589996E-002;2.018484985455871E-003;2.015922917053103E-003;
2.426500000000000E+009;1.719711720943451E-001;-9.713706374168396E-002;2.223342889919877E-003;2.060744911432266E-003;
2.426666666666667E+009;1.724414974451065E-001;-9.751636534929276E-002;2.164602745324373E-003;1.978663727641106E-003;
2.426833333333334E+009;1.728622168302536E-001;-9.782280772924423E-002;2.329804701730609E-003;1.890374231152237E-003;
2.427000000000000E+009;1.729655116796494E-001;-9.807074069976807E-002;2.256983891129494E-003;1.774674863554537E-003;
2.427166666666667E+009;1.731477081775665E-001;-9.827235341072083E-002;2.348528709262610E-003;1.733557553961873E-003;
2.427333333333334E+009;1.730999201536179E-001;-9.862366318702698E-002;2.413402544334531E-003;1.554292626678944E-003;
2.427500000000000E+009;1.729941815137863E-001;-9.882032126188278E-002;2.740303985774517E-003;1.531742862425745E-003;
2.427666666666667E+009;1.727443784475327E-001;-9.897728264331818E-002;2.668642206117511E-003;1.256962656043470E-003;
