# Version 1.00
#
freq[Hz];re:Trc1_S11;im:Trc1_S11;re:Trc2_S21;im:Trc2_S21;
2.400000000000000E+009;1.735892593860626E-001;4.937222972512245E-002;3.530848771333695E-003;4.415988922119141E-003;
2.400166666666667E+009;1.742781996726990E-001;4.888969287276268E-002;3.756734542548657E-003;4.243491683155298E-003;
2.400333333333334E+009;1.746352314949036E-001;4.809695482254028E-002;3.788950154557824E-003;4.167912527918816E-003;
2.400500000000000E+009;1.749486923217773E-001;4.742563515901566E-002;4.120994359254837E-003;4.006467293947935E-003;
2.400666666666667E+009;1.752213239669800E-001;4.676150158047676E-002;4.229367244988680E-003;4.113867878913879E-003;
2.400833333333334E+009;1.754288971424103E-001;4.630009829998016E-002;4.288672003895044E-003;3.668168326839805E-003;
2.401000000000000E+009;1.755098998546600E-001;4.541213437914848E-002;4.465825855731964E-003;3.712738631293178E-003;
2.401166666666667E+009;1.754982173442841E-001;4.473442956805229E-002;4.458093084394932E-003;3.683690680190921E-003;
2.401333333333334E+009;1.753727048635483E-001;4.405829310417175E-002;4.748585168272257E-003;3.302650758996606E-003;
2.401500000000000E+009;1.757721900939941E-001;4.352798685431480E-002;4.800632596015930E-003;3.113989718258381E-003;
2.401666666666667E+009;1.755890846252441E-001;4.295220226049423E-002;5.026726983487606E-003;2.955913776531816E-003;
2.401833333333334E+009;1.753751635551453E-001;4.202619567513466E-002;5.074804648756981E-003;2.921408275142312E-003;
2.402000000000000E+009;1.751297712326050E-001;4.128755629062653E-002;5.132306832820177E-003;2.586999675258994E-003;
2.402166666666667E+009;1.751730740070343E-001;4.019168391823769E-002;5.235351156443358E-003;2.518082503229380E-003;
2.402333333333334E+009;1.746705770492554E-001;3.922307863831520E-002;5.343804135918617E-003;2.177451737225056E-003;
2.402500000000000E+009;1.745683848857880E-001;3.814056143164635E-002;5.291467066854239E-003;2.223290503025055E-003;
2.402666666666667E+009;1.742750108242035E-001;3.713671490550041E-002;5.347595550119877E-003;1.924195559695363E-003;
2.402833333333334E+009;1.738854795694351E-001;3.590510413050652E-002;5.370381753891707E-003;1.760874059982598E-003;
2.403000000000000E+009;1.735462099313736E-001;3.464015200734139E-002;5.277594551444054E-003;1.423663226887584E-003;
2.403166666666667E+009;1.733650714159012E-001;3.327591344714165E-002;5.343743599951267E-003;1.287072082050145E-003;
2.403333333333334E+009;1.729954034090042E-001;3.185492753982544E-002;5.258571356534958E-003;1.277111354283989E-003;
2.403500000000000E+009;1.725701987743378E-001;3.023763746023178E-002;5.080779548734427E-003;1.285591046325862E-003;
2.403666666666667E+009;1.721697300672531E-001;2.856922894716263E-002;5.361771676689386E-003;1.014824374578893E-003;
2.403833333333334E+009;1.719036102294922E-001;2.672207914292812E-002;5.350883584469557E-003;9.564863867126405E-004;
2.404000000000000E+009;1.714987009763718E-001;2.499003522098064E-002;5.256717093288899E-003;1.120889093726873E-003;
2.404166666666667E+009;1.711521744728088E-001;2.298902720212936E-002;5.463219247758389E-003;1.132626086473465E-003;
2.404333333333334E+009;1.708212345838547E-001;2.121988125145435E-002;5.338493268936873E-003;8.578601409681141E-004;
2.404500000000000E+009;1.703402549028397E-001;1.925053261220455E-002;5.572425201535225E-003;8.319577900692821E-004;
2.404666666666667E+009;1.702743321657181E-001;1.716468669474125E-002;5.667387042194605E-003;8.285004878416657E-004;
2.404833333333334E+009;1.699332892894745E-001;1.515546347945929E-002;5.677976645529270E-003;6.959336460568011E-004;
2.405000000000000E+009;1.700237095355988E-001;1.314508914947510E-002;5.897024646401405E-003;6.443797028623521E-004;
2.405166666666667E+009;1.697329133749008E-001;1.110617164522409E-002;6.074505858123303E-003;2.673240960575640E-004;
2.405333333333334E+009;1.698458641767502E-001;8.883018977940083E-003;6.273642182350159E-003;2.066790766548365E-004;
2.405500000000000E+009;1.697753667831421E-001;6.973534356802702E-003;6.256444845348597E-003;-6.101185135776177E-005;
2.405666666666667E+009;1.699476093053818E-001;4.939507227391005E-003;6.312666460871697E-003;-1.811451511457562E-004;
2.405833333333334E+009;1.699635535478592E-001;2.985900733619928E-003;6.596193648874760E-003;-4.470229032449424E-004;
2.406000000000000E+009;1.703350991010666E-001;7.287818589247763E-004;6.570376455783844E-003;-6.598101463168860E-004;
2.406166666666667E+009;1.706180423498154E-001;-1.133258803747594E-003;6.600298918783665E-003;-8.800621144473553E-004;
2.406333333333334E+009;1.711499392986298E-001;-3.219001926481724E-003;6.672700867056847E-003;-1.213809358887374E-003;
2.406500000000000E+009;1.715445518493652E-001;-5.148641299456358E-003;6.766136735677719E-003;-1.322749652899802E-003;
2.406666666666667E+009;1.719776839017868E-001;-7.268094923347235E-003;6.777928676456213E-003;-1.606257283128798E-003;
2.406833333333334E+009;1.725672483444214E-001;-9.206663817167282E-003;6.884268485009670E-003;-1.989220501855016E-003;
2.407000000000000E+009;1.732068061828613E-001;-1.095398329198360E-002;6.868761498481035E-003;-2.362886909395456E-003;
2.407166666666667E+009;1.739248782396317E-001;-1.264895405620337E-002;6.869049742817879E-003;-2.555310027673841E-003;
2.407333333333334E+009;1.746032536029816E-001;-1.455199997872114E-002;7.022399920970202E-003;-2.969646826386452E-003;
2.407500000000000E+009;1.753879636526108E-001;-1.620363816618919E-002;6.840744055807591E-003;-3.310963977128267E-003;
2.407666666666667E+009;1.762534081935883E-001;-1.767897419631481E-002;6.737420335412026E-003;-3.683917457237840E-003;
2.407833333333334E+009;1.768760979175568E-001;-1.945411786437035E-002;6.872484460473061E-003;-3.831678768619895E-003;
2.408000000000000E+009;1.777203530073166E-001;-2.088970132172108E-002;6.694600917398930E-003;-4.354506265372038E-003;
2.408166666666667E+009;1.783466041088104E-001;-2.221997827291489E-002;6.488281767815352E-003;-4.705821163952351E-003;
2.408333333333334E+009;1.793485879898071E-001;-2.360993437469006E-002;6.194261368364096E-003;-5.083431489765644E-003;
2.408500000000000E+009;1.799551844596863E-001;-2.488338388502598E-002;6.161029916256666E-003;-5.636439658701420E-003;
2.408666666666667E+009;1.805049926042557E-001;-2.624528110027313E-002;5.811340175569058E-003;-5.883755628019571E-003;
2.408833333333334E+009;1.811465322971344E-001;-2.716280706226826E-002;5.527578294277191E-003;-5.892271641641855E-003;
2.409000000000000E+009;1.819689124822617E-001;-2.827743813395500E-002;5.370609462261200E-003;-6.369546521455050E-003;
2.409166666666667E+009;1.821979582309723E-001;-2.905381470918655E-002;4.916868172585964E-003;-6.687696557492018E-003;
2.409333333333334E+009;1.828832775354385E-001;-2.997815981507301E-002;4.589754622429609E-003;-6.969359703361988E-003;
2.409500000000000E+009;1.831274181604385E-001;-3.079990111291409E-002;4.250311758369207E-003;-7.101327646523714E-003;
2.409666666666667E+009;1.834359318017960E-001;-3.133934736251831E-002;4.114859737455845E-003;-7.411144673824310E-003;
2.409833333333334E+009;1.836382746696472E-001;-3.179493173956871E-002;3.762000007554889E-003;-7.428251672536135E-003;
2.410000000000000E+009;1.840764433145523E-001;-3.237912431359291E-002;3.317243652418256E-003;-7.691162172704935E-003;
2.410166666666667E+009;1.842099279165268E-001;-3.273030370473862E-002;3.001464297994971E-003;-7.817541249096394E-003;
2.410333333333334E+009;1.842603981494904E-001;-3.336851298809052E-002;2.668112516403198E-003;-7.840791717171669E-003;
2.410500000000000E+009;1.842134296894074E-001;-3.354787081480026E-002;2.305204048752785E-003;-8.014507591724396E-003;
2.410666666666667E+009;1.840465366840363E-001;-3.393637016415596E-002;1.764473272487521E-003;-8.044787682592869E-003;
2.410833333333334E+009;1.839543431997299E-001;-3.410470113158226E-002;1.420784625224769E-003;-8.106485009193420E-003;
2.411000000000000E+009;1.837973594665527E-001;-3.446047753095627E-002;1.207716530188918E-003;-8.140252903103828E-003;
2.411166666666667E+009;1.833534389734268E-001;-3.476360812783241E-002;7.927940459921956E-004;-8.198508992791176E-003;
2.411333333333334E+009;1.829144656658173E-001;-3.503754734992981E-002;4.405001527629793E-004;-8.317558094859123E-003;
2.411500000000000E+009;1.823750287294388E-001;-3.558276221156120E-002;1.946860284078866E-004;-8.312782272696495E-003;
2.411666666666667E+009;1.819186508655548E-001;-3.592163696885109E-002;-2.495134249329567E-004;-8.179226890206337E-003;
2.411833333333334E+009;1.809798777103424E-001;-3.633411973714829E-002;-7.629974861629307E-004;-8.126799017190933E-003;
2.412000000000000E+009;1.801232546567917E-001;-3.678317368030548E-002;-1.002108212560415E-003;-8.129683323204517E-003;
2.412166666666667E+009;1.792128086090088E-001;-3.735514357686043E-002;-1.416833139955998E-003;-7.884360849857330E-003;
2.412333333333334E+009;1.785484105348587E-001;-3.793785721063614E-002;-1.703516696579754E-003;-7.929136045277119E-003;
2.412500000000000E+009;1.771258711814880E-001;-3.834806382656097E-002;-2.231665188446641E-003;-7.716808468103409E-003;
2.412666666666667E+009;1.761003285646439E-001;-3.916363790631294E-002;-2.342488616704941E-003;-7.585485465824604E-003;
2.412833333333334E+009;1.749124228954315E-001;-3.998528420925140E-002;-2.629110123962164E-003;-7.352645043283701E-003;
2.413000000000000E+009;1.735880821943283E-001;-4.083666950464249E-002;-2.929428126662970E-003;-7.166013587266207E-003;
2.413166666666667E+009;1.724374145269394E-001;-4.155820235610008E-002;-3.106607357040048E-003;-7.022183854132891E-003;
2.413333333333334E+009;1.709967404603958E-001;-4.254718869924545E-002;-3.329864004626870E-003;-6.674404256045818E-003;
2.413500000000000E+009;1.696558296680450E-001;-4.358195886015892E-002;-3.527359804138541E-003;-6.598474457859993E-003;
2.413666666666667E+009;1.683199852705002E-001;-4.480903223156929E-002;-3.779866266995668E-003;-6.345156580209732E-003;
2.413833333333334E+009;1.668833941221237E-001;-4.574972391128540E-002;-4.013384226709604E-003;-6.090337410569191E-003;
2.414000000000000E+009;1.654880344867706E-001;-4.703634977340698E-002;-4.162508528679609E-003;-6.043005269020796E-003;
2.414166666666667E+009;1.643602699041367E-001;-4.835744202136993E-002;-4.283578135073185E-003;-5.766037385910749E-003;
2.414333333333334E+009;1.629663109779358E-001;-4.969423636794090E-002;-4.519789479672909E-003;-5.593716166913509E-003;
2.414500000000000E+009;1.619072258472443E-001;-5.115790292620659E-002;-4.737542476505041E-003;-5.361723713576794E-003;
2.414666666666667E+009;1.607581377029419E-001;-5.264627188444138E-002;-4.807307850569487E-003;-5.218405742198229E-003;
2.414833333333334E+009;1.596586704254150E-001;-5.429690703749657E-002;-5.031083710491657E-003;-4.808438941836357E-003;
2.415000000000000E+009;1.586187034845352E-001;-5.602872744202614E-002;-5.228706169873476E-003;-4.566721618175507E-003;
2.415166666666667E+009;1.576250046491623E-001;-5.773466452956200E-002;-5.359297618269920E-003;-4.339864943176508E-003;
2.415333333333334E+009;1.568550318479538E-001;-5.954860523343086E-002;-5.584027152508497E-003;-4.197050351649523E-003;
2.415500000000000E+009;1.560939550399780E-001;-6.130132824182510E-002;-5.690163001418114E-003;-3.781659062951803E-003;
2.415666666666667E+009;1.552444547414780E-001;-6.322017312049866E-002;-5.850415211170912E-003;-3.659611567854881E-003;
2.415833333333334E+009;1.546505540609360E-001;-6.514732539653778E-002;-5.748045630753040E-003;-3.179900348186493E-003;
2.416000000000000E+009;1.539407372474670E-001;-6.716249883174896E-002;-5.989928264170885E-003;-2.932130359113216E-003;
2.416166666666667E+009;1.536360830068588E-001;-6.910075247287750E-002;-5.812972784042358E-003;-2.545571187511087E-003;
2.416333333333334E+009;1.531184613704681E-001;-7.096671313047409E-002;-5.944853182882071E-003;-2.240162109956145E-003;
2.416500000000000E+009;1.528533697128296E-001;-7.297284901142120E-002;-5.752645898610354E-003;-1.949846395291388E-003;
2.416666666666667E+009;1.524609327316284E-001;-7.477770745754242E-002;-5.835960619151592E-003;-1.619909657165408E-003;
2.416833333333334E+009;1.523706316947937E-001;-7.691883295774460E-002;-5.731741432100534E-003;-1.580943819135428E-003;
2.417000000000000E+009;1.520088165998459E-001;-7.881838083267212E-002;-5.539631005376577E-003;-1.154090510681272E-003;
2.417166666666667E+009;1.518941819667816E-001;-8.053798228502274E-002;-5.493450909852982E-003;-9.602375212125480E-004;
2.417333333333334E+009;1.519528478384018E-001;-8.233385533094406E-002;-5.380822345614433E-003;-7.716123363934457E-004;
2.417500000000000E+009;1.518729925155640E-001;-8.415759354829788E-002;-5.150329787284136E-003;-5.757437320426107E-004;
2.417666666666667E+009;1.521768718957901E-001;-8.551453053951263E-002;-5.100997630506754E-003;-4.992928006686270E-004;
2.417833333333334E+009;1.521630734205246E-001;-8.705344796180725E-002;-4.947978537529707E-003;-3.471457166597247E-004;
2.418000000000000E+009;1.522487103939056E-001;-8.855266124010086E-002;-4.862101748585701E-003;-2.622074680402875E-004;
2.418166666666667E+009;1.523794829845429E-001;-8.973766118288040E-002;-4.724956117570400E-003;-1.858466748672072E-005;
2.418333333333334E+009;1.528655141592026E-001;-9.116581827402115E-002;-4.603444598615170E-003;-5.891582259209827E-005;
2.418500000000000E+009;1.529158353805542E-001;-9.233678132295609E-002;-4.496406298130751E-003;4.170849570073187E-005;
2.418666666666667E+009;1.531763970851898E-001;-9.327633678913117E-002;-4.396527074277401E-003;-4.630758849089034E-005;
2.418833333333334E+009;1.532767266035080E-001;-9.429805725812912E-002;-4.377491772174835E-003;-4.473999433685094E-005;
2.419000000000000E+009;1.534570157527924E-001;-9.510721266269684E-002;-4.394045565277338E-003;9.564591891830787E-005;
2.419166666666667E+009;1.537460684776306E-001;-9.576055407524109E-002;-4.402452148497105E-003;1.127449722844176E-004;
2.419333333333334E+009;1.538835465908051E-001;-9.608282893896103E-002;-4.440659191459417E-003;1.413712016073987E-004;
2.419500000000000E+009;1.540938019752502E-001;-9.682953357696533E-002;-4.410275723785162E-003;2.850452146958560E-004;
2.419666666666667E+009;1.543262749910355E-001;-9.694322943687439E-002;-4.440370947122574E-003;2.921802806667984E-004;
2.419833333333334E+009;1.544302552938461E-001;-9.716490656137466E-002;-4.459452815353870E-003;2.922484418377280E-004;
2.420000000000000E+009;1.545308977365494E-001;-9.744457155466080E-002;-4.502297844737768E-003;5.498750251717866E-004;
2.420166666666667E+009;1.546598821878433E-001;-9.730993211269379E-002;-4.489968996495009E-003;6.813174113631249E-004;
2.420333333333334E+009;1.546784639358521E-001;-9.742191433906555E-002;-4.483656957745552E-003;7.212552009150386E-004;
2.420500000000000E+009;1.546787023544312E-001;-9.715007990598679E-002;-4.555909428745508E-003;1.045746146701276E-003;
2.420666666666667E+009;1.544923782348633E-001;-9.683023393154144E-002;-4.611961077898741E-003;9.534527780488133E-004;
2.420833333333334E+009;1.544391661882401E-001;-9.678957611322403E-002;-4.499379545450211E-003;1.168530201539397E-003;
2.421000000000000E+009;1.541579961776733E-001;-9.647423028945923E-002;-4.456705413758755E-003;1.438978128135204E-003;
2.421166666666667E+009;1.541054546833038E-001;-9.601303189992905E-002;-4.466635175049305E-003;1.359999994747341E-003;
2.421333333333334E+009;1.536812186241150E-001;-9.576578438282013E-002;-4.331532400101423E-003;1.603895565494895E-003;
2.421500000000000E+009;1.531359404325485E-001;-9.544903039932251E-002;-4.273919854313135E-003;1.812926959246397E-003;
2.421666666666667E+009;1.527084112167358E-001;-9.504606574773789E-002;-4.372414201498032E-003;1.917191431857646E-003;
2.421833333333334E+009;1.522252112627029E-001;-9.481372684240341E-002;-4.072730895131826E-003;2.074778545647860E-003;
2.422000000000000E+009;1.514081209897995E-001;-9.453243762254715E-002;-4.149599466472864E-003;2.258241642266512E-003;
2.422166666666667E+009;1.505089551210403E-001;-9.431395679712296E-002;-3.986091352999210E-003;2.477994188666344E-003;
2.422333333333334E+009;1.495723277330399E-001;-9.388634562492371E-002;-3.851354122161865E-003;2.451698062941432E-003;
2.422500000000000E+009;1.484732329845429E-001;-9.357057511806488E-002;-3.842598060145974E-003;2.600560430437326E-003;
2.422666666666667E+009;1.473997384309769E-001;-9.357267618179321E-002;-3.609900595620275E-003;2.778222318738699E-003;
2.422833333333334E+009;1.464319378137589E-001;-9.344217181205750E-002;-3.559938399121165E-003;2.775915432721376E-003;
2.423000000000000E+009;1.450839787721634E-001;-9.330650418996811E-002;-3.386853961274028E-003;2.875571837648749E-003;
2.423166666666667E+009;1.437656730413437E-001;-9.337695688009262E-002;-3.365142969414592E-003;3.051291685551405E-003;
2.423333333333334E+009;1.423537433147430E-001;-9.325067698955536E-002;-3.221632447093725E-003;3.130914643406868E-003;
2.423500000000000E+009;1.409377008676529E-001;-9.350908547639847E-002;-3.016110975295305E-003;3.154760925099254E-003;
2.423666666666667E+009;1.394226402044296E-001;-9.376247227191925E-002;-2.967018634080887E-003;3.309772349894047E-003;
2.423833333333334E+009;1.377507299184799E-001;-9.385596960783005E-002;-2.771252533420920E-003;3.339368849992752E-003;
2.424000000000000E+009;1.361758112907410E-001;-9.423837065696716E-002;-2.742060227319598E-003;3.326268633827567E-003;
2.424166666666667E+009;1.346498429775238E-001;-9.466360509395599E-002;-2.638129051774740E-003;3.410108387470245E-003;
2.424333333333334E+009;1.332501322031021E-001;-9.518574923276901E-002;-2.375265117734671E-003;3.558198455721140E-003;
2.424500000000000E+009;1.317181438207626E-001;-9.586276859045029E-002;-2.175480127334595E-003;3.633109619840980E-003;
2.424666666666667E+009;1.302922815084457E-001;-9.626112878322601E-002;-2.270658034831286E-003;3.632465843111277E-003;
2.424833333333334E+009;1.288978010416031E-001;-9.718906879425049E-002;-1.913345535285771E-003;3.605038160458207E-003;
2.425000000000000E+009;1.275607347488403E-001;-9.796237200498581E-002;-1.979308901354671E-003;3.667840035632253E-003;
2.425166666666667E+009;1.260068416595459E-001;-9.895915538072586E-002;-1.618295907974243E-003;3.616105299443007E-003;
2.425333333333334E+009;1.248371303081513E-001;-1.000704243779182E-001;-1.629429636523128E-003;3.835388692095876E-003;
2.425500000000000E+009;1.237175166606903E-001;-1.012038812041283E-001;-1.513399882242084E-003;3.784140339121223E-003;
2.425666666666667E+009;1.223592832684517E-001;-1.023537069559097E-001;-1.416814397089183E-003;3.731004660949111E-003;
2.425833333333334E+009;1.214314699172974E-001;-1.037278845906258E-001;-1.104037626646459E-003;3.892232896760106E-003;
2.426000000000000E+009;1.204039826989174E-001;-1.052042394876480E-001;-9.236412006430328E-004;3.611153690144420E-003;
2.426166666666667E+009;1.196883022785187E-001;-1.066972091794014E-001;-9.649292333051562E-004;3.705537645146251E-003;
2.426333333333334E+009;1.187671571969986E-001;-1.080994978547096E-001;-6.003018934279680E-004;3.612976055592299E-003;
2.426500000000000E+009;1.181219443678856E-001;-1.095965057611466E-001;-4.680271085817367E-004;3.723079105839133E-003;
2.426666666666667E+009;1.174719557166100E-001;-1.111476495862007E-001;-4.033764998894185E-004;3.696628846228123E-003;
2.426833333333334E+009;1.168983578681946E-001;-1.128315404057503E-001;-2.810401783790439E-004;3.663287032395601E-003;
2.427000000000000E+009;1.162738502025604E-001;-1.145005524158478E-001;-2.734651388891507E-005;3.352478845044971E-003;
2.427166666666667E+009;1.158109903335571E-001;-1.160224750638008E-001;-2.520014641049784E-005;3.395959269255400E-003;
2.427333333333334E+009;1.155186370015144E-001;-1.176532134413719E-001;1.939432549988851E-004;3.175360383465886E-003;
2.427500000000000E+009;1.152863129973412E-001;-1.192668974399567E-001;3.035957051906735E-004;3.075056243687868E-003;
2.427666666666667E+009;1.150454953312874E-001;-1.209157705307007E-001;3.536691656336188E-004;3.033313667401671E-003;
