# Version 1.00
#
freq[Hz];re:Trc1_S11;im:Trc1_S11;re:Trc2_S21;im:Trc2_S21;
2.400000000000000E+009;1.679497063159943E-001;4.121582582592964E-002;-4.442132194526494E-005;1.665210817009211E-003;
2.400166666666667E+009;1.687440574169159E-001;4.020347073674202E-002;-2.209636295447126E-004;1.790307462215424E-003;
2.400333333333334E+009;1.692053973674774E-001;3.936435282230377E-002;-2.527352771721780E-004;1.598856877535582E-003;
2.400500000000000E+009;1.698182970285416E-001;3.852840512990952E-002;-2.632596006151289E-004;1.708497526124120E-003;
2.400666666666667E+009;1.703056097030640E-001;3.752284869551659E-002;-2.992321969941258E-004;1.793032512068749E-003;
2.400833333333334E+009;1.705845892429352E-001;3.667501360177994E-002;-2.462367119733244E-004;1.875011832453311E-003;
2.401000000000000E+009;1.710477769374847E-001;3.588636964559555E-002;-2.554041275288910E-004;1.852576620876789E-003;
2.401166666666667E+009;1.713286340236664E-001;3.490309417247772E-002;-3.427152114454657E-004;2.012478187680244E-003;
2.401333333333334E+009;1.714434474706650E-001;3.404253721237183E-002;-4.276268882676959E-004;2.190546831116080E-003;
2.401500000000000E+009;1.717373579740524E-001;3.336420655250549E-002;-6.001999136060476E-004;2.113661728799343E-003;
2.401666666666667E+009;1.718095839023590E-001;3.247788920998573E-002;-4.170189495198429E-004;2.280149608850479E-003;
2.401833333333334E+009;1.720370203256607E-001;3.158969059586525E-002;-3.618001355789602E-004;2.225767588242889E-003;
2.402000000000000E+009;1.719826906919479E-001;3.076022118330002E-002;-2.038619131781161E-004;2.411046996712685E-003;
2.402166666666667E+009;1.720163971185684E-001;2.952797710895538E-002;-3.416240215301514E-004;2.456431044265628E-003;
2.402333333333334E+009;1.719293445348740E-001;2.883758395910263E-002;-1.606434379937127E-004;2.591189229860902E-003;
2.402500000000000E+009;1.723085790872574E-001;2.803109399974346E-002;-2.577683771960437E-004;2.712479326874018E-003;
2.402666666666667E+009;1.720717549324036E-001;2.708590216934681E-002;-1.611599727766588E-004;2.811994636431336E-003;
2.402833333333334E+009;1.722355931997299E-001;2.616314962506294E-002;-3.303988705738448E-005;2.999601885676384E-003;
2.403000000000000E+009;1.721105128526688E-001;2.503133751451969E-002;2.772190237010364E-005;3.176294500008225E-003;
2.403166666666667E+009;1.720920652151108E-001;2.393057942390442E-002;1.959492365131155E-004;3.403495298698545E-003;
2.403333333333334E+009;1.718632280826569E-001;2.306812256574631E-002;4.451433196663857E-004;3.571278648450971E-003;
2.403500000000000E+009;1.717516779899597E-001;2.169905044138432E-002;6.821990245953202E-004;3.588115563616157E-003;
2.403666666666667E+009;1.716887354850769E-001;2.050831727683544E-002;8.823979878798127E-004;3.540641162544489E-003;
2.403833333333334E+009;1.717310100793839E-001;1.931339129805565E-002;9.876755066215992E-004;3.558824537321925E-003;
2.404000000000000E+009;1.713211536407471E-001;1.799509115517139E-002;1.273057772777975E-003;3.795358585193753E-003;
2.404166666666667E+009;1.712256520986557E-001;1.665871404111385E-002;1.812450820580125E-003;3.819155273959041E-003;
2.404333333333334E+009;1.711094230413437E-001;1.558781415224075E-002;1.853816094808281E-003;3.839225741103292E-003;
2.404500000000000E+009;1.708516776561737E-001;1.409649010747671E-002;2.196163404732943E-003;3.723476082086563E-003;
2.404666666666667E+009;1.707859486341476E-001;1.270097587257624E-002;2.408939180895686E-003;3.716605016961694E-003;
2.404833333333334E+009;1.706387549638748E-001;1.138807088136673E-002;2.795695094391704E-003;3.544760402292013E-003;
2.405000000000000E+009;1.706314235925674E-001;9.724804200232029E-003;2.964149462059140E-003;3.456222824752331E-003;
2.405166666666667E+009;1.704496592283249E-001;8.249262347817421E-003;3.275724593549967E-003;3.256615018472076E-003;
2.405333333333334E+009;1.705474257469177E-001;6.595104467123747E-003;3.643168369308114E-003;3.164372406899929E-003;
2.405500000000000E+009;1.704720854759216E-001;5.205672699958086E-003;3.842140547931194E-003;3.019739175215364E-003;
2.405666666666667E+009;1.703621447086334E-001;3.516178112477064E-003;4.149244166910648E-003;2.713692840188742E-003;
2.405833333333334E+009;1.701409369707108E-001;1.984477508813143E-003;4.298354964703322E-003;2.314698882400990E-003;
2.406000000000000E+009;1.700736582279205E-001;5.932838394073770E-005;4.353270400315523E-003;2.140510827302933E-003;
2.406166666666667E+009;1.697829514741898E-001;-1.174833509139717E-003;4.542453680187464E-003;1.630186801776290E-003;
2.406333333333334E+009;1.697649359703064E-001;-2.923346590250731E-003;4.665084648877382E-003;1.404242357239127E-003;
2.406500000000000E+009;1.695482730865479E-001;-4.576454870402813E-003;4.566422197967768E-003;9.569420362822712E-004;
2.406666666666667E+009;1.692848652601242E-001;-6.008099298924208E-003;4.781835712492466E-003;5.993954255245626E-004;
2.406833333333334E+009;1.691549420356751E-001;-7.674481719732285E-003;4.678246565163136E-003;3.997389285359532E-004;
2.407000000000000E+009;1.689501553773880E-001;-9.213747456669807E-003;4.451100248843432E-003;-6.378699617926031E-005;
2.407166666666667E+009;1.689299046993256E-001;-1.058089639991522E-002;4.260062705725431E-003;-9.968164522433654E-005;
2.407333333333334E+009;1.685694903135300E-001;-1.214076112955809E-002;4.225816577672958E-003;-3.824825398623943E-004;
2.407500000000000E+009;1.683692783117294E-001;-1.334553398191929E-002;3.951088991016150E-003;-6.076035788282752E-004;
2.407666666666667E+009;1.683947294950485E-001;-1.454828400164843E-002;3.794602584093809E-003;-9.103835327550769E-004;
2.407833333333334E+009;1.680088639259338E-001;-1.590432412922382E-002;3.599411109462380E-003;-1.034318469464779E-003;
2.408000000000000E+009;1.679741591215134E-001;-1.695214770734310E-002;3.468535142019391E-003;-1.020944328047335E-003;
2.408166666666667E+009;1.679187715053558E-001;-1.785783097147942E-002;3.385995281860232E-003;-1.281691598705947E-003;
2.408333333333334E+009;1.680246591567993E-001;-1.898889057338238E-002;3.335889661684632E-003;-1.366331940516830E-003;
2.408500000000000E+009;1.680596172809601E-001;-1.992177963256836E-002;3.169767325744033E-003;-1.542338752187789E-003;
2.408666666666667E+009;1.680438667535782E-001;-2.077201008796692E-002;3.051698673516512E-003;-1.502185361459851E-003;
2.408833333333334E+009;1.681191921234131E-001;-2.182347699999809E-002;3.006111597642303E-003;-1.733722514472902E-003;
2.409000000000000E+009;1.683845520019531E-001;-2.270734868943691E-002;2.767624100670219E-003;-1.827939180657268E-003;
2.409166666666667E+009;1.684843152761459E-001;-2.366841956973076E-002;2.621915889903903E-003;-1.808664179407060E-003;
2.409333333333334E+009;1.688227951526642E-001;-2.445808611810207E-002;2.407265827059746E-003;-1.907943515107036E-003;
2.409500000000000E+009;1.689527183771133E-001;-2.547579072415829E-002;2.193982712924480E-003;-1.940718502737582E-003;
2.409666666666667E+009;1.691188216209412E-001;-2.630808204412460E-002;2.175940666347742E-003;-2.011923817917705E-003;
2.409833333333334E+009;1.691094338893890E-001;-2.704515308141708E-002;1.896237256005406E-003;-2.001304645091295E-003;
2.410000000000000E+009;1.694415062665939E-001;-2.778415009379387E-002;1.638986053876579E-003;-1.967471558600664E-003;
2.410166666666667E+009;1.694827377796173E-001;-2.903525345027447E-002;1.486249617300928E-003;-1.879011746495962E-003;
2.410333333333334E+009;1.694393008947372E-001;-2.993190661072731E-002;1.367262098938227E-003;-1.826877589337528E-003;
2.410500000000000E+009;1.696789562702179E-001;-3.069298528134823E-002;1.230746274814010E-003;-1.764681772328913E-003;
2.410666666666667E+009;1.695116460323334E-001;-3.169730305671692E-002;9.883224265649915E-004;-1.547169755212963E-003;
2.410833333333334E+009;1.694863289594650E-001;-3.237156569957733E-002;9.958827868103981E-004;-1.438470790162683E-003;
2.411000000000000E+009;1.693515330553055E-001;-3.337841480970383E-002;9.466082556173205E-004;-1.267223269678652E-003;
2.411166666666667E+009;1.692944467067719E-001;-3.426364064216614E-002;1.132016186602414E-003;-1.199575257487595E-003;
2.411333333333334E+009;1.692908704280853E-001;-3.516672924160957E-002;1.061749295331538E-003;-9.970958344638348E-004;
2.411500000000000E+009;1.690322160720825E-001;-3.611137345433235E-002;1.118870102800429E-003;-8.660642779432237E-004;
2.411666666666667E+009;1.688122302293778E-001;-3.687811270356178E-002;1.157004851847887E-003;-8.860005182214081E-004;
2.411833333333334E+009;1.686059534549713E-001;-3.747953474521637E-002;1.331517240032554E-003;-8.413224131800234E-004;
2.412000000000000E+009;1.685531884431839E-001;-3.862090781331062E-002;1.408734591677785E-003;-8.210277301259339E-004;
2.412166666666667E+009;1.682116687297821E-001;-3.936262801289558E-002;1.396205858327448E-003;-8.259855676442385E-004;
2.412333333333334E+009;1.680779606103897E-001;-4.031468555331230E-002;1.656615291722119E-003;-8.531118510290980E-004;
2.412500000000000E+009;1.674784570932388E-001;-4.110170155763626E-002;1.767909969203174E-003;-9.177803876809776E-004;
2.412666666666667E+009;1.672152876853943E-001;-4.238131642341614E-002;1.685444382019341E-003;-1.104825059883297E-003;
2.412833333333334E+009;1.668763458728790E-001;-4.299672320485115E-002;1.808849629014731E-003;-9.940067538991571E-004;
2.413000000000000E+009;1.664505451917648E-001;-4.408043250441551E-002;1.877466449514031E-003;-1.184608903713524E-003;
2.413166666666667E+009;1.660316288471222E-001;-4.493143409490585E-002;1.884253579191864E-003;-1.340094837360084E-003;
2.413333333333334E+009;1.654368042945862E-001;-4.603638872504234E-002;2.033778466284275E-003;-1.512791030108929E-003;
2.413500000000000E+009;1.650606393814087E-001;-4.702378809452057E-002;1.921567250974476E-003;-1.511466456577182E-003;
2.413666666666667E+009;1.646580696105957E-001;-4.796424508094788E-002;1.972395693883300E-003;-1.719325315207243E-003;
2.413833333333334E+009;1.640245318412781E-001;-4.879127442836762E-002;1.841180608607829E-003;-1.750379800796509E-003;
2.414000000000000E+009;1.633626669645309E-001;-4.978581517934799E-002;1.979338470846415E-003;-1.800038036890328E-003;
2.414166666666667E+009;1.631010323762894E-001;-5.080677196383476E-002;1.857942901551724E-003;-1.887386082671583E-003;
2.414333333333334E+009;1.626468002796173E-001;-5.176351964473724E-002;1.835117465816438E-003;-1.975360559299588E-003;
2.414500000000000E+009;1.624676585197449E-001;-5.254989117383957E-002;1.885624136775732E-003;-2.258248394355178E-003;
2.414666666666667E+009;1.619546860456467E-001;-5.361120402812958E-002;1.786711625754833E-003;-2.348141744732857E-003;
2.414833333333334E+009;1.617359519004822E-001;-5.460936203598976E-002;1.575212809257209E-003;-2.518720459192991E-003;
2.415000000000000E+009;1.615070551633835E-001;-5.566348508000374E-002;1.456121332012117E-003;-2.623322885483503E-003;
2.415166666666667E+009;1.611501574516296E-001;-5.674931034445763E-002;1.401463639922440E-003;-2.532653743401170E-003;
2.415333333333334E+009;1.610447317361832E-001;-5.796084925532341E-002;1.262338715605438E-003;-2.713548950850964E-003;
2.415500000000000E+009;1.607564538717270E-001;-5.901313200592995E-002;1.337842433713377E-003;-2.659892430528998E-003;
2.415666666666667E+009;1.604713052511215E-001;-6.009527668356895E-002;1.126004732213914E-003;-2.730940002948046E-003;
2.415833333333334E+009;1.603462100028992E-001;-6.156439706683159E-002;1.001580501906574E-003;-2.610707655549049E-003;
2.416000000000000E+009;1.600117683410645E-001;-6.271184980869293E-002;9.163153590634465E-004;-2.745828358456492E-003;
2.416166666666667E+009;1.600073426961899E-001;-6.394709646701813E-002;7.453119615092874E-004;-2.861340995877981E-003;
2.416333333333334E+009;1.595861017704010E-001;-6.514032185077667E-002;8.199110743589699E-004;-2.759594004601240E-003;
2.416500000000000E+009;1.592944115400314E-001;-6.639187783002853E-002;7.509746938012540E-004;-2.844426315277815E-003;
2.416666666666667E+009;1.589764058589935E-001;-6.758560240268707E-002;5.895391223020852E-004;-2.924063941463828E-003;
2.416833333333334E+009;1.587016284465790E-001;-6.889208406209946E-002;5.550409550778568E-004;-2.970609813928604E-003;
2.417000000000000E+009;1.581078767776489E-001;-7.014601677656174E-002;4.689561028499156E-004;-3.113792976364493E-003;
2.417166666666667E+009;1.579675376415253E-001;-7.114513963460922E-002;3.736950748134404E-004;-3.259185934439302E-003;
2.417333333333334E+009;1.575473695993424E-001;-7.206418365240097E-002;3.800987033173442E-004;-3.173721022903919E-003;
2.417500000000000E+009;1.572716385126114E-001;-7.337538152933121E-002;3.977711312472820E-004;-3.181038191542029E-003;
2.417666666666667E+009;1.570547074079514E-001;-7.410956174135208E-002;1.613898057257757E-004;-3.317646682262421E-003;
2.417833333333334E+009;1.567255109548569E-001;-7.513637840747833E-002;3.448311326792464E-005;-3.440871369093657E-003;
2.418000000000000E+009;1.565068215131760E-001;-7.621293514966965E-002;-1.654152292758226E-004;-3.567935200408101E-003;
2.418166666666667E+009;1.561709195375443E-001;-7.689850777387619E-002;-3.688591241370887E-004;-3.648503217846155E-003;
2.418333333333334E+009;1.561448276042938E-001;-7.791540026664734E-002;-5.208395305089653E-004;-3.571936162188649E-003;
2.418500000000000E+009;1.557957828044891E-001;-7.868426293134689E-002;-7.847195956856012E-004;-3.681194270029664E-003;
2.418666666666667E+009;1.556574553251267E-001;-7.976322621107101E-002;-9.481163579039276E-004;-3.580179531127214E-003;
2.418833333333334E+009;1.552380919456482E-001;-8.037947863340378E-002;-1.058236695826054E-003;-3.544699400663376E-003;
2.419000000000000E+009;1.549674272537231E-001;-8.112873136997223E-002;-1.209429698064923E-003;-3.541995538398624E-003;
2.419166666666667E+009;1.547603160142899E-001;-8.192190527915955E-002;-1.557529089041054E-003;-3.532327245920897E-003;
2.419333333333334E+009;1.543979495763779E-001;-8.239331096410751E-002;-1.624308526515961E-003;-3.368127858266234E-003;
2.419500000000000E+009;1.541775912046433E-001;-8.321373164653778E-002;-1.656440435908735E-003;-3.433710662648082E-003;
2.419666666666667E+009;1.537752747535706E-001;-8.398412168025971E-002;-2.030622214078903E-003;-3.166878595948219E-003;
2.419833333333334E+009;1.534352153539658E-001;-8.438374102115631E-002;-2.072816016152501E-003;-2.984514925628901E-003;
2.420000000000000E+009;1.532162576913834E-001;-8.502645045518875E-002;-2.303370507434011E-003;-2.975377021357417E-003;
2.420166666666667E+009;1.529430150985718E-001;-8.571526408195496E-002;-2.401931677013636E-003;-2.876560669392347E-003;
2.420333333333334E+009;1.527061462402344E-001;-8.639418333768845E-002;-2.643696963787079E-003;-2.562083769589663E-003;
2.420500000000000E+009;1.524647921323776E-001;-8.692818135023117E-002;-2.569756004959345E-003;-2.518653869628906E-003;
2.420666666666667E+009;1.520842313766480E-001;-8.751842379570007E-002;-2.714303322136402E-003;-2.346055814996362E-003;
2.420833333333334E+009;1.516691446304321E-001;-8.807665854692459E-002;-2.801195718348026E-003;-2.183290431275964E-003;
2.421000000000000E+009;1.513749957084656E-001;-8.869179338216782E-002;-2.730976091697812E-003;-1.884264871478081E-003;
2.421166666666667E+009;1.509733051061630E-001;-8.941723406314850E-002;-2.773721236735582E-003;-1.865867641754448E-003;
2.421333333333334E+009;1.506401002407074E-001;-9.010174125432968E-002;-2.774608787149191E-003;-1.708751660771668E-003;
2.421500000000000E+009;1.500513106584549E-001;-9.068538248538971E-002;-2.764545613899827E-003;-1.470489660277963E-003;
2.421666666666667E+009;1.496931910514832E-001;-9.145436435937882E-002;-2.768361009657383E-003;-1.404091133736074E-003;
2.421833333333334E+009;1.491164714097977E-001;-9.204445779323578E-002;-2.703089499846101E-003;-1.378379412926734E-003;
2.422000000000000E+009;1.483921110630035E-001;-9.280332922935486E-002;-2.651409013196826E-003;-1.214523450471461E-003;
2.422166666666667E+009;1.479560136795044E-001;-9.367749094963074E-002;-2.491133986040950E-003;-1.242369064129889E-003;
2.422333333333334E+009;1.474866271018982E-001;-9.417785704135895E-002;-2.603584202006459E-003;-1.240964862518013E-003;
2.422500000000000E+009;1.466750204563141E-001;-9.487645328044891E-002;-2.435815986245871E-003;-1.347790122963488E-003;
2.422666666666667E+009;1.460042148828507E-001;-9.573788940906525E-002;-2.520873211324215E-003;-1.308410661295056E-003;
2.422833333333334E+009;1.455240249633789E-001;-9.663810580968857E-002;-2.759880619123578E-003;-1.214498421177268E-003;
2.423000000000000E+009;1.447970122098923E-001;-9.736617654561997E-002;-2.722200937569141E-003;-1.233917661011219E-003;
2.423166666666667E+009;1.442620605230331E-001;-9.810731559991837E-002;-2.900690073147416E-003;-1.091193524189293E-003;
2.423333333333334E+009;1.435537338256836E-001;-9.877809882164002E-002;-3.043688368052244E-003;-9.304411360062659E-004;
2.423500000000000E+009;1.428082287311554E-001;-9.975251555442810E-002;-3.198808059096336E-003;-9.048430365510285E-004;
2.423666666666667E+009;1.418947875499725E-001;-1.007621660828590E-001;-3.180779516696930E-003;-1.015752321109176E-003;
2.423833333333334E+009;1.414461135864258E-001;-1.015545576810837E-001;-3.268150147050619E-003;-5.939587135799229E-004;
2.424000000000000E+009;1.405375450849533E-001;-1.024314239621162E-001;-3.532476490363479E-003;-5.885434802621603E-004;
2.424166666666667E+009;1.397354304790497E-001;-1.032922044396401E-001;-3.596657887101173E-003;-4.319619038142264E-004;
2.424333333333334E+009;1.391115784645081E-001;-1.042109057307243E-001;-3.590987063944340E-003;-2.684273931663483E-004;
2.424500000000000E+009;1.385164707899094E-001;-1.052571684122086E-001;-3.552558366209269E-003;-1.031387437251397E-004;
2.424666666666667E+009;1.379356980323792E-001;-1.058680266141892E-001;-3.522760933265090E-003;-1.458329165870964E-006;
2.424833333333334E+009;1.371637731790543E-001;-1.068497374653816E-001;-3.628085833042860E-003;6.093728006817401E-004;
2.425000000000000E+009;1.365672349929810E-001;-1.078086197376251E-001;-3.367302939295769E-003;5.436534993350506E-004;
2.425166666666667E+009;1.358919590711594E-001;-1.088984832167625E-001;-3.604816040024161E-003;8.233734406530857E-004;
2.425333333333334E+009;1.353653222322464E-001;-1.097270995378494E-001;-3.219725331291556E-003;9.541357867419720E-004;
2.425500000000000E+009;1.348137706518173E-001;-1.107045039534569E-001;-3.156228922307491E-003;1.125614973716438E-003;
2.425666666666667E+009;1.341499090194702E-001;-1.116393283009529E-001;-3.216600976884365E-003;1.248845248483121E-003;
2.425833333333334E+009;1.337552219629288E-001;-1.126874834299088E-001;-3.159581450745463E-003;1.430801348760724E-003;
2.426000000000000E+009;1.330836564302445E-001;-1.137761399149895E-001;-2.889516996219754E-003;1.525215338915587E-003;
2.426166666666667E+009;1.328414529561997E-001;-1.146122515201569E-001;-2.611577045172453E-003;1.662964001297951E-003;
2.426333333333334E+009;1.321181207895279E-001;-1.155900880694389E-001;-2.512608421966434E-003;1.785029191523790E-003;
2.426500000000000E+009;1.317738592624664E-001;-1.164402961730957E-001;-2.342349151149392E-003;1.902934978716075E-003;
2.426666666666667E+009;1.315420717000961E-001;-1.172527745366097E-001;-2.232922473922372E-003;1.945351483300328E-003;
2.426833333333334E+009;1.308948695659638E-001;-1.182177364826202E-001;-2.148892963305116E-003;1.780558726750314E-003;
2.427000000000000E+009;1.304953694343567E-001;-1.191383376717567E-001;-1.846524886786938E-003;1.963468734174967E-003;
2.427166666666667E+009;1.301238834857941E-001;-1.197316870093346E-001;-1.826600288040936E-003;1.992088044062257E-003;
2.427333333333334E+009;1.298046410083771E-001;-1.206981465220451E-001;-1.630699611268938E-003;1.923466450534761E-003;
2.427500000000000E+009;1.295984685420990E-001;-1.214026063680649E-001;-1.252233632840216E-003;1.966743264347315E-003;
2.427666666666667E+009;1.291184574365616E-001;-1.221587210893631E-001;-1.328753307461739E-003;1.864615245722234E-003;
