# Version 1.00
#
freq[Hz];re:Trc1_S11;im:Trc1_S11;re:Trc2_S21;im:Trc2_S21;
2.400000000000000E+009;1.553336381912231E-001;1.084600165486336E-001;-3.096723696216941E-003;-4.316019825637341E-003;
2.400166666666667E+009;1.549044400453568E-001;1.060201153159142E-001;-3.333657514303923E-003;-4.319978412240744E-003;
2.400333333333334E+009;1.549720168113709E-001;1.036599799990654E-001;-3.658651839941740E-003;-4.338887054473162E-003;
2.400500000000000E+009;1.547791063785553E-001;1.009155958890915E-001;-3.776022931560874E-003;-4.286580719053745E-003;
2.400666666666667E+009;1.546853482723236E-001;9.838503599166870E-002;-4.037493374198675E-003;-4.042650572955608E-003;
2.400833333333334E+009;1.546165645122528E-001;9.543566405773163E-002;-4.373343661427498E-003;-4.057481884956360E-003;
2.401000000000000E+009;1.548861414194107E-001;9.260172396898270E-002;-4.587549716234207E-003;-3.920280840247870E-003;
2.401166666666667E+009;1.549548059701920E-001;8.973474800586700E-002;-4.738672636449337E-003;-3.773016855120659E-003;
2.401333333333334E+009;1.551238149404526E-001;8.690305054187775E-002;-4.874161910265684E-003;-3.521141130477190E-003;
2.401500000000000E+009;1.553875952959061E-001;8.399276435375214E-002;-4.975851625204086E-003;-3.437472274526954E-003;
2.401666666666667E+009;1.558029055595398E-001;8.112802356481552E-002;-5.188580602407455E-003;-3.213483607396483E-003;
2.401833333333334E+009;1.562982946634293E-001;7.838606089353561E-002;-5.241802427917719E-003;-3.002700395882130E-003;
2.402000000000000E+009;1.570463031530380E-001;7.550574094057083E-002;-5.458919797092676E-003;-2.819187706336379E-003;
2.402166666666667E+009;1.578453183174133E-001;7.300518453121185E-002;-5.591394845396280E-003;-2.705249935388565E-003;
2.402333333333334E+009;1.587308496236801E-001;7.024367898702622E-002;-5.884348414838314E-003;-2.303148852661252E-003;
2.402500000000000E+009;1.597957164049149E-001;6.756080687046051E-002;-5.965338554233313E-003;-2.197675639763475E-003;
2.402666666666667E+009;1.611144840717316E-001;6.507242470979691E-002;-6.082669366151094E-003;-2.020751358941197E-003;
2.402833333333334E+009;1.620271503925324E-001;6.264951825141907E-002;-6.152621470391750E-003;-1.797144068405032E-003;
2.403000000000000E+009;1.638220995664597E-001;6.024214625358582E-002;-6.289161276072264E-003;-1.563750207424164E-003;
2.403166666666667E+009;1.656631678342819E-001;5.796247720718384E-002;-6.333351135253906E-003;-1.184616936370730E-003;
2.403333333333334E+009;1.670008152723312E-001;5.568325892090797E-002;-6.365983281284571E-003;-1.028363825753331E-003;
2.403500000000000E+009;1.688727885484695E-001;5.358010157942772E-002;-6.538183894008398E-003;-6.831720238551498E-004;
2.403666666666667E+009;1.705076694488525E-001;5.155033618211746E-002;-6.659960374236107E-003;-3.563440986908972E-004;
2.403833333333334E+009;1.721388697624207E-001;4.971183463931084E-002;-6.653174292296171E-003;-1.858379255281761E-005;
2.404000000000000E+009;1.739183515310288E-001;4.786941036581993E-002;-6.630144547671080E-003;2.673333510756493E-004;
2.404166666666667E+009;1.756703257560730E-001;4.630604013800621E-002;-6.843183655291796E-003;5.433171172626317E-004;
2.404333333333334E+009;1.774571835994721E-001;4.473880305886269E-002;-6.569691468030214E-003;8.558803820051253E-004;
2.404500000000000E+009;1.792144328355789E-001;4.317537322640419E-002;-6.585249211639166E-003;1.237914781086147E-003;
2.404666666666667E+009;1.809292584657669E-001;4.225823283195496E-002;-6.369797047227621E-003;1.625542994588614E-003;
2.404833333333334E+009;1.826159656047821E-001;4.093281552195549E-002;-6.205967161804438E-003;1.726826536469162E-003;
2.405000000000000E+009;1.840917915105820E-001;4.038317501544952E-002;-6.209866143763065E-003;1.999373780563474E-003;
2.405166666666667E+009;1.856187433004379E-001;3.971955180168152E-002;-5.871867295354605E-003;2.277945401147008E-003;
2.405333333333334E+009;1.869848966598511E-001;3.917606547474861E-002;-5.888207815587521E-003;2.490299521014094E-003;
2.405500000000000E+009;1.884064674377441E-001;3.870137035846710E-002;-5.623701028525829E-003;2.720725256949663E-003;
2.405666666666667E+009;1.897014230489731E-001;3.834475204348564E-002;-5.585809238255024E-003;2.855116967111826E-003;
2.405833333333334E+009;1.909313052892685E-001;3.836878761649132E-002;-5.315197166055441E-003;3.160447580739856E-003;
2.406000000000000E+009;1.921371519565582E-001;3.821238875389099E-002;-5.046468228101730E-003;3.149770665913820E-003;
2.406166666666667E+009;1.931345760822296E-001;3.812959790229797E-002;-5.024209618568420E-003;3.645989811047912E-003;
2.406333333333334E+009;1.941955238580704E-001;3.813911974430084E-002;-4.781480412930250E-003;3.622234333306551E-003;
2.406500000000000E+009;1.949308812618256E-001;3.829877451062203E-002;-4.505669232457876E-003;3.716722829267383E-003;
2.406666666666667E+009;1.956359297037125E-001;3.835496678948402E-002;-4.503832664340735E-003;4.055024590343237E-003;
2.406833333333334E+009;1.962688416242600E-001;3.855655714869499E-002;-4.003027919679880E-003;3.810752416029573E-003;
2.407000000000000E+009;1.966387629508972E-001;3.899630531668663E-002;-3.830701345577836E-003;3.918234258890152E-003;
2.407166666666667E+009;1.970110386610031E-001;3.874439746141434E-002;-3.743674373254180E-003;4.059372935444117E-003;
2.407333333333334E+009;1.970448046922684E-001;3.934657201170921E-002;-3.538116579875350E-003;4.072090610861778E-003;
2.407500000000000E+009;1.970145851373673E-001;3.926676139235497E-002;-3.283045487478375E-003;4.038743209093809E-003;
2.407666666666667E+009;1.969884783029556E-001;3.947810456156731E-002;-3.207268891856074E-003;4.235363565385342E-003;
2.407833333333334E+009;1.966568380594254E-001;3.935190662741661E-002;-2.844413509592414E-003;4.024170804768801E-003;
2.408000000000000E+009;1.967636495828629E-001;3.974478319287300E-002;-3.000423545017839E-003;4.586223512887955E-003;
2.408166666666667E+009;1.960208714008331E-001;3.896377608180046E-002;-2.318895421922207E-003;3.854598151519895E-003;
2.408333333333334E+009;1.956774145364761E-001;3.885013237595558E-002;-2.526512602344155E-003;3.775966819375753E-003;
2.408500000000000E+009;1.951403766870499E-001;3.855141252279282E-002;-1.915825414471328E-003;4.549785982817411E-003;
2.408666666666667E+009;1.943468302488327E-001;3.830362856388092E-002;-2.344494452700019E-003;4.187524784356356E-003;
2.408833333333334E+009;1.934892237186432E-001;3.741882368922234E-002;-2.153065754100680E-003;3.717934247106314E-003;
2.409000000000000E+009;1.925947219133377E-001;3.655335679650307E-002;-2.100519835948944E-003;3.679467132315040E-003;
2.409166666666667E+009;1.918758749961853E-001;3.599302470684052E-002;-1.874735578894615E-003;4.155826754868031E-003;
2.409333333333334E+009;1.908098310232163E-001;3.489645570516586E-002;-1.648569712415338E-003;3.906436264514923E-003;
2.409500000000000E+009;1.896579116582871E-001;3.375220298767090E-002;-1.777409226633608E-003;4.040755797177553E-003;
2.409666666666667E+009;1.886935234069824E-001;3.244747966527939E-002;-1.819701283238828E-003;3.931537270545960E-003;
2.409833333333334E+009;1.874484568834305E-001;3.108146227896214E-002;-1.765951281413436E-003;3.911077510565519E-003;
2.410000000000000E+009;1.865238100290299E-001;2.941952832043171E-002;-1.679075532592833E-003;3.791594179347158E-003;
2.410166666666667E+009;1.852859407663345E-001;2.763391286134720E-002;-1.548672793433070E-003;3.935682121664286E-003;
2.410333333333334E+009;1.843537539243698E-001;2.589135989546776E-002;-1.678620697930455E-003;3.837380558252335E-003;
2.410500000000000E+009;1.833499372005463E-001;2.397814579308033E-002;-1.475589466281235E-003;3.841534256935120E-003;
2.410666666666667E+009;1.824639439582825E-001;2.172812074422836E-002;-1.556465285830200E-003;3.755118697881699E-003;
2.410833333333334E+009;1.817945390939713E-001;1.954239420592785E-002;-1.580105279572308E-003;3.826988395303488E-003;
2.411000000000000E+009;1.810650229454041E-001;1.746741309762001E-002;-1.383996335789561E-003;3.866826649755240E-003;
2.411166666666667E+009;1.802517175674439E-001;1.497227791696787E-002;-1.405221177265048E-003;3.971214871853590E-003;
2.411333333333334E+009;1.797474771738052E-001;1.247660163789988E-002;-1.359179033897817E-003;3.994169645011425E-003;
2.411500000000000E+009;1.792626082897186E-001;1.017170958220959E-002;-1.368961413390935E-003;3.912750165909529E-003;
2.411666666666667E+009;1.790181696414948E-001;7.685816846787930E-003;-1.333328313194215E-003;4.074333235621452E-003;
2.411833333333334E+009;1.786336898803711E-001;5.325013305991888E-003;-1.128418371081352E-003;4.013294819742441E-003;
2.412000000000000E+009;1.787878274917603E-001;2.705226186662912E-003;-1.256871386431158E-003;4.132052417844534E-003;
2.412166666666667E+009;1.789363473653793E-001;3.898539289366454E-004;-1.249282853677869E-003;4.072437528520823E-003;
2.412333333333334E+009;1.790434867143631E-001;-2.268621232360601E-003;-1.228591427206993E-003;4.127932246774435E-003;
2.412500000000000E+009;1.796218752861023E-001;-4.827017430216074E-003;-1.112479250878096E-003;4.123217426240444E-003;
2.412666666666667E+009;1.799466758966446E-001;-7.201714906841517E-003;-1.133677316829562E-003;4.415163770318031E-003;
2.412833333333334E+009;1.806942075490952E-001;-9.841455146670342E-003;-1.075962907634676E-003;4.404281731694937E-003;
2.413000000000000E+009;1.814869195222855E-001;-1.225323881953955E-002;-1.070163329131901E-003;4.479761235415936E-003;
2.413166666666667E+009;1.822758615016937E-001;-1.444879360496998E-002;-9.894027607515454E-004;4.675054922699928E-003;
2.413333333333334E+009;1.835575699806213E-001;-1.703786477446556E-002;-9.430238278582692E-004;4.882053006440401E-003;
2.413500000000000E+009;1.843957602977753E-001;-1.938177831470966E-002;-7.502135122194886E-004;4.988110158592463E-003;
2.413666666666667E+009;1.855801492929459E-001;-2.165833674371243E-002;-7.942158845253289E-004;5.115054547786713E-003;
2.413833333333334E+009;1.868792772293091E-001;-2.362857200205326E-002;-6.585967494174838E-004;5.187982693314552E-003;
2.414000000000000E+009;1.879108250141144E-001;-2.585733681917191E-002;-4.598365048877895E-004;5.346228834241629E-003;
2.414166666666667E+009;1.892868876457214E-001;-2.760353498160839E-002;-2.915038203354925E-004;5.397784989327192E-003;
2.414333333333334E+009;1.905385106801987E-001;-2.972511388361454E-002;-6.687176937703043E-005;5.491762422025204E-003;
2.414500000000000E+009;1.918593496084213E-001;-3.117047436535358E-002;1.900434872368351E-004;5.696780048310757E-003;
2.414666666666667E+009;1.928545087575913E-001;-3.274121508002281E-002;5.475659854710102E-004;5.802311934530735E-003;
2.414833333333334E+009;1.943801492452622E-001;-3.419592976570129E-002;6.449260981753469E-004;5.807487759739161E-003;
2.415000000000000E+009;1.955667287111282E-001;-3.559464216232300E-002;9.394644876010716E-004;5.860026925802231E-003;
2.415166666666667E+009;1.968250870704651E-001;-3.676556050777435E-002;1.218099263496697E-003;5.841931793838739E-003;
2.415333333333334E+009;1.980247646570206E-001;-3.773277252912521E-002;1.406908035278320E-003;5.965986289083958E-003;
2.415500000000000E+009;1.992401033639908E-001;-3.846118971705437E-002;1.690777484327555E-003;5.762567743659020E-003;
2.415666666666667E+009;2.004058808088303E-001;-3.940059244632721E-002;2.043334534391761E-003;5.941110197454691E-003;
2.415833333333334E+009;2.013817131519318E-001;-4.009912163019180E-002;2.114569535478950E-003;5.799014121294022E-003;
2.416000000000000E+009;2.021292299032211E-001;-4.057808220386505E-002;2.472415100783110E-003;5.839482881128788E-003;
2.416166666666667E+009;2.028915137052536E-001;-4.120932891964912E-002;2.802064176648855E-003;5.736408755183220E-003;
2.416333333333334E+009;2.036625444889069E-001;-4.150886461138725E-002;3.174621379002929E-003;5.796081386506558E-003;
2.416500000000000E+009;2.042792886495590E-001;-4.180973023176193E-002;3.339050803333521E-003;5.542620085179806E-003;
2.416666666666667E+009;2.044919729232788E-001;-4.205184429883957E-002;3.779704216867685E-003;5.557995289564133E-003;
2.416833333333334E+009;2.047176659107208E-001;-4.216033220291138E-002;3.818225348368287E-003;5.386369768530130E-003;
2.417000000000000E+009;2.048956304788590E-001;-4.230999574065208E-002;4.163761623203754E-003;5.155745428055525E-003;
2.417166666666667E+009;2.046671211719513E-001;-4.203873872756958E-002;4.438983276486397E-003;4.977453034371138E-003;
2.417333333333334E+009;2.044536173343658E-001;-4.184893518686295E-002;4.688573535531759E-003;4.806833807379007E-003;
2.417500000000000E+009;2.041421830654144E-001;-4.187050089240074E-002;4.820186644792557E-003;4.527394194155932E-003;
2.417666666666667E+009;2.036945372819901E-001;-4.148604348301888E-002;4.885769449174404E-003;4.117284901440144E-003;
2.417833333333334E+009;2.033577859401703E-001;-4.119362682104111E-002;5.202076863497496E-003;3.982347436249256E-003;
2.418000000000000E+009;2.025548517704010E-001;-4.092856496572495E-002;5.299056880176067E-003;3.874788526445627E-003;
2.418166666666667E+009;2.017296403646469E-001;-4.087636992335320E-002;5.382746458053589E-003;3.565302118659020E-003;
2.418333333333334E+009;2.008630186319351E-001;-4.055741056799889E-002;5.441955290734768E-003;3.379240632057190E-003;
2.418500000000000E+009;1.997675448656082E-001;-4.047454521059990E-002;5.511150695383549E-003;3.139248816296458E-003;
2.418666666666667E+009;1.988575458526611E-001;-4.035634174942970E-002;5.447220522910357E-003;2.925268141552806E-003;
2.418833333333334E+009;1.975643634796143E-001;-4.054871201515198E-002;5.561720114201307E-003;2.819999121129513E-003;
2.419000000000000E+009;1.961777061223984E-001;-4.060526192188263E-002;5.383014678955078E-003;2.704884158447385E-003;
2.419166666666667E+009;1.948939412832260E-001;-4.082812368869782E-002;5.742133129388094E-003;2.380980644375086E-003;
2.419333333333334E+009;1.934392154216766E-001;-4.139057174324989E-002;5.827003158628941E-003;2.292014425620437E-003;
2.419500000000000E+009;1.917576342821121E-001;-4.153414443135262E-002;5.744497757405043E-003;2.125355182215571E-003;
2.419666666666667E+009;1.901415884494782E-001;-4.238597303628922E-002;5.846557207405567E-003;1.962651964277029E-003;
2.419833333333334E+009;1.885338574647903E-001;-4.328910633921623E-002;5.840215831995010E-003;1.692497753538191E-003;
2.420000000000000E+009;1.870041489601135E-001;-4.392076283693314E-002;6.004765164107084E-003;1.626848592422903E-003;
2.420166666666667E+009;1.851238608360291E-001;-4.482538998126984E-002;5.966967903077602E-003;1.568432082422078E-003;
2.420333333333334E+009;1.835276633501053E-001;-4.616151750087738E-002;6.027855910360813E-003;1.310817431658506E-003;
2.420500000000000E+009;1.819351613521576E-001;-4.748171195387840E-002;6.051182281225920E-003;1.155506703071296E-003;
2.420666666666667E+009;1.801728755235672E-001;-4.849828034639359E-002;5.994154606014490E-003;8.868574514053762E-004;
2.420833333333334E+009;1.783325225114822E-001;-5.015724152326584E-002;6.178487557917833E-003;5.942206480540335E-004;
2.421000000000000E+009;1.767901182174683E-001;-5.163072049617767E-002;6.150912493467331E-003;4.066650290042162E-004;
2.421166666666667E+009;1.753723919391632E-001;-5.333362519741058E-002;6.265010684728622E-003;2.949677582364529E-004;
2.421333333333334E+009;1.734848469495773E-001;-5.485804006457329E-002;6.200145464390516E-003;-1.711569348117337E-005;
2.421500000000000E+009;1.722328215837479E-001;-5.698172748088837E-002;6.324618589133024E-003;-3.076930297538638E-004;
2.421666666666667E+009;1.709738671779633E-001;-5.882929265499115E-002;6.117260083556175E-003;-4.603286506608129E-004;
2.421833333333334E+009;1.697248369455338E-001;-6.063603237271309E-002;6.188786588609219E-003;-6.400488782674074E-004;
2.422000000000000E+009;1.685951501131058E-001;-6.262554973363876E-002;6.157261785119772E-003;-9.961895411834121E-004;
2.422166666666667E+009;1.676627099514008E-001;-6.490278989076614E-002;5.962792783975601E-003;-1.186420442536473E-003;
2.422333333333334E+009;1.666398495435715E-001;-6.704568862915039E-002;5.985528696328402E-003;-1.543960301205516E-003;
2.422500000000000E+009;1.658699065446854E-001;-6.892058253288269E-002;5.967605859041214E-003;-1.571691478602588E-003;
2.422666666666667E+009;1.650300920009613E-001;-7.126118987798691E-002;5.788876209408045E-003;-1.790491398423910E-003;
2.422833333333334E+009;1.645772159099579E-001;-7.338523864746094E-002;5.698421970009804E-003;-2.085541607812047E-003;
2.423000000000000E+009;1.640861928462982E-001;-7.551953941583633E-002;5.409572739154100E-003;-2.074064686894417E-003;
2.423166666666667E+009;1.636921912431717E-001;-7.759183645248413E-002;5.332424305379391E-003;-2.341182902455330E-003;
2.423333333333334E+009;1.636777222156525E-001;-7.985877245664597E-002;5.216832738369703E-003;-2.612811978906393E-003;
2.423500000000000E+009;1.634656041860580E-001;-8.159138262271881E-002;5.008630920201540E-003;-2.515021711587906E-003;
2.423666666666667E+009;1.635371446609497E-001;-8.369369804859161E-002;4.924097564071417E-003;-2.879496430978179E-003;
2.423833333333334E+009;1.633961051702499E-001;-8.558990806341171E-002;4.725417122244835E-003;-2.931163879111409E-003;
2.424000000000000E+009;1.638004779815674E-001;-8.740574121475220E-002;4.676959011703730E-003;-3.198914462700486E-003;
2.424166666666667E+009;1.639374345541000E-001;-8.918526023626328E-002;4.413776099681854E-003;-3.246490610763431E-003;
2.424333333333334E+009;1.641391366720200E-001;-9.085798263549805E-002;4.394293762743473E-003;-3.340617753565311E-003;
2.424500000000000E+009;1.646147966384888E-001;-9.261624515056610E-002;4.232699051499367E-003;-3.447394119575620E-003;
2.424666666666667E+009;1.649383008480072E-001;-9.402699023485184E-002;4.033683333545923E-003;-3.432543482631445E-003;
2.424833333333334E+009;1.655797213315964E-001;-9.549520164728165E-002;3.905528690665960E-003;-3.757125698029995E-003;
2.425000000000000E+009;1.659526079893112E-001;-9.680488705635071E-002;3.752792952582240E-003;-3.490272443741560E-003;
2.425166666666667E+009;1.663688719272614E-001;-9.795616567134857E-002;3.628931473940611E-003;-3.644783282652497E-003;
2.425333333333334E+009;1.668318361043930E-001;-9.900587797164917E-002;3.488783724606037E-003;-3.634750843048096E-003;
2.425500000000000E+009;1.673295199871063E-001;-1.000541523098946E-001;3.330684266984463E-003;-3.724096342921257E-003;
2.425666666666667E+009;1.679337769746780E-001;-1.008141860365868E-001;3.211245872080326E-003;-3.877796698361635E-003;
2.425833333333334E+009;1.683358103036881E-001;-1.016477271914482E-001;3.155619837343693E-003;-3.882969729602337E-003;
2.426000000000000E+009;1.688574105501175E-001;-1.021094694733620E-001;2.938964869827032E-003;-4.005279392004013E-003;
2.426166666666667E+009;1.693571060895920E-001;-1.026769727468491E-001;2.885531634092331E-003;-3.963351715356112E-003;
2.426333333333334E+009;1.695986688137054E-001;-1.031161099672318E-001;2.816920168697834E-003;-3.987726289778948E-003;
2.426500000000000E+009;1.700981259346008E-001;-1.033774092793465E-001;2.721722004935145E-003;-4.011060576885939E-003;
2.426666666666667E+009;1.703856587409973E-001;-1.036967635154724E-001;2.551250625401735E-003;-4.186899401247501E-003;
2.426833333333334E+009;1.708043515682221E-001;-1.039756461977959E-001;2.492310712113977E-003;-4.118366632610560E-003;
2.427000000000000E+009;1.708308160305023E-001;-1.041123643517494E-001;2.372608287259936E-003;-4.125639330595732E-003;
2.427166666666667E+009;1.710038483142853E-001;-1.041900217533112E-001;2.341460902243853E-003;-4.227273631840944E-003;
2.427333333333334E+009;1.709451973438263E-001;-1.043224260210991E-001;2.073069335892797E-003;-4.352581221610308E-003;
2.427500000000000E+009;1.707355231046677E-001;-1.045724302530289E-001;2.110037021338940E-003;-4.358433652669191E-003;
2.427666666666667E+009;1.705679297447205E-001;-1.045182794332504E-001;1.904421253129840E-003;-4.277975764125586E-003;
2.427833333333334E+009;1.702780276536942E-001;-1.044700145721436E-001;1.828145119361579E-003;-4.457861650735140E-003;
