# Version 1.00
#
freq[Hz];re:Trc1_S11;im:Trc1_S11;re:Trc2_S21;im:Trc2_S21;
2.400000000000000E+009;1.685520857572556E-001;4.659698158502579E-002;-7.394565618596971E-004;2.168535254895687E-003;
2.400166666666667E+009;1.698569953441620E-001;4.571714252233505E-002;-9.495623526163399E-004;2.198265865445137E-003;
2.400333333333334E+009;1.707287430763245E-001;4.431753605604172E-002;-8.286883821710944E-004;1.979763386771083E-003;
2.400500000000000E+009;1.717359721660614E-001;4.342142120003700E-002;-8.879309170879424E-004;2.109343418851495E-003;
2.400666666666667E+009;1.725430786609650E-001;4.235293716192246E-002;-9.228082490153611E-004;2.211671788245440E-003;
2.400833333333334E+009;1.733693927526474E-001;4.174655303359032E-002;-1.031461637467146E-003;2.211878541857004E-003;
2.401000000000000E+009;1.742656230926514E-001;4.104996472597122E-002;-1.096319872885943E-003;2.218666486442089E-003;
2.401166666666667E+009;1.750289797782898E-001;4.012633860111237E-002;-1.220649806782603E-003;2.302499255165458E-003;
2.401333333333334E+009;1.755550801753998E-001;3.946343064308167E-002;-1.433237805031240E-003;2.446503145620227E-003;
2.401500000000000E+009;1.765582412481308E-001;3.871790319681168E-002;-1.296043163165450E-003;2.444407204166055E-003;
2.401666666666667E+009;1.769945472478867E-001;3.833844885230064E-002;-1.404870767146349E-003;2.610562834888697E-003;
2.401833333333334E+009;1.776658892631531E-001;3.769431635737419E-002;-1.449032337404788E-003;2.878152765333653E-003;
2.402000000000000E+009;1.779880821704865E-001;3.710374236106873E-002;-1.409334829077125E-003;3.017523325979710E-003;
2.402166666666667E+009;1.784888207912445E-001;3.646402060985565E-002;-1.309771439991891E-003;3.212681971490383E-003;
2.402333333333334E+009;1.787909120321274E-001;3.597748279571533E-002;-1.360671594738960E-003;3.471239237114787E-003;
2.402500000000000E+009;1.792511045932770E-001;3.533291816711426E-002;-1.110888784751296E-003;3.781035309657455E-003;
2.402666666666667E+009;1.792797595262528E-001;3.482469171285629E-002;-1.273375470191240E-003;3.819278907030821E-003;
2.402833333333334E+009;1.795210093259811E-001;3.410093486309052E-002;-1.025109086185694E-003;4.029693547636271E-003;
2.403000000000000E+009;1.796164959669113E-001;3.323275223374367E-002;-8.781520300544798E-004;4.206376615911722E-003;
2.403166666666667E+009;1.795693188905716E-001;3.253690898418427E-002;-8.603467722423375E-004;4.299158696085215E-003;
2.403333333333334E+009;1.794010549783707E-001;3.164891153573990E-002;-8.703476632945240E-004;4.482481162995100E-003;
2.403500000000000E+009;1.793683767318726E-001;3.084214404225349E-002;-4.234036896377802E-004;4.816818516701460E-003;
2.403666666666667E+009;1.791434288024902E-001;2.975807152688503E-002;-6.142911297501996E-005;5.060042720288038E-003;
2.403833333333334E+009;1.789529919624329E-001;2.895426191389561E-002;1.207574459840544E-004;5.058085080236197E-003;
2.404000000000000E+009;1.784256547689438E-001;2.760234661400318E-002;3.935482236556709E-004;5.195378791540861E-003;
2.404166666666667E+009;1.780084222555161E-001;2.632154338061810E-002;5.181859596632421E-004;5.322495009750128E-003;
2.404333333333334E+009;1.777534484863281E-001;2.508968859910965E-002;8.493770146742463E-004;5.472141318023205E-003;
2.404500000000000E+009;1.769436448812485E-001;2.382979914546013E-002;1.325158984400332E-003;5.484323017299175E-003;
2.404666666666667E+009;1.767430454492569E-001;2.229563891887665E-002;1.639888621866703E-003;5.522884428501129E-003;
2.404833333333334E+009;1.762202978134155E-001;2.085104957222939E-002;2.048670547083020E-003;5.495762452483177E-003;
2.405000000000000E+009;1.756930798292160E-001;1.934403926134110E-002;2.422933932393789E-003;5.362375639379025E-003;
2.405166666666667E+009;1.751976907253265E-001;1.777241006493568E-002;2.735920017585158E-003;5.365532822906971E-003;
2.405333333333334E+009;1.748642772436142E-001;1.594028994441032E-002;3.016834147274494E-003;5.408635362982750E-003;
2.405500000000000E+009;1.744256317615509E-001;1.431747619062662E-002;3.329498460516334E-003;5.105242133140564E-003;
2.405666666666667E+009;1.738861948251724E-001;1.264682877808809E-002;3.621480660513043E-003;5.015767179429531E-003;
2.405833333333334E+009;1.736032515764237E-001;1.080978848040104E-002;3.932189662009478E-003;4.944957792758942E-003;
2.406000000000000E+009;1.733858138322830E-001;8.817992173135281E-003;4.189168103039265E-003;4.474131856113672E-003;
2.406166666666667E+009;1.729333251714706E-001;7.000661920756102E-003;4.412873648107052E-003;4.389570094645023E-003;
2.406333333333334E+009;1.728725135326386E-001;4.809458740055561E-003;4.657666664570570E-003;4.009355325251818E-003;
2.406500000000000E+009;1.725341379642487E-001;2.732328139245510E-003;4.868927411735058E-003;4.043855704367161E-003;
2.406666666666667E+009;1.724890321493149E-001;9.240821818821132E-004;5.050452426075935E-003;3.722228808328509E-003;
2.406833333333334E+009;1.725662499666214E-001;-1.211336348205805E-003;5.114886444061995E-003;3.345525357872248E-003;
2.407000000000000E+009;1.726911365985870E-001;-3.381969872862101E-003;5.387952085584402E-003;3.169489325955510E-003;
2.407166666666667E+009;1.727983057498932E-001;-5.555306561291218E-003;5.552587099373341E-003;2.961731515824795E-003;
2.407333333333334E+009;1.728441119194031E-001;-7.723011076450348E-003;5.702308379113674E-003;2.610616851598024E-003;
2.407500000000000E+009;1.730072349309921E-001;-9.785947389900684E-003;5.866768304258585E-003;2.377803903073072E-003;
2.407666666666667E+009;1.733684092760086E-001;-1.177549827843905E-002;6.057576276361942E-003;2.047380665317178E-003;
2.407833333333334E+009;1.735543012619019E-001;-1.402108557522297E-002;6.134863942861557E-003;1.743570435792208E-003;
2.408000000000000E+009;1.738851815462112E-001;-1.599177904427052E-002;6.168088875710964E-003;1.462586107663810E-003;
2.408166666666667E+009;1.742506176233292E-001;-1.788236573338509E-002;6.253024563193321E-003;1.051077386364341E-003;
2.408333333333334E+009;1.747678965330124E-001;-1.992739737033844E-002;6.348778493702412E-003;7.899715565145016E-004;
2.408500000000000E+009;1.752430200576782E-001;-2.190647646784782E-002;6.237574387341738E-003;2.510433550924063E-004;
2.408666666666667E+009;1.756024956703186E-001;-2.367004193365574E-002;6.295812781900168E-003;7.556241325801238E-005;
2.408833333333334E+009;1.758676767349243E-001;-2.540202811360359E-002;6.179666612297297E-003;-1.807631488190964E-004;
2.409000000000000E+009;1.764285564422607E-001;-2.700163051486015E-002;6.239189766347408E-003;-6.162407808005810E-004;
2.409166666666667E+009;1.769478023052216E-001;-2.857194840908051E-002;6.063411477953196E-003;-8.399384678341448E-004;
2.409333333333334E+009;1.775047779083252E-001;-2.987996861338615E-002;5.942262709140778E-003;-1.093314378522337E-003;
2.409500000000000E+009;1.777286529541016E-001;-3.129076957702637E-002;5.743117071688175E-003;-1.205723616294563E-003;
2.409666666666667E+009;1.781294345855713E-001;-3.253440558910370E-002;5.513740237802267E-003;-1.540691009722650E-003;
2.409833333333334E+009;1.787124723196030E-001;-3.363668173551559E-002;5.559004843235016E-003;-1.660533482208848E-003;
2.410000000000000E+009;1.792931109666824E-001;-3.449748456478119E-002;5.354666616767645E-003;-1.896585221402347E-003;
2.410166666666667E+009;1.798803955316544E-001;-3.533244878053665E-002;5.135895218700171E-003;-1.982865622267127E-003;
2.410333333333334E+009;1.799578964710236E-001;-3.618650138378143E-002;5.185196641832590E-003;-2.217202214524150E-003;
2.410500000000000E+009;1.807693094015122E-001;-3.671386465430260E-002;4.937388002872467E-003;-2.405914478003979E-003;
2.410666666666667E+009;1.810092628002167E-001;-3.757835924625397E-002;4.871593322604895E-003;-2.557335421442986E-003;
2.410833333333334E+009;1.813366711139679E-001;-3.807898983359337E-002;4.733310546725988E-003;-2.621871419250965E-003;
2.411000000000000E+009;1.816841661930084E-001;-3.865694254636765E-002;4.576775711029768E-003;-2.918118610978127E-003;
2.411166666666667E+009;1.819145083427429E-001;-3.903501480817795E-002;4.690712317824364E-003;-2.928500995039940E-003;
2.411333333333334E+009;1.820802837610245E-001;-3.959176316857338E-002;4.361227154731751E-003;-3.043162869289517E-003;
2.411500000000000E+009;1.821604222059250E-001;-3.997602686285973E-002;4.343575797975063E-003;-3.084980184212327E-003;
2.411666666666667E+009;1.822723001241684E-001;-4.022767767310143E-002;4.426558967679739E-003;-3.160180291160941E-003;
2.411833333333334E+009;1.821518242359161E-001;-4.064913839101791E-002;4.098013043403626E-003;-3.316750982776284E-003;
2.412000000000000E+009;1.820739060640335E-001;-4.102687910199165E-002;4.122360609471798E-003;-3.584684571251273E-003;
2.412166666666667E+009;1.815658658742905E-001;-4.146979749202728E-002;3.954472485929728E-003;-3.774099517613649E-003;
2.412333333333334E+009;1.815188974142075E-001;-4.160654172301292E-002;3.976556006819010E-003;-3.845297731459141E-003;
2.412500000000000E+009;1.808503419160843E-001;-4.190762713551521E-002;3.790379036217928E-003;-4.041018895804882E-003;
2.412666666666667E+009;1.803447306156158E-001;-4.256052896380425E-002;3.726516617462039E-003;-4.122766666114330E-003;
2.412833333333334E+009;1.796468198299408E-001;-4.266698285937309E-002;3.663600189611316E-003;-4.346722736954689E-003;
2.413000000000000E+009;1.787208765745163E-001;-4.311475157737732E-002;3.497620578855276E-003;-4.504356067627668E-003;
2.413166666666667E+009;1.781246513128281E-001;-4.339083656668663E-002;3.290399909019470E-003;-4.615355748683214E-003;
2.413333333333334E+009;1.768971383571625E-001;-4.393633827567101E-002;3.106344258412719E-003;-4.813682287931442E-003;
2.413500000000000E+009;1.760150939226151E-001;-4.436359927058220E-002;2.860319567844272E-003;-4.969522822648287E-003;
2.413666666666667E+009;1.749963015317917E-001;-4.488991945981979E-002;2.812562743201852E-003;-5.105766467750073E-003;
2.413833333333334E+009;1.738342791795731E-001;-4.555080458521843E-002;2.550527453422546E-003;-5.365588702261448E-003;
2.414000000000000E+009;1.725922077894211E-001;-4.618991166353226E-002;2.361869672313333E-003;-5.519012920558453E-003;
2.414166666666667E+009;1.713681071996689E-001;-4.685090109705925E-002;2.156554022803903E-003;-5.571560002863407E-003;
2.414333333333334E+009;1.701829433441162E-001;-4.779860749840736E-002;1.700186054222286E-003;-5.761792417615652E-003;
2.414500000000000E+009;1.690567582845688E-001;-4.854633659124374E-002;1.389128272421658E-003;-5.932397209107876E-003;
2.414666666666667E+009;1.678170263767242E-001;-4.943480342626572E-002;1.237647957168520E-003;-6.027190014719963E-003;
2.414833333333334E+009;1.664603054523468E-001;-5.058773607015610E-002;9.744737762957811E-004;-5.975959356874228E-003;
2.415000000000000E+009;1.651769876480103E-001;-5.166285112500191E-002;6.587319076061249E-004;-6.096942815929651E-003;
2.415166666666667E+009;1.640782505273819E-001;-5.297125130891800E-002;2.753999433480203E-004;-6.062578409910202E-003;
2.415333333333334E+009;1.629788279533386E-001;-5.433281138539314E-002;2.350375325477216E-005;-6.084177177399397E-003;
2.415500000000000E+009;1.617286801338196E-001;-5.574003607034683E-002;-2.568891213741154E-004;-6.122079677879810E-003;
2.415666666666667E+009;1.604906171560288E-001;-5.717871338129044E-002;-6.332877674140036E-004;-5.948972888290882E-003;
2.415833333333334E+009;1.595400869846344E-001;-5.875090882182121E-002;-8.745093364268541E-004;-5.919305142015219E-003;
2.416000000000000E+009;1.582717895507813E-001;-6.050583347678185E-002;-1.221871585585177E-003;-5.813397001475096E-003;
2.416166666666667E+009;1.574671268463135E-001;-6.222261860966682E-002;-1.435606973245740E-003;-5.787986796349287E-003;
2.416333333333334E+009;1.564994901418686E-001;-6.400153040885925E-002;-1.829476794227958E-003;-5.500831641256809E-003;
2.416500000000000E+009;1.554723083972931E-001;-6.592381745576859E-002;-1.967041986063123E-003;-5.283552221953869E-003;
2.416666666666667E+009;1.545869857072830E-001;-6.784196943044663E-002;-2.139710588380694E-003;-5.074275657534599E-003;
2.416833333333334E+009;1.538822948932648E-001;-6.994058936834335E-002;-2.431446686387062E-003;-5.037595983594656E-003;
2.417000000000000E+009;1.530259400606155E-001;-7.191979885101318E-002;-2.613796386867762E-003;-4.756174515932798E-003;
2.417166666666667E+009;1.523818820714951E-001;-7.377628237009049E-002;-2.711910521611571E-003;-4.731586668640375E-003;
2.417333333333334E+009;1.517495214939117E-001;-7.566832751035690E-002;-2.887063426896930E-003;-4.346298519521952E-003;
2.417500000000000E+009;1.512559354305267E-001;-7.787541300058365E-002;-3.069886704906821E-003;-4.057015758007765E-003;
2.417666666666667E+009;1.509186774492264E-001;-7.968232780694962E-002;-3.058973466977477E-003;-3.748276038095355E-003;
2.417833333333334E+009;1.503819227218628E-001;-8.155566453933716E-002;-3.242684062570334E-003;-3.727268660441041E-003;
2.418000000000000E+009;1.500667482614517E-001;-8.351854234933853E-002;-3.299531759694219E-003;-3.599388524889946E-003;
2.418166666666667E+009;1.496681421995163E-001;-8.517757803201675E-002;-3.267923370003700E-003;-3.201081883162260E-003;
2.418333333333334E+009;1.498770415782929E-001;-8.695451915264130E-002;-3.431163728237152E-003;-2.979290904477239E-003;
2.418500000000000E+009;1.495817601680756E-001;-8.855386078357697E-002;-3.466503694653511E-003;-2.930850256234407E-003;
2.418666666666667E+009;1.496263295412064E-001;-9.011210501194000E-002;-3.441406879574060E-003;-2.885909751057625E-003;
2.418833333333334E+009;1.494232118129730E-001;-9.168504923582077E-002;-3.432451514527202E-003;-2.736923051998019E-003;
2.419000000000000E+009;1.494827419519424E-001;-9.304250031709671E-002;-3.483969951048493E-003;-2.515679690986872E-003;
2.419166666666667E+009;1.495584547519684E-001;-9.435879439115524E-002;-3.607708495110273E-003;-2.278305822983384E-003;
2.419333333333334E+009;1.497526317834854E-001;-9.530539065599442E-002;-3.560377052053809E-003;-2.137121511623263E-003;
2.419500000000000E+009;1.499225348234177E-001;-9.656354784965515E-002;-3.577480325475335E-003;-2.112648915499449E-003;
2.419666666666667E+009;1.502572745084763E-001;-9.749087691307068E-002;-3.709947923198342E-003;-1.963421702384949E-003;
2.419833333333334E+009;1.504279524087906E-001;-9.810890257358551E-002;-3.604653291404247E-003;-1.764956163242459E-003;
2.420000000000000E+009;1.507835090160370E-001;-9.866514056921005E-002;-3.609212581068277E-003;-1.675984705798328E-003;
2.420166666666667E+009;1.510425508022308E-001;-9.933055937290192E-002;-3.802118590101600E-003;-1.511422684416175E-003;
2.420333333333334E+009;1.513489186763763E-001;-9.984551370143890E-002;-3.625359619036317E-003;-1.346532953903079E-003;
2.420500000000000E+009;1.517208814620972E-001;-1.000262722373009E-001;-3.622406395152211E-003;-1.096284482628107E-003;
2.420666666666667E+009;1.520165205001831E-001;-1.001637279987335E-001;-3.599752439185977E-003;-9.155939915217459E-004;
2.420833333333334E+009;1.522111445665360E-001;-1.004075258970261E-001;-3.594042267650366E-003;-8.149242494255304E-004;
2.421000000000000E+009;1.523513942956924E-001;-1.005546301603317E-001;-3.544360632076860E-003;-7.278479752130806E-004;
2.421166666666667E+009;1.527308523654938E-001;-1.003801822662354E-001;-3.474273718893528E-003;-5.435882485471666E-004;
2.421333333333334E+009;1.527974903583527E-001;-1.003590151667595E-001;-3.499155398458242E-003;-4.679992271121591E-004;
2.421500000000000E+009;1.527792364358902E-001;-1.000394821166992E-001;-3.347693476825953E-003;-3.812931536231190E-004;
2.421666666666667E+009;1.529362499713898E-001;-9.988643229007721E-002;-3.371429163962603E-003;-2.655735588632524E-004;
2.421833333333334E+009;1.528444588184357E-001;-9.976658970117569E-002;-3.245817730203271E-003;-7.127051503630355E-005;
2.422000000000000E+009;1.527125537395477E-001;-9.941491484642029E-002;-3.171516349539161E-003;-3.182954606018029E-005;
2.422166666666667E+009;1.525959223508835E-001;-9.922081977128983E-002;-3.091601422056556E-003;-2.878901341318851E-006;
2.422333333333334E+009;1.523253023624420E-001;-9.868670254945755E-002;-3.129531862214208E-003;2.085643791360781E-004;
2.422500000000000E+009;1.517302095890045E-001;-9.830570220947266E-002;-3.086438635364175E-003;3.171826538164169E-004;
2.422666666666667E+009;1.510920971632004E-001;-9.798756986856461E-002;-2.972523914650083E-003;3.424772585276514E-004;
2.422833333333334E+009;1.505848020315170E-001;-9.758067876100540E-002;-2.882883418351412E-003;4.213442734908313E-004;
2.423000000000000E+009;1.495657116174698E-001;-9.727664291858673E-002;-2.738759620115161E-003;2.701388439163566E-004;
2.423166666666667E+009;1.489986032247543E-001;-9.686963260173798E-002;-2.767420606687665E-003;5.660681636072695E-004;
2.423333333333334E+009;1.479648798704147E-001;-9.637862443923950E-002;-2.828901167958975E-003;6.951967952772975E-004;
2.423500000000000E+009;1.467842459678650E-001;-9.617196768522263E-002;-2.852614969015122E-003;5.707875825464726E-004;
2.423666666666667E+009;1.455695778131485E-001;-9.597111493349075E-002;-2.618510741740465E-003;6.983422208577395E-004;
2.423833333333334E+009;1.444858312606812E-001;-9.559886902570725E-002;-2.679519122466445E-003;9.107162477448583E-004;
2.424000000000000E+009;1.429730355739594E-001;-9.520640224218369E-002;-2.480171388015151E-003;7.890112465247512E-004;
2.424166666666667E+009;1.414681673049927E-001;-9.497380256652832E-002;-2.316844416782260E-003;7.684695301577449E-004;
2.424333333333334E+009;1.402403414249420E-001;-9.487591683864594E-002;-2.231969498097897E-003;8.206804050132632E-004;
2.424500000000000E+009;1.388624161481857E-001;-9.503973275423050E-002;-2.188154729083180E-003;8.882596157491207E-004;
2.424666666666667E+009;1.374158710241318E-001;-9.490511566400528E-002;-2.231945050880313E-003;9.897091658785939E-004;
2.424833333333334E+009;1.356014609336853E-001;-9.506119042634964E-002;-2.261081943288446E-003;9.804802248254418E-004;
2.425000000000000E+009;1.342760920524597E-001;-9.555426985025406E-002;-2.010830212384462E-003;9.294223273172975E-004;
2.425166666666667E+009;1.325644999742508E-001;-9.578718990087509E-002;-2.053194679319859E-003;1.057979883626103E-003;
2.425333333333334E+009;1.311075687408447E-001;-9.637310355901718E-002;-2.089635236188769E-003;1.120391651056707E-003;
2.425500000000000E+009;1.297637224197388E-001;-9.707137942314148E-002;-1.920889713801444E-003;9.579672478139401E-004;
2.425666666666667E+009;1.280481666326523E-001;-9.781202673912048E-002;-1.969552598893642E-003;9.330968605354428E-004;
2.425833333333334E+009;1.265649646520615E-001;-9.867748618125916E-002;-1.857151044532657E-003;9.980276226997376E-004;
2.426000000000000E+009;1.252199709415436E-001;-9.976059198379517E-002;-1.755706500262022E-003;9.560610633343458E-004;
2.426166666666667E+009;1.240895390510559E-001;-1.009068191051483E-001;-1.790587673895061E-003;1.101200468838215E-003;
2.426333333333334E+009;1.224566996097565E-001;-1.020191013813019E-001;-1.615006127394736E-003;1.306274672970176E-003;
2.426500000000000E+009;1.212959140539169E-001;-1.034297868609428E-001;-1.834038877859712E-003;1.282482058741152E-003;
2.426666666666667E+009;1.201961413025856E-001;-1.047104820609093E-001;-1.680763671174645E-003;1.226155436597765E-003;
2.426833333333334E+009;1.190313920378685E-001;-1.062115728855133E-001;-1.489370712079108E-003;1.220128266140819E-003;
2.427000000000000E+009;1.179463565349579E-001;-1.079973801970482E-001;-1.486418885178864E-003;1.305857673287392E-003;
2.427166666666667E+009;1.169073209166527E-001;-1.093780472874641E-001;-1.322765718214214E-003;1.351715531200171E-003;
2.427333333333334E+009;1.159658655524254E-001;-1.112977191805840E-001;-1.435897429473698E-003;1.185981091111898E-003;
2.427500000000000E+009;1.151735112071037E-001;-1.129416972398758E-001;-1.380356959998608E-003;1.195910968817771E-003;
2.427666666666667E+009;1.143591776490212E-001;-1.148039326071739E-001;-1.248622196726501E-003;1.153379096649587E-003;
