# Hz S RI R 50
2400000000.0000000000 0.155369147658348111251669365629 0.106493227183818803260884067186 0.001765487249940633990644145435 -0.008058517239987850189208984375 0 0 0 0 
2400166666.6666665077 0.155214473605155889313067518742 0.104027740657329600959535298443 0.001281275763176382021663046729 -0.007848540320992469787597656250 0 0 0 0 
2400333333.3333334923 0.155147135257721002776776231258 0.101697780191898401458416856258 0.001134375226683915095088339697 -0.007758280262351036071777343750 0 0 0 0 
2400500000.0000000000 0.155169472098350497146768134371 0.099013440310955047607421875000 0.000930843001697212457656860352 -0.007461062166839838027954101562 0 0 0 0 
2400666666.6666665077 0.154937997460365295410156250000 0.096371851861476898193359375000 0.000780610716901719570159912109 -0.007180180400609970092773437500 0 0 0 0 
2400833333.3333334923 0.155222505331039400955361884371 0.093530945479869842529296875000 0.000537875748705118894577026367 -0.006944850087165833386892987988 0 0 0 0 
2401000000.0000000000 0.155307427048683194259481865629 0.090843081474304199218750000000 0.000420165859395638108253479004 -0.006686510518193244934082031250 0 0 0 0 
2401166666.6666665077 0.155473619699478204925213731258 0.088014818727970123291015625000 0.000448822713224217295646667480 -0.006528586614876986417288495801 0 0 0 0 
2401333333.3333334923 0.155790895223617609222088731258 0.085201270878314971923828125000 0.000563883397262543439865112305 -0.006314492784440517425537109375 0 0 0 0 
2401500000.0000000000 0.156112298369407709319744981258 0.082149103283882141113281250000 0.000710608437657356262207031250 -0.006402538623660802841186523438 0 0 0 0 
2401666666.6666665077 0.156393468379974392989950615629 0.079298317432403564453125000000 0.000639499048702418804168701172 -0.006338930223137140274047851562 0 0 0 0 
2401833333.3333334923 0.157046556472778292556924384371 0.076555140316486358642578125000 0.000623113301116973161697387695 -0.006264120340347290039062500000 0 0 0 0 
2402000000.0000000000 0.157948806881904602050781250000 0.073758959770202636718750000000 0.000581431027967482805252075195 -0.006261670496314764022827148438 0 0 0 0 
2402166666.6666665077 0.158808395266532897949218750000 0.071355737745761871337890625000 0.000766859273426234722137451172 -0.006408206652849912643432617188 0 0 0 0 
2402333333.3333334923 0.159594193100929288009481865629 0.068288162350654602050781250000 0.000738815928343683481216430664 -0.006424271035939455032348632812 0 0 0 0 
2402500000.0000000000 0.160864725708961486816406250000 0.065921828150749206542968750000 0.000543689180631190538406372070 -0.006652704905718564987182617188 0 0 0 0 
2402666666.6666665077 0.161915704607963589767294365629 0.063542447984218597412109375000 0.000304333370877429788738804950 -0.006596724968403577804565429688 0 0 0 0 
2402833333.3333334923 0.163251265883445711990518134371 0.060966681689023971557617187500 0.000390539149520918726921081543 -0.006967887282371520996093750000 0 0 0 0 
2403000000.0000000000 0.164736002683639498611611884371 0.058563463389873511577565778907 0.000022068723410484381020069122 -0.007096534129232168197631835938 0 0 0 0 
2403166666.6666665077 0.166569337248802212814169365629 0.056447010487318038940429687500 0.000010602255315461659972565804 -0.007001732476055622100830078125 0 0 0 0 
2403333333.3333334923 0.167706534266471890548544365629 0.054164435714483261108398437500 -0.000335583143169060403674525128 -0.007081991061568260192871093750 0 0 0 0 
2403500000.0000000000 0.169596880674362210372763115629 0.052055440843105323101003278907 -0.000445832643890753388404846191 -0.007289020344614982604980468750 0 0 0 0 
2403666666.6666665077 0.171181902289390591720419365629 0.050355985760688781738281250000 -0.000859496765770018100738525391 -0.007171932607889175415039062500 0 0 0 0 
2403833333.3333334923 0.172911301255226107498330634371 0.048488892614841461181640625000 -0.001081536058336495919468545068 -0.007033324800431728363037109375 0 0 0 0 
2404000000.0000000000 0.174442723393440302093182481258 0.046686019748449332500417341407 -0.001398940919898449940922402490 -0.007002076599746943387503339551 0 0 0 0 
2404166666.6666665077 0.176211893558502197265625000000 0.045288313180208213115651716407 -0.001469169510528445026995014722 -0.006924824323505163192749023438 0 0 0 0 
2404333333.3333334923 0.177827790379524203201455634371 0.043644778430461876606027971093 -0.001722410670481622002245258862 -0.006896696519106627377981855176 0 0 0 0 
2404500000.0000000000 0.179446369409561212737713731258 0.042218629270792007446289062500 -0.001791150425560771985294961084 -0.006878769490867853164672851562 0 0 0 0 
2404666666.6666665077 0.181190133094787597656250000000 0.041158281266689300537109375000 -0.002147360704839230017421103369 -0.006801438517868518829345703125 0 0 0 0 
2404833333.3333334923 0.182693332433700589279013115629 0.040111321955919272685964216407 -0.002181645715609192848205566406 -0.006813608575612306594848632812 0 0 0 0 
2405000000.0000000000 0.183880984783172607421875000000 0.039583299309015267108957658593 -0.002427387284114956855773925781 -0.006808077450841665267944335938 0 0 0 0 
2405166666.6666665077 0.185548916459083612640057481258 0.038620300590991966938059221093 -0.002572108292952179908752441406 -0.006573039572685956954956054688 0 0 0 0 
2405333333.3333334923 0.186810746788978604415731865629 0.038126230239868157123606096093 -0.002961720339953898949864052881 -0.006516910158097743988037109375 0 0 0 0 
2405500000.0000000000 0.188213542103767395019531250000 0.037720970809459693218190778907 -0.003010481363162397904637002100 -0.006611608434468507766723632812 0 0 0 0 
2405666666.6666665077 0.189641267061233492752236884371 0.037221115082502372051198591407 -0.003254056908190249963047646631 -0.006542134564369916915893554688 0 0 0 0 
2405833333.3333334923 0.190813437104225186446981865629 0.037113774567842476581613908593 -0.003295413684099913077113486182 -0.006380133330821990966796875000 0 0 0 0 
2406000000.0000000000 0.191816404461860712249432481258 0.036905620247125632549245466407 -0.003650433849543333053588867188 -0.006459580734372138977050781250 0 0 0 0 
2406166666.6666665077 0.192825302481651306152343750000 0.036800261586904532695729841407 -0.003984410315752029418945312500 -0.006110439077019692334646894238 0 0 0 0 
2406333333.3333334923 0.193725332617759704589843750000 0.036671098321676247333567033593 -0.003928082529455423355102539062 -0.006134295370429754257202148438 0 0 0 0 
2406500000.0000000000 0.194316893815994290450888115629 0.036733459681272506713867187500 -0.004249131307005882263183593750 -0.005867436993867158889770507812 0 0 0 0 
2406666666.6666665077 0.195171162486076410491619981258 0.036850716918706886982004533593 -0.004306718241423369321341230176 -0.005804002750664949417114257812 0 0 0 0 
2406833333.3333334923 0.195541515946388189117755018742 0.036825869232416152954101562500 -0.004513033200055360794067382812 -0.005774684250354766845703125000 0 0 0 0 
2407000000.0000000000 0.195713892579078702071981865629 0.037070300430059432983398437500 -0.004652025643736124038696289062 -0.005700727924704551696777343750 0 0 0 0 
2407166666.6666665077 0.196140959858894403655682481258 0.036984167993068702007253278907 -0.004852715414017438888549804688 -0.005465136840939521789550781250 0 0 0 0 
2407333333.3333334923 0.195940330624580411056356865629 0.037030726671218872070312500000 -0.004804837983101606369018554688 -0.005414794664829969406127929688 0 0 0 0 
2407500000.0000000000 0.195918276906013488769531250000 0.037166509777307510375976562500 -0.004996742587536573410034179688 -0.005190107971429824829101562500 0 0 0 0 
2407666666.6666665077 0.195783749222755404373330634371 0.037042971700429923320729841407 -0.005129367578774690628051757812 -0.005026358179748058319091796875 0 0 0 0 
2407833333.3333334923 0.195328518748283386230468750000 0.036973431706428527832031250000 -0.005352348089218139648437500000 -0.004973400384187698364257812500 0 0 0 0 
2408000000.0000000000 0.195296227931976290603799384371 0.037031527608633041381835937500 -0.005396538879722356796264648438 -0.004812899511307477951049804688 0 0 0 0 
2408166666.6666665077 0.194689244031906100174111884371 0.036756783723831176757812500000 -0.005399803631007671356201171875 -0.004664453212171792984008789062 0 0 0 0 
2408333333.3333334923 0.194115370512008694747763115629 0.036308810114860541606862653907 -0.005570168606936931610107421875 -0.004547484219074249267578125000 0 0 0 0 
2408500000.0000000000 0.193434908986091613769531250000 0.035945124924182891845703125000 -0.005637962371110916137695312500 -0.004410784691572189331054687500 0 0 0 0 
2408666666.6666665077 0.192681774497032193282919365629 0.035404704511165618896484375000 -0.005968237761408090591430664062 -0.004281866364181041717529296875 0 0 0 0 
2408833333.3333334923 0.192078858613967895507812500000 0.034771997481584548950195312500 -0.005918958690017461776733398438 -0.004214999731630086898803710938 0 0 0 0 
2409000000.0000000000 0.191083908081054687500000000000 0.033866625279188163066823591407 -0.006008384283632040023803710938 -0.004170195665210486325735761426 0 0 0 0 
2409166666.6666665077 0.189999282360076904296875000000 0.032936751842498779296875000000 -0.006202407646924257278442382812 -0.003834198927506804899928427588 0 0 0 0 
2409333333.3333334923 0.189058944582939203460369981258 0.032010875642299652099609375000 -0.006335000041872262954711914062 -0.003929676953703165054321289062 0 0 0 0 
2409500000.0000000000 0.187949389219284113128338731258 0.030781636014580730092982108204 -0.006397278979420661926269531250 -0.003651189617812633948085165869 0 0 0 0 
2409666666.6666665077 0.186901748180389404296875000000 0.029289532452821731567382812500 -0.006719436962157487869262695312 -0.003577359486371279196498251807 0 0 0 0 
2409833333.3333334923 0.185890480875968905349893134371 0.027884544804692268371582031250 -0.006713045295327901840209960938 -0.003322799690067768096923828125 0 0 0 0 
2410000000.0000000000 0.184870406985282897949218750000 0.026202680543065071105957031250 -0.007004480343312025070190429688 -0.003162606852129102186915732275 0 0 0 0 
2410166666.6666665077 0.183810383081436212737713731258 0.024470210075378421438196951954 -0.007065917365252971649169921875 -0.002971018198877573013305664062 0 0 0 0 
2410333333.3333334923 0.182823449373245211502236884371 0.022730622440576549875279610546 -0.007096014916896820068359375000 -0.002769017824903130964991904150 0 0 0 0 
2410500000.0000000000 0.181803837418556213378906250000 0.020805226638913161540944685157 -0.007175856735557317733764648438 -0.002444535493850708007812500000 0 0 0 0 
2410666666.6666665077 0.180879995226860101897869981258 0.018484592437744140625000000000 -0.007178958505392074584960937500 -0.002246007090434432029724121094 0 0 0 0 
2410833333.3333334923 0.180229663848877008636151231258 0.016313588246703151357630545704 -0.007095173932611942291259765625 -0.002060772851109505133387900244 0 0 0 0 
2411000000.0000000000 0.179451644420623807052450615629 0.014197126962244510650634765625 -0.007354519795626401901245117188 -0.001846143160946666977526020581 0 0 0 0 
2411166666.6666665077 0.178924411535263089279013115629 0.011937785893678670365303240430 -0.007346035912632942199707031250 -0.001473576063290237946751259912 0 0 0 0 
2411333333.3333334923 0.178255379199981689453125000000 0.009453987702727317810058593750 -0.007354539353400468826293945312 -0.001423551002517343001124716650 0 0 0 0 
2411500000.0000000000 0.177824482321739196777343750000 0.007255454547703266143798828125 -0.007313698064535856246948242188 -0.001248835469596087932586669922 0 0 0 0 
2411666666.6666665077 0.177732095122337313553018134371 0.004857243038713932037353515625 -0.007396806962788105010986328125 -0.001014576642774045901057577979 0 0 0 0 
2411833333.3333334923 0.177391707897186307052450615629 0.002557593863457440896275185693 -0.007483670487999916076660156250 -0.001035588211379945061327290112 0 0 0 0 
2412000000.0000000000 0.177436903119087191482705634371 -0.000172768603079021004125317984 -0.007457287516444922360892011426 -0.000797641405370086431503295898 0 0 0 0 
2412166666.6666665077 0.177646055817604092696981865629 -0.002433046232908964157104492188 -0.007631275802850723266601562500 -0.000427372287958860397338867188 0 0 0 0 
2412333333.3333334923 0.177940994501113891601562500000 -0.004951801151037216186523437500 -0.007729952223598957061767578125 -0.000405575236072763800621032715 0 0 0 0 
2412500000.0000000000 0.178324028849601801116619981258 -0.007188340649008750915527343750 -0.007578151300549507141113281250 -0.000221115158637985587120056152 0 0 0 0 
2412666666.6666665077 0.178902834653854397872763115629 -0.009699220769107341766357421875 -0.007795192766934633255004882812 0.000016248175597866069188321761 0 0 0 0 
2412833333.3333334923 0.179593205451965304275674384371 -0.012111256830394269770612147852 -0.007880453020334243774414062500 0.000091839960077777504920959473 0 0 0 0 
2413000000.0000000000 0.180243775248527499099893134371 -0.014568211510777469980260079296 -0.007848127745091915130615234375 0.000543709087651222944259643555 0 0 0 0 
2413166666.6666665077 0.181215494871139498611611884371 -0.016547910869121551513671875000 -0.007963838987052440643310546875 0.000659439188893884420394897461 0 0 0 0 
2413333333.3333334923 0.182223036885261507888955634371 -0.018860472366213798522949218750 -0.008012786507606506347656250000 0.000942380633205175399780273438 0 0 0 0 
2413500000.0000000000 0.183077618479728698730468750000 -0.021234951913356781005859375000 -0.008208141662180423736572265625 0.001398264197632669968845986475 0 0 0 0 
2413666666.6666665077 0.184349417686462402343750000000 -0.023502690717577930795689766796 -0.008183879777789115905761718750 0.001578473020344973044154501807 0 0 0 0 
2413833333.3333334923 0.185553014278411892989950615629 -0.025339474901556968688964843750 -0.008208357729017734527587890625 0.002031811047345399856567382812 0 0 0 0 
2414000000.0000000000 0.186666190624237088302450615629 -0.027330111712217330932617187500 -0.008197005838155746459960937500 0.002407758263871074156520224463 0 0 0 0 
2414166666.6666665077 0.187982901930808993240518134371 -0.029086364433169368398646170704 -0.008055142126977443695068359375 0.002948744455352426008937216650 0 0 0 0 
2414333333.3333334923 0.188930913805961608886718750000 -0.031043317168951041484792341407 -0.007999935187399387359619140625 0.003219676902517675919773720850 0 0 0 0 
2414500000.0000000000 0.190477281808853204925213731258 -0.032507970929145812988281250000 -0.007770043332129716873168945312 0.003440605476498603820800781250 0 0 0 0 
2414666666.6666665077 0.191630601882934598068075615629 -0.034073978662490851665456403907 -0.007589073386043310165405273438 0.003944773692637681961059570312 0 0 0 0 
2414833333.3333334923 0.192874193191528292556924384371 -0.035524405539035797119140625000 -0.007406089454889298352713300488 0.004362614825367928418631269238 0 0 0 0 
2415000000.0000000000 0.194016575813293512542401231258 -0.036714229732751853252370466407 -0.007081804797053337097167968750 0.004628813825547695159912109375 0 0 0 0 
2415166666.6666665077 0.195219188928604098220986884371 -0.037847802042961120605468750000 -0.006742353085428476333618164062 0.004978900309652090072631835938 0 0 0 0 
2415333333.3333334923 0.196385160088539095779580634371 -0.038856435567140579223632812500 -0.006465360056608915328979492188 0.005249547306448221206665039062 0 0 0 0 
2415500000.0000000000 0.197548806667327908614950615629 -0.039494499564170837402343750000 -0.006180418189615011215209960938 0.005323021207004786405081464551 0 0 0 0 
2415666666.6666665077 0.198532462120056207854901231258 -0.040406376123428351665456403907 -0.005705261137336493405813886426 0.005728247575461865338797284863 0 0 0 0 
2415833333.3333334923 0.199500679969787597656250000000 -0.040925685316324227069895158593 -0.005520513746887444582467363574 0.005696845706552267074584960938 0 0 0 0 
2416000000.0000000000 0.200292110443115206619424384371 -0.041497398167848587036132812500 -0.005251830909401178359985351562 0.005752186756581068038940429688 0 0 0 0 
2416166666.6666665077 0.201137572526931790450888115629 -0.042067214846611022949218750000 -0.004892157856374979019165039062 0.005953684449195861816406250000 0 0 0 0 
2416333333.3333334923 0.201542779803276089767294365629 -0.042341798543930046772043596093 -0.004611336160451173782348632812 0.006034301128238440427298261426 0 0 0 0 
2416500000.0000000000 0.202140614390373202224893134371 -0.042601581662893302226979841407 -0.004294773098081350326538085938 0.006077355705201625823974609375 0 0 0 0 
2416666666.6666665077 0.202369183301925686935263115629 -0.042920403182506561279296875000 -0.003909546881914138793945312500 0.006040032021701335906982421875 0 0 0 0 
2416833333.3333334923 0.202558487653732299804687500000 -0.042971819639205932617187500000 -0.003735043108463286919834756006 0.006202416960150003433227539062 0 0 0 0 
2417000000.0000000000 0.202649012207984896560830634371 -0.042949639260768890380859375000 -0.003492856398224831061122275244 0.005971775390207768353934003613 0 0 0 0 
2417166666.6666665077 0.202368199825286892989950615629 -0.042980633676052086566965471093 -0.003259175922721623940708779443 0.005973276682198047637939453125 0 0 0 0 
2417333333.3333334923 0.202164158225059509277343750000 -0.042638719081878662109375000000 -0.002949152607470750808715820312 0.006004307419061660766601562500 0 0 0 0 
2417500000.0000000000 0.201921135187149103362713731258 -0.042642623186111450195312500000 -0.002886485308408737182617187500 0.006011534947901964187622070312 0 0 0 0 
2417666666.6666665077 0.201316460967063903808593750000 -0.042377170175313949584960937500 -0.002781987190246582031250000000 0.006093993782997131347656250000 0 0 0 0 
2417833333.3333334923 0.200867921113967895507812500000 -0.042140480130910873413085937500 -0.002490530256181954903843545068 0.006001160014420747756958007812 0 0 0 0 
2418000000.0000000000 0.200313851237297113616619981258 -0.041854329407215118408203125000 -0.002315966645255684852600097656 0.006094052921980619430541992188 0 0 0 0 
2418166666.6666665077 0.199406713247299194335937500000 -0.041803285479545593261718750000 -0.002122333971783518791198730469 0.005899493116885423660278320312 0 0 0 0 
2418333333.3333334923 0.198592782020568903167401231258 -0.041620384901762008666992187500 -0.001859985408373177051544189453 0.005914116278290748596191406250 0 0 0 0 
2418500000.0000000000 0.197527691721916198730468750000 -0.041576549410820007324218750000 -0.001607242156751454093335795825 0.005979143548756837844848632812 0 0 0 0 
2418666666.6666665077 0.196647182106971712967080634371 -0.041566640138626098632812500000 -0.001496155862696469046949077075 0.005906150210648775100708007812 0 0 0 0 
2418833333.3333334923 0.195334389805793789962606865629 -0.041785221546888351440429687500 -0.001218106015585362911224365234 0.005694458726793527603149414062 0 0 0 0 
2419000000.0000000000 0.193970263004303006271200615629 -0.041838593780994422222097028907 -0.001034411601722240014317177881 0.005661402828991413116455078125 0 0 0 0 
2419166666.6666665077 0.192866966128349304199218750000 -0.042175311595201492309570312500 -0.000980334007181227207183837891 0.005478688981384038925170898438 0 0 0 0 
2419333333.3333334923 0.191316038370132501800213731258 -0.042507320642471306537668596093 -0.000824614427983760833740234375 0.005478828679770231246948242188 0 0 0 0 
2419500000.0000000000 0.189863055944442804534588731258 -0.043101299554109573364257812500 -0.000800345849711447954177856445 0.005182769149541854858398437500 0 0 0 0 
2419666666.6666665077 0.188234955072403009612713731258 -0.043951667845249182964284528907 -0.000631211441941559314727783203 0.004996529314666987332815839551 0 0 0 0 
2419833333.3333334923 0.186605632305145291427450615629 -0.044519938528537750244140625000 -0.000526410352904349565505981445 0.004926706198602914810180664062 0 0 0 0 
