# Version 1.00
#
freq[Hz];re:Trc1_S11;im:Trc1_S11;re:Trc2_S21;im:Trc2_S21;
2.400000000000000E+009;1.692854017019272E-001;4.587104544043541E-002;-3.324829274788499E-003;-3.347068093717098E-003;
2.400166666666667E+009;1.703308820724487E-001;4.484831914305687E-002;-3.315460169687867E-003;-3.026769729331136E-003;
2.400333333333334E+009;1.711398661136627E-001;4.369210451841354E-002;-3.536318894475699E-003;-3.041363321244717E-003;
2.400500000000000E+009;1.722207963466644E-001;4.279876500368118E-002;-3.461677115410566E-003;-2.771559171378613E-003;
2.400666666666667E+009;1.730044037103653E-001;4.185048118233681E-002;-3.528482047840953E-003;-2.598254941403866E-003;
2.400833333333334E+009;1.739753633737564E-001;4.112068191170692E-002;-3.578260075300932E-003;-2.421911107376218E-003;
2.401000000000000E+009;1.748396456241608E-001;4.032780975103378E-002;-3.538848832249641E-003;-2.276015235111117E-003;
2.401166666666667E+009;1.755036115646362E-001;3.967916965484619E-002;-3.602472832426429E-003;-1.960833091288805E-003;
2.401333333333334E+009;1.762773096561432E-001;3.906682506203651E-002;-3.698383457958698E-003;-2.016677288338542E-003;
2.401500000000000E+009;1.770325303077698E-001;3.841657191514969E-002;-3.690435085445643E-003;-1.932986662723124E-003;
2.401666666666667E+009;1.775804609060288E-001;3.792214393615723E-002;-3.646417288109660E-003;-1.686202711425722E-003;
2.401833333333334E+009;1.782829314470291E-001;3.723760321736336E-002;-3.735373960807920E-003;-1.529776141978800E-003;
2.402000000000000E+009;1.785791367292404E-001;3.680500388145447E-002;-3.532888833433390E-003;-1.566552091389895E-003;
2.402166666666667E+009;1.789127886295319E-001;3.619576990604401E-002;-3.689622739329934E-003;-1.419419073499739E-003;
2.402333333333334E+009;1.793800741434097E-001;3.575008735060692E-002;-3.539616707712412E-003;-1.366777694784105E-003;
2.402500000000000E+009;1.798139363527298E-001;3.500108420848846E-002;-3.721125423908234E-003;-1.322762458585203E-003;
2.402666666666667E+009;1.798476129770279E-001;3.459244966506958E-002;-3.767084563151002E-003;-1.044769887812436E-003;
2.402833333333334E+009;1.799852550029755E-001;3.397871181368828E-002;-3.748407587409020E-003;-9.173284051939845E-004;
2.403000000000000E+009;1.800337284803391E-001;3.311698138713837E-002;-3.787049092352390E-003;-8.152193622663617E-004;
2.403166666666667E+009;1.797816157341003E-001;3.238146752119064E-002;-3.883831901475787E-003;-8.227110956795514E-004;
2.403333333333334E+009;1.799146384000778E-001;3.173513337969780E-002;-3.885894548147917E-003;-5.291630513966084E-004;
2.403500000000000E+009;1.796304136514664E-001;3.107897564768791E-002;-3.971855156123638E-003;-5.018395022489131E-004;
2.403666666666667E+009;1.793320924043655E-001;2.980308793485165E-002;-3.945149481296539E-003;-4.588172014337033E-004;
2.403833333333334E+009;1.792393475770950E-001;2.865754812955856E-002;-3.772952128201723E-003;-2.605599001981318E-004;
2.404000000000000E+009;1.786873042583466E-001;2.772442996501923E-002;-3.823381615802646E-003;-7.439788168994710E-005;
2.404166666666667E+009;1.784348189830780E-001;2.656949311494827E-002;-3.845575498417020E-003;-1.733192948449869E-005;
2.404333333333334E+009;1.779055744409561E-001;2.523919939994812E-002;-3.800082486122847E-003;5.900964970351197E-005;
2.404500000000000E+009;1.771703213453293E-001;2.378183044493198E-002;-3.838688367977738E-003;2.507228055037558E-004;
2.404666666666667E+009;1.767616868019104E-001;2.243298105895519E-002;-3.865029197186232E-003;5.409217556007206E-004;
2.404833333333334E+009;1.762926280498505E-001;2.100504189729691E-002;-3.672813065350056E-003;5.908824387006462E-004;
2.405000000000000E+009;1.757217943668366E-001;1.945720799267292E-002;-3.781949868425727E-003;6.418818957172334E-004;
2.405166666666667E+009;1.752512753009796E-001;1.784666441380978E-002;-3.650975180789828E-003;5.510375485755503E-004;
2.405333333333334E+009;1.748508960008621E-001;1.616219989955425E-002;-3.722695633769035E-003;8.213180117309094E-004;
2.405500000000000E+009;1.742434799671173E-001;1.453363895416260E-002;-3.545052837580442E-003;8.134117815643549E-004;
2.405666666666667E+009;1.739410609006882E-001;1.263122912496328E-002;-3.412972670048475E-003;9.881516452878714E-004;
2.405833333333334E+009;1.733127236366272E-001;1.101810578256846E-002;-3.627580590546131E-003;1.298210932873189E-003;
2.406000000000000E+009;1.732297390699387E-001;8.972113020718098E-003;-3.364534350112081E-003;1.145977759733796E-003;
2.406166666666667E+009;1.728119552135468E-001;7.203176617622376E-003;-3.210761817172170E-003;1.068298588506877E-003;
2.406333333333334E+009;1.727665513753891E-001;5.089489277452231E-003;-3.223306266590953E-003;1.193644711747766E-003;
2.406500000000000E+009;1.725144386291504E-001;2.997532021254301E-003;-3.425294766202569E-003;1.181703177280724E-003;
2.406666666666667E+009;1.722356081008911E-001;9.697899804450572E-004;-3.260673489421606E-003;1.236357144080102E-003;
2.406833333333334E+009;1.724262684583664E-001;-1.236958196386695E-003;-3.348866943269968E-003;1.183627056889236E-003;
2.407000000000000E+009;1.723841428756714E-001;-3.364903153851628E-003;-3.301469143480063E-003;1.240786863490939E-003;
2.407166666666667E+009;1.726773232221603E-001;-5.299550946801901E-003;-3.397352527827025E-003;1.214299583807588E-003;
2.407333333333334E+009;1.727490425109863E-001;-7.613874040544033E-003;-3.368027042597532E-003;1.513277180492878E-003;
2.407500000000000E+009;1.729024201631546E-001;-9.635835886001587E-003;-3.418249310925603E-003;1.404225942678750E-003;
2.407666666666667E+009;1.731024533510208E-001;-1.178799942135811E-002;-3.429713426157832E-003;1.717408304102719E-003;
2.407833333333334E+009;1.734394282102585E-001;-1.392046734690666E-002;-3.552495967596769E-003;1.893364940769970E-003;
2.408000000000000E+009;1.738483309745789E-001;-1.604001969099045E-002;-3.545186482369900E-003;1.833352842368186E-003;
2.408166666666667E+009;1.741595864295960E-001;-1.786401309072971E-002;-3.729388350620866E-003;2.247773110866547E-003;
2.408333333333334E+009;1.747721880674362E-001;-1.997381635010243E-002;-3.567192703485489E-003;2.270008670166135E-003;
2.408500000000000E+009;1.751201003789902E-001;-2.193397469818592E-002;-3.600392257794738E-003;2.675541210919619E-003;
2.408666666666667E+009;1.756546348333359E-001;-2.394229918718338E-002;-3.448254195973277E-003;2.870394615456462E-003;
2.408833333333334E+009;1.758709996938705E-001;-2.548603899776936E-002;-3.468521870672703E-003;3.058048896491528E-003;
2.409000000000000E+009;1.765037775039673E-001;-2.724558487534523E-002;-3.425799077376723E-003;3.417626023292542E-003;
2.409166666666667E+009;1.768862307071686E-001;-2.872803248465061E-002;-3.146975766867399E-003;3.589432919397950E-003;
2.409333333333334E+009;1.775410771369934E-001;-3.026002645492554E-002;-3.034303896129131E-003;3.711118595674634E-003;
2.409500000000000E+009;1.779951602220535E-001;-3.165571764111519E-002;-2.748331753537059E-003;4.010691773146391E-003;
2.409666666666667E+009;1.784483343362808E-001;-3.273235633969307E-002;-2.542624715715647E-003;4.033326636999846E-003;
2.409833333333334E+009;1.789333373308182E-001;-3.386780619621277E-002;-2.389754168689251E-003;4.204169847071171E-003;
2.410000000000000E+009;1.794364303350449E-001;-3.472566977143288E-002;-2.147753490135074E-003;4.404825158417225E-003;
2.410166666666667E+009;1.800829917192459E-001;-3.583210706710815E-002;-1.876396941952407E-003;4.597283434122801E-003;
2.410333333333334E+009;1.803695857524872E-001;-3.670798242092133E-002;-1.579954754561186E-003;4.551704041659832E-003;
2.410500000000000E+009;1.809632778167725E-001;-3.733974695205689E-002;-1.343254931271076E-003;4.653642885386944E-003;
2.410666666666667E+009;1.812087446451187E-001;-3.812726959586144E-002;-1.373915001749992E-003;4.545117728412151E-003;
2.410833333333334E+009;1.816542744636536E-001;-3.857042640447617E-002;-1.072297687642276E-003;4.488654434680939E-003;
2.411000000000000E+009;1.818009316921234E-001;-3.923918679356575E-002;-7.311581866815686E-004;4.434632137417793E-003;
2.411166666666667E+009;1.820449829101563E-001;-3.969222307205200E-002;-7.273639203049243E-004;4.599513486027718E-003;
2.411333333333334E+009;1.822150796651840E-001;-4.019738361239433E-002;-3.852414083667100E-004;4.451185464859009E-003;
2.411500000000000E+009;1.822342574596405E-001;-4.078349843621254E-002;-2.418787335045636E-004;4.475633613765240E-003;
2.411666666666667E+009;1.823936402797699E-001;-4.093727096915245E-002;-1.206668457598425E-004;4.480447620153427E-003;
2.411833333333334E+009;1.822884082794190E-001;-4.129083827137947E-002;6.055374251445755E-005;4.492331761866808E-003;
2.412000000000000E+009;1.822247654199600E-001;-4.166221246123314E-002;3.535950381774455E-004;4.316110629588366E-003;
2.412166666666667E+009;1.817251741886139E-001;-4.205571860074997E-002;2.887148584704846E-004;4.376382566988468E-003;
2.412333333333334E+009;1.815415769815445E-001;-4.224016517400742E-002;5.970754427835345E-004;4.349253606051207E-003;
2.412500000000000E+009;1.809606999158859E-001;-4.260082915425301E-002;6.103410269133747E-004;4.312256351113319E-003;
2.412666666666667E+009;1.802783608436585E-001;-4.302307590842247E-002;6.551466067321599E-004;4.335229285061359E-003;
2.412833333333334E+009;1.795490235090256E-001;-4.325956478714943E-002;9.361007250845432E-004;4.225712269544601E-003;
2.413000000000000E+009;1.790035963058472E-001;-4.359333589673042E-002;1.072601065970957E-003;4.218241199851036E-003;
2.413166666666667E+009;1.779884099960327E-001;-4.404420778155327E-002;1.128106843680143E-003;4.369059577584267E-003;
2.413333333333334E+009;1.768077015876770E-001;-4.447133839130402E-002;1.278507523238659E-003;4.091943614184856E-003;
2.413500000000000E+009;1.760762035846710E-001;-4.493974894285202E-002;1.524907303974032E-003;4.156109411269426E-003;
2.413666666666667E+009;1.750110685825348E-001;-4.532855749130249E-002;1.588028506375849E-003;4.215712193399668E-003;
2.413833333333334E+009;1.739285439252853E-001;-4.596592113375664E-002;1.793725066818297E-003;4.207294434309006E-003;
2.414000000000000E+009;1.726294904947281E-001;-4.656902328133583E-002;1.870844629593194E-003;4.130381625145674E-003;
2.414166666666667E+009;1.715910732746124E-001;-4.716649278998375E-002;2.165523823350668E-003;4.065911751240492E-003;
2.414333333333334E+009;1.704816967248917E-001;-4.810243099927902E-002;2.261781366541982E-003;4.182834178209305E-003;
2.414500000000000E+009;1.692474782466888E-001;-4.893901944160461E-002;2.652150811627507E-003;3.850632347166538E-003;
2.414666666666667E+009;1.678253561258316E-001;-4.983298107981682E-002;2.677105600014329E-003;3.760395338758826E-003;
2.414833333333334E+009;1.666871309280396E-001;-5.084363371133804E-002;2.854030579328537E-003;3.657651599496603E-003;
2.415000000000000E+009;1.653032600879669E-001;-5.197304487228394E-002;3.026362275704742E-003;3.611525753512979E-003;
2.415166666666667E+009;1.640806049108505E-001;-5.327373370528221E-002;3.247759537771344E-003;3.312131622806191E-003;
2.415333333333334E+009;1.630439907312393E-001;-5.453768745064735E-002;3.122061025351286E-003;3.255142597481608E-003;
2.415500000000000E+009;1.618081778287888E-001;-5.590076744556427E-002;3.538638353347778E-003;2.837456064298749E-003;
2.415666666666667E+009;1.605655103921890E-001;-5.738214030861855E-002;3.657671622931957E-003;2.773364773020148E-003;
2.415833333333334E+009;1.595564931631088E-001;-5.887453630566597E-002;3.580371150746942E-003;2.487746765837073E-003;
2.416000000000000E+009;1.583199054002762E-001;-6.065338850021362E-002;3.738039173185825E-003;2.238221233710647E-003;
2.416166666666667E+009;1.576050519943237E-001;-6.245212256908417E-002;3.772054333239794E-003;2.052843105047941E-003;
2.416333333333334E+009;1.565046310424805E-001;-6.426291167736054E-002;3.883221419528127E-003;1.889196923002601E-003;
2.416500000000000E+009;1.555860787630081E-001;-6.607131659984589E-002;3.860955825075507E-003;1.666760887019336E-003;
2.416666666666667E+009;1.545637845993042E-001;-6.796738505363464E-002;3.728706855326891E-003;1.583008561283350E-003;
2.416833333333334E+009;1.539763510227203E-001;-6.995024532079697E-002;3.830152796581388E-003;1.354690175503492E-003;
2.417000000000000E+009;1.530597209930420E-001;-7.194496691226959E-002;3.704287111759186E-003;1.088187796995044E-003;
2.417166666666667E+009;1.524616777896881E-001;-7.383521646261215E-002;3.623111639171839E-003;9.881879668682814E-004;
2.417333333333334E+009;1.519176810979843E-001;-7.570978999137878E-002;3.598549403250217E-003;7.823553751222789E-004;
2.417500000000000E+009;1.512115001678467E-001;-7.790457457304001E-002;3.667326876893640E-003;5.316465976648033E-004;
2.417666666666667E+009;1.509249359369278E-001;-7.979921251535416E-002;3.507147310301662E-003;4.852060810662806E-004;
2.417833333333334E+009;1.504949927330017E-001;-8.160102367401123E-002;3.408900927752256E-003;4.645797598641366E-004;
2.418000000000000E+009;1.501382589340210E-001;-8.360889554023743E-002;3.404129762202501E-003;3.464139881543815E-004;
2.418166666666667E+009;1.498524099588394E-001;-8.510430157184601E-002;3.250462235882878E-003;2.593936515040696E-004;
2.418333333333334E+009;1.499910056591034E-001;-8.695274591445923E-002;3.127737902104855E-003;8.815524051897228E-005;
2.418500000000000E+009;1.496181339025497E-001;-8.863533288240433E-002;3.206511260941625E-003;1.769523514667526E-004;
2.418666666666667E+009;1.497968733310700E-001;-9.001348912715912E-002;3.163884859532118E-003;9.538127051200718E-005;
2.418833333333334E+009;1.495985239744186E-001;-9.176058322191238E-002;3.064810065552592E-003;6.193315493874252E-005;
2.419000000000000E+009;1.495885998010635E-001;-9.307176619768143E-002;3.009694162756205E-003;1.082440849131672E-005;
2.419166666666667E+009;1.497770398855209E-001;-9.431898593902588E-002;3.068730933591723E-003;5.036120273871347E-005;
2.419333333333334E+009;1.497681736946106E-001;-9.526528418064117E-002;3.030401421710849E-003;-2.074175863526762E-004;
2.419500000000000E+009;1.500275582075119E-001;-9.655270725488663E-002;2.999695949256420E-003;-2.064240834442899E-004;
2.419666666666667E+009;1.502943933010101E-001;-9.745050221681595E-002;2.988528227433562E-003;-2.727697137743235E-004;
2.419833333333334E+009;1.504968255758286E-001;-9.804122149944305E-002;2.954089548438788E-003;-4.224699223414064E-004;
2.420000000000000E+009;1.507328301668167E-001;-9.877634048461914E-002;3.079937072470784E-003;-5.106182070448995E-004;
2.420166666666667E+009;1.512256562709808E-001;-9.932231158018112E-002;2.957777818664908E-003;-4.398980818223208E-004;
2.420333333333334E+009;1.514047384262085E-001;-9.975789487361908E-002;2.922018989920616E-003;-5.561263533309102E-004;
2.420500000000000E+009;1.517303287982941E-001;-9.997768700122833E-002;2.940619131550193E-003;-6.261310190893710E-004;
2.420666666666667E+009;1.521441787481308E-001;-1.002726778388023E-001;2.815367886796594E-003;-8.439601515419781E-004;
2.420833333333334E+009;1.522508412599564E-001;-1.004018634557724E-001;2.834481885656714E-003;-8.066714508458972E-004;
2.421000000000000E+009;1.523993909358978E-001;-1.005927473306656E-001;2.796162385493517E-003;-9.153576102107763E-004;
2.421166666666667E+009;1.527365744113922E-001;-1.005872786045075E-001;2.679987112060189E-003;-9.374920045956969E-004;
2.421333333333334E+009;1.529388725757599E-001;-1.005376055836678E-001;2.767036203294992E-003;-8.989075431600213E-004;
2.421500000000000E+009;1.528269052505493E-001;-1.002982556819916E-001;2.786151831969619E-003;-9.716006461530924E-004;
2.421666666666667E+009;1.529007852077484E-001;-1.000063642859459E-001;2.734153764322400E-003;-9.589951951056719E-004;
2.421833333333334E+009;1.529681831598282E-001;-9.985920786857605E-002;2.701262710615993E-003;-9.424504241906107E-004;
2.422000000000000E+009;1.527341008186340E-001;-9.956388175487518E-002;2.696859650313854E-003;-1.307287369854748E-003;
2.422166666666667E+009;1.524465531110764E-001;-9.954442828893662E-002;2.667795866727829E-003;-1.298307441174984E-003;
2.422333333333334E+009;1.521954685449600E-001;-9.909523278474808E-002;2.563609508797526E-003;-1.334574189968407E-003;
2.422500000000000E+009;1.518091857433319E-001;-9.854158014059067E-002;2.527575474232435E-003;-1.520799589343369E-003;
2.422666666666667E+009;1.510123014450073E-001;-9.819614887237549E-002;2.720210468396545E-003;-1.754619413986802E-003;
2.422833333333334E+009;1.505075246095657E-001;-9.784710407257080E-002;2.562197390943766E-003;-1.827981206588447E-003;
2.423000000000000E+009;1.496047228574753E-001;-9.749481827020645E-002;2.537313150241971E-003;-1.810792484320700E-003;
2.423166666666667E+009;1.486828178167343E-001;-9.722753614187241E-002;2.378314500674605E-003;-1.796747557818890E-003;
2.423333333333334E+009;1.478881537914276E-001;-9.675336629152298E-002;2.389492001384497E-003;-2.061221748590469E-003;
2.423500000000000E+009;1.467399895191193E-001;-9.633094817399979E-002;2.258825581520796E-003;-2.061123494058847E-003;
2.423666666666667E+009;1.453104466199875E-001;-9.613864868879318E-002;2.216420369222760E-003;-2.258632332086563E-003;
2.423833333333334E+009;1.443371027708054E-001;-9.603098779916763E-002;2.190380124375224E-003;-2.292134566232562E-003;
2.424000000000000E+009;1.429781019687653E-001;-9.560447931289673E-002;2.038020174950361E-003;-2.278602449223399E-003;
2.424166666666667E+009;1.415447890758514E-001;-9.546522796154022E-002;1.934647792950273E-003;-2.370352856814861E-003;
2.424333333333334E+009;1.401967108249664E-001;-9.530014544725418E-002;1.823213649913669E-003;-2.467779908329248E-003;
2.424500000000000E+009;1.386664658784866E-001;-9.545823186635971E-002;1.637191860936582E-003;-2.324128523468971E-003;
2.424666666666667E+009;1.373114883899689E-001;-9.537581354379654E-002;1.510925474576652E-003;-2.601615153253079E-003;
2.424833333333334E+009;1.356989592313767E-001;-9.551680088043213E-002;1.574879628606141E-003;-2.435946138575673E-003;
2.425000000000000E+009;1.342503279447556E-001;-9.589210897684097E-002;1.343087409622967E-003;-2.447255421429873E-003;
2.425166666666667E+009;1.325139105319977E-001;-9.642294794321060E-002;1.391489990055561E-003;-2.497209934517741E-003;
2.425333333333334E+009;1.311344951391220E-001;-9.689825028181076E-002;1.290481071919203E-003;-2.520319074392319E-003;
2.425500000000000E+009;1.296350359916687E-001;-9.755787253379822E-002;1.134917722083628E-003;-2.440593903884292E-003;
2.425666666666667E+009;1.281199157238007E-001;-9.836500883102417E-002;1.210211892612279E-003;-2.473179250955582E-003;
2.425833333333334E+009;1.266398280858994E-001;-9.926276654005051E-002;9.209667332470417E-004;-2.484404481947422E-003;
2.426000000000000E+009;1.252052932977676E-001;-1.002686768770218E-001;9.130740654654801E-004;-2.529922872781754E-003;
2.426166666666667E+009;1.240176931023598E-001;-1.015351340174675E-001;8.785260724835098E-004;-2.725283848121762E-003;
2.426333333333334E+009;1.225244402885437E-001;-1.026790663599968E-001;7.568137953057885E-004;-2.574285725131631E-003;
2.426500000000000E+009;1.213429123163223E-001;-1.040455773472786E-001;7.022029021754861E-004;-2.688338980078697E-003;
2.426666666666667E+009;1.202664971351624E-001;-1.053056791424751E-001;4.245970631018281E-004;-2.584647387266159E-003;
2.426833333333334E+009;1.190844550728798E-001;-1.069335862994194E-001;3.477980790194124E-004;-2.681925194337964E-003;
2.427000000000000E+009;1.179557666182518E-001;-1.085644215345383E-001;3.315038629807532E-004;-2.607756992802024E-003;
2.427166666666667E+009;1.170540377497673E-001;-1.100529581308365E-001;2.207456273026764E-004;-2.578263171017170E-003;
2.427333333333334E+009;1.160876825451851E-001;-1.117346733808518E-001;4.212250860291533E-005;-2.483435673639178E-003;
2.427500000000000E+009;1.153409034013748E-001;-1.135135293006897E-001;-6.938396109035239E-005;-2.465626690536737E-003;
2.427666666666667E+009;1.145794242620468E-001;-1.152799651026726E-001;-6.494828994618729E-005;-2.317545702680945E-003;
