# Version 1.00
#
freq[Hz];re:Trc1_S11;im:Trc1_S11;re:Trc2_S21;im:Trc2_S21;
2.400000000000000E+009;1.675516963005066E-001;4.117451980710030E-002;2.481469186022878E-003;-2.346733585000038E-003;
2.400166666666667E+009;1.680753529071808E-001;4.048480466008186E-002;2.474222797900438E-003;-2.485205186530948E-003;
2.400333333333334E+009;1.685182750225067E-001;3.956378623843193E-002;2.426172606647015E-003;-2.448885701596737E-003;
2.400500000000000E+009;1.691763699054718E-001;3.882771730422974E-002;2.310906071215868E-003;-2.663726452738047E-003;
2.400666666666667E+009;1.694541573524475E-001;3.774772956967354E-002;2.248423872515559E-003;-2.810481237247586E-003;
2.400833333333334E+009;1.699520647525787E-001;3.683720156550407E-002;2.072420204058290E-003;-2.953427378088236E-003;
2.401000000000000E+009;1.701923012733460E-001;3.599457070231438E-002;2.009355695918202E-003;-2.907555550336838E-003;
2.401166666666667E+009;1.704935729503632E-001;3.497250378131867E-002;1.933884224854410E-003;-3.109913785010576E-003;
2.401333333333334E+009;1.705086231231690E-001;3.415321186184883E-002;1.911243540234864E-003;-3.170346608385444E-003;
2.401500000000000E+009;1.709166169166565E-001;3.319482505321503E-002;1.821353100240231E-003;-3.251950955018401E-003;
2.401666666666667E+009;1.712473481893539E-001;3.264310583472252E-002;1.662377733737230E-003;-3.222775179892778E-003;
2.401833333333334E+009;1.711830794811249E-001;3.147390857338905E-002;1.691103447228670E-003;-3.409271361306310E-003;
2.402000000000000E+009;1.711058318614960E-001;3.044085390865803E-002;1.611406099982560E-003;-3.283453173935413E-003;
2.402166666666667E+009;1.712642461061478E-001;2.943792939186096E-002;1.376942964270711E-003;-3.325023455545306E-003;
2.402333333333334E+009;1.713408976793289E-001;2.863536961376667E-002;1.236941665410996E-003;-3.310160711407661E-003;
2.402500000000000E+009;1.715020388364792E-001;2.761445380747318E-002;9.554171119816601E-004;-3.484721994027495E-003;
2.402666666666667E+009;1.713603287935257E-001;2.654408104717732E-002;1.104747760109603E-003;-3.596799680963159E-003;
2.402833333333334E+009;1.712805032730103E-001;2.555639669299126E-002;9.691677987575531E-004;-3.517128527164459E-003;
2.403000000000000E+009;1.714703589677811E-001;2.450110949575901E-002;7.736351690255106E-004;-3.633482148870826E-003;
2.403166666666667E+009;1.713462471961975E-001;2.336715906858444E-002;7.566672284156084E-004;-3.583352081477642E-003;
2.403333333333334E+009;1.711152493953705E-001;2.224717475473881E-002;5.306332604959607E-004;-3.529140260070562E-003;
2.403500000000000E+009;1.712431758642197E-001;2.105606161057949E-002;2.485588775016367E-004;-3.487154142931104E-003;
2.403666666666667E+009;1.710339039564133E-001;1.977187953889370E-002;3.267024294473231E-004;-3.672193735837936E-003;
2.403833333333334E+009;1.709554940462112E-001;1.840731501579285E-002;2.252095437142998E-004;-3.279866185039282E-003;
2.404000000000000E+009;1.708268523216248E-001;1.733847334980965E-002;2.302016509929672E-004;-3.413270693272352E-003;
2.404166666666667E+009;1.708855479955673E-001;1.577126048505306E-002;1.356201973976567E-004;-3.299497067928314E-003;
2.404333333333334E+009;1.706816256046295E-001;1.460424903780222E-002;6.767302693333477E-005;-3.165584988892078E-003;
2.404500000000000E+009;1.704291701316834E-001;1.311990991234779E-002;-1.073035673471168E-005;-3.188556293025613E-003;
2.404666666666667E+009;1.704737395048142E-001;1.190700195729733E-002;1.437403261661530E-005;-3.327456768602133E-003;
2.404833333333334E+009;1.704280674457550E-001;1.030933950096369E-002;-7.580185774713755E-005;-3.378314198926091E-003;
2.405000000000000E+009;1.705309152603149E-001;8.837740868330002E-003;-8.731682464713231E-005;-3.311977954581380E-003;
2.405166666666667E+009;1.703927367925644E-001;7.445240393280983E-003;-1.585845020599663E-004;-3.450202755630016E-003;
2.405333333333334E+009;1.703141331672669E-001;5.847891326993704E-003;1.909437287395122E-006;-3.445499343797565E-003;
2.405500000000000E+009;1.704853177070618E-001;4.462808836251497E-003;-2.644982305355370E-004;-3.535872558131814E-003;
2.405666666666667E+009;1.703879535198212E-001;2.832183847203851E-003;-4.187394806649536E-004;-3.569693071767688E-003;
2.405833333333334E+009;1.701116412878037E-001;1.390387420542538E-003;-5.180899752303958E-004;-3.892792155966163E-003;
2.406000000000000E+009;1.702276021242142E-001;-3.852138761430979E-004;-6.418998818844557E-004;-3.743774024769664E-003;
2.406166666666667E+009;1.699931025505066E-001;-1.696532475762069E-003;-9.340065880678594E-004;-3.896798007190228E-003;
2.406333333333334E+009;1.701447963714600E-001;-3.232922172173858E-003;-1.079475856386125E-003;-3.904952667653561E-003;
2.406500000000000E+009;1.698545217514038E-001;-4.973752424120903E-003;-1.302560907788575E-003;-3.713582176715136E-003;
2.406666666666667E+009;1.696354448795319E-001;-6.358108483254910E-003;-1.553221372887492E-003;-3.759170416742563E-003;
2.406833333333334E+009;1.695594787597656E-001;-7.879499346017838E-003;-1.686095609329641E-003;-3.474118188023567E-003;
2.407000000000000E+009;1.694620698690414E-001;-9.281923063099384E-003;-1.854759873822331E-003;-3.494443837553263E-003;
2.407166666666667E+009;1.693499535322189E-001;-1.064060535281897E-002;-2.010208787396550E-003;-3.321395488455892E-003;
2.407333333333334E+009;1.690804809331894E-001;-1.212681178003550E-002;-2.221502130851150E-003;-3.282689489424229E-003;
2.407500000000000E+009;1.688631623983383E-001;-1.324055343866348E-002;-2.390431938692927E-003;-3.189214970916510E-003;
2.407666666666667E+009;1.686614006757736E-001;-1.452715042978525E-002;-2.486980287358165E-003;-2.797999652102590E-003;
2.407833333333334E+009;1.683438718318939E-001;-1.576499082148075E-002;-2.682213904336095E-003;-2.591392956674099E-003;
2.408000000000000E+009;1.682428568601608E-001;-1.684501767158508E-002;-2.781233750283718E-003;-2.460829447954893E-003;
2.408166666666667E+009;1.681864559650421E-001;-1.758826151490212E-002;-2.713670255616307E-003;-2.156053669750691E-003;
2.408333333333334E+009;1.682942360639572E-001;-1.860882528126240E-002;-2.694849623367190E-003;-2.080557402223349E-003;
2.408500000000000E+009;1.680574864149094E-001;-1.967811957001686E-002;-2.708835527300835E-003;-1.832686481066048E-003;
2.408666666666667E+009;1.682111918926239E-001;-2.057567797601223E-002;-2.635005628690124E-003;-1.508969464339316E-003;
2.408833333333334E+009;1.682436168193817E-001;-2.136778086423874E-002;-2.581889508292079E-003;-1.360866008326411E-003;
2.409000000000000E+009;1.683007180690765E-001;-2.213717438280582E-002;-2.588363597169519E-003;-1.212812960147858E-003;
2.409166666666667E+009;1.683632135391235E-001;-2.308456413447857E-002;-2.374766860157251E-003;-1.214509131386876E-003;
2.409333333333334E+009;1.686142385005951E-001;-2.387537062168121E-002;-2.239552326500416E-003;-1.046504825353622E-003;
2.409500000000000E+009;1.686353832483292E-001;-2.495949715375900E-002;-2.123518148437142E-003;-9.717397624626756E-004;
2.409666666666667E+009;1.687247157096863E-001;-2.577641606330872E-002;-2.058017533272505E-003;-1.008874969556928E-003;
2.409833333333334E+009;1.687372028827667E-001;-2.661834843456745E-002;-1.892578788101673E-003;-1.097205793485045E-003;
2.410000000000000E+009;1.690179705619812E-001;-2.741877734661102E-002;-1.737876213155687E-003;-8.534017251804471E-004;
2.410166666666667E+009;1.690879464149475E-001;-2.836815081536770E-002;-1.536424038931727E-003;-9.523072512820363E-004;
2.410333333333334E+009;1.691213548183441E-001;-2.936730533838272E-002;-1.478752586990595E-003;-9.379117982462049E-004;
2.410500000000000E+009;1.690599769353867E-001;-3.036972507834435E-002;-1.385834999382496E-003;-1.124569331295788E-003;
2.410666666666667E+009;1.689240634441376E-001;-3.143890574574471E-002;-1.538973650895059E-003;-1.140131382271648E-003;
2.410833333333334E+009;1.689360290765762E-001;-3.224890679121018E-002;-1.329571008682251E-003;-1.271545304916799E-003;
2.411000000000000E+009;1.687250882387161E-001;-3.308357298374176E-002;-1.356889959424734E-003;-1.170072588138282E-003;
2.411166666666667E+009;1.686316728591919E-001;-3.422186523675919E-002;-1.442376640625298E-003;-1.402006018906832E-003;
2.411333333333334E+009;1.682012379169464E-001;-3.501795977354050E-002;-1.380843343213201E-003;-1.460846746340394E-003;
2.411500000000000E+009;1.680606007575989E-001;-3.609239682555199E-002;-1.446385285817087E-003;-1.361088128760457E-003;
2.411666666666667E+009;1.679316312074661E-001;-3.684809058904648E-002;-1.523245358839631E-003;-1.729566953144968E-003;
2.411833333333334E+009;1.677394211292267E-001;-3.765289485454559E-002;-1.603222801350057E-003;-1.726884394884110E-003;
2.412000000000000E+009;1.673151403665543E-001;-3.875289857387543E-002;-1.656968379393220E-003;-1.634576008655131E-003;
2.412166666666667E+009;1.669792830944061E-001;-3.977639228105545E-002;-1.715085469186306E-003;-1.730893505737186E-003;
2.412333333333334E+009;1.669133901596069E-001;-4.053168743848801E-002;-1.693335711024702E-003;-1.816151197999716E-003;
2.412500000000000E+009;1.664142459630966E-001;-4.162354767322540E-002;-1.736846519634128E-003;-1.692778780125082E-003;
2.412666666666667E+009;1.661758720874786E-001;-4.281982779502869E-002;-1.977991312742233E-003;-1.755764707922936E-003;
2.412833333333334E+009;1.657350212335587E-001;-4.364165663719177E-002;-2.010026248171926E-003;-1.933977939188480E-003;
2.413000000000000E+009;1.653108894824982E-001;-4.465340822935104E-002;-2.321274019777775E-003;-2.074085874482989E-003;
2.413166666666667E+009;1.647278219461441E-001;-4.559441283345223E-002;-2.155786845833063E-003;-2.004339359700680E-003;
2.413333333333334E+009;1.642875373363495E-001;-4.672709107398987E-002;-2.179065719246864E-003;-2.030103933066130E-003;
2.413500000000000E+009;1.639982014894486E-001;-4.779871553182602E-002;-2.389576984569430E-003;-1.957065425813198E-003;
2.413666666666667E+009;1.636949926614761E-001;-4.875370487570763E-002;-2.614346565678716E-003;-1.950722537003458E-003;
2.413833333333334E+009;1.630976051092148E-001;-4.981306940317154E-002;-2.520058769732714E-003;-1.997226616367698E-003;
2.414000000000000E+009;1.625234931707382E-001;-5.078326910734177E-002;-2.914077369496226E-003;-1.938416738994420E-003;
2.414166666666667E+009;1.622725427150726E-001;-5.167322978377342E-002;-3.066702745854855E-003;-1.965474104508758E-003;
2.414333333333334E+009;1.617916226387024E-001;-5.276079103350639E-002;-3.095419611781836E-003;-2.110227476805449E-003;
2.414500000000000E+009;1.617031544446945E-001;-5.359387397766113E-002;-3.222395898774266E-003;-1.868923543952406E-003;
2.414666666666667E+009;1.613336801528931E-001;-5.466755479574204E-002;-3.404289949685335E-003;-1.842297613620758E-003;
2.414833333333334E+009;1.610331088304520E-001;-5.559051409363747E-002;-3.574246773496270E-003;-1.745517365634441E-003;
2.415000000000000E+009;1.609092205762863E-001;-5.659755691885948E-002;-3.873950568959117E-003;-1.760449609719217E-003;
2.415166666666667E+009;1.607047766447067E-001;-5.779668316245079E-002;-3.941856790333986E-003;-1.648098579607904E-003;
2.415333333333334E+009;1.605783849954605E-001;-5.887123569846153E-002;-4.307086579501629E-003;-1.506880740635097E-003;
2.415500000000000E+009;1.605339199304581E-001;-5.994325131177902E-002;-4.290195647627115E-003;-1.341281807981432E-003;
2.415666666666667E+009;1.602689772844315E-001;-6.101025268435478E-002;-4.723773337900639E-003;-1.214098650962114E-003;
2.415833333333334E+009;1.601503789424896E-001;-6.236185878515244E-002;-4.735817201435566E-003;-1.074809581041336E-003;
2.416000000000000E+009;1.598337441682816E-001;-6.351064890623093E-002;-5.140846129506826E-003;-6.697923527099192E-004;
2.416166666666667E+009;1.598934680223465E-001;-6.455058604478836E-002;-5.389544647186995E-003;-4.816813161596656E-004;
2.416333333333334E+009;1.594372242689133E-001;-6.572683900594711E-002;-5.260481033474207E-003;-1.439837360521779E-004;
2.416500000000000E+009;1.593421548604965E-001;-6.701184809207916E-002;-5.616078618913889E-003;2.808975405059755E-004;
2.416666666666667E+009;1.589784771203995E-001;-6.805037707090378E-002;-5.529426969587803E-003;4.743267490994185E-004;
2.416833333333334E+009;1.586964577436447E-001;-6.935310363769531E-002;-5.618643481284380E-003;1.039349124766886E-003;
2.417000000000000E+009;1.582482308149338E-001;-7.045767456293106E-002;-5.745912902057171E-003;1.285180565901101E-003;
2.417166666666667E+009;1.579655855894089E-001;-7.136678695678711E-002;-5.642618983983994E-003;1.689834287390113E-003;
2.417333333333334E+009;1.576751917600632E-001;-7.228500396013260E-002;-5.502488929778338E-003;2.067797817289829E-003;
2.417500000000000E+009;1.574198603630066E-001;-7.337471097707748E-002;-5.380935966968536E-003;2.458852250128985E-003;
2.417666666666667E+009;1.571630090475082E-001;-7.420865446329117E-002;-5.370400846004486E-003;2.819262212142348E-003;
2.417833333333334E+009;1.567496806383133E-001;-7.496331632137299E-002;-4.999145865440369E-003;3.227118635550141E-003;
2.418000000000000E+009;1.563005000352860E-001;-7.602827996015549E-002;-4.715151619166136E-003;3.550240769982338E-003;
2.418166666666667E+009;1.560671627521515E-001;-7.671687752008438E-002;-4.458486102521420E-003;3.702396992594004E-003;
2.418333333333334E+009;1.560392826795578E-001;-7.757659256458283E-002;-4.133960232138634E-003;4.022839479148388E-003;
2.418500000000000E+009;1.555657237768173E-001;-7.821314781904221E-002;-3.869579173624516E-003;4.220817238092423E-003;
2.418666666666667E+009;1.554728895425797E-001;-7.898902893066406E-002;-3.493675263598561E-003;4.405605606734753E-003;
2.418833333333334E+009;1.548801511526108E-001;-7.985022664070129E-002;-3.199998289346695E-003;4.485706798732281E-003;
2.419000000000000E+009;1.544194519519806E-001;-8.051963895559311E-002;-2.777167828753591E-003;4.625656642019749E-003;
2.419166666666667E+009;1.542098522186279E-001;-8.115002512931824E-002;-2.593330573290587E-003;4.752981476485729E-003;
2.419333333333334E+009;1.537406146526337E-001;-8.170122653245926E-002;-2.140247495844960E-003;4.681907128542662E-003;
2.419500000000000E+009;1.534115672111511E-001;-8.239614218473434E-002;-1.690321019850671E-003;4.629071336239576E-003;
2.419666666666667E+009;1.531742066144943E-001;-8.305118978023529E-002;-1.530966255813837E-003;4.542648792266846E-003;
2.419833333333334E+009;1.527512669563294E-001;-8.356445282697678E-002;-1.327124889940023E-003;4.577882122248411E-003;
2.420000000000000E+009;1.525375396013260E-001;-8.412968367338181E-002;-1.108341151848435E-003;4.456925205886364E-003;
2.420166666666667E+009;1.520038396120071E-001;-8.465836197137833E-002;-7.236832752823830E-004;4.325769376009703E-003;
2.420333333333334E+009;1.516762524843216E-001;-8.543216437101364E-002;-4.543136747088283E-004;4.215349908918142E-003;
2.420500000000000E+009;1.513189375400543E-001;-8.587795495986939E-002;-3.091845719609410E-004;4.140418488532305E-003;
2.420666666666667E+009;1.508583873510361E-001;-8.622066676616669E-002;-8.482527482556179E-005;3.751147072762251E-003;
2.420833333333334E+009;1.506244987249374E-001;-8.701821416616440E-002;1.019810006255284E-004;3.786629764363170E-003;
2.421000000000000E+009;1.500282436609268E-001;-8.780022710561752E-002;3.873876703437418E-004;3.500442719087005E-003;
2.421166666666667E+009;1.496673375368118E-001;-8.832381665706635E-002;3.548912354744971E-004;3.414449747651815E-003;
2.421333333333334E+009;1.491921842098236E-001;-8.907910436391830E-002;5.698753520846367E-004;3.258615266531706E-003;
2.421500000000000E+009;1.485112756490707E-001;-8.963046222925186E-002;4.839501343667507E-004;3.071711398661137E-003;
2.421666666666667E+009;1.481904238462448E-001;-9.045496582984924E-002;6.238479982130230E-004;2.764942590147257E-003;
2.421833333333334E+009;1.475825011730194E-001;-9.104853868484497E-002;5.480664549395442E-004;2.651196205988526E-003;
2.422000000000000E+009;1.467964947223663E-001;-9.191316366195679E-002;4.622395790647715E-004;2.527398057281971E-003;
2.422166666666667E+009;1.461516469717026E-001;-9.273537993431091E-002;4.828675882890821E-004;2.280377084389329E-003;
2.422333333333334E+009;1.458896994590759E-001;-9.339515119791031E-002;5.096613895148039E-004;2.288563875481486E-003;
2.422500000000000E+009;1.451764851808548E-001;-9.403878450393677E-002;3.620465286076069E-004;2.318142447620630E-003;
2.422666666666667E+009;1.445729136466980E-001;-9.486000239849091E-002;2.618625294417143E-004;2.175202360376716E-003;
2.422833333333334E+009;1.440453380346298E-001;-9.580224007368088E-002;2.504535659682006E-004;2.168334089219570E-003;
2.423000000000000E+009;1.433613598346710E-001;-9.667783230543137E-002;1.906186080304906E-004;1.963033340871334E-003;
2.423166666666667E+009;1.428795009851456E-001;-9.756600111722946E-002;1.908411650219932E-004;1.973399426788092E-003;
2.423333333333334E+009;1.423394083976746E-001;-9.840533882379532E-002;1.598673989064992E-004;1.969616860151291E-003;
2.423500000000000E+009;1.415910869836807E-001;-9.955106675624847E-002;1.182592241093516E-004;2.052389085292816E-003;
2.423666666666667E+009;1.407519280910492E-001;-1.004964783787727E-001;-1.865348167484626E-005;1.939293346367776E-003;
2.423833333333334E+009;1.403306871652603E-001;-1.015613526105881E-001;6.358835526043549E-005;1.955664716660976E-003;
2.424000000000000E+009;1.395604461431503E-001;-1.023680046200752E-001;-9.092082473216578E-005;1.958432141691446E-003;
2.424166666666667E+009;1.387794464826584E-001;-1.033826172351837E-001;-5.651512765325606E-005;2.058505546301603E-003;
2.424333333333334E+009;1.384199857711792E-001;-1.043460294604302E-001;-1.501957740401849E-004;2.236559521406889E-003;
2.424500000000000E+009;1.377319097518921E-001;-1.053497046232224E-001;-2.022703411057591E-004;2.127880463376641E-003;
2.424666666666667E+009;1.371877491474152E-001;-1.061552092432976E-001;-1.045646131387912E-004;2.164272824302316E-003;
2.424833333333334E+009;1.365258693695068E-001;-1.071570292115212E-001;-8.160689321812242E-005;2.133752917870879E-003;
2.425000000000000E+009;1.361261904239655E-001;-1.082516610622406E-001;1.638248068047687E-004;2.339391503483057E-003;
2.425166666666667E+009;1.353648751974106E-001;-1.092598661780357E-001;-6.588885753444629E-006;2.329394454136491E-003;
2.425333333333334E+009;1.349391192197800E-001;-1.101836264133453E-001;-5.344934834283777E-005;2.571349963545799E-003;
2.425500000000000E+009;1.344965845346451E-001;-1.113044172525406E-001;1.612939377082512E-004;2.552579622715712E-003;
2.425666666666667E+009;1.337897032499313E-001;-1.122136935591698E-001;2.711636770982295E-004;2.609885530546308E-003;
2.425833333333334E+009;1.333447694778442E-001;-1.131259575486183E-001;3.205910325050354E-004;2.699351869523525E-003;
2.426000000000000E+009;1.329949498176575E-001;-1.141919046640396E-001;4.634832439478487E-004;2.383142476901412E-003;
2.426166666666667E+009;1.326924562454224E-001;-1.150756180286408E-001;4.034060984849930E-004;2.483312971889973E-003;
2.426333333333334E+009;1.321143060922623E-001;-1.159873083233833E-001;5.899009993299842E-004;2.510774880647659E-003;
2.426500000000000E+009;1.318119913339615E-001;-1.168777719140053E-001;6.563663482666016E-004;2.260116161778569E-003;
2.426666666666667E+009;1.315106004476547E-001;-1.174396201968193E-001;7.296175463125110E-004;2.548767486587167E-003;
2.426833333333334E+009;1.310518980026245E-001;-1.184601038694382E-001;6.826573517173529E-004;2.444513374939561E-003;
2.427000000000000E+009;1.306223422288895E-001;-1.192772015929222E-001;7.432050770148635E-004;2.536618616431952E-003;
2.427166666666667E+009;1.302496790885925E-001;-1.199449151754379E-001;7.171984761953354E-004;2.287165261805058E-003;
2.427333333333334E+009;1.298397779464722E-001;-1.206043958663940E-001;8.811225416138768E-004;2.281773835420609E-003;
2.427500000000000E+009;1.296684294939041E-001;-1.214074715971947E-001;1.019875868223608E-003;2.517801010981202E-003;
2.427666666666667E+009;1.293491721153259E-001;-1.221793740987778E-001;1.072532148100436E-003;2.482430310919881E-003;
