# Hz S RI R 50
2400000000.0000000000 0.155577808618545504470986884371 0.104765295982360798210386576557 -0.002158584771677852110621786963 -0.003171626944094895882847451318 0 0 0 0 
2400166666.6666665077 0.155400753021240206619424384371 0.102558232843875898887553432814 -0.002384344115853310065028525244 -0.003068135818466544151306152344 0 0 0 0 
2400333333.3333334923 0.155792340636253412444744981258 0.100113950669765500167684990629 -0.002142150187864900068995810400 -0.002954273950308560891392373193 0 0 0 0 
2400500000.0000000000 0.155706033110618591308593750000 0.097865842282772064208984375000 -0.002130358247086406187770224463 -0.002809801371768116950988769531 0 0 0 0 
2400666666.6666665077 0.155952379107475308517294365629 0.095350928604602813720703125000 -0.001763593056239187934278178638 -0.002922113519161940054652548682 0 0 0 0 
2400833333.3333334923 0.156098961830139187911825615629 0.092635028064250946044921875000 -0.002039001788944005966186523438 -0.002970875706523656845092773438 0 0 0 0 
2401000000.0000000000 0.156493410468101501464843750000 0.089954964816570281982421875000 -0.001986465649679303169250488281 -0.002951827133074402809143066406 0 0 0 0 
2401166666.6666665077 0.156421735882759094238281250000 0.087264500558376312255859375000 -0.002064123284071683883666992188 -0.002997814677655696868896484375 0 0 0 0 
2401333333.3333334923 0.157145455479621887207031250000 0.084727145731449127197265625000 -0.002181991003453731970546103369 -0.003229930298402905897853232275 0 0 0 0 
2401500000.0000000000 0.157407596707344110686932481258 0.081936396658420562744140625000 -0.002253672573715447945835732568 -0.003125665476545691923854208838 0 0 0 0 
2401666666.6666665077 0.158084273338317898849325615629 0.079431496560573577880859375000 -0.002647431101650000052211142432 -0.003220667596906424002406454932 0 0 0 0 
2401833333.3333334923 0.158496126532554598709268134371 0.076667577028274536132812500000 -0.002557642525061964988708496094 -0.003277470124885439872741699219 0 0 0 0 
2402000000.0000000000 0.159471809864044189453125000000 0.074185594916343688964843750000 -0.002781030023470520973205566406 -0.003106134943664073944091796875 0 0 0 0 
2402166666.6666665077 0.160156130790710504729901231258 0.071937158703804016113281250000 -0.002912688301876186890843056787 -0.003020497038960456848144531250 0 0 0 0 
2402333333.3333334923 0.161312073469161987304687500000 0.069228224456310272216796875000 -0.003098723944276570840122841943 -0.002929414622485638098475790869 0 0 0 0 
2402500000.0000000000 0.162253960967063903808593750000 0.066878810524940490722656250000 -0.003378119086846708817722939600 -0.002848712261766194863560341943 0 0 0 0 
2402666666.6666665077 0.163269624114036587814169365629 0.064904302358627319335937500000 -0.003403063630685209794285439600 -0.002752888714894651932957314600 0 0 0 0 
2402833333.3333334923 0.164640635251998901367187500000 0.062394086271524429321289062500 -0.003556248964741826057434082031 -0.002572717377915977998020791162 0 0 0 0 
2403000000.0000000000 0.166062980890274103362713731258 0.060287963598966598510742187500 -0.003830461297184228897094726562 -0.002427643630653620199916220557 0 0 0 0 
2403166666.6666665077 0.167744755744934109786825615629 0.058253321796655661846120466407 -0.003783068619668484167811728369 -0.002395591465756297111511230469 0 0 0 0 
2403333333.3333334923 0.169059842824935913085937500000 0.056351922452449798583984375000 -0.003745203604921699003932333838 -0.001938120811246335940120077979 0 0 0 0 
2403500000.0000000000 0.170691922307014493087606865629 0.054148595780134201049804687500 -0.003894866677001119093654013525 -0.001869924599304795048357319409 0 0 0 0 
2403666666.6666665077 0.172269865870475796798544365629 0.052568327635526657104492187500 -0.003992466256022453308105468750 -0.001685547409579158046125102466 0 0 0 0 
2403833333.3333334923 0.173710301518440302093182481258 0.050600524991750717163085937500 -0.004045338835567235946655273438 -0.001524216262623667933820414966 0 0 0 0 
2404000000.0000000000 0.175075605511665288727130018742 0.049014996737241751934011091407 -0.003928889054805040359497070312 -0.001338061993010341904283833081 0 0 0 0 
2404166666.6666665077 0.176767304539680508712606865629 0.047608695924282067035715471093 -0.004181934986263514432425214551 -0.001164548797532916069030761719 0 0 0 0 
2404333333.3333334923 0.178243041038513211349325615629 0.046097755432128913188893903907 -0.004122385289520025253295898438 -0.001115066464990376992466591943 0 0 0 0 
2404500000.0000000000 0.179631322622299194335937500000 0.044804386794567108154296875000 -0.003895590314641594886779785156 -0.000904751068446785211563110352 0 0 0 0 
2404666666.6666665077 0.181162402033805902679119981258 0.043762445449829101562500000000 -0.003914156462997198104858398438 -0.000825208378955721855163574219 0 0 0 0 
2404833333.3333334923 0.182613387703895596603231865629 0.042638160288333892822265625000 -0.003818775294348597960231161963 -0.000662478792946785688400268555 0 0 0 0 
2405000000.0000000000 0.183746397495269803146200615629 0.042129632085561752319335937500 -0.003770231734961270852329873193 -0.000584781810175627470016479492 0 0 0 0 
2405166666.6666665077 0.184965878725051907638388115629 0.041126888245344161987304687500 -0.003878080518916248841526650537 -0.000445654062787070924609583722 0 0 0 0 
2405333333.3333334923 0.186220526695251492599325615629 0.040720064193010330200195312500 -0.003796202363446354866027832031 -0.000410481705330312306254786359 0 0 0 0 
2405500000.0000000000 0.187552675604820306975994981258 0.040293138474225997924804687500 -0.003826097818091512160060263525 -0.000493186758831143379211425781 0 0 0 0 
2405666666.6666665077 0.188628762960433987716513115629 0.039649579674005508422851562500 -0.003642208175733685927150107275 -0.000299497507512569373280125751 0 0 0 0 
2405833333.3333334923 0.189686849713325500488281250000 0.039448123425245291973073591407 -0.003794393735006452040431357275 -0.000379842880647629499435424805 0 0 0 0 
2406000000.0000000000 0.190513074398040799239950615629 0.039060968905687332153320312500 -0.003819131758064032034633017432 -0.000226362069952301708146771841 0 0 0 0 
2406166666.6666665077 0.191508263349533108810263115629 0.038825757801532752300222028907 -0.003907437436282634735107421875 -0.000010319088687538169324398041 0 0 0 0 
2406333333.3333334923 0.192404404282569913009481865629 0.038688238710165016864817033593 -0.003671506419777870178222656250 0.000000039321225386856901673998 0 0 0 0 
2406500000.0000000000 0.192989006638526888748330634371 0.038542319089174270629882812500 -0.003848667489364742799046181787 0.000103447622677777003176273485 0 0 0 0 
2406666666.6666665077 0.193467140197753906250000000000 0.038524087518453598022460937500 -0.003887572558596729798557900537 0.000115904185804538401678362436 0 0 0 0 
2406833333.3333334923 0.193867340683937100509481865629 0.038301203399896621704101562500 -0.003913956694304943084716796875 0.000153979213791899410173139029 0 0 0 0 
2407000000.0000000000 0.194119751453399713714276231258 0.038314312696456909179687500000 -0.003930260892957448959350585938 0.000179228474735282388612470084 0 0 0 0 
2407166666.6666665077 0.194533154368400601486044365629 0.037987541407346732402761091407 -0.003784133121371268792393349756 0.000268366071395576000213623047 0 0 0 0 
2407333333.3333334923 0.194463431835174588302450615629 0.037959333509206771850585937500 -0.004047571681439877423758222363 0.000439360592281445915072840558 0 0 0 0 
2407500000.0000000000 0.194385379552841186523437500000 0.037977308034896850585937500000 -0.004027430433779954910278320312 0.000581658328883349895477294922 0 0 0 0 
2407666666.6666665077 0.194541364908218411544638115629 0.037661850452423102642018903907 -0.003899757517501711845397949219 0.000760573544539511203765869141 0 0 0 0 
2407833333.3333334923 0.194050282239913912674111884371 0.037344492971897132183034528907 -0.003945158794522286328787519238 0.000680641212966293096542358398 0 0 0 0 
2408000000.0000000000 0.193958953022956903655682481258 0.036986671388149261474609375000 -0.003899234579876064820530556787 0.000796079577412456274032592773 0 0 0 0 
2408166666.6666665077 0.193447068333625793457031250000 0.036680508404970169067382812500 -0.004037178121507167816162109375 0.001009705709293484904645610278 0 0 0 0 
2408333333.3333334923 0.193160429596900912185830634371 0.035967037081718451763112653907 -0.003980020061135292053222656250 0.000915453478228300809860229492 0 0 0 0 
2408500000.0000000000 0.192482963204383905608807481258 0.035463754087686538696289062500 -0.004048272501677274703979492188 0.001214483520016073963762592847 0 0 0 0 
2408666666.6666665077 0.191959023475647000411825615629 0.034846857190132141113281250000 -0.003898251103237270875218056787 0.001174629898741841099382710034 0 0 0 0 
2408833333.3333334923 0.191375955939292907714843750000 0.033861301839351647113840471093 -0.003994099795818328857421875000 0.001369721139781177043914794922 0 0 0 0 
2409000000.0000000000 0.190539002418518094161825615629 0.032925970852375030517578125000 -0.004070145078003407392019941113 0.001576208043843507983564067310 0 0 0 0 
2409166666.6666665077 0.189869597554206903655682481258 0.031867083162069320678710937500 -0.004039202816784381866455078125 0.001751314965076744990107870947 0 0 0 0 
2409333333.3333334923 0.189068034291267395019531250000 0.030646823346614841115931326954 -0.003978574182838202390188886426 0.001979994121938943862915039062 0 0 0 0 
2409500000.0000000000 0.188021242618560791015625000000 0.029461905360221859323521798046 -0.004020056221634150418753339551 0.002045730594545602798461914062 0 0 0 0 
2409666666.6666665077 0.187204465270042391678018134371 0.027978748083114620553990548046 -0.004030155017971993360037519238 0.002253717510029674010035849463 0 0 0 0 
2409833333.3333334923 0.186359241604804992675781250000 0.026440992951393130910853201954 -0.003942906390875577926635742188 0.002472183667123318152186728369 0 0 0 0 
2410000000.0000000000 0.185661882162094088455361884371 0.024715974926948550832728201954 -0.003799786325544118881225585938 0.002576252445578575134277343750 0 0 0 0 
2410166666.6666665077 0.184769272804260309417401231258 0.023007381707429889333704764454 -0.003710101591423153877258300781 0.002750157378613948822021484375 0 0 0 0 
2410333333.3333334923 0.183902010321617098709268134371 0.021179953590035438537597656250 -0.003536589909344912008998251807 0.003080790163949131965637207031 0 0 0 0 
2410500000.0000000000 0.183191686868667602539062500000 0.019372634589672088623046875000 -0.003403755137696861787083291162 0.003041040850803256034851074219 0 0 0 0 
2410666666.6666665077 0.182504266500472994705361884371 0.017142767086625099182128906250 -0.003148915013298391862156533350 0.003286949591711163954493857275 0 0 0 0 
2410833333.3333334923 0.181881561875343294998330634371 0.014950098469853399449358555273 -0.003074022475630044937133789062 0.003366457764059305191040039062 0 0 0 0 
2411000000.0000000000 0.181319326162338312347088731258 0.012858489528298379725446132227 -0.002896827878430486159083701025 0.003306727856397628784179687500 0 0 0 0 
2411166666.6666665077 0.180847287178039606292401231258 0.010869221761822700500488281250 -0.002782922005280851884129189600 0.003542208345606923103332519531 0 0 0 0 
2411333333.3333334923 0.180436700582504300216513115629 0.008199990727007389068603515625 -0.002564956899732350869419716943 0.003421831643208860917332314600 0 0 0 0 
2411500000.0000000000 0.179947450757026700118856865629 0.006043895147740840911865234375 -0.002539698733016848997828818213 0.003553852206096053123474121094 0 0 0 0 
2411666666.6666665077 0.180033400654792813400106865629 0.003906825557351112365722656250 -0.002474604407325387001037597656 0.003588547464460134939906454932 0 0 0 0 
2411833333.3333334923 0.179599791765213012695312500000 0.001719861757010221915004111182 -0.002228809520602225823643349756 0.003481160150840878920314169775 0 0 0 0 
2412000000.0000000000 0.179840251803398104568643134371 -0.000836217135656625032424926758 -0.002153896493837236924412392725 0.003683646209537982940673828125 0 0 0 0 
2412166666.6666665077 0.179877385497093200683593750000 -0.003016238100826739831211709131 -0.002008844399824738936183310400 0.003702751360833644866943359375 0 0 0 0 
2412333333.3333334923 0.180096596479415893554687500000 -0.005449660122394561767578125000 -0.001764442306011914990068745190 0.003791605588048696951625204932 0 0 0 0 
2412500000.0000000000 0.180765822529792813400106865629 -0.007561588194221258163452148438 -0.001742867985740303993225097656 0.003758156439289451079127646338 0 0 0 0 
2412666666.6666665077 0.181178748607635498046875000000 -0.009877024218440055847167968750 -0.001587961800396441979649209131 0.003847653977572917938232421875 0 0 0 0 
2412833333.3333334923 0.181763499975204495529013115629 -0.012288090772926809138287929102 -0.001694173319265245957615517725 0.003846438368782401084899902344 0 0 0 0 
2413000000.0000000000 0.182618156075477600097656250000 -0.014499537646770480764368826954 -0.001394956256262958049774169922 0.003789367619901895956752158057 0 0 0 0 
2413166666.6666665077 0.183051064610481289962606865629 -0.016311343759298331523854841407 -0.001465274253860116004943847656 0.003742693923413753943202353369 0 0 0 0 
2413333333.3333334923 0.184215351939201410491619981258 -0.018635021522641178476353829296 -0.001234244438819587013841938550 0.003890661755576730208155966650 0 0 0 0 
2413500000.0000000000 0.184960335493087796310263115629 -0.020766025409102439880371093750 -0.001198469661176204898236918872 0.003828188404440879821777343750 0 0 0 0 
2413666666.6666665077 0.186111390590667696853799384371 -0.022741049528121951711634451954 -0.000935629417654126882553100586 0.003906854428350924578194902637 0 0 0 0 
2413833333.3333334923 0.187137395143508911132812500000 -0.024513956159353259695032889454 -0.001023087766952813105342245947 0.003988475538790225982666015625 0 0 0 0 
2414000000.0000000000 0.188043594360351590255575615629 -0.026379754766821861267089843750 -0.000934401061385869979858398438 0.003962168470025063428396894238 0 0 0 0 
2414166666.6666665077 0.189188808202743502517861884371 -0.028103103861212730407714843750 -0.000894780852831900119781494141 0.004170224536210299405569745801 0 0 0 0 
2414333333.3333334923 0.190180972218513488769531250000 -0.030079927295446399343470389454 -0.000641819322481751441955566406 0.004072046838700771331787109375 0 0 0 0 
2414500000.0000000000 0.191283956170082092285156250000 -0.031278852373361587524414062500 -0.000488132529426366090774536133 0.004209354985505343350882245801 0 0 0 0 
2414666666.6666665077 0.192244485020637512207031250000 -0.032716393470764160156250000000 -0.000182427887921221608489436017 0.004153002519160509109497070312 0 0 0 0 
2414833333.3333334923 0.193217411637306213378906250000 -0.034107148647308349609375000000 -0.000188936639460734995916643686 0.004156430717557668685913085938 0 0 0 0 
2415000000.0000000000 0.194199532270431490799111884371 -0.035387776792049407958984375000 -0.000057454690249869599938392639 0.004112883005291224393362714551 0 0 0 0 
2415166666.6666665077 0.195222795009613009353799384371 -0.036354757845401756977121721093 0.000064180210756603628396987915 0.004073764663189649581909179688 0 0 0 0 
2415333333.3333334923 0.196358442306518610198651231258 -0.037300597876310348510742187500 0.000239049419178627404287615366 0.004095671698451042175292968750 0 0 0 0 
2415500000.0000000000 0.197271421551704406738281250000 -0.038018457591533660888671875000 0.000348417786881327574879246844 0.004114714916795492172241210938 0 0 0 0 
2415666666.6666665077 0.198138117790222195724325615629 -0.038895141333341598510742187500 0.000414052192354574799537658691 0.003970327321439982327933027051 0 0 0 0 
2415833333.3333334923 0.198835238814353887359942518742 -0.039533220231533050537109375000 0.000521304027643054723739624023 0.004004802089184522628784179688 0 0 0 0 
2416000000.0000000000 0.199373513460159301757812500000 -0.040149733424186706542968750000 0.000628072069957852363586425781 0.003985462710261344909667968750 0 0 0 0 
2416166666.6666665077 0.199979305267334012130575615629 -0.040830682963132858276367187500 0.000714535475708544254302978516 0.003963740542531014356131269238 0 0 0 0 
2416333333.3333334923 0.200477182865142794510049384371 -0.041130568832159042358398437500 0.001005172729492187933680868994 0.003887589788064361052272177588 0 0 0 0 
2416500000.0000000000 0.200906366109847994705361884371 -0.041367620229721069335937500000 0.000886509602423757314682006836 0.003882619319483637809753417969 0 0 0 0 
2416666666.6666665077 0.201064810156822204589843750000 -0.041935835033655166625976562500 0.001045951968990266106249165112 0.003889230778440833091735839844 0 0 0 0 
2416833333.3333334923 0.201190218329429598709268134371 -0.042023472487926483154296875000 0.001211207942105829932569194263 0.003872150089591741995570517432 0 0 0 0 
2417000000.0000000000 0.201339557766914395431356865629 -0.042315740138292312622070312500 0.001258357428014277978184365381 0.004011169075965881347656250000 0 0 0 0 
2417166666.6666665077 0.200878918170929010589276231258 -0.042418599128723151470143903907 0.001504826475866138935089111328 0.003967434167861939343924237988 0 0 0 0 
2417333333.3333334923 0.200516596436500604827557481258 -0.042303286492824547504465471093 0.001641227863729000091552734375 0.003800130682066082954406738281 0 0 0 0 
2417500000.0000000000 0.200297176837921087066973768742 -0.042420100420713431621511091407 0.001630023820325732014299702222 0.003820706158876419067382812500 0 0 0 0 
2417666666.6666665077 0.199714377522468594650106865629 -0.042357072234153747558593750000 0.001919222180731594996211386572 0.003872938919812440872192382812 0 0 0 0 
2417833333.3333334923 0.199185684323310907561932481258 -0.042381104081869132305104841407 0.002094388939440249963047646631 0.003705664072185755209681845557 0 0 0 0 
2418000000.0000000000 0.198678582906722994705361884371 -0.042203016579151146625559221093 0.002291659126058220863342285156 0.003765621921047567887547158350 0 0 0 0 
2418166666.6666665077 0.197954416275024386306924384371 -0.042266625910997390747070312500 0.002297961385920643806457519531 0.003574735950678586959838867188 0 0 0 0 
2418333333.3333334923 0.196984618902206393142861884371 -0.042213346809148788452148437500 0.002362104598432778878452920068 0.003322201780974864959716796875 0 0 0 0 
2418500000.0000000000 0.195964813232421902755575615629 -0.042507819831371307373046875000 0.002537670079618691964390420068 0.003234010888263583183288574219 0 0 0 0 
2418666666.6666665077 0.195130497217178289215411268742 -0.042537391185760498046875000000 0.002912194235250353813171386719 0.003137871390208601951599121094 0 0 0 0 
2418833333.3333334923 0.193901598453521700760049384371 -0.042747337371110923076589216407 0.002741880482062696976902627100 0.002932030707597732977626181494 0 0 0 0 
2419000000.0000000000 0.192830592393875094314736884371 -0.043078564107418060302734375000 0.002843352733179926872253417969 0.002742033684626222090480185400 0 0 0 0 
2419166666.6666665077 0.191573098301887512207031250000 -0.043572790920734412456472028907 0.002874590456485747857334756006 0.002612320706248282952549599756 0 0 0 0 
2419333333.3333334923 0.190404400229454012771768134371 -0.044038198888301849365234375000 0.002914582146331667900085449219 0.002409074455499649047851562500 0 0 0 0 
2419500000.0000000000 0.188938215374946594238281250000 -0.044633533805608749389648437500 0.002867851406335831122157431494 0.002289058174937963919398642432 0 0 0 0 
2419666666.6666665077 0.187417149543762207031250000000 -0.045566231012344360351562500000 0.002768155420199037031886435400 0.002284856513142586188075400244 0 0 0 0 
2419833333.3333334923 0.186070770025253295898437500000 -0.046217199414968490600585937500 0.002733766566962004141566611182 0.002064036671072245077845908057 0 0 0 0 
