# Hz S RI R 
2400000000.0000000000 0.169136047363281305511151231258 0.045464687049388892436940778907 -0.005759278312325477600097656250 -0.001020640949718653938890766675 0 0 0 0 
2400166666.6666665077 0.170276969671249389648437500000 0.044480372220277793193776716407 -0.005686721764504910382742597363 -0.000633963732980191707611083984 0 0 0 0 
2400333333.3333334923 0.171147614717483492752236884371 0.043210409581661217426340471093 -0.005819636862725020322317792676 -0.000184936172445304691791534424 0 0 0 0 
2400500000.0000000000 0.172195553779602106292401231258 0.042118489742279052734375000000 -0.005572603549808263778686523438 0.000185078097274527007907313214 0 0 0 0 
2400666666.6666665077 0.172828733921050997635049384371 0.041232671588659293437917341407 -0.005553251598030328750610351562 0.000507328426465392112731933594 0 0 0 0 
2400833333.3333334923 0.173774063587188692947549384371 0.040455002337694168090820312500 -0.005491354037076234817504882812 0.000671356800012290477752685547 0 0 0 0 
2401000000.0000000000 0.174702808260917691329794365629 0.039764449000358581542968750000 -0.005330813582986593246459960938 0.001011351472698152065277099609 0 0 0 0 
2401166666.6666665077 0.175224378705024691482705634371 0.038999289274215698242187500000 -0.005204725079238414764404296875 0.001386298215948045036913227612 0 0 0 0 
2401333333.3333334923 0.175990104675292996505575615629 0.038165464997291571880300153907 -0.004972291644662618637084960938 0.001615089015103877024409628760 0 0 0 0 
2401500000.0000000000 0.176781922578811701018963731258 0.037629067897796630859375000000 -0.004900389350950717926025390625 0.001817988115362823009490966797 0 0 0 0 
2401666666.6666665077 0.177285224199294988434161268742 0.037125915288925170898437500000 -0.004593323916196823120117187500 0.001927415723912418105481791919 0 0 0 0 
2401833333.3333334923 0.177667871117591913421307481258 0.036224190145730972290039062500 -0.004500905983150005340576171875 0.002193480497226119041442871094 0 0 0 0 
2402000000.0000000000 0.178016632795333890060263115629 0.035951770842075347900390625000 -0.004214259795844554901123046875 0.002387665212154387994053506006 0 0 0 0 
2402166666.6666665077 0.178588315844535799881143134371 0.035075232386589050292968750000 -0.003976535983383656415457441113 0.002479819813743234114405966650 0 0 0 0 
2402333333.3333334923 0.178909242153167696853799384371 0.034685228019952767108957658593 -0.003646060591563581986668252100 0.002792428247630596160888671875 0 0 0 0 
2402500000.0000000000 0.179476633667945889571981865629 0.034247297793626792217214216407 -0.003409505588933825926539755713 0.002775051165372132821324013818 0 0 0 0 
2402666666.6666665077 0.179616197943687411209268134371 0.033321678638458251953125000000 -0.002918994054198265075683593750 0.002869761548936367034912109375 0 0 0 0 
2402833333.3333334923 0.179649963974952697753906250000 0.032964169979095458984375000000 -0.002584752161055802865269326318 0.002829725854098796844482421875 0 0 0 0 
2403000000.0000000000 0.179753080010414095779580634371 0.032061796635389328002929687500 -0.002421566285192966894862509619 0.002870581345632671876194619287 0 0 0 0 
2403166666.6666665077 0.179836481809616088867187500000 0.031410571187734596942942033593 -0.002144515980035067038295126807 0.002911741845309733910801552881 0 0 0 0 
2403333333.3333334923 0.179701104760170010665731865629 0.030649594962596889841099923046 -0.001915181055665015957475971753 0.002818836132064462141749716650 0 0 0 0 
2403500000.0000000000 0.179397746920585604568643134371 0.029821455478668209421178048046 -0.001641105045564472892163920825 0.002591909840703010992762900244 0 0 0 0 
2403666666.6666665077 0.179194390773773193359375000000 0.028716932982206351543386091407 -0.001420704298652708964106894385 0.002463681157678366141078329932 0 0 0 0 
2403833333.3333334923 0.179011613130569513518963731258 0.027845827862620350229283516796 -0.001141889602877200083491660010 0.002382931532338262037989951025 0 0 0 0 
2404000000.0000000000 0.178532451391220092773437500000 0.026677105575799938547154610546 -0.001114108832553029060363769531 0.002248795470222831206080771338 0 0 0 0 
2404166666.6666665077 0.178194016218185397049111884371 0.025438195094466209411621093750 -0.001004078076221049048780131763 0.001984426751732825799229287256 0 0 0 0 
2404333333.3333334923 0.177748009562492398361044365629 0.024452997371554381633718122657 -0.000932038761675357818603515625 0.001790666719898581938502646338 0 0 0 0 
2404500000.0000000000 0.177256166934967013260049384371 0.023000184446573260915736014454 -0.000828763120807707309722900391 0.001538534648716449954389262622 0 0 0 0 
2404666666.6666665077 0.176784932613372802734375000000 0.021683022379875179636021798046 -0.000877700978890061378479003906 0.001423565554432570934295654297 0 0 0 0 
2404833333.3333334923 0.176219448447227505782919365629 0.020243473351001739501953125000 -0.000918638426810503005981445312 0.001138479681685566902160644531 0 0 0 0 
2405000000.0000000000 0.175735741853713989257812500000 0.018680334091186519968053048046 -0.001052259351126850085017538916 0.000896520272362977266311645508 0 0 0 0 
2405166666.6666665077 0.175150379538536099532919365629 0.017188264057040221477468122657 -0.001039994996972382068634033203 0.000962598482146859169006347656 0 0 0 0 
2405333333.3333334923 0.174800172448158291915731865629 0.015272670425474640237828438671 -0.001252533635124563953996967847 0.000627371657174080610275268555 0 0 0 0 
2405500000.0000000000 0.174283012747764587402343750000 0.013889068737626079214075858204 -0.001428859774023294015171670068 0.000624104926828294992446899414 0 0 0 0 
2405666666.6666665077 0.173960298299789400955361884371 0.012114332988858219491978829296 -0.001518380362540483908412314307 0.000471477804239839315414428711 0 0 0 0 
2405833333.3333334923 0.173424333333969088455361884371 0.010476845316588880366315272852 -0.001797118224203587012050009619 0.000545244722161442041397094727 0 0 0 0 
2406000000.0000000000 0.173099398612976101974325615629 0.008409248664975166320800781250 -0.001892769709229469082475971753 0.000546346826013177633285522461 0 0 0 0 
2406166666.6666665077 0.172750815749168395996093750000 0.006748490035533905029296875000 -0.002133619505912065939662314307 0.000398513948312029188305455341 0 0 0 0 
2406333333.3333334923 0.172774106264114407638388115629 0.004723065067082644376272870801 -0.002058128593489528136012411963 0.000624844687990844249725341797 0 0 0 0 
2406500000.0000000000 0.172501534223556490799111884371 0.002659255638718605041503906250 -0.002359260572120546860935830225 0.000417961069615557789802551270 0 0 0 0 
2406666666.6666665077 0.172208040952682495117187500000 0.000865200825501233339309692383 -0.002661207690834999084472656250 0.000628143025096505880355834961 0 0 0 0 
2406833333.3333334923 0.172370180487632806975994981258 -0.001393310842104255936266254956 -0.002804146381095052199122763525 0.000679243763443082571029663086 0 0 0 0 
2407000000.0000000000 0.172369465231895502288494981258 -0.003358002286404370827915810693 -0.002982446691021323204040527344 0.000828404270578175783157348633 0 0 0 0 
2407166666.6666665077 0.172544330358505304534588731258 -0.005335385445505380630493164062 -0.003248052205890417098999023438 0.000968709646258503198623657227 0 0 0 0 
2407333333.3333334923 0.172485247254371587555255018742 -0.007602829020470380783081054688 -0.003385839285328983826878213037 0.001237113843671977953669882666 0 0 0 0 
2407500000.0000000000 0.172811776399612399002236884371 -0.009593822993338108062744140625 -0.003410986624658108191249228369 0.001293136505410074970842670972 0 0 0 0 
2407666666.6666665077 0.172993436455726595779580634371 -0.011579743586480619257916835352 -0.003553836839273571968078613281 0.001484265201725065925000834888 0 0 0 0 
2407833333.3333334923 0.173188447952270507812500000000 -0.013715162873268129176129725977 -0.003632921958342194990870810400 0.001905961893498897986171103369 0 0 0 0 
2408000000.0000000000 0.173595204949378995040731865629 -0.015907816588878631591796875000 -0.003584607271477580070495605469 0.002089173533022404150721884619 0 0 0 0 
2408166666.6666665077 0.173862412571906987945880018742 -0.017769573256373408925989920704 -0.003618865972384810014012002100 0.002338582184165716171264648438 0 0 0 0 
2408333333.3333334923 0.174505501985549899002236884371 -0.019646024331450458871861641796 -0.003729468211531639099121093750 0.002716658869758247895481728662 0 0 0 0 
2408500000.0000000000 0.174829334020614596267861884371 -0.021581988781690601003626639454 -0.003542463760823010964634560693 0.002991970395669341087341308594 0 0 0 0 
2408666666.6666665077 0.175189718604087801834268134371 -0.023498017340898510324498360546 -0.003451589494943619208094931494 0.003458444494754076004028320312 0 0 0 0 
2408833333.3333334923 0.175444439053535489181356865629 -0.025173712521791461599329764454 -0.003358232090249658064601279150 0.003618706017732619805576943506 0 0 0 0 
2409000000.0000000000 0.175945997238159207443075615629 -0.026831587776541709899902343750 -0.003286617808043957190272665869 0.004005480092018842697143554688 0 0 0 0 
2409166666.6666665077 0.176425784826278686523437500000 -0.028362760320305820810338204296 -0.002852549077942966981175088037 0.004315305501222611340994550488 0 0 0 0 
2409333333.3333334923 0.176986515522003201583700615629 -0.029817776754498478281041329296 -0.002754535758867859840393066406 0.004477337468415498733520507812 0 0 0 0 
2409500000.0000000000 0.177500516176223810393963731258 -0.031351286917924880981445312500 -0.002390187466517090797424316406 0.004759147297590970993041992188 0 0 0 0 
2409666666.6666665077 0.177881419658660888671875000000 -0.032499387860298156738281250000 -0.002131717279553412957432412256 0.004980749916285276412963867188 0 0 0 0 
2409833333.3333334923 0.178327769041061401367187500000 -0.033424358814954757690429687500 -0.001871011336334049918531108325 0.005073020700365304946899414062 0 0 0 0 
2410000000.0000000000 0.178978040814399691482705634371 -0.034594651311635971069335937500 -0.001822738326154649040819477612 0.005352218635380268096923828125 0 0 0 0 
2410166666.6666665077 0.179493084549903897384481865629 -0.035449456423521041870117187500 -0.001306105405092238946201943506 0.005375758744776248931884765625 0 0 0 0 
2410333333.3333334923 0.179757371544838007171307481258 -0.036196909844875342632253278907 -0.000896844197995960712432861328 0.005485417786985635757446289062 0 0 0 0 
2410500000.0000000000 0.180364549160003689864950615629 -0.037037603557109832763671875000 -0.000487754208734259009361267090 0.005685357842594385147094726562 0 0 0 0 
2410666666.6666665077 0.180565625429153386871661268742 -0.037937745451927191997487653907 -0.000239906279603019410937708722 0.005607447121292352676391601562 0 0 0 0 
2410833333.3333334923 0.181218251585960388183593750000 -0.038551084697246551513671875000 -0.000149837986100465113490504132 0.005736554507166147232055664062 0 0 0 0 
2411000000.0000000000 0.181362822651863098144531250000 -0.039008557796478271484375000000 0.000402173085603863000869750977 0.005756763275712729367727948926 0 0 0 0 
2411166666.6666665077 0.181563287973403902908486884371 -0.039738763123750686645507812500 0.000752687978092581033706665039 0.005667484365403652191162109375 0 0 0 0 
2411333333.3333334923 0.181856736540794400314169365629 -0.040155228227376937866210937500 0.001138149295002222061157226562 0.005629218649119138717651367188 0 0 0 0 
2411500000.0000000000 0.181803762912750188629473768742 -0.040715388953685760498046875000 0.001255992683582008101819682544 0.005313784815371037396902753613 0 0 0 0 
2411666666.6666665077 0.181980863213539095779580634371 -0.041151575744152069091796875000 0.001734512159600853919982910156 0.005324263125658035278320312500 0 0 0 0 
2411833333.3333334923 0.181904643774032592773437500000 -0.041533023118972778320312500000 0.002040413673967123031616210938 0.005169632844626904401297284863 0 0 0 0 
2412000000.0000000000 0.181906253099441500564736884371 -0.042135894298553466796875000000 0.002357483841478825049159384619 0.004978414624929428100585937500 0 0 0 0 
2412166666.6666665077 0.181296184659004211425781250000 -0.042274944484233863140065778907 0.002614858327433466911315917969 0.004686183296144008636474609375 0 0 0 0 
2412333333.3333334923 0.181303128600120488922442518742 -0.042626168578863136982004533593 0.002679525874555110931396484375 0.004466321319341660413260175488 0 0 0 0 
2412500000.0000000000 0.180638104677200289627236884371 -0.043040934950113303447682966407 0.003012109315022826194763183594 0.004348566289991140365600585938 0 0 0 0 
2412666666.6666665077 0.180157646536827087402343750000 -0.043618008494377143169362653907 0.003069447120651603178737021338 0.003971326164901257428641034863 0 0 0 0 
2412833333.3333334923 0.179531648755073602874432481258 -0.043956812471151351928710937500 0.003258565906435250802281045068 0.003832879709079862074611044775 0 0 0 0 
2413000000.0000000000 0.178535774350166293045205634371 -0.044342588633298866962473283593 0.003187450813129543824436806787 0.003401526017114520072937011719 0 0 0 0 
2413166666.6666665077 0.177840352058410589020098768742 -0.044738631695508956909179687500 0.003164155641570686860325478662 0.003196950769051909013035439600 0 0 0 0 
2413333333.3333334923 0.176950559020042391678018134371 -0.045131053775548941875417341407 0.003360207658261061148402548682 0.003159244311973453001735068213 0 0 0 0 
2413500000.0000000000 0.176046878099441500564736884371 -0.045689731836318969726562500000 0.003221494378522038893458701025 0.002636624500155448913574218750 0 0 0 0 
2413666666.6666665077 0.175100520253181513030682481258 -0.046153333038091659545898437500 0.003177877981215714974644326318 0.002432939363643527030944824219 0 0 0 0 
2413833333.3333334923 0.173891812562942504882812500000 -0.046722803264856338500976562500 0.003305169753730297088623046875 0.002411393215879797935485839844 0 0 0 0 
2414000000.0000000000 0.172650262713432312011718750000 -0.047436729073524482036550153907 0.003226087894290686087367392432 0.002332106465473771095275878906 0 0 0 0 
2414166666.6666665077 0.171694278717040987869424384371 -0.048139974474906921386718750000 0.003250594949349761009216308594 0.002107679843902587890625000000 0 0 0 0 
2414333333.3333334923 0.170413449406623812576455634371 -0.048917118459939956665039062500 0.003162774257361888885498046875 0.001950621139258146069170307690 0 0 0 0 
2414500000.0000000000 0.169411346316337613204794365629 -0.049766231328248977661132812500 0.003043747507035731835606240381 0.001914221211336553096771240234 0 0 0 0 
2414666666.6666665077 0.168070986866950988769531250000 -0.050698202103376388549804687500 0.003002343699336051940917968750 0.001855077221989632086512900244 0 0 0 0 
2414833333.3333334923 0.166788578033447293380575615629 -0.051744427531957633281667341407 0.003064704360440372987034463037 0.001724745961837470965144492041 0 0 0 0 
2415000000.0000000000 0.165547087788581903655682481258 -0.052786882966756820678710937500 0.002920080907642840905430459131 0.001706846291199326948878622900 0 0 0 0 
2415166666.6666665077 0.164482116699218805511151231258 -0.053997077047824859619140625000 0.003022236982360482215881347656 0.001504151499830185933354043115 0 0 0 0 
2415333333.3333334923 0.163293793797493008712606865629 -0.055467732250690460205078125000 0.003007147694006561799290322412 0.001711291261017322973964072119 0 0 0 0 
2415500000.0000000000 0.162049189209938104827557481258 -0.056670449674129493022878278907 0.002861762419342995123622275244 0.001613817643374205069300986182 0 0 0 0 
2415666666.6666665077 0.160898193717002896407919365629 -0.058090791106224060058593750000 0.002683683997020124955418252100 0.001585656194947659969329833984 0 0 0 0 
2415833333.3333334923 0.159863859415054293533486884371 -0.059674348682165152812917341407 0.002882584230974317030665732275 0.001560810720548033931134868091 0 0 0 0 
2416000000.0000000000 0.158739283680915804763955634371 -0.061438251286745071411132812500 0.002870091004297136826756142725 0.001298879040405154011370014722 0 0 0 0 
2416166666.6666665077 0.157920330762863186935263115629 -0.063058406114578247070312500000 0.002899696119129658179042197119 0.001327915815636516051051474463 0 0 0 0 
2416333333.3333334923 0.156816065311431912521200615629 -0.064781777560710906982421875000 0.002996578114107251167297363281 0.001400933018885553099988627856 0 0 0 0 
2416500000.0000000000 0.155862107872963007171307481258 -0.066625900566577911376953125000 0.003037562128156424002406454932 0.001417320221662520928623818506 0 0 0 0 
2416666666.6666665077 0.154896035790443392654580634371 -0.068443879485130310058593750000 0.002907295944169164137599326025 0.001214159536175430037854838794 0 0 0 0 
2416833333.3333334923 0.154222384095192011077557481258 -0.070378474891185760498046875000 0.002909007482230662865879677881 0.001150947995483875057817768628 0 0 0 0 
2417000000.0000000000 0.153286188840866088867187500000 -0.072314776480197906494140625000 0.003006802406162023977992392432 0.001109132193960248990299843896 0 0 0 0 
2417166666.6666665077 0.152645185589790288727130018742 -0.074201673269271850585937500000 0.002718039788305758996250771631 0.001124782720580697059631347656 0 0 0 0 
2417333333.3333334923 0.152022272348403902908486884371 -0.076071538031101226806640625000 0.002921880688518286185023642432 0.000927885936107486486434936523 0 0 0 0 
2417500000.0000000000 0.151420995593071011642294365629 -0.078066721558570861816406250000 0.002845898969098926024196005713 0.000907845736946910619735717773 0 0 0 0 
2417666666.6666665077 0.151065021753311212737713731258 -0.079814761877059936523437500000 0.002929674927145243124720908057 0.000973247049842029809951782227 0 0 0 0 
2417833333.3333334923 0.150605827569961603362713731258 -0.081722684204578399658203125000 0.002912353724241257147548056494 0.000868676870595663785934448242 0 0 0 0 
2418000000.0000000000 0.150183573365211486816406250000 -0.083519138395786285400390625000 0.002847620751708745956420898438 0.001068274606950581073760986328 0 0 0 0 
2418166666.6666665077 0.149845227599144009689169365629 -0.085108742117881774902343750000 0.002935035619884728951695107568 0.000905835069715976715087890625 0 0 0 0 
2418333333.3333334923 0.149832129478454589843750000000 -0.086890973150730133056640625000 0.003070422215387225151062011719 0.001016079564578830978990864331 0 0 0 0 
2418500000.0000000000 0.149527847766876192947549384371 -0.088435679674148559570312500000 0.003113286336883902983424521338 0.001109567005187273025512695312 0 0 0 0 
2418666666.6666665077 0.149578958749771090408486884371 -0.090083241462707519531250000000 0.002987572224810719923732138525 0.001121124601922929070116352612 0 0 0 0 
2418833333.3333334923 0.149477958679199190994424384371 -0.091543391346931457519531250000 0.003142687957733869986293173682 0.001038088230416178920148539966 0 0 0 0 
2419000000.0000000000 0.149365246295929010589276231258 -0.092968724668025970458984375000 0.003144023008644580841064453125 0.001184305525384842915775918115 0 0 0 0 
2419166666.6666665077 0.149451389908790588378906250000 -0.094028837978839874267578125000 0.003372317645698786215541220557 0.001265123020857572989222861182 0 0 0 0 
2419333333.3333334923 0.149392530322074890136718750000 -0.095030225813388824462890625000 0.003581843571737409071681357275 0.001246454892680048942565917969 0 0 0 0 
2419500000.0000000000 0.149655923247337313553018134371 -0.096259437501430511474609375000 0.003681031987071036858799599756 0.001275727059692143960240029443 0 0 0 0 
2419666666.6666665077 0.149846151471138000488281250000 -0.097255900502204895019531250000 0.003959711175411939620971679688 0.001123183057643472931505512769 0 0 0 0 
2419833333.3333334923 0.149866521358489990234375000000 -0.097944252192974090576171875000 0.004090728238224983215332031250 0.000979419448412954807281494141 0 0 0 0 
