# Hz S RI R 50
2400000000.0000000000 0.169155687093734713455361884371 0.045629426836967468261718750000 -0.005705332849174737930297851562 -0.000992241548374295234680175781 0 0 0 0 
2400166666.6666665077 0.170027330517768887618856865629 0.044552005827426910400390625000 -0.005762377753853797912597656250 -0.000521506008226424455642700195 0 0 0 0 
2400333333.3333334923 0.170889884233474703689736884371 0.043357413262128829956054687500 -0.005777178797870874404907226562 -0.000311812997097149491310119629 0 0 0 0 
2400500000.0000000000 0.172252327203750610351562500000 0.042309481650590896606445312500 -0.005531937349587678909301757812 0.000142959965160116607516688214 0 0 0 0 
2400666666.6666665077 0.172866567969322204589843750000 0.041352730244398117065429687500 -0.005688666366040706634521484375 0.000269436510279774720042628156 0 0 0 0 
2400833333.3333334923 0.173681929707527188400106865629 0.040474560111761093139648437500 -0.005315937101840972900390625000 0.000777736539021134376525878906 0 0 0 0 
2401000000.0000000000 0.174595728516578702071981865629 0.039671845734119422222097028907 -0.005236877128481864929199218750 0.000975440838374197483062744141 0 0 0 0 
2401166666.6666665077 0.175257191061973599532919365629 0.038942452520132071758229841407 -0.005057550035417079925537109375 0.001254210015758872032165527344 0 0 0 0 
2401333333.3333334923 0.175904184579849187652911268742 0.038104556500911712646484375000 -0.004906704183667898178100585938 0.001545441453345119953155517578 0 0 0 0 
2401500000.0000000000 0.176880389451980590820312500000 0.037496667355299002910573591407 -0.004646257031708955764770507812 0.001612964202649890942814492334 0 0 0 0 
2401666666.6666665077 0.177447214722633389571981865629 0.037125241011381149291992187500 -0.004469006787985563278198242188 0.001970279496163129806518554688 0 0 0 0 
2401833333.3333334923 0.178003042936325100997763115629 0.036420002579689032817800153907 -0.004274675622582435607910156250 0.002207526005804539160487509619 0 0 0 0 
2402000000.0000000000 0.178391426801681490799111884371 0.035853940993547439575195312500 -0.004073279909789562225341796875 0.002124619437381625175476074219 0 0 0 0 
2402166666.6666665077 0.178746804594993591308593750000 0.035189259797334671020507812500 -0.003808972891420125961303710938 0.002442636992782353921177529443 0 0 0 0 
2402333333.3333334923 0.179011225700378390213174384371 0.034619756042957312847097028907 -0.003417313331738113923313759912 0.002776371315121651129481650244 0 0 0 0 
2402500000.0000000000 0.179399207234382601638955634371 0.034046400338411331176757812500 -0.003165456000715494155883789062 0.002870684489607810974121093750 0 0 0 0 
2402666666.6666665077 0.179556965827941894531250000000 0.033479414880275733257253278907 -0.002997346920892595811131142725 0.002865265589207410812377929688 0 0 0 0 
2402833333.3333334923 0.179668232798576410491619981258 0.032783214002847671508789062500 -0.002694381866604090170619345557 0.002944683423265815214869833838 0 0 0 0 
2403000000.0000000000 0.179766282439231900314169365629 0.032013826072216026996652971093 -0.002391902031376957893371582031 0.002738019917160273031947470557 0 0 0 0 
2403166666.6666665077 0.179677739739418002029580634371 0.031418681144714362407643903907 -0.002109342487528920173645019531 0.002750663319602609114405966650 0 0 0 0 
2403333333.3333334923 0.179721504449844388107138115629 0.030595632269978519784947579296 -0.001793130766600369973423623193 0.002739527961239219145533896338 0 0 0 0 
2403500000.0000000000 0.179484426975250188629473768742 0.029830696061253551137903983204 -0.001531020738184452056884765625 0.002712313784286379814147949219 0 0 0 0 
2403666666.6666665077 0.179322481155395507812500000000 0.028677027672529220581054687500 -0.001519178855232893986942910303 0.002456253860145806832554482568 0 0 0 0 
2403833333.3333334923 0.179051518440246609786825615629 0.027679719030857089651087576954 -0.001221506507135927893994975513 0.002309705829247831864597939600 0 0 0 0 
2404000000.0000000000 0.178662627935409601409588731258 0.026627428829669948923131173046 -0.001146632246673106930376362378 0.002093452028930186791660927881 0 0 0 0 
2404166666.6666665077 0.178185924887657193282919365629 0.025381101295351978647252266796 -0.001067327684722841002820659106 0.002063104650005698204040527344 0 0 0 0 
2404333333.3333334923 0.177842780947685186188067518742 0.024406880140304568899134451954 -0.000941045233048498630523681641 0.001824014005251229026197123950 0 0 0 0 
2404500000.0000000000 0.177128747105598505218182481258 0.022961081936955448495885079296 -0.000893755117431282997131347656 0.001563643105328083038330078125 0 0 0 0 
2404666666.6666665077 0.176740691065788296798544365629 0.021758174523711211467702497657 -0.000940051279030740261077880859 0.001489990158006549098371196216 0 0 0 0 
2404833333.3333334923 0.176300674676895113845986884371 0.020341724157333370553990548046 -0.000976420647930353879928588867 0.001251853653229773044586181641 0 0 0 0 
2405000000.0000000000 0.175637096166610690017861884371 0.018647996708750731731374372657 -0.001002125325612724044202495044 0.001014995737932621999027871240 0 0 0 0 
2405166666.6666665077 0.175385534763336209396200615629 0.017265567556023601186732108204 -0.001074091880582273006439208984 0.000913684547413140535354614258 0 0 0 0 
2405333333.3333334923 0.174826666712760897537393134371 0.015524402260780329268485822070 -0.001103894202969968102098774487 0.000906252535060048103332519531 0 0 0 0 
2405500000.0000000000 0.174526244401931790450888115629 0.013996702618896959477434727148 -0.001116050174459815025329589844 0.000551653036382049322128295898 0 0 0 0 
2405666666.6666665077 0.174035802483558710296307481258 0.012301263399422170466412929102 -0.001466110697947442965266562354 0.000705969694536179304122924805 0 0 0 0 
2405833333.3333334923 0.173486590385437011718750000000 0.010557889007031919306744960352 -0.001573988352902234034297324072 0.000366729043889790773391723633 0 0 0 0 
2406000000.0000000000 0.173390179872512789627236884371 0.008540916256606578826904296875 -0.001755245029926300048828125000 0.000488090940052643418312072754 0 0 0 0 
2406166666.6666665077 0.172797217965126009842080634371 0.006752376910299062728881835938 -0.001910729799419641928431845557 0.000612902105785906314849853516 0 0 0 0 
2406333333.3333334923 0.172841832041740389724893134371 0.004782387521117925643920898438 -0.001983119174838066101074218750 0.000285101530607789809077662335 0 0 0 0 
2406500000.0000000000 0.172516569495201110839843750000 0.002749193692579865889308310400 -0.002247350057587027983424521338 0.000338297279085964018672388898 0 0 0 0 
2406666666.6666665077 0.172302410006523104568643134371 0.000798386114183813333511352539 -0.002405855339020491080043173682 0.000539763539563864469528198242 0 0 0 0 
2406833333.3333334923 0.172367647290229797363281250000 -0.001275282236747443892835307544 -0.002715551294386386871337890625 0.000516563421115279197692871094 0 0 0 0 
2407000000.0000000000 0.172412931919097900390625000000 -0.003240225836634635925292968750 -0.002802755683660507202148437500 0.000645485764835029840469360352 0 0 0 0 
2407166666.6666665077 0.172626689076423700530682481258 -0.005385976284742355346679687500 -0.003095170482993125915527343750 0.000886633701156824827194213867 0 0 0 0 
2407333333.3333334923 0.172606974840164212325888115629 -0.007555218879133462905883789062 -0.003291746368631720976588583838 0.001159049803391098976135253906 0 0 0 0 
2407500000.0000000000 0.172772094607353210449218750000 -0.009524213150143623352050781250 -0.003216322278603910966160439600 0.001243906794115900993347167969 0 0 0 0 
2407666666.6666665077 0.173169866204261807540731865629 -0.011462068185210229701032069727 -0.003406914183869957923889160156 0.001490070018917321941973042065 0 0 0 0 
2407833333.3333334923 0.173215180635452298263388115629 -0.013845239765942100179652030079 -0.003543371101841330961940146338 0.001849578460678457996965717847 0 0 0 0 
2408000000.0000000000 0.173554971814155606368856865629 -0.015842108055949211120605468750 -0.003661043243482708930969238281 0.001990337157621980147120810400 0 0 0 0 
2408166666.6666665077 0.174017250537872286697549384371 -0.017641069367527961730957031250 -0.003583740908652544021606445312 0.002385303843766450881958007812 0 0 0 0 
2408333333.3333334923 0.174563974142074612716513115629 -0.019686568528413769113560860546 -0.003404255257919431166407919775 0.002773616928607224984409951318 0 0 0 0 
2408500000.0000000000 0.174776807427406311035156250000 -0.021606670692563060415247733204 -0.003527954686433076858520507812 0.002984956372529267831089638818 0 0 0 0 
2408666666.6666665077 0.175422728061675997635049384371 -0.023443786427378651010533516796 -0.003417867235839366912841796875 0.003385790623724461035487509619 0 0 0 0 
2408833333.3333334923 0.175684988498687688629473768742 -0.025130836293101310729980468750 -0.003342373762279748916625976562 0.003612858476117252869846963037 0 0 0 0 
2409000000.0000000000 0.176023259758949307540731865629 -0.026818040758371349679967110546 -0.003235727548599243164062500000 0.003903412958607078032252646338 0 0 0 0 
2409166666.6666665077 0.176501631736755398849325615629 -0.028474608436226851726491560157 -0.002969099208712577819824218750 0.004365620668977499008178710938 0 0 0 0 
2409333333.3333334923 0.177208140492439297775106865629 -0.029918244108557701110839843750 -0.002782186958938837051391601562 0.004543713759630919370169355176 0 0 0 0 
2409500000.0000000000 0.177530884742736788650674384371 -0.031268510967493057250976562500 -0.002509877551347016854527138818 0.004709142260253429412841796875 0 0 0 0 
2409666666.6666665077 0.178007155656814602950888115629 -0.032404962927103042602539062500 -0.002341357525438069863560341943 0.004837844055145978927612304688 0 0 0 0 
2409833333.3333334923 0.178298756480217007736044365629 -0.033471859991550452495534528907 -0.001926143886521459059474326025 0.005144296679645776748657226562 0 0 0 0 
2410000000.0000000000 0.179090604186057988922442518742 -0.034510981291532523418386091407 -0.001599897281266748905181884766 0.005303588695824146270751953125 0 0 0 0 
2410166666.6666665077 0.179542154073715209960937500000 -0.035607833415269851684570312500 -0.001419756561517716104622865991 0.005395374726504086580758379199 0 0 0 0 
2410333333.3333334923 0.179831683635711697677450615629 -0.036389019340276718139648437500 -0.000959737750235944986343383789 0.005539049394428730010986328125 0 0 0 0 
2410500000.0000000000 0.180288299918174688141192518742 -0.037047237157821662212331403907 -0.000588533643167465925216674805 0.005708804354071617126464843750 0 0 0 0 
2410666666.6666665077 0.180591896176338195800781250000 -0.037989582866430282592773437500 -0.000296915706712752580642700195 0.005715724080801010131835937500 0 0 0 0 
2410833333.3333334923 0.181176364421844510177450615629 -0.038474708795547492290456403907 0.000073794646596070379018783569 0.005458861589431762695312500000 0 0 0 0 
2411000000.0000000000 0.181303173303604098220986884371 -0.039213988929986946796457658593 0.000364528154022991711467188702 0.005738804582506418228149414062 0 0 0 0 
2411166666.6666665077 0.181649923324584988693075615629 -0.039757587015628821636159528907 0.000655726820696145296096801758 0.005743435584008693695068359375 0 0 0 0 
2411333333.3333334923 0.181757271289825411697549384371 -0.040326036512851722026784528907 0.001129694865085185007808066260 0.005498392041772603988647460938 0 0 0 0 
2411500000.0000000000 0.181951388716697692871093750000 -0.040854036808013922954518903907 0.001459480263292789892909384619 0.005543043371289969357962323926 0 0 0 0 
2411666666.6666665077 0.182034268975257901290731865629 -0.041384100914001471782643903907 0.001843325095251203016993857275 0.005277624819427728652954101562 0 0 0 0 
2411833333.3333334923 0.181936919689178494552450615629 -0.041587207466363906860351562500 0.001927473000250756957410502856 0.005144573282450438413138105176 0 0 0 0 
2412000000.0000000000 0.181839615106582613845986884371 -0.041926153004169457172434221093 0.002328943926841021017787314307 0.004990710411220788955688476562 0 0 0 0 
2412166666.6666665077 0.181415811181068392654580634371 -0.042337160557508468627929687500 0.002513451036065816879272460938 0.004778904840350151062011718750 0 0 0 0 
2412333333.3333334923 0.181259557604789706131143134371 -0.042705710977315902709960937500 0.002789804479107261137721396338 0.004402102902531623840332031250 0 0 0 0 
2412500000.0000000000 0.180709645152092007736044365629 -0.043027382344007492065429687500 0.002977346535772085189819335938 0.004223025403916835784912109375 0 0 0 0 
2412666666.6666665077 0.180179178714752197265625000000 -0.043783929198980331420898437500 0.003047264413908123970031738281 0.003778728656470776037928915869 0 0 0 0 
2412833333.3333334923 0.179496556520462008377236884371 -0.043964050710201263427734375000 0.003239957615733147101161337744 0.003740031737834215164184570312 0 0 0 0 
2413000000.0000000000 0.178711116313934298416299384371 -0.044277913868427276611328125000 0.003249649424105883078334189307 0.003428244963288307189941406250 0 0 0 0 
2413166666.6666665077 0.177926212549209594726562500000 -0.044625572860240943218190778907 0.003190099960193037986755371094 0.003264795290306210951564169775 0 0 0 0 
2413333333.3333334923 0.176979079842567388336505018742 -0.044993750751018517231027971093 0.003336181864142417907714843750 0.002962795551866292953491210938 0 0 0 0 
2413500000.0000000000 0.175992488861084012130575615629 -0.045549497008323669433593750000 0.003305017948150635199305868994 0.002689529675990343093872070312 0 0 0 0 
2413666666.6666665077 0.175092950463295010665731865629 -0.046199347823858261108398437500 0.003326702862977982001063681494 0.002650001086294651031494140625 0 0 0 0 
2413833333.3333334923 0.173910200595855712890625000000 -0.046755474060773849487304687500 0.003259142162278294996974326025 0.002434573834761977195739746094 0 0 0 0 
2414000000.0000000000 0.172714740037918090820312500000 -0.047399062663316726684570312500 0.003270337358117104010341025244 0.002225572243332862854003906250 0 0 0 0 
2414166666.6666665077 0.171809077262878390213174384371 -0.048079919070005416870117187500 0.003168054157868028120753622900 0.002094705821946262879612588037 0 0 0 0 
2414333333.3333334923 0.170348793268203707595986884371 -0.048781491816043846820871721093 0.003120670327916740937473916162 0.001963418675586580796482705225 0 0 0 0 
2414500000.0000000000 0.169548109173774691482705634371 -0.049723654985427863384206403907 0.003065522760152817206141806494 0.001825126470066606998443603516 0 0 0 0 
2414666666.6666665077 0.168021246790885897537393134371 -0.050618220120668411254882812500 0.003025433979928493933436728369 0.001827152911573649103280092554 0 0 0 0 
2414833333.3333334923 0.166841015219688387771768134371 -0.051817666739225387573242187500 0.002876795362681150002720498193 0.001569439540617167949676513672 0 0 0 0 
2415000000.0000000000 0.165571928024291992187500000000 -0.052830673754215240478515625000 0.002959032775834203200099326025 0.001732214121147990009905170972 0 0 0 0 
2415166666.6666665077 0.164306953549385098556356865629 -0.054028205573558807373046875000 0.002909744158387184143066406250 0.001693698344752192930934286963 0 0 0 0 
2415333333.3333334923 0.163463845849037198165731865629 -0.055286470800638198852539062500 0.002938910620287061171290732275 0.001587668550200759930851601709 0 0 0 0 
2415500000.0000000000 0.162008747458458002288494981258 -0.056627631187438971782643903907 0.002914219861850142912623740088 0.001421138760633767084834433447 0 0 0 0 
2415666666.6666665077 0.160891935229301508147869981258 -0.058083742856979370117187500000 0.002920956350862979888916015625 0.001559924916364253000972128760 0 0 0 0 
2415833333.3333334923 0.159833714365959195236044365629 -0.059659685939550399780273437500 0.003042525844648479981663369287 0.001362781040370464108110737378 0 0 0 0 
2416000000.0000000000 0.158698096871376009842080634371 -0.061315715312957756732981096093 0.002956590149551630020141601562 0.001310996594838798046112060547 0 0 0 0 
2416166666.6666665077 0.157820478081703213790731865629 -0.062990859150886535644531250000 0.002955635776743292808532714844 0.001548881409689784049987792969 0 0 0 0 
2416333333.3333334923 0.156745433807373102386151231258 -0.064724117517471313476562500000 0.002857645507901906967163085938 0.001317250542342663028119731372 0 0 0 0 
2416500000.0000000000 0.155905559659004211425781250000 -0.066601142287254333496093750000 0.003044588724151254133937216650 0.001230349647812545082689594800 0 0 0 0 
2416666666.6666665077 0.154991090297699002364950615629 -0.068360999226570129394531250000 0.002886627800762652917149209131 0.001136599457822740077972412109 0 0 0 0 
2416833333.3333334923 0.154201656579971313476562500000 -0.070419520139694213867187500000 0.002850533230230212211608886719 0.001199318561702966906903911060 0 0 0 0 
2417000000.0000000000 0.153222128748893710037393134371 -0.072297111153602600097656250000 0.002886192640289663834812783350 0.001125035691075026988983154297 0 0 0 0 
2417166666.6666665077 0.152618512511253412444744981258 -0.074117422103881835937500000000 0.002843513851985334916355752100 0.001053813961334526972529745947 0 0 0 0 
2417333333.3333334923 0.152148082852363586425781250000 -0.076099641621112823486328125000 0.002872194163501263098475790869 0.001042325980961323001264262622 0 0 0 0 
2417500000.0000000000 0.151460841298103304763955634371 -0.078095674514770507812500000000 0.002826777752488851980922079932 0.000874746998306363821029663086 0 0 0 0 
2417666666.6666665077 0.151042133569717407226562500000 -0.079822592437267303466796875000 0.002806340111419558958766318213 0.000920872669667005538940429688 0 0 0 0 
2417833333.3333334923 0.150633290410041809082031250000 -0.081695578992366790771484375000 0.002893266733735799789428710938 0.000931496790144592523574829102 0 0 0 0 
2418000000.0000000000 0.150070682168006896972656250000 -0.083519548177719116210937500000 0.002952362410724163055419921875 0.000979089294560253620147705078 0 0 0 0 
2418166666.6666665077 0.149888888001442011077557481258 -0.085149265825748443603515625000 0.002902043750509620146510458838 0.001085234456695616028429340894 0 0 0 0 
2418333333.3333334923 0.149887189269065912444744981258 -0.086970128118991851806640625000 0.002873160643503069877624511719 0.001184833119623363018035888672 0 0 0 0 
2418500000.0000000000 0.149529904127120999435263115629 -0.088564597070217132568359375000 0.003029190469533205032348632812 0.001278200303204358057734824072 0 0 0 0 
2418666666.6666665077 0.149629279971122686188067518742 -0.090049490332603454589843750000 0.003127201227471231980564736475 0.001171778421849011941197060693 0 0 0 0 
2418833333.3333334923 0.149323657155036898513955634371 -0.091575704514980316162109375000 0.003250892739742993874790810693 0.001258328207768500068067241138 0 0 0 0 
2419000000.0000000000 0.149263277649879511077557481258 -0.092988297343254089355468750000 0.003210930852219461961033486475 0.001166491070762277083155966650 0 0 0 0 
2419166666.6666665077 0.149334400892257690429687500000 -0.094119444489479064941406250000 0.003506852313876152038574218750 0.001232405775226653055903769385 0 0 0 0 
2419333333.3333334923 0.149427309632301302810830634371 -0.095082886517047882080078125000 0.003400967456400394006016396631 0.001100789173506200096727680737 0 0 0 0 
2419500000.0000000000 0.149636715650558499435263115629 -0.096380546689033508300781250000 0.003735554404556750817539834131 0.001316929701715707995771098560 0 0 0 0 
2419666666.6666665077 0.149990037083625793457031250000 -0.097231671214103698730468750000 0.003823474748060106797459267725 0.001223681145347655036328959888 0 0 0 0 
2419833333.3333334923 0.149901866912841796875000000000 -0.097857810556888580322265625000 0.004162268247455359372610761426 0.001017969450913370089289999854 0 0 0 0 
