# Hz S RI R 50
2400000000.0000000000 0.157948181033134488204794365629 0.112000763416290297080912807814 0.003322666743770242171046591650 -0.002860942855477333068847656250 0 0 0 0 
2400166666.6666665077 0.157306373119354303558026231258 0.109865225851535797119140625000 0.003130001714453101158142089844 -0.003120582783594727949855185400 0 0 0 0 
2400333333.3333334923 0.157077655196189908126669365629 0.107721842825412805755291856258 0.002788333687931299209594726562 -0.003290111431851983070373535156 0 0 0 0 
2400500000.0000000000 0.156750187277793912032919365629 0.104988083243370097785707173443 0.002838647924363613128662109375 -0.003471986390650271935703896631 0 0 0 0 
2400666666.6666665077 0.156377911567687988281250000000 0.102576561272144303749165317186 0.002810999518260360197779990088 -0.003449558513239026069641113281 0 0 0 0 
2400833333.3333334923 0.156041234731674194335937500000 0.099756792187690734863281250000 0.002704022452235221862792968750 -0.003698719199746847152709960938 0 0 0 0 
2401000000.0000000000 0.155873537063598605056924384371 0.096842236816883087158203125000 0.002334871329367160797119140625 -0.003771985881030559973475790869 0 0 0 0 
2401166666.6666665077 0.155546680092811612228231865629 0.094057604670524597167968750000 0.002202044706791638894322060693 -0.003866289043799043135402060400 0 0 0 0 
2401333333.3333334923 0.155598059296607998946981865629 0.091197073459625244140625000000 0.002273489953950047926661826025 -0.003895593574270606040954589844 0 0 0 0 
2401500000.0000000000 0.155586719512939508636151231258 0.088273197412490844726562500000 0.002046298934146761894226074219 -0.004071139730513095855712890625 0 0 0 0 
2401666666.6666665077 0.155684530735015896896200615629 0.085203468799591064453125000000 0.001954280072823166847229003906 -0.004124097526073455810546875000 0 0 0 0 
2401833333.3333334923 0.155944645404815701583700615629 0.082306988537311553955078125000 0.001860345830209553024889301831 -0.004208533558994531631469726562 0 0 0 0 
2402000000.0000000000 0.156420812010765103439169365629 0.079330757260322570800781250000 0.001774714328348637060878134619 -0.004350345116108655929565429688 0 0 0 0 
2402166666.6666665077 0.157035380601882906814736884371 0.076476700603961944580078125000 0.001680701854638755104662251050 -0.004450806416571140289306640625 0 0 0 0 
2402333333.3333334923 0.157698765397071810623330634371 0.073413491249084472656250000000 0.001453531323932111046434711987 -0.004621970467269420623779296875 0 0 0 0 
2402500000.0000000000 0.158726274967193603515625000000 0.070598863065242767333984375000 0.001359234447591006972669291919 -0.004766239318996667861938476562 0 0 0 0 
2402666666.6666665077 0.159438952803611810882244981258 0.067992247641086578369140625000 0.001119250780902802944183349609 -0.005112670827656984329223632812 0 0 0 0 
2402833333.3333334923 0.160650297999381991287393134371 0.064931802451610565185546875000 0.000825145863927900791168212891 -0.005134481471031904220581054688 0 0 0 0 
2403000000.0000000000 0.161941245198249789138955634371 0.062248982489109039306640625000 0.000649250228889286518096923828 -0.005229791626334190368652343750 0 0 0 0 
2403166666.6666665077 0.163492083549499511718750000000 0.059772923588752746582031250000 0.000257994426647201180458068848 -0.005354006774723529815673828125 0 0 0 0 
2403333333.3333334923 0.164782747626304598709268134371 0.057240877300500869750976562500 0.000002725499825828591869447985 -0.005581554956734181317801191113 0 0 0 0 
2403500000.0000000000 0.166686519980430603027343750000 0.054627344012260437011718750000 -0.000248977157752960920333862305 -0.005672764498740434646606445312 0 0 0 0 
2403666666.6666665077 0.168314859271049499511718750000 0.052323702722787857055664062500 -0.000719179690349847078323364258 -0.005563578102737665176391601562 0 0 0 0 
2403833333.3333334923 0.170017629861831692794638115629 0.050032332539558410644531250000 -0.001039335737004875919939350659 -0.005599783267825841903686523438 0 0 0 0 
2404000000.0000000000 0.171445965766906710525674384371 0.047828182578086853027343750000 -0.001437712460756302096723246997 -0.005485121160745620727539062500 0 0 0 0 
2404166666.6666665077 0.173396155238151605804119981258 0.046026803553104400634765625000 -0.001768114860169589953181601416 -0.005296694580465555191040039062 0 0 0 0 
2404333333.3333334923 0.174904644489288302322549384371 0.044111900031566619873046875000 -0.002094081137329339981079101562 -0.005111029371619225415701581738 0 0 0 0 
2404500000.0000000000 0.176905438303947504241619981258 0.042472958564758300781250000000 -0.002268325304612516923191689600 -0.004885716829448938369750976562 0 0 0 0 
2404666666.6666665077 0.178581371903419494628906250000 0.041081398725509636615793596093 -0.002487614052370191054103232275 -0.004745411686599254608154296875 0 0 0 0 
2404833333.3333334923 0.180421039462089510818643134371 0.039596542716026313091237653907 -0.002584061818197370009181357275 -0.004570920486003161344046308301 0 0 0 0 
2405000000.0000000000 0.182144343852996798416299384371 0.038547266274690628051757812500 -0.002880224958062171936035156250 -0.004227200523018836975097656250 0 0 0 0 
2405166666.6666665077 0.183812618255615206619424384371 0.037710595875978469848632812500 -0.002922193147242068810703896631 -0.004204534459859132766723632812 0 0 0 0 
2405333333.3333334923 0.185463577508926391601562500000 0.037090025842189788818359375000 -0.003161904169246553941013955225 -0.003970224875956773757934570312 0 0 0 0 
2405500000.0000000000 0.187087818980217007736044365629 0.036385882645845413208007812500 -0.003141397843137383894679404150 -0.003728794399648904800415039062 0 0 0 0 
2405666666.6666665077 0.188667207956314086914062500000 0.035879019647836692119557966407 -0.003184715053066610856297158350 -0.003558195661753416061401367188 0 0 0 0 
2405833333.3333334923 0.190225675702095003982705634371 0.035651680082082748413085937500 -0.003215265227481722831726074219 -0.003319823183119297027587890625 0 0 0 0 
2406000000.0000000000 0.191556811332702608963174384371 0.035330127924680709838867187500 -0.003459630534052848815917968750 -0.003099693451076745986938476562 0 0 0 0 
2406166666.6666665077 0.192886412143707303146200615629 0.035213567316532141948659528907 -0.003542293561622499985935830225 -0.002936606295406817956211709131 0 0 0 0 
2406333333.3333334923 0.194161325693130493164062500000 0.035234287381172180175781250000 -0.003441014559939504103419638525 -0.002915950492024422125575400244 0 0 0 0 
2406500000.0000000000 0.195301070809364291092080634371 0.035360369831323616718332658593 -0.003642772324383258819580078125 -0.002744971541687846183776855469 0 0 0 0 
2406666666.6666665077 0.196206033229827908614950615629 0.035429850220680236816406250000 -0.003507157322019339041468954932 -0.002696773502975701852085732568 0 0 0 0 
2406833333.3333334923 0.197036668658256503006143134371 0.035578358918428421020507812500 -0.003588658990338445143458701025 -0.002391173271462320847752236475 0 0 0 0 
2407000000.0000000000 0.197777241468429593185263115629 0.035987246781587600708007812500 -0.003743986831977963013889931787 -0.002176940441131591796875000000 0 0 0 0 
2407166666.6666665077 0.198436796665191705901776231258 0.036047443747520446777343750000 -0.003577139461413025856018066406 -0.002094213850796223120448447119 0 0 0 0 
2407333333.3333334923 0.198769122362136813064736884371 0.036484066396951682353932966407 -0.003659970127046107812168740381 -0.001981436042115091843845986475 0 0 0 0 
2407500000.0000000000 0.199066489934921292404013115629 0.036971870809793472290039062500 -0.003647149074822663827183388818 -0.001759024220518768050550151294 0 0 0 0 
2407666666.6666665077 0.199235767126083401779013115629 0.037105329334735870361328125000 -0.003908579237759113311767578125 -0.001646028016693890094757080078 0 0 0 0 
2407833333.3333334923 0.199168801307678194900674384371 0.037204559892416000366210937500 -0.003693831618875265121459960938 -0.001505408086813986084581684644 0 0 0 0 
2408000000.0000000000 0.199308946728706387618856865629 0.037389099597930908203125000000 -0.003559619886800647215602255713 -0.001503388746641576073290180737 0 0 0 0 
2408166666.6666665077 0.198937505483627291580361884371 0.037582498043775558471679687500 -0.003612041473388671875000000000 -0.001282055862247944095014262622 0 0 0 0 
2408333333.3333334923 0.198677211999893188476562500000 0.037448097020387649536132812500 -0.003681891364976764158961630713 -0.001029362669214606068254780347 0 0 0 0 
2408500000.0000000000 0.198172762989997891525106865629 0.037486959248781197284738908593 -0.003559223609045147895812988281 -0.001007029437460005066515278394 0 0 0 0 
2408666666.6666665077 0.197630465030670193771200615629 0.037435691803693771362304687500 -0.003497014055028558211085654150 -0.000832416350021958351135253906 0 0 0 0 
2408833333.3333334923 0.196869224309921292404013115629 0.037162538617849349975585937500 -0.003328101942315698103663779150 -0.000793947489000856876373291016 0 0 0 0 
2409000000.0000000000 0.196037456393241910079794365629 0.036619327962398529052734375000 -0.003299880539998412132263183594 -0.000591384188737720251083374023 0 0 0 0 
2409166666.6666665077 0.195090755820274408538494981258 0.036008179187774658203125000000 -0.003101453417912126021144247900 -0.000596396275795996189117431641 0 0 0 0 
2409333333.3333334923 0.194094091653823908050213731258 0.035305693745613098144531250000 -0.003074126550927757783177041162 -0.000519375083968043327331542969 0 0 0 0 
2409500000.0000000000 0.192801311612129211425781250000 0.034562598913908011699636091407 -0.003017411101609468893763876807 -0.000535275961738079786300659180 0 0 0 0 
2409666666.6666665077 0.191791057586669894119424384371 0.033373039215803153301198591407 -0.002989104948937892913818359375 -0.000457594665931537801593226300 0 0 0 0 
2409833333.3333334923 0.190427184104919405838174384371 0.032241221517324447631835937500 -0.002970486180856823921203613281 -0.000342180603183805888325291766 0 0 0 0 
2410000000.0000000000 0.189369454979896600921307481258 0.031019218266010280954381173046 -0.002939057070761919021606445312 -0.000443375640315935015678405762 0 0 0 0 
2410166666.6666665077 0.188053116202354403396768134371 0.029590578749775890005091483204 -0.002968917600810527801513671875 -0.000528650998603552579879760742 0 0 0 0 
2410333333.3333334923 0.186959445476532010177450615629 0.027951326221227649343470389454 -0.002939476631581782860996865381 -0.000730287225451320409774780273 0 0 0 0 
2410500000.0000000000 0.185776174068450899978799384371 0.026251129806041720998743826954 -0.002882476896047592163085937500 -0.000789968995377421379089355469 0 0 0 0 
2410666666.6666665077 0.184339568018913296798544365629 0.024125155061483379709263985546 -0.002981886267662047906162881006 -0.000751377141568809747695922852 0 0 0 0 
2410833333.3333334923 0.183529630303382901290731865629 0.022071691229939460754394531250 -0.003046952420845627784729003906 -0.000706987979356199502944946289 0 0 0 0 
2411000000.0000000000 0.182339265942573602874432481258 0.019999338313937190664271170704 -0.003158998908475040955784463037 -0.000802455295342952013015747070 0 0 0 0 
2411166666.6666665077 0.181475937366485595703125000000 0.017955182120203968393346016796 -0.003097050124779344038722372900 -0.000649553781840950250625610352 0 0 0 0 
2411333333.3333334923 0.180717051029205294510049384371 0.015562606044113639486292655079 -0.003307152539491653008701943506 -0.000665327999740839004516601562 0 0 0 0 
2411500000.0000000000 0.179886221885681207854901231258 0.013201662339270120102852068555 -0.003380747046321630911586142432 -0.000589452916756272315979003906 0 0 0 0 
2411666666.6666665077 0.179300472140312194824218750000 0.010822755284607410430908203125 -0.003317945636808871789219521631 -0.000524440023582428693771362305 0 0 0 0 
2411833333.3333334923 0.178514227271079989334268134371 0.008464977145195007324218750000 -0.003446911228820682005641318213 -0.000482024770462885499000549316 0 0 0 0 
2412000000.0000000000 0.178451165556907709319744981258 0.005703806411474943161010742188 -0.003547057276591659025904990088 -0.000474142638267949223518371582 0 0 0 0 
2412166666.6666665077 0.178150117397308405120526231258 0.003162649227306247191188193213 -0.003598653944209218025207519531 -0.000337859819410368800163269043 0 0 0 0 
2412333333.3333334923 0.178155198693275507171307481258 0.000553030928131192922592163086 -0.003606072394177318053004599463 -0.000409767904784530401229858398 0 0 0 0 
2412500000.0000000000 0.178249552845954895019531250000 -0.001919324742630124092102050781 -0.003687612246721982955932617188 -0.000219121604459360187679844989 0 0 0 0 
2412666666.6666665077 0.178550958633422907073651231258 -0.004747156985104084014892578125 -0.003813387360423802895786904443 -0.000319120241329073905944824219 0 0 0 0 
2412833333.3333334923 0.178826630115509005447549384371 -0.007483966648578643798828125000 -0.003885644022375344796421670068 -0.000201000730157829794004717416 0 0 0 0 
2413000000.0000000000 0.179493635892867986481036268742 -0.010137794539332389831542968750 -0.003847847692668437957763671875 -0.000169270599144510897711077280 0 0 0 0 
2413166666.6666665077 0.179935678839683504959268134371 -0.012336423620581630361536795704 -0.004097984638065099716186523438 0.000051820981752825900912284851 0 0 0 0 
2413333333.3333334923 0.181069657206535311599893134371 -0.015134581364691259211530116602 -0.004216416273266077041625976562 0.000152130931382998797014513559 0 0 0 0 
2413500000.0000000000 0.181722193956375094314736884371 -0.017748011276125911367396170704 -0.004196865949779748916625976562 0.000175874447450041798040112906 0 0 0 0 
2413666666.6666665077 0.182782545685768099685830634371 -0.020256262272596359252929687500 -0.004551385995000600814819335938 0.000328884518239647204249781476 0 0 0 0 
2413833333.3333334923 0.183772131800651605804119981258 -0.022554591298103329050084298046 -0.004460030701011419296264648438 0.000643216248136013746261596680 0 0 0 0 
2414000000.0000000000 0.184896543622016906738281250000 -0.024795694276690479623814766796 -0.004588288720697165402884198926 0.000779305992182344198226928711 0 0 0 0 
2414166666.6666665077 0.186098515987396212478799384371 -0.026978395879268649709681326954 -0.004684398882091045379638671875 0.001051154569722712039947509766 0 0 0 0 
2414333333.3333334923 0.187210962176322909256143134371 -0.029309129342436790466308593750 -0.004677057266235352429861737988 0.001277731731534003994585346753 0 0 0 0 
2414500000.0000000000 0.188578188419342013260049384371 -0.031133988872170448303222656250 -0.004815513268113136291503906250 0.001524649676866828961613320459 0 0 0 0 
2414666666.6666665077 0.189824759960174588302450615629 -0.032971326261758797382395158593 -0.004689394030719996366018964551 0.001623345538973808071733784253 0 0 0 0 
2414833333.3333334923 0.190967202186584500411825615629 -0.034594289958477020263671875000 -0.004498750902712345123291015625 0.001986920833587646918055868994 0 0 0 0 
2415000000.0000000000 0.192438438534736605545205634371 -0.036164063960313796997070312500 -0.004438463132828474044799804688 0.002228254918009043173549033057 0 0 0 0 
2415166666.6666665077 0.193694800138473510742187500000 -0.037629969418048858642578125000 -0.004340957850217819213867187500 0.002492094179615377946140908350 0 0 0 0 
2415333333.3333334923 0.195164397358894403655682481258 -0.038700211793184280395507812500 -0.004333457909524440765380859375 0.002843541093170642852783203125 0 0 0 0 
2415500000.0000000000 0.196423381567001287262286268742 -0.039610974490642547607421875000 -0.004141143988817930221557617188 0.002785055199638009071350097656 0 0 0 0 
2415666666.6666665077 0.197770506143570001800213731258 -0.040699452161788940429687500000 -0.003990147262811660766601562500 0.002973443362861872153041220557 0 0 0 0 
2415833333.3333334923 0.198828637599945096114950615629 -0.041496410965919501567800153907 -0.003784998785704373879673623193 0.003150501521304250197169638525 0 0 0 0 
2416000000.0000000000 0.199890062212944003006143134371 -0.042208597064018249511718750000 -0.003792937844991683959960937500 0.003294936614111065864562988281 0 0 0 0 
2416166666.6666665077 0.201049759984016390701455634371 -0.042965609580278396606445312500 -0.003742520930245519118068076025 0.003477747552096844153163290869 0 0 0 0 
2416333333.3333334923 0.201918020844459505935830634371 -0.043196517974138259887695312500 -0.003613609122112392945530556787 0.003636709181591867966892861475 0 0 0 0 
2416500000.0000000000 0.202733054757118197342080634371 -0.043569050729274749755859375000 -0.003313919994980096817016601562 0.003837910015136003927943564307 0 0 0 0 
2416666666.6666665077 0.203346341848373413085937500000 -0.043971057981252670288085937500 -0.003226249478757381005528115381 0.003966700285673142346853925488 0 0 0 0 
2416833333.3333334923 0.203916847705841092208700615629 -0.043978981673717498779296875000 -0.003111368510872126059291220557 0.004026587586849927902221679688 0 0 0 0 
2417000000.0000000000 0.204358309507369995117187500000 -0.043954320251941680908203125000 -0.002815999789163469834568642725 0.004176956601440907392019941113 0 0 0 0 
2417166666.6666665077 0.204343870282173212249432481258 -0.043846756219863891601562500000 -0.002691922476515173912048339844 0.004219003487378358840942382812 0 0 0 0 
2417333333.3333334923 0.204547598958015386383380018742 -0.043613918125629431987722028907 -0.002560806693509221076965332031 0.004307634662836790084838867188 0 0 0 0 
2417500000.0000000000 0.204573407769203213790731865629 -0.043417267501354217529296875000 -0.002522245747968554930446005713 0.004300312139093875885009765625 0 0 0 0 
2417666666.6666665077 0.204255491495132501800213731258 -0.043062683194875717163085937500 -0.002166660502552986145019531250 0.004481460899114608764648437500 0 0 0 0 
2417833333.3333334923 0.204171568155288696289062500000 -0.042701330035924911499023437500 -0.002159871626645327048060751807 0.004346905741840600967407226562 0 0 0 0 
2418000000.0000000000 0.203808650374412508865518134371 -0.042205020785331733013112653907 -0.002123623155057429833653115381 0.004743788391351699829101562500 0 0 0 0 
2418166666.6666665077 0.203187778592109707931356865629 -0.041898068040609359741210937500 -0.001798771787434815926792763818 0.004651159048080444335937500000 0 0 0 0 
2418333333.3333334923 0.202607959508895901779013115629 -0.041538015007972717285156250000 -0.001825639861635863997815776294 0.004903367720544338226318359375 0 0 0 0 
2418500000.0000000000 0.201748535037040710449218750000 -0.041338577866554260253906250000 -0.001675800886005162975908588940 0.004951749462634325027465820312 0 0 0 0 
2418666666.6666665077 0.200973659753799410720986884371 -0.040922522544860839843750000000 -0.001498522236943244934082031250 0.005016169510781764984130859375 0 0 0 0 
2418833333.3333334923 0.199846997857093811035156250000 -0.040749605745077133178710937500 -0.001380124245770276026484824072 0.005188873503357172012329101562 0 0 0 0 
2419000000.0000000000 0.198583945631980895996093750000 -0.040497109293937683105468750000 -0.001121162902563809914829873193 0.005168569739907979965209960938 0 0 0 0 
2419166666.6666665077 0.197394981980323791503906250000 -0.040662944316864006732981096093 -0.000823607959318906068801879883 0.005236117634922266006469726562 0 0 0 0 
2419333333.3333334923 0.196037009358406094650106865629 -0.040808759629726409912109375000 -0.000617725017946213483810424805 0.005377169698476791381835937500 0 0 0 0 
2419500000.0000000000 0.194629177451133700271768134371 -0.040922753512859337543527971093 -0.000294369790935888886451721191 0.005295093171298503875732421875 0 0 0 0 
2419666666.6666665077 0.192963272333145113845986884371 -0.041343230754137039184570312500 -0.000183307623956352499410352164 0.005482892971485853195190429688 0 0 0 0 
2419833333.3333334923 0.191340148448944091796875000000 -0.041666094213724143291432966407 0.000159397095558233613341730939 0.005389478523284196853637695312 0 0 0 0 
