# Hz S RI R 
2400000000.0000000000 0.157897412776946993728799384371 0.111864879727363600303569057814 0.003221641294658184051513671875 -0.002913257805630565123317099463 0 0 0 0 
2400166666.6666665077 0.157401770353317288497763115629 0.109849065542221097091513115629 0.003021037904545664787292480469 -0.003039396833628416061401367188 0 0 0 0 
2400333333.3333334923 0.157131969928741510589276231258 0.107831247150897993614115932814 0.003057353664189577102661132812 -0.003171944757923483848571777344 0 0 0 0 
2400500000.0000000000 0.156573235988616887848223768742 0.105040848255157498458700615629 0.002817380707710980935337685693 -0.003394347149878739876988076318 0 0 0 0 
2400666666.6666665077 0.156307831406593294998330634371 0.102915324270725305755291856258 0.002600950887426733970642089844 -0.003541671438142656846287392725 0 0 0 0 
2400833333.3333334923 0.156295508146286010742187500000 0.099977031350135803222656250000 0.002458008471876382827758789062 -0.003663553157821298079249716650 0 0 0 0 
2401000000.0000000000 0.155844271183013888260049384371 0.097096242010593414306640625000 0.002338577061891555786132812500 -0.003830394474789499802830361475 0 0 0 0 
2401166666.6666665077 0.155751287937164306640625000000 0.094085320830345153808593750000 0.002220787573605775833129882812 -0.003945936448872089385986328125 0 0 0 0 
2401333333.3333334923 0.155678004026412991622763115629 0.091098845005035400390625000000 0.001758454833179712078691792065 -0.003876784350723028182983398438 0 0 0 0 
2401500000.0000000000 0.156128913164138793945312500000 0.088397286832332611083984375000 0.002145314589142798943760537256 -0.004294302314519882202148437500 0 0 0 0 
2401666666.6666665077 0.155419617891311701018963731258 0.085137203335762023925781250000 0.001746581052429974079132080078 -0.003944979980587959289550781250 0 0 0 0 
2401833333.3333334923 0.156328812241554288009481865629 0.082682423293590545654296875000 0.002707627834752202033996582031 -0.004079241305589675903320312500 0 0 0 0 
2402000000.0000000000 0.156640827655792208572549384371 0.079583778977394104003906250000 0.002200258197262883186340332031 -0.004517951514571905136108398438 0 0 0 0 
2402166666.6666665077 0.157139599323272705078125000000 0.076421402394771575927734375000 0.001548219355754554054857563550 -0.004351345356553792953491210938 0 0 0 0 
2402333333.3333334923 0.157494038343429593185263115629 0.073412530124187469482421875000 0.001546111656352878050563193213 -0.004661256447434425354003906250 0 0 0 0 
2402500000.0000000000 0.158589452505111694335937500000 0.070605561137199401855468750000 0.001170357107184826894047402490 -0.004902305081486701965332031250 0 0 0 0 
2402666666.6666665077 0.159515559673309298416299384371 0.067951500415802001953125000000 0.001175036537460983016370463794 -0.005042775999754667282104492188 0 0 0 0 
2402833333.3333334923 0.160656422376632690429687500000 0.065045125782489776611328125000 0.000875667145010083913803100586 -0.005065890494734048843383789062 0 0 0 0 
2403000000.0000000000 0.161963224411010686676348768742 0.062374174594879150390625000000 0.000692335830535739660263061523 -0.005340989679098129272460937500 0 0 0 0 
2403166666.6666665077 0.163542762398719787597656250000 0.059799786657094962383229841407 0.000429494393756613081127720966 -0.005385832395404577255249023438 0 0 0 0 
2403333333.3333334923 0.164896652102470397949218750000 0.057278346270322799682617187500 -0.000277688261121511513560694562 -0.005482027307152748107910156250 0 0 0 0 
2403500000.0000000000 0.167043879628181513030682481258 0.054595492780208587646484375000 -0.000174205226358026293203076773 -0.006334973499178886413574218750 0 0 0 0 
2403666666.6666665077 0.168371289968490600585937500000 0.052168861031532287597656250000 -0.000817251100670546293258666992 -0.005827596876770257949829101562 0 0 0 0 
2403833333.3333334923 0.169973790645599392989950615629 0.050099071115255362773854841407 -0.000973083369899541139602661133 -0.005506232380867004394531250000 0 0 0 0 
2404000000.0000000000 0.171575188636779812911825615629 0.047263085842132568359375000000 -0.002187490928918122811558388818 -0.006403073668479919433593750000 0 0 0 0 
2404166666.6666665077 0.173373594880104092696981865629 0.046104721724987030029296875000 -0.001579208648763597011566162109 -0.005234831478446722030639648438 0 0 0 0 
2404333333.3333334923 0.175096735358238192459268134371 0.044176220893859863281250000000 -0.001947422395460308031794882666 -0.004914568737149238586425781250 0 0 0 0 
2404500000.0000000000 0.176879748702049310882244981258 0.042253702878952033306081403907 -0.002261918038129806952235556494 -0.005022686906158924102783203125 0 0 0 0 
2404666666.6666665077 0.178620651364326504806356865629 0.041040282696485519409179687500 -0.002553149824962019920349121094 -0.004623100627213717374319745801 0 0 0 0 
2404833333.3333334923 0.180554524064063998123330634371 0.039590172469615943218190778907 -0.002765976125374435944798134912 -0.004484677221626043319702148438 0 0 0 0 
2405000000.0000000000 0.182077333331108093261718750000 0.038696769624948501586914062500 -0.002822517184540628953220986475 -0.004261661320924758911132812500 0 0 0 0 
2405166666.6666665077 0.183812573552131708343182481258 0.037729330360889441753347028907 -0.003018286544829607009887695312 -0.004058498889207839965820312500 0 0 0 0 
2405333333.3333334923 0.185417458415031405349893134371 0.037147898226976401592214216407 -0.003026007674634457068202353369 -0.003950139507651329040527343750 0 0 0 0 
2405500000.0000000000 0.187174230813980102539062500000 0.036379706114530563354492187500 -0.003162297187373042106628417969 -0.003689927281811832947971963037 0 0 0 0 
2405666666.6666665077 0.188857287168502807617187500000 0.035902079194784157489817033593 -0.003198643215000628991367959131 -0.003461938817054032845738076318 0 0 0 0 
2405833333.3333334923 0.190308958292007501800213731258 0.035578049719333648681640625000 -0.003257540520280600027797079932 -0.003320415737107396125793457031 0 0 0 0 
2406000000.0000000000 0.191681995987892206390057481258 0.035389676690101616596262346093 -0.003382653929293156103846884619 -0.003216312732547522024867392432 0 0 0 0 
2406166666.6666665077 0.192985072731971712967080634371 0.035184789448976516723632812500 -0.003423306392505764961242675781 -0.002896941965445876121520996094 0 0 0 0 
2406333333.3333334923 0.194208785891532897949218750000 0.035265382379293441772460937500 -0.003591376123949884934666298975 -0.002912932308390737013575888525 0 0 0 0 
2406500000.0000000000 0.195299133658409090896768134371 0.035356137901544570922851562500 -0.003565926570445299148559570312 -0.002583234105259180068969726562 0 0 0 0 
2406666666.6666665077 0.196378469467163113693075615629 0.035515040159225456928293596093 -0.003633349435403943061828613281 -0.002421849174425005912780761719 0 0 0 0 
2406833333.3333334923 0.197057619690895108321981865629 0.035595398396253592754323591407 -0.003669532481580973105189658057 -0.002343331230804324150085449219 0 0 0 0 
2407000000.0000000000 0.197731181979179410079794365629 0.036056481301784522319753278907 -0.003655110253021121025085449219 -0.002119905781000853018519736182 0 0 0 0 
2407166666.6666665077 0.198568567633628900725994981258 0.036053087562322616577148437500 -0.003551098052412271933314658057 -0.002027146983891725973842001807 0 0 0 0 
2407333333.3333334923 0.198694869875907897949218750000 0.036484494805335998535156250000 -0.003644151613116263909580849756 -0.001856918330304325060603476416 0 0 0 0 
2407500000.0000000000 0.198979333043098505218182481258 0.036909297108650207519531250000 -0.003626189194619656042811728369 -0.001775522949174046950099326025 0 0 0 0 
2407666666.6666665077 0.199381649494171087066973768742 0.037096768617630011821706403907 -0.003624849952757358984706259619 -0.001601282157935201904894184644 0 0 0 0 
2407833333.3333334923 0.199187591671943692306356865629 0.037166941910982131958007812500 -0.003774618264287710189819335938 -0.001473022508434951088548969800 0 0 0 0 
2408000000.0000000000 0.199353381991386413574218750000 0.037500921636819839477539062500 -0.003705638227984309196472167969 -0.001434345263987780050990439307 0 0 0 0 
2408166666.6666665077 0.199014306068420410156250000000 0.037594381719827651977539062500 -0.003727428382262587980983115088 -0.001162672764621675014495849609 0 0 0 0 
2408333333.3333334923 0.198714599013328607757244981258 0.037523336708545691753347028907 -0.003645950928330421014073037256 -0.001001232187263668017146445166 0 0 0 0 
2408500000.0000000000 0.198219165205955505371093750000 0.037612579762935638427734375000 -0.003597198985517024993896484375 -0.000960964127443730831146240234 0 0 0 0 
2408666666.6666665077 0.197638034820556612869424384371 0.037508230656385421752929687500 -0.003460034029558300971984863281 -0.000673482660204172134399414062 0 0 0 0 
2408833333.3333334923 0.196941524744033813476562500000 0.036978736519813537597656250000 -0.003572274465113877816441201318 -0.000654687348287552595138549805 0 0 0 0 
2409000000.0000000000 0.196115002036094693282919365629 0.036517914384603500366210937500 -0.003179455874487758116481161963 -0.000627116882242262363433837891 0 0 0 0 
2409166666.6666665077 0.195149660110473605056924384371 0.035981986671686172485351562500 -0.003219231497496366934535361182 -0.000548601383343338966369628906 0 0 0 0 
2409333333.3333334923 0.194161489605903597732705634371 0.035380505025386810302734375000 -0.003154248232021927833557128906 -0.000354980584233999306529444562 0 0 0 0 
2409500000.0000000000 0.192812085151672391036825615629 0.034377198666334152221679687500 -0.003130236873403192000148154150 -0.000424901489168405478626805438 0 0 0 0 
2409666666.6666665077 0.191725134849548312088174384371 0.033229738473892211914062500000 -0.003012179862707852883579873193 -0.000595692603383213281631469727 0 0 0 0 
2409833333.3333334923 0.190525874495506286621093750000 0.032262302935123436664621721093 -0.002912071766331791877746582031 -0.000429350649937987273365574969 0 0 0 0 
2410000000.0000000000 0.189399853348731994628906250000 0.031057083979249000549316406250 -0.002833602018654346899745322119 -0.000408246152801439220279139386 0 0 0 0 
2410166666.6666665077 0.188187316060066195388955634371 0.029525991529226299631138985546 -0.003011145628988742828369140625 -0.000545221264474093914031982422 0 0 0 0 
2410333333.3333334923 0.187003523111343411544638115629 0.027983415871858600271204764454 -0.002881272230297327041625976562 -0.000621233717538416385650634766 0 0 0 0 
2410500000.0000000000 0.185802191495895413497763115629 0.026370262727141380310058593750 -0.002829979406669735908508300781 -0.000554322672542184591293334961 0 0 0 0 
2410666666.6666665077 0.184345960617065401931924384371 0.024072466418147090566614920704 -0.002931431867182254791259765625 -0.000609295791946351528167724609 0 0 0 0 
2410833333.3333334923 0.183637574315071105957031250000 0.022195169702172279357910156250 -0.002937117125838994979858398438 -0.000570582342334091663360595703 0 0 0 0 
2411000000.0000000000 0.182442024350166293045205634371 0.020029747858643528329869454296 -0.003074116772040725188014365088 -0.000640185666270554065704345703 0 0 0 0 
2411166666.6666665077 0.181559696793556213378906250000 0.017968220636248588562011718750 -0.003173174569383264021632529150 -0.000687016930896788835525512695 0 0 0 0 
2411333333.3333334923 0.180586725473403902908486884371 0.015456286258995529520055001171 -0.003285914193838835196254111182 -0.000569316849578171968460083008 0 0 0 0 
2411500000.0000000000 0.179755315184593200683593750000 0.013011183589696880685826485546 -0.003345027333125472068786621094 -0.000549719377886503934860229492 0 0 0 0 
2411666666.6666665077 0.179315105080604608733807481258 0.010682158172130589920967302930 -0.003213308285921812057495117188 -0.000716856622602790594100952148 0 0 0 0 
2411833333.3333334923 0.178675636649131802657919365629 0.008332042954862117767333984375 -0.003417331026867032051086425781 -0.000474836764624342322349548340 0 0 0 0 
2412000000.0000000000 0.178443387150764493087606865629 0.005722937174141407012939453125 -0.003623478813096880912780761719 -0.000414186710258945822715759277 0 0 0 0 
2412166666.6666665077 0.178179413080215509612713731258 0.003244200954213738007786416162 -0.003397068940103054046630859375 -0.000541228451766073703765869141 0 0 0 0 
2412333333.3333334923 0.178039208054542513748330634371 0.000598182436078786849975585938 -0.003529239213094114823582314600 -0.000311053096083924174308776855 0 0 0 0 
2412500000.0000000000 0.178292885422706604003906250000 -0.002278204774484037919285439600 -0.003486618166789412932154990088 -0.000307164562400430386692601337 0 0 0 0 
2412666666.6666665077 0.178406983613967895507812500000 -0.004643362481147050857543945312 -0.003660573391243814988377236475 -0.000213900639209896298960009164 0 0 0 0 
2412833333.3333334923 0.179045483469963101486044365629 -0.007569941226392984390258789062 -0.003862709505483508110046386719 -0.000254106911597773378521519794 0 0 0 0 
2413000000.0000000000 0.179342567920684786697549384371 -0.010153918527066709345807460352 -0.003925787750631570816040039062 -0.000163302946020849103301447736 0 0 0 0 
2413166666.6666665077 0.180006444454193087478799384371 -0.012566602788865569723109061329 -0.004059738945215941342825605176 0.000113675145257729996316371779 0 0 0 0 
2413333333.3333334923 0.180906668305397005935830634371 -0.015245577320456510025947771680 -0.004136602859944105148315429688 0.000187875499250367310926160269 0 0 0 0 
2413500000.0000000000 0.181762248277664212325888115629 -0.017901552841067310678502266796 -0.004292347934097051620483398438 0.000255208171438425779342651367 0 0 0 0 
2413666666.6666665077 0.182759657502174405196981865629 -0.020251050591468811035156250000 -0.004349784925580024719238281250 0.000324324093526229316562098370 0 0 0 0 
2413833333.3333334923 0.183805719017982510665731865629 -0.022567709907889369619349295704 -0.004284474067389965057373046875 0.000636437209323048591613769531 0 0 0 0 
2414000000.0000000000 0.184853270649910000900106865629 -0.024864111095666888845423514454 -0.004487912636250258359427167676 0.000790147751104086637496948242 0 0 0 0 
2414166666.6666665077 0.186087846755981500823651231258 -0.027096597477793690073033516796 -0.004605473484843969345092773438 0.000962131423875689506530761719 0 0 0 0 
2414333333.3333334923 0.187174588441848810393963731258 -0.029335228726267821575124372657 -0.004578003659844399365896894238 0.001373059931211173968074179541 0 0 0 0 
2414500000.0000000000 0.188541650772094698806924384371 -0.031212549656629558908482735546 -0.004700318910181522369384765625 0.001434721169061959006665873950 0 0 0 0 
2414666666.6666665077 0.190024465322494506835937500000 -0.032923284918069839477539062500 -0.004521541763097047805786132812 0.001741322223097085952758789062 0 0 0 0 
2414833333.3333334923 0.190934449434280395507812500000 -0.034625019878149032592773437500 -0.004448023159056901931762695312 0.001986888702958821816685341943 0 0 0 0 
2415000000.0000000000 0.192370966076850891113281250000 -0.036186434328556060791015625000 -0.004461645614355803403372480176 0.002227147575467824935913085938 0 0 0 0 
2415166666.6666665077 0.193712711334228487869424384371 -0.037692766636610031127929687500 -0.004294038750231266021728515625 0.002585953567177056832554482568 0 0 0 0 
2415333333.3333334923 0.195248931646347101409588731258 -0.038705665618181228637695312500 -0.004192201886326074600219726562 0.002698379103094338937046670068 0 0 0 0 
2415500000.0000000000 0.196495205163955688476562500000 -0.039728965610265731811523437500 -0.004180585965514183044433593750 0.002866372233256698088404990088 0 0 0 0 
2415666666.6666665077 0.197687730193138094803018134371 -0.040715374052524566650390625000 -0.004093621857464314374441816113 0.003089830512180923981907509912 0 0 0 0 
2415833333.3333334923 0.198827207088470486739950615629 -0.041582293808460242534597028907 -0.003900228301063179969787597656 0.003098973305895925001857138525 0 0 0 0 
2416000000.0000000000 0.199918091297149713714276231258 -0.042184427380561828613281250000 -0.003740600775927304787876748193 0.003409208729863166809082031250 0 0 0 0 
2416166666.6666665077 0.200949832797050503829794365629 -0.042989339679479598999023437500 -0.003682567039504646821262978662 0.003441621549427508874180459131 0 0 0 0 
2416333333.3333334923 0.201871797442436190506143134371 -0.043439477682113647460937500000 -0.003590116742998362021205283057 0.003607827704399824142456054688 0 0 0 0 
2416500000.0000000000 0.202769562602043207366619981258 -0.043563202023506171489675153907 -0.003324737539514898820164345850 0.003768786787986754937412881006 0 0 0 0 
2416666666.6666665077 0.203304871916770907303018134371 -0.043929073959589011455495466407 -0.003180633764714003042933798682 0.003871103283017874197718954932 0 0 0 0 
2416833333.3333334923 0.203910395503044100662393134371 -0.043962147086858749389648437500 -0.003037021029740571975708007812 0.003894012421369553045985556494 0 0 0 0 
2417000000.0000000000 0.204390421509742709060830634371 -0.044074587523937232280690778907 -0.002963671926409006118774414062 0.004156692884862422943115234375 0 0 0 0 
2417166666.6666665077 0.204342216253280611892861884371 -0.043916914612054831767995466407 -0.002887053880840539932250976562 0.004053329583257436752319335938 0 0 0 0 
2417333333.3333334923 0.204493030905723599532919365629 -0.043586742132902152324636091407 -0.002667009597644209861755371094 0.004246879834681749343872070312 0 0 0 0 
2417500000.0000000000 0.204524338245391901214276231258 -0.043545097112655639648437500000 -0.002584783360362052917480468750 0.004356585908681154251098632812 0 0 0 0 
2417666666.6666665077 0.204339608550071688553018134371 -0.043063234537839889526367187500 -0.002386996755376458168029785156 0.004447531886398792266845703125 0 0 0 0 
2417833333.3333334923 0.204110860824584988693075615629 -0.042752709239721298217773437500 -0.002141336211934686140773154150 0.004522779956459999084472656250 0 0 0 0 
2418000000.0000000000 0.203730240464210510253906250000 -0.042273595929145812988281250000 -0.002151061315089464187622070312 0.004579777829349040985107421875 0 0 0 0 
2418166666.6666665077 0.203139036893844604492187500000 -0.041939042508602142333984375000 -0.001960931811481713814976357568 0.004691079258918762207031250000 0 0 0 0 
2418333333.3333334923 0.202506840229034396072549384371 -0.041559025645256042480468750000 -0.001734274905174971060511923682 0.004840026143938302993774414062 0 0 0 0 
2418500000.0000000000 0.201737299561500604827557481258 -0.041266981512308120727539062500 -0.001525375177152455069898295825 0.004895531572401523590087890625 0 0 0 0 
2418666666.6666665077 0.200995549559593200683593750000 -0.040882896631956100463867187500 -0.001446167472749948935267783057 0.005091064143925905227661132812 0 0 0 0 
2418833333.3333334923 0.199750810861587496658486884371 -0.040860682725906372070312500000 -0.001116180559620260975481342847 0.005210798233747482299804687500 0 0 0 0 
2419000000.0000000000 0.198608577251434298416299384371 -0.040627408772706992412526716407 -0.000959474884439259767532348633 0.005197382532060146331787109375 0 0 0 0 
2419166666.6666665077 0.197489723563194302657919365629 -0.040678009390830986713449846093 -0.000851294200401753187179565430 0.005287352018058300018310546875 0 0 0 0 
2419333333.3333334923 0.195939809083938598632812500000 -0.040943700820207602764089216407 -0.000641328864730894565582275391 0.005329116247594357404226972363 0 0 0 0 
2419500000.0000000000 0.194502487778663607498330634371 -0.041000645607709891582448591407 -0.000421079021180048584938049316 0.005323947407305240631103515625 0 0 0 0 
2419666666.6666665077 0.192949324846267700195312500000 -0.041479289531707756732981096093 -0.000035059834772255271673202515 0.005368647165596485137939453125 0 0 0 0 
2419833333.3333334923 0.191236689686775207519531250000 -0.041890621185302727436106096093 0.000043507650843821472745349271 0.005468827672302722930908203125 0 0 0 0 
