# Hz S RI R 50
2400000000.0000000000 0.173515498638153103927450615629 0.049076508730649948120117187500 0.003692846512421966032740927588 0.007113484200090169906616210938 0 0 0 0 
2400166666.6666665077 0.174032792448997497558593750000 0.048656221479177481914479841407 0.003833677386865019798278808594 0.006938761565834283828735351562 0 0 0 0 
2400333333.3333334923 0.174265295267105102539062500000 0.047837655991315841674804687500 0.003984346054494380950927734375 0.006991128437221050262451171875 0 0 0 0 
2400500000.0000000000 0.174969211220741299728231865629 0.047180648893117911601979841407 0.004151375032961369428152753613 0.006977218668907880783081054688 0 0 0 0 
2400666666.6666665077 0.175147756934166010100994981258 0.046342626214027411724050153907 0.004439111799001693725585937500 0.006762304808944463729858398438 0 0 0 0 
2400833333.3333334923 0.175253123044967706878338731258 0.045772440731525421142578125000 0.004370412323623895645141601562 0.006947666406631469726562500000 0 0 0 0 
2401000000.0000000000 0.175436556339263888260049384371 0.045255534350872039794921875000 0.004614416044205427169799804688 0.006809964776039124402517987988 0 0 0 0 
2401166666.6666665077 0.175576582551002502441406250000 0.044466424733400351787526716407 0.004799650982022286328787519238 0.006820374168455600738525390625 0 0 0 0 
2401333333.3333334923 0.175499469041824313064736884371 0.043747607618570327758789062500 0.005109454970806837081909179688 0.006691370625048875808715820312 0 0 0 0 
2401500000.0000000000 0.175720646977424593826455634371 0.043037507683038711547851562500 0.005290807224810122576241777637 0.006723965518176555633544921875 0 0 0 0 
2401666666.6666665077 0.175763875246048001388388115629 0.042257696390151977539062500000 0.005416130647063255310058593750 0.006558809429407119750976562500 0 0 0 0 
2401833333.3333334923 0.175682872533798190017861884371 0.041557919234037399291992187500 0.005712687503546476364135742188 0.006543592549860476580148027637 0 0 0 0 
2402000000.0000000000 0.175311028957366887848223768742 0.040691919624805450439453125000 0.005925217177718877792358398438 0.006320378277450799942016601562 0 0 0 0 
2402166666.6666665077 0.175179719924926813323651231258 0.039767596870660781860351562500 0.006260203197598457336425781250 0.006377265788614749908447265625 0 0 0 0 
2402333333.3333334923 0.174951866269111605545205634371 0.038860414177179336547851562500 0.006553633138537406921386718750 0.006311762612313032150268554688 0 0 0 0 
2402500000.0000000000 0.174822747707366887848223768742 0.037985283881425857543945312500 0.006677719298750162124633789062 0.005963236093521118164062500000 0 0 0 0 
2402666666.6666665077 0.174570709466934204101562500000 0.036902900785207748413085937500 0.007040317635983228683471679688 0.005845019593834877014160156250 0 0 0 0 
2402833333.3333334923 0.174199342727661105056924384371 0.035655926913023001934011091407 0.007123925723135471343994140625 0.005633326247334480285644531250 0 0 0 0 
2403000000.0000000000 0.173767641186714200118856865629 0.034478098154067993164062500000 0.007405730430036783218383789062 0.005376239307224751386160566113 0 0 0 0 
2403166666.6666665077 0.173623070120811490157919365629 0.033120706677436828613281250000 0.007548865862190723419189453125 0.005085612647235394391531659863 0 0 0 0 
2403333333.3333334923 0.173253104090690612792968750000 0.031754638999700553203542341407 0.007874801754951477050781250000 0.004972909577190876007080078125 0 0 0 0 
2403500000.0000000000 0.172623157501220703125000000000 0.030272772535681731487233747657 0.008184762671589851379394531250 0.004791151732206344604492187500 0 0 0 0 
2403666666.6666665077 0.172424823045730590820312500000 0.028629796579480171203613281250 0.008167034015059471130371093750 0.004356183111667633056640625000 0 0 0 0 
2403833333.3333334923 0.172146767377853393554687500000 0.026943160220980640756627266796 0.008471241220831871032714843750 0.004231845494359731674194335938 0 0 0 0 
2404000000.0000000000 0.171763375401496887207031250000 0.025295263156294819223424141796 0.008642104454338550567626953125 0.003754296340048313140869140625 0 0 0 0 
2404166666.6666665077 0.171300336718559292892294365629 0.023435521870851520193079764454 0.008735639974474906921386718750 0.003471703501418232917785644531 0 0 0 0 
2404333333.3333334923 0.170992285013198908050213731258 0.021653242409229278564453125000 0.008837930858135223388671875000 0.003148298244923353195190429688 0 0 0 0 
2404500000.0000000000 0.170605093240737887283486884371 0.019579218700528148305872733204 0.008951056748628616333007812500 0.002718732459470630125758505713 0 0 0 0 
2404666666.6666665077 0.170550927519798306564169365629 0.017709314823150641704518903907 0.008936902508139610290527343750 0.002489296486601233916041708838 0 0 0 0 
2404833333.3333334923 0.170209676027298001388388115629 0.015716157853603359567662423046 0.009075779467821121215820312500 0.002256248844787478013279580225 0 0 0 0 
2405000000.0000000000 0.170047372579574612716513115629 0.013810428790748119354248046875 0.009073448367416858673095703125 0.001925089745782315947889018481 0 0 0 0 
2405166666.6666665077 0.169983431696891812423544365629 0.011775397695600989950159842579 0.009216423146426677703857421875 0.001352773164398968002916645581 0 0 0 0 
2405333333.3333334923 0.170055359601974487304687500000 0.009633176028728485107421875000 0.009139163419604301452636718750 0.001173424534499645016313862378 0 0 0 0 
2405500000.0000000000 0.170047312974929809570312500000 0.007773296907544136047363281250 0.009082498960196971893310546875 0.000780191097874194383621215820 0 0 0 0 
2405666666.6666665077 0.170260846614837701995526231258 0.005849648267030715942382812500 0.009097313508391380310058593750 0.000606632325798273086547851562 0 0 0 0 
2405833333.3333334923 0.170415043830871609786825615629 0.003799527417868376211879111182 0.009021904319524765014648437500 0.000300320098176598603099268781 0 0 0 0 
2406000000.0000000000 0.170663714408874511718750000000 0.001635462976992130062700581128 0.009053389541804790496826171875 0.000022809519578004259278978041 0 0 0 0 
2406166666.6666665077 0.170879304409027099609375000000 -0.000157646121806465089321136475 0.008695674128830432891845703125 -0.000293361983494833111763000488 0 0 0 0 
2406333333.3333334923 0.171425983309745788574218750000 -0.002255998784676194190979003906 0.008821600116789340972900390625 -0.000523179885931313037872314453 0 0 0 0 
2406500000.0000000000 0.171824157238006591796875000000 -0.004284052643924952420706464551 0.008658401668071746826171875000 -0.000771419727243483066558837891 0 0 0 0 
2406666666.6666665077 0.172195762395858792404013115629 -0.006166476756334304809570312500 0.008548458106815814971923828125 -0.000925703905522823333740234375 0 0 0 0 
2406833333.3333334923 0.172782614827156094650106865629 -0.008095723576843738555908203125 0.008469735272228717803955078125 -0.001222019665874541022657084888 0 0 0 0 
2407000000.0000000000 0.173553541302680996993856865629 -0.010081624612212179356585117773 0.008429720997810363769531250000 -0.001443687244318426089045859229 0 0 0 0 
2407166666.6666665077 0.174297288060188293457031250000 -0.011852852068841460836390311329 0.008538693189620971679687500000 -0.001680526067502797083613730322 0 0 0 0 
2407333333.3333334923 0.174951016902923611739950615629 -0.013861526735126970463762852148 0.008435207419097423553466796875 -0.001878104405477643013000488281 0 0 0 0 
2407500000.0000000000 0.175581365823745699783486884371 -0.015474383719265459233294102148 0.008359592407941818237304687500 -0.002149052452296019034144736182 0 0 0 0 
2407666666.6666665077 0.176368132233619689941406250000 -0.017084607854485508310338204296 0.008267253637313842773437500000 -0.002316467231139541105983115088 0 0 0 0 
2407833333.3333334923 0.177036181092262295821981865629 -0.018827954307198521005650704296 0.008063578978180885314941406250 -0.002626767614856361909153603662 0 0 0 0 
2408000000.0000000000 0.177892118692398099044638115629 -0.020459985360503200185755545704 0.007910311222076416015625000000 -0.002707975916564465002772665869 0 0 0 0 
2408166666.6666665077 0.178461372852325411697549384371 -0.021848512813448909414271170704 0.007909012027084827423095703125 -0.002760528819635510010960244287 0 0 0 0 
2408333333.3333334923 0.179382175207138089279013115629 -0.023339696228504180908203125000 0.007783545646816492080688476562 -0.003192265285179018974304199219 0 0 0 0 
2408500000.0000000000 0.180057719349861200530682481258 -0.024729350581765178335169608204 0.007503019180148839950561523438 -0.003361276816576718850376748193 0 0 0 0 
2408666666.6666665077 0.180446073412895202636718750000 -0.026125760748982429504394531250 0.007514726370573043823242187500 -0.003550580469891428947448730469 0 0 0 0 
2408833333.3333334923 0.180975019931793212890625000000 -0.027115881443023681640625000000 0.007244577631354331970214843750 -0.003615341382101178169250488281 0 0 0 0 
2409000000.0000000000 0.181452631950378390213174384371 -0.028232149779796600341796875000 0.007191415410488843917846679688 -0.003747062059119344191310263525 0 0 0 0 
2409166666.6666665077 0.182023510336875887771768134371 -0.029156040400266650808314139454 0.006932782009243965148925781250 -0.003790531307458877997157431494 0 0 0 0 
2409333333.3333334923 0.182454332709312411209268134371 -0.030075142160058021545410156250 0.006816308479756116867065429688 -0.003883767873048781914951943506 0 0 0 0 
2409500000.0000000000 0.182596668601036099532919365629 -0.031088087707757949829101562500 0.006733574904501438140869140625 -0.004041292238980531692504882812 0 0 0 0 
2409666666.6666665077 0.182940855622291592696981865629 -0.031318690627813339233398437500 0.006637578364461660385131835938 -0.004215081688016653060913085938 0 0 0 0 
2409833333.3333334923 0.183028325438499506194744981258 -0.031961604952812201763112653907 0.006617582868784666061401367188 -0.004252544604241847991943359375 0 0 0 0 
2410000000.0000000000 0.183509618043899508377236884371 -0.032313887029886252666432966407 0.006649485789239406585693359375 -0.004312410484999418258666992188 0 0 0 0 
2410166666.6666665077 0.183506101369857788085937500000 -0.032839987426996231079101562500 0.006577512249350547790527343750 -0.004514837637543678283691406250 0 0 0 0 
2410333333.3333334923 0.183710321784019497970419365629 -0.033173620700836181640625000000 0.006404273211956024169921875000 -0.004505502060055732727050781250 0 0 0 0 
2410500000.0000000000 0.183651000261306790450888115629 -0.033391855657100677490234375000 0.006436858326196671399588300488 -0.004733606707304716110229492188 0 0 0 0 
2410666666.6666665077 0.183571383357048006912393134371 -0.033837016671895980834960937500 0.006532751023769378662109375000 -0.004992789588868618011474609375 0 0 0 0 
2410833333.3333334923 0.183478504419326809982138115629 -0.033956985920667648315429687500 0.006319324485957623395437909863 -0.005125167313963174819946289062 0 0 0 0 
2411000000.0000000000 0.183337986469268798828125000000 -0.034268118441104888916015625000 0.006387784145772457122802734375 -0.005321967881172895431518554688 0 0 0 0 
2411166666.6666665077 0.183012336492538507659588731258 -0.034763030707836151123046875000 0.006378542631864547729492187500 -0.005418556742370128631591796875 0 0 0 0 
2411333333.3333334923 0.182418346405029296875000000000 -0.034894607961177832866628278907 0.006318611092865467071533203125 -0.005592251196503639221191406250 0 0 0 0 
2411500000.0000000000 0.181981220841407803634481865629 -0.035368170589208602905273437500 0.006195682100951671600341796875 -0.005883042700588703155517578125 0 0 0 0 
2411666666.6666665077 0.181645855307579012771768134371 -0.035821370780467987060546875000 0.006351225078105927381033612988 -0.006096364930272102355957031250 0 0 0 0 
2411833333.3333334923 0.180978342890739413162393134371 -0.035920962691307067871093750000 0.006137435790151357650756835938 -0.006365035194903612136840820312 0 0 0 0 
2412000000.0000000000 0.180219694972038296798544365629 -0.036473754793405532836914062500 0.006113407667726278305053710938 -0.006642264313995838165283203125 0 0 0 0 
2412166666.6666665077 0.179242938756942804534588731258 -0.036927089095115661621093750000 0.005988655146211385726928710938 -0.007054487243294715881347656250 0 0 0 0 
2412333333.3333334923 0.178579866886138888260049384371 -0.037493567913770682598073591407 0.005848773289471864700317382812 -0.007240755017846822738647460938 0 0 0 0 
2412500000.0000000000 0.177698850631713894943075615629 -0.037954721599817282939870466407 0.005774866323918104171752929688 -0.007517762016505002975463867188 0 0 0 0 
2412666666.6666665077 0.176434248685836791992187500000 -0.038706537336111068725585937500 0.005537224002182483673095703125 -0.007777967024594545364379882812 0 0 0 0 
2412833333.3333334923 0.175352200865745488922442518742 -0.039380203932523727416992187500 0.005187742412090302381033612988 -0.007906983606517314910888671875 0 0 0 0 
2413000000.0000000000 0.174147859215736389160156250000 -0.040133722126483917236328125000 0.004940386395901441574096679688 -0.008333350531756877899169921875 0 0 0 0 
2413166666.6666665077 0.172910943627357510665731865629 -0.041003867983818047260324846093 0.004652098286896944046020507812 -0.008547570556402206420898437500 0 0 0 0 
2413333333.3333334923 0.171568125486373901367187500000 -0.041980419307947158813476562500 0.004401013255119323730468750000 -0.008775584399700164794921875000 0 0 0 0 
2413500000.0000000000 0.170442044734954806228799384371 -0.043006051331758499145507812500 0.004227307625114917755126953125 -0.009010260924696922302246093750 0 0 0 0 
2413666666.6666665077 0.169277563691139193435830634371 -0.044130202382802963256835937500 0.003881098236888647079467773438 -0.009198614396154880523681640625 0 0 0 0 
2413833333.3333334923 0.167931348085403386871661268742 -0.045289240777492523193359375000 0.003738252678886055946350097656 -0.009264918044209480285644531250 0 0 0 0 
2414000000.0000000000 0.166550248861312893966513115629 -0.046533722430467612529714216407 0.003405909985303878784179687500 -0.009398279711604118347167968750 0 0 0 0 
2414166666.6666665077 0.165541961789131192306356865629 -0.047773569822311401367187500000 0.002929779235273600058314658057 -0.009479443542659282684326171875 0 0 0 0 
2414333333.3333334923 0.164199382066726712325888115629 -0.049212574958801269531250000000 0.002753212116658688025233603369 -0.009691589511930942535400390625 0 0 0 0 
2414500000.0000000000 0.163164883852005004882812500000 -0.050537411123514182353932966407 0.002303224522620439963099814307 -0.009815410710871219635009765625 0 0 0 0 
2414666666.6666665077 0.161889061331748990157919365629 -0.052081856876611709594726562500 0.002115169540047646002528525244 -0.009928005747497081756591796875 0 0 0 0 
2414833333.3333334923 0.160818114876747103592080634371 -0.053819850087165832519531250000 0.001704317633993924097773886572 -0.010156899690628050023089024023 0 0 0 0 
2415000000.0000000000 0.159734755754470797439736884371 -0.055503848940134048461914062500 0.001427913899533451037165976416 -0.010130687616765500849713710352 0 0 0 0 
2415166666.6666665077 0.158861249685287503341513115629 -0.057224828749895102764089216407 0.000980548677034676074981689453 -0.010305669158697130030621913477 0 0 0 0 
2415333333.3333334923 0.158108532428741510589276231258 -0.059101246297359466552734375000 0.000835420622024685144424438477 -0.010348541662096980703333670704 0 0 0 0 
2415500000.0000000000 0.157235741615295410156250000000 -0.060868468135595321655273437500 0.000447472004452720284461975098 -0.010366505011916160583496093750 0 0 0 0 
2415666666.6666665077 0.156565293669700594803018134371 -0.062809489667415618896484375000 0.000004745897967950440943241119 -0.010458542034029960632324218750 0 0 0 0 
2415833333.3333334923 0.155992358922958401779013115629 -0.064848750829696655273437500000 -0.000308658985886722803115844727 -0.010511945933103559666643711523 0 0 0 0 
2416000000.0000000000 0.155114650726318387130575615629 -0.066742464900016784667968750000 -0.000701573095284402370452880859 -0.010586721822619439906110194727 0 0 0 0 
2416166666.6666665077 0.154860123991966303069744981258 -0.068767517805099487304687500000 -0.001009543542750179984449077075 -0.010463681071996690577496913477 0 0 0 0 
2416333333.3333334923 0.154198661446571405608807481258 -0.070882126688957214355468750000 -0.001418296596966684081433940356 -0.010542931035161020106305507227 0 0 0 0 
2416500000.0000000000 0.153761044144630404373330634371 -0.072861373424530029296875000000 -0.001827265601605176925659179688 -0.010461081750690940511683280079 0 0 0 0 
2416666666.6666665077 0.153401017189025906661825615629 -0.074849858880043029785156250000 -0.002145010279491544203517294775 -0.010292609222233300644844256055 0 0 0 0 
2416833333.3333334923 0.153286799788475008865518134371 -0.076867327094078063964843750000 -0.002563524292781949043273925781 -0.010283022187650200235387032421 0 0 0 0 
2417000000.0000000000 0.152806535363197298904580634371 -0.078762091696262359619140625000 -0.002966063562780619101283408057 -0.010266217403113840275774570898 0 0 0 0 
2417166666.6666665077 0.152659729123115511795205634371 -0.080472938716411590576171875000 -0.003223697422072290940525673975 -0.010090731084346769505510899023 0 0 0 0 
2417333333.3333334923 0.152583301067352294921875000000 -0.082355737686157226562500000000 -0.003735493635758758024928427588 -0.010011311620473859959612461523 0 0 0 0 
2417500000.0000000000 0.152300074696540804763955634371 -0.084253042936325073242187500000 -0.003928887657821177568917558887 -0.009964742697775363922119140625 0 0 0 0 
2417666666.6666665077 0.152401074767112704178018134371 -0.085715137422084808349609375000 -0.004353633616119623184204101562 -0.009897861629724502563476562500 0 0 0 0 
2417833333.3333334923 0.152456596493721008300781250000 -0.087265074253082275390625000000 -0.004882897250354290008544921875 -0.009445103816688060760498046875 0 0 0 0 
2418000000.0000000000 0.152388677000999506194744981258 -0.088843412697315216064453125000 -0.005223763175308704376220703125 -0.009338123723864555358886718750 0 0 0 0 
2418166666.6666665077 0.152525126934051513671875000000 -0.090126633644104003906250000000 -0.005620849784463644027709960938 -0.009190919809043407440185546875 0 0 0 0 
2418333333.3333334923 0.152756184339523287674111884371 -0.091305203735828399658203125000 -0.005929375998675823211669921875 -0.008939413353800773620605468750 0 0 0 0 
2418500000.0000000000 0.152765393257141113281250000000 -0.092570416629314422607421875000 -0.006243716459721326828002929688 -0.008711671456694602966308593750 0 0 0 0 
2418666666.6666665077 0.153068467974662808517294365629 -0.093541793525218963623046875000 -0.006586155388504266738891601562 -0.008467136882245540618896484375 0 0 0 0 
2418833333.3333334923 0.153051987290382413009481865629 -0.094444006681442260742187500000 -0.006912527140229940414428710938 -0.008375540375709533691406250000 0 0 0 0 
2419000000.0000000000 0.153097197413444491287393134371 -0.095280371606349945068359375000 -0.007343976292759180068969726562 -0.007846426218748092651367187500 0 0 0 0 
2419166666.6666665077 0.153499037027359008789062500000 -0.095985934138298034667968750000 -0.007478090468794106569772051074 -0.007671063300222158432006835938 0 0 0 0 
2419333333.3333334923 0.153397083282470703125000000000 -0.096267163753509521484375000000 -0.007777633611112833023071289062 -0.007285280153155326843261718750 0 0 0 0 
2419500000.0000000000 0.153520956635475186446981865629 -0.096966713666915893554687500000 -0.008101633749902248382568359375 -0.007048306055366992950439453125 0 0 0 0 
2419666666.6666665077 0.153974011540412902832031250000 -0.097363919019699096679687500000 -0.008189016953110694885253906250 -0.006629003211855888366699218750 0 0 0 0 
2419833333.3333334923 0.154017359018325805664062500000 -0.097415417432785034179687500000 -0.008389747701585292816162109375 -0.006416531745344400405883789062 0 0 0 0 
