# Hz S RI R 50
2400000000.0000000000 0.158242359757423400878906250000 0.062408968806266791606862653907 0.001244195504114032008527446216 0.001748187234625220081926655347 0 0 0 0 
2400166666.6666665077 0.158177405595779391189736884371 0.060901828110218048095703125000 0.001150787109509111101265932398 0.001560451113618910095812153394 0 0 0 0 
2400333333.3333334923 0.157854050397872897049111884371 0.058991674333810813213307966407 0.001193016418255866007563925635 0.001527650631032883904100727612 0 0 0 0 
2400500000.0000000000 0.157959669828414889236611884371 0.057046242058277130126953125000 0.001252099522389471964595175635 0.001587200444191694042803120190 0 0 0 0 
2400666666.6666665077 0.157911732792854309082031250000 0.055080745369195938110351562500 0.001302332850173115947126079028 0.001613427302800118923187255859 0 0 0 0 
2400833333.3333334923 0.157923236489295987228231865629 0.053036056458950042724609375000 0.001412926823832095103022910010 0.001393453800119460062739706885 0 0 0 0 
2401000000.0000000000 0.157992482185363797286825615629 0.050991121679544448852539062500 0.001442269538529217026354145581 0.001266547362320125102996826172 0 0 0 0 
2401166666.6666665077 0.158122658729553194900674384371 0.048957433551549911499023437500 0.001536660362035036087036132812 0.001296420581638813018798828125 0 0 0 0 
2401333333.3333334923 0.158177405595779391189736884371 0.046731330454349517822265625000 0.001386252464726567051531147534 0.001046595163643359921099018628 0 0 0 0 
2401500000.0000000000 0.158664673566818209549111884371 0.044734492897987372661550153907 0.001557243289425968906999897534 0.001084211864508688016178750146 0 0 0 0 
2401666666.6666665077 0.159059897065162686446981865629 0.042846918106079101562500000000 0.001758595812134444930432963794 0.001049066893756390051600790869 0 0 0 0 
2401833333.3333334923 0.159319028258323697189169365629 0.040657792240381240844726562500 0.001589766470715403990504599463 0.000927979999687522649765014648 0 0 0 0 
2402000000.0000000000 0.159754827618598910232705634371 0.038710109889507286762277971093 0.001597839524038136005401611328 0.000940808677114546298980712891 0 0 0 0 
2402166666.6666665077 0.160295099020004300216513115629 0.036609940230846411968190778907 0.001505929278209805922267294775 0.000957611133344471454620361328 0 0 0 0 
2402333333.3333334923 0.160678207874298095703125000000 0.034871108829975128173828125000 0.001543112332001328902003622900 0.000873816956300288438796997070 0 0 0 0 
2402500000.0000000000 0.161426857113838195800781250000 0.032969318330287933349609375000 0.001640324713662266948102641528 0.000783862720709294080734252930 0 0 0 0 
2402666666.6666665077 0.162172630429267911056356865629 0.031227689236402511596679687500 0.001754632801748811981798481519 0.000749365717638283967971801758 0 0 0 0 
2402833333.3333334923 0.162742868065834100921307481258 0.029553679749369621276855468750 0.001757458900101483085035014575 0.000803344824817031621932983398 0 0 0 0 
2403000000.0000000000 0.163783445954322787185830634371 0.027878345921635631216028983204 0.001614242908544837994816445459 0.000532926002051681280136108398 0 0 0 0 
2403166666.6666665077 0.164508417248725891113281250000 0.026309877634048458444615548046 0.001554650720208883068682026440 0.000539477565325796604156494141 0 0 0 0 
2403333333.3333334923 0.165545508265495300292968750000 0.024877252057194709777832031250 0.001517368713393806977512978662 0.000510036712512373924255371094 0 0 0 0 
2403500000.0000000000 0.166288927197456387618856865629 0.023403752595186230051060860546 0.001753004617057740905164409106 0.000531118130311369895935058594 0 0 0 0 
2403666666.6666665077 0.167270287871360806564169365629 0.022010164335370060312291329296 0.001481957966461777903913188403 0.000414401991292834281921386719 0 0 0 0 
2403833333.3333334923 0.168218612670898409744424384371 0.020684478804469108581542968750 0.001511964364908636049983359229 0.000411765358876437002986353741 0 0 0 0 
2404000000.0000000000 0.169239982962608309646768134371 0.019512450322508808481236641796 0.001575583592057228088378906250 0.000500976748298853635787963867 0 0 0 0 
2404166666.6666665077 0.170214891433715792556924384371 0.018353786319494250905970389454 0.001515944255515933036804199219 0.000471155100967735106318873273 0 0 0 0 
2404333333.3333334923 0.171036943793296786209268134371 0.017520703375339511526087576954 0.001456069177947938008549355615 0.000468984508188441395759582520 0 0 0 0 
2404500000.0000000000 0.171947285532951410491619981258 0.016324631869792941701868826954 0.001521941041573882102966308594 0.000326214358210563713878077374 0 0 0 0 
2404666666.6666665077 0.172960191965103204925213731258 0.015589040704071520024309727148 0.001633510342799127101898193359 0.000185024910024367299958905630 0 0 0 0 
2404833333.3333334923 0.173900097608566311935263115629 0.014732819050550460815429687500 0.001549536827951669909833598560 0.000208333425689488703578394757 0 0 0 0 
2405000000.0000000000 0.174723401665687588790731865629 0.014027711004018780099888985546 0.001547336578369141058680868994 0.000293602002784609794616699219 0 0 0 0 
2405166666.6666665077 0.175605267286300686935263115629 0.013369637541472910099993320898 0.001634433632716536955592490088 0.000143914803629741099759778433 0 0 0 0 
2405333333.3333334923 0.176486417651176508147869981258 0.012598445639014240610142891796 0.001526779728010297038434672778 0.000097028008894994854927062988 0 0 0 0 
2405500000.0000000000 0.177202031016349792480468750000 0.012371146120131019247034842579 0.001607367652468383095384907300 0.000099933917226735502481460571 0 0 0 0 
2405666666.6666665077 0.177905231714248712737713731258 0.012081922963261600839635079296 0.001488029723986983082414936597 0.000252418452873826026916503906 0 0 0 0 
2405833333.3333334923 0.178370535373687688629473768742 0.011568131856620310002337070898 0.001600733608938754038569785010 0.000061672588344663381576538086 0 0 0 0 
2406000000.0000000000 0.178978875279426602462606865629 0.011152878403663640458076677930 0.001558198360726237080217670972 0.000111328576167579699628291945 0 0 0 0 
2406166666.6666665077 0.179472818970680209060830634371 0.010778746567666530609130859375 0.001593677094206213951110839844 0.000103792735899332897223611150 0 0 0 0 
2406333333.3333334923 0.179930657148361206054687500000 0.010540073737502099818219569727 0.001688740565441549041150737231 0.000074040362960658967494964600 0 0 0 0 
2406500000.0000000000 0.180154070258140591720419365629 0.010270670987665649759312813671 0.001723365508951246955274272388 0.000022353760869009420275688171 0 0 0 0 
2406666666.6666665077 0.180282950401306207854901231258 0.009907878004014492034912109375 0.001725296373479068062425922925 0.000002726469801928033120930195 0 0 0 0 
2406833333.3333334923 0.180478885769844110686932481258 0.009579351171851158142089843750 0.001726419082842767021776508862 -0.000033706586691550910472869873 0 0 0 0 
2407000000.0000000000 0.180752724409103393554687500000 0.009397138841450214385986328125 0.001819986151531338908551860278 -0.000057025281421374529600143433 0 0 0 0 
2407166666.6666665077 0.180848523974418612381143134371 0.009109850972890853881835937500 0.001775040407665074088452983325 -0.000341422070050612092018127441 0 0 0 0 
2407333333.3333334923 0.180672541260719299316406250000 0.008644710294902324676513671875 0.001771477400325238921521830981 -0.000190813865629024803638458252 0 0 0 0 
2407500000.0000000000 0.180489405989646911621093750000 0.008285488933324813842773437500 0.001972630852833389802220009912 -0.000214214553125202710002344952 0 0 0 0 
2407666666.6666665077 0.180372938513755798339843750000 0.007816336117684841156005859375 0.001847599633038043975830078125 -0.000361405080184340476989746094 0 0 0 0 
2407833333.3333334923 0.179817274212837191482705634371 0.007294283714145421981811523438 0.001724580768495797894121479565 -0.000328658934449777007102966309 0 0 0 0 
2408000000.0000000000 0.179528862237930297851562500000 0.006605048663914203643798828125 0.001852223766036332087275839697 -0.000491807935759425163269042969 0 0 0 0 
2408166666.6666665077 0.179254442453384399414062500000 0.006067738402634859085083007812 0.001871046260930597998975444263 -0.000379630218958482200473231183 0 0 0 0 
2408333333.3333334923 0.178967043757438687423544365629 0.005400022957473993301391601562 0.001789889531210065104840922778 -0.000508375756908208131790161133 0 0 0 0 
2408500000.0000000000 0.178346008062362698654013115629 0.004493503365665674209594726562 0.001839441363699733994127583081 -0.000590788607951253652572631836 0 0 0 0 
2408666666.6666665077 0.177649021148681612869424384371 0.003763656597584486007690429688 0.001850407803431153080583881909 -0.000472833868116140419810694562 0 0 0 0 
2408833333.3333334923 0.176873400807380704025106865629 0.002620737999677658081054687500 0.001943216309882700009586953271 -0.000760382565204054117202758789 0 0 0 0 
2409000000.0000000000 0.176182955503463800628338731258 0.001733576878905295892002724756 0.001877769827842711968662881006 -0.000639280653558671474456787109 0 0 0 0 
2409166666.6666665077 0.175647556781768798828125000000 0.000406965031288564205169677734 0.001932894228957593007328652490 -0.000807662028819322586059570312 0 0 0 0 
2409333333.3333334923 0.175085037946701105315838731258 -0.000834232079796493053436279297 0.001660813693888484997990273584 -0.000912084593437612056732177734 0 0 0 0 
2409500000.0000000000 0.174446254968643188476562500000 -0.002201155759394168853759765625 0.001874419511295855045318603516 -0.000910482020117342472076416016 0 0 0 0 
2409666666.6666665077 0.173623353242874201018963731258 -0.003412446472793817953822470557 0.001815149327740072987200092847 -0.001024054829031229019165039062 0 0 0 0 
2409833333.3333334923 0.172897294163703890701455634371 -0.004684640560299158096313476562 0.001829017419368029074427939307 -0.000996718183159828186035156250 0 0 0 0 
2410000000.0000000000 0.172347202897071810623330634371 -0.006337347440421581268310546875 0.001779141020961106040357280200 -0.001043879427015780968907021631 0 0 0 0 
2410166666.6666665077 0.171722382307052612304687500000 -0.007959595881402492523193359375 0.001992509933188558058497763525 -0.001113147474825382015825581128 0 0 0 0 
2410333333.3333334923 0.170996800065040588378906250000 -0.009592753835022449493408203125 0.001777765341103076934814453125 -0.001373184612020849964739155347 0 0 0 0 
2410500000.0000000000 0.170431509613990811446981865629 -0.011230614036321640014648437500 0.001810469781048595905303955078 -0.001269285334274172999738383716 0 0 0 0 
2410666666.6666665077 0.169845476746559087555255018742 -0.013192332349717620504359061329 0.001815492869354784922358847510 -0.001331976149231195016148232568 0 0 0 0 
2410833333.3333334923 0.169519528746604891678018134371 -0.014987523667514320718785469921 0.001801998354494571902631450122 -0.001437898143194616057752299731 0 0 0 0 
2411000000.0000000000 0.168984562158584594726562500000 -0.016874589025974270212193673046 0.001732227276079357104060507666 -0.001619479036889970085741352612 0 0 0 0 
2411166666.6666665077 0.168602034449577303787393134371 -0.018770720809698108327845389454 0.001600867137312889099121093750 -0.001654760213568807081935263525 0 0 0 0 
2411333333.3333334923 0.168265357613563509842080634371 -0.020767791196703910827636718750 0.001518842065706849098205566406 -0.001606145990081131891963339697 0 0 0 0 
2411500000.0000000000 0.168149441480636596679687500000 -0.022783922031521800649622733204 0.001556179136969148895860981519 -0.001895364723168313936946249854 0 0 0 0 
2411666666.6666665077 0.168195784091949490646200615629 -0.024698859080672260629674141796 0.001443504006601870059967041016 -0.001780546735972166061401367188 0 0 0 0 
2411833333.3333334923 0.167968973517417907714843750000 -0.026569027453660968435267264454 0.001416703336872160001042031396 -0.001954684732481836838963173975 0 0 0 0 
2412000000.0000000000 0.168017655611038208007812500000 -0.028685759752988818777064139454 0.001531109330244361920597695459 -0.001961181638762354850769042969 0 0 0 0 
2412166666.6666665077 0.168043360114097595214843750000 -0.030711252242326739919642264454 0.001330265891738235950469970703 -0.002003311645239592032191611182 0 0 0 0 
2412333333.3333334923 0.168332174420356805999432481258 -0.032357007265090942382812500000 0.001235735835507512092590332031 -0.002068553119897841973545693506 0 0 0 0 
2412500000.0000000000 0.168409943580627413650674384371 -0.034330114722251892089843750000 0.001247322536073625087738037109 -0.002282782923430203957798623193 0 0 0 0 
2412666666.6666665077 0.168863162398338290115518134371 -0.036264576017856597900390625000 0.001035774708725512027740478516 -0.002350330585613847212550497900 0 0 0 0 
2412833333.3333334923 0.169171243906021090408486884371 -0.038196459412574768066406250000 0.000770741025917232036590576172 -0.002307839458808302879333496094 0 0 0 0 
2413000000.0000000000 0.169455662369728088378906250000 -0.040050454437732696533203125000 0.000808173557743430137634277344 -0.002363959793001412911656045068 0 0 0 0 
2413166666.6666665077 0.169827163219451904296875000000 -0.041800852864980697631835937500 0.000741905416361987590789794922 -0.002337593818083405928370810400 0 0 0 0 
2413333333.3333334923 0.170159801840782193282919365629 -0.043497491627931601787526716407 0.000592828844673931598663330078 -0.002363221021369100050685263525 0 0 0 0 
2413500000.0000000000 0.170816183090209988693075615629 -0.045076340436935431743581403907 0.000512494472786784172058105469 -0.002505478216335176987888955225 0 0 0 0 
2413666666.6666665077 0.171321466565132113357705634371 -0.046861968934535980224609375000 0.000329510687151923775672912598 -0.002505497075617312951328896631 0 0 0 0 
2413833333.3333334923 0.171738132834434509277343750000 -0.048020463436841971660573591407 0.000277312239632010514110010968 -0.002447132952511311011073447119 0 0 0 0 
2414000000.0000000000 0.172293990850448608398437500000 -0.049590632319450378417968750000 0.000191396655282005694791516714 -0.002558256732299923896789550781 0 0 0 0 
2414166666.6666665077 0.172973319888114901443643134371 -0.050781965255737311626393903907 0.000044008535041939467191696167 -0.002553618978708982901332236182 0 0 0 0 
2414333333.3333334923 0.173484429717063903808593750000 -0.051959205418825149536132812500 -0.000221031616092659505918779916 -0.002474987646564840836765908350 0 0 0 0 
2414500000.0000000000 0.174103006720542907714843750000 -0.053181249648332602764089216407 -0.000294526776997372508049011230 -0.002305020578205585913417197119 0 0 0 0 
2414666666.6666665077 0.174776524305343600174111884371 -0.054187845438718802715261091407 -0.000384733517421409487724304199 -0.002313825068995356993434286963 0 0 0 0 
2414833333.3333334923 0.174995332956314086914062500000 -0.055278912186622619628906250000 -0.000497017696034163236618041992 -0.002450947184115647835972451318 0 0 0 0 
2415000000.0000000000 0.175619378685951205154580634371 -0.056070964783430099487304687500 -0.000440226780483499223559779034 -0.002376330783590673966648720850 0 0 0 0 
2415166666.6666665077 0.175933048129081698318643134371 -0.056781083345413208007812500000 -0.000619132479187101125717163086 -0.002150784712284802956822060693 0 0 0 0 
2415333333.3333334923 0.176557838916778592208700615629 -0.057599283754825592041015625000 -0.000835081387776881456375122070 -0.002259092638269066810607910156 0 0 0 0 
2415500000.0000000000 0.176752865314483587066973768742 -0.058133780956268310546875000000 -0.000778609944973140954971313477 -0.002183445030823349952697753906 0 0 0 0 
2415666666.6666665077 0.177094608545303289215411268742 -0.058680269867181777954101562500 -0.000943570921663194894790649414 -0.001998791005462408065795898438 0 0 0 0 
2415833333.3333334923 0.177501484751701410491619981258 -0.059115160256624221801757812500 -0.000994044006802141666412353516 -0.001987416530027986006495810400 0 0 0 0 
2416000000.0000000000 0.177340433001518305022869981258 -0.059652123600244522094726562500 -0.001008880790323019027709960938 -0.001808636588975786945940327222 0 0 0 0 
2416166666.6666665077 0.177842363715171786209268134371 -0.059914160519838333129882812500 -0.001276557915844023010851215894 -0.001833025948144495920894003760 0 0 0 0 
2416333333.3333334923 0.177758574485778808593750000000 -0.060203708708286292339284528907 -0.001070127473212779001948691260 -0.001793486066162585995317768628 0 0 0 0 
2416500000.0000000000 0.177592486143112210372763115629 -0.060510199517011642456054687500 -0.001327760750427841923357319409 -0.001799120800569653944728232275 0 0 0 0 
2416666666.6666665077 0.177405744791030911544638115629 -0.060687422752380371093750000000 -0.001342110685072839043260883862 -0.001573828281834721998927451025 0 0 0 0 
2416833333.3333334923 0.177291512489318903167401231258 -0.060988314449787139892578125000 -0.001386619638651608987095498193 -0.001406984752975404045702290112 0 0 0 0 
2417000000.0000000000 0.176725536584854098220986884371 -0.061199929565191268920898437500 -0.001330619328655302958247519385 -0.001414225902408361001255654443 0 0 0 0 
2417166666.6666665077 0.176350310444831903655682481258 -0.061226043850183486938476562500 -0.001312197651714086966273642432 -0.001414272468537091992021870190 0 0 0 0 
2417333333.3333334923 0.175838083028793307205361884371 -0.061587862670421600341796875000 -0.001400686451233923001530312646 -0.001210772548802196979522705078 0 0 0 0 
2417500000.0000000000 0.175110995769500704666299384371 -0.061819259077310562133789062500 -0.001422064495272934003117226709 -0.001275419606827199892756796729 0 0 0 0 
2417666666.6666665077 0.174627482891082791427450615629 -0.061807498335838317871093750000 -0.001328341430053115107892680591 -0.000914345553610473871231079102 0 0 0 0 
2417833333.3333334923 0.173714548349380493164062500000 -0.062118824571371078491210937500 -0.001380411675199866078020405347 -0.000919661950320005416870117188 0 0 0 0 
2418000000.0000000000 0.172940656542777987381143134371 -0.062524169683456420898437500000 -0.001442719832994044043897319263 -0.000932795170228928327560424805 0 0 0 0 
2418166666.6666665077 0.171830505132675198654013115629 -0.062676213681697845458984375000 -0.001321284798905252976658486475 -0.000807291129603981971740722656 0 0 0 0 
2418333333.3333334923 0.171094983816146906097088731258 -0.063096903264522552490234375000 -0.001395682804286479949951171875 -0.000733957975171506404876708984 0 0 0 0 
2418500000.0000000000 0.170011430978774996658486884371 -0.063537910580635070800781250000 -0.001154254889115690968157124097 -0.000730001193005591630935668945 0 0 0 0 
2418666666.6666665077 0.169009849429130609710369981258 -0.064052328467369079589843750000 -0.001238069846294820091844868237 -0.000656593008898198604583740234 0 0 0 0 
2418833333.3333334923 0.167649969458579989334268134371 -0.064562045037746429443359375000 -0.001271833432838320948957133716 -0.000652880349662154912948608398 0 0 0 0 
2419000000.0000000000 0.166489928960800198654013115629 -0.065097175538539886474609375000 -0.001088946592062711932538676685 -0.000679383636452257633209228516 0 0 0 0 
2419166666.6666665077 0.165436491370201110839843750000 -0.065780922770500183105468750000 -0.001072665443643928007838583838 -0.000666892796289175748825073242 0 0 0 0 
2419333333.3333334923 0.164066150784492492675781250000 -0.066230461001396179199218750000 -0.001130496035329997973201132666 -0.000572264485526829957962036133 0 0 0 0 
2419500000.0000000000 0.162940561771392794510049384371 -0.067353725433349609375000000000 -0.000909853086341172456741333008 -0.000441416515968739986419677734 0 0 0 0 
2419666666.6666665077 0.161761149764061001876669365629 -0.068126685917377471923828125000 -0.001160737476311624050140380859 -0.000513897743076086044311523438 0 0 0 0 
2419833333.3333334923 0.160414621233940096756143134371 -0.068954393267631530761718750000 -0.001108685391955078081843710791 -0.000708018487785011529922485352 0 0 0 0 
