# Hz S RI R 50
2400000000.0000000000 0.173646330833435086349325615629 0.049407571554183959960937500000 0.001716947183012961907627724756 0.001868603983893990950343466650 0 0 0 0 
2400166666.6666665077 0.174068614840507507324218750000 0.048723150044679641723632812500 0.001787795452401041984558105469 0.001652022940106689929962158203 0 0 0 0 
2400333333.3333334923 0.174432948231697110275106865629 0.048009313642978668212890625000 0.001735356869176029942156147534 0.001642153947614132924320839990 0 0 0 0 
2400500000.0000000000 0.175147950649261502364950615629 0.047311276197433471679687500000 0.001760256709530950026271201025 0.001757310237735510089276957935 0 0 0 0 
2400666666.6666665077 0.175168499350547790527343750000 0.046627536416053771972656250000 0.001763848238624631924870156396 0.001689809258095920085906982422 0 0 0 0 
2400833333.3333334923 0.175545439124107388595419365629 0.045897129923105239868164062500 0.001454126322641968943952250903 0.001701615168713032982469868237 0 0 0 0 
2401000000.0000000000 0.175715804100036593338174384371 0.045246426016092300415039062500 0.001609461382031440951703715747 0.001800704980269074006321572412 0 0 0 0 
2401166666.6666665077 0.175768524408340509612713731258 0.044448066502809531475026716407 0.001701361499726772091509174878 0.001810687361285090012791298975 0 0 0 0 
2401333333.3333334923 0.175847560167312594314736884371 0.043774869292974472045898437500 0.001611998770385981039759970557 0.001922467374242841980577778394 0 0 0 0 
2401500000.0000000000 0.175777897238731412032919365629 0.043309696018695831298828125000 0.001676544896326958916307758862 0.001885322970338165976880717700 0 0 0 0 
2401666666.6666665077 0.175884559750557001311932481258 0.042457383126020431518554687500 0.001885384321212768988368368994 0.001949893659912049987195659106 0 0 0 0 
2401833333.3333334923 0.175916180014610290527343750000 0.041514489799737930297851562500 0.001835561241023242907283163916 0.001980245811864734129664755713 0 0 0 0 
2402000000.0000000000 0.175639420747757013518963731258 0.040848672389984130859375000000 0.001953806029632688002345419775 0.002060072030872106985804892432 0 0 0 0 
2402166666.6666665077 0.175493985414505004882812500000 0.039960008114576339721679687500 0.002074437914416193962097167969 0.001939095673151314041735004956 0 0 0 0 
2402333333.3333334923 0.175049647688865689376669365629 0.038856189697980880737304687500 0.002157261129468678994419716943 0.001949546276591717980028461987 0 0 0 0 
2402500000.0000000000 0.175285533070564297775106865629 0.037913534790277481079101562500 0.002262292429804801940917968750 0.001903600059449672915815043872 0 0 0 0 
2402666666.6666665077 0.174875095486640902420205634371 0.036879435181617736816406250000 0.002570534124970436096191406250 0.001882044598460197015049599756 0 0 0 0 
2402833333.3333334923 0.174428969621658297439736884371 0.035552162677049636840820312500 0.002645144937559961838963173975 0.001991714816540480093715048682 0 0 0 0 
2403000000.0000000000 0.174245685338973999023437500000 0.034389067441225051879882812500 0.002794067375361918969395302881 0.001794536481611431078669882666 0 0 0 0 
2403166666.6666665077 0.173853591084480313400106865629 0.032716371119022369384765625000 0.002963442355394362969639443506 0.001660435809753834984422993237 0 0 0 0 
2403333333.3333334923 0.173425227403640802581463731258 0.031432375311851501464843750000 0.003166593145579100088832236182 0.001423603040166198990465473706 0 0 0 0 
2403500000.0000000000 0.173034355044364901443643134371 0.030038574710488319396972656250 0.003236322663724422888514853369 0.001440134365111588998081826318 0 0 0 0 
2403666666.6666665077 0.172718778252601595779580634371 0.028114119544625278818150704296 0.003262840909883379936218261719 0.001265550614334643103955913013 0 0 0 0 
2403833333.3333334923 0.172443658113479586502236884371 0.026453439146280288696289062500 0.003539505647495388984680175781 0.001320663373917341015459370190 0 0 0 0 
2404000000.0000000000 0.171862587332725497146768134371 0.024835484102368358266810233204 0.003608385566622018814086914062 0.000939111283514648675918579102 0 0 0 0 
2404166666.6666665077 0.171585515141487093826455634371 0.022958612069487571716308593750 0.003682501614093780951258993994 0.000718725495971739292144775391 0 0 0 0 
2404333333.3333334923 0.171130970120429992675781250000 0.021252704784274101257324218750 0.003683943301439284844639443506 0.000598117476329207420349121094 0 0 0 0 
2404500000.0000000000 0.170756265521049499511718750000 0.019286813214421268808385079296 0.003614730667322874069213867188 0.000360944541171193122863769531 0 0 0 0 
2404666666.6666665077 0.170487403869628906250000000000 0.017379522323608398437500000000 0.003536827396601438956019736182 0.000304326415061950683593750000 0 0 0 0 
2404833333.3333334923 0.170427531003951998611611884371 0.015565870329737659799596016796 0.003608660306781529946568154443 -0.000117673065687995404005050659 0 0 0 0 
2405000000.0000000000 0.170203968882560702224893134371 0.013436205685138700657854649023 0.003541965968906878991367959131 -0.000245924369664862806170863019 0 0 0 0 
2405166666.6666665077 0.170211017131805392166299384371 0.011433559469878670084019844921 0.003513349685817956924438476562 -0.000398937700083479285240173340 0 0 0 0 
2405333333.3333334923 0.170136004686355590820312500000 0.009205237962305545806884765625 0.003218508791178464889526367188 -0.000393894588341936523288172589 0 0 0 0 
2405500000.0000000000 0.170134678483009310623330634371 0.007346003316342830657958984375 0.003165498608723282814025878906 -0.000831765530165284872055053711 0 0 0 0 
2405666666.6666665077 0.170311987400054903885049384371 0.005331273190677165985107421875 0.003029495710507034821751259912 -0.000768230413086712360382080078 0 0 0 0 
2405833333.3333334923 0.170205354690551813323651231258 0.003432630328461527824401855469 0.003028391627594829039332724463 -0.000842415029183030128479003906 0 0 0 0 
2406000000.0000000000 0.170678600668907193282919365629 0.001285027363337575955631875146 0.002881200751289724869969033350 -0.000935849966481328010559082031 0 0 0 0 
2406166666.6666665077 0.170887678861617986481036268742 -0.000658542790915817022323608398 0.002741015981882811026332236182 -0.001007623039186001040815043872 0 0 0 0 
2406333333.3333334923 0.171382337808609008789062500000 -0.002553869271650909943821572412 0.002646300010383129119873046875 -0.001202171668410300991655659253 0 0 0 0 
2406500000.0000000000 0.171810448169708307464276231258 -0.004652025643736124038696289062 0.002673225942999124960658408057 -0.001040919334627687931060791016 0 0 0 0 
2406666666.6666665077 0.172058165073394803146200615629 -0.006497485563158988952636718750 0.002472316613420844078063964844 -0.001131584285758435943006205981 0 0 0 0 
2406833333.3333334923 0.172665148973464993575888115629 -0.008463332429528236389160156250 0.002617761492729187011718750000 -0.001237676478922367095947265625 0 0 0 0 
2407000000.0000000000 0.173400670289993286132812500000 -0.010314540006220340728759765625 0.002416372997686266899108886719 -0.001253707683645189025281596606 0 0 0 0 
2407166666.6666665077 0.174227848649024991134481865629 -0.012081400491297250229805193555 0.002438198775053023858311318506 -0.001095679006539284966112446362 0 0 0 0 
2407333333.3333334923 0.174808442592620905120526231258 -0.013886107131838800257672694727 0.002303259680047630830052041162 -0.001223129685968161062953329932 0 0 0 0 
2407500000.0000000000 0.175593808293342590332031250000 -0.015540548600256439554234688671 0.002429657150059937997105263818 -0.001192344585433601899387978662 0 0 0 0 
2407666666.6666665077 0.176314070820808410644531250000 -0.017250010743737220764160156250 0.002331166993826628165004111182 -0.001345651573501527092577290112 0 0 0 0 
2407833333.3333334923 0.177022054791450500488281250000 -0.019042517989873889577845389454 0.002507702447474002838134765625 -0.001480209408327936909319233472 0 0 0 0 
2408000000.0000000000 0.177747473120689392089843750000 -0.020689155906438830984095389454 0.002470912644639610810520791162 -0.001596003537997602982762002100 0 0 0 0 
2408166666.6666665077 0.178470522165298489669638115629 -0.021938059478998180734654610546 0.002450126688927412033081054688 -0.001704080263152718977687216650 0 0 0 0 
2408333333.3333334923 0.179391562938690213302450615629 -0.023474892601370811462402343750 0.002288129413500428199768066406 -0.001974963583052157922032021631 0 0 0 0 
2408500000.0000000000 0.179874032735824612716513115629 -0.024820325896143909799596016796 0.002222984563559294180629111182 -0.001973116071894764900207519531 0 0 0 0 
2408666666.6666665077 0.180546045303344698806924384371 -0.026141371577978130685826485546 0.002138480776920915083644247900 -0.002157876500859857039210654150 0 0 0 0 
2408833333.3333334923 0.180941328406333895584268134371 -0.027315601706504818307896798046 0.002245334675535560087916708838 -0.002304144902154802842381142725 0 0 0 0 
2409000000.0000000000 0.181466311216354397872763115629 -0.028442200273275378835657889454 0.001851351000368594906450581128 -0.002431074623018503189086914062 0 0 0 0 
2409166666.6666665077 0.182009860873222406585369981258 -0.029260322451591491699218750000 0.001673195743933320045471191406 -0.002519077155739068984985351562 0 0 0 0 
2409333333.3333334923 0.182491824030876187423544365629 -0.030052708461880680429478829296 0.001617655856534838893293071216 -0.002622981788590549988987588037 0 0 0 0 
2409500000.0000000000 0.182731196284294100662393134371 -0.031015725806355479848841483204 0.001379314577206969044328999097 -0.002596353879198431968688964844 0 0 0 0 
2409666666.6666665077 0.182962834835052490234375000000 -0.031596966087818152690847028907 0.001239235047250986099243164062 -0.002690629102289677099940634619 0 0 0 0 
2409833333.3333334923 0.183240532875061007400674384371 -0.031933799386024482036550153907 0.000886740861460566520690917969 -0.002735271118581295013427734375 0 0 0 0 
2410000000.0000000000 0.183502942323684692382812500000 -0.032458856701850891113281250000 0.000873155251611024141311645508 -0.002659451216459273858311318506 0 0 0 0 
2410166666.6666665077 0.183745250105857904632244981258 -0.032888598740100860595703125000 0.000644111365545541048049926758 -0.002545361407101153893711709131 0 0 0 0 
2410333333.3333334923 0.183611214160919189453125000000 -0.033262848854064941406250000000 0.000507972261402755975723266602 -0.002622262807562946839573525537 0 0 0 0 
2410500000.0000000000 0.183718338608741788009481865629 -0.033652398735284812236745466407 0.000502020819112658500671386719 -0.002844644710421562194824218750 0 0 0 0 
2410666666.6666665077 0.183560848236084012130575615629 -0.033924642950296401977539062500 0.000233086553635075688362121582 -0.002583499299362301826477050781 0 0 0 0 
2410833333.3333334923 0.183443918824195889571981865629 -0.034168493002653121948242187500 0.000017047372239176180550848314 -0.002478601643815637068507529150 0 0 0 0 
2411000000.0000000000 0.183235108852386502364950615629 -0.034479591995477683330495466407 -0.000059604721172945567149708407 -0.002602313412353395982029580225 0 0 0 0 
2411166666.6666665077 0.182883754372596712967080634371 -0.034877255558967590332031250000 -0.000115316499432083205737252507 -0.002613329561427236037013388525 0 0 0 0 
2411333333.3333334923 0.182490795850753811935263115629 -0.035106342285871512676198591407 -0.000330918526742607409327906476 -0.002568961353972554206848144531 0 0 0 0 
2411500000.0000000000 0.181963220238685607910156250000 -0.035623479634523391723632812500 -0.000551460369024425853430593225 -0.002649703761562705039978027344 0 0 0 0 
2411666666.6666665077 0.181559443473815890213174384371 -0.035912081599235541606862653907 -0.000631707836873829364776611328 -0.002416551345959306196925497900 0 0 0 0 
2411833333.3333334923 0.180852994322776794433593750000 -0.036212049424648291851003278907 -0.000739838462322950363159179688 -0.002323472173884510993957519531 0 0 0 0 
2412000000.0000000000 0.180154517292976407150106865629 -0.036672994494438171386718750000 -0.000887720147147774696350097656 -0.002158337039873003959655761719 0 0 0 0 
2412166666.6666665077 0.179189562797546386718750000000 -0.037327527999877929687500000000 -0.001191475428640842004063271631 -0.002054268261417746977565146338 0 0 0 0 
2412333333.3333334923 0.178384393453597994705361884371 -0.037513293325901031494140625000 -0.001389344921335577964782714844 -0.002069374779239296913146972656 0 0 0 0 
2412500000.0000000000 0.177424296736717196365518134371 -0.038028120994567871093750000000 -0.001408164738677442073822021484 -0.001860053394921123981475830078 0 0 0 0 
2412666666.6666665077 0.176300480961799593826455634371 -0.038996059447526931762695312500 -0.001573768910020590045331645435 -0.001609403290785849094390869141 0 0 0 0 
2412833333.3333334923 0.175185605883598299881143134371 -0.039582289755344390869140625000 -0.001704989233985543034197163159 -0.001427676994353533007978129810 0 0 0 0 
2413000000.0000000000 0.173935472965240506271200615629 -0.040380451828241348266601562500 -0.001861239084973931095720600659 -0.001316841458901762962341308594 0 0 0 0 
2413166666.6666665077 0.172682002186775207519531250000 -0.041138410568237311626393903907 -0.001846253289841115908381796729 -0.000919234706088900566101074219 0 0 0 0 
2413333333.3333334923 0.171318724751472500900106865629 -0.042263410985469818115234375000 -0.002024504356086254119873046875 -0.000703988713212311267852783203 0 0 0 0 
2413500000.0000000000 0.170165881514549310882244981258 -0.043253898620605468750000000000 -0.002005036920309067206141806494 -0.000408965977840125614970606671 0 0 0 0 
2413666666.6666665077 0.168890774250030489822549384371 -0.044190611690282821655273437500 -0.002012978075072168870213173975 0.000035813158319797366857528687 0 0 0 0 
2413833333.3333334923 0.167491897940635708907919365629 -0.045388713479042053222656250000 -0.002043416257947682900669716943 0.000149959581904113292694091797 0 0 0 0 
2414000000.0000000000 0.166252493858337402343750000000 -0.046578995883464813232421875000 -0.002103121252730489210841513525 0.000477950932690873687893468036 0 0 0 0 
2414166666.6666665077 0.164998322725295992752236884371 -0.047638025134801871562917341407 -0.001799278543330729007720947266 0.000726625381503254175186157227 0 0 0 0 
2414333333.3333334923 0.163900390267372103592080634371 -0.049289986491203308105468750000 -0.001559217926114798025843954932 0.000971147965174168348312377930 0 0 0 0 
2414500000.0000000000 0.162905678153037997146768134371 -0.050822973251342773437500000000 -0.001379766268655657985089946216 0.001134546706452965953229594653 0 0 0 0 
2414666666.6666665077 0.161563754081726101974325615629 -0.052198760211467742919921875000 -0.001213739044032990932464599609 0.001538656768389045975328754956 0 0 0 0 
2414833333.3333334923 0.160603910684585599044638115629 -0.053805135190486907958984375000 -0.000814463477581739425659179688 0.001623360440135001919390034253 0 0 0 0 
2415000000.0000000000 0.159458100795745905120526231258 -0.055448137223720550537109375000 -0.000582305598072707653045654297 0.001785215223208070018171000903 0 0 0 0 
2415166666.6666665077 0.158593490719795199295205634371 -0.057197082787752151489257812500 -0.000255830236710608005523681641 0.001815519179217516942265175928 0 0 0 0 
2415333333.3333334923 0.157869324088096590896768134371 -0.059148553758859627460520158593 0.000142485936521552503108978271 0.001808549859561026096343994141 0 0 0 0 
2415500000.0000000000 0.156952083110809298416299384371 -0.060883916914463043212890625000 0.000343727995641529614299219952 0.001965939067304133935215615381 0 0 0 0 
2415666666.6666665077 0.156243845820426913162393134371 -0.062798976898193359375000000000 0.000619651109445840120315551758 0.001783811952918767929077148438 0 0 0 0 
2415833333.3333334923 0.155596196651458712478799384371 -0.064647644758224487304687500000 0.001025837613269686915754008716 0.001790705719031393961665488135 0 0 0 0 
2416000000.0000000000 0.154859364032745389083700615629 -0.066704019904136657714843750000 0.001244748244062066078186035156 0.001535519724711775996564555591 0 0 0 0 
2416166666.6666665077 0.154620781540870694259481865629 -0.068657860159873962402343750000 0.001502400962635874965070414966 0.001354883308522403023363422925 0 0 0 0 
2416333333.3333334923 0.154087454080581692794638115629 -0.070631429553031921386718750000 0.001519854529760777950286865234 0.001178710605017841079114604419 0 0 0 0 
2416500000.0000000000 0.153516903519630404373330634371 -0.072663374245166778564453125000 0.001975689548999071121215820312 0.001227953238412738063214946216 0 0 0 0 
2416666666.6666665077 0.153169021010398892501669365629 -0.074601292610168457031250000000 0.002140649128705263137817382812 0.000794160587247461080551147461 0 0 0 0 
2416833333.3333334923 0.152959957718849209884481865629 -0.076720729470252990722656250000 0.002232171827927231788635253906 0.000711749889887869358062744141 0 0 0 0 
2417000000.0000000000 0.152444347739219693282919365629 -0.078579418361186981201171875000 0.002408180618658661842346191406 0.000494104577228426933288574219 0 0 0 0 
2417166666.6666665077 0.152477607131004305740518134371 -0.080343082547187805175781250000 0.002426473191007972197291708838 0.000198210283997468704551142560 0 0 0 0 
2417333333.3333334923 0.152429506182670593261718750000 -0.082050196826457977294921875000 0.002515366533771156831028603662 0.000025776434995350431313718489 0 0 0 0 
2417500000.0000000000 0.152218922972679110428018134371 -0.083844713866710662841796875000 0.002419743686914443969726562500 -0.000103470461908727897845129695 0 0 0 0 
2417666666.6666665077 0.152403801679611206054687500000 -0.085426591336727142333984375000 0.002398879500105977058410644531 -0.000459484232123941183090209961 0 0 0 0 
2417833333.3333334923 0.152342692017555209060830634371 -0.086846873164176940917968750000 0.002470246050506830215454101562 -0.000604807108175009489059448242 0 0 0 0 
2418000000.0000000000 0.152343884110450689117755018742 -0.088540837168693542480468750000 0.002359428675845264954807900537 -0.000856208323966711759567260742 0 0 0 0 
2418166666.6666665077 0.152398481965065002441406250000 -0.089692614972591400146484375000 0.002200887305662035942077636719 -0.001025695470161736011505126953 0 0 0 0 
2418333333.3333334923 0.152694985270500210861044365629 -0.091012723743915557861328125000 0.002444045618176459832432412256 -0.001277299481444061019300151294 0 0 0 0 
2418500000.0000000000 0.152791678905487088302450615629 -0.092179603874683380126953125000 0.002318771323189138932469033350 -0.001275733928196131966234516675 0 0 0 0 
2418666666.6666665077 0.153092518448829706390057481258 -0.093186296522617340087890625000 0.001999933971092104911804199219 -0.001506873755715786977055214990 0 0 0 0 
2418833333.3333334923 0.153175517916679410079794365629 -0.094152875244617462158203125000 0.001932738116011023955104208838 -0.001857754308730364062665629810 0 0 0 0 
2419000000.0000000000 0.153192415833473205566406250000 -0.094864442944526672363281250000 0.001818544813431798978092812646 -0.001905419281683861992479633862 0 0 0 0 
2419166666.6666665077 0.153570070862770108321981865629 -0.095456458628177642822265625000 0.001795100281015038923976279150 -0.001940097426995635032653808594 0 0 0 0 
2419333333.3333334923 0.153561025857925387283486884371 -0.095959469676017761230468750000 0.001686361501924694018123007666 -0.001978356624022126197814941406 0 0 0 0 
2419500000.0000000000 0.153880923986434908767861884371 -0.096535794436931610107421875000 0.001464392524212599017499614185 -0.002081197919324039979221963037 0 0 0 0 
2419666666.6666665077 0.154185444116592407226562500000 -0.096924170851707458496093750000 0.001274889335036277987836528247 -0.002168747363612056212184286963 0 0 0 0 
2419833333.3333334923 0.154144600033760098556356865629 -0.097054652869701385498046875000 0.001213039038702846007106161963 -0.002227230696007608933689736475 0 0 0 0 
