# Version 1.00
#
freq[Hz];re:Trc1_S11;im:Trc1_S11;re:Trc2_S21;im:Trc2_S21;
2.400000000000000E+009;1.582035422325134E-001;6.312197446823120E-002;-2.142964163795114E-003;-7.053370791254565E-005;
2.400166666666667E+009;1.581199020147324E-001;6.139675900340080E-002;-1.977443927899003E-003;-3.842412479571067E-005;
2.400333333333334E+009;1.577861309051514E-001;5.960229411721230E-002;-2.052190247923136E-003;2.364685351494700E-004;
2.400500000000000E+009;1.577792167663574E-001;5.775983631610870E-002;-1.950942212715745E-003;2.551288343966007E-004;
2.400666666666667E+009;1.576942056417465E-001;5.556372925639153E-002;-1.905975863337517E-003;3.399398701731116E-004;
2.400833333333334E+009;1.579696834087372E-001;5.379190668463707E-002;-1.732490141876042E-003;4.660504055209458E-004;
2.401000000000000E+009;1.580065637826920E-001;5.149739608168602E-002;-1.992699457332492E-003;3.675566695164889E-004;
2.401166666666667E+009;1.580665111541748E-001;4.960994794964790E-002;-1.709555741399527E-003;5.504696746356785E-004;
2.401333333333334E+009;1.580680012702942E-001;4.740138351917267E-002;-1.850323285907507E-003;5.913493805564940E-004;
2.401500000000000E+009;1.584581732749939E-001;4.515321180224419E-002;-1.401386223733425E-003;5.472315824590623E-004;
2.401666666666667E+009;1.586460769176483E-001;4.339480772614479E-002;-1.551698311232030E-003;8.135896059684455E-004;
2.401833333333334E+009;1.590841412544251E-001;4.123698920011520E-002;-1.254106988199055E-003;7.194418576546013E-004;
2.402000000000000E+009;1.592684686183929E-001;3.910654410719872E-002;-1.207680441439152E-003;7.475065649487078E-004;
2.402166666666667E+009;1.600504964590073E-001;3.707493841648102E-002;-1.148307230323553E-003;8.325714152306318E-004;
2.402333333333334E+009;1.605773866176605E-001;3.506090864539146E-002;-1.077318098396063E-003;8.253048872575164E-004;
2.402500000000000E+009;1.613772809505463E-001;3.319523110985756E-002;-8.329710690304637E-004;8.321067434735596E-004;
2.402666666666667E+009;1.619977802038193E-001;3.150804713368416E-002;-8.683510241098702E-004;9.065378108061850E-004;
2.402833333333334E+009;1.628474444150925E-001;2.976294234395027E-002;-4.627918242476881E-004;8.551640785299242E-004;
2.403000000000000E+009;1.636049300432205E-001;2.788309194147587E-002;-6.097810692153871E-004;8.642926113680005E-004;
2.403166666666667E+009;1.643817722797394E-001;2.639956399798393E-002;-4.776201094500721E-004;8.228089427575469E-004;
2.403333333333334E+009;1.654211729764938E-001;2.477977983653545E-002;-4.465011006686837E-004;7.772100507281721E-004;
2.403500000000000E+009;1.662331968545914E-001;2.340218611061573E-002;-1.743451430229470E-004;6.273291073739529E-004;
2.403666666666667E+009;1.671976298093796E-001;2.192901819944382E-002;-1.992181787500158E-004;7.209015311673284E-004;
2.403833333333334E+009;1.683701276779175E-001;2.059425041079521E-002;-1.617498855921440E-005;5.868471344001591E-004;
2.404000000000000E+009;1.692571043968201E-001;1.940741203725338E-002;9.348584717372432E-005;5.298044416122139E-004;
2.404166666666667E+009;1.701808869838715E-001;1.809371821582317E-002;1.740908628562465E-004;4.865587980020791E-004;
2.404333333333334E+009;1.710863709449768E-001;1.714163273572922E-002;4.449721600394696E-004;4.674958472605795E-004;
2.404500000000000E+009;1.720125377178192E-001;1.609935984015465E-002;2.479226386640221E-004;2.781780494842678E-004;
2.404666666666667E+009;1.730867922306061E-001;1.530157495290041E-002;3.276297065895051E-004;1.532499154563993E-004;
2.404833333333334E+009;1.740607023239136E-001;1.444562245160341E-002;3.766308655031025E-004;5.460445208882447E-006;
2.405000000000000E+009;1.749157309532166E-001;1.360843423753977E-002;1.868697436293587E-004;8.981334758573212E-006;
2.405166666666667E+009;1.758098453283310E-001;1.306380424648523E-002;3.960581962019205E-004;-2.247577212983742E-004;
2.405333333333334E+009;1.767984330654144E-001;1.238178089261055E-002;3.145531518384814E-004;-3.066522185690701E-004;
2.405500000000000E+009;1.772850602865219E-001;1.188868284225464E-002;2.956014941446483E-004;-3.601145290303975E-004;
2.405666666666667E+009;1.780228316783905E-001;1.149393711239100E-002;1.165064313681796E-004;-3.964946081396192E-004;
2.405833333333334E+009;1.785839796066284E-001;1.121919695287943E-002;1.996075734496117E-004;-6.049055373296142E-004;
2.406000000000000E+009;1.792487949132919E-001;1.071522943675518E-002;2.045942237600684E-004;-7.858828175812960E-004;
2.406166666666667E+009;1.796684414148331E-001;1.059028692543507E-002;6.853403465356678E-005;-7.817199220880866E-004;
2.406333333333334E+009;1.801674216985703E-001;1.028166245669127E-002;1.036274334182963E-004;-8.132732473313808E-004;
2.406500000000000E+009;1.804811209440231E-001;9.922728873789311E-003;-3.691000529215671E-005;-7.146805291995406E-004;
2.406666666666667E+009;1.805891543626785E-001;9.662074036896229E-003;-1.434752775821835E-004;-9.669903083704412E-004;
2.406833333333334E+009;1.808046251535416E-001;9.293912909924984E-003;-2.144458558177576E-004;-9.114693966694176E-004;
2.407000000000000E+009;1.809547394514084E-001;9.082311764359474E-003;-2.622225729282945E-004;-9.972144616767764E-004;
2.407166666666667E+009;1.811621040105820E-001;8.920243009924889E-003;-2.836534695234150E-004;-9.777124505490065E-004;
2.407333333333334E+009;1.808180660009384E-001;8.307614363729954E-003;-3.255903138779104E-004;-9.008235065266490E-004;
2.407500000000000E+009;1.807647049427033E-001;8.144184015691280E-003;-5.034504574723542E-004;-9.456804837100208E-004;
2.407666666666667E+009;1.805842518806458E-001;7.707014214247465E-003;-6.807230529375374E-004;-9.400063427165151E-004;
2.407833333333334E+009;1.801106333732605E-001;7.112132385373116E-003;-6.983055500313640E-004;-1.007229671813548E-003;
2.408000000000000E+009;1.797710359096527E-001;6.629651878029108E-003;-6.081444444134831E-004;-1.120319822803140E-003;
2.408166666666667E+009;1.794167608022690E-001;6.172633729875088E-003;-6.874258979223669E-004;-1.002060715109110E-003;
2.408333333333334E+009;1.788333505392075E-001;5.344187840819359E-003;-9.166199015453458E-004;-1.027852063998580E-003;
2.408500000000000E+009;1.782271564006805E-001;4.536955151706934E-003;-8.226164500229061E-004;-1.042465562932193E-003;
2.408666666666667E+009;1.776613146066666E-001;3.668199526146054E-003;-8.519154507666826E-004;-1.170331961475313E-003;
2.408833333333334E+009;1.770177334547043E-001;2.852498786523938E-003;-1.052792766131461E-003;-8.773083682172000E-004;
2.409000000000000E+009;1.763391792774200E-001;1.778457313776016E-003;-1.000089803710580E-003;-1.053925370797515E-003;
2.409166666666667E+009;1.755829453468323E-001;8.390874136239290E-004;-1.223503495566547E-003;-1.006752252578735E-003;
2.409333333333334E+009;1.750239431858063E-001;-2.579125866759569E-004;-1.112071680836380E-003;-9.309148299507797E-004;
2.409500000000000E+009;1.742839813232422E-001;-1.822421443648636E-003;-1.272307476028800E-003;-1.110836048610508E-003;
2.409666666666667E+009;1.735215187072754E-001;-3.131838282570243E-003;-1.293702982366085E-003;-1.068335375748575E-003;
2.409833333333334E+009;1.727548092603684E-001;-4.371967166662216E-003;-1.325916731730104E-003;-1.155635225586593E-003;
2.410000000000000E+009;1.722165644168854E-001;-5.935442633926868E-003;-1.492480514571071E-003;-1.141205895692110E-003;
2.410166666666667E+009;1.713486015796661E-001;-7.470398675650358E-003;-1.459526130929589E-003;-1.051347120665014E-003;
2.410333333333334E+009;1.708034276962280E-001;-9.063388220965862E-003;-1.551382476463914E-003;-1.058348920196295E-003;
2.410500000000000E+009;1.701689213514328E-001;-1.073829457163811E-002;-1.538854208774865E-003;-1.002429169602692E-003;
2.410666666666667E+009;1.695925742387772E-001;-1.260119583457708E-002;-1.651893137022853E-003;-9.205815731547773E-004;
2.410833333333334E+009;1.693859696388245E-001;-1.420213375240564E-002;-1.716616097837687E-003;-9.018297423608601E-004;
2.411000000000000E+009;1.688820570707321E-001;-1.629097573459148E-002;-1.992752077057958E-003;-8.787958649918437E-004;
2.411166666666667E+009;1.685344129800797E-001;-1.827493682503700E-002;-2.094632945954800E-003;-9.498113067820668E-004;
2.411333333333334E+009;1.682825982570648E-001;-1.993189752101898E-002;-2.171567874029279E-003;-8.765834500081837E-004;
2.411500000000000E+009;1.679814755916596E-001;-2.207690291106701E-002;-2.321702195331454E-003;-8.559774141758680E-004;
2.411666666666667E+009;1.680680364370346E-001;-2.400131709873676E-002;-2.364126034080982E-003;-6.915503763593733E-004;
2.411833333333334E+009;1.678380221128464E-001;-2.591420151293278E-002;-2.442440716549754E-003;-6.447407067753375E-004;
2.412000000000000E+009;1.679176390171051E-001;-2.786638401448727E-002;-2.444246085360646E-003;-5.749762058258057E-004;
2.412166666666667E+009;1.679676026105881E-001;-3.017388656735420E-002;-2.708621555939317E-003;-6.829535122960806E-004;
2.412333333333334E+009;1.683716326951981E-001;-3.174071758985519E-002;-2.805213676765561E-003;-2.335017343284562E-004;
2.412500000000000E+009;1.684176474809647E-001;-3.390935435891151E-002;-2.840755507349968E-003;-2.867543662432581E-004;
2.412666666666667E+009;1.687036603689194E-001;-3.575794026255608E-002;-2.961651654914022E-003;-1.995842903852463E-004;
2.412833333333334E+009;1.691248565912247E-001;-3.773444145917893E-002;-2.989335451275110E-003;-1.189535541925579E-004;
2.413000000000000E+009;1.693998426198959E-001;-3.960947319865227E-002;-3.208781825378537E-003;1.782889448804781E-004;
2.413166666666667E+009;1.699785292148590E-001;-4.134017601609230E-002;-3.158693667501211E-003;3.864633617922664E-004;
2.413333333333334E+009;1.702440679073334E-001;-4.316857084631920E-002;-3.103298833593726E-003;5.456104408949614E-004;
2.413500000000000E+009;1.709320545196533E-001;-4.478418827056885E-002;-3.147511975839734E-003;6.259389920160174E-004;
2.413666666666667E+009;1.714202761650085E-001;-4.642580077052116E-002;-3.339043352752924E-003;8.138296543620527E-004;
2.413833333333334E+009;1.719207018613815E-001;-4.780662059783936E-002;-3.183136694133282E-003;9.208269184455276E-004;
2.414000000000000E+009;1.725326627492905E-001;-4.929149895906448E-002;-3.250846173614264E-003;1.136535312980413E-003;
2.414166666666667E+009;1.730740815401077E-001;-5.060698464512825E-002;-3.251262241974473E-003;1.428368152119219E-003;
2.414333333333334E+009;1.737115979194641E-001;-5.204467847943306E-002;-3.179624676704407E-003;1.546193961985409E-003;
2.414500000000000E+009;1.744075864553452E-001;-5.318355932831764E-002;-3.280891105532646E-003;1.797117525711656E-003;
2.414666666666667E+009;1.748313903808594E-001;-5.418187379837036E-002;-3.285248531028628E-003;1.995560945942998E-003;
2.414833333333334E+009;1.753179132938385E-001;-5.515439435839653E-002;-3.233244409784675E-003;1.936846412718296E-003;
2.415000000000000E+009;1.757297366857529E-001;-5.583690851926804E-002;-2.940973732620478E-003;2.343528438359499E-003;
2.415166666666667E+009;1.761445403099060E-001;-5.690357834100723E-002;-3.044844605028629E-003;2.441865624859929E-003;
2.415333333333334E+009;1.765821576118469E-001;-5.769373103976250E-002;-2.959045348688960E-003;2.588761737570167E-003;
2.415500000000000E+009;1.769288778305054E-001;-5.822809785604477E-002;-2.841059584170580E-003;2.788609359413385E-003;
2.415666666666667E+009;1.772494614124298E-001;-5.862608551979065E-002;-2.807870507240295E-003;2.849442884325981E-003;
2.415833333333334E+009;1.775416582822800E-001;-5.922218039631844E-002;-2.720219083130360E-003;3.195733996108174E-003;
2.416000000000000E+009;1.776066571474075E-001;-5.954711139202118E-002;-2.457513241097331E-003;3.403845941647887E-003;
2.416166666666667E+009;1.778863370418549E-001;-6.000091508030891E-002;-2.322217682376504E-003;3.507939167320728E-003;
2.416333333333334E+009;1.779014915227890E-001;-6.022077798843384E-002;-2.105286810547113E-003;3.638811875134707E-003;
2.416500000000000E+009;1.777154058218002E-001;-6.063668429851532E-002;-1.849600579589605E-003;3.516283817589283E-003;
2.416666666666667E+009;1.774267554283142E-001;-6.076967716217041E-002;-1.679625944234431E-003;3.770722541958094E-003;
2.416833333333334E+009;1.774342209100723E-001;-6.113531067967415E-002;-1.609406666830182E-003;4.105024971067905E-003;
2.417000000000000E+009;1.768690794706345E-001;-6.134749576449394E-002;-1.501717371866107E-003;4.010663833469153E-003;
2.417166666666667E+009;1.764362305402756E-001;-6.135310232639313E-002;-1.162613742053509E-003;4.000121261924505E-003;
2.417333333333334E+009;1.760278493165970E-001;-6.158590689301491E-002;-9.608100517652929E-004;4.218203015625477E-003;
2.417500000000000E+009;1.753203868865967E-001;-6.197728589177132E-002;-7.126049604266882E-004;4.230886232107878E-003;
2.417666666666667E+009;1.746967583894730E-001;-6.193421781063080E-002;-7.238977705128491E-004;4.298641346395016E-003;
2.417833333333334E+009;1.739481240510941E-001;-6.221076473593712E-002;-4.173529450781643E-004;4.240866750478745E-003;
2.418000000000000E+009;1.731285452842712E-001;-6.265166401863098E-002;-3.210065478924662E-004;4.388561006635428E-003;
2.418166666666667E+009;1.721257865428925E-001;-6.277229636907578E-002;5.481133848661557E-005;4.194922279566526E-003;
2.418333333333334E+009;1.713977605104446E-001;-6.321647018194199E-002;2.220560272689909E-004;4.375407006591559E-003;
2.418500000000000E+009;1.701359003782272E-001;-6.352128088474274E-002;3.160686756018549E-004;4.324632696807385E-003;
2.418666666666667E+009;1.691758334636688E-001;-6.404200941324234E-002;5.534318624995649E-004;4.306030925363302E-003;
2.418833333333334E+009;1.678665727376938E-001;-6.450471282005310E-002;6.639947532676160E-004;4.234070889651775E-003;
2.419000000000000E+009;1.666250824928284E-001;-6.500248610973358E-002;1.007594168186188E-003;4.191921558231115E-003;
2.419166666666667E+009;1.655689775943756E-001;-6.585732847452164E-002;1.151137868873775E-003;4.149261396378279E-003;
2.419333333333334E+009;1.642149239778519E-001;-6.636226922273636E-002;1.360549940727651E-003;3.961561247706413E-003;
2.419500000000000E+009;1.630000174045563E-001;-6.740614026784897E-002;1.540015917271376E-003;4.001973196864128E-003;
2.419666666666667E+009;1.619226038455963E-001;-6.821332126855850E-002;1.710814074613154E-003;3.892715321853757E-003;
2.419833333333334E+009;1.606763750314713E-001;-6.907336413860321E-002;1.827839645557106E-003;3.832004964351654E-003;
2.420000000000000E+009;1.594830602407455E-001;-7.012832909822464E-002;2.052423544228077E-003;3.870653454214335E-003;
2.420166666666667E+009;1.583933383226395E-001;-7.117766886949539E-002;2.091288100928068E-003;3.509811591356993E-003;
2.420333333333334E+009;1.573352366685867E-001;-7.242206484079361E-002;2.372199203819037E-003;3.470675321295857E-003;
2.420500000000000E+009;1.560788005590439E-001;-7.365174591541290E-002;2.549500903114677E-003;3.355872584506869E-003;
2.420666666666667E+009;1.552164107561112E-001;-7.494457811117172E-002;2.465090947225690E-003;3.220084821805358E-003;
2.420833333333334E+009;1.542780995368958E-001;-7.641427963972092E-002;2.731023356318474E-003;3.171907272189856E-003;
2.421000000000000E+009;1.531462520360947E-001;-7.782635092735291E-002;2.863533329218626E-003;2.979212906211615E-003;
2.421166666666667E+009;1.526181250810623E-001;-7.922058552503586E-002;2.935876604169607E-003;2.826456213369966E-003;
2.421333333333334E+009;1.518705934286118E-001;-8.090222626924515E-002;3.098477609455586E-003;2.682744292542338E-003;
2.421500000000000E+009;1.511566936969757E-001;-8.246139436960220E-002;3.117906628176570E-003;2.456375630572438E-003;
2.421666666666667E+009;1.506030559539795E-001;-8.415071666240692E-002;3.226150060072541E-003;2.372728195041418E-003;
2.421833333333334E+009;1.502047926187515E-001;-8.567624539136887E-002;3.081793431192637E-003;2.268764888867736E-003;
2.422000000000000E+009;1.495826989412308E-001;-8.754500001668930E-002;3.444725414738059E-003;2.072990406304598E-003;
2.422166666666667E+009;1.493721306324005E-001;-8.948565274477005E-002;3.315054345875979E-003;1.936846296302974E-003;
2.422333333333334E+009;1.493597030639648E-001;-9.106507152318955E-002;3.424981376156211E-003;1.673799008131027E-003;
2.422500000000000E+009;1.490942984819412E-001;-9.265680611133575E-002;3.392553655430675E-003;1.737619750201702E-003;
2.422666666666667E+009;1.490110605955124E-001;-9.445246309041977E-002;3.356060246005654E-003;1.497542834840715E-003;
2.422833333333334E+009;1.489628851413727E-001;-9.613743424415588E-002;3.345940960571170E-003;1.282329671084881E-003;
2.423000000000000E+009;1.492462158203125E-001;-9.790661185979843E-002;3.358699847012758E-003;1.094384118914604E-003;
2.423166666666667E+009;1.493439376354218E-001;-9.951595216989517E-002;3.351999912410975E-003;9.879113640636206E-004;
2.423333333333334E+009;1.496487855911255E-001;-1.009413152933121E-001;3.465509274974465E-003;8.821268565952778E-004;
2.423500000000000E+009;1.499059498310089E-001;-1.026677414774895E-001;3.318317467346788E-003;6.357936654239893E-004;
2.423666666666667E+009;1.500654071569443E-001;-1.041123420000076E-001;3.372856648638845E-003;5.575903342105448E-004;
2.423833333333334E+009;1.507131904363632E-001;-1.056183129549027E-001;3.275960218161345E-003;4.966454580426216E-004;
2.424000000000000E+009;1.510085761547089E-001;-1.068185567855835E-001;3.358687041327357E-003;3.111654659733176E-004;
2.424166666666667E+009;1.515408754348755E-001;-1.082824990153313E-001;3.350066253915429E-003;1.850800617830828E-004;
2.424333333333334E+009;1.519455462694168E-001;-1.094436571002007E-001;3.191097173839808E-003;1.360991009278223E-004;
2.424500000000000E+009;1.525283902883530E-001;-1.106233373284340E-001;3.260728204622865E-003;-1.117854262702167E-004;
2.424666666666667E+009;1.531232595443726E-001;-1.115756109356880E-001;3.109531244263053E-003;-1.706593902781606E-004;
2.424833333333334E+009;1.535147279500961E-001;-1.125359311699867E-001;3.082018578425050E-003;-1.318689028266817E-004;
2.425000000000000E+009;1.540783047676086E-001;-1.135680153965950E-001;3.113406244665384E-003;-1.779552985681221E-004;
2.425166666666667E+009;1.543596982955933E-001;-1.143730282783508E-001;3.128557698801160E-003;-3.051489475183189E-004;
2.425333333333334E+009;1.547404527664185E-001;-1.151142641901970E-001;3.017175011336803E-003;-4.852340207435191E-004;
2.425500000000000E+009;1.553287208080292E-001;-1.159402132034302E-001;2.912058960646391E-003;-4.238662368152291E-004;
2.425666666666667E+009;1.554892063140869E-001;-1.165106743574143E-001;3.065808676183224E-003;-6.616958999074996E-004;
2.425833333333334E+009;1.558593660593033E-001;-1.170179024338722E-001;2.838724059984088E-003;-6.213798187673092E-004;
2.426000000000000E+009;1.560142189264298E-001;-1.174892187118530E-001;2.897718688473105E-003;-7.890781853348017E-004;
2.426166666666667E+009;1.563627123832703E-001;-1.178852617740631E-001;2.784605836495757E-003;-7.763527682982385E-004;
2.426333333333334E+009;1.562998145818710E-001;-1.181766912341118E-001;2.771195257082582E-003;-7.161006797105074E-004;
2.426500000000000E+009;1.563640385866165E-001;-1.184283271431923E-001;2.722407458350062E-003;-9.416074608452618E-004;
2.426666666666667E+009;1.564478427171707E-001;-1.184454560279846E-001;2.635118551552296E-003;-9.036870324052870E-004;
2.426833333333334E+009;1.562454551458359E-001;-1.186853349208832E-001;2.550595905631781E-003;-1.006579026579857E-003;
2.427000000000000E+009;1.559578925371170E-001;-1.189991384744644E-001;2.617539605125785E-003;-1.099279383197427E-003;
2.427166666666667E+009;1.555615514516830E-001;-1.189213469624519E-001;2.463581971824169E-003;-1.202258979901671E-003;
2.427333333333334E+009;1.550854146480560E-001;-1.189324185252190E-001;2.442436292767525E-003;-1.212690840475261E-003;
2.427500000000000E+009;1.546505838632584E-001;-1.191265285015106E-001;2.416466595605016E-003;-1.074109342880547E-003;
2.427666666666667E+009;1.539724171161652E-001;-1.191154867410660E-001;2.496800152584910E-003;-1.224587205797434E-003;
