# Version 1.00
#
freq[Hz];re:Trc1_S11;im:Trc1_S11;re:Trc2_S21;im:Trc2_S21;
2.400000000000000E+009;1.582315713167191E-001;6.310671567916870E-002;-2.006756374612451E-003;8.616103150416166E-005;
2.400166666666667E+009;1.581658869981766E-001;6.155973672866821E-002;-1.894903834909201E-003;2.071310882456601E-004;
2.400333333333334E+009;1.579602956771851E-001;5.953589454293251E-002;-2.011536154896021E-003;1.884473895188421E-004;
2.400500000000000E+009;1.580403149127960E-001;5.766882747411728E-002;-1.812492613680661E-003;3.508720255922526E-004;
2.400666666666667E+009;1.578232645988464E-001;5.563375726342201E-002;-1.842695986852050E-003;2.845220442395657E-004;
2.400833333333334E+009;1.579617857933044E-001;5.368695035576820E-002;-1.707431860268116E-003;4.109579022042453E-004;
2.401000000000000E+009;1.578440219163895E-001;5.163182690739632E-002;-1.651666127145290E-003;5.342835211195052E-004;
2.401166666666667E+009;1.581504940986633E-001;4.947938770055771E-002;-1.669064629822969E-003;6.971703842282295E-004;
2.401333333333334E+009;1.583001464605331E-001;4.741035774350166E-002;-1.421433291397989E-003;7.961494266055524E-004;
2.401500000000000E+009;1.586586385965347E-001;4.519273340702057E-002;-1.249529304914177E-003;7.939178613014519E-004;
2.401666666666667E+009;1.588447690010071E-001;4.325257614254952E-002;-1.102218404412270E-003;7.740745204500854E-004;
2.401833333333334E+009;1.592780798673630E-001;4.092991724610329E-002;-1.077797147445381E-003;1.018929877318442E-003;
2.402000000000000E+009;1.595223844051361E-001;3.897416591644287E-002;-9.908119682222605E-004;8.790817810222507E-004;
2.402166666666667E+009;1.601102352142334E-001;3.679008036851883E-002;-9.645565296523273E-004;9.960185270756483E-004;
2.402333333333334E+009;1.605931967496872E-001;3.502831980586052E-002;-7.023917860351503E-004;8.380680810660124E-004;
2.402500000000000E+009;1.613794118165970E-001;3.314480930566788E-002;-6.371894851326942E-004;8.321640780195594E-004;
2.402666666666667E+009;1.621290743350983E-001;3.123115561902523E-002;-6.432181689888239E-004;7.955358014442027E-004;
2.402833333333334E+009;1.627928912639618E-001;2.951841056346893E-002;-4.438989562913775E-004;8.452580659650266E-004;
2.403000000000000E+009;1.635459959506989E-001;2.789741568267345E-002;-2.515815431252122E-004;8.453195332549512E-004;
2.403166666666667E+009;1.644002944231033E-001;2.618237957358360E-002;-8.516068191966042E-005;7.357134600169957E-004;
2.403333333333334E+009;1.653234362602234E-001;2.470215223729610E-002;1.766744389897212E-005;7.349452353082597E-004;
2.403500000000000E+009;1.661978662014008E-001;2.325074933469296E-002;2.632779942359775E-004;5.290373228490353E-004;
2.403666666666667E+009;1.672453284263611E-001;2.175521478056908E-002;1.194022916024551E-004;5.249805399216712E-004;
2.403833333333334E+009;1.681663393974304E-001;2.045280113816261E-002;2.462768752593547E-004;4.956618649885058E-004;
2.404000000000000E+009;1.692229956388474E-001;1.929580606520176E-002;2.672387054190040E-004;4.749280633404851E-004;
2.404166666666667E+009;1.702716052532196E-001;1.799866557121277E-002;2.295766025781632E-004;3.010415821336210E-004;
2.404333333333334E+009;1.713244616985321E-001;1.710190996527672E-002;3.848130290862173E-004;1.444252266082913E-004;
2.404500000000000E+009;1.720720827579498E-001;1.603174768388271E-002;4.735706315841526E-004;5.198462531552650E-005;
2.404666666666667E+009;1.731043010950089E-001;1.513309497386217E-002;5.147385527379811E-004;-2.291592245455831E-004;
2.404833333333334E+009;1.740687787532806E-001;1.444673817604780E-002;5.278011085465550E-004;-1.385113137075678E-005;
2.405000000000000E+009;1.750582754611969E-001;1.372066326439381E-002;2.004069101531059E-004;-1.234917144756764E-004;
2.405166666666667E+009;1.760244518518448E-001;1.313111651688814E-002;5.952069186605513E-004;-4.898608895018697E-004;
2.405333333333334E+009;1.767834573984146E-001;1.222282927483320E-002;4.419418401084840E-004;-5.723236827179790E-004;
2.405500000000000E+009;1.773431599140167E-001;1.184243336319923E-002;4.499302594922483E-004;-6.023884634487331E-004;
2.405666666666667E+009;1.782451719045639E-001;1.156466361135244E-002;5.137465195730329E-004;-8.582990267314017E-004;
2.405833333333334E+009;1.786249727010727E-001;1.126538123935461E-002;2.450153988320380E-004;-8.396859047934413E-004;
2.406000000000000E+009;1.792414635419846E-001;1.064837910234928E-002;1.492925221100450E-004;-1.108218566514552E-003;
2.406166666666667E+009;1.796733438968658E-001;1.050846930593252E-002;1.963109971256927E-004;-9.476651903241873E-004;
2.406333333333334E+009;1.802515834569931E-001;1.021665241569281E-002;1.092378661269322E-004;-1.043366733938456E-003;
2.406500000000000E+009;1.805379837751389E-001;9.920075535774231E-003;-9.034305548993871E-005;-1.186510547995567E-003;
2.406666666666667E+009;1.806346029043198E-001;9.684318676590920E-003;-1.878797047538683E-004;-1.209850423038006E-003;
2.406833333333334E+009;1.809707432985306E-001;9.299948811531067E-003;-1.730137009872124E-004;-1.229483052156866E-003;
2.407000000000000E+009;1.809684038162231E-001;8.932992815971375E-003;-3.381745482329279E-004;-1.147084753029048E-003;
2.407166666666667E+009;1.811482608318329E-001;8.753255940973759E-003;-4.261937574483454E-004;-1.249961089342833E-003;
2.407333333333334E+009;1.808698326349258E-001;8.290588855743408E-003;-3.140779153909534E-004;-1.390751684084535E-003;
2.407500000000000E+009;1.807994842529297E-001;8.070450276136398E-003;-6.737091462127864E-004;-1.373789506033063E-003;
2.407666666666667E+009;1.806099265813828E-001;7.711475249379873E-003;-5.145054310560226E-004;-1.331244828179479E-003;
2.407833333333334E+009;1.802122741937637E-001;7.161938585340977E-003;-6.764502613805234E-004;-1.277016592212021E-003;
2.408000000000000E+009;1.798694133758545E-001;6.483795121312141E-003;-8.440172532573342E-004;-1.274442998692393E-003;
2.408166666666667E+009;1.793616712093353E-001;6.001083180308342E-003;-9.201756329275668E-004;-1.430629752576351E-003;
2.408333333333334E+009;1.791015416383743E-001;5.406055133789778E-003;-9.537229198031128E-004;-1.137954764999449E-003;
2.408500000000000E+009;1.784153580665588E-001;4.429122433066368E-003;-1.062363153323531E-003;-1.296287169679999E-003;
2.408666666666667E+009;1.777790486812592E-001;3.719598986208439E-003;-1.213886891491711E-003;-1.252137823030353E-003;
2.408833333333334E+009;1.769868433475494E-001;2.816069871187210E-003;-1.111509278416634E-003;-1.373359002172947E-003;
2.409000000000000E+009;1.763497591018677E-001;1.816623029299080E-003;-1.111933845095336E-003;-1.296979142352939E-003;
2.409166666666667E+009;1.756682097911835E-001;6.621664506383240E-004;-1.246806932613254E-003;-1.064770389348269E-003;
2.409333333333334E+009;1.750639826059341E-001;-4.631119954865426E-004;-1.293560024350882E-003;-1.226118765771389E-003;
2.409500000000000E+009;1.743979454040527E-001;-1.798510435037315E-003;-1.382244401611388E-003;-1.209507347084582E-003;
2.409666666666667E+009;1.734484136104584E-001;-3.050408558920026E-003;-1.470872550271452E-003;-1.112103462219238E-003;
2.409833333333334E+009;1.728151440620422E-001;-4.380589816719294E-003;-1.611905405297875E-003;-1.158423023298383E-003;
2.410000000000000E+009;1.720587462186813E-001;-5.952116567641497E-003;-1.626398763619363E-003;-1.159334089607000E-003;
2.410166666666667E+009;1.714661717414856E-001;-7.463770918548107E-003;-1.671696081757546E-003;-1.154258730821312E-003;
2.410333333333334E+009;1.708729118108749E-001;-9.125774726271629E-003;-1.807856257073581E-003;-1.204696134664118E-003;
2.410500000000000E+009;1.703331023454666E-001;-1.073279045522213E-002;-1.829912653192878E-003;-1.110608223825693E-003;
2.410666666666667E+009;1.696686893701553E-001;-1.263537257909775E-002;-1.949122524820268E-003;-9.739180095493794E-004;
2.410833333333334E+009;1.693661659955978E-001;-1.427435968071222E-002;-1.960484310984612E-003;-8.957381942309439E-004;
2.411000000000000E+009;1.686561107635498E-001;-1.613941974937916E-002;-2.106724539771676E-003;-9.050422813743353E-004;
2.411166666666667E+009;1.685174852609634E-001;-1.821370050311089E-002;-2.384827006608248E-003;-9.564544307067990E-004;
2.411333333333334E+009;1.681164354085922E-001;-1.996978558599949E-002;-2.157132141292095E-003;-9.428435005247593E-004;
2.411500000000000E+009;1.678713560104370E-001;-2.200431190431118E-002;-2.455222886055708E-003;-7.036022725515068E-004;
2.411666666666667E+009;1.679348796606064E-001;-2.398055233061314E-002;-2.497112844139338E-003;-6.770506734028459E-004;
2.411833333333334E+009;1.677573025226593E-001;-2.588162012398243E-002;-2.642860403284431E-003;-7.215708610601723E-004;
2.412000000000000E+009;1.679995805025101E-001;-2.794571965932846E-002;-2.689734101295471E-003;-5.577378324232996E-004;
2.412166666666667E+009;1.677896827459335E-001;-2.992636151611805E-002;-2.824960974976420E-003;-4.278323031030595E-004;
2.412333333333334E+009;1.682205200195313E-001;-3.190275654196739E-002;-2.752993721514940E-003;-3.119831089861691E-004;
2.412500000000000E+009;1.683737039566040E-001;-3.379624709486961E-002;-2.945260610431433E-003;-3.691820602398366E-004;
2.412666666666667E+009;1.685753315687180E-001;-3.583123534917831E-002;-3.037533257156611E-003;-1.470072602387518E-004;
2.412833333333334E+009;1.691337823867798E-001;-3.775991871953011E-002;-3.063505049794912E-003;-1.329964106844273E-005;
2.413000000000000E+009;1.695342808961868E-001;-3.953113779425621E-002;-3.215499222278595E-003;1.170372706837952E-004;
2.413166666666667E+009;1.698401719331741E-001;-4.122289270162582E-002;-3.132548881694675E-003;3.071161045227200E-004;
2.413333333333334E+009;1.702556610107422E-001;-4.312322661280632E-002;-3.232841379940510E-003;4.892914439551532E-004;
2.413500000000000E+009;1.709847599267960E-001;-4.476464912295342E-002;-3.341331845149398E-003;4.521782393567264E-004;
2.413666666666667E+009;1.714754551649094E-001;-4.643593356013298E-002;-3.339408431202173E-003;7.118578068912029E-004;
2.413833333333334E+009;1.718830466270447E-001;-4.781126976013184E-002;-3.343017539009452E-003;9.863203158602119E-004;
2.414000000000000E+009;1.723465621471405E-001;-4.939429834485054E-002;-3.415196202695370E-003;1.024059136398137E-003;
2.414166666666667E+009;1.730434149503708E-001;-5.070711299777031E-002;-3.426084294915199E-003;1.286908169277012E-003;
2.414333333333334E+009;1.736395359039307E-001;-5.201768875122070E-002;-3.317479044198990E-003;1.511275419034064E-003;
2.414500000000000E+009;1.744172722101212E-001;-5.305391177535057E-002;-3.214646829292178E-003;1.792846014723182E-003;
2.414666666666667E+009;1.748182475566864E-001;-5.414605885744095E-002;-3.213532269001007E-003;2.013349439948797E-003;
2.414833333333334E+009;1.752203255891800E-001;-5.508520081639290E-002;-3.222278086468577E-003;2.117149066179991E-003;
2.415000000000000E+009;1.757253259420395E-001;-5.605671927332878E-002;-3.150397446006537E-003;2.204369753599167E-003;
2.415166666666667E+009;1.761678904294968E-001;-5.681658163666725E-002;-3.012878587469459E-003;2.366736996918917E-003;
2.415333333333334E+009;1.765852123498917E-001;-5.765441432595253E-002;-2.937668468803167E-003;2.578590763732791E-003;
2.415500000000000E+009;1.769456267356873E-001;-5.813346803188324E-002;-2.965237945318222E-003;2.874330850318074E-003;
2.415666666666667E+009;1.773174405097961E-001;-5.877002328634262E-002;-2.775188768282533E-003;2.814041217789054E-003;
2.415833333333334E+009;1.775156557559967E-001;-5.932378023862839E-002;-2.732981927692890E-003;3.200614359229803E-003;
2.416000000000000E+009;1.776502579450607E-001;-5.975090339779854E-002;-2.447389764711261E-003;3.347123274579644E-003;
2.416166666666667E+009;1.779178529977799E-001;-6.007087230682373E-002;-2.274648984894157E-003;3.423720132559538E-003;
2.416333333333334E+009;1.777406930923462E-001;-6.031690537929535E-002;-2.356632379814982E-003;3.491860348731279E-003;
2.416500000000000E+009;1.776009202003479E-001;-6.075929850339890E-002;-2.037776634097099E-003;3.706154646351934E-003;
2.416666666666667E+009;1.774122565984726E-001;-6.086531281471252E-002;-1.829530694521964E-003;3.840480931103230E-003;
2.416833333333334E+009;1.773346215486527E-001;-6.127120181918144E-002;-1.617056434042752E-003;3.861793316900730E-003;
2.417000000000000E+009;1.768033951520920E-001;-6.136757880449295E-002;-1.533993985503912E-003;4.027806222438812E-003;
2.417166666666667E+009;1.763837337493897E-001;-6.142604723572731E-002;-1.258509699255228E-003;4.094952717423439E-003;
2.417333333333334E+009;1.759316921234131E-001;-6.171261891722679E-002;-1.214334974065423E-003;4.138892516493797E-003;
2.417500000000000E+009;1.753001064062119E-001;-6.191819161176682E-002;-8.749118424020708E-004;4.192849155515432E-003;
2.417666666666667E+009;1.747986674308777E-001;-6.187671795487404E-002;-7.444405346177518E-004;4.282054491341114E-003;
2.417833333333334E+009;1.739353686571121E-001;-6.224681809544563E-002;-4.704046586994082E-004;4.286650568246841E-003;
2.418000000000000E+009;1.729756742715836E-001;-6.264284998178482E-002;-3.888742066919804E-004;4.305382724851370E-003;
2.418166666666667E+009;1.721010208129883E-001;-6.268210709095001E-002;-1.290643704123795E-004;4.297629464417696E-003;
2.418333333333334E+009;1.714010238647461E-001;-6.318488717079163E-002;9.180806227959693E-005;4.162708297371864E-003;
2.418500000000000E+009;1.700523793697357E-001;-6.347323209047318E-002;2.934586664196104E-004;4.390703048557043E-003;
2.418666666666667E+009;1.691342592239380E-001;-6.394453346729279E-002;5.698800086975098E-004;4.286638461053371E-003;
2.418833333333334E+009;1.679306030273438E-001;-6.448268145322800E-002;6.230904837138951E-004;4.331169649958611E-003;
2.419000000000000E+009;1.666565835475922E-001;-6.505636125802994E-002;9.416863904334605E-004;4.229986574500799E-003;
2.419166666666667E+009;1.656133085489273E-001;-6.563345342874527E-002;9.956498397514224E-004;4.377988167107105E-003;
2.419333333333334E+009;1.642594188451767E-001;-6.626135855913162E-002;1.324847689829767E-003;4.065398126840591E-003;
2.419500000000000E+009;1.631604582071304E-001;-6.704829633235931E-002;1.419931300915778E-003;4.243699833750725E-003;
2.419666666666667E+009;1.621194779872894E-001;-6.824578344821930E-002;1.595020527020097E-003;4.067055881023407E-003;
2.419833333333334E+009;1.605986207723618E-001;-6.895659863948822E-002;1.769042341038585E-003;4.033144097775221E-003;
2.420000000000000E+009;1.597521603107452E-001;-7.002321630716324E-002;1.944690826348960E-003;3.656751709058881E-003;
2.420166666666667E+009;1.584503650665283E-001;-7.099919021129608E-002;2.080561360344291E-003;3.700748085975647E-003;
2.420333333333334E+009;1.573306620121002E-001;-7.233949750661850E-002;2.251745434477925E-003;3.618889022618532E-003;
2.420500000000000E+009;1.564149409532547E-001;-7.341084629297257E-002;2.344179200008512E-003;3.445937065407634E-003;
2.420666666666667E+009;1.552700400352478E-001;-7.468917220830917E-002;2.544674323871732E-003;3.400594694539905E-003;
2.420833333333334E+009;1.544114798307419E-001;-7.617805898189545E-002;2.689667977392674E-003;3.228341462090612E-003;
2.421000000000000E+009;1.534292846918106E-001;-7.783839106559753E-002;2.728605642914772E-003;3.099024062976241E-003;
2.421166666666667E+009;1.525993794202805E-001;-7.926650345325470E-002;2.976311137899756E-003;2.938873600214720E-003;
2.421333333333334E+009;1.521278321743012E-001;-8.093261718750000E-002;3.002547193318605E-003;2.816366730257869E-003;
2.421500000000000E+009;1.512383073568344E-001;-8.223646879196167E-002;3.032349282875657E-003;2.659251680597663E-003;
2.421666666666667E+009;1.508247703313828E-001;-8.405362069606781E-002;3.227395704016089E-003;2.465029014274478E-003;
2.421833333333334E+009;1.504170298576355E-001;-8.575453609228134E-002;3.224165644496679E-003;2.273568185046315E-003;
2.422000000000000E+009;1.498104631900787E-001;-8.738153427839279E-002;3.328876337036490E-003;2.130285138264298E-003;
2.422166666666667E+009;1.495050340890884E-001;-8.930299431085587E-002;3.280803794041276E-003;1.979371765628457E-003;
2.422333333333334E+009;1.494477540254593E-001;-9.107440710067749E-002;3.331899177283049E-003;1.846685074269772E-003;
2.422500000000000E+009;1.492142230272293E-001;-9.263259172439575E-002;3.408583579584956E-003;1.725529669784010E-003;
2.422666666666667E+009;1.490526795387268E-001;-9.433817118406296E-002;3.446832299232483E-003;1.416348153725267E-003;
2.422833333333334E+009;1.491737216711044E-001;-9.613478928804398E-002;3.433133242651820E-003;1.349071506410837E-003;
2.423000000000000E+009;1.491892635822296E-001;-9.798691421747208E-002;3.316371934488416E-003;1.032768748700619E-003;
2.423166666666667E+009;1.495673656463623E-001;-9.957813471555710E-002;3.329093568027020E-003;1.097207190468907E-003;
2.423333333333334E+009;1.497822999954224E-001;-1.010686829686165E-001;3.408782184123993E-003;9.721252135932446E-004;
2.423500000000000E+009;1.499160975217819E-001;-1.026773601770401E-001;3.328544320538640E-003;5.927618476562202E-004;
2.423666666666667E+009;1.500610262155533E-001;-1.042264178395271E-001;3.275578375905752E-003;6.724256672896445E-004;
2.423833333333334E+009;1.509571075439453E-001;-1.057194247841835E-001;3.189653856679797E-003;4.757528076879680E-004;
2.424000000000000E+009;1.511532068252564E-001;-1.070586740970612E-001;3.190138610079885E-003;4.252838261891156E-004;
2.424166666666667E+009;1.515620052814484E-001;-1.084290444850922E-001;3.185585839673877E-003;3.228301065973938E-004;
2.424333333333334E+009;1.519754379987717E-001;-1.094887480139732E-001;3.041873686015606E-003;2.914000360760838E-004;
2.424500000000000E+009;1.527232825756073E-001;-1.106971800327301E-001;3.092237049713731E-003;2.933722280431539E-004;
2.424666666666667E+009;1.532454192638397E-001;-1.117075011134148E-001;3.140744753181934E-003;5.006359060644172E-006;
2.424833333333334E+009;1.535846292972565E-001;-1.125719174742699E-001;2.973150461912155E-003;-5.023284393246286E-005;
2.425000000000000E+009;1.540738344192505E-001;-1.137400716543198E-001;2.961509628221393E-003;-3.923854364984436E-006;
2.425166666666667E+009;1.542660295963287E-001;-1.145586222410202E-001;2.919893478974700E-003;-2.538864500820637E-004;
2.425333333333334E+009;1.549248993396759E-001;-1.152439713478088E-001;2.899190178140998E-003;-1.821002078941092E-004;
2.425500000000000E+009;1.553235501050949E-001;-1.159933060407639E-001;2.872943878173828E-003;-2.748382103163749E-004;
2.425666666666667E+009;1.555511653423309E-001;-1.165658533573151E-001;2.936843549832702E-003;-3.478073922451586E-004;
2.425833333333334E+009;1.558042913675308E-001;-1.170532852411270E-001;2.847815863788128E-003;-3.745446156244725E-004;
2.426000000000000E+009;1.561685204505920E-001;-1.175366416573525E-001;2.689340617507696E-003;-5.090448539704084E-004;
2.426166666666667E+009;1.564066410064697E-001;-1.179579198360443E-001;2.896122401580215E-003;-6.156960735097528E-004;
2.426333333333334E+009;1.564101427793503E-001;-1.183393374085426E-001;2.790059661492705E-003;-5.707161617465317E-004;
2.426500000000000E+009;1.564992368221283E-001;-1.185042336583138E-001;2.731243846938014E-003;-5.500189145095646E-004;
2.426666666666667E+009;1.564692705869675E-001;-1.185299307107925E-001;2.665475010871887E-003;-6.929976516403258E-004;
2.426833333333334E+009;1.563455462455750E-001;-1.188181564211845E-001;2.780917566269636E-003;-7.020576158538461E-004;
2.427000000000000E+009;1.561069935560226E-001;-1.189229339361191E-001;2.630179515108466E-003;-8.459067321382463E-004;
2.427166666666667E+009;1.556747704744339E-001;-1.190274432301521E-001;2.625656314194202E-003;-8.221228490583599E-004;
2.427333333333334E+009;1.551257073879242E-001;-1.191320270299912E-001;2.613801509141922E-003;-9.979134192690253E-004;
2.427500000000000E+009;1.547638773918152E-001;-1.191491261124611E-001;2.631682436913252E-003;-9.925264166668057E-004;
2.427666666666667E+009;1.540187895298004E-001;-1.192372664809227E-001;2.522216411307454E-003;-1.104098511859775E-003;
