# Version 1.00
#
freq[Hz];re:Trc1_S11;im:Trc1_S11;re:Trc2_S21;im:Trc2_S21;
2.400000000000000E+009;1.699038445949554E-001;3.929382935166359E-002;2.201690804213285E-003;4.976935451850295E-004;
2.400166666666667E+009;1.706770807504654E-001;3.867349401116371E-002;2.072380622848868E-003;3.910861851181835E-004;
2.400333333333334E+009;1.714832335710526E-001;3.793438524007797E-002;2.095603151246905E-003;5.027197184972465E-004;
2.400500000000000E+009;1.721669882535934E-001;3.707721829414368E-002;2.064802218228579E-003;4.634744254872203E-004;
2.400666666666667E+009;1.725665628910065E-001;3.648113831877708E-002;2.187815029174089E-003;6.057214923202992E-004;
2.400833333333334E+009;1.731506586074829E-001;3.610790893435478E-002;2.351785777136684E-003;5.855872877873480E-004;
2.401000000000000E+009;1.735178530216217E-001;3.523851186037064E-002;2.435039728879929E-003;5.233609699644148E-004;
2.401166666666667E+009;1.739340722560883E-001;3.455469012260437E-002;2.456578658893704E-003;4.047228139825165E-004;
2.401333333333334E+009;1.743304431438446E-001;3.384549170732498E-002;2.838726853951812E-003;3.934800042770803E-004;
2.401500000000000E+009;1.745965331792831E-001;3.333920240402222E-002;2.760709496214986E-003;2.434360940242186E-004;
2.401666666666667E+009;1.747017800807953E-001;3.274507075548172E-002;3.015564987435937E-003;2.164397010346875E-004;
2.401833333333334E+009;1.748181581497192E-001;3.210474178195000E-002;2.909136703237891E-003;4.083972453372553E-005;
2.402000000000000E+009;1.747337579727173E-001;3.171641379594803E-002;3.207858884707093E-003;-1.610650797374547E-004;
2.402166666666667E+009;1.747606247663498E-001;3.077195957303047E-002;3.200769657269120E-003;-2.383833489147946E-004;
2.402333333333334E+009;1.746677905321121E-001;3.012840636074543E-002;3.176160622388125E-003;-4.406047810334712E-004;
2.402500000000000E+009;1.746824830770493E-001;2.956558018922806E-002;3.054955275729299E-003;-7.107775309123099E-004;
2.402666666666667E+009;1.745740324258804E-001;2.870370075106621E-002;3.138074185699225E-003;-9.757407242432237E-004;
2.402833333333334E+009;1.742929220199585E-001;2.778897807002068E-002;3.114385763183236E-003;-9.524720371700823E-004;
2.403000000000000E+009;1.739257723093033E-001;2.704822085797787E-002;3.090257523581386E-003;-1.201224396936595E-003;
2.403166666666667E+009;1.736815273761749E-001;2.602871134877205E-002;3.081540344282985E-003;-1.301376381888986E-003;
2.403333333333334E+009;1.734711378812790E-001;2.530935965478420E-002;3.111373167484999E-003;-1.409279066137970E-003;
2.403500000000000E+009;1.728031933307648E-001;2.408945560455322E-002;3.019158961251378E-003;-1.701462897472084E-003;
2.403666666666667E+009;1.726368218660355E-001;2.307111211121082E-002;2.871712902560830E-003;-1.805035280995071E-003;
2.403833333333334E+009;1.724370718002319E-001;2.177361026406288E-002;2.779136877506971E-003;-1.818665186874569E-003;
2.404000000000000E+009;1.720817685127258E-001;2.076366730034351E-002;2.712422981858254E-003;-2.039474435150623E-003;
2.404166666666667E+009;1.715663820505142E-001;1.942381635308266E-002;2.603262895718217E-003;-2.106037456542254E-003;
2.404333333333334E+009;1.712776869535446E-001;1.810602098703384E-002;2.533742925152183E-003;-2.245566342025995E-003;
2.404500000000000E+009;1.708556711673737E-001;1.666828617453575E-002;2.377941040322185E-003;-2.273925580084324E-003;
2.404666666666667E+009;1.706122905015945E-001;1.513222232460976E-002;2.224557800218463E-003;-2.625967143103480E-003;
2.404833333333334E+009;1.702440977096558E-001;1.364300027489662E-002;2.191719133406878E-003;-2.698904369026423E-003;
2.405000000000000E+009;1.701097637414932E-001;1.200499664992094E-002;2.024624962359667E-003;-2.631216309964657E-003;
2.405166666666667E+009;1.697989702224731E-001;1.031476259231567E-002;1.906913355924189E-003;-2.797784982249141E-003;
2.405333333333334E+009;1.695454865694046E-001;8.628087118268013E-003;1.738111954182386E-003;-2.860933309420943E-003;
2.405500000000000E+009;1.694125384092331E-001;7.129389327019453E-003;1.468227012082934E-003;-3.187667811289430E-003;
2.405666666666667E+009;1.690471768379211E-001;5.203645676374435E-003;1.318287570029497E-003;-3.190085990354419E-003;
2.405833333333334E+009;1.687943041324616E-001;3.452767618000507E-003;1.342251896858215E-003;-3.168271388858557E-003;
2.406000000000000E+009;1.685326397418976E-001;1.524903811514378E-003;1.199017860926688E-003;-3.187262918800116E-003;
2.406166666666667E+009;1.682603657245636E-001;-2.807120908983052E-004;7.058424525894225E-004;-3.305866383016110E-003;
2.406333333333334E+009;1.681375354528427E-001;-2.035851823166013E-003;5.262828199192882E-004;-3.229937981814146E-003;
2.406500000000000E+009;1.679735630750656E-001;-3.921163734048605E-003;5.057969246990979E-004;-3.037410555407405E-003;
2.406666666666667E+009;1.675117164850235E-001;-5.781770683825016E-003;3.153514117002487E-004;-3.043817123398185E-003;
2.406833333333334E+009;1.675718128681183E-001;-7.667975965887308E-003;7.594342605443671E-005;-2.920193830505014E-003;
2.407000000000000E+009;1.673459708690643E-001;-9.293016977608204E-003;-1.032863110594917E-006;-2.759731374680996E-003;
2.407166666666667E+009;1.673429757356644E-001;-1.084560062736273E-002;-2.286423841724172E-004;-2.705028280615807E-003;
2.407333333333334E+009;1.671969890594482E-001;-1.260310038924217E-002;-1.448719849577174E-004;-2.460961928591132E-003;
2.407500000000000E+009;1.670088768005371E-001;-1.403952576220036E-002;-3.460679145064205E-004;-2.292157383635640E-003;
2.407666666666667E+009;1.669905036687851E-001;-1.551629323512316E-002;-1.116944913519546E-004;-2.197249792516232E-003;
2.407833333333334E+009;1.667926013469696E-001;-1.706274598836899E-002;-3.597192117013037E-004;-2.002388704568148E-003;
2.408000000000000E+009;1.669442057609558E-001;-1.839133352041245E-002;-2.062707790173590E-004;-1.973096048459411E-003;
2.408166666666667E+009;1.671714037656784E-001;-1.947032287716866E-002;-1.444089284632355E-004;-1.909399405121803E-003;
2.408333333333334E+009;1.675318330526352E-001;-2.069354429841042E-002;-2.174155670218170E-004;-1.717800623737276E-003;
2.408500000000000E+009;1.676141619682312E-001;-2.183931879699230E-002;-7.043490040814504E-005;-1.769653288647533E-003;
2.408666666666667E+009;1.678469181060791E-001;-2.274546585977078E-002;-1.414997586834943E-005;-1.782026956789196E-003;
2.408833333333334E+009;1.681605279445648E-001;-2.379566431045532E-002;2.161766751669347E-004;-1.860194955952466E-003;
2.409000000000000E+009;1.685382723808289E-001;-2.463901229202747E-002;2.043213025899604E-004;-1.897326670587063E-003;
2.409166666666667E+009;1.688231825828552E-001;-2.571245841681957E-002;1.607403100933880E-004;-1.995168160647154E-003;
2.409333333333334E+009;1.694201081991196E-001;-2.682900615036488E-002;2.344332897337154E-004;-2.162698190659285E-003;
2.409500000000000E+009;1.697286218404770E-001;-2.757962606847286E-002;2.137189439963549E-004;-2.229785779491067E-003;
2.409666666666667E+009;1.700151860713959E-001;-2.852668799459934E-002;1.226454915013164E-004;-2.256552223116159E-003;
2.409833333333334E+009;1.704946160316467E-001;-2.929996885359287E-002;3.709567681653425E-005;-2.439695177599788E-003;
2.410000000000000E+009;1.710504889488220E-001;-3.029312007129192E-002;-1.041882424033247E-004;-2.479749266058207E-003;
2.410166666666667E+009;1.713504493236542E-001;-3.093158267438412E-002;-2.527705510146916E-004;-2.457269001752138E-003;
2.410333333333334E+009;1.715283244848251E-001;-3.185154497623444E-002;-2.428264706395567E-004;-2.446649596095085E-003;
2.410500000000000E+009;1.717842072248459E-001;-3.249508887529373E-002;-2.906149893533438E-004;-2.348161768168211E-003;
2.410666666666667E+009;1.719029992818832E-001;-3.349818661808968E-002;-4.988858127035201E-004;-2.572218189015985E-003;
2.410833333333334E+009;1.721113622188568E-001;-3.408894687891007E-002;-4.650406481232494E-004;-2.448896178975701E-003;
2.411000000000000E+009;1.720302402973175E-001;-3.479878976941109E-002;-4.255714011378586E-004;-2.322204643860459E-003;
2.411166666666667E+009;1.720309108495712E-001;-3.549722582101822E-002;-6.260775262489915E-004;-2.416633302345872E-003;
2.411333333333334E+009;1.720630377531052E-001;-3.595405071973801E-002;-5.349204293452203E-004;-2.386459149420261E-003;
2.411500000000000E+009;1.718923151493073E-001;-3.695575892925263E-002;-5.071815103292465E-004;-2.472752006724477E-003;
2.411666666666667E+009;1.719679683446884E-001;-3.746773302555084E-002;-4.887405666522682E-004;-2.503155963495374E-003;
2.411833333333334E+009;1.717042326927185E-001;-3.814565762877464E-002;-5.370350554585457E-004;-2.489067148417234E-003;
2.412000000000000E+009;1.715250611305237E-001;-3.889070078730583E-002;-6.874327664263547E-004;-2.622172934934497E-003;
2.412166666666667E+009;1.710174977779388E-001;-3.953810408711433E-002;-7.167601143009961E-004;-2.888626186177135E-003;
2.412333333333334E+009;1.711394041776657E-001;-4.002702236175537E-002;-7.384961936622858E-004;-3.035967471078038E-003;
2.412500000000000E+009;1.705049723386765E-001;-4.068019613623619E-002;-9.508449002169073E-004;-3.158275736495853E-003;
2.412666666666667E+009;1.701365262269974E-001;-4.179437458515167E-002;-1.153742894530296E-003;-3.345444332808256E-003;
2.412833333333334E+009;1.695257425308228E-001;-4.234667494893074E-002;-1.351319137029350E-003;-3.366395132616162E-003;
2.413000000000000E+009;1.688455641269684E-001;-4.319911077618599E-002;-1.585853518918157E-003;-3.555783070623875E-003;
2.413166666666667E+009;1.683351844549179E-001;-4.386063665151596E-002;-1.966232899576426E-003;-3.306654980406165E-003;
2.413333333333334E+009;1.676753014326096E-001;-4.475109651684761E-002;-2.283728914335370E-003;-3.190540941432118E-003;
2.413500000000000E+009;1.670235544443131E-001;-4.566015675663948E-002;-2.370062749832869E-003;-3.218825440853834E-003;
2.413666666666667E+009;1.665077656507492E-001;-4.639138653874397E-002;-2.769179176539183E-003;-3.210508031770587E-003;
2.413833333333334E+009;1.655639559030533E-001;-4.717397689819336E-002;-2.931819530203939E-003;-3.024945501238108E-003;
2.414000000000000E+009;1.648222506046295E-001;-4.826274886727333E-002;-3.156423103064299E-003;-2.721745753660798E-003;
2.414166666666667E+009;1.642745286226273E-001;-4.892310127615929E-002;-3.445885609835386E-003;-2.649460453540087E-003;
2.414333333333334E+009;1.636124253273010E-001;-5.005718395113945E-002;-3.773937001824379E-003;-2.434552880004048E-003;
2.414500000000000E+009;1.631392985582352E-001;-5.069191381335259E-002;-3.804930718615651E-003;-2.120376098901033E-003;
2.414666666666667E+009;1.624645888805389E-001;-5.174669623374939E-002;-3.939698915928602E-003;-1.988733420148492E-003;
2.414833333333334E+009;1.619240939617157E-001;-5.265346169471741E-002;-4.010767675936222E-003;-1.673643477261066E-003;
2.415000000000000E+009;1.614688932895660E-001;-5.367258563637734E-002;-4.300025291740894E-003;-1.434189965948463E-003;
2.415166666666667E+009;1.609119921922684E-001;-5.493059754371643E-002;-4.396508913487196E-003;-1.162440050393343E-003;
2.415333333333334E+009;1.606231927871704E-001;-5.623837932944298E-002;-4.318783059716225E-003;-8.318820036947727E-004;
2.415500000000000E+009;1.602292060852051E-001;-5.721785128116608E-002;-4.399605561047792E-003;-5.897923256270587E-004;
2.415666666666667E+009;1.599324941635132E-001;-5.843944475054741E-002;-4.319356754422188E-003;-2.635155105963349E-004;
2.415833333333334E+009;1.594536602497101E-001;-5.990378931164742E-002;-4.358350764960051E-003;9.220888750860468E-005;
2.416000000000000E+009;1.590598225593567E-001;-6.127478554844856E-002;-4.188068211078644E-003;2.553957165218890E-004;
2.416166666666667E+009;1.589488834142685E-001;-6.267901510000229E-002;-4.081605467945337E-003;4.348912916611880E-004;
2.416333333333334E+009;1.585068851709366E-001;-6.409698724746704E-002;-3.866901388391852E-003;7.131383172236383E-004;
2.416500000000000E+009;1.580855995416641E-001;-6.566449999809265E-002;-3.810706082731485E-003;9.559748577885330E-004;
2.416666666666667E+009;1.576811373233795E-001;-6.704177707433701E-002;-3.594123758375645E-003;1.065473421476781E-003;
2.416833333333334E+009;1.574229151010513E-001;-6.855664402246475E-002;-3.562772646546364E-003;1.192366238683462E-003;
2.417000000000000E+009;1.568017452955246E-001;-6.987276673316956E-002;-3.207237226888537E-003;1.441839849576354E-003;
2.417166666666667E+009;1.565992385149002E-001;-7.122348994016647E-002;-3.083640942350030E-003;1.533662434667349E-003;
2.417333333333334E+009;1.561954170465469E-001;-7.254655659198761E-002;-3.110246965661645E-003;1.664900337345898E-003;
2.417500000000000E+009;1.558237969875336E-001;-7.399410754442215E-002;-2.908068709075451E-003;1.782197854481638E-003;
2.417666666666667E+009;1.556742042303085E-001;-7.497556507587433E-002;-2.791047329083085E-003;1.723530935123563E-003;
2.417833333333334E+009;1.554396301507950E-001;-7.624950259923935E-002;-2.648677444085479E-003;1.746552879922092E-003;
2.418000000000000E+009;1.550974100828171E-001;-7.746962457895279E-002;-2.429044339805841E-003;1.893298584036529E-003;
2.418166666666667E+009;1.549702435731888E-001;-7.836828380823135E-002;-2.356703858822584E-003;1.914126914925873E-003;
2.418333333333334E+009;1.551301777362824E-001;-7.959675043821335E-002;-2.076169243082404E-003;1.828943262808025E-003;
2.418500000000000E+009;1.548588424921036E-001;-8.054704964160919E-002;-1.880901865661144E-003;1.778038567863405E-003;
2.418666666666667E+009;1.547255963087082E-001;-8.151131123304367E-002;-1.812961534596980E-003;1.767337438650429E-003;
2.418833333333334E+009;1.545663475990295E-001;-8.253110945224762E-002;-1.725308480672538E-003;1.817204640246928E-003;
2.419000000000000E+009;1.542939245700836E-001;-8.338070660829544E-002;-1.748585607856512E-003;1.791787915863097E-003;
2.419166666666667E+009;1.543760597705841E-001;-8.413040637969971E-002;-1.610692474059761E-003;1.763953478075564E-003;
2.419333333333334E+009;1.541396379470825E-001;-8.470192551612854E-002;-1.535493647679687E-003;1.706921262666583E-003;
2.419500000000000E+009;1.540837734937668E-001;-8.575838804244995E-002;-1.554498099721968E-003;1.671665580943227E-003;
2.419666666666667E+009;1.540177166461945E-001;-8.623394370079041E-002;-1.597706926986575E-003;1.674186787568033E-003;
2.419833333333334E+009;1.538389325141907E-001;-8.677233010530472E-002;-1.589221647009254E-003;1.693018944934011E-003;
2.420000000000000E+009;1.539629101753235E-001;-8.750810474157333E-002;-1.444896566681564E-003;1.537904259748757E-003;
2.420166666666667E+009;1.538502573966980E-001;-8.798766881227493E-002;-1.405680901370943E-003;1.720670610666275E-003;
2.420333333333334E+009;1.538126021623612E-001;-8.848115801811218E-002;-1.421703142113984E-003;1.646583783440292E-003;
2.420500000000000E+009;1.536045819520950E-001;-8.886212855577469E-002;-1.473608775995672E-003;1.728950068354607E-003;
2.420666666666667E+009;1.535538882017136E-001;-8.925575017929077E-002;-1.482647843658924E-003;1.821719342842698E-003;
2.420833333333334E+009;1.534193009138107E-001;-8.993406593799591E-002;-1.285477541387081E-003;1.951689948327839E-003;
2.421000000000000E+009;1.532645523548126E-001;-9.045641869306564E-002;-1.290486077778041E-003;1.879825489595532E-003;
2.421166666666667E+009;1.531414538621903E-001;-9.107087552547455E-002;-1.036482281051576E-003;1.993645448237658E-003;
2.421333333333334E+009;1.527664810419083E-001;-9.160162508487701E-002;-9.596322197467089E-004;1.972782192751765E-003;
2.421500000000000E+009;1.523817628622055E-001;-9.195502847433090E-002;-8.073183125816286E-004;1.990792807191610E-003;
2.421666666666667E+009;1.520603448152542E-001;-9.267500042915344E-002;-7.773207034915686E-004;2.090472495183349E-003;
2.421833333333334E+009;1.515806317329407E-001;-9.291718155145645E-002;-6.830685888417065E-004;1.988844946026802E-003;
2.422000000000000E+009;1.511390507221222E-001;-9.351811558008194E-002;-7.039867923595011E-004;1.951280748471618E-003;
2.422166666666667E+009;1.503807753324509E-001;-9.430553019046783E-002;-4.167998558841646E-004;1.852895366027951E-003;
2.422333333333334E+009;1.500401347875595E-001;-9.473337233066559E-002;-4.178684321232140E-004;1.754760276526213E-003;
2.422500000000000E+009;1.492647379636765E-001;-9.514938294887543E-002;-4.188568273093551E-004;1.676147221587598E-003;
2.422666666666667E+009;1.485008150339127E-001;-9.576781839132309E-002;-2.628155343700200E-004;1.443827175535262E-003;
2.422833333333334E+009;1.479706615209580E-001;-9.652524441480637E-002;-3.045356133952737E-004;1.368157099932432E-003;
2.423000000000000E+009;1.472438573837280E-001;-9.693001210689545E-002;-3.804317384492606E-004;1.253759837709367E-003;
2.423166666666667E+009;1.464981287717819E-001;-9.761313349008560E-002;-5.769209237769246E-004;1.244873274117708E-003;
2.423333333333334E+009;1.460222899913788E-001;-9.811086952686310E-002;-5.688142846338451E-004;1.249548047780991E-003;
2.423500000000000E+009;1.450414806604385E-001;-9.893234819173813E-002;-7.198873790912330E-004;1.159514533355832E-003;
2.423666666666667E+009;1.440576314926148E-001;-9.978259354829788E-002;-6.618013139814138E-004;1.197085017338395E-003;
2.423833333333334E+009;1.434813588857651E-001;-1.005274057388306E-001;-8.890391909517348E-004;1.127570983953774E-003;
2.424000000000000E+009;1.424510478973389E-001;-1.011248603463173E-001;-8.830846054479480E-004;1.052118721418083E-003;
2.424166666666667E+009;1.413025259971619E-001;-1.020074263215065E-001;-9.816290112212300E-004;1.391119323670864E-003;
2.424333333333334E+009;1.405072063207626E-001;-1.027180999517441E-001;-9.710826561786234E-004;1.269581262022257E-003;
2.424500000000000E+009;1.398340016603470E-001;-1.036366820335388E-001;-1.182400737889111E-003;1.403465750627220E-003;
2.424666666666667E+009;1.390000581741333E-001;-1.042891368269920E-001;-1.322923460975289E-003;1.537964097224176E-003;
2.424833333333334E+009;1.378880590200424E-001;-1.052855327725411E-001;-1.360483001917601E-003;1.826640102081001E-003;
2.425000000000000E+009;1.372918486595154E-001;-1.062230914831162E-001;-1.361166010610759E-003;1.945799682289362E-003;
2.425166666666667E+009;1.363310217857361E-001;-1.071221381425858E-001;-1.280162250623107E-003;2.066863933578134E-003;
2.425333333333334E+009;1.355196684598923E-001;-1.081620007753372E-001;-1.364719355478883E-003;2.319848164916039E-003;
2.425500000000000E+009;1.349221467971802E-001;-1.091701313853264E-001;-1.208239118568599E-003;2.559168264269829E-003;
2.425666666666667E+009;1.340792626142502E-001;-1.101567521691322E-001;-1.222163555212319E-003;2.575601451098919E-003;
2.425833333333334E+009;1.334069073200226E-001;-1.110749989748001E-001;-1.025585806928575E-003;2.601607237011194E-003;
2.426000000000000E+009;1.326051205396652E-001;-1.124121472239494E-001;-1.077647204510868E-003;2.981737023219466E-003;
2.426166666666667E+009;1.322024911642075E-001;-1.134305819869041E-001;-6.484752520918846E-004;3.102601505815983E-003;
2.426333333333334E+009;1.314374953508377E-001;-1.145264506340027E-001;-6.800479604862630E-004;3.136267187073827E-003;
2.426500000000000E+009;1.309399604797363E-001;-1.156031116843224E-001;-5.325101083144546E-004;3.237771568819881E-003;
2.426666666666667E+009;1.304506361484528E-001;-1.163992807269096E-001;-1.846603554440662E-004;3.320400137454271E-003;
2.426833333333334E+009;1.298164427280426E-001;-1.175269857048988E-001;-1.374772691633552E-004;3.465863643214107E-003;
2.427000000000000E+009;1.292686909437180E-001;-1.187068596482277E-001;1.286111801164225E-004;3.440390108153224E-003;
2.427166666666667E+009;1.288743913173676E-001;-1.195314750075340E-001;4.478088230825961E-004;3.451494500041008E-003;
2.427333333333334E+009;1.284399181604385E-001;-1.205774024128914E-001;6.545792566612363E-004;3.493088996037841E-003;
2.427500000000000E+009;1.281065940856934E-001;-1.215618252754211E-001;6.522050243802369E-004;3.272187430411577E-003;
2.427666666666667E+009;1.278068274259567E-001;-1.224351003766060E-001;1.098978449590504E-003;3.330353880301118E-003;
