# Hz S RI R 50
2400000000.0000000000 0.173601016402244595626669365629 0.049129310995340347290039062500 0.001411974197253585078595805591 0.004973127506673336029052734375 0 0 0 0 
2400166666.6666665077 0.174121707677841186523437500000 0.048392403870820999145507812500 0.001450019306503236076952290112 0.005043761339038611325735761426 0 0 0 0 
2400333333.3333334923 0.174495875835418701171875000000 0.047738634049892432476003278907 0.001488547539338469938990927588 0.004983156453818082809448242188 0 0 0 0 
2400500000.0000000000 0.174966558814048794845419365629 0.046958364546298980712890625000 0.001617965637706219933153461987 0.004997607786208391189575195312 0 0 0 0 
2400666666.6666665077 0.174978896975517300704794365629 0.046329133212566382671315778907 0.001809788285754621028900146484 0.005001711659133434295654296875 0 0 0 0 
2400833333.3333334923 0.175468251109123202224893134371 0.045840278267860412597656250000 0.001816507778130471923230815356 0.004935747943818569183349609375 0 0 0 0 
2401000000.0000000000 0.175543442368507413009481865629 0.045016657561063773418386091407 0.001827870728448032899143838037 0.004977023694664239883422851562 0 0 0 0 
2401166666.6666665077 0.175649493932723999023437500000 0.044295277446508407592773437500 0.001889452338218688964843750000 0.004914761986583471298217773438 0 0 0 0 
2401333333.3333334923 0.175622090697288513183593750000 0.043523464351892471313476562500 0.002212682040408254103419638525 0.004915886558592320355887128613 0 0 0 0 
2401500000.0000000000 0.175720945000648498535156250000 0.042766381055116653442382812500 0.002116097137331963019130087744 0.005058135837316513061523437500 0 0 0 0 
2401666666.6666665077 0.175481751561164911468182481258 0.042271289974451072002370466407 0.002528672106564044952392578125 0.004983681254088878631591796875 0 0 0 0 
2401833333.3333334923 0.175673305988311795333700615629 0.041324395686388022685964216407 0.002629296388477087020874023438 0.004970128647983074188232421875 0 0 0 0 
2402000000.0000000000 0.175341218709945706466513115629 0.040644738823175430297851562500 0.002598929218947886986973427881 0.004938351921737194061279296875 0 0 0 0 
2402166666.6666665077 0.175332412123680086990518134371 0.039633028209209442138671875000 0.002884645247831941084620810400 0.004844878334552049636840820312 0 0 0 0 
2402333333.3333334923 0.174939617514610290527343750000 0.038702618330717086791992187500 0.002980894409120082855224609375 0.004784889984875916567330644824 0 0 0 0 
2402500000.0000000000 0.174936622381210299392861884371 0.037597000598907470703125000000 0.003295292612165213064906454932 0.004831952974200248718261718750 0 0 0 0 
2402666666.6666665077 0.174545660614967401702557481258 0.036566630005836486816406250000 0.003433879930526018142700195312 0.004726452287286520004272460938 0 0 0 0 
2402833333.3333334923 0.174225807189941406250000000000 0.035353902727365486835520158593 0.003564217127859592004063271631 0.004683162085711956024169921875 0 0 0 0 
2403000000.0000000000 0.173937976360320989410723768742 0.034134689718484878540039062500 0.003654348663985728783848427881 0.004534159321337938308715820312 0 0 0 0 
2403166666.6666665077 0.173692196607589693924111884371 0.032692607492208480834960937500 0.003973580431193113327026367188 0.004544497001916170120239257812 0 0 0 0 
2403333333.3333334923 0.173167034983635004241619981258 0.031362216919660568237304687500 0.004093241412192583084106445312 0.004342812113463878631591796875 0 0 0 0 
2403500000.0000000000 0.172949060797691400725994981258 0.029785398393869400024414062500 0.004247895907610654830932617188 0.004252136219292879104614257812 0 0 0 0 
2403666666.6666665077 0.172384381294250488281250000000 0.028116667643189430236816406250 0.004328457172960042953491210938 0.004179587587714195251464843750 0 0 0 0 
2403833333.3333334923 0.172255516052246093750000000000 0.026491299271583560598353201954 0.004463544581085444364065839551 0.003899879986420274214503622900 0 0 0 0 
2404000000.0000000000 0.171852871775627108474893134371 0.024841291829943660390833670704 0.004768926184624434384817792676 0.003788830945268272919895791162 0 0 0 0 
2404166666.6666665077 0.171484157443046597579794365629 0.022804122418165210378626639454 0.004851405974477530393118573926 0.003684622701257466836216591943 0 0 0 0 
2404333333.3333334923 0.170984178781509399414062500000 0.021242136135697368276575858204 0.004971278831362724304199218750 0.003365364158526062965393066406 0 0 0 0 
2404500000.0000000000 0.170675590634346008300781250000 0.019019905477762218820592110546 0.005033264402300119400024414062 0.003441158216446638107299804688 0 0 0 0 
2404666666.6666665077 0.170585811138153103927450615629 0.017274228855967521667480468750 0.004930813796818256378173828125 0.003256530733779073195216513525 0 0 0 0 
2404833333.3333334923 0.170156896114349392989950615629 0.015319539234042169398297694727 0.005175716709345579147338867188 0.002933170646429061889648437500 0 0 0 0 
2405000000.0000000000 0.170148849487304687500000000000 0.013138012960553169250488281250 0.005373158026486635208129882812 0.002818227047100663185119628906 0 0 0 0 
2405166666.6666665077 0.169926077127456692794638115629 0.011279334314167499542236328125 0.005385550670325756072998046875 0.002833095844835042953491210938 0 0 0 0 
2405333333.3333334923 0.170044794678688104827557481258 0.009103181771934032440185546875 0.005528504494577646255493164062 0.002599173225462437109706259619 0 0 0 0 
2405500000.0000000000 0.170120343565940912444744981258 0.007231643423438072204589843750 0.005527170840650796890258789062 0.002356520853936672210693359375 0 0 0 0 
2405666666.6666665077 0.170207619667053194900674384371 0.005319163203239440917968750000 0.005465261172503232955932617188 0.002269686199724673791172646631 0 0 0 0 
2405833333.3333334923 0.170325666666030911544638115629 0.003197527024894953207728720557 0.005604050587862730026245117188 0.002112777670845388932469033350 0 0 0 0 
2406000000.0000000000 0.170619457960128811935263115629 0.001105785719119011922123574365 0.005742620211094617843627929688 0.002061787061393260955810546875 0 0 0 0 
2406166666.6666665077 0.170656964182853698730468750000 -0.000713281042408198118209838867 0.005703136324882507324218750000 0.001788540161214769103406596606 0 0 0 0 
2406333333.3333334923 0.171246260404586791992187500000 -0.002714066067710518836975097656 0.005626878701150417327880859375 0.001706771901808679103851318359 0 0 0 0 
2406500000.0000000000 0.171592310070991488357705634371 -0.004680151119828224182128906250 0.005848985631018877029418945312 0.001440582680515944957733154297 0 0 0 0 
2406666666.6666665077 0.172029346227645901779013115629 -0.006621059495955705642700195312 0.006067719310522080335135175488 0.001382077345624566078186035156 0 0 0 0 
2406833333.3333334923 0.172822237014770507812500000000 -0.008548693731427192687988281250 0.005922961048781871795654296875 0.001266282866708934090257954175 0 0 0 0 
2407000000.0000000000 0.173295482993125887771768134371 -0.010523429140448570251464843750 0.006021624431014060974121093750 0.000953784794546663761138916016 0 0 0 0 
2407166666.6666665077 0.174031347036361694335937500000 -0.012280726805329319345494454296 0.006092102732509374618530273438 0.001099756220355629920959472656 0 0 0 0 
2407333333.3333334923 0.174763947725295992752236884371 -0.014172824099659919738769531250 0.006171771790832281112670898438 0.000645569467451423406600952148 0 0 0 0 
2407500000.0000000000 0.175333142280578613281250000000 -0.015905439853668209421178048046 0.006290929857641459378714277051 0.000399891519919037818908691406 0 0 0 0 
2407666666.6666665077 0.176255717873573303222656250000 -0.017491804435849189758300781250 0.006158246658742427825927734375 0.000238834778429008993223467416 0 0 0 0 
2407833333.3333334923 0.176785603165626498123330634371 -0.019078169018030170095423514454 0.006301005370914936065673828125 -0.000157690912601538002490997314 0 0 0 0 
2408000000.0000000000 0.177610501646995488922442518742 -0.020749036222696300851842110546 0.006149012129753828048706054688 -0.000215866530197672600119990216 0 0 0 0 
2408166666.6666665077 0.178281486034393310546875000000 -0.022233206778764731670339216407 0.006232441868633031845092773438 -0.000432256987551227211952209473 0 0 0 0 
2408333333.3333334923 0.179091691970825195312500000000 -0.023512298241257671010950858204 0.006297683808952569961547851562 -0.000718447263352572917938232422 0 0 0 0 
2408500000.0000000000 0.179690122604370089431924384371 -0.024959577247500419616699218750 0.006156399380415678024291992188 -0.000894848257303237915039062500 0 0 0 0 
2408666666.6666665077 0.180166840553283691406250000000 -0.026195812970399860036829764454 0.006210726685822010040283203125 -0.001097757485695183060289692456 0 0 0 0 
2408833333.3333334923 0.180798143148422213455361884371 -0.027362754568457599985142891796 0.005939878523349761962890625000 -0.001426545903086662075640034253 0 0 0 0 
2409000000.0000000000 0.181233242154121398925781250000 -0.028363877907395359384556954296 0.005867593921720981597900390625 -0.001500840531662106947657919775 0 0 0 0 
2409166666.6666665077 0.181598305702209500411825615629 -0.029387861490249630319615548046 0.005743606481701135635375976562 -0.001554860384203494028804160010 0 0 0 0 
2409333333.3333334923 0.182073682546615600585937500000 -0.030206954106688499450683593750 0.005761115811765193939208984375 -0.001873590284958482005475688403 0 0 0 0 
2409500000.0000000000 0.182437896728515597244424384371 -0.030978830531239509582519531250 0.005641506053507328033447265625 -0.001927347620949148914934467847 0 0 0 0 
2409666666.6666665077 0.182679966092109707931356865629 -0.031418323516845703125000000000 0.005734890233725309371948242188 -0.002168847480788826942443847656 0 0 0 0 
2409833333.3333334923 0.182856231927871704101562500000 -0.031923215836286551738698591407 0.005570197012275457382202148438 -0.002115952316671609878540039062 0 0 0 0 
2410000000.0000000000 0.183252021670341491699218750000 -0.032442387193441390991210937500 0.005436076316982507705688476562 -0.002283704001456499099731445312 0 0 0 0 
2410166666.6666665077 0.183347180485725402832031250000 -0.032762371003627777099609375000 0.005515936762094497680664062500 -0.002472585765644907951354980469 0 0 0 0 
2410333333.3333334923 0.183316513895988492111044365629 -0.033206574618816382671315778907 0.005367263220250607404226972363 -0.002576889470219612121582031250 0 0 0 0 
2410500000.0000000000 0.183340787887573186676348768742 -0.033493116497993469238281250000 0.005379975307732821378225995801 -0.002713243942707777023315429688 0 0 0 0 
2410666666.6666665077 0.183255255222320612151776231258 -0.033946726471185677265207658593 0.005312846042215824127197265625 -0.002968526910990477041957236182 0 0 0 0 
2410833333.3333334923 0.183159515261650113204794365629 -0.034158211201429367065429687500 0.005181122105568647384643554688 -0.003029506420716642899754189600 0 0 0 0 
2411000000.0000000000 0.182903468608856201171875000000 -0.034405808895826339721679687500 0.005074124783277511596679687500 -0.003392352024093269868137978662 0 0 0 0 
2411166666.6666665077 0.182688549160957308670205634371 -0.034703981131315231323242187500 0.005144043359905481338500976562 -0.003312072250992060141322470557 0 0 0 0 
2411333333.3333334923 0.182243049144744900802450615629 -0.035036444664001471782643903907 0.004968831315636634826660156250 -0.003653419669717549844029091943 0 0 0 0 
2411500000.0000000000 0.181552916765213012695312500000 -0.035435859113931662822682966407 0.004975161980837584409231855176 -0.003792862407863140106201171875 0 0 0 0 
2411666666.6666665077 0.181330069899558993240518134371 -0.035716209560632712627370466407 0.004966723732650279998779296875 -0.003779091639444231986999511719 0 0 0 0 
2411833333.3333334923 0.180664420127868707854901231258 -0.035958215594291687011718750000 0.004833599086850881576538085938 -0.004069701768457890424246503613 0 0 0 0 
2412000000.0000000000 0.179889842867851312835369981258 -0.036586929112672812725026716407 0.004590603522956371307373046875 -0.004221949260681867599487304688 0 0 0 0 
2412166666.6666665077 0.178993418812751797775106865629 -0.037102270871400833129882812500 0.004492335021495819091796875000 -0.004588166251778602600097656250 0 0 0 0 
2412333333.3333334923 0.178259581327438410003338731258 -0.037474121898412697528879533593 0.004271564073860645294189453125 -0.004513589665293694409842206738 0 0 0 0 
2412500000.0000000000 0.177106752991676302810830634371 -0.038124974817037582397460937500 0.004206826444715262326712323926 -0.004874266684055328369140625000 0 0 0 0 
2412666666.6666665077 0.176239520311355590820312500000 -0.038775794208049767231027971093 0.004023669753223657608032226562 -0.004887933842837811383719159863 0 0 0 0 
2412833333.3333334923 0.175020784139633206466513115629 -0.039554934948682791973073591407 0.003721921937540173964259482275 -0.005039099138230085372924804688 0 0 0 0 
2413000000.0000000000 0.173774331808090209960937500000 -0.040181111544370651245117187500 0.003624162636697291894199990381 -0.005244969855993986129760742188 0 0 0 0 
2413166666.6666665077 0.172600135207176208496093750000 -0.041139557957649230957031250000 0.003287195693701506094691611182 -0.005286219995468854904174804688 0 0 0 0 
2413333333.3333334923 0.171218216419219998458700615629 -0.042235516011714942241628278907 0.003189441980794072151184082031 -0.005406423006206750869750976562 0 0 0 0 
2413500000.0000000000 0.170188143849372891525106865629 -0.043011795729398727416992187500 0.002910329960286616845371865381 -0.005568434949964284896850585938 0 0 0 0 
2413666666.6666665077 0.168918326497077886383380018742 -0.044333286583423621440847028907 0.002802247647196054892299033057 -0.005441211163997650146484375000 0 0 0 0 
2413833333.3333334923 0.167590469121933011154013115629 -0.045296028256416320800781250000 0.002546172356233001188990927588 -0.005667886696755886077880859375 0 0 0 0 
2414000000.0000000000 0.166226357221603393554687500000 -0.046708583831787109375000000000 0.002326943445950746969935751807 -0.005574251059442759427542402051 0 0 0 0 
2414166666.6666665077 0.165123715996742304046307481258 -0.047915812581777572631835937500 0.002318629994988441900966025244 -0.005492758471518754959106445312 0 0 0 0 
2414333333.3333334923 0.163884967565536499023437500000 -0.049274560064077377319335937500 0.001946044736541808085200644385 -0.005519573576748371124267578125 0 0 0 0 
2414500000.0000000000 0.162842556834220886230468750000 -0.050622239708900451660156250000 0.001848570653237402005436562646 -0.005751360673457384109497070312 0 0 0 0 
2414666666.6666665077 0.161651939153671292404013115629 -0.052155643701553351665456403907 0.001708482159301639036891318213 -0.005770712159574031829833984375 0 0 0 0 
2414833333.3333334923 0.160610780119895907303018134371 -0.053932804614305503154714216407 0.001619564834982156970380473560 -0.005652682390064001083374023438 0 0 0 0 
2415000000.0000000000 0.159537509083747891525106865629 -0.055497743189334869384765625000 0.001414363621734082915662455981 -0.005558833014219999313354492188 0 0 0 0 
2415166666.6666665077 0.158609598875045804122763115629 -0.057327538728713989257812500000 0.001173552242107688946964882959 -0.005748238880187273025512695312 0 0 0 0 
2415333333.3333334923 0.157852649688720703125000000000 -0.059159781783819198608398437500 0.000953082286287099123001098633 -0.005590737331658601760864257812 0 0 0 0 
2415500000.0000000000 0.156951069831848089020098768742 -0.060976393520832061767578125000 0.000977474264800548553466796875 -0.005702706519514322280883789062 0 0 0 0 
2415666666.6666665077 0.156249985098838806152343750000 -0.062843143939971923828125000000 0.000623867555987089872360229492 -0.005439054220914840698242187500 0 0 0 0 
2415833333.3333334923 0.155699983239173889160156250000 -0.064748525619506835937500000000 0.000602012383751571178436279297 -0.005570318084210157394409179688 0 0 0 0 
2416000000.0000000000 0.154862627387046786209268134371 -0.066924817860126495361328125000 0.000288735027424991076618748798 -0.005560088902711868286132812500 0 0 0 0 
2416166666.6666665077 0.154564976692199707031250000000 -0.068823002278804779052734375000 0.000216961241676472100332537241 -0.005316257942467927932739257812 0 0 0 0 
2416333333.3333334923 0.153982430696487399002236884371 -0.070737332105636596679687500000 0.000167888501891866299227037973 -0.005513198673725128173828125000 0 0 0 0 
2416500000.0000000000 0.153587520122528103927450615629 -0.072743058204650878906250000000 0.000071705100708641111850738525 -0.005424188449978828430175781250 0 0 0 0 
2416666666.6666665077 0.153234258294105502029580634371 -0.074709691107273101806640625000 -0.000146937512909062206745147705 -0.005442022345960140228271484375 0 0 0 0 
2416833333.3333334923 0.153048038482665987869424384371 -0.076760277152061462402343750000 -0.000301255116937681978375035419 -0.005412188824266195297241210938 0 0 0 0 
2417000000.0000000000 0.152663841843605013748330634371 -0.078543618321418762207031250000 -0.000497300119604915380477905273 -0.005461720284074544906616210938 0 0 0 0 
2417166666.6666665077 0.152397081255912808517294365629 -0.080401964485645294189453125000 -0.000514618412125855684280395508 -0.005484228953719139099121093750 0 0 0 0 
2417333333.3333334923 0.152413055300712613204794365629 -0.082133978605270385742187500000 -0.000848262687213718891143798828 -0.005461419001221656799316406250 0 0 0 0 
2417500000.0000000000 0.152276933193206787109375000000 -0.084020018577575683593750000000 -0.000957797339651733636856079102 -0.005335702095180749893188476562 0 0 0 0 
2417666666.6666665077 0.152482986450195312500000000000 -0.085487499833106994628906250000 -0.001007437123917042992235493237 -0.005425326991826295852661132812 0 0 0 0 
2417833333.3333334923 0.152382895350456210037393134371 -0.087067365646362304687500000000 -0.001311391475610435009002685547 -0.005322827957570552825927734375 0 0 0 0 
2418000000.0000000000 0.152217283844947787185830634371 -0.088605850934982299804687500000 -0.001500318525359034971949911963 -0.005190589930862188339233398438 0 0 0 0 
2418166666.6666665077 0.152478396892547607421875000000 -0.089792624115943908691406250000 -0.001643322175368667082545615088 -0.005033751949667930603027343750 0 0 0 0 
2418333333.3333334923 0.152838170528411892989950615629 -0.091104425489902496337890625000 -0.001912150182761251926422119141 -0.005032528657466173171997070312 0 0 0 0 
2418500000.0000000000 0.152771785855293301681356865629 -0.092293865978717803955078125000 -0.002057291567325592041015625000 -0.004885843023657798767089843750 0 0 0 0 
2418666666.6666665077 0.153100341558456393142861884371 -0.093310959637165069580078125000 -0.002095181727781891822814941406 -0.004768394399434328079223632812 0 0 0 0 
2418833333.3333334923 0.153089851140976007659588731258 -0.094274818897247314453125000000 -0.002226133598014711899998330225 -0.004612220916897059354300214551 0 0 0 0 
2419000000.0000000000 0.153304621577262906173544365629 -0.095013186335563659667968750000 -0.002572872210294007821324013818 -0.004552237689495086669921875000 0 0 0 0 
2419166666.6666665077 0.153461202979087801834268134371 -0.095738999545574188232421875000 -0.002704693702980875968933105469 -0.004328839480876922607421875000 0 0 0 0 
2419333333.3333334923 0.153549700975418090820312500000 -0.096033647656440734863281250000 -0.002734659239649773077723837744 -0.004113128408789634704589843750 0 0 0 0 
2419500000.0000000000 0.153886541724204989334268134371 -0.096733190119266510009765625000 -0.002745617879554628892185830225 -0.004013274796307086944580078125 0 0 0 0 
2419666666.6666665077 0.153956234455108587066973768742 -0.096883073449134826660156250000 -0.002841172507032752037048339844 -0.003747358685359358787536621094 0 0 0 0 
2419833333.3333334923 0.154104024171829195877236884371 -0.097207069396972656250000000000 -0.002747559221461414857151650537 -0.003587121609598398208618164062 0 0 0 0 
