# Hz S RI R 50
2400000000.0000000000 0.158104047179222106933593750000 0.062362667173147201538085937500 -0.003820343175902963118312216650 0.002061794511973857879638671875 0 0 0 0 
2400166666.6666665077 0.157960891723632812500000000000 0.060742244124412536621093750000 -0.003838107688352466063258505713 0.002095579169690608978271484375 0 0 0 0 
2400333333.3333334923 0.157848060131072998046875000000 0.058702960610389709472656250000 -0.003725816728547215895411826025 0.002270411932840942902805947412 0 0 0 0 
2400500000.0000000000 0.157874852418899508377236884371 0.056954834610223770141601562500 -0.003651974722743033929112099756 0.002262732246890664100646972656 0 0 0 0 
2400666666.6666665077 0.157605677843093899825888115629 0.054859254509210586547851562500 -0.003544031875208020210266113281 0.002465088618919252915623330225 0 0 0 0 
2400833333.3333334923 0.157848238945007296463174384371 0.053002264350652701641042341407 -0.003468703245744109153747558594 0.002687217667698860168457031250 0 0 0 0 
2401000000.0000000000 0.158025383949279812911825615629 0.050977621227502822875976562500 -0.003310636151582003073451376807 0.002724790945649147033691406250 0 0 0 0 
2401166666.6666665077 0.157881960272789001464843750000 0.048781327903270721435546875000 -0.003205914748832582993748330225 0.002866827417165040969848632812 0 0 0 0 
2401333333.3333334923 0.158131301403045709808026231258 0.046867180615663528442382812500 -0.003202991327270865006687783350 0.003112609963864088058471679688 0 0 0 0 
2401500000.0000000000 0.158520087599754305740518134371 0.044790051877498626708984375000 -0.003224151674658060073852539062 0.003042140044271945953369140625 0 0 0 0 
2401666666.6666665077 0.158627152442932101150674384371 0.042818062007427222515065778907 -0.002913743956014513969421386719 0.003092883620411158041713095557 0 0 0 0 
2401833333.3333334923 0.159167453646659906585369981258 0.040751881897449493408203125000 -0.002790917409583926200866699219 0.003146345261484384970424033057 0 0 0 0 
2402000000.0000000000 0.159480616450309808929119981258 0.038771763443946838378906250000 -0.002783063100650906996486044775 0.003384775016456841988804482568 0 0 0 0 
2402166666.6666665077 0.160211592912674005706463731258 0.036717314273118972778320312500 -0.002649983623996376991271972656 0.003269693814218043847324990381 0 0 0 0 
2402333333.3333334923 0.160416662693023709396200615629 0.034937091171741492534597028907 -0.002586211776360868973972939600 0.003489545313641428947448730469 0 0 0 0 
2402500000.0000000000 0.161311715841293307205361884371 0.033082768321037292480468750000 -0.002544247778132557868957519531 0.003653846913948655128479003906 0 0 0 0 
2402666666.6666665077 0.161981552839279202560263115629 0.031425248831510536884348283593 -0.002303660614416002793553017725 0.003527637338265777067897177588 0 0 0 0 
2402833333.3333334923 0.162616640329360989669638115629 0.029605189338326450693150704296 -0.002349847694858909086940146338 0.003706142306327819824218750000 0 0 0 0 
2403000000.0000000000 0.163571268320083590408486884371 0.028118526563048359262486641796 -0.002157568465918302969691611182 0.003852819791063665910008095850 0 0 0 0 
2403166666.6666665077 0.164390072226524408538494981258 0.026558438315987590444544608204 -0.001943942625075578906415629810 0.003875798545777798132655478369 0 0 0 0 
2403333333.3333334923 0.165254577994346590896768134371 0.025036565959453579294224923046 -0.001928436919115483977674174731 0.003923383075743913650512695312 0 0 0 0 
2403500000.0000000000 0.166150763630867004394531250000 0.023619890213012698781946951954 -0.001720523461699485995649028247 0.004080758895725011825561523438 0 0 0 0 
2403666666.6666665077 0.167142957448959406097088731258 0.022274134680628780019739920704 -0.001538645359687506935716938550 0.004251424223184585571289062500 0 0 0 0 
2403833333.3333334923 0.168147668242454501053018134371 0.020931078121066089975377266796 -0.001573535031639039950129843604 0.004296270199120044708251953125 0 0 0 0 
2404000000.0000000000 0.169095069169998196700888115629 0.019727667793631550180455391796 -0.001373314997181295914890908350 0.004147966392338275909423828125 0 0 0 0 
2404166666.6666665077 0.169971391558647211272869981258 0.018659736961126330984095389454 -0.001031538005918263955357216943 0.004450587555766105651855468750 0 0 0 0 
2404333333.3333334923 0.170897856354713412185830634371 0.017738517373800281179407889454 -0.000898914819117635488510131836 0.004501456394791603088378906250 0 0 0 0 
2404500000.0000000000 0.171963557600975008865518134371 0.016585400328040119516392891796 -0.000661518366541713476181030273 0.004677942022681236267089843750 0 0 0 0 
2404666666.6666665077 0.173036083579063387771768134371 0.015811529010534289968470389454 -0.000536954845301806926727294922 0.004582028370350599288940429688 0 0 0 0 
2404833333.3333334923 0.173936799168586703201455634371 0.015077952295541759836217110546 -0.000467315665446221774250584735 0.004618722014129161834716796875 0 0 0 0 
2405000000.0000000000 0.174780309200286892989950615629 0.014379328116774560755719569727 -0.000195915490621700910016736441 0.004696172196418046951293945312 0 0 0 0 
2405166666.6666665077 0.175504758954048212249432481258 0.013662535697221759450892264454 -0.000142378296004608300611218863 0.004803982563316822052001953125 0 0 0 0 
2405333333.3333334923 0.176446929574012811858807481258 0.012955458834767339879046055273 0.000268365169176831787258702411 0.004879401531070470809936523438 0 0 0 0 
2405500000.0000000000 0.177262961864471407791299384371 0.012664855457842350006103515625 0.000475931592518463676601964130 0.004800843540579080581665039062 0 0 0 0 
2405666666.6666665077 0.178015321493148803710937500000 0.012177699245512490708320818555 0.000509478210005909204483032227 0.004788715858012437820434570312 0 0 0 0 
2405833333.3333334923 0.178573608398437500000000000000 0.011772753670811649667760079296 0.000724100333172827959060668945 0.004759691655635833740234375000 0 0 0 0 
2406000000.0000000000 0.179065197706222506424111884371 0.011295371688902379816998866602 0.001066901837475598075269389575 0.004557453095912933349609375000 0 0 0 0 
2406166666.6666665077 0.179531335830688504318075615629 0.011202187277376650029192539648 0.001289069186896085955976176685 0.004634446930140256881713867188 0 0 0 0 
2406333333.3333334923 0.180071949958801297286825615629 0.010733921080827709543248360546 0.001516751828603446917292929541 0.004587264265865088376517011426 0 0 0 0 
2406500000.0000000000 0.180315837264061001876669365629 0.010408281348645690572718436329 0.001797956414520740942714072119 0.004588316660374402999877929688 0 0 0 0 
2406666666.6666665077 0.180467620491981506347656250000 0.010064156726002689706822579296 0.001927461707964539961573935400 0.004362520296126604080200195312 0 0 0 0 
2406833333.3333334923 0.180859610438346890548544365629 0.009822297841310501098632812500 0.002101284218952060179469443213 0.004276926629245281219482421875 0 0 0 0 
2407000000.0000000000 0.180881842970848111251669365629 0.009342297911643981933593750000 0.002326545305550097985508584131 0.004306363407522439956665039062 0 0 0 0 
2407166666.6666665077 0.181043311953544588943643134371 0.009266189299523830413818359375 0.002457824070006608963012695312 0.004169382620602846145629882812 0 0 0 0 
2407333333.3333334923 0.180815935134887695312500000000 0.008667547255754470825195312500 0.002603654749691485924961709131 0.004019591957330703735351562500 0 0 0 0 
2407500000.0000000000 0.180767342448234613616619981258 0.008273878134787082672119140625 0.002897887257859110832214355469 0.003806819440796970887425088037 0 0 0 0 
2407666666.6666665077 0.180566906929016113281250000000 0.007887859828770160675048828125 0.003024914069101213975193642725 0.003788744797930120988133095850 0 0 0 0 
2407833333.3333334923 0.180189460515976007659588731258 0.007234893273562192916870117188 0.003136507933959364891052246094 0.003642218885943294005153036963 0 0 0 0 
2408000000.0000000000 0.179885774850845309158486884371 0.006637738086283206939697265625 0.003375698579475284056422568213 0.003527943976223469214198447119 0 0 0 0 
2408166666.6666665077 0.179479956626892089843750000000 0.006158703938126564025878906250 0.003498858306556940078735351562 0.003291375702247024016139365088 0 0 0 0 
2408333333.3333334923 0.179091662168502807617187500000 0.005325885023921728134155273438 0.003705682232975960211512900244 0.002961906604468822912928915869 0 0 0 0 
2408500000.0000000000 0.178346768021583612640057481258 0.004444807767868041992187500000 0.003625724231824278831481933594 0.002985483268275856971740722656 0 0 0 0 
2408666666.6666665077 0.177791282534599304199218750000 0.003506097942590713934657431494 0.003921646624803543090820312500 0.002783680800348519845249795068 0 0 0 0 
2408833333.3333334923 0.177021995186805697342080634371 0.002592203672975302176234579932 0.003800994250923395156860351562 0.002608351409435272216796875000 0 0 0 0 
2409000000.0000000000 0.176514521241188104827557481258 0.001679664594121276898625039209 0.003983939997851848602294921875 0.002398482291027903990504599463 0 0 0 0 
2409166666.6666665077 0.175934225320816012283486884371 0.000519994297064840793609619141 0.004011760465800762176513671875 0.002127418061718345122096396338 0 0 0 0 
2409333333.3333334923 0.175302058458328302581463731258 -0.000882802647538483142852783203 0.004047562833875417709350585938 0.002020469401031732992884970557 0 0 0 0 
2409500000.0000000000 0.174431800842285211761151231258 -0.002244657371193170981166220557 0.004054135642945765581612871387 0.001842239289544522979139018481 0 0 0 0 
2409666666.6666665077 0.173550382256507901290731865629 -0.003560121404007076783421181787 0.004259424749761819839477539062 0.001648701145313679955126118237 0 0 0 0 
2409833333.3333334923 0.173009514808654812911825615629 -0.005052410997450351715087890625 0.004205566830933094024658203125 0.001437154482118784947636269678 0 0 0 0 
2410000000.0000000000 0.172439783811569213867187500000 -0.006353540811687707901000976562 0.004300395958125591278076171875 0.001326134311966598033905029297 0 0 0 0 
2410166666.6666665077 0.171674400568008395095986884371 -0.008141236379742622375488281250 0.004334111697971820831298828125 0.001111952238716185092926025391 0 0 0 0 
2410333333.3333334923 0.171108081936836187164630018742 -0.009649117477238178253173828125 0.004455537535250186920166015625 0.000810456287581473588943481445 0 0 0 0 
2410500000.0000000000 0.170487210154533386230468750000 -0.011333431117236610757847969921 0.004241533577442169189453125000 0.000752760213799774646759033203 0 0 0 0 
2410666666.6666665077 0.169981181621551513671875000000 -0.013279601931571960449218750000 0.004270794801414012908935546875 0.000470063358079642111628931866 0 0 0 0 
2410833333.3333334923 0.169491887092590304275674384371 -0.014970414340496059762974923046 0.004245392978191375732421875000 0.000442127435235306620597839355 0 0 0 0 
2411000000.0000000000 0.169175460934639004806356865629 -0.016871228814125061035156250000 0.004173719789832830429077148438 0.000074741961725521832704544067 0 0 0 0 
2411166666.6666665077 0.168739035725593594650106865629 -0.018842823803424838674525076954 0.004227334633469581604003906250 -0.000021871897843084301462377242 0 0 0 0 
2411333333.3333334923 0.168349549174308804611044365629 -0.020738672465085979806920235546 0.004174369387328624725341796875 -0.000251016201218590086132603778 0 0 0 0 
2411500000.0000000000 0.168199971318244906326455634371 -0.022797981277108188974400704296 0.004175190813839435577392578125 -0.000455647590570151805877685547 0 0 0 0 
2411666666.6666665077 0.168308287858963012695312500000 -0.024849429726600650442103201954 0.004151784814894199371337890625 -0.000447141559561714475781041278 0 0 0 0 
2411833333.3333334923 0.168179884552955599685830634371 -0.026632834225893020629882812500 0.004007027018815279006958007812 -0.000798233551904559135437011719 0 0 0 0 
2412000000.0000000000 0.168418020009994506835937500000 -0.028622826561331748962402343750 0.003963738214224576950073242188 -0.000874273478984832763671875000 0 0 0 0 
2412166666.6666665077 0.168110385537147494217080634371 -0.030811017379164699209193045704 0.003724244888871908187866210938 -0.001251693116500973918317485278 0 0 0 0 
2412333333.3333334923 0.168468728661537198165731865629 -0.032519992440938949584960937500 0.003665455151349306106567382812 -0.001236905227415264086482382666 0 0 0 0 
2412500000.0000000000 0.168584734201431302169638115629 -0.034443054348230361938476562500 0.003600623691454530195948935400 -0.001318193040788173892377543872 0 0 0 0 
2412666666.6666665077 0.168952971696853609939736884371 -0.036496236920356750488281250000 0.003292079549282788796665810693 -0.001555805443786085085627890479 0 0 0 0 
2412833333.3333334923 0.169378861784934997558593750000 -0.038225669413805007934570312500 0.003392885904759169058558798682 -0.001640594913624227046966552734 0 0 0 0 
2413000000.0000000000 0.169552773237228393554687500000 -0.040146380662918090820312500000 0.003156787250190972848179482568 -0.001759193371981381936314248193 0 0 0 0 
2413166666.6666665077 0.170005798339843805511151231258 -0.041939631104469299316406250000 0.002999613294377923011779785156 -0.001820226432755589918849326025 0 0 0 0 
2413333333.3333334923 0.170366659760475186446981865629 -0.043533630669116966938059221093 0.002881312044337391853332519531 -0.002101373625919222831726074219 0 0 0 0 
2413500000.0000000000 0.170842140913009588043536268742 -0.045336317270994193340261091407 0.002612773096188902854919433594 -0.002117984928190708160400390625 0 0 0 0 
2413666666.6666665077 0.171550616621971102615518134371 -0.046804025769233696674387346093 0.002674303716048597855808877100 -0.002168700098991394042968750000 0 0 0 0 
2413833333.3333334923 0.171896919608116205413494981258 -0.048390168696641921997070312500 0.002463839249685407118556357275 -0.002302432665601373152491904150 0 0 0 0 
2414000000.0000000000 0.172376498579978887359942518742 -0.049764264374971389770507812500 0.002417780924588441848754882812 -0.002236323896795510812046670068 0 0 0 0 
2414166666.6666665077 0.173009678721427889724893134371 -0.050986096262931816791574846093 0.002134838607162237167358398438 -0.002287293085828423933741904150 0 0 0 0 
2414333333.3333334923 0.173443555831909207443075615629 -0.052291553467512130737304687500 0.002008972922340035004856728662 -0.002368073677644134001490927588 0 0 0 0 
2414500000.0000000000 0.174258351325988797286825615629 -0.053454656153917312622070312500 0.001875326735898851914646767725 -0.002417991869151591820957802881 0 0 0 0 
2414666666.6666665077 0.174705237150192288497763115629 -0.054428946226835250854492187500 0.001800743397325276894810341943 -0.002417870331555604934692382812 0 0 0 0 
2414833333.3333334923 0.175187110900878906250000000000 -0.055463962256908416748046875000 0.001815968891605735041974711841 -0.002560188062489033179042197119 0 0 0 0 
2415000000.0000000000 0.175601944327354403396768134371 -0.056260731071233749389648437500 0.001690183882601558945299458081 -0.002432783367112278938293457031 0 0 0 0 
2415166666.6666665077 0.175971612334251403808593750000 -0.057006780058145523071289062500 0.001592887216247617981554340894 -0.002546341856941581206080771338 0 0 0 0 
2415333333.3333334923 0.176573514938354492187500000000 -0.057899203151464462280273437500 0.001373928389512002901789999854 -0.002501352224498987197875976562 0 0 0 0 
2415500000.0000000000 0.176801741123199490646200615629 -0.058446887880563742900807966407 0.001317568472586571953417133862 -0.002439515199512242837193154443 0 0 0 0 
2415666666.6666665077 0.177130728960037203689736884371 -0.058871272951364517211914062500 0.001236193347722291946411132812 -0.002331605879589914841892861475 0 0 0 0 
2415833333.3333334923 0.177406713366508511642294365629 -0.059478234499692916870117187500 0.001123058609664439938188862378 -0.002575415652245283126831054688 0 0 0 0 
2416000000.0000000000 0.177234470844268798828125000000 -0.059776198118925101543386091407 0.000938410754315555095672607422 -0.002284871647134422822239541162 0 0 0 0 
2416166666.6666665077 0.177639916539192199707031250000 -0.059985917061567313457448591407 0.000951632682699710130691528320 -0.002396730240434408187866210938 0 0 0 0 
2416333333.3333334923 0.177463158965110806564169365629 -0.060473669320344931865651716407 0.000812064565252512693405151367 -0.002426147228106855912449502100 0 0 0 0 
2416500000.0000000000 0.177428469061851501464843750000 -0.060615565627813339233398437500 0.000653125636745244264602661133 -0.002381195314228535132167197119 0 0 0 0 
2416666666.6666665077 0.177221208810806302169638115629 -0.060885544866323471069335937500 0.000654842529911547899246215820 -0.002372355200350285010096884619 0 0 0 0 
2416833333.3333334923 0.177053600549697903732138115629 -0.061295747756958007812500000000 0.000576891528908163309097290039 -0.002171115018427371978759765625 0 0 0 0 
2417000000.0000000000 0.176534771919250488281250000000 -0.061328921467065811157226562500 0.000612698087934404611587524414 -0.002321439562365413145778036963 0 0 0 0 
2417166666.6666665077 0.176155582070350702483807481258 -0.061440333724021911621093750000 0.000451098429039120674133300781 -0.002299860352650285200831747900 0 0 0 0 
2417333333.3333334923 0.175665006041526794433593750000 -0.061630222946405410766601562500 0.000448934675659984404414576398 -0.002291732933372259140014648438 0 0 0 0 
2417500000.0000000000 0.174988761544227600097656250000 -0.061925698071718222881276716407 0.000411059707403182983398437500 -0.002272422425448894934413290869 0 0 0 0 
2417666666.6666665077 0.174389407038688687423544365629 -0.061924945563077926635742187500 0.000519594992510974407196044922 -0.002090767491608858108520507812 0 0 0 0 
2417833333.3333334923 0.173649132251739501953125000000 -0.062266930937767028808593750000 0.000379587843781337087780552997 -0.002263631904497743086573935400 0 0 0 0 
2418000000.0000000000 0.172660782933235196212606865629 -0.062656573951244354248046875000 0.000240830529946833903163355695 -0.002113987458869814872741699219 0 0 0 0 
2418166666.6666665077 0.171720817685127313811932481258 -0.062666885554790496826171875000 0.000259816413745284080505371094 -0.002161565469577908949611044775 0 0 0 0 
2418333333.3333334923 0.170910134911537198165731865629 -0.063264884054660797119140625000 0.000144307225127704387337285175 -0.002313278615474700927734375000 0 0 0 0 
2418500000.0000000000 0.169808775186538696289062500000 -0.063619717955589294433593750000 -0.000077720920671708881855010986 -0.002206154633313417001011513818 0 0 0 0 
2418666666.6666665077 0.168928653001785306075888115629 -0.063978113234043121337890625000 0.000102383884950541000492633958 -0.002188787562772632078883505713 0 0 0 0 
2418833333.3333334923 0.167622163891792297363281250000 -0.064578436315059661865234375000 0.000001856830294855172026319127 -0.002183013129979372024536132812 0 0 0 0 
2419000000.0000000000 0.166310399770736694335937500000 -0.065163366496562957763671875000 -0.000143404307891614708021441049 -0.002325884066522120995762490381 0 0 0 0 
2419166666.6666665077 0.165187627077102688888388115629 -0.065770566463470458984375000000 -0.000257963372860103899806422101 -0.002258304506540298895594931494 0 0 0 0 
2419333333.3333334923 0.163807019591331509689169365629 -0.066289074718952178955078125000 -0.000222603717702440890386858530 -0.002149481326341629028320312500 0 0 0 0 
2419500000.0000000000 0.162708744406700106521768134371 -0.067282147705554962158203125000 -0.000221236885408870902940473013 -0.002169698476791381835937500000 0 0 0 0 
2419666666.6666665077 0.161602333188057001311932481258 -0.068144880235195159912109375000 -0.000483438256196677684783935547 -0.002095575211569666862487792969 0 0 0 0 
2419833333.3333334923 0.160339921712875393966513115629 -0.069053530693054199218750000000 -0.000395999319152906482845860614 -0.002167007187381387190577841650 0 0 0 0 
