# Version 1.00
#
freq[Hz];re:Trc1_S11;im:Trc1_S11;re:Trc2_S21;im:Trc2_S21;
2.400000000000000E+009;1.635474860668182E-001;5.745324864983559E-002;3.290736582130194E-003;2.956466749310494E-003;
2.400166666666667E+009;1.635489165782929E-001;5.599230900406838E-002;3.199719125404954E-003;2.896766411140561E-003;
2.400333333333334E+009;1.634582281112671E-001;5.454913154244423E-002;3.290680702775717E-003;3.079499350860715E-003;
2.400500000000000E+009;1.634608209133148E-001;5.289399996399880E-002;3.479651641100645E-003;3.061513183638454E-003;
2.400666666666667E+009;1.633033007383347E-001;5.104236677289009E-002;3.655566135421395E-003;3.015599446371198E-003;
2.400833333333334E+009;1.634619981050491E-001;4.944500327110291E-002;3.693135455250740E-003;3.086810000240803E-003;
2.401000000000000E+009;1.633382141590118E-001;4.765176773071289E-002;3.840809222310782E-003;3.057606751099229E-003;
2.401166666666667E+009;1.634731143712997E-001;4.593729600310326E-002;4.016206134110689E-003;3.154428210109472E-003;
2.401333333333334E+009;1.633394360542297E-001;4.399678111076355E-002;4.272487480193377E-003;2.949663437902927E-003;
2.401500000000000E+009;1.636956930160523E-001;4.231008887290955E-002;4.254583269357681E-003;3.052075393497944E-003;
2.401666666666667E+009;1.635869443416596E-001;4.044741764664650E-002;4.598480183631182E-003;3.003861056640744E-003;
2.401833333333334E+009;1.637079119682312E-001;3.867470473051071E-002;4.709820728749037E-003;2.870294963940978E-003;
2.402000000000000E+009;1.638974696397781E-001;3.682930022478104E-002;4.867760464549065E-003;2.882236381992698E-003;
2.402166666666667E+009;1.640464663505554E-001;3.497894853353500E-002;5.194558762013912E-003;2.705281367525458E-003;
2.402333333333334E+009;1.643065512180328E-001;3.323923051357269E-002;5.360630340874195E-003;2.557916101068258E-003;
2.402500000000000E+009;1.647808551788330E-001;3.172143548727036E-002;5.634183529764414E-003;2.437308663502336E-003;
2.402666666666667E+009;1.650581210851669E-001;3.002009354531765E-002;5.587768740952015E-003;2.189387567341328E-003;
2.402833333333334E+009;1.654875129461289E-001;2.835151553153992E-002;5.943373311311007E-003;1.932755811139941E-003;
2.403000000000000E+009;1.657681763172150E-001;2.666447311639786E-002;6.012474652379751E-003;1.831667963415384E-003;
2.403166666666667E+009;1.664701700210571E-001;2.519222348928452E-002;6.236236542463303E-003;1.486087683588266E-003;
2.403333333333334E+009;1.669647693634033E-001;2.393874526023865E-002;6.252472754567862E-003;1.620641327463090E-003;
2.403500000000000E+009;1.674918979406357E-001;2.246683649718761E-002;6.441671401262283E-003;1.114896265789866E-003;
2.403666666666667E+009;1.679790467023850E-001;2.092384174466133E-002;6.507090292870998E-003;7.926198886707425E-004;
2.403833333333334E+009;1.688235402107239E-001;1.957580819725990E-002;6.557078100740910E-003;5.981859867461026E-004;
2.404000000000000E+009;1.693096160888672E-001;1.822208054363728E-002;6.725439801812172E-003;3.788207250181586E-004;
2.404166666666667E+009;1.699402034282684E-001;1.696346141397953E-002;6.562303751707077E-003;-3.196157558704726E-005;
2.404333333333334E+009;1.704870760440826E-001;1.583402603864670E-002;6.632563192397356E-003;-1.391145779052749E-004;
2.404500000000000E+009;1.709586679935455E-001;1.473352499306202E-002;6.697378121316433E-003;-6.965086213313043E-004;
2.404666666666667E+009;1.717846542596817E-001;1.380288787186146E-002;6.398998666554689E-003;-6.544596981257200E-004;
2.404833333333334E+009;1.723797470331192E-001;1.281600911170244E-002;6.643379107117653E-003;-1.176151097752154E-003;
2.405000000000000E+009;1.730119585990906E-001;1.175113301724196E-002;6.447117310017347E-003;-1.345623284578323E-003;
2.405166666666667E+009;1.736529320478439E-001;1.106551755219698E-002;6.282005924731493E-003;-1.701571629382670E-003;
2.405333333333334E+009;1.743181496858597E-001;1.016029901802540E-002;6.240765098482370E-003;-1.951741869561374E-003;
2.405500000000000E+009;1.749113947153091E-001;9.576546959578991E-003;6.192505359649658E-003;-2.061889041215181E-003;
2.405666666666667E+009;1.752355396747589E-001;8.818352594971657E-003;6.046276539564133E-003;-2.115359762683511E-003;
2.405833333333334E+009;1.756451874971390E-001;8.259342983365059E-003;5.951915867626667E-003;-2.342595020309091E-003;
2.406000000000000E+009;1.764874756336212E-001;7.559001911431551E-003;5.890191067010164E-003;-2.526189433410764E-003;
2.406166666666667E+009;1.766613423824310E-001;7.312656845897436E-003;5.667856894433498E-003;-2.729931380599737E-003;
2.406333333333334E+009;1.771786808967590E-001;6.639136001467705E-003;5.612914916127920E-003;-2.810651436448097E-003;
2.406500000000000E+009;1.774187982082367E-001;6.018577609211206E-003;5.417844280600548E-003;-3.011398483067751E-003;
2.406666666666667E+009;1.775884479284287E-001;5.621531978249550E-003;5.339091178029776E-003;-3.127487376332283E-003;
2.406833333333334E+009;1.779010593891144E-001;5.080493167042732E-003;5.247063003480434E-003;-3.303241683170199E-003;
2.407000000000000E+009;1.781495809555054E-001;4.580995999276638E-003;5.146877374500036E-003;-3.476684680208564E-003;
2.407166666666667E+009;1.782835572957993E-001;4.172297660261393E-003;5.028420127928257E-003;-3.692361526191235E-003;
2.407333333333334E+009;1.782119125127792E-001;3.580342978239059E-003;4.973376169800758E-003;-3.783784806728363E-003;
2.407500000000000E+009;1.782333701848984E-001;3.043539822101593E-003;4.795500542968512E-003;-3.841482568532229E-003;
2.407666666666667E+009;1.782493293285370E-001;2.520086010918021E-003;4.684543702751398E-003;-3.832736751064658E-003;
2.407833333333334E+009;1.779304444789887E-001;1.825407263822854E-003;4.566028248518705E-003;-4.030138254165649E-003;
2.408000000000000E+009;1.778623908758164E-001;1.076332642696798E-003;4.486136138439179E-003;-4.012418910861015E-003;
2.408166666666667E+009;1.775557100772858E-001;7.105499971657991E-004;4.550784360617399E-003;-4.101235885173082E-003;
2.408333333333334E+009;1.774915605783463E-001;-4.838924360228702E-005;4.189258906990290E-003;-4.334175493568182E-003;
2.408500000000000E+009;1.770085245370865E-001;-9.544045897200704E-004;4.211822990328074E-003;-4.430606961250305E-003;
2.408666666666667E+009;1.767760515213013E-001;-1.768203685060144E-003;4.066692199558020E-003;-4.403210245072842E-003;
2.408833333333334E+009;1.762276142835617E-001;-2.705350983887911E-003;3.832443850114942E-003;-4.525431897491217E-003;
2.409000000000000E+009;1.756834089756012E-001;-3.549356944859028E-003;3.744180547073484E-003;-4.644682165235281E-003;
2.409166666666667E+009;1.753215640783310E-001;-4.468296188861132E-003;3.605724312365055E-003;-4.688101354986429E-003;
2.409333333333334E+009;1.748842895030975E-001;-5.731386132538319E-003;3.651602426543832E-003;-4.804238677024841E-003;
2.409500000000000E+009;1.743642240762711E-001;-6.855615414679050E-003;3.571273060515523E-003;-4.839249886572361E-003;
2.409666666666667E+009;1.739060133695602E-001;-8.038956671953201E-003;3.409218508750200E-003;-4.852574784308672E-003;
2.409833333333334E+009;1.731630265712738E-001;-9.222106076776981E-003;3.362329909577966E-003;-4.857621155679226E-003;
2.410000000000000E+009;1.727396398782730E-001;-1.045314595103264E-002;3.312506712973118E-003;-4.930637311190367E-003;
2.410166666666667E+009;1.722751110792160E-001;-1.179551519453526E-002;3.263945691287518E-003;-5.157083738595247E-003;
2.410333333333334E+009;1.717533618211746E-001;-1.342853810638189E-002;3.311363048851490E-003;-5.123684648424387E-003;
2.410500000000000E+009;1.713316738605499E-001;-1.464031357318163E-002;3.019547322764993E-003;-5.384382326155901E-003;
2.410666666666667E+009;1.708094328641892E-001;-1.646319404244423E-002;3.034252440556884E-003;-5.301742814481258E-003;
2.410833333333334E+009;1.703945845365524E-001;-1.783227734267712E-002;2.911966526880860E-003;-5.438068881630898E-003;
2.411000000000000E+009;1.701166927814484E-001;-1.955083198845387E-002;3.031154628843069E-003;-5.647249519824982E-003;
2.411166666666667E+009;1.697402000427246E-001;-2.130790799856186E-002;2.759775146842003E-003;-5.642919335514307E-003;
2.411333333333334E+009;1.693617701530457E-001;-2.288386598229408E-002;2.597514772787690E-003;-5.720926914364100E-003;
2.411500000000000E+009;1.691777259111404E-001;-2.481293864548206E-002;2.841579960659146E-003;-6.066553294658661E-003;
2.411666666666667E+009;1.690449267625809E-001;-2.653073705732822E-002;2.449441934004426E-003;-6.237193942070007E-003;
2.411833333333334E+009;1.688616424798966E-001;-2.819748036563397E-002;2.476660069078207E-003;-6.321346852928400E-003;
2.412000000000000E+009;1.687825173139572E-001;-2.986467257142067E-002;2.238186774775386E-003;-6.647365633398294E-003;
2.412166666666667E+009;1.685440838336945E-001;-3.187227994203568E-002;2.055930206552148E-003;-6.931469775736332E-003;
2.412333333333334E+009;1.689465790987015E-001;-3.355307504534721E-002;1.886113663204014E-003;-7.040769793093205E-003;
2.412500000000000E+009;1.688971221446991E-001;-3.553432226181030E-002;1.552106463350356E-003;-7.045414298772812E-003;
2.412666666666667E+009;1.688626259565353E-001;-3.736035525798798E-002;1.663692411966622E-003;-7.265965454280376E-003;
2.412833333333334E+009;1.690429002046585E-001;-3.893177956342697E-002;1.191717339679599E-003;-7.377569098025560E-003;
2.413000000000000E+009;1.693013757467270E-001;-4.067121073603630E-002;8.326560491696000E-004;-7.499989122152329E-003;
2.413166666666667E+009;1.693362295627594E-001;-4.244025796651840E-002;6.485995836555958E-004;-7.622973062098026E-003;
2.413333333333334E+009;1.697270870208740E-001;-4.391161352396011E-002;3.507267392706126E-004;-7.761896587908268E-003;
2.413500000000000E+009;1.700691729784012E-001;-4.579728469252586E-002;-1.197283418150619E-004;-7.842306979000568E-003;
2.413666666666667E+009;1.702721714973450E-001;-4.733211547136307E-002;-2.940949052572250E-004;-8.043923415243626E-003;
2.413833333333334E+009;1.706294268369675E-001;-4.876394569873810E-002;-6.977933226153255E-004;-8.083610795438290E-003;
2.414000000000000E+009;1.709590852260590E-001;-5.023243278264999E-002;-1.010881736874580E-003;-8.227215148508549E-003;
2.414166666666667E+009;1.712967455387116E-001;-5.160883441567421E-002;-1.465131179429591E-003;-7.930090650916100E-003;
2.414333333333334E+009;1.715954244136810E-001;-5.283603444695473E-002;-1.718143001198769E-003;-8.171036839485169E-003;
2.414500000000000E+009;1.721664667129517E-001;-5.404565110802651E-002;-2.142889425158501E-003;-7.947717793285847E-003;
2.414666666666667E+009;1.724210530519486E-001;-5.524306371808052E-002;-2.545863855630159E-003;-7.914537563920021E-003;
2.414833333333334E+009;1.727949678897858E-001;-5.626784637570381E-002;-2.935147611424327E-003;-7.659859955310822E-003;
2.415000000000000E+009;1.731050312519074E-001;-5.732443556189537E-002;-3.248866414651275E-003;-7.762452587485313E-003;
2.415166666666667E+009;1.734630614519119E-001;-5.816878378391266E-002;-3.702497575432062E-003;-7.509301416575909E-003;
2.415333333333334E+009;1.739317476749420E-001;-5.902902409434319E-002;-3.931085579097271E-003;-7.413520477712154E-003;
2.415500000000000E+009;1.741122156381607E-001;-5.982415378093720E-002;-4.290589131414890E-003;-7.019854150712490E-003;
2.415666666666667E+009;1.742837131023407E-001;-6.053533777594566E-002;-4.551336169242859E-003;-7.138362154364586E-003;
2.415833333333334E+009;1.745398491621018E-001;-6.120267882943153E-002;-4.722876008599997E-003;-6.871173623949289E-003;
2.416000000000000E+009;1.744795143604279E-001;-6.172612309455872E-002;-5.240458063781261E-003;-6.545788608491421E-003;
2.416166666666667E+009;1.748189032077789E-001;-6.228478252887726E-002;-5.452136509120464E-003;-6.219822913408279E-003;
2.416333333333334E+009;1.746710836887360E-001;-6.263498216867447E-002;-5.555776879191399E-003;-5.981638096272945E-003;
2.416500000000000E+009;1.746528446674347E-001;-6.317199766635895E-002;-5.855659954249859E-003;-5.712014622986317E-003;
2.416666666666667E+009;1.744855642318726E-001;-6.347583234310150E-002;-6.130724679678679E-003;-5.459676031023264E-003;
2.416833333333334E+009;1.743380278348923E-001;-6.391040235757828E-002;-6.253428757190704E-003;-5.295347888022661E-003;
2.417000000000000E+009;1.739442348480225E-001;-6.431663781404495E-002;-6.289608310908079E-003;-5.112805869430304E-003;
2.417166666666667E+009;1.735801249742508E-001;-6.452421844005585E-002;-6.456026341766119E-003;-4.772197920829058E-003;
2.417333333333334E+009;1.732632517814636E-001;-6.481391191482544E-002;-6.633654236793518E-003;-4.455041140317917E-003;
2.417500000000000E+009;1.727653145790100E-001;-6.528131663799286E-002;-6.746408529579639E-003;-4.192761145532131E-003;
2.417666666666667E+009;1.722500920295715E-001;-6.544656306505203E-002;-6.869414355605841E-003;-3.782189218327403E-003;
2.417833333333334E+009;1.716088801622391E-001;-6.566730141639710E-002;-6.884488742798567E-003;-3.437200095504522E-003;
2.418000000000000E+009;1.708386689424515E-001;-6.607371568679810E-002;-6.889096461236477E-003;-3.181389765813947E-003;
2.418166666666667E+009;1.700817793607712E-001;-6.622904539108276E-002;-6.945897825062275E-003;-2.977474126964808E-003;
2.418333333333334E+009;1.694594025611877E-001;-6.671635061502457E-002;-6.853494327515364E-003;-2.707203384488821E-003;
2.418500000000000E+009;1.685159504413605E-001;-6.710917502641678E-002;-6.894337944686413E-003;-2.526636235415936E-003;
2.418666666666667E+009;1.677066832780838E-001;-6.752897799015045E-002;-6.977516226470470E-003;-2.389373723417521E-003;
2.418833333333334E+009;1.665688604116440E-001;-6.811929494142532E-002;-7.056817878037691E-003;-1.924935844726861E-003;
2.419000000000000E+009;1.654810607433319E-001;-6.855539977550507E-002;-6.986705586314201E-003;-1.638377434574068E-003;
2.419166666666667E+009;1.644173562526703E-001;-6.910166144371033E-002;-6.986935622990131E-003;-1.616869471035898E-003;
2.419333333333334E+009;1.633418798446655E-001;-6.950987875461578E-002;-7.081881165504456E-003;-1.277918578125536E-003;
2.419500000000000E+009;1.623609364032745E-001;-7.036799192428589E-002;-7.189899682998657E-003;-9.250742732547224E-004;
2.419666666666667E+009;1.611731946468353E-001;-7.120282202959061E-002;-7.132291328161955E-003;-7.195111829787493E-004;
2.419833333333334E+009;1.600700616836548E-001;-7.175032794475555E-002;-7.107303477823734E-003;-5.827976856380701E-004;
2.420000000000000E+009;1.592241078615189E-001;-7.270105183124542E-002;-7.100458256900311E-003;-3.969185054302216E-004;
2.420166666666667E+009;1.581060290336609E-001;-7.380706071853638E-002;-7.067183498293161E-003;-5.717095336876810E-005;
2.420333333333334E+009;1.569531559944153E-001;-7.486008852720261E-002;-7.108256686478853E-003;1.746702764648944E-004;
2.420500000000000E+009;1.559568345546722E-001;-7.578412443399429E-002;-6.950227543711662E-003;3.878622665069997E-004;
2.420666666666667E+009;1.549900919198990E-001;-7.676874101161957E-002;-6.885250099003315E-003;6.586257950402796E-004;
2.420833333333334E+009;1.540114432573319E-001;-7.799877226352692E-002;-6.758189294487238E-003;9.715341147966683E-004;
2.421000000000000E+009;1.530243009328842E-001;-7.936637848615646E-002;-6.854203529655933E-003;1.088848221115768E-003;
2.421166666666667E+009;1.522113829851151E-001;-8.074063062667847E-002;-6.778216920793057E-003;1.399031491018832E-003;
2.421333333333334E+009;1.514454632997513E-001;-8.202020078897476E-002;-6.623990368098021E-003;1.511159818619490E-003;
2.421500000000000E+009;1.506298482418060E-001;-8.343750238418579E-002;-6.457360927015543E-003;2.020677551627159E-003;
2.421666666666667E+009;1.499872207641602E-001;-8.502733707427979E-002;-6.323006469756365E-003;2.157667418941855E-003;
2.421833333333334E+009;1.494687646627426E-001;-8.654268831014633E-002;-6.222479976713657E-003;2.348077250644565E-003;
2.422000000000000E+009;1.488792300224304E-001;-8.806698024272919E-002;-6.114692892879248E-003;2.543770009651780E-003;
2.422166666666667E+009;1.481699496507645E-001;-8.977955579757690E-002;-5.882396362721920E-003;2.671601483598352E-003;
2.422333333333334E+009;1.478652060031891E-001;-9.135711193084717E-002;-5.934453103691340E-003;3.001994686201215E-003;
2.422500000000000E+009;1.475168764591217E-001;-9.282251447439194E-002;-5.575943272560835E-003;3.000566735863686E-003;
2.422666666666667E+009;1.470862030982971E-001;-9.468415379524231E-002;-5.402342416346073E-003;3.215261502191424E-003;
2.422833333333334E+009;1.470802873373032E-001;-9.639821201562882E-002;-5.227112676948309E-003;3.299470525234938E-003;
2.423000000000000E+009;1.467544585466385E-001;-9.798733144998550E-002;-5.104123614728451E-003;3.478318452835083E-003;
2.423166666666667E+009;1.468314826488495E-001;-9.965714067220688E-002;-4.698231350630522E-003;3.720768494531512E-003;
2.423333333333334E+009;1.468863785266876E-001;-1.010101586580277E-001;-4.588115960359573E-003;3.703975351527333E-003;
2.423500000000000E+009;1.468318551778793E-001;-1.027590557932854E-001;-4.415268078446388E-003;3.761403728276491E-003;
2.423666666666667E+009;1.468585133552551E-001;-1.044720932841301E-001;-4.256010986864567E-003;3.864236176013947E-003;
2.423833333333334E+009;1.470461785793304E-001;-1.058931499719620E-001;-4.117172211408615E-003;3.990014083683491E-003;
2.424000000000000E+009;1.471208482980728E-001;-1.073732972145081E-001;-4.005227703601122E-003;3.986624069511890E-003;
2.424166666666667E+009;1.472833454608917E-001;-1.087233498692513E-001;-3.709472483024001E-003;4.040851257741451E-003;
2.424333333333334E+009;1.476454585790634E-001;-1.101373434066773E-001;-3.532987320795655E-003;4.115413874387741E-003;
2.424500000000000E+009;1.477770060300827E-001;-1.114993020892143E-001;-3.228566376492381E-003;4.026344045996666E-003;
2.424666666666667E+009;1.482371687889099E-001;-1.124482378363609E-001;-3.284065052866936E-003;4.096786025911570E-003;
2.424833333333334E+009;1.483827978372574E-001;-1.137077510356903E-001;-3.085317090153694E-003;4.170112777501345E-003;
2.425000000000000E+009;1.486193835735321E-001;-1.149485632777214E-001;-2.910710871219635E-003;4.225469194352627E-003;
2.425166666666667E+009;1.488320976495743E-001;-1.159338951110840E-001;-2.749390201643109E-003;4.274856764823198E-003;
2.425333333333334E+009;1.492318809032440E-001;-1.167926564812660E-001;-2.700662473216653E-003;4.314750898629427E-003;
2.425500000000000E+009;1.494874507188797E-001;-1.177312806248665E-001;-2.340445760637522E-003;4.275173414498568E-003;
2.425666666666667E+009;1.494835615158081E-001;-1.186285912990570E-001;-2.276328857988119E-003;4.265633877366781E-003;
2.425833333333334E+009;1.498668938875198E-001;-1.192890852689743E-001;-2.088102046400309E-003;4.357236903160811E-003;
2.426000000000000E+009;1.499481499195099E-001;-1.200476810336113E-001;-2.120408462360501E-003;4.318776074796915E-003;
2.426166666666667E+009;1.502345651388168E-001;-1.206002533435822E-001;-1.865311409346759E-003;4.350531380623579E-003;
2.426333333333334E+009;1.502052843570709E-001;-1.210381165146828E-001;-1.737393322400749E-003;4.247868433594704E-003;
2.426500000000000E+009;1.502992212772369E-001;-1.214511618018150E-001;-1.558313495479524E-003;4.225183278322220E-003;
2.426666666666667E+009;1.503830850124359E-001;-1.218524575233460E-001;-1.581638702191412E-003;4.152504261583090E-003;
2.426833333333334E+009;1.500942260026932E-001;-1.222132518887520E-001;-1.310163177549839E-003;4.364863503724337E-003;
2.427000000000000E+009;1.499048620462418E-001;-1.226146817207336E-001;-1.081605674698949E-003;4.165936727076769E-003;
2.427166666666667E+009;1.496687531471252E-001;-1.226363703608513E-001;-1.049039303325117E-003;4.220323171466589E-003;
2.427333333333334E+009;1.492985635995865E-001;-1.229661777615547E-001;-9.812207426875830E-004;4.169985186308622E-003;
2.427500000000000E+009;1.490625292062759E-001;-1.231656149029732E-001;-7.518991478718817E-004;4.261482041329145E-003;
2.427666666666667E+009;1.485158950090408E-001;-1.233833730220795E-001;-7.429611869156361E-004;4.114726092666388E-003;
