# Version 1.00
#
freq[Hz];re:Trc1_S11;im:Trc1_S11;re:Trc2_S21;im:Trc2_S21;
2.400000000000000E+009;1.559298038482666E-001;6.179206818342209E-002;-4.413767252117395E-003;-9.612796566216275E-005;
2.400166666666667E+009;1.559430211782455E-001;6.008025631308556E-002;-4.618659615516663E-003;-1.249990164069459E-004;
2.400333333333334E+009;1.557770669460297E-001;5.815782025456429E-002;-4.633036442101002E-003;-8.595550025347620E-005;
2.400500000000000E+009;1.559212952852249E-001;5.602328479290009E-002;-4.725833889096975E-003;7.626322621945292E-005;
2.400666666666667E+009;1.558599472045898E-001;5.390706285834312E-002;-4.870311822742224E-003;1.553356123622507E-004;
2.400833333333334E+009;1.564167588949204E-001;5.199546366930008E-002;-4.760002717375755E-003;2.885761496145278E-004;
2.401000000000000E+009;1.563255935907364E-001;4.970397427678108E-002;-4.844773560762405E-003;3.900143201462925E-004;
2.401166666666667E+009;1.565727293491364E-001;4.763428866863251E-002;-4.856747575104237E-003;4.314516554586589E-004;
2.401333333333334E+009;1.570419967174530E-001;4.549701511859894E-002;-4.823501687496901E-003;6.517269066534936E-004;
2.401500000000000E+009;1.573964804410934E-001;4.340779036283493E-002;-4.921921063214541E-003;7.850403198972344E-004;
2.401666666666667E+009;1.579281240701675E-001;4.136236011981964E-002;-5.148076452314854E-003;1.014123437926173E-003;
2.401833333333334E+009;1.585550606250763E-001;3.928845003247261E-002;-5.020137410610914E-003;1.215790514834225E-003;
2.402000000000000E+009;1.589482128620148E-001;3.714893758296967E-002;-4.948119632899761E-003;1.282636076211929E-003;
2.402166666666667E+009;1.597797572612763E-001;3.520105034112930E-002;-4.933096934109926E-003;1.435917802155018E-003;
2.402333333333334E+009;1.604167222976685E-001;3.337174654006958E-002;-4.876355640590191E-003;1.619947608560324E-003;
2.402500000000000E+009;1.615696847438812E-001;3.158632293343544E-002;-4.981238860636950E-003;1.740288222208619E-003;
2.402666666666667E+009;1.622032970190048E-001;3.000141121447086E-002;-4.851327743381262E-003;1.888227881863713E-003;
2.402833333333334E+009;1.632671356201172E-001;2.835855260491371E-002;-4.849980585277081E-003;2.153144450858235E-003;
2.403000000000000E+009;1.640622019767761E-001;2.668075077235699E-002;-4.790385253727436E-003;2.027451060712338E-003;
2.403166666666667E+009;1.651739180088043E-001;2.536775916814804E-002;-4.645965527743101E-003;2.251111669465900E-003;
2.403333333333334E+009;1.662854999303818E-001;2.384967543184757E-002;-4.835090134292841E-003;2.608582377433777E-003;
2.403500000000000E+009;1.671619564294815E-001;2.263522148132324E-002;-4.542416427284479E-003;2.856744453310967E-003;
2.403666666666667E+009;1.682886332273483E-001;2.116692438721657E-002;-4.645123612135649E-003;2.787783741950989E-003;
2.403833333333334E+009;1.694670915603638E-001;2.008224092423916E-002;-4.829994402825832E-003;2.938167424872518E-003;
2.404000000000000E+009;1.705573797225952E-001;1.903300918638706E-002;-4.615983925759792E-003;3.156960941851139E-003;
2.404166666666667E+009;1.715366393327713E-001;1.802674680948257E-002;-4.481913987547159E-003;3.449163399636746E-003;
2.404333333333334E+009;1.724264472723007E-001;1.730011217296124E-002;-4.522257018834353E-003;3.434662008658052E-003;
2.404500000000000E+009;1.734649688005447E-001;1.630827039480209E-002;-4.661814775317907E-003;3.706473857164383E-003;
2.404666666666667E+009;1.745391190052033E-001;1.561558526009321E-002;-4.210685379803181E-003;3.819907084107399E-003;
2.404833333333334E+009;1.754751503467560E-001;1.502679660916328E-002;-3.979243338108063E-003;3.969859331846237E-003;
2.405000000000000E+009;1.763578951358795E-001;1.441173907369375E-002;-4.080160520970821E-003;4.011298995465040E-003;
2.405166666666667E+009;1.771024465560913E-001;1.399654056876898E-002;-3.911155276000500E-003;4.421714693307877E-003;
2.405333333333334E+009;1.780113875865936E-001;1.340482290834189E-002;-3.816682845354080E-003;4.434240050613880E-003;
2.405500000000000E+009;1.786950975656509E-001;1.317041181027889E-002;-3.622082527726889E-003;4.627983551472426E-003;
2.405666666666667E+009;1.791431307792664E-001;1.281607896089554E-002;-3.524544881656766E-003;4.857004154473543E-003;
2.405833333333334E+009;1.796398460865021E-001;1.274657435715199E-002;-3.272106405347586E-003;4.852142184972763E-003;
2.406000000000000E+009;1.801959574222565E-001;1.222480274736881E-002;-3.067372599616647E-003;5.078027490526438E-003;
2.406166666666667E+009;1.804815232753754E-001;1.197737082839012E-002;-2.925813663750887E-003;5.321642383933067E-003;
2.406333333333334E+009;1.810522824525833E-001;1.193250995129347E-002;-2.848748816177249E-003;5.311185494065285E-003;
2.406500000000000E+009;1.810745596885681E-001;1.161048840731382E-002;-2.448518062010407E-003;5.346566904336214E-003;
2.406666666666667E+009;1.810914278030396E-001;1.143158599734306E-002;-2.259990200400353E-003;5.502636544406414E-003;
2.406833333333334E+009;1.811132580041885E-001;1.116766687482595E-002;-2.191904932260513E-003;5.585983861237764E-003;
2.407000000000000E+009;1.811798214912415E-001;1.096456777304411E-002;-1.832305453717709E-003;5.799678154289722E-003;
2.407166666666667E+009;1.811166107654572E-001;1.069080550223589E-002;-1.502177561633289E-003;5.627935286611319E-003;
2.407333333333334E+009;1.807558685541153E-001;1.031121797859669E-002;-1.458828104659915E-003;5.704650189727545E-003;
2.407500000000000E+009;1.803736090660095E-001;9.833543561398983E-003;-1.243044389411807E-003;5.863835569471121E-003;
2.407666666666667E+009;1.801116913557053E-001;9.449723176658154E-003;-9.097939473576844E-004;5.717757623642683E-003;
2.407833333333334E+009;1.794325262308121E-001;8.646287955343723E-003;-8.036516956053674E-004;5.660809110850096E-003;
2.408000000000000E+009;1.790480613708496E-001;8.018149994313717E-003;-6.606192328035832E-004;5.959372501820326E-003;
2.408166666666667E+009;1.783787012100220E-001;7.347869221121073E-003;-4.214796936139464E-004;5.744776688516140E-003;
2.408333333333334E+009;1.778895556926727E-001;6.753455381840468E-003;-3.188815317116678E-004;5.743899848312140E-003;
2.408500000000000E+009;1.771221607923508E-001;5.709480494260788E-003;-1.636239903746173E-004;5.824305582791567E-003;
2.408666666666667E+009;1.763682514429092E-001;4.580733831971884E-003;-1.613656786503270E-005;5.612335167825222E-003;
2.408833333333334E+009;1.753818094730377E-001;3.581537865102291E-003;1.763508189469576E-004;5.697047337889671E-003;
2.409000000000000E+009;1.746854037046433E-001;2.424036618322134E-003;3.419394197408110E-004;5.750868935137987E-003;
2.409166666666667E+009;1.739090234041214E-001;1.106094801798463E-003;3.969800309278071E-004;5.533101037144661E-003;
2.409333333333334E+009;1.732529699802399E-001;-3.113873535767198E-004;7.289893692359328E-004;5.613184068351984E-003;
2.409500000000000E+009;1.722425520420075E-001;-1.730725402012467E-003;7.729751523584127E-004;5.470439791679382E-003;
2.409666666666667E+009;1.715024560689926E-001;-3.103515831753612E-003;8.062820415943861E-004;5.602488294243813E-003;
2.409833333333334E+009;1.708575636148453E-001;-4.623390268534422E-003;1.063747098669410E-003;5.430596414953470E-003;
2.410000000000000E+009;1.700922399759293E-001;-6.371754221618176E-003;1.345338299870491E-003;5.393810104578733E-003;
2.410166666666667E+009;1.695209890604019E-001;-8.052936755120754E-003;1.389688346534967E-003;5.297293886542320E-003;
2.410333333333334E+009;1.689252853393555E-001;-9.962996467947960E-003;1.617214526049793E-003;5.145238712430000E-003;
2.410500000000000E+009;1.683693826198578E-001;-1.173982862383127E-002;1.725452370010316E-003;5.231452174484730E-003;
2.410666666666667E+009;1.678803563117981E-001;-1.377607975155115E-002;1.890477724373341E-003;5.179476458579302E-003;
2.410833333333334E+009;1.675871461629868E-001;-1.554624736309052E-002;2.117638010531664E-003;5.023553967475891E-003;
2.411000000000000E+009;1.670604795217514E-001;-1.745946891605854E-002;2.163048135116696E-003;4.910429473966360E-003;
2.411166666666667E+009;1.669661253690720E-001;-1.966418512165546E-002;2.193658612668514E-003;4.933226853609085E-003;
2.411333333333334E+009;1.667354851961136E-001;-2.152919024229050E-002;2.464201534166932E-003;4.742566030472517E-003;
2.411500000000000E+009;1.665072888135910E-001;-2.357708290219307E-002;2.509231213480234E-003;4.672287963330746E-003;
2.411666666666667E+009;1.668266057968140E-001;-2.553167194128037E-002;2.661450067535043E-003;4.566554445773363E-003;
2.411833333333334E+009;1.667059063911438E-001;-2.747716568410397E-002;2.894275821745396E-003;4.496532958000898E-003;
2.412000000000000E+009;1.669661551713944E-001;-2.970140799880028E-002;2.796432701870799E-003;4.406533669680357E-003;
2.412166666666667E+009;1.670797616243362E-001;-3.165156766772270E-002;3.005065023899078E-003;4.226363264024258E-003;
2.412333333333334E+009;1.675644963979721E-001;-3.357544541358948E-002;3.158223582431674E-003;4.173916764557362E-003;
2.412500000000000E+009;1.679503023624420E-001;-3.545926511287689E-002;3.074264852330089E-003;3.913001623004675E-003;
2.412666666666667E+009;1.682713925838471E-001;-3.736614435911179E-002;3.300804877653718E-003;3.859119256958365E-003;
2.412833333333334E+009;1.689722239971161E-001;-3.925827145576477E-002;3.476017387583852E-003;3.829044755548239E-003;
2.413000000000000E+009;1.692266464233398E-001;-4.096893221139908E-002;3.444250207394362E-003;3.631289349868894E-003;
2.413166666666667E+009;1.699750721454620E-001;-4.264833405613899E-002;3.450092393904924E-003;3.530689515173435E-003;
2.413333333333334E+009;1.704788506031036E-001;-4.426939412951469E-002;3.481678897514939E-003;3.467280417680740E-003;
2.413500000000000E+009;1.710756272077560E-001;-4.581273347139359E-002;3.782932879403234E-003;3.168153110891581E-003;
2.413666666666667E+009;1.718921363353729E-001;-4.747755080461502E-002;3.690780373290181E-003;3.214519936591387E-003;
2.413833333333334E+009;1.724513173103333E-001;-4.870963469147682E-002;3.985884599387646E-003;2.926762914285064E-003;
2.414000000000000E+009;1.730971783399582E-001;-5.011150240898132E-002;3.895534900948405E-003;2.836135914549232E-003;
2.414166666666667E+009;1.739342510700226E-001;-5.123074725270271E-002;3.956120926886797E-003;2.767437836155295E-003;
2.414333333333334E+009;1.745506078004837E-001;-5.243485420942307E-002;3.832088084891439E-003;2.704418264329433E-003;
2.414500000000000E+009;1.752693802118301E-001;-5.350157991051674E-002;3.889676881954074E-003;2.510248683393002E-003;
2.414666666666667E+009;1.758466809988022E-001;-5.412156507372856E-002;3.963029943406582E-003;2.409841399639845E-003;
2.414833333333334E+009;1.763884574174881E-001;-5.509738251566887E-002;4.083834122866392E-003;2.255470491945744E-003;
2.415000000000000E+009;1.769187301397324E-001;-5.588590353727341E-002;4.024141933768988E-003;2.164923120290041E-003;
2.415166666666667E+009;1.773333400487900E-001;-5.639384686946869E-002;4.060878884047270E-003;2.051816321909428E-003;
2.415333333333334E+009;1.777262240648270E-001;-5.704283714294434E-002;4.139905795454979E-003;1.859814045019448E-003;
2.415500000000000E+009;1.781683117151260E-001;-5.739187449216843E-002;4.022292327135801E-003;1.829016953706741E-003;
2.415666666666667E+009;1.784503906965256E-001;-5.783178657293320E-002;4.123623017221689E-003;1.556647475808859E-003;
2.415833333333334E+009;1.787233501672745E-001;-5.830154567956924E-002;4.013134166598320E-003;1.661910908296704E-003;
2.416000000000000E+009;1.786037087440491E-001;-5.852018296718597E-002;4.214376211166382E-003;1.437514787539840E-003;
2.416166666666667E+009;1.788640320301056E-001;-5.875197425484657E-002;4.057346843183041E-003;1.373357488773763E-003;
2.416333333333334E+009;1.786862909793854E-001;-5.892466008663178E-002;4.172790795564652E-003;1.325250021182001E-003;
2.416500000000000E+009;1.786285042762756E-001;-5.915547162294388E-002;4.100852180272341E-003;1.074652653187513E-003;
2.416666666666667E+009;1.782084852457047E-001;-5.920091271400452E-002;4.259192850440741E-003;1.022110111080110E-003;
2.416833333333334E+009;1.780681461095810E-001;-5.940267443656921E-002;4.213248845189810E-003;1.002182369120419E-003;
2.417000000000000E+009;1.772986948490143E-001;-5.958197265863419E-002;4.110152367502451E-003;8.071897900663316E-004;
2.417166666666667E+009;1.768623143434525E-001;-5.960139632225037E-002;4.335866775363684E-003;7.889298722147942E-004;
2.417333333333334E+009;1.762167513370514E-001;-5.974810943007469E-002;4.112205468118191E-003;5.732988356612623E-004;
2.417500000000000E+009;1.755254715681076E-001;-6.004128605127335E-002;4.139717202633619E-003;6.213195156306028E-004;
2.417666666666667E+009;1.746691465377808E-001;-6.011018157005310E-002;4.269804805517197E-003;3.990310651715845E-004;
2.417833333333334E+009;1.738322377204895E-001;-6.039854511618614E-002;4.205388482660055E-003;3.985433722846210E-004;
2.418000000000000E+009;1.727167665958405E-001;-6.077223643660545E-002;4.210007376968861E-003;2.469322353135794E-004;
2.418166666666667E+009;1.717868894338608E-001;-6.090231612324715E-002;4.230053164064884E-003;7.760123844491318E-005;
2.418333333333334E+009;1.708271652460098E-001;-6.141006574034691E-002;4.275776911526918E-003;7.428087701555342E-005;
2.418500000000000E+009;1.695335209369659E-001;-6.170953810214996E-002;4.069655667990446E-003;-4.728484782390297E-005;
2.418666666666667E+009;1.684613376855850E-001;-6.241242960095406E-002;4.128169268369675E-003;-2.195034467149526E-004;
2.418833333333334E+009;1.669543385505676E-001;-6.294178962707520E-002;4.026181064546108E-003;-3.915890411008149E-004;
2.419000000000000E+009;1.657250374555588E-001;-6.355293095111847E-002;4.177793860435486E-003;-3.366138553246856E-004;
2.419166666666667E+009;1.644662618637085E-001;-6.426031887531281E-002;4.112828988581896E-003;-2.963815641123802E-004;
2.419333333333334E+009;1.629238128662109E-001;-6.502464413642883E-002;3.991501871496439E-003;-6.310046301223338E-004;
2.419500000000000E+009;1.618464291095734E-001;-6.611929088830948E-002;4.055261146277189E-003;-5.879068630747497E-004;
2.419666666666667E+009;1.606346517801285E-001;-6.714086979627609E-002;4.128653556108475E-003;-6.954724667593837E-004;
2.419833333333334E+009;1.592056602239609E-001;-6.808305531740189E-002;3.889137413352728E-003;-8.826495613902807E-004;
2.420000000000000E+009;1.580732017755508E-001;-6.937783956527710E-002;3.986507654190064E-003;-9.449603385291994E-004;
2.420166666666667E+009;1.569361239671707E-001;-7.060036808252335E-002;3.947438206523657E-003;-9.509708615951240E-004;
2.420333333333334E+009;1.558214426040649E-001;-7.198040187358856E-002;3.880655160173774E-003;-1.141907181590796E-003;
2.420500000000000E+009;1.549015194177628E-001;-7.323744148015976E-002;3.742587054148316E-003;-1.028485130518675E-003;
2.420666666666667E+009;1.538971662521362E-001;-7.455002516508102E-002;3.825268708169460E-003;-1.208075205795467E-003;
2.420833333333334E+009;1.529627591371536E-001;-7.623303681612015E-002;3.744538174942136E-003;-1.337612047791481E-003;
2.421000000000000E+009;1.522181332111359E-001;-7.777877897024155E-002;3.735864767804742E-003;-1.387213240377605E-003;
2.421166666666667E+009;1.512901932001114E-001;-7.944479584693909E-002;3.728470299392939E-003;-1.680491841398180E-003;
2.421333333333334E+009;1.506762206554413E-001;-8.121494948863983E-002;3.535307245329022E-003;-1.582673285156488E-003;
2.421500000000000E+009;1.502355784177780E-001;-8.278214186429977E-002;3.627864178270102E-003;-1.681624911725521E-003;
2.421666666666667E+009;1.497682034969330E-001;-8.455397933721542E-002;3.609795588999987E-003;-1.698010135442019E-003;
2.421833333333334E+009;1.494161784648895E-001;-8.636616170406342E-002;3.532210364937782E-003;-1.855065813288093E-003;
2.422000000000000E+009;1.490851193666458E-001;-8.818976581096649E-002;3.330032806843519E-003;-1.893425709567964E-003;
2.422166666666667E+009;1.487749814987183E-001;-8.996806293725967E-002;3.316853428259492E-003;-1.898474525660276E-003;
2.422333333333334E+009;1.487384736537933E-001;-9.189254045486450E-002;3.259040182456374E-003;-2.156957285478711E-003;
2.422500000000000E+009;1.487507075071335E-001;-9.348272532224655E-002;3.231303300708532E-003;-2.127860207110643E-003;
2.422666666666667E+009;1.486792713403702E-001;-9.525491297245026E-002;2.955524250864983E-003;-2.198712434619665E-003;
2.422833333333334E+009;1.487950831651688E-001;-9.707011282444000E-002;2.947975415736437E-003;-2.323960885405541E-003;
2.423000000000000E+009;1.490793526172638E-001;-9.866420179605484E-002;2.907630754634738E-003;-2.272726036608219E-003;
2.423166666666667E+009;1.496065706014633E-001;-1.004057452082634E-001;2.897553145885468E-003;-2.211762359365821E-003;
2.423333333333334E+009;1.499771177768707E-001;-1.017454937100411E-001;2.913477830588818E-003;-2.491412451490760E-003;
2.423500000000000E+009;1.501512676477432E-001;-1.034588143229485E-001;2.761057578027248E-003;-2.254887716844678E-003;
2.423666666666667E+009;1.507150530815125E-001;-1.051342338323593E-001;2.581287408247590E-003;-2.419094089418650E-003;
2.423833333333334E+009;1.512849777936935E-001;-1.063875928521156E-001;2.451852429658175E-003;-2.476453082635999E-003;
2.424000000000000E+009;1.517382264137268E-001;-1.075520217418671E-001;2.508041914552450E-003;-2.376346150413156E-003;
2.424166666666667E+009;1.521502733230591E-001;-1.088584885001183E-001;2.436114940792322E-003;-2.568321302533150E-003;
2.424333333333334E+009;1.528430581092835E-001;-1.101149395108223E-001;2.419861964881420E-003;-2.610303228721023E-003;
2.424500000000000E+009;1.534989029169083E-001;-1.111438721418381E-001;2.459403360262513E-003;-2.548496471717954E-003;
2.424666666666667E+009;1.540743261575699E-001;-1.119808703660965E-001;2.283143810927868E-003;-2.637622877955437E-003;
2.424833333333334E+009;1.544666439294815E-001;-1.130629479885101E-001;2.216804772615433E-003;-2.433522837236524E-003;
2.425000000000000E+009;1.551199406385422E-001;-1.139668524265289E-001;2.194690750911832E-003;-2.628917573019862E-003;
2.425166666666667E+009;1.554275304079056E-001;-1.146619319915772E-001;2.096511656418443E-003;-2.628195565193892E-003;
2.425333333333334E+009;1.558566093444824E-001;-1.151734367012978E-001;2.135065617039800E-003;-2.626871224492788E-003;
2.425500000000000E+009;1.564213186502457E-001;-1.158775612711906E-001;2.104804152622819E-003;-2.590940799564123E-003;
2.425666666666667E+009;1.565911471843720E-001;-1.163260787725449E-001;2.061068080365658E-003;-2.697599818930030E-003;
2.425833333333334E+009;1.568403244018555E-001;-1.167408004403114E-001;1.983885653316975E-003;-2.773798536509275E-003;
2.426000000000000E+009;1.569822281599045E-001;-1.171266511082649E-001;1.959556713700295E-003;-2.663925988599658E-003;
2.426166666666667E+009;1.573050469160080E-001;-1.173306927084923E-001;1.882779761217535E-003;-2.811067271977663E-003;
2.426333333333334E+009;1.572177708148956E-001;-1.176139488816261E-001;1.755959820002317E-003;-2.727192360907793E-003;
2.426500000000000E+009;1.571960002183914E-001;-1.177426576614380E-001;1.838675350882113E-003;-2.829521428793669E-003;
2.426666666666667E+009;1.570766568183899E-001;-1.177716851234436E-001;1.856478978879750E-003;-2.811097539961338E-003;
2.426833333333334E+009;1.568646728992462E-001;-1.178937405347824E-001;1.831476693041623E-003;-3.034940920770168E-003;
2.427000000000000E+009;1.564860939979553E-001;-1.180749610066414E-001;1.760145067237318E-003;-2.975739305838943E-003;
2.427166666666667E+009;1.560269147157669E-001;-1.179957389831543E-001;1.699739485047758E-003;-2.975149080157280E-003;
2.427333333333334E+009;1.553783118724823E-001;-1.180526465177536E-001;1.618804875761271E-003;-2.988387132063508E-003;
2.427500000000000E+009;1.549383103847504E-001;-1.181203350424767E-001;1.613304368220270E-003;-2.947777975350618E-003;
2.427666666666667E+009;1.541358083486557E-001;-1.181646585464478E-001;1.578558469191194E-003;-3.060118993744254E-003;
2.427833333333334E+009;1.531280428171158E-001;-1.181820929050446E-001;1.657196902669966E-003;-3.185073379427195E-003;
