# Version 1.00
#
freq[Hz];re:Trc1_S11;im:Trc1_S11;re:Trc2_S21;im:Trc2_S21;
2.400000000000000E+009;1.729686558246613E-001;4.905817285180092E-002;7.385849487036467E-003;2.149500185623765E-003;
2.400166666666667E+009;1.738881766796112E-001;4.813685268163681E-002;7.669945713132620E-003;1.682751113548875E-003;
2.400333333333334E+009;1.745211035013199E-001;4.730089753866196E-002;7.982452400028706E-003;1.529260654933751E-003;
2.400500000000000E+009;1.745138466358185E-001;4.673288390040398E-002;7.783410139381886E-003;1.226436579599977E-003;
2.400666666666667E+009;1.747204661369324E-001;4.616873338818550E-002;7.765884511172772E-003;1.141330692917109E-003;
2.400833333333334E+009;1.742258965969086E-001;4.595704749226570E-002;7.631659973412752E-003;7.925086538307369E-004;
2.401000000000000E+009;1.750884652137756E-001;4.525197669863701E-002;7.853490300476551E-003;6.287240539677441E-004;
2.401166666666667E+009;1.751946657896042E-001;4.469364136457443E-002;8.129276335239410E-003;3.517930163070560E-004;
2.401333333333334E+009;1.752773076295853E-001;4.379946738481522E-002;8.074857294559479E-003;1.333775435341522E-004;
2.401500000000000E+009;1.754013597965241E-001;4.318039491772652E-002;8.104998618364334E-003;-2.684147038962692E-004;
2.401666666666667E+009;1.751643270254135E-001;4.251635447144508E-002;8.336905390024185E-003;-5.935862427577376E-004;
2.401833333333334E+009;1.752110868692398E-001;4.163952544331551E-002;8.121253922581673E-003;-1.060368027538061E-003;
2.402000000000000E+009;1.750859916210175E-001;4.087062552571297E-002;8.189208805561066E-003;-1.353684114292264E-003;
2.402166666666667E+009;1.749628186225891E-001;3.985499590635300E-002;8.085394278168678E-003;-1.655704225413501E-003;
2.402333333333334E+009;1.744865328073502E-001;3.916069120168686E-002;8.128939196467400E-003;-1.924843876622617E-003;
2.402500000000000E+009;1.746325343847275E-001;3.812430053949356E-002;8.283870294690132E-003;-2.351155504584312E-003;
2.402666666666667E+009;1.743523031473160E-001;3.701522946357727E-002;7.937965914607048E-003;-2.641483675688505E-003;
2.402833333333334E+009;1.740106642246246E-001;3.570364415645599E-002;7.932080887258053E-003;-3.104606876149774E-003;
2.403000000000000E+009;1.737499684095383E-001;3.463435545563698E-002;7.649728097021580E-003;-3.236988326534629E-003;
2.403166666666667E+009;1.735013276338577E-001;3.330137953162193E-002;7.507749833166599E-003;-3.943616524338722E-003;
2.403333333333334E+009;1.731628030538559E-001;3.184521198272705E-002;7.216357626020908E-003;-3.981065470725298E-003;
2.403500000000000E+009;1.727257817983627E-001;3.037400543689728E-002;6.842582020908594E-003;-4.213850479573011E-003;
2.403666666666667E+009;1.724794358015060E-001;2.861081250011921E-002;6.795656401664019E-003;-4.490668419748545E-003;
2.403833333333334E+009;1.721471846103668E-001;2.707665041089058E-002;6.460713222622871E-003;-4.734634421765804E-003;
2.404000000000000E+009;1.717998236417770E-001;2.521947026252747E-002;6.219859234988689E-003;-4.958222154527903E-003;
2.404166666666667E+009;1.713601201772690E-001;2.339748106896877E-002;5.965540185570717E-003;-5.049970932304859E-003;
2.404333333333334E+009;1.712632775306702E-001;2.173283696174622E-002;5.818804726004601E-003;-5.127536132931709E-003;
2.404500000000000E+009;1.708045750856400E-001;1.958868838846684E-002;5.526117049157620E-003;-5.308661144226790E-003;
2.404666666666667E+009;1.706321984529495E-001;1.779101043939591E-002;5.092413164675236E-003;-5.358159076422453E-003;
2.404833333333334E+009;1.705026775598526E-001;1.589396968483925E-002;5.023904610425234E-003;-5.457415245473385E-003;
2.405000000000000E+009;1.703860461711884E-001;1.389523409307003E-002;4.821624606847763E-003;-5.476918537169695E-003;
2.405166666666667E+009;1.702453494071960E-001;1.185422670096159E-002;4.583179950714111E-003;-5.477368365973234E-003;
2.405333333333334E+009;1.703777760267258E-001;9.513800032436848E-003;4.491319414228201E-003;-5.652014631778002E-003;
2.405500000000000E+009;1.704986691474915E-001;7.733007427304983E-003;4.208629950881004E-003;-5.657222121953964E-003;
2.405666666666667E+009;1.704923808574677E-001;5.696222186088562E-003;4.243906121701002E-003;-5.675650667399168E-003;
2.405833333333334E+009;1.706485450267792E-001;3.643999109044671E-003;4.047281108796597E-003;-5.904598161578178E-003;
2.406000000000000E+009;1.710602492094040E-001;1.504246494732797E-003;3.888794220983982E-003;-5.681008100509644E-003;
2.406166666666667E+009;1.712599098682404E-001;-4.908103146590293E-004;3.907800186425448E-003;-5.808619782328606E-003;
2.406333333333334E+009;1.718694120645523E-001;-2.410435117781162E-003;3.704101545736194E-003;-5.780011881142855E-003;
2.406500000000000E+009;1.721502542495728E-001;-4.497931804507971E-003;3.747323062270880E-003;-5.869264248758555E-003;
2.406666666666667E+009;1.725463420152664E-001;-6.465571466833353E-003;3.489085007458925E-003;-6.082216743379831E-003;
2.406833333333334E+009;1.732365936040878E-001;-8.466851897537708E-003;3.512831171974540E-003;-6.121313199400902E-003;
2.407000000000000E+009;1.737121939659119E-001;-1.039005443453789E-002;3.452880540862680E-003;-6.085712462663651E-003;
2.407166666666667E+009;1.745761036872864E-001;-1.209529023617506E-002;3.251859219744802E-003;-6.333471275866032E-003;
2.407333333333334E+009;1.751496493816376E-001;-1.400063652545214E-002;3.225585911422968E-003;-6.657379213720560E-003;
2.407500000000000E+009;1.759657859802246E-001;-1.568054221570492E-002;3.142314730212092E-003;-6.644391454756260E-003;
2.407666666666667E+009;1.767014414072037E-001;-1.724107377231121E-002;2.971330657601357E-003;-6.973623763769865E-003;
2.407833333333334E+009;1.771762371063232E-001;-1.908846944570541E-002;2.834267681464553E-003;-7.016931660473347E-003;
2.408000000000000E+009;1.780870854854584E-001;-2.075191028416157E-002;2.702348167076707E-003;-7.234247867017984E-003;
2.408166666666667E+009;1.787851750850678E-001;-2.208545431494713E-002;2.415461698547006E-003;-7.497909944504499E-003;
2.408333333333334E+009;1.797316074371338E-001;-2.350360900163651E-002;2.195749431848526E-003;-7.842926308512688E-003;
2.408500000000000E+009;1.802349835634232E-001;-2.494576387107372E-002;2.092796145007014E-003;-7.885192520916462E-003;
2.408666666666667E+009;1.808735877275467E-001;-2.622099965810776E-002;1.694977749139071E-003;-8.071309886872768E-003;
2.408833333333334E+009;1.812707036733627E-001;-2.749394997954369E-002;1.430553616955876E-003;-8.249700069427490E-003;
2.409000000000000E+009;1.817938834428787E-001;-2.838379330933094E-002;1.127291587181389E-003;-8.378955535590649E-003;
2.409166666666667E+009;1.823003292083740E-001;-2.954405732452869E-002;7.753619574941695E-004;-8.704499341547489E-003;
2.409333333333334E+009;1.828539967536926E-001;-3.025999292731285E-002;4.213371721561998E-004;-8.606430143117905E-003;
2.409500000000000E+009;1.829642504453659E-001;-3.123057447373867E-002;9.345174476038665E-005;-8.787626400589943E-003;
2.409666666666667E+009;1.833567619323731E-001;-3.178856149315834E-002;-3.083609917666763E-004;-9.027106687426567E-003;
2.409833333333334E+009;1.834982335567474E-001;-3.220484778285027E-002;-5.814050091430545E-004;-9.099815040826798E-003;
2.410000000000000E+009;1.837771683931351E-001;-3.279321268200874E-002;-1.212059985846281E-003;-9.100809693336487E-003;
2.410166666666667E+009;1.839925050735474E-001;-3.323060274124146E-002;-1.570915454067290E-003;-9.074700064957142E-003;
2.410333333333334E+009;1.839969009160996E-001;-3.365975990891457E-002;-2.084643114358187E-003;-9.087020531296730E-003;
2.410500000000000E+009;1.838171333074570E-001;-3.407036885619164E-002;-2.475186483934522E-003;-9.173829108476639E-003;
2.410666666666667E+009;1.836611032485962E-001;-3.455118834972382E-002;-2.786111319437623E-003;-9.204196743667126E-003;
2.410833333333334E+009;1.835680454969406E-001;-3.475255891680718E-002;-3.322548232972622E-003;-8.929944597184658E-003;
2.411000000000000E+009;1.832735836505890E-001;-3.503496572375298E-002;-3.766184207051992E-003;-8.842903189361095E-003;
2.411166666666667E+009;1.830851137638092E-001;-3.532858565449715E-002;-4.140697885304689E-003;-8.720905520021915E-003;
2.411333333333334E+009;1.825889796018601E-001;-3.569768369197846E-002;-4.555356688797474E-003;-8.530286140739918E-003;
2.411500000000000E+009;1.819569170475006E-001;-3.611141443252564E-002;-5.007427651435137E-003;-8.311457931995392E-003;
2.411666666666667E+009;1.812785416841507E-001;-3.640804067254067E-002;-5.439723376184702E-003;-8.085273206233978E-003;
2.411833333333334E+009;1.805987060070038E-001;-3.683743998408318E-002;-5.950425285845995E-003;-7.719479501247406E-003;
2.412000000000000E+009;1.799915283918381E-001;-3.727573901414871E-002;-6.258631125092506E-003;-7.526396773755550E-003;
2.412166666666667E+009;1.789390742778778E-001;-3.777926787734032E-002;-6.492134183645248E-003;-7.029544562101364E-003;
2.412333333333334E+009;1.779296547174454E-001;-3.812707588076592E-002;-6.900263018906117E-003;-6.613477598875761E-003;
2.412500000000000E+009;1.769490391016007E-001;-3.882420808076859E-002;-7.209187373518944E-003;-6.354329176247120E-003;
2.412666666666667E+009;1.758370250463486E-001;-3.960825875401497E-002;-7.510350551456213E-003;-5.801361985504627E-003;
2.412833333333334E+009;1.747018098831177E-001;-4.022194817662239E-002;-7.713116705417633E-003;-5.397270433604717E-003;
2.413000000000000E+009;1.733434647321701E-001;-4.083530604839325E-002;-7.686038967221975E-003;-5.044976249337196E-003;
2.413166666666667E+009;1.719407737255096E-001;-4.167217761278153E-002;-7.939961738884449E-003;-4.493243526667357E-003;
2.413333333333334E+009;1.707686781883240E-001;-4.259356111288071E-002;-8.093682117760181E-003;-3.961820621043444E-003;
2.413500000000000E+009;1.696034371852875E-001;-4.362494125962257E-002;-8.037708699703217E-003;-3.648008918389678E-003;
2.413666666666667E+009;1.684691309928894E-001;-4.471917822957039E-002;-8.125685155391693E-003;-3.247845917940140E-003;
2.413833333333334E+009;1.670339256525040E-001;-4.566567391157150E-002;-8.264209143817425E-003;-2.794260857626796E-003;
2.414000000000000E+009;1.656832993030548E-001;-4.704341292381287E-002;-8.066698908805847E-003;-2.399666933342814E-003;
2.414166666666667E+009;1.644497513771057E-001;-4.820448160171509E-002;-7.935538887977600E-003;-1.911064726300538E-003;
2.414333333333334E+009;1.631239205598831E-001;-4.957548901438713E-002;-8.033428341150284E-003;-1.680754707194865E-003;
2.414500000000000E+009;1.623310148715973E-001;-5.093717947602272E-002;-7.913033477962017E-003;-1.230136607773602E-003;
2.414666666666667E+009;1.609933823347092E-001;-5.248054862022400E-002;-7.604816928505898E-003;-9.304061532020569E-004;
2.414833333333334E+009;1.598183363676071E-001;-5.412182584404945E-002;-7.642298005521298E-003;-7.056934991851449E-004;
2.415000000000000E+009;1.588275134563446E-001;-5.569962784647942E-002;-7.380058523267508E-003;-2.883291454054415E-004;
2.415166666666667E+009;1.577772498130798E-001;-5.728175863623619E-002;-7.281139492988586E-003;-1.964823459275067E-004;
2.415333333333334E+009;1.572164595127106E-001;-5.918601155281067E-002;-7.059189025312662E-003;5.634992339764722E-005;
2.415500000000000E+009;1.564512103796005E-001;-6.085397303104401E-002;-7.105582393705845E-003;4.162588738836348E-004;
2.415666666666667E+009;1.556822359561920E-001;-6.275753676891327E-002;-6.627899594604969E-003;4.299306601751596E-004;
2.415833333333334E+009;1.549026221036911E-001;-6.465291976928711E-002;-6.592236924916506E-003;6.419225828722119E-004;
2.416000000000000E+009;1.544085592031479E-001;-6.668467074632645E-002;-6.484256591647863E-003;8.848588331602514E-004;
2.416166666666667E+009;1.540599465370178E-001;-6.851372122764587E-002;-6.297439336776733E-003;1.138136605732143E-003;
2.416333333333334E+009;1.534861475229263E-001;-7.042980939149857E-002;-6.096046417951584E-003;1.157773309387267E-003;
2.416500000000000E+009;1.531576067209244E-001;-7.244588434696198E-002;-5.891482345759869E-003;1.526592299342156E-003;
2.416666666666667E+009;1.527814418077469E-001;-7.439855486154556E-002;-5.845715291798115E-003;1.610265928320587E-003;
2.416833333333334E+009;1.527406275272369E-001;-7.640662789344788E-002;-5.656444467604160E-003;1.789938774891198E-003;
2.417000000000000E+009;1.521730124950409E-001;-7.831278443336487E-002;-5.566885694861412E-003;1.848847605288029E-003;
2.417166666666667E+009;1.522234380245209E-001;-8.003770560026169E-002;-5.365701857954264E-003;1.948799123056233E-003;
2.417333333333334E+009;1.521289646625519E-001;-8.170951902866364E-002;-5.141840316355228E-003;2.131263492628932E-003;
2.417500000000000E+009;1.519873142242432E-001;-8.355505764484406E-002;-4.883029963821173E-003;2.206922043114901E-003;
2.417666666666667E+009;1.522300988435745E-001;-8.508331328630447E-002;-4.737003240734339E-003;2.245845971629024E-003;
2.417833333333334E+009;1.522284746170044E-001;-8.656609803438187E-002;-4.591329488903284E-003;2.315216930583119E-003;
2.418000000000000E+009;1.522944122552872E-001;-8.812296390533447E-002;-4.335250239819288E-003;2.497198991477490E-003;
2.418166666666667E+009;1.523192971944809E-001;-8.938679099082947E-002;-4.350686911493540E-003;2.344290260225534E-003;
2.418333333333334E+009;1.527627259492874E-001;-9.079142659902573E-002;-4.113501869142056E-003;2.289943629875779E-003;
2.418500000000000E+009;1.527584344148636E-001;-9.184058010578156E-002;-4.069534130394459E-003;2.344007370993495E-003;
2.418666666666667E+009;1.530460268259049E-001;-9.295243769884110E-002;-3.787471679970622E-003;2.283635549247265E-003;
2.418833333333334E+009;1.530699133872986E-001;-9.389187395572662E-002;-3.682471578940749E-003;2.172074746340513E-003;
2.419000000000000E+009;1.532823890447617E-001;-9.471620619297028E-002;-3.821937600150704E-003;2.132082125172019E-003;
2.419166666666667E+009;1.535776555538178E-001;-9.548569470643997E-002;-3.589963540434837E-003;2.166660036891699E-003;
2.419333333333334E+009;1.536123007535934E-001;-9.591269493103027E-002;-3.690774319693446E-003;2.233242150396109E-003;
2.419500000000000E+009;1.538448929786682E-001;-9.655725210905075E-002;-3.665597876533866E-003;2.172714332118630E-003;
2.419666666666667E+009;1.541077792644501E-001;-9.686296433210373E-002;-3.793108277022839E-003;2.178508555516601E-003;
2.419833333333334E+009;1.542122215032578E-001;-9.690053015947342E-002;-3.802170278504491E-003;2.129423199221492E-003;
2.420000000000000E+009;1.543275713920593E-001;-9.720234572887421E-002;-3.834349103271961E-003;2.151823136955500E-003;
2.420166666666667E+009;1.543048620223999E-001;-9.726848453283310E-002;-3.886266378685832E-003;2.187632955610752E-003;
2.420333333333334E+009;1.544324457645416E-001;-9.717442095279694E-002;-3.889746498316526E-003;2.355196513235569E-003;
2.420500000000000E+009;1.545959562063217E-001;-9.700106829404831E-002;-3.914269153028727E-003;2.410357585176826E-003;
2.420666666666667E+009;1.544109731912613E-001;-9.686472266912460E-002;-3.987059928476811E-003;2.669087611138821E-003;
2.420833333333334E+009;1.543155163526535E-001;-9.662252664566040E-002;-4.028301686048508E-003;2.734606619924307E-003;
2.421000000000000E+009;1.539603769779205E-001;-9.646493196487427E-002;-4.080510698258877E-003;3.052304498851299E-003;
2.421166666666667E+009;1.539115756750107E-001;-9.606923907995224E-002;-3.966886084526777E-003;3.158177714794874E-003;
2.421333333333334E+009;1.537145078182221E-001;-9.583542495965958E-002;-3.991608973592520E-003;3.324771299958229E-003;
2.421500000000000E+009;1.532406806945801E-001;-9.550492465496063E-002;-3.893850836902857E-003;3.494566073641181E-003;
2.421666666666667E+009;1.527258157730103E-001;-9.514528512954712E-002;-3.849147353321314E-003;3.938025329262018E-003;
2.421833333333334E+009;1.522678136825562E-001;-9.468475729227066E-002;-3.822754370048642E-003;4.074311349540949E-003;
2.422000000000000E+009;1.513869315385819E-001;-9.441425651311874E-002;-3.661807626485825E-003;4.204078111797571E-003;
2.422166666666667E+009;1.507802158594132E-001;-9.456330537796021E-002;-3.533650189638138E-003;4.470014944672585E-003;
2.422333333333334E+009;1.498899608850479E-001;-9.405693411827087E-002;-3.290625754743815E-003;4.675784148275852E-003;
2.422500000000000E+009;1.486959308385849E-001;-9.372550249099731E-002;-3.134695813059807E-003;5.014644935727119E-003;
2.422666666666667E+009;1.476796418428421E-001;-9.375884383916855E-002;-3.044990822672844E-003;5.184908863157034E-003;
2.422833333333334E+009;1.466525346040726E-001;-9.390065073966980E-002;-2.581875538453460E-003;5.220143590122461E-003;
2.423000000000000E+009;1.452190428972244E-001;-9.355503320693970E-002;-2.359309000894427E-003;5.462185945361853E-003;
2.423166666666667E+009;1.441003680229187E-001;-9.375189989805222E-002;-2.074543619528413E-003;5.580301862210035E-003;
2.423333333333334E+009;1.426449269056320E-001;-9.365568310022354E-002;-1.885836827568710E-003;5.602226126939058E-003;
2.423500000000000E+009;1.412703841924667E-001;-9.392245858907700E-002;-1.407002564519644E-003;5.734026897698641E-003;
2.423666666666667E+009;1.396126598119736E-001;-9.409099072217941E-002;-1.202129991725087E-003;5.788675975054503E-003;
2.423833333333334E+009;1.383590996265411E-001;-9.435217827558518E-002;-7.435060688294470E-004;5.564316641539335E-003;
2.424000000000000E+009;1.366035193204880E-001;-9.460086375474930E-002;-4.154512716922909E-004;5.588340573012829E-003;
2.424166666666667E+009;1.349804997444153E-001;-9.498301148414612E-002;-5.912841879762709E-005;5.743704270571470E-003;
2.424333333333334E+009;1.336151808500290E-001;-9.540938585996628E-002;2.173604298150167E-004;5.473952740430832E-003;
2.424500000000000E+009;1.321962177753449E-001;-9.598696231842041E-002;5.325289675965905E-004;5.419884808361530E-003;
2.424666666666667E+009;1.306713074445725E-001;-9.648161381483078E-002;7.730975630693138E-004;5.221302155405283E-003;
2.424833333333334E+009;1.290394514799118E-001;-9.722403436899185E-002;1.001953496597707E-003;4.986777435988188E-003;
2.425000000000000E+009;1.276853382587433E-001;-9.818181395530701E-002;1.506327185779810E-003;4.744221922010183E-003;
2.425166666666667E+009;1.263179928064346E-001;-9.909977763891220E-002;1.643411931581795E-003;4.630112089216709E-003;
2.425333333333334E+009;1.250295937061310E-001;-1.001175120472908E-001;1.660529756918550E-003;4.293378908187151E-003;
2.425500000000000E+009;1.239791139960289E-001;-1.013092175126076E-001;1.737277489155531E-003;3.869842737913132E-003;
2.425666666666667E+009;1.225683540105820E-001;-1.023948118090630E-001;2.103895647451282E-003;3.709059441462159E-003;
2.425833333333334E+009;1.215905025601387E-001;-1.035343036055565E-001;2.023109234869480E-003;3.432279219850898E-003;
2.426000000000000E+009;1.205925568938255E-001;-1.049510389566422E-001;2.169760409742594E-003;3.185151377692819E-003;
2.426166666666667E+009;1.198101341724396E-001;-1.063830927014351E-001;2.195835812017322E-003;2.937315264716744E-003;
2.426333333333334E+009;1.188361272215843E-001;-1.078060567378998E-001;2.054917626082897E-003;2.679064637050033E-003;
2.426500000000000E+009;1.182384267449379E-001;-1.093048974871635E-001;2.139111049473286E-003;2.429350744932890E-003;
2.426666666666667E+009;1.176160126924515E-001;-1.107723712921143E-001;1.951933489181101E-003;2.145873382687569E-003;
2.426833333333334E+009;1.170421838760376E-001;-1.123509183526039E-001;1.965067582204938E-003;1.874424400739372E-003;
2.427000000000000E+009;1.164125129580498E-001;-1.141026541590691E-001;1.876922440715134E-003;1.765569788403809E-003;
2.427166666666667E+009;1.159911602735519E-001;-1.156147122383118E-001;1.825069892220199E-003;1.452941796742380E-003;
2.427333333333334E+009;1.156423911452293E-001;-1.172604039311409E-001;1.746659283526242E-003;1.430242438800633E-003;
2.427500000000000E+009;1.154932975769043E-001;-1.187642589211464E-001;1.572865643538535E-003;1.253018155694008E-003;
2.427666666666667E+009;1.151805743575096E-001;-1.203791648149490E-001;1.321983058005571E-003;9.736159117892385E-004;
