# Version 1.00
#
freq[Hz];re:Trc1_S11;im:Trc1_S11;re:Trc2_S21;im:Trc2_S21;
2.400000000000000E+009;1.571097075939179E-001;6.310603022575378E-002;-3.959489520639181E-003;9.031409281305969E-004;
2.400166666666667E+009;1.569575369358063E-001;6.142078712582588E-002;-3.974921070039272E-003;1.140639418736100E-003;
2.400333333333334E+009;1.569304913282394E-001;5.946691706776619E-002;-4.053519573062658E-003;1.134584308601916E-003;
2.400500000000000E+009;1.568530797958374E-001;5.760318785905838E-002;-3.935568034648895E-003;1.396235777065158E-003;
2.400666666666667E+009;1.567173451185226E-001;5.563642457127571E-002;-3.889118786901236E-003;1.560854027047753E-003;
2.400833333333334E+009;1.570382416248322E-001;5.346624180674553E-002;-3.834448056295514E-003;1.573626766912639E-003;
2.401000000000000E+009;1.570062786340714E-001;5.143949016928673E-002;-3.832422662526369E-003;1.801513717509806E-003;
2.401166666666667E+009;1.572334170341492E-001;4.912054538726807E-002;-3.743547480553389E-003;1.933740219101310E-003;
2.401333333333334E+009;1.574730426073074E-001;4.704954847693443E-002;-3.762846114113927E-003;2.039814367890358E-003;
2.401500000000000E+009;1.578004509210587E-001;4.511506855487824E-002;-3.855707822367549E-003;2.123253885656595E-003;
2.401666666666667E+009;1.580713540315628E-001;4.301101714372635E-002;-3.696378320455551E-003;2.251243218779564E-003;
2.401833333333334E+009;1.586942821741104E-001;4.091360419988632E-002;-3.801125334575772E-003;2.347612055018544E-003;
2.402000000000000E+009;1.590086221694946E-001;3.907409310340881E-002;-3.757730359211564E-003;2.503791358321905E-003;
2.402166666666667E+009;1.595985293388367E-001;3.695578128099442E-002;-3.642727620899677E-003;2.825048752129078E-003;
2.402333333333334E+009;1.601158827543259E-001;3.516197577118874E-002;-3.491768147796392E-003;2.945889020338655E-003;
2.402500000000000E+009;1.611007004976273E-001;3.326024487614632E-002;-3.386327065527439E-003;3.098983084782958E-003;
2.402666666666667E+009;1.617700755596161E-001;3.147964552044869E-002;-3.286210587248206E-003;3.136510727927089E-003;
2.402833333333334E+009;1.626219153404236E-001;2.988871559500694E-002;-3.339127870276570E-003;3.356796456500888E-003;
2.403000000000000E+009;1.634584367275238E-001;2.809127420186997E-002;-3.200409002602100E-003;3.493555588647723E-003;
2.403166666666667E+009;1.644828915596008E-001;2.663251385092735E-002;-2.956354990601540E-003;3.720954293385148E-003;
2.403333333333334E+009;1.654870361089706E-001;2.522711083292961E-002;-2.872369717806578E-003;3.858973272144795E-003;
2.403500000000000E+009;1.662530899047852E-001;2.386566065251827E-002;-2.993511268869042E-003;4.059330094605684E-003;
2.403666666666667E+009;1.672390401363373E-001;2.232366986572743E-002;-2.719944808632135E-003;4.227139055728912E-003;
2.403833333333334E+009;1.685744673013687E-001;2.117797546088696E-002;-2.512154402211309E-003;4.397664684802294E-003;
2.404000000000000E+009;1.694501042366028E-001;1.998731680214405E-002;-2.282162196934223E-003;4.535271786153317E-003;
2.404166666666667E+009;1.703947335481644E-001;1.873008161783218E-002;-2.140671480447054E-003;4.635560326278210E-003;
2.404333333333334E+009;1.712860316038132E-001;1.795862615108490E-002;-1.983774593099952E-003;4.812568891793490E-003;
2.404500000000000E+009;1.721605211496353E-001;1.695085503160954E-002;-1.761804334819317E-003;4.930992610752583E-003;
2.404666666666667E+009;1.734302639961243E-001;1.621901243925095E-002;-1.635487424209714E-003;5.093597806990147E-003;
2.404833333333334E+009;1.743141412734985E-001;1.533774938434362E-002;-1.329791732132435E-003;5.061995238065720E-003;
2.405000000000000E+009;1.751857995986939E-001;1.450844109058380E-002;-1.035862951539457E-003;5.230844486504793E-003;
2.405166666666667E+009;1.760304570198059E-001;1.412494108080864E-002;-8.873993647284806E-004;5.344534292817116E-003;
2.405333333333334E+009;1.769989430904388E-001;1.343493722379208E-002;-5.247964872978628E-004;5.252471193671227E-003;
2.405500000000000E+009;1.776529550552368E-001;1.303632464259863E-002;-3.365461016073823E-004;5.246939603239298E-003;
2.405666666666667E+009;1.783810257911682E-001;1.264207623898983E-002;-1.725636684568599E-004;5.360524170100689E-003;
2.405833333333334E+009;1.788392364978790E-001;1.234973594546318E-002;9.888387285172939E-005;5.231492687016726E-003;
2.406000000000000E+009;1.795029044151306E-001;1.184360962361097E-002;3.467198403086513E-004;5.243919789791107E-003;
2.406166666666667E+009;1.797542273998261E-001;1.175517030060291E-002;5.533025832846761E-004;5.428209435194731E-003;
2.406333333333334E+009;1.803584545850754E-001;1.143149100244045E-002;8.676959550939500E-004;5.241686012595892E-003;
2.406500000000000E+009;1.804962605237961E-001;1.103483512997627E-002;1.201040344312787E-003;5.419240798801184E-003;
2.406666666666667E+009;1.806437522172928E-001;1.083263289183378E-002;1.299341558478773E-003;5.231860093772411E-003;
2.406833333333334E+009;1.808326840400696E-001;1.044918224215508E-002;1.460634870454669E-003;5.153362173587084E-003;
2.407000000000000E+009;1.810126453638077E-001;1.029260549694300E-002;1.744289300404489E-003;5.003044381737709E-003;
2.407166666666667E+009;1.810174882411957E-001;9.896028786897659E-003;2.015404170379043E-003;5.083521362394095E-003;
2.407333333333334E+009;1.807931512594223E-001;9.506603702902794E-003;2.274827798828483E-003;4.875305108726025E-003;
2.407500000000000E+009;1.806100755929947E-001;9.226383641362190E-003;2.383978338912129E-003;4.537446424365044E-003;
2.407666666666667E+009;1.804742217063904E-001;8.704894222319126E-003;2.571098739281297E-003;4.564029164612293E-003;
2.407833333333334E+009;1.799630224704742E-001;8.055530488491058E-003;2.742307027801871E-003;4.462118726223707E-003;
2.408000000000000E+009;1.796009987592697E-001;7.448022253811359E-003;2.964520826935768E-003;4.313907586038113E-003;
2.408166666666667E+009;1.791404336690903E-001;7.036687340587378E-003;3.178108250722289E-003;4.271420184522867E-003;
2.408333333333334E+009;1.785667389631271E-001;6.178981158882380E-003;3.272394882515073E-003;4.071287810802460E-003;
2.408500000000000E+009;1.780561208724976E-001;5.237990524619818E-003;3.544492181390524E-003;3.923707175999880E-003;
2.408666666666667E+009;1.773993223905563E-001;4.381983075290918E-003;3.653981722891331E-003;3.660241374745965E-003;
2.408833333333334E+009;1.766301393508911E-001;3.446524497121573E-003;3.769444534555078E-003;3.650724189355969E-003;
2.409000000000000E+009;1.759436875581741E-001;2.453388180583715E-003;3.766805399209261E-003;3.369419137015939E-003;
2.409166666666667E+009;1.752776652574539E-001;1.375718857161701E-003;3.888367675244808E-003;3.123066155239940E-003;
2.409333333333334E+009;1.746142208576202E-001;8.645852358313277E-005;4.047154914587736E-003;3.150792326778173E-003;
2.409500000000000E+009;1.737660914659500E-001;-1.212405855767429E-003;4.332227632403374E-003;2.867592498660088E-003;
2.409666666666667E+009;1.730423271656036E-001;-2.648477442562580E-003;4.156596492975950E-003;2.773903543129563E-003;
2.409833333333334E+009;1.723039895296097E-001;-3.887264290824533E-003;4.265208728611469E-003;2.531813923269510E-003;
2.410000000000000E+009;1.718576848506928E-001;-5.586609244346619E-003;4.323760047554970E-003;2.476435154676437E-003;
2.410166666666667E+009;1.710898876190186E-001;-7.216385565698147E-003;4.459655378013849E-003;2.229263074696064E-003;
2.410333333333334E+009;1.704793125391007E-001;-8.957418613135815E-003;4.567992873489857E-003;2.120250370353460E-003;
2.410500000000000E+009;1.699570715427399E-001;-1.058839634060860E-002;4.558976273983717E-003;1.940776593983173E-003;
2.410666666666667E+009;1.694285720586777E-001;-1.239202544093132E-002;4.831702914088965E-003;1.712309778667986E-003;
2.410833333333334E+009;1.690312325954437E-001;-1.424668729305267E-002;4.771367646753788E-003;1.594347646459937E-003;
2.411000000000000E+009;1.686634570360184E-001;-1.611493527889252E-002;4.827132914215326E-003;1.295533613301814E-003;
2.411166666666667E+009;1.682681441307068E-001;-1.818296313285828E-002;4.777497146278620E-003;1.101713161915541E-003;
2.411333333333334E+009;1.678658425807953E-001;-2.016244269907475E-002;4.982411395758390E-003;8.994673262350261E-004;
2.411500000000000E+009;1.677628457546234E-001;-2.224087901413441E-002;5.011558067053556E-003;6.479315925389528E-004;
2.411666666666667E+009;1.677434295415878E-001;-2.415011078119278E-002;5.035760812461376E-003;5.914688808843494E-004;
2.411833333333334E+009;1.678405851125717E-001;-2.602358348667622E-002;5.033804569393396E-003;1.990677119465545E-004;
2.412000000000000E+009;1.678975075483322E-001;-2.804496139287949E-002;5.085561890155077E-003;1.223766012117267E-004;
2.412166666666667E+009;1.679619699716568E-001;-2.999318763613701E-002;5.062658805400133E-003;-9.334247442893684E-005;
2.412333333333334E+009;1.682511866092682E-001;-3.199566900730133E-002;4.894556012004614E-003;-9.529239468974993E-005;
2.412500000000000E+009;1.683347672224045E-001;-3.383107483386993E-002;5.013641901314259E-003;-5.932825151830912E-004;
2.412666666666667E+009;1.687590330839157E-001;-3.588075190782547E-002;5.025084596127272E-003;-8.355923346243799E-004;
2.412833333333334E+009;1.691026538610458E-001;-3.770338743925095E-002;4.818878602236509E-003;-1.042156363837421E-003;
2.413000000000000E+009;1.694515347480774E-001;-3.941579163074493E-002;4.861091263592243E-003;-1.332040061242878E-003;
2.413166666666667E+009;1.699116379022598E-001;-4.115287959575653E-002;4.719769582152367E-003;-1.515705836936832E-003;
2.413333333333334E+009;1.704009771347046E-001;-4.283367469906807E-002;4.598426632583141E-003;-1.815384719520807E-003;
2.413500000000000E+009;1.711800992488861E-001;-4.447090625762940E-002;4.466715734452009E-003;-2.000375650823116E-003;
2.413666666666667E+009;1.716362684965134E-001;-4.603012278676033E-002;4.358836915344000E-003;-2.088891575112939E-003;
2.413833333333334E+009;1.721225678920746E-001;-4.757115617394447E-002;4.166045691817999E-003;-2.465968485921621E-003;
2.414000000000000E+009;1.726265102624893E-001;-4.908016696572304E-002;4.073726478964090E-003;-2.498187823221088E-003;
2.414166666666667E+009;1.734932363033295E-001;-5.012116581201553E-002;3.913464955985546E-003;-2.837427658960223E-003;
2.414333333333334E+009;1.739218682050705E-001;-5.142017453908920E-002;3.613544860854745E-003;-2.746951300650835E-003;
2.414500000000000E+009;1.746916025876999E-001;-5.250740423798561E-002;3.575919196009636E-003;-3.056224668398500E-003;
2.414666666666667E+009;1.751132011413574E-001;-5.349726602435112E-002;3.399293636903167E-003;-3.010851796716452E-003;
2.414833333333334E+009;1.756909787654877E-001;-5.451219528913498E-002;3.106623655185103E-003;-3.314953297376633E-003;
2.415000000000000E+009;1.761237382888794E-001;-5.534455552697182E-002;2.955147298052907E-003;-3.194635035470128E-003;
2.415166666666667E+009;1.764929741621018E-001;-5.615701526403427E-002;2.868033247068524E-003;-3.499414771795273E-003;
2.415333333333334E+009;1.770907491445541E-001;-5.689933151006699E-002;2.681176178157330E-003;-3.523564897477627E-003;
2.415500000000000E+009;1.774570196866989E-001;-5.733575299382210E-002;2.216878114268184E-003;-3.444809466600418E-003;
2.415666666666667E+009;1.777035295963287E-001;-5.782417953014374E-002;2.175371395424008E-003;-3.581445431336761E-003;
2.415833333333334E+009;1.781019568443298E-001;-5.846394971013069E-002;2.084268955513835E-003;-3.521629841998220E-003;
2.416000000000000E+009;1.779702007770538E-001;-5.884030461311340E-002;1.935768639668822E-003;-3.479643492028117E-003;
2.416166666666667E+009;1.783647239208221E-001;-5.911644175648689E-002;1.692636171355844E-003;-3.496467135846615E-003;
2.416333333333334E+009;1.781425476074219E-001;-5.938757583498955E-002;1.538485637865961E-003;-3.625134238973260E-003;
2.416500000000000E+009;1.781370639801025E-001;-5.975086987018585E-002;1.504214713349938E-003;-3.531574970111251E-003;
2.416666666666667E+009;1.778534948825836E-001;-5.992631241679192E-002;1.445222878828645E-003;-3.625769400969148E-003;
2.416833333333334E+009;1.776797026395798E-001;-6.032412871718407E-002;1.238641678355634E-003;-3.615223336964846E-003;
2.417000000000000E+009;1.771496683359146E-001;-6.033783778548241E-002;1.055851462297142E-003;-3.606023965403438E-003;
2.417166666666667E+009;1.768066883087158E-001;-6.052345782518387E-002;1.004257355816662E-003;-3.554681316018105E-003;
2.417333333333334E+009;1.763143539428711E-001;-6.065081804990768E-002;8.046167786233127E-004;-3.654795931652188E-003;
2.417500000000000E+009;1.755852997303009E-001;-6.107944622635841E-002;9.112829575315118E-004;-3.594205947592855E-003;
2.417666666666667E+009;1.749921292066574E-001;-6.105083227157593E-002;5.951019120402634E-004;-3.566876286640763E-003;
2.417833333333334E+009;1.742848306894302E-001;-6.133805215358734E-002;6.091506220400333E-004;-3.501651342958212E-003;
2.418000000000000E+009;1.731464415788651E-001;-6.177400797605515E-002;3.852828813251108E-004;-3.592527005821466E-003;
2.418166666666667E+009;1.721675843000412E-001;-6.189536675810814E-002;2.926376473624259E-004;-3.581849625334144E-003;
2.418333333333334E+009;1.713986694812775E-001;-6.242790445685387E-002;2.129632048308849E-004;-3.426156239584088E-003;
2.418500000000000E+009;1.703095734119415E-001;-6.269659101963043E-002;-2.775497341644950E-005;-3.422915469855070E-003;
2.418666666666667E+009;1.691890656948090E-001;-6.329215317964554E-002;-5.832612077938393E-005;-3.554935567080975E-003;
2.418833333333334E+009;1.678964346647263E-001;-6.376775354146957E-002;-6.888288044137880E-005;-3.398824715986848E-003;
2.419000000000000E+009;1.665882319211960E-001;-6.443492323160172E-002;-1.523848623037338E-004;-3.482541767880321E-003;
2.419166666666667E+009;1.655705720186234E-001;-6.504178792238236E-002;-2.666675427462906E-004;-3.467253409326077E-003;
2.419333333333334E+009;1.641315370798111E-001;-6.555403023958206E-002;-4.505713295657188E-004;-3.368260804563761E-003;
2.419500000000000E+009;1.630426943302155E-001;-6.651670485734940E-002;-4.867689567618072E-004;-3.439767984673381E-003;
2.419666666666667E+009;1.619563549757004E-001;-6.760822236537933E-002;-4.322228487581015E-004;-3.351143561303616E-003;
2.419833333333334E+009;1.605880260467529E-001;-6.852700561285019E-002;-7.445673691108823E-004;-3.358818823471665E-003;
2.420000000000000E+009;1.595606058835983E-001;-6.939011067152023E-002;-8.925736765377224E-004;-3.334544133394957E-003;
2.420166666666667E+009;1.583464443683624E-001;-7.050766795873642E-002;-1.057755318470299E-003;-3.326789010316134E-003;
2.420333333333334E+009;1.572585999965668E-001;-7.190328091382980E-002;-1.150178024545312E-003;-3.118914319202304E-003;
2.420500000000000E+009;1.563301533460617E-001;-7.293324917554855E-002;-1.172706950455904E-003;-3.153683850541711E-003;
2.420666666666667E+009;1.552023142576218E-001;-7.425751537084580E-002;-1.381937297992408E-003;-3.078127279877663E-003;
2.420833333333334E+009;1.543721407651901E-001;-7.593137770891190E-002;-1.338646747171879E-003;-3.196389414370060E-003;
2.421000000000000E+009;1.534449011087418E-001;-7.741136848926544E-002;-1.563837053254247E-003;-3.010615706443787E-003;
2.421166666666667E+009;1.526450514793396E-001;-7.884217798709869E-002;-1.725828042253852E-003;-3.012690925970674E-003;
2.421333333333334E+009;1.522192358970642E-001;-8.038855344057083E-002;-1.871943357400596E-003;-2.811191370710731E-003;
2.421500000000000E+009;1.513676494359970E-001;-8.190225064754486E-002;-2.054034965112805E-003;-2.831964986398816E-003;
2.421666666666667E+009;1.508605182170868E-001;-8.351103961467743E-002;-1.977558014914393E-003;-2.714104019105434E-003;
2.421833333333334E+009;1.506598293781281E-001;-8.531212806701660E-002;-2.266281051561236E-003;-2.760780742391944E-003;
2.422000000000000E+009;1.501664966344833E-001;-8.700311928987503E-002;-2.305042464286089E-003;-2.554662059992552E-003;
2.422166666666667E+009;1.498152464628220E-001;-8.874524384737015E-002;-2.480474999174476E-003;-2.619119593873620E-003;
2.422333333333334E+009;1.495014876127243E-001;-9.050855785608292E-002;-2.550779609009624E-003;-2.545141614973545E-003;
2.422500000000000E+009;1.495864838361740E-001;-9.208881109952927E-002;-2.800170099362731E-003;-2.218233887106180E-003;
2.422666666666667E+009;1.494699418544769E-001;-9.382388740777969E-002;-2.886259462684393E-003;-1.986740157008171E-003;
2.422833333333334E+009;1.496329307556152E-001;-9.573786705732346E-002;-2.899204380810261E-003;-2.021992346271873E-003;
2.423000000000000E+009;1.497423499822617E-001;-9.734046459197998E-002;-2.976138610392809E-003;-1.898399670608342E-003;
2.423166666666667E+009;1.500880122184753E-001;-9.895113110542297E-002;-3.078384324908257E-003;-1.846147933974862E-003;
2.423333333333334E+009;1.503511369228363E-001;-1.004986763000488E-001;-3.178317099809647E-003;-1.517263939604163E-003;
2.423500000000000E+009;1.506767421960831E-001;-1.021563708782196E-001;-3.349085105583072E-003;-1.331319333985448E-003;
2.423666666666667E+009;1.508313566446304E-001;-1.036847457289696E-001;-3.364959266036749E-003;-1.198220765218139E-003;
2.423833333333334E+009;1.514559239149094E-001;-1.052689701318741E-001;-3.326061414554715E-003;-7.233642973005772E-004;
2.424000000000000E+009;1.517714709043503E-001;-1.064503639936447E-001;-3.383944975212216E-003;-8.693591807968915E-004;
2.424166666666667E+009;1.522080451250076E-001;-1.076605692505837E-001;-3.338773734867573E-003;-4.415841540321708E-004;
2.424333333333334E+009;1.528095453977585E-001;-1.090176254510880E-001;-3.366010729223490E-003;-3.062694158870727E-004;
2.424500000000000E+009;1.532254666090012E-001;-1.101896911859512E-001;-3.391278674826026E-003;-1.669707417022437E-004;
2.424666666666667E+009;1.538587659597397E-001;-1.110216304659843E-001;-3.246044507250190E-003;1.977004285436124E-004;
2.424833333333334E+009;1.541148871183395E-001;-1.121720448136330E-001;-3.304339945316315E-003;4.208507016301155E-004;
2.425000000000000E+009;1.546738296747208E-001;-1.130275353789330E-001;-3.262728452682495E-003;4.578389634843916E-004;
2.425166666666667E+009;1.549242734909058E-001;-1.139517500996590E-001;-3.137155668810010E-003;6.732410402037203E-004;
2.425333333333334E+009;1.555970311164856E-001;-1.146803349256516E-001;-3.017575480043888E-003;8.738097385503352E-004;
2.425500000000000E+009;1.559077054262161E-001;-1.153702735900879E-001;-2.762825926765800E-003;1.007047365419567E-003;
2.425666666666667E+009;1.561202704906464E-001;-1.159606352448463E-001;-2.802222734317184E-003;1.129683107137680E-003;
2.425833333333334E+009;1.562842726707459E-001;-1.164182722568512E-001;-2.651119371876121E-003;1.413740217685700E-003;
2.426000000000000E+009;1.566284298896790E-001;-1.168465390801430E-001;-2.328716684132814E-003;1.525188446976244E-003;
2.426166666666667E+009;1.568311303853989E-001;-1.172660067677498E-001;-2.222806215286255E-003;1.718982122838497E-003;
2.426333333333334E+009;1.567773669958115E-001;-1.175687834620476E-001;-2.135748509317637E-003;1.615956309251487E-003;
2.426500000000000E+009;1.568612009286881E-001;-1.178581714630127E-001;-1.822233665734530E-003;1.642997376620770E-003;
2.426666666666667E+009;1.569170504808426E-001;-1.178294345736504E-001;-1.794917974621058E-003;1.649302430450916E-003;
2.426833333333334E+009;1.565656363964081E-001;-1.181771755218506E-001;-1.632552011869848E-003;1.783250598236918E-003;
2.427000000000000E+009;1.562396734952927E-001;-1.183485314249992E-001;-1.323926262557507E-003;1.813718816265464E-003;
2.427166666666667E+009;1.559241712093353E-001;-1.183033436536789E-001;-1.324209501035512E-003;1.759924227371812E-003;
2.427333333333334E+009;1.554388999938965E-001;-1.183918491005898E-001;-1.062292838469148E-003;1.717445789836347E-003;
2.427500000000000E+009;1.548478156328201E-001;-1.185419037938118E-001;-9.944275952875614E-004;1.844777259975672E-003;
2.427666666666667E+009;1.541903167963028E-001;-1.187361031770706E-001;-7.927450351417065E-004;1.740472274832428E-003;
