# Version 1.00
#
freq[Hz];re:Trc1_S11;im:Trc1_S11;re:Trc2_S21;im:Trc2_S21;
2.400000000000000E+009;1.572178304195404E-001;6.303027272224426E-002;-3.994867671281099E-003;9.922543540596962E-004;
2.400166666666667E+009;1.569284200668335E-001;6.146210804581642E-002;-4.101390484720469E-003;1.177927711978555E-003;
2.400333333333334E+009;1.569748371839523E-001;5.959497764706612E-002;-4.092265851795673E-003;1.273618778213859E-003;
2.400500000000000E+009;1.570231765508652E-001;5.754828825592995E-002;-4.024878144264221E-003;1.249725115485489E-003;
2.400666666666667E+009;1.569479107856751E-001;5.548162385821343E-002;-4.159371834248304E-003;1.532227033749223E-003;
2.400833333333334E+009;1.570054292678833E-001;5.358203127980232E-002;-3.953038714826107E-003;1.694814767688513E-003;
2.401000000000000E+009;1.570499986410141E-001;5.148724466562271E-002;-4.004939924925566E-003;1.758763566613197E-003;
2.401166666666667E+009;1.573885232210159E-001;4.924609884619713E-002;-3.990633413195610E-003;1.842177589423955E-003;
2.401333333333334E+009;1.573399305343628E-001;4.714552685618401E-002;-3.845875151455402E-003;2.026324393227696E-003;
2.401500000000000E+009;1.579373925924301E-001;4.501431807875633E-002;-3.851934568956494E-003;2.181376097723842E-003;
2.401666666666667E+009;1.582050174474716E-001;4.310708492994309E-002;-3.858030540868640E-003;2.256836509332061E-003;
2.401833333333334E+009;1.587504446506500E-001;4.101332277059555E-002;-3.817954799160361E-003;2.554158680140972E-003;
2.402000000000000E+009;1.590041667222977E-001;3.894161805510521E-002;-3.663608571514487E-003;2.611948177218437E-003;
2.402166666666667E+009;1.597258895635605E-001;3.709848225116730E-002;-3.760980907827616E-003;2.784664742648602E-003;
2.402333333333334E+009;1.601273566484451E-001;3.514030948281288E-002;-3.759360639378429E-003;2.972692716866732E-003;
2.402500000000000E+009;1.610997766256332E-001;3.321396932005882E-002;-3.654857631772757E-003;3.232633229345083E-003;
2.402666666666667E+009;1.617424786090851E-001;3.153195232152939E-002;-3.464883659034967E-003;3.289207350462675E-003;
2.402833333333334E+009;1.625979691743851E-001;2.992318756878376E-002;-3.525390522554517E-003;3.443294204771519E-003;
2.403000000000000E+009;1.634705811738968E-001;2.809250541031361E-002;-3.291488857939839E-003;3.748577088117600E-003;
2.403166666666667E+009;1.643493920564652E-001;2.662635967135429E-002;-3.092639846727252E-003;3.818242112174630E-003;
2.403333333333334E+009;1.652998030185700E-001;2.518466301262379E-002;-3.003908786922693E-003;4.014018923044205E-003;
2.403500000000000E+009;1.662598550319672E-001;2.370874397456646E-002;-2.763175638392568E-003;4.172124899923801E-003;
2.403666666666667E+009;1.673528552055359E-001;2.227433584630489E-002;-2.795987995341420E-003;4.278593696653843E-003;
2.403833333333334E+009;1.683320552110672E-001;2.116399258375168E-002;-2.644888125360012E-003;4.398615565150976E-003;
2.404000000000000E+009;1.694501042366028E-001;1.993721723556519E-002;-2.441914519295096E-003;4.596731159836054E-003;
2.404166666666667E+009;1.704571992158890E-001;1.895786076784134E-002;-2.100725192576647E-003;4.653481766581535E-003;
2.404333333333334E+009;1.714183092117310E-001;1.789237745106220E-002;-1.997979125007987E-003;4.775289911776781E-003;
2.404500000000000E+009;1.723022013902664E-001;1.695465855300427E-002;-1.942372531630099E-003;4.954121541231871E-003;
2.404666666666667E+009;1.734137684106827E-001;1.604490727186203E-002;-1.700070803053677E-003;5.048701073974371E-003;
2.404833333333334E+009;1.743311136960983E-001;1.537166349589825E-002;-1.441820524632931E-003;5.129144992679358E-003;
2.405000000000000E+009;1.752296537160873E-001;1.456553582102060E-002;-1.153076533228159E-003;5.307587794959545E-003;
2.405166666666667E+009;1.760520339012146E-001;1.399131119251251E-002;-9.093337575905025E-004;5.254402291029692E-003;
2.405333333333334E+009;1.769564449787140E-001;1.341150980442762E-002;-6.792271742597222E-004;5.294391885399818E-003;
2.405500000000000E+009;1.776550412178040E-001;1.307460479438305E-002;-3.951222461182624E-004;5.193307064473629E-003;
2.405666666666667E+009;1.783891469240189E-001;1.268590707331896E-002;-2.734321751631796E-004;5.472753662616015E-003;
2.405833333333334E+009;1.788439154624939E-001;1.235345657914877E-002;7.910018757684156E-005;5.540015175938606E-003;
2.406000000000000E+009;1.794728189706802E-001;1.176324579864740E-002;3.715440980158746E-004;5.346577614545822E-003;
2.406166666666667E+009;1.797773540019989E-001;1.162960566580296E-002;5.588171188719571E-004;5.519467405974865E-003;
2.406333333333334E+009;1.802927553653717E-001;1.145223528146744E-002;8.719670586287975E-004;5.276832263916731E-003;
2.406500000000000E+009;1.805151551961899E-001;1.107664778828621E-002;1.189808244816959E-003;5.318636540323496E-003;
2.406666666666667E+009;1.806634366512299E-001;1.082896161824465E-002;1.388087635859847E-003;5.243490915745497E-003;
2.406833333333334E+009;1.808873265981674E-001;1.056130323559046E-002;1.751496922224760E-003;5.199659615755081E-003;
2.407000000000000E+009;1.810069382190704E-001;1.026585791260004E-002;1.635508029721677E-003;5.208586808294058E-003;
2.407166666666667E+009;1.810005307197571E-001;1.003429759293795E-002;1.952674472704530E-003;4.962159786373377E-003;
2.407333333333334E+009;1.808691024780273E-001;9.477034211158752E-003;2.205184195190668E-003;4.716456402093172E-003;
2.407500000000000E+009;1.807056665420532E-001;9.138389490544796E-003;2.439977601170540E-003;4.761099349707365E-003;
2.407666666666667E+009;1.803836971521378E-001;8.741806261241436E-003;2.712215529754758E-003;4.662260413169861E-003;
2.407833333333334E+009;1.800053864717484E-001;8.181136101484299E-003;2.863533794879913E-003;4.621613770723343E-003;
2.408000000000000E+009;1.795505434274674E-001;7.504908367991447E-003;3.028464270755649E-003;4.413984250277281E-003;
2.408166666666667E+009;1.790665537118912E-001;6.930598057806492E-003;3.127958858385682E-003;4.239962901920080E-003;
2.408333333333334E+009;1.787992417812347E-001;6.295989267528057E-003;3.388577606528997E-003;4.128726664930582E-003;
2.408500000000000E+009;1.780202984809876E-001;5.491094663739204E-003;3.324593650177121E-003;3.915280569344759E-003;
2.408666666666667E+009;1.774497181177139E-001;4.518999718129635E-003;3.683464368805289E-003;3.783085849136114E-003;
2.408833333333334E+009;1.768215596675873E-001;3.631613450124860E-003;3.612464061006904E-003;3.538350341841579E-003;
2.409000000000000E+009;1.760487407445908E-001;2.711086533963680E-003;3.739964449778199E-003;3.453392302617431E-003;
2.409166666666667E+009;1.752458810806274E-001;1.359116518869996E-003;3.885387443006039E-003;3.238085890188813E-003;
2.409333333333334E+009;1.747283041477203E-001;1.415316219208762E-004;4.109692294150591E-003;3.057150635868311E-003;
2.409500000000000E+009;1.738194674253464E-001;-1.431460957974196E-003;4.134756047278643E-003;2.966625615954399E-003;
2.409666666666667E+009;1.730249971151352E-001;-2.572894562035799E-003;4.308470990508795E-003;2.852453384548426E-003;
2.409833333333334E+009;1.723972409963608E-001;-4.105628002434969E-003;4.361592233181000E-003;2.559006214141846E-003;
2.410000000000000E+009;1.717894524335861E-001;-5.626819562166929E-003;4.505958408117294E-003;2.519704634323716E-003;
2.410166666666667E+009;1.711712181568146E-001;-7.215379271656275E-003;4.582756664603949E-003;2.266957890242338E-003;
2.410333333333334E+009;1.703178435564041E-001;-8.647021837532520E-003;4.595735110342503E-003;2.071428112685680E-003;
2.410500000000000E+009;1.700288206338882E-001;-1.058498118072748E-002;4.527033772319555E-003;1.950305420905352E-003;
2.410666666666667E+009;1.694043576717377E-001;-1.265075989067555E-002;4.630099982023239E-003;1.813484355807304E-003;
2.410833333333334E+009;1.689008325338364E-001;-1.426596101373434E-002;4.918251652270556E-003;1.400246284902096E-003;
2.411000000000000E+009;1.685488522052765E-001;-1.616300456225872E-002;4.892545286566019E-003;1.281975302845240E-003;
2.411166666666667E+009;1.683671623468399E-001;-1.809253916144371E-002;4.916535224765539E-003;1.118408865295351E-003;
2.411333333333334E+009;1.680996119976044E-001;-2.009002864360809E-002;5.005876068025827E-003;7.682303548790515E-004;
2.411500000000000E+009;1.677942723035812E-001;-2.219532430171967E-002;5.027308594435453E-003;7.128029828891158E-004;
2.411666666666667E+009;1.677834689617157E-001;-2.405266463756561E-002;5.076961591839790E-003;5.251064430922270E-004;
2.411833333333334E+009;1.677680164575577E-001;-2.582007460296154E-002;5.074960645288229E-003;3.578132309485227E-004;
2.412000000000000E+009;1.680353879928589E-001;-2.817669883370400E-002;5.002780351787806E-003;1.557032956043258E-004;
2.412166666666667E+009;1.679516881704330E-001;-3.014039807021618E-002;5.098649766296148E-003;-1.746713969623670E-004;
2.412333333333334E+009;1.682937294244766E-001;-3.183572366833687E-002;5.161088891327381E-003;-3.309450403321534E-004;
2.412500000000000E+009;1.682014316320419E-001;-3.383525460958481E-002;4.978660494089127E-003;-6.353948847390711E-004;
2.412666666666667E+009;1.687425523996353E-001;-3.586904704570770E-002;5.099648144096136E-003;-8.021753747016192E-004;
2.412833333333334E+009;1.690895855426788E-001;-3.786651417613030E-002;4.833627492189407E-003;-1.011796295642853E-003;
2.413000000000000E+009;1.695978939533234E-001;-3.935116156935692E-002;4.969185683876276E-003;-1.324278418906033E-003;
2.413166666666667E+009;1.699703484773636E-001;-4.124671220779419E-002;4.756613634526730E-003;-1.403265981934965E-003;
2.413333333333334E+009;1.704246997833252E-001;-4.294119402766228E-002;4.609939642250538E-003;-1.655347761698067E-003;
2.413500000000000E+009;1.710727810859680E-001;-4.464901238679886E-002;4.480176605284214E-003;-1.956551801413298E-003;
2.413666666666667E+009;1.716141253709793E-001;-4.604822769761086E-002;4.248672164976597E-003;-2.075087977573276E-003;
2.413833333333334E+009;1.721202284097672E-001;-4.751453548669815E-002;4.249880090355873E-003;-2.360035665333271E-003;
2.414000000000000E+009;1.726840287446976E-001;-4.898071661591530E-002;3.969355486333370E-003;-2.538556931540370E-003;
2.414166666666667E+009;1.734329462051392E-001;-5.020214244723320E-002;3.874631598591805E-003;-2.666088286787272E-003;
2.414333333333334E+009;1.739866435527802E-001;-5.159115791320801E-002;3.752576187252998E-003;-2.836254891008139E-003;
2.414500000000000E+009;1.747135818004608E-001;-5.264974758028984E-002;3.452455857768655E-003;-2.847989089787006E-003;
2.414666666666667E+009;1.751258373260498E-001;-5.362144112586975E-002;3.358041867613792E-003;-3.130495781078935E-003;
2.414833333333334E+009;1.756105273962021E-001;-5.448124557733536E-002;3.185294335708022E-003;-3.056174144148827E-003;
2.415000000000000E+009;1.761416792869568E-001;-5.541155859827995E-002;3.144892863929272E-003;-3.165775910019875E-003;
2.415166666666667E+009;1.765671074390411E-001;-5.620554834604263E-002;2.896989928558469E-003;-3.390242112800479E-003;
2.415333333333334E+009;1.771330386400223E-001;-5.693683773279190E-002;2.700394717976451E-003;-3.390459576621652E-003;
2.415500000000000E+009;1.774325668811798E-001;-5.747549980878830E-002;2.453644759953022E-003;-3.557446645572782E-003;
2.415666666666667E+009;1.776174902915955E-001;-5.797651782631874E-002;2.336599165573716E-003;-3.398979315534234E-003;
2.415833333333334E+009;1.779688000679016E-001;-5.848432332277298E-002;2.211854560300708E-003;-3.416443010792136E-003;
2.416000000000000E+009;1.780251711606979E-001;-5.891884863376617E-002;1.929617603309453E-003;-3.628933569416404E-003;
2.416166666666667E+009;1.782320290803909E-001;-5.925889685750008E-002;1.924493350088596E-003;-3.525976557284594E-003;
2.416333333333334E+009;1.782412976026535E-001;-5.942457169294357E-002;1.545436563901603E-003;-3.579119453206658E-003;
2.416500000000000E+009;1.780728399753571E-001;-5.974850431084633E-002;1.580064883455634E-003;-3.526473185047507E-003;
2.416666666666667E+009;1.779209375381470E-001;-6.000995263457298E-002;1.277176779694855E-003;-3.674039151519537E-003;
2.416833333333334E+009;1.777698993682861E-001;-6.028450280427933E-002;1.284022699110210E-003;-3.535341005772352E-003;
2.417000000000000E+009;1.771718263626099E-001;-6.043781340122223E-002;1.115790451876819E-003;-3.587808692827821E-003;
2.417166666666667E+009;1.767981499433518E-001;-6.068247556686401E-002;9.968322701752186E-004;-3.611177206039429E-003;
2.417333333333334E+009;1.762011796236038E-001;-6.069161742925644E-002;8.942992426455021E-004;-3.528282977640629E-003;
2.417500000000000E+009;1.754906475543976E-001;-6.118571013212204E-002;7.371983374468982E-004;-3.535125171765685E-003;
2.417666666666667E+009;1.749735772609711E-001;-6.130274757742882E-002;6.930414238013327E-004;-3.668772522360086E-003;
2.417833333333334E+009;1.740930974483490E-001;-6.149305403232575E-002;5.206821369938552E-004;-3.496214281767607E-003;
2.418000000000000E+009;1.730716228485107E-001;-6.185530871152878E-002;4.093891766387969E-004;-3.362374613061547E-003;
2.418166666666667E+009;1.722410172224045E-001;-6.196049228310585E-002;3.370197082404047E-004;-3.533298149704933E-003;
2.418333333333334E+009;1.714562624692917E-001;-6.259088218212128E-002;2.093341900035739E-004;-3.605354810133576E-003;
2.418500000000000E+009;1.702895015478134E-001;-6.291276216506958E-002;2.219546331616584E-005;-3.486778121441603E-003;
2.418666666666667E+009;1.693142503499985E-001;-6.341971457004547E-002;1.027835678542033E-004;-3.560155397281051E-003;
2.418833333333334E+009;1.678986996412277E-001;-6.384972482919693E-002;-7.178604573709890E-005;-3.574882401153445E-003;
2.419000000000000E+009;1.666190177202225E-001;-6.449031084775925E-002;-2.110558561980724E-004;-3.499655518680811E-003;
2.419166666666667E+009;1.655132323503494E-001;-6.518421322107315E-002;-2.292335848324001E-004;-3.545878687873483E-003;
2.419333333333334E+009;1.640927493572235E-001;-6.569869071245194E-002;-4.284811438992620E-004;-3.483645850792527E-003;
2.419500000000000E+009;1.629544794559479E-001;-6.682842224836350E-002;-6.294812192209065E-004;-3.396357176825404E-003;
2.419666666666667E+009;1.618894934654236E-001;-6.763649731874466E-002;-7.302753510884941E-004;-3.343046177178621E-003;
2.419833333333334E+009;1.605629026889801E-001;-6.838728487491608E-002;-6.977064185775816E-004;-3.350285114720464E-003;
2.420000000000000E+009;1.594035625457764E-001;-6.966268271207809E-002;-8.797340560704470E-004;-3.298148745670915E-003;
2.420166666666667E+009;1.582577675580978E-001;-7.072168588638306E-002;-9.381667478010058E-004;-3.246039850637317E-003;
2.420333333333334E+009;1.571981310844421E-001;-7.200792431831360E-002;-1.110697397962213E-003;-3.236429532989860E-003;
2.420500000000000E+009;1.561894863843918E-001;-7.304949313402176E-002;-1.231518574059010E-003;-3.335773944854736E-003;
2.420666666666667E+009;1.552492529153824E-001;-7.437133789062500E-002;-1.322245807386935E-003;-3.085016505792737E-003;
2.420833333333334E+009;1.542626172304153E-001;-7.590110599994659E-002;-1.421353896148503E-003;-3.200948005542159E-003;
2.421000000000000E+009;1.533994972705841E-001;-7.748029381036758E-002;-1.609723898582161E-003;-3.140479093417525E-003;
2.421166666666667E+009;1.527532786130905E-001;-7.865954935550690E-002;-1.716193160973489E-003;-3.017880022525787E-003;
2.421333333333334E+009;1.520384252071381E-001;-8.058066666126251E-002;-1.756383455358446E-003;-3.018027404323220E-003;
2.421500000000000E+009;1.512486636638641E-001;-8.196440339088440E-002;-1.923390780575573E-003;-2.847335534170270E-003;
2.421666666666667E+009;1.508018225431442E-001;-8.367293328046799E-002;-2.091895556077361E-003;-2.807857934385538E-003;
2.421833333333334E+009;1.503916382789612E-001;-8.548564463853836E-002;-2.142282435670495E-003;-2.613879507407546E-003;
2.422000000000000E+009;1.499638408422470E-001;-8.716104924678803E-002;-2.292726654559374E-003;-2.599151106551290E-003;
2.422166666666667E+009;1.497406512498856E-001;-8.885651826858521E-002;-2.418159507215023E-003;-2.529717050492764E-003;
2.422333333333334E+009;1.496374756097794E-001;-9.051816910505295E-002;-2.685264451429248E-003;-2.380399033427239E-003;
2.422500000000000E+009;1.494507342576981E-001;-9.219378978013992E-002;-2.639567945152521E-003;-2.324128989130259E-003;
2.422666666666667E+009;1.494607776403427E-001;-9.384948760271072E-002;-2.819629618898034E-003;-2.148000290617347E-003;
2.422833333333334E+009;1.495893299579620E-001;-9.577561914920807E-002;-3.103144234046340E-003;-1.904512871988118E-003;
2.423000000000000E+009;1.495506316423416E-001;-9.747339040040970E-002;-3.031945321708918E-003;-1.866927603259683E-003;
2.423166666666667E+009;1.499259620904923E-001;-9.883853793144226E-002;-3.047806909307838E-003;-1.730441232211888E-003;
2.423333333333334E+009;1.503086239099503E-001;-1.003411188721657E-001;-3.238475183025003E-003;-1.442242530174553E-003;
2.423500000000000E+009;1.504732668399811E-001;-1.019604951143265E-001;-3.148807212710381E-003;-1.397219370119274E-003;
2.423666666666667E+009;1.509426385164261E-001;-1.036589816212654E-001;-3.390885423868895E-003;-1.076159183867276E-003;
2.423833333333334E+009;1.514191031455994E-001;-1.052061840891838E-001;-3.490112489089370E-003;-8.831483428366482E-004;
2.424000000000000E+009;1.518180370330811E-001;-1.063765659928322E-001;-3.282616147771478E-003;-6.450999644584954E-004;
2.424166666666667E+009;1.521300226449966E-001;-1.078117340803146E-001;-3.344755154103041E-003;-5.078198737464845E-004;
2.424333333333334E+009;1.528176367282867E-001;-1.089337542653084E-001;-3.465959802269936E-003;-3.583738289307803E-004;
2.424500000000000E+009;1.531156599521637E-001;-1.101586148142815E-001;-3.255728865042329E-003;-1.788570953067392E-004;
2.424666666666667E+009;1.537956297397614E-001;-1.109994128346443E-001;-3.178019542247057E-003;6.916520942468196E-005;
2.424833333333334E+009;1.541933566331863E-001;-1.120664328336716E-001;-3.250328591093421E-003;2.783939999062568E-004;
2.425000000000000E+009;1.547299623489380E-001;-1.130810081958771E-001;-3.204761538654566E-003;5.477425293065608E-004;
2.425166666666667E+009;1.548204123973846E-001;-1.139486953616142E-001;-3.040526295080781E-003;7.600571843795478E-004;
2.425333333333334E+009;1.554415524005890E-001;-1.146594211459160E-001;-2.946160966530442E-003;7.927421247586608E-004;
2.425500000000000E+009;1.559066623449326E-001;-1.152862310409546E-001;-2.749161794781685E-003;9.817833779379726E-004;
2.425666666666667E+009;1.560619920492172E-001;-1.158339083194733E-001;-2.746111480519176E-003;1.058743684552610E-003;
2.425833333333334E+009;1.562843620777130E-001;-1.163765192031860E-001;-2.641533734276891E-003;1.264176913537085E-003;
2.426000000000000E+009;1.564120650291443E-001;-1.169273704290390E-001;-2.434469293802977E-003;1.361935748718679E-003;
2.426166666666667E+009;1.567240208387375E-001;-1.172227114439011E-001;-2.338773338124156E-003;1.552092726342380E-003;
2.426333333333334E+009;1.567735224962235E-001;-1.175708100199699E-001;-2.024723449721932E-003;1.422817585989833E-003;
2.426500000000000E+009;1.567931026220322E-001;-1.177952513098717E-001;-1.924428623169661E-003;1.752997515723109E-003;
2.426666666666667E+009;1.567999571561813E-001;-1.179168447852135E-001;-1.757418969646096E-003;1.662959228269756E-003;
2.426833333333334E+009;1.564735174179077E-001;-1.180586516857147E-001;-1.649730955250561E-003;1.711288467049599E-003;
2.427000000000000E+009;1.561664044857025E-001;-1.182831600308418E-001;-1.417055376805365E-003;1.784306368790567E-003;
2.427166666666667E+009;1.557921469211578E-001;-1.183088645339012E-001;-1.336604589596391E-003;1.778182457201183E-003;
2.427333333333334E+009;1.553116738796234E-001;-1.185088604688644E-001;-1.031989697366953E-003;1.748678972944617E-003;
2.427500000000000E+009;1.549490988254547E-001;-1.185274347662926E-001;-1.026318524964154E-003;1.861344673670828E-003;
2.427666666666667E+009;1.541793197393417E-001;-1.185761913657188E-001;-8.624942856840789E-004;1.715374877676368E-003;
