# Version 1.00
#
freq[Hz];re:Trc1_S11;im:Trc1_S11;re:Trc2_S21;im:Trc2_S21;
2.400000000000000E+009;1.570532917976379E-001;6.315199285745621E-002;-4.011749289929867E-003;9.077237336896360E-004;
2.400166666666667E+009;1.570101231336594E-001;6.150552257895470E-002;-4.043162334710360E-003;1.086702453903854E-003;
2.400333333333334E+009;1.569125503301621E-001;5.945438519120216E-002;-4.013547208160162E-003;1.181191881187260E-003;
2.400500000000000E+009;1.569268405437470E-001;5.757663771510124E-002;-3.836430376395583E-003;1.304117380641401E-003;
2.400666666666667E+009;1.567173600196838E-001;5.573270469903946E-002;-3.990645054727793E-003;1.483272528275847E-003;
2.400833333333334E+009;1.567588299512863E-001;5.367520451545715E-002;-3.955604974180460E-003;1.510130823589861E-003;
2.401000000000000E+009;1.569611728191376E-001;5.169637873768807E-002;-3.835772396996617E-003;1.797939417883754E-003;
2.401166666666667E+009;1.573859453201294E-001;4.958206787705421E-002;-3.927414305508137E-003;1.818089745938778E-003;
2.401333333333334E+009;1.574499607086182E-001;4.729253798723221E-002;-3.726479830220342E-003;1.972297905012965E-003;
2.401500000000000E+009;1.577475965023041E-001;4.531906172633171E-002;-3.761454718187451E-003;2.272455021739006E-003;
2.401666666666667E+009;1.580599546432495E-001;4.334931448101997E-002;-3.789231181144714E-003;2.218625275418162E-003;
2.401833333333334E+009;1.585753113031387E-001;4.125679656863213E-002;-3.751266514882445E-003;2.444025129079819E-003;
2.402000000000000E+009;1.587645560503006E-001;3.928016871213913E-002;-3.712906269356608E-003;2.589901909232140E-003;
2.402166666666667E+009;1.595807820558548E-001;3.693807125091553E-002;-3.755582496523857E-003;2.669990761205554E-003;
2.402333333333334E+009;1.601929515600205E-001;3.524007648229599E-002;-3.557184245437384E-003;2.666509477421641E-003;
2.402500000000000E+009;1.609866023063660E-001;3.334143385291100E-002;-3.465920919552445E-003;2.998399548232555E-003;
2.402666666666667E+009;1.619486957788467E-001;3.152710199356079E-002;-3.438796382397413E-003;3.272275906056166E-003;
2.402833333333334E+009;1.627172231674194E-001;2.998631261289120E-002;-3.342920681461692E-003;3.394179046154022E-003;
2.403000000000000E+009;1.634210795164108E-001;2.830080501735210E-002;-3.126404248178005E-003;3.587762359529734E-003;
2.403166666666667E+009;1.644692122936249E-001;2.668424881994724E-002;-3.220008686184883E-003;3.715188009664416E-003;
2.403333333333334E+009;1.654609739780426E-001;2.518428675830364E-002;-2.967971609905362E-003;3.816392272710800E-003;
2.403500000000000E+009;1.663501262664795E-001;2.380424737930298E-002;-2.720698481425643E-003;3.849777160212398E-003;
2.403666666666667E+009;1.673606336116791E-001;2.243289537727833E-002;-2.713883062824607E-003;4.166261758655310E-003;
2.403833333333334E+009;1.683924496173859E-001;2.118829265236855E-002;-2.740078372880817E-003;4.329835530370474E-003;
2.404000000000000E+009;1.695047169923782E-001;2.009956166148186E-002;-2.294916659593582E-003;4.385511390864849E-003;
2.404166666666667E+009;1.704018861055374E-001;1.893893070518971E-002;-2.187460660934448E-003;4.579800646752119E-003;
2.404333333333334E+009;1.713123619556427E-001;1.796936802566052E-002;-2.104526385664940E-003;4.561344627290964E-003;
2.404500000000000E+009;1.722611039876938E-001;1.700707338750362E-002;-1.635330147109926E-003;4.774090833961964E-003;
2.404666666666667E+009;1.734516918659210E-001;1.616245694458485E-002;-1.601839670911431E-003;5.051262676715851E-003;
2.404833333333334E+009;1.742245256900787E-001;1.529942266643047E-002;-1.456635654903948E-003;5.045814439654350E-003;
2.405000000000000E+009;1.752241402864456E-001;1.464449614286423E-002;-1.255287555977702E-003;5.113315302878618E-003;
2.405166666666667E+009;1.759728789329529E-001;1.386030577123165E-002;-9.763840353116393E-004;5.321980454027653E-003;
2.405333333333334E+009;1.769475340843201E-001;1.337735727429390E-002;-6.410315982066095E-004;5.173924379050732E-003;
2.405500000000000E+009;1.777377724647522E-001;1.312870532274246E-002;-2.924836880993098E-004;5.219440441578627E-003;
2.405666666666667E+009;1.782376319169998E-001;1.270083896815777E-002;-1.926400582306087E-004;5.189558956772089E-003;
2.405833333333334E+009;1.788461506366730E-001;1.238891016691923E-002;-5.637351932819001E-005;5.378877278417349E-003;
2.406000000000000E+009;1.795741766691208E-001;1.191404368728399E-002;3.258690412621945E-004;5.359214730560780E-003;
2.406166666666667E+009;1.798490434885025E-001;1.172553561627865E-002;6.291819736361504E-004;5.454476457089186E-003;
2.406333333333334E+009;1.803570985794067E-001;1.146780885756016E-002;7.788531947880983E-004;5.259314086288214E-003;
2.406500000000000E+009;1.805811971426010E-001;1.110954675823450E-002;1.079602050594986E-003;5.311902612447739E-003;
2.406666666666667E+009;1.806593090295792E-001;1.081809122115374E-002;1.283791847527027E-003;5.310859531164169E-003;
2.406833333333334E+009;1.808392405509949E-001;1.045580767095089E-002;1.484633539803326E-003;5.196037702262402E-003;
2.407000000000000E+009;1.810201108455658E-001;1.021804381161928E-002;1.715166610665619E-003;5.073138978332281E-003;
2.407166666666667E+009;1.810543537139893E-001;1.002461835741997E-002;2.016742713749409E-003;4.899221472442150E-003;
2.407333333333334E+009;1.808200925588608E-001;9.547770954668522E-003;2.191440202295780E-003;4.862609319388866E-003;
2.407500000000000E+009;1.806880682706833E-001;9.173169732093811E-003;2.292321529239416E-003;4.715614952147007E-003;
2.407666666666667E+009;1.804067939519882E-001;8.840494789183140E-003;2.477864734828472E-003;4.630024544894695E-003;
2.407833333333334E+009;1.798585653305054E-001;8.215785957872868E-003;2.742758719250560E-003;4.571895115077496E-003;
2.408000000000000E+009;1.795092076063156E-001;7.603196892887354E-003;2.992446534335613E-003;4.242967348545790E-003;
2.408166666666667E+009;1.791437417268753E-001;7.007672451436520E-003;3.082713810727000E-003;4.156800918281078E-003;
2.408333333333334E+009;1.785809695720673E-001;6.317952647805214E-003;3.158703679218888E-003;4.018190316855907E-003;
2.408500000000000E+009;1.780880242586136E-001;5.502224899828434E-003;3.412066958844662E-003;3.916164394468069E-003;
2.408666666666667E+009;1.774580478668213E-001;4.584305919706821E-003;3.544467734172940E-003;3.739733714610338E-003;
2.408833333333334E+009;1.766913831233978E-001;3.659520298242569E-003;3.698660293594003E-003;3.588317427784205E-003;
2.409000000000000E+009;1.759470999240875E-001;2.598678460344672E-003;3.799779806286097E-003;3.364497097209096E-003;
2.409166666666667E+009;1.752359569072723E-001;1.508832210674882E-003;3.813703078776598E-003;3.120063804090023E-003;
2.409333333333334E+009;1.746775358915329E-001;-5.358477210393176E-005;3.960815723985434E-003;3.212787909433246E-003;
2.409500000000000E+009;1.738862395286560E-001;-1.195413060486317E-003;4.169388208538294E-003;3.004733240231872E-003;
2.409666666666667E+009;1.731911599636078E-001;-2.454425441101193E-003;4.185996484011412E-003;2.747356193140149E-003;
2.409833333333334E+009;1.724940836429596E-001;-3.929489292204380E-003;4.273878876119852E-003;2.690986497327685E-003;
2.410000000000000E+009;1.717769056558609E-001;-5.425713956356049E-003;4.428236745297909E-003;2.337509999051690E-003;
2.410166666666667E+009;1.710998862981796E-001;-7.104518357664347E-003;4.482658114284277E-003;2.338746795430780E-003;
2.410333333333334E+009;1.706153750419617E-001;-8.826023899018765E-003;4.560958128422499E-003;2.118302276358008E-003;
2.410500000000000E+009;1.700048148632050E-001;-1.061179861426354E-002;4.527718760073185E-003;1.869914820417762E-003;
2.410666666666667E+009;1.694206148386002E-001;-1.241031661629677E-002;4.587842151522636E-003;1.797228818759322E-003;
2.410833333333334E+009;1.689362227916718E-001;-1.424412429332733E-002;4.825564101338387E-003;1.713590463623405E-003;
2.411000000000000E+009;1.687046140432358E-001;-1.617504283785820E-002;4.818685818463564E-003;1.442849985323846E-003;
2.411166666666667E+009;1.681626290082932E-001;-1.811979711055756E-002;4.950883798301220E-003;1.174999983049929E-003;
2.411333333333334E+009;1.680559515953064E-001;-2.010604180395603E-002;4.964493680745363E-003;9.346562437713146E-004;
2.411500000000000E+009;1.679124236106873E-001;-2.219493500888348E-002;4.960181191563606E-003;8.687815279699862E-004;
2.411666666666667E+009;1.678591072559357E-001;-2.401750534772873E-002;4.955695476382971E-003;5.635095876641572E-004;
2.411833333333334E+009;1.678611636161804E-001;-2.601355127990246E-002;4.930828697979450E-003;1.373534760205075E-004;
2.412000000000000E+009;1.678836494684219E-001;-2.798988856375217E-002;5.119851790368557E-003;1.494170137448236E-004;
2.412166666666667E+009;1.677861064672470E-001;-2.995575219392777E-002;5.083462223410606E-003;-1.283000601688400E-004;
2.412333333333334E+009;1.681875288486481E-001;-3.178049623966217E-002;5.055970512330532E-003;-3.362647257745266E-004;
2.412500000000000E+009;1.683417111635208E-001;-3.369482234120369E-002;5.153546575456858E-003;-5.820312071591616E-004;
2.412666666666667E+009;1.688422560691834E-001;-3.595294058322907E-002;4.843289963901043E-003;-7.758992724120617E-004;
2.412833333333334E+009;1.692622005939484E-001;-3.759079426527023E-002;4.819533322006464E-003;-1.008297083899379E-003;
2.413000000000000E+009;1.695011109113693E-001;-3.941607847809792E-002;4.776871763169766E-003;-1.143792644143105E-003;
2.413166666666667E+009;1.700040698051453E-001;-4.114772379398346E-002;4.655221477150917E-003;-1.601489610038698E-003;
2.413333333333334E+009;1.703474521636963E-001;-4.278441146016121E-002;4.582243505865336E-003;-1.574956113472581E-003;
2.413500000000000E+009;1.709883213043213E-001;-4.447115212678909E-002;4.445832688361406E-003;-1.905621145851910E-003;
2.413666666666667E+009;1.716655939817429E-001;-4.621217772364616E-002;4.283323418349028E-003;-2.133041387423873E-003;
2.413833333333334E+009;1.721031814813614E-001;-4.756365343928337E-002;4.233917687088251E-003;-2.319958759471774E-003;
2.414000000000000E+009;1.726022660732269E-001;-4.898134618997574E-002;4.099520388990641E-003;-2.509853104129434E-003;
2.414166666666667E+009;1.735208630561829E-001;-5.026557669043541E-002;3.767541842535138E-003;-2.518445719033480E-003;
2.414333333333334E+009;1.739879995584488E-001;-5.151674523949623E-002;3.755025565624237E-003;-2.725430764257908E-003;
2.414500000000000E+009;1.745948493480682E-001;-5.261873453855515E-002;3.609296865761280E-003;-2.785497112199664E-003;
2.414666666666667E+009;1.751567870378494E-001;-5.357176065444946E-002;3.234543139114976E-003;-3.077204106375575E-003;
2.414833333333334E+009;1.756732612848282E-001;-5.466208979487419E-002;3.234323812648654E-003;-3.218239406123757E-003;
2.415000000000000E+009;1.761913597583771E-001;-5.536418035626411E-002;2.930114511400461E-003;-3.291543107479811E-003;
2.415166666666667E+009;1.763651520013809E-001;-5.607644096016884E-002;2.730488777160645E-003;-3.312123939394951E-003;
2.415333333333334E+009;1.771653443574905E-001;-5.676919221878052E-002;2.604916924610734E-003;-3.277349518612027E-003;
2.415500000000000E+009;1.773542463779450E-001;-5.740084126591682E-002;2.470333827659488E-003;-3.380100941285491E-003;
2.415666666666667E+009;1.776594072580338E-001;-5.787780880928040E-002;2.239026129245758E-003;-3.608682192862034E-003;
2.415833333333334E+009;1.780177503824234E-001;-5.837660282850266E-002;2.205239608883858E-003;-3.452814649790525E-003;
2.416000000000000E+009;1.778995245695114E-001;-5.872182548046112E-002;1.913550309836865E-003;-3.399347420781851E-003;
2.416166666666667E+009;1.782109588384628E-001;-5.906618386507034E-002;1.817193231545389E-003;-3.513674717396498E-003;
2.416333333333334E+009;1.782474219799042E-001;-5.937600135803223E-002;1.658457098528743E-003;-3.406349103897810E-003;
2.416500000000000E+009;1.779779344797134E-001;-5.971370264887810E-002;1.427640439942479E-003;-3.439223160967231E-003;
2.416666666666667E+009;1.778721958398819E-001;-5.978185683488846E-002;1.436155987903476E-003;-3.552122274413705E-003;
2.416833333333334E+009;1.776425689458847E-001;-6.028081104159355E-002;1.268770080059767E-003;-3.506039502099156E-003;
2.417000000000000E+009;1.772117167711258E-001;-6.036065891385078E-002;1.124265952967107E-003;-3.295152913779020E-003;
2.417166666666667E+009;1.767976284027100E-001;-6.047714874148369E-002;8.532776264473796E-004;-3.380137262865901E-003;
2.417333333333334E+009;1.763890236616135E-001;-6.065718829631805E-002;8.455242495983839E-004;-3.458265447989106E-003;
2.417500000000000E+009;1.755291372537613E-001;-6.102062016725540E-002;8.982988656498492E-004;-3.375823609530926E-003;
2.417666666666667E+009;1.749786734580994E-001;-6.110356748104096E-002;6.603114889003336E-004;-3.388785058632493E-003;
2.417833333333334E+009;1.740910112857819E-001;-6.134616956114769E-002;5.173037061467767E-004;-3.358470974490047E-003;
2.418000000000000E+009;1.732524186372757E-001;-6.179589033126831E-002;5.689629469998181E-004;-3.508326830342412E-003;
2.418166666666667E+009;1.721487790346146E-001;-6.195661425590515E-002;4.693627124652267E-004;-3.374086925759912E-003;
2.418333333333334E+009;1.714472770690918E-001;-6.236150860786438E-002;3.323237178847194E-004;-3.423948306590319E-003;
2.418500000000000E+009;1.702132225036621E-001;-6.274342536926270E-002;9.091225365409628E-005;-3.405506489798427E-003;
2.418666666666667E+009;1.691903620958328E-001;-6.328315287828445E-002;3.241950253141113E-005;-3.277555573731661E-003;
2.418833333333334E+009;1.678706407546997E-001;-6.388159096240997E-002;9.956328722182661E-005;-3.256239229813218E-003;
2.419000000000000E+009;1.666784286499023E-001;-6.435855478048325E-002;-2.579971333034337E-004;-3.412374062463641E-003;
2.419166666666667E+009;1.656623184680939E-001;-6.507808715105057E-002;-2.231596299679950E-004;-3.360341535881162E-003;
2.419333333333334E+009;1.641478389501572E-001;-6.550841033458710E-002;-4.218285030219704E-004;-3.415530314669013E-003;
2.419500000000000E+009;1.630713194608688E-001;-6.658562272787094E-002;-5.349172279238701E-004;-3.315859008580446E-003;
2.419666666666667E+009;1.617122292518616E-001;-6.748985499143601E-002;-5.161054432392120E-004;-3.328167367726564E-003;
2.419833333333334E+009;1.606254875659943E-001;-6.845881789922714E-002;-5.912893684580922E-004;-3.271732246503234E-003;
2.420000000000000E+009;1.594465672969818E-001;-6.952308118343353E-002;-7.893914589658380E-004;-3.250560723245144E-003;
2.420166666666667E+009;1.583330929279327E-001;-7.075232267379761E-002;-9.520095190964639E-004;-3.283924655988812E-003;
2.420333333333334E+009;1.571581512689591E-001;-7.187756150960922E-002;-1.173767144791782E-003;-3.268376924097538E-003;
2.420500000000000E+009;1.562272012233734E-001;-7.289882004261017E-002;-1.131413504481316E-003;-3.242899430915713E-003;
2.420666666666667E+009;1.552386581897736E-001;-7.427412271499634E-002;-1.232320209965110E-003;-3.057697322219610E-003;
2.420833333333334E+009;1.544030159711838E-001;-7.576777040958405E-002;-1.357872388325632E-003;-3.094863379374147E-003;
2.421000000000000E+009;1.533769369125366E-001;-7.717313617467880E-002;-1.395554863847792E-003;-3.122015157714486E-003;
2.421166666666667E+009;1.526028066873550E-001;-7.855863124132156E-002;-1.649002195335925E-003;-3.106787800788879E-003;
2.421333333333334E+009;1.521985679864883E-001;-8.034887909889221E-002;-1.680888934060931E-003;-3.034907625988126E-003;
2.421500000000000E+009;1.513585448265076E-001;-8.211416006088257E-002;-1.857749419286847E-003;-2.837967360392213E-003;
2.421666666666667E+009;1.509130746126175E-001;-8.359657973051071E-002;-2.078127115964890E-003;-2.857226878404617E-003;
2.421833333333334E+009;1.503829360008240E-001;-8.532306551933289E-002;-2.163005992770195E-003;-2.806401345878840E-003;
2.422000000000000E+009;1.501460671424866E-001;-8.711078763008118E-002;-2.348880516365171E-003;-2.567216521129012E-003;
2.422166666666667E+009;1.497497260570526E-001;-8.885005116462708E-002;-2.377718454226852E-003;-2.478044247254729E-003;
2.422333333333334E+009;1.497062444686890E-001;-9.055231511592865E-002;-2.672547241672874E-003;-2.358053112402558E-003;
2.422500000000000E+009;1.495608836412430E-001;-9.221390634775162E-002;-2.671669935807586E-003;-2.343244617804885E-003;
2.422666666666667E+009;1.494739502668381E-001;-9.399925172328949E-002;-2.714274218305945E-003;-1.964102732017636E-003;
2.422833333333334E+009;1.495091617107391E-001;-9.575355052947998E-002;-2.757274545729160E-003;-1.920795999467373E-003;
2.423000000000000E+009;1.496275067329407E-001;-9.726513177156448E-002;-3.065412631258369E-003;-1.664736773818731E-003;
2.423166666666667E+009;1.498903930187225E-001;-9.896588325500488E-002;-3.102122107520700E-003;-1.534220296889544E-003;
2.423333333333334E+009;1.502626389265060E-001;-1.003484129905701E-001;-3.202251624315977E-003;-1.470546238124371E-003;
2.423500000000000E+009;1.505623161792755E-001;-1.019752100110054E-001;-3.227420151233673E-003;-1.321285031735897E-003;
2.423666666666667E+009;1.508386880159378E-001;-1.036023646593094E-001;-3.359249327331781E-003;-8.899655076675117E-004;
2.423833333333334E+009;1.514425277709961E-001;-1.050401926040649E-001;-3.436118829995394E-003;-7.648107130080462E-004;
2.424000000000000E+009;1.516559571027756E-001;-1.062541902065277E-001;-3.317676950246096E-003;-4.595555656123906E-004;
2.424166666666667E+009;1.521205753087997E-001;-1.077420264482498E-001;-3.284649224951863E-003;-5.119133857078850E-004;
2.424333333333334E+009;1.527057141065598E-001;-1.087888479232788E-001;-3.414507489651442E-003;-3.067220677621663E-004;
2.424500000000000E+009;1.531549394130707E-001;-1.099987104535103E-001;-3.288752632215619E-003;-2.965328530990519E-005;
2.424666666666667E+009;1.538161039352417E-001;-1.110241636633873E-001;-3.270499408245087E-003;3.069127560593188E-004;
2.424833333333334E+009;1.541695445775986E-001;-1.120221838355064E-001;-3.110635327175260E-003;3.697691718116403E-004;
2.425000000000000E+009;1.547324955463409E-001;-1.130232959985733E-001;-3.128753043711186E-003;6.490095984190702E-004;
2.425166666666667E+009;1.549254357814789E-001;-1.137176305055618E-001;-3.029021201655269E-003;6.947644287720323E-004;
2.425333333333334E+009;1.554435342550278E-001;-1.145142838358879E-001;-2.924069995060563E-003;9.751960751600564E-004;
2.425500000000000E+009;1.559570580720902E-001;-1.152443289756775E-001;-2.836372470483184E-003;9.969599777832627E-004;
2.425666666666667E+009;1.561362445354462E-001;-1.158512979745865E-001;-2.631838200613856E-003;1.067333971150219E-003;
2.425833333333334E+009;1.564385592937470E-001;-1.162334084510803E-001;-2.599767874926329E-003;1.413474208675325E-003;
2.426000000000000E+009;1.564791500568390E-001;-1.168866008520126E-001;-2.280063694342971E-003;1.429535914212465E-003;
2.426166666666667E+009;1.568305343389511E-001;-1.172673106193543E-001;-2.223615068942308E-003;1.599314156919718E-003;
2.426333333333334E+009;1.567608267068863E-001;-1.175131797790527E-001;-1.937563065439463E-003;1.614027656614780E-003;
2.426500000000000E+009;1.569017022848129E-001;-1.177231371402741E-001;-1.826302497647703E-003;1.829396234825254E-003;
2.426666666666667E+009;1.568133085966110E-001;-1.178220435976982E-001;-1.725828857161105E-003;1.714838319458067E-003;
2.426833333333334E+009;1.566202640533447E-001;-1.180538609623909E-001;-1.484823180362582E-003;1.717970124445856E-003;
2.427000000000000E+009;1.563237160444260E-001;-1.182743310928345E-001;-1.281636767089367E-003;1.743411296047270E-003;
2.427166666666667E+009;1.559089869260788E-001;-1.182952970266342E-001;-1.179124228656292E-003;1.615641289390624E-003;
2.427333333333334E+009;1.553636342287064E-001;-1.184523105621338E-001;-1.080765156075358E-003;1.838431577198207E-003;
2.427500000000000E+009;1.548618823289871E-001;-1.184455454349518E-001;-9.616106981411576E-004;1.746949856169522E-003;
2.427666666666667E+009;1.542496234178543E-001;-1.186271309852600E-001;-7.424333016388118E-004;1.669606193900108E-003;
