# Hz S RI R 
2400000000.0000000000 0.155187115073204012771768134371 0.106822893023490905761718750000 -0.000459518982097506523132324219 0.002549207070842384858372353662 0 0 0 0 
2400166666.6666665077 0.154831230640411404708700615629 0.104506455361843095253071567186 -0.000226305593969300389289855957 0.002463443437591195106506347656 0 0 0 0 
2400333333.3333334923 0.154888287186622591873330634371 0.102107554674148601203675923443 -0.000096366093202959746122360229 0.002636743942275642915012978662 0 0 0 0 
2400500000.0000000000 0.155018538236617986481036268742 0.099378474056720733642578125000 0.000005028282430430409414223118 0.002554649021476507186889648438 0 0 0 0 
2400666666.6666665077 0.155118122696876498123330634371 0.097024612128734588623046875000 0.000229432116611860692501068115 0.002705727703869342803955078125 0 0 0 0 
2400833333.3333334923 0.154862448573112487792968750000 0.093966595828533172607421875000 0.000238778200582601102903643198 0.002757324604317545890808105469 0 0 0 0 
2401000000.0000000000 0.155383691191673306564169365629 0.091227941215038299560546875000 0.000514500483404844999313354492 0.002757571637630463080165243994 0 0 0 0 
2401166666.6666665077 0.155313894152641296386718750000 0.088410466909408569335937500000 0.000766444485634565353393554688 0.002585914218798280195948935400 0 0 0 0 
2401333333.3333334923 0.155744671821594210525674384371 0.085556156933307647705078125000 0.000814075989183038473129272461 0.002639618935063480897190713037 0 0 0 0 
2401500000.0000000000 0.156290695071220397949218750000 0.082881793379783630371093750000 0.001167571404948831038234091650 0.002526654396206140951869345557 0 0 0 0 
2401666666.6666665077 0.156504988670349093338174384371 0.079828575253486633300781250000 0.001261442317627369923832558740 0.002441533608362079100367880713 0 0 0 0 
2401833333.3333334923 0.157102584838867187500000000000 0.077105142176151275634765625000 0.001337960129603743986842490088 0.002547556301578878922703408350 0 0 0 0 
2402000000.0000000000 0.157974258065223693847656250000 0.074300177395343780517578125000 0.001622536801733077006099081885 0.002404168713837862014770507812 0 0 0 0 
2402166666.6666665077 0.158877879381179809570312500000 0.071976274251937866210937500000 0.001693686121143401102778769385 0.002166277030482887788059853662 0 0 0 0 
2402333333.3333334923 0.159653261303901700118856865629 0.069202065467834472656250000000 0.001716425060294568972346640479 0.002060980303212999863865517725 0 0 0 0 
2402500000.0000000000 0.160920664668083190917968750000 0.066659927368164062500000000000 0.001786853536032140038133930737 0.001958495471626520156860351562 0 0 0 0 
2402666666.6666665077 0.162216022610664395431356865629 0.064443476498126983642578125000 0.001732366159558295986772846753 0.001861204975284636020660400391 0 0 0 0 
2402833333.3333334923 0.163266062736511202713174384371 0.061881918460130691528320312500 0.001801962731406093077418661963 0.001817274489440023899078369141 0 0 0 0 
2403000000.0000000000 0.164856538176536587814169365629 0.059670835733413703227956403907 0.001986256334930657906773232568 0.001785897416993976073024130713 0 0 0 0 
2403166666.6666665077 0.166761025786399813553018134371 0.057558078318834311748464216407 0.001933228923007846095441508716 0.001540029537864028973820351709 0 0 0 0 
2403333333.3333334923 0.168115526437759399414062500000 0.055351931601762771606445312500 0.001923924894072114987614297021 0.001489969901740550994873046875 0 0 0 0 
2403500000.0000000000 0.169820949435234097579794365629 0.053047634661197662353515625000 0.001991661731153727011439658057 0.001571158412843943075892783057 0 0 0 0 
2403666666.6666665077 0.171546489000320406814736884371 0.051249586045742041851003278907 0.001930979429744184017181396484 0.001489686779677868106244731372 0 0 0 0 
2403833333.3333334923 0.173245057463645907303018134371 0.049385752528905868530273437500 0.002027101814746857123133993994 0.001321113319136201901676797021 0 0 0 0 
2404000000.0000000000 0.174777463078498812576455634371 0.047600150108337402343750000000 0.002154368441551924185511923682 0.001334000495262444019317626953 0 0 0 0 
2404166666.6666665077 0.176467344164848299881143134371 0.046230230480432510375976562500 0.002074339194223285155055380713 0.001329169492237270095227885669 0 0 0 0 
2404333333.3333334923 0.178225919604301508147869981258 0.044533003121614463115651716407 0.002261231420561670823338173975 0.001294133136980236010310507666 0 0 0 0 
2404500000.0000000000 0.179814472794532803634481865629 0.043273016810417182231862653907 0.002455579582601786093470908057 0.001127091119997202916386269678 0 0 0 0 
2404666666.6666665077 0.181312426924705505371093750000 0.042047735303640372539479841407 0.002571508986875414848327636719 0.001026998157612978978397988428 0 0 0 0 
2404833333.3333334923 0.182980313897132901290731865629 0.040951091796159737323801408593 0.002550561213865876197814941406 0.000924376421608030796051025391 0 0 0 0 
2405000000.0000000000 0.184466108679771395584268134371 0.040269631892442703247070312500 0.002470077481120824813842773438 0.000751271494664251804351806641 0 0 0 0 
2405166666.6666665077 0.185799404978752108474893134371 0.039639629423618316650390625000 0.002629960421472787857055664062 0.000704186444636434316635131836 0 0 0 0 
2405333333.3333334923 0.187231540679931612869424384371 0.039075706154108047485351562500 0.002361043822020291848423623193 0.000444532081019133275181370868 0 0 0 0 
2405500000.0000000000 0.188610374927520807464276231258 0.038725707679986946796457658593 0.002492941450327634811401367188 0.000329487898852676207393092023 0 0 0 0 
2405666666.6666665077 0.189866021275520296951455634371 0.038436923176050193096120466407 0.002498997841030358834507607568 0.000265122071141377091407775879 0 0 0 0 
2405833333.3333334923 0.191036298871040288727130018742 0.038018371909856803203542341407 0.002376611111685634093043661963 -0.000026262147002853449771200486 0 0 0 0 
2406000000.0000000000 0.192122176289558410644531250000 0.037842746824026107788085937500 0.002295360434800385995152138818 0.000026985333533957600593566895 0 0 0 0 
2406166666.6666665077 0.193062007427215603927450615629 0.037651725113391883159597028907 0.002389390487223864035365439307 0.000045436085201799869537353516 0 0 0 0 
2406333333.3333334923 0.193997293710708590408486884371 0.037687189877033226703684221093 0.002268645912408829169032431494 -0.000149902189150452586725512094 0 0 0 0 
2406500000.0000000000 0.194664135575294494628906250000 0.037644281983375549316406250000 0.002246565185487269921543740381 -0.000179926355485804406091412955 0 0 0 0 
2406666666.6666665077 0.195344969630241394042968750000 0.037844687700271613384206403907 0.002247314667329192161560058594 -0.000209183155675418702050885611 0 0 0 0 
2406833333.3333334923 0.195858091115951510330361884371 0.037819400429725646972656250000 0.002152770059183239936828613281 -0.000368106004316359812587183820 0 0 0 0 
2407000000.0000000000 0.196118906140327509124432481258 0.037918265908956527709960937500 0.002128226915374397797825478662 -0.000317913916660472804873865948 0 0 0 0 
2407166666.6666665077 0.196438878774642888824786268742 0.037759300321340560913085937500 0.002067395253106952147242880713 -0.000273010693490505218505859375 0 0 0 0 
2407333333.3333334923 0.196463748812675503829794365629 0.037894509732723243022878278907 0.002156845526769756837132119287 -0.000228826553211547407224932260 0 0 0 0 
2407500000.0000000000 0.196296602487564086914062500000 0.038047730922698981548268903907 0.002137463074177504019496298682 -0.000370710680726915597915649414 0 0 0 0 
2407666666.6666665077 0.196221709251403808593750000000 0.037844888865947723388671875000 0.002218527486547828154322958838 -0.000555217382498085498809814453 0 0 0 0 
2407833333.3333334923 0.195815369486808804611044365629 0.037711642682552337646484375000 0.001991603523492813110351562500 -0.000519827764946967363357543945 0 0 0 0 
2408000000.0000000000 0.195734545588493402679119981258 0.037649631500244140625000000000 0.001980130560696125030517578125 -0.000628059264272451400756835938 0 0 0 0 
2408166666.6666665077 0.195065334439277704436932481258 0.037290085107088088989257812500 0.002147517632693051858189248193 -0.000554596830625087022781372070 0 0 0 0 
2408333333.3333334923 0.194622993469238309005575615629 0.036667138338088989257812500000 0.002034704433754086928126669775 -0.000770910701248794794082641602 0 0 0 0 
2408500000.0000000000 0.193975701928138705154580634371 0.036461066454648971557617187500 0.002159154042601584954502724756 -0.000768867088481783866882324219 0 0 0 0 
2408666666.6666665077 0.193268209695816012283486884371 0.035871151834726326679270158593 0.002189503517001866860630654443 -0.000786131771747022867202758789 0 0 0 0 
2408833333.3333334923 0.192509427666664095779580634371 0.035062704235315322875976562500 0.002093909075483680205104208838 -0.000712720560841262340545654297 0 0 0 0 
2409000000.0000000000 0.191547721624374389648437500000 0.034019213169813163066823591407 0.002010229974985123114344931494 -0.000812751357443630695343017578 0 0 0 0 
2409166666.6666665077 0.190612971782684298416299384371 0.033100213855504989624023437500 0.001984936185181140899658203125 -0.000900898186955600976943969727 0 0 0 0 
2409333333.3333334923 0.189767271280288696289062500000 0.032208595424890518188476562500 0.001928957877680659077287983472 -0.001103149843402206897735595703 0 0 0 0 
2409500000.0000000000 0.188443720340728787521200615629 0.030831219628453261638600935157 0.002175960224121809005737304688 -0.001073246821761131069780659253 0 0 0 0 
2409666666.6666665077 0.187459185719490106780682481258 0.029383808374404910696009451954 0.002154510002583264870884560693 -0.001182824140414596037623740088 0 0 0 0 
2409833333.3333334923 0.186447560787200899978799384371 0.027801711112260818481445312500 0.002193887718021870093104697119 -0.001347320969216525988337851416 0 0 0 0 
2410000000.0000000000 0.185525506734847994705361884371 0.026193041354417800903320312500 0.002012466313317418098449707031 -0.001242855796590446992161416162 0 0 0 0 
2410166666.6666665077 0.184360295534133911132812500000 0.024471985176205638540247733204 0.002208230318501592116114951025 -0.001350170350633562044856406104 0 0 0 0 
2410333333.3333334923 0.183590114116668701171875000000 0.022768029943108558654785156250 0.002023100387305020852329873193 -0.001490557915531099059461284106 0 0 0 0 
2410500000.0000000000 0.182554885745048495193643134371 0.020775128155946731567382812500 0.001925802323967217965366982568 -0.001639126800000668005702353369 0 0 0 0 
2410666666.6666665077 0.181685790419578607757244981258 0.018541328608989719045618826954 0.001888346741907298998591757666 -0.001584135810844599983812641675 0 0 0 0 
2410833333.3333334923 0.181211188435554504394531250000 0.016282947733998298645019531250 0.001858113566413521983503032153 -0.001752131269313395023345947266 0 0 0 0 
2411000000.0000000000 0.180507838726043701171875000000 0.014223107136785980569859688671 0.001724389730952679894090961987 -0.001966297859326004981994628906 0 0 0 0 
2411166666.6666665077 0.179732441902160589020098768742 0.011964113451540470123291015625 0.001699623768217862086055136572 -0.001812298316508532004115439307 0 0 0 0 
2411333333.3333334923 0.179112091660499600509481865629 0.009485923685133457183837890625 0.001671721111051738045336079175 -0.001962126232683659033534384619 0 0 0 0 
2411500000.0000000000 0.178848192095756503006143134371 0.007020231802016496658325195312 0.001665940973907708904863667065 -0.001909578801132739023921347510 0 0 0 0 
2411666666.6666665077 0.178695008158683804611044365629 0.004921742249280214309692382812 0.001552220550365746021270751953 -0.002118165604770183996913290869 0 0 0 0 
2411833333.3333334923 0.178241521120071411132812500000 0.002347552217543125152587890625 0.001537080737762152931810688550 -0.002188884653151034875157021631 0 0 0 0 
2412000000.0000000000 0.178474500775337191482705634371 -0.000158518654643557992860516959 0.001481339684687555053113627856 -0.002303061774000525908229208838 0 0 0 0 
2412166666.6666665077 0.178674027323722811599893134371 -0.002501200186088680787327431787 0.001386558287777007059810019385 -0.002362233586609363989589072119 0 0 0 0 
2412333333.3333334923 0.178670242428779602050781250000 -0.005069098901003599166870117188 0.001113351783715188936946249854 -0.002392159076407552199122763525 0 0 0 0 
2412500000.0000000000 0.179232627153396606445312500000 -0.007436102256178855895996093750 0.001274129142984748103498149341 -0.002278784289956092834472656250 0 0 0 0 
2412666666.6666665077 0.179702460765838595291299384371 -0.009894154034554958343505859375 0.001077833352610469081281352466 -0.002577641746029258208033896338 0 0 0 0 
2412833333.3333334923 0.180382445454597500900106865629 -0.012305323965847490483294102148 0.000729578954633325338363647461 -0.002420851495116949081420898438 0 0 0 0 
2413000000.0000000000 0.181292384862899808029013115629 -0.014665659517049789428710937500 0.000632747425697743892669677734 -0.002520008943974972204921103369 0 0 0 0 
2413166666.6666665077 0.181866064667701693435830634371 -0.016982706263661391521413435157 0.000441541982581839019626063214 -0.002560901222750544981715536963 0 0 0 0 
2413333333.3333334923 0.182953581213951110839843750000 -0.019167467951774600637415701954 0.000265842594671994501918238507 -0.002399992663413286209106445312 0 0 0 0 
2413500000.0000000000 0.183879330754280090332031250000 -0.021611772477626800537109375000 0.000284632144030183607905787335 -0.002428059931844472885131835938 0 0 0 0 
2413666666.6666665077 0.185002893209457397460937500000 -0.023696335032582279550572579296 0.000172792468219995498657226562 -0.002402768936008214950561523438 0 0 0 0 
2413833333.3333334923 0.185992240905761690994424384371 -0.025594564154744151723841483204 0.000002194615262851585126246652 -0.002289315219968556924107216943 0 0 0 0 
2414000000.0000000000 0.187180683016777010818643134371 -0.027609715238213539123535156250 0.000004555270606942941350391788 -0.002208888065069913864135742188 0 0 0 0 
2414166666.6666665077 0.188498869538307189941406250000 -0.029298728331923488271693045704 -0.000119961878226604299105782780 -0.002207001904025673866271972656 0 0 0 0 
2414333333.3333334923 0.189412117004394503494424384371 -0.031276218593120581890065778907 -0.000056415898143313831906726225 -0.002088083885610104040858603369 0 0 0 0 
2414500000.0000000000 0.190690711140632601638955634371 -0.032608166337013251567800153907 -0.000060490616306196898221969604 -0.001944619347341359095332480322 0 0 0 0 
2414666666.6666665077 0.191906422376632690429687500000 -0.034041866660118103027343750000 0.000063595121901016682386398315 -0.002043853746727108955383300781 0 0 0 0 
2414833333.3333334923 0.193150416016578702071981865629 -0.035484313964843750000000000000 0.000028438718800316571515014036 -0.002057252451777458190917968750 0 0 0 0 
2415000000.0000000000 0.194136917591094998458700615629 -0.036692086607217788696289062500 -0.000139450130518525811746874399 -0.002101473975926638083217001807 0 0 0 0 
2415166666.6666665077 0.195266366004943903167401231258 -0.037701036781072616577148437500 0.000003308920213385135866701603 -0.002176021691411734061000204932 0 0 0 0 
2415333333.3333334923 0.196674227714538601974325615629 -0.038705289363861077045481096093 0.000024925726393121301453521116 -0.002120605204254388809204101562 0 0 0 0 
2415500000.0000000000 0.197568625211715698242187500000 -0.039377551525831222534179687500 -0.000156492082169279510348719464 -0.002016290090978146033046103369 0 0 0 0 
2415666666.6666665077 0.198643147945404108245526231258 -0.040278319269418723369557966407 -0.000282560708001255989074707031 -0.002310549374669789834263466943 0 0 0 0 
2415833333.3333334923 0.199416756629943903167401231258 -0.040829069912433617328684221093 -0.000204788419068790999337872916 -0.002197538968175650076625204932 0 0 0 0 
2416000000.0000000000 0.200130224227905301193075615629 -0.041427299380302429199218750000 -0.000402328238124027902453822003 -0.002051075687631965117213583838 0 0 0 0 
2416166666.6666665077 0.200877174735069302657919365629 -0.041828230023384087299387346093 -0.000452185951871797388226109637 -0.002059007063508034186122275244 0 0 0 0 
2416333333.3333334923 0.201625332236290005782919365629 -0.042102783918380737304687500000 -0.000400449032895267009735107422 -0.002011903328821063041687011719 0 0 0 0 
2416500000.0000000000 0.201965659856796292404013115629 -0.042361184954643249511718750000 -0.000632678740657866001129150391 -0.001895626424811781103249574976 0 0 0 0 
2416666666.6666665077 0.202350974082946805099325615629 -0.042768560349941246723215471093 -0.000639598933048546314239501953 -0.001976466737687588171717978369 0 0 0 0 
2416833333.3333334923 0.202519103884696988204794365629 -0.042788289487361907958984375000 -0.000625409535132348537445068359 -0.001891061780042945904972695459 0 0 0 0 
2417000000.0000000000 0.202611953020095797439736884371 -0.042864877730607993389089216407 -0.000510796438902616500854492188 -0.001924810116179286999943398584 0 0 0 0 
2417166666.6666665077 0.202286079525947598556356865629 -0.042759925127029418945312500000 -0.000548525655176490653693044397 -0.001819140859879553101183247144 0 0 0 0 
2417333333.3333334923 0.201973825693130493164062500000 -0.042635753750801093364675153907 -0.000518693239428102970123291016 -0.001866173930466175079345703125 0 0 0 0 
2417500000.0000000000 0.201759397983550997635049384371 -0.042711291462182998657226562500 -0.000407508574426174218028467999 -0.002003646688535809950587607275 0 0 0 0 
2417666666.6666665077 0.201301246881485013107138115629 -0.042541727423667907714843750000 -0.000482823146739974617958068848 -0.002056837547570466995239257812 0 0 0 0 
2417833333.3333334923 0.200805276632308987716513115629 -0.042307145893573760986328125000 -0.000629485293757170438766479492 -0.002217524917796254158020019531 0 0 0 0 
2418000000.0000000000 0.200157582759857205489950615629 -0.042110934853553771972656250000 -0.000678865588270127773284912109 -0.002213533269241451783421181787 0 0 0 0 
2418166666.6666665077 0.199327185750007601638955634371 -0.042055912315845489501953125000 -0.000842863926663994789123535156 -0.002217079279944301085231161963 0 0 0 0 
2418333333.3333334923 0.198409140110015896896200615629 -0.041829396039247512817382812500 -0.000911152164917439222335815430 -0.002284663729369639916660927881 0 0 0 0 
2418500000.0000000000 0.197283506393432589431924384371 -0.041917309165000922466237653907 -0.000893501797690987586975097656 -0.002316573401913046836853027344 0 0 0 0 
2418666666.6666665077 0.196405753493308993240518134371 -0.041836477816104888916015625000 -0.001102579175494611046434711987 -0.002212944906204938888549804688 0 0 0 0 
2418833333.3333334923 0.195154637098312405685263115629 -0.041968945413827903057057966407 -0.001134208170697093009948730469 -0.002440572949126362800598144531 0 0 0 0 
2419000000.0000000000 0.193729236721992492675781250000 -0.042287033051252372051198591407 -0.001156246173195540904998779297 -0.002558150561526418165919638525 0 0 0 0 
2419166666.6666665077 0.192609697580337496658486884371 -0.042555637657642371440847028907 -0.001198593992739916064618754810 -0.002392955822870134873631142725 0 0 0 0 
2419333333.3333334923 0.191043615341186495681924384371 -0.043136879801750183105468750000 -0.001377392443828284957288432544 -0.002221886534243822097778320312 0 0 0 0 
2419500000.0000000000 0.189595267176628112792968750000 -0.043531421571969992900807966407 -0.001509889843873680071589804541 -0.002346306573599576950073242188 0 0 0 0 
2419666666.6666665077 0.188161343336105402190838731258 -0.044268485158681869506835937500 -0.001695625134743750095367431641 -0.002350391354411840005161904443 0 0 0 0 
2419833333.3333334923 0.186438947916030911544638115629 -0.044927071779966347431223283593 -0.001768393791280687072156596606 -0.002333475509658455848693847656 0 0 0 0 
