# Hz S RI R 50
2400000000.0000000000 0.168905317783355712890625000000 0.045598067343235022808034528907 -0.000343580846674740314483642578 0.005434249062091112136840820312 0 0 0 0 
2400166666.6666665077 0.169939070940017700195312500000 0.044670108705759048461914062500 -0.000228701916057616499349317007 0.005508034024387598037719726562 0 0 0 0 
2400333333.3333334923 0.170790642499923706054687500000 0.043472249060869216918945312500 0.000176404326339252293109893799 0.005323000717908143997192382812 0 0 0 0 
2400500000.0000000000 0.171752512454986600021200615629 0.042358789592981338500976562500 0.000310143746901303475529271259 0.005312229972332715988159179688 0 0 0 0 
2400666666.6666665077 0.172608196735382107833700615629 0.041310302913188927387277971093 0.000627981673460453748703002930 0.004986444022506474581246660449 0 0 0 0 
2400833333.3333334923 0.173552528023719787597656250000 0.040728949010372161865234375000 0.000720321200788021087646484375 0.005121911875903606414794921875 0 0 0 0 
2401000000.0000000000 0.174328714609146090408486884371 0.039901632815599441528320312500 0.000887038011569529771804809570 0.004947443492710590362548828125 0 0 0 0 
2401166666.6666665077 0.175080657005310086349325615629 0.039054613560438163066823591407 0.001133057638071476979496621240 0.004715708550065755844116210938 0 0 0 0 
2401333333.3333334923 0.175724014639854403396768134371 0.038484930992126471782643903907 0.001407464384101331017137836987 0.004529959987848997116088867188 0 0 0 0 
2401500000.0000000000 0.176409572362899808029013115629 0.037968907505273818969726562500 0.001577346352860331969020224463 0.004558069631457328796386718750 0 0 0 0 
2401666666.6666665077 0.176956564188003512283486884371 0.037433143705129623413085937500 0.001474099932238460020778036963 0.004370554350316525372976972363 0 0 0 0 
2401833333.3333334923 0.177572861313819913009481865629 0.036610584706068038940429687500 0.001625261036679149107692099463 0.004096909426152706146240234375 0 0 0 0 
2402000000.0000000000 0.177978411316871587555255018742 0.036309208720922470092773437500 0.001834532245993613979936909253 0.003886397695168852806091308594 0 0 0 0 
2402166666.6666665077 0.178421258926391601562500000000 0.035705834627151489257812500000 0.001658403896726668097852397388 0.004050172399729490280151367188 0 0 0 0 
2402333333.3333334923 0.178681805729866000076455634371 0.035090204328298568725585937500 0.001844453741796314933179545825 0.003774974495172501044032431494 0 0 0 0 
2402500000.0000000000 0.179312124848365811446981865629 0.034412901848554611206054687500 0.002074347808957099914550781250 0.003764083608984947204589843750 0 0 0 0 
2402666666.6666665077 0.179480418562889099121093750000 0.033992607146501541137695312500 0.002116202143952250914332724463 0.003672064980491995811462402344 0 0 0 0 
2402833333.3333334923 0.179614543914794894119424384371 0.033219732344150543212890625000 0.002084665931761264801025390625 0.003539330093190073966979980469 0 0 0 0 
2403000000.0000000000 0.179644256830215509612713731258 0.032558277249336242675781250000 0.002148068277165294127223349463 0.003371704369783401922938681494 0 0 0 0 
2403166666.6666665077 0.179704204201698303222656250000 0.031881656497716896747629533593 0.002401825040578842163085937500 0.003403506008908153013942099463 0 0 0 0 
2403333333.3333334923 0.179571032524108886718750000000 0.031053965911269191396693045704 0.002484095981344581084010458838 0.003351408289745450019836425781 0 0 0 0 
2403500000.0000000000 0.179354101419448908050213731258 0.029983976855874061584472656250 0.002417067065834999084472656250 0.003338340437039732933044433594 0 0 0 0 
2403666666.6666665077 0.179172664880752591232138115629 0.028964612632989879953404610546 0.002600464504212141036987304688 0.003193975659087299866917275537 0 0 0 0 
2403833333.3333334923 0.179021686315536499023437500000 0.028216291218996051443079764454 0.002661114092916249795200966943 0.003188677364960312843322753906 0 0 0 0 
2404000000.0000000000 0.178626522421836908538494981258 0.027182409539818760263463204296 0.002823379822075366973876953125 0.002849734853953123092651367188 0 0 0 0 
2404166666.6666665077 0.178184211254119900802450615629 0.025749282911419868469238281250 0.002896285615861415863037109375 0.002757695503532886938807822119 0 0 0 0 
2404333333.3333334923 0.177765950560569790939169365629 0.024718947708606719970703125000 0.002891783835366367860081338037 0.002762450370937585830688476562 0 0 0 0 
2404500000.0000000000 0.177260458469390896896200615629 0.023133587092161178588867187500 0.002911075949668883843662881006 0.002746999729424715042114257812 0 0 0 0 
2404666666.6666665077 0.176901459693908691406250000000 0.021892765536904338491419608204 0.003037721151486039161682128906 0.002609404269605875015258789062 0 0 0 0 
2404833333.3333334923 0.176366746425628689864950615629 0.020671846345067020761510079296 0.003146116156131029129028320312 0.002282212954014540152308798682 0 0 0 0 
2405000000.0000000000 0.175936833024024991134481865629 0.018956381827592849731445312500 0.003385118441656231880187988281 0.002069775247946382002589560400 0 0 0 0 
2405166666.6666665077 0.175405547022819491287393134371 0.017455156892538070678710937500 0.003405942581593989892246865381 0.002001711400225758986232138525 0 0 0 0 
2405333333.3333334923 0.175011083483696011642294365629 0.015628637745976451528528983204 0.003376028034836053848266601562 0.001710529555566608905792236328 0 0 0 0 
2405500000.0000000000 0.174630880355834988693075615629 0.014180685393512250727643397852 0.003589497180655599074122763525 0.001648596255108714103698730469 0 0 0 0 
2405666666.6666665077 0.174179047346115112304687500000 0.012320714071393009531041329296 0.003587147220969200134277343750 0.001503052655607461929321289062 0 0 0 0 
2405833333.3333334923 0.173638895153999300857705634371 0.010682195425033569335937500000 0.003389886347576975822448730469 0.001302035525441169955609965747 0 0 0 0 
2406000000.0000000000 0.173597469925880404373330634371 0.008507741615176200866699218750 0.003472492331638931794407509912 0.001073372899554670073865580981 0 0 0 0 
2406166666.6666665077 0.173012793064117403885049384371 0.006834577303379774093627929688 0.003338783979415893988368368994 0.000740311748813837766647338867 0 0 0 0 
2406333333.3333334923 0.173094302415847806075888115629 0.004995373077690601348876953125 0.003288615029305220083949423682 0.000767552934121340513229370117 0 0 0 0 
2406500000.0000000000 0.172770440578460693359375000000 0.002877172315493226051330566406 0.003356687026098370985743857275 0.000780922768171876668930053711 0 0 0 0 
2406666666.6666665077 0.172547891736030606368856865629 0.000881673593539744615554809570 0.003325607860460876984837197412 0.000428907340392470414012354718 0 0 0 0 
2406833333.3333334923 0.172669231891632107833700615629 -0.001287446939386426968815468896 0.003193764947354793982264853369 0.000413133820984512621730250226 0 0 0 0 
2407000000.0000000000 0.172755688428878811935263115629 -0.003299942938610910935642861475 0.003084096126258372826817177881 0.000089946319349110126495361328 0 0 0 0 
2407166666.6666665077 0.172845572233200100997763115629 -0.005265819840133190155029296875 0.002951058791950345039367675781 -0.000017956730516743849625791243 0 0 0 0 
2407333333.3333334923 0.172891229391097994705361884371 -0.007604186423122882843017578125 0.003042697208002210097071982275 -0.000092387235781643539667129517 0 0 0 0 
2407500000.0000000000 0.173068091273307800292968750000 -0.009493048302829265594482421875 0.002981947967782617048976279150 -0.000045596556446980691771914823 0 0 0 0 
2407666666.6666665077 0.173377245664596613128338731258 -0.011557816527783870697021484375 0.002644706284627317948582314600 -0.000193773026694543686792096548 0 0 0 0 
2407833333.3333334923 0.173474967479705810546875000000 -0.013769024983048440760602382227 0.002643132582306861877441406250 -0.000380166282411664724349975586 0 0 0 0 
2408000000.0000000000 0.173908844590187100509481865629 -0.015872133895754810678502266796 0.002500299597159028053283691406 -0.000341869366820901578098851337 0 0 0 0 
2408166666.6666665077 0.174300923943519592285156250000 -0.017622750252485278738001639454 0.002566667273640633063075400244 -0.000450243009254336411326807843 0 0 0 0 
2408333333.3333334923 0.174862295389175387283486884371 -0.019576100632548328744908516796 0.002394112292677164077758789062 -0.000525451148860156536102294922 0 0 0 0 
2408500000.0000000000 0.175161108374595586578692518742 -0.021583748981356620788574218750 0.002179508563131093978881835938 -0.000546529481653124094009399414 0 0 0 0 
2408666666.6666665077 0.175566568970680209060830634371 -0.023343302309513088571568673046 0.002121721860021353201625204932 -0.000659487908706068992614746094 0 0 0 0 
2408833333.3333334923 0.175892636179924011230468750000 -0.025191092863678928720494454296 0.001970677170902491049525595557 -0.000602515647187829017639160156 0 0 0 0 
2409000000.0000000000 0.176365807652473505218182481258 -0.026709089055657390249232108204 0.001875073765404521985294961084 -0.000615188095252960920333862305 0 0 0 0 
2409166666.6666665077 0.176869958639144897460937500000 -0.028344703838229179382324218750 0.001733364770188928084132529150 -0.000616102886851876974105834961 0 0 0 0 
2409333333.3333334923 0.177412241697311401367187500000 -0.029897913336753848684290701954 0.001610605977475642941118549878 -0.000681813864503055810928344727 0 0 0 0 
2409500000.0000000000 0.177819013595581110198651231258 -0.031264673918485641479492187500 0.001462724176235496997833251953 -0.000393334223190322518348693848 0 0 0 0 
2409666666.6666665077 0.178213253617286709884481865629 -0.032463874667882919311523437500 0.001406556461006402969360351562 -0.000364010891644284074932652606 0 0 0 0 
2409833333.3333334923 0.178755551576614407638388115629 -0.033468540757894522930104841407 0.001328702433966099999071430737 -0.000448864826466888189315795898 0 0 0 0 
2410000000.0000000000 0.179341807961463900467080634371 -0.034643217921257019042968750000 0.001306751044467091994044638525 -0.000297296355711296200752258301 0 0 0 0 
2410166666.6666665077 0.179876953363418606857138115629 -0.035558436065912246704101562500 0.001274825772270560047746967847 -0.000077390017395373433828353882 0 0 0 0 
2410333333.3333334923 0.180059596896171597579794365629 -0.036454699933528900146484375000 0.001237742719240487055537558447 -0.000109765809611417393810810228 0 0 0 0 
2410500000.0000000000 0.180507719516754205901776231258 -0.037225749343633651733398437500 0.001430650940164924101588583838 -0.000148668783367611494943341666 0 0 0 0 
2410666666.6666665077 0.180852159857749911209268134371 -0.038005441427230841899831403907 0.001291084685362875895259238135 0.000113919981231447295703072820 0 0 0 0 
2410833333.3333334923 0.181381493806838989257812500000 -0.038618411868810646747629533593 0.001300846342928708033320761572 0.000137514827656559700339716779 0 0 0 0 
2411000000.0000000000 0.181603014469146700760049384371 -0.039274405688047409057617187500 0.001297213253565133051631308447 0.000156519221491180387422284537 0 0 0 0 
2411166666.6666665077 0.181681171059608487228231865629 -0.039795666933059692382812500000 0.001460776082240045070648193359 0.000329362112097442204326075421 0 0 0 0 
2411333333.3333334923 0.181751415133476312835369981258 -0.040180902928113937377929687500 0.001563365454785526015638041919 0.000402356527047231793403625488 0 0 0 0 
2411500000.0000000000 0.181953519582748413085937500000 -0.040840491652488708496093750000 0.001755945035256444974186562646 0.000309882481815293377071934833 0 0 0 0 
2411666666.6666665077 0.182070672512054387848223768742 -0.041225854307413101196289062500 0.001836392446421087005017924731 0.000284797395579516887664794922 0 0 0 0 
2411833333.3333334923 0.181995183229446411132812500000 -0.041476804763078689575195312500 0.002015781356021761894226074219 0.000448622566182166283756810321 0 0 0 0 
2412000000.0000000000 0.181780114769935607910156250000 -0.042078297585248947143554687500 0.002005378948524593873264931787 0.000439839961472898721694946289 0 0 0 0 
2412166666.6666665077 0.181342050433158902267294365629 -0.042626272886991500854492187500 0.002332261763513087792637490381 0.000390758883440867120593470441 0 0 0 0 
2412333333.3333334923 0.181159257888794000823651231258 -0.042809311300516128540039062500 0.002548329299315810203552246094 0.000353984127286821603775024414 0 0 0 0 
2412500000.0000000000 0.180472314357757596114950615629 -0.043048728257417678833007812500 0.002410459564998745918273925781 0.000235430357861332595348358154 0 0 0 0 
2412666666.6666665077 0.180105537176132202148437500000 -0.043531771749258041381835937500 0.002647053450345993041992187500 0.000017376023606630038807188340 0 0 0 0 
2412833333.3333334923 0.179461777210235595703125000000 -0.043913867324590682983398437500 0.002864519832655787901637411963 -0.000036036697565577917475292818 0 0 0 0 
2413000000.0000000000 0.178751096129417391678018134371 -0.044247429817914962768554687500 0.002933955518528819084167480469 -0.000221884300117380889967241830 0 0 0 0 
2413166666.6666665077 0.177809178829193087478799384371 -0.044747702777385711669921875000 0.002977317664772272109985351562 -0.000311923417029902284771519794 0 0 0 0 
2413333333.3333334923 0.176800608634948702713174384371 -0.045016914606094360351562500000 0.002865871647372841835021972656 -0.000422937300754710977703648700 0 0 0 0 
2413500000.0000000000 0.175989925861358587066973768742 -0.045606821775436401367187500000 0.003027602797374128861668252100 -0.000688347732648253440856933594 0 0 0 0 
2413666666.6666665077 0.175065115094184903243856865629 -0.046217180788516998291015625000 0.003110366174951196150538779150 -0.000990886124782264232635498047 0 0 0 0 
2413833333.3333334923 0.173768341541290310958700615629 -0.046675466001033782958984375000 0.002889393363147974014282226562 -0.000918945006560534238815307617 0 0 0 0 
2414000000.0000000000 0.172536283731460599044638115629 -0.047531861811876296997070312500 0.002941703656688332991359091650 -0.001199860707856714942334819263 0 0 0 0 
2414166666.6666665077 0.171675458550453213790731865629 -0.048111207783222198486328125000 0.002891521900892258124110556494 -0.001285037724301218986511230469 0 0 0 0 
2414333333.3333334923 0.170403078198432894607705634371 -0.048865113407373428344726562500 0.002700013807043433189392089844 -0.001501614809967578107949282007 0 0 0 0 
2414500000.0000000000 0.169333696365356500823651231258 -0.049803715199232101440429687500 0.002790227066725492911097861182 -0.001488720299676060893415141528 0 0 0 0 
2414666666.6666665077 0.167958945035934503753338731258 -0.050705943256616592407226562500 0.002599202794954181151149130713 -0.001745371846482157924054789966 0 0 0 0 
2414833333.3333334923 0.166728317737579401214276231258 -0.051831580698490142822265625000 0.002542565809562801881077431787 -0.001943341689184308052062988281 0 0 0 0 
2415000000.0000000000 0.165522560477256802657919365629 -0.052840095013380050659179687500 0.002420085482299327850341796875 -0.001911112340167165019391704028 0 0 0 0 
2415166666.6666665077 0.164276972413063104827557481258 -0.054004061967134482646901716407 0.002315046964213252067565917969 -0.001982477959245442910435341943 0 0 0 0 
2415333333.3333334923 0.163195952773094205001669365629 -0.055516511201858520507812500000 0.002196701243519783020019531250 -0.002000996377319097952601767432 0 0 0 0 
2415500000.0000000000 0.161942064762115506271200615629 -0.056677233427762992168386091407 0.002084867330268024964573525537 -0.002165143378078937964198447119 0 0 0 0 
2415666666.6666665077 0.160868361592292813400106865629 -0.058142807334661476825754533593 0.001979464897885919050929404150 -0.002091443166136742071864462744 0 0 0 0 
2415833333.3333334923 0.159838259220123291015625000000 -0.059770446270704269409179687500 0.001987387659028172926661826025 -0.002077275887131690979003906250 0 0 0 0 
2416000000.0000000000 0.158636614680290194412393134371 -0.061328481882810592651367187500 0.001867699902504682974574423682 -0.002189734252169727845432900537 0 0 0 0 
2416166666.6666665077 0.157726883888244601150674384371 -0.063005752861499786376953125000 0.001945866388268769004224467700 -0.002185556804761290983912802588 0 0 0 0 
2416333333.3333334923 0.156752973794937106033486884371 -0.064828976988792419433593750000 0.001820409554056823036791157300 -0.002081813057884573936462402344 0 0 0 0 
2416500000.0000000000 0.155840113759040804763955634371 -0.066649042069911956787109375000 0.001769094262272119955775595557 -0.002109125023707747893092490088 0 0 0 0 
2416666666.6666665077 0.154885962605476407150106865629 -0.068511545658111572265625000000 0.001712564378976821899414062500 -0.002177536254748702049255371094 0 0 0 0 
2416833333.3333334923 0.154110491275787409026776231258 -0.070459909737110137939453125000 0.001645979005843400955200195312 -0.002223972696810961203334189307 0 0 0 0 
2417000000.0000000000 0.153238013386726407150106865629 -0.072312824428081512451171875000 0.001671036821790039973018027197 -0.002295080805197358131408691406 0 0 0 0 
2417166666.6666665077 0.152611523866653386871661268742 -0.074089035391807556152343750000 0.001580009469762444929835654150 -0.002448713406920433044433593750 0 0 0 0 
2417333333.3333334923 0.151974618434906005859375000000 -0.076010264456272125244140625000 0.001656714943237602927564311450 -0.002393893897533417181727743994 0 0 0 0 
2417500000.0000000000 0.151477217674255398849325615629 -0.078085377812385559082031250000 0.001447475748136640028712607275 -0.002440672600641847090480185400 0 0 0 0 
2417666666.6666665077 0.150905936956405611892861884371 -0.079843185842037200927734375000 0.001585111487656831958173442310 -0.002476155757904053168055868994 0 0 0 0 
2417833333.3333334923 0.150617182254791287521200615629 -0.081586219370365142822265625000 0.001667350414209068038343120044 -0.002460319316014647917506552588 0 0 0 0 
2418000000.0000000000 0.150147959589958190917968750000 -0.083563365042209625244140625000 0.001422573928721249103546142578 -0.002637699712067842917201376807 0 0 0 0 
2418166666.6666665077 0.149874493479728698730468750000 -0.085101857781410217285156250000 0.001375399646349251053453754956 -0.002636753953993320898768759619 0 0 0 0 
2418333333.3333334923 0.149862214922904996017294365629 -0.086866043508052825927734375000 0.001343997777439654090284038013 -0.002733159577473998069763183594 0 0 0 0 
2418500000.0000000000 0.149637281894683810135049384371 -0.088435620069503784179687500000 0.001351431244984268925310444409 -0.002744865138083695931675576318 0 0 0 0 
2418666666.6666665077 0.149570539593696594238281250000 -0.090077094733715057373046875000 0.001197373378090560002567910303 -0.002839287510141729874851845850 0 0 0 0 
2418833333.3333334923 0.149429619312286404708700615629 -0.091516055166721343994140625000 0.001257583033293486075160361182 -0.002974725794047116799595498193 0 0 0 0 
2419000000.0000000000 0.149337455630302401443643134371 -0.092860132455825805664062500000 0.001148832263424992995021201025 -0.003052511019632219834568642725 0 0 0 0 
2419166666.6666665077 0.149602815508842496017294365629 -0.094015292823314666748046875000 0.001005574478767812035204243237 -0.003206046763807535171508789062 0 0 0 0 
2419333333.3333334923 0.149396449327468899825888115629 -0.095073595643043518066406250000 0.001036976231262088038800883716 -0.003188797971233725981471396338 0 0 0 0 
2419500000.0000000000 0.149693936109542902190838731258 -0.096269898116588592529296875000 0.001029146253131330013275146484 -0.003200347069650888009312295068 0 0 0 0 
2419666666.6666665077 0.149902656674385098556356865629 -0.097177684307098388671875000000 0.000781730283051729202270507812 -0.003265742212533950805664062500 0 0 0 0 
2419833333.3333334923 0.149942427873611505706463731258 -0.097795821726322174072265625000 0.000732561980839818716049194336 -0.003334125038236380057093954932 0 0 0 0 
