# Hz S RI R 50
2400000000.0000000000 0.169063001871109008789062500000 0.045699272304773330688476562500 -0.000506269570905715227127075195 0.005593993701040744781494140625 0 0 0 0 
2400166666.6666665077 0.170119345188140896896200615629 0.044681113213300711894948591407 -0.000232438207603991004541674203 0.005523109808564186096191406250 0 0 0 0 
2400333333.3333334923 0.171066612005233792404013115629 0.043537478893995291973073591407 0.000018059907233691770920549699 0.005493232049047946929931640625 0 0 0 0 
2400500000.0000000000 0.172013267874717712402343750000 0.042538613080978386615793596093 0.000449313374701887423365992413 0.005265314131975173950195312500 0 0 0 0 
2400666666.6666665077 0.172791570425033597091513115629 0.041574124246835708618164062500 0.000658879813272505998611450195 0.005316734313964843750000000000 0 0 0 0 
2400833333.3333334923 0.173768714070320101638955634371 0.040794406086206443096120466407 0.000888424983713775873184204102 0.005032272078096866607666015625 0 0 0 0 
2401000000.0000000000 0.174490362405777005294638115629 0.039906181395053856586496721093 0.001021708478219806931139301831 0.004939341451972723007202148438 0 0 0 0 
2401166666.6666665077 0.175343006849288912674111884371 0.039218157529830932617187500000 0.001197573612444102980970073169 0.004796768072992563247680664062 0 0 0 0 
2401333333.3333334923 0.175823524594307001311932481258 0.038625258952379226684570312500 0.001384920673444866917253803784 0.004653545096516609191894531250 0 0 0 0 
2401500000.0000000000 0.176752656698226900955361884371 0.037913005799055099487304687500 0.001499625388532876968383789062 0.004451815970242024335379316113 0 0 0 0 
2401666666.6666665077 0.177279144525528009612713731258 0.037247754633426673198659528907 0.001440191525034607107277895288 0.004320594016462565335745527051 0 0 0 0 
2401833333.3333334923 0.177868694067001287262286268742 0.036804493516683578491210937500 0.001643356517888606028315878760 0.004180812742561101913452148438 0 0 0 0 
2402000000.0000000000 0.178011834621429387848223768742 0.036183830350637442851979841407 0.001730239251628518104553222656 0.004034203477203845977783203125 0 0 0 0 
2402166666.6666665077 0.178650528192520113845986884371 0.035379093140363693237304687500 0.001804080558940768025041889722 0.003994347061961889266967773438 0 0 0 0 
2402333333.3333334923 0.178980529308319091796875000000 0.035018924623727798461914062500 0.002015805570408701896667480469 0.003814410883933306174037314307 0 0 0 0 
2402500000.0000000000 0.179506853222847012618856865629 0.034377839416265487670898437500 0.001930561731569468975067138672 0.003674990730360149903538369287 0 0 0 0 
2402666666.6666665077 0.179377168416976900955361884371 0.033852685242891311645507812500 0.002012882847338914871215820312 0.003756694262847303910496377100 0 0 0 0 
2402833333.3333334923 0.179673805832862909515057481258 0.033128011971712112426757812500 0.002453338121995329856872558594 0.003670358564704657034633017432 0 0 0 0 
2403000000.0000000000 0.179780438542366000076455634371 0.032575223594903952861745466407 0.002194279106333851814270019531 0.003475441597402095794677734375 0 0 0 0 
2403166666.6666665077 0.179726421833038302322549384371 0.031656172126531600952148437500 0.002466137986630200906040810693 0.003507976885884999795200966943 0 0 0 0 
2403333333.3333334923 0.179758265614509610275106865629 0.030851118266582489013671875000 0.002405046951025723977329873193 0.003342735348269342942478798975 0 0 0 0 
2403500000.0000000000 0.179454490542411804199218750000 0.029952481389045718801478201954 0.002497820183634757995605468750 0.003265389706939458847045898438 0 0 0 0 
2403666666.6666665077 0.179263547062873812576455634371 0.028922237455844879150390625000 0.002667832421138883070704794775 0.003306328086182475090026855469 0 0 0 0 
2403833333.3333334923 0.179073125123977688888388115629 0.027958773076534271240234375000 0.002698253141716123060939169775 0.003083472372964024977443076025 0 0 0 0 
2404000000.0000000000 0.178749099373817388336505018742 0.026929693296551700937291329296 0.002695777919143437905552529443 0.002929395064711571173426962744 0 0 0 0 
2404166666.6666665077 0.178398087620735196212606865629 0.025719720870256420480748360546 0.002968304557725787162780761719 0.002987175947055221037623740088 0 0 0 0 
2404333333.3333334923 0.177894040942192105392294365629 0.024559749290347099304199218750 0.003153630532324314117431640625 0.002703446429222822189331054688 0 0 0 0 
2404500000.0000000000 0.177172407507896395584268134371 0.023162089288234710693359375000 0.003170977113768457932713173975 0.002562122652307153181788779150 0 0 0 0 
2404666666.6666665077 0.176876693964004488845986884371 0.021693313494324680673619454296 0.003145477734506129784824990381 0.002454048488289117813110351562 0 0 0 0 
2404833333.3333334923 0.176424175500869806487713731258 0.020453762263059619558314139454 0.003263742430135608153102255713 0.002374777104705572128295898438 0 0 0 0 
2405000000.0000000000 0.175934195518493707854901231258 0.018792340531945228576660156250 0.003457317361608148054835654150 0.002218805719166994094848632812 0 0 0 0 
2405166666.6666665077 0.175376892089843805511151231258 0.017242971807718280446986014454 0.003446780145168304009678506006 0.002082723192870616912841796875 0 0 0 0 
2405333333.3333334923 0.175030753016471890548544365629 0.015513663180172439920445626171 0.003512813709676266150233603369 0.001838236232288181998609233325 0 0 0 0 
2405500000.0000000000 0.174539223313331604003906250000 0.014013257808983329427698905079 0.003614816116169095039367675781 0.001709486823529005050659179688 0 0 0 0 
2405666666.6666665077 0.174120515584945706466513115629 0.012295537628233429300328438671 0.003627932863309979005100869287 0.001340403687208890914916992188 0 0 0 0 
2405833333.3333334923 0.173793584108352688888388115629 0.010541767813265320169469063671 0.003505741246044636206385947119 0.001245238701812922954559326172 0 0 0 0 
2406000000.0000000000 0.173423394560813903808593750000 0.008506240323185920715332031250 0.003650841768831015066859579932 0.001040160306729376099230122144 0 0 0 0 
2406166666.6666665077 0.173046991229057312011718750000 0.006784331053495407104492187500 0.003600463271141051812412881006 0.000941205129493027925491333008 0 0 0 0 
2406333333.3333334923 0.173044070601463290115518134371 0.004860226064920425415039062500 0.003706547897309064865112304688 0.000644949439447373151779174805 0 0 0 0 
2406500000.0000000000 0.172754511237144497970419365629 0.002859381027519702911376953125 0.003415839048102498054504394531 0.000507637567352503538131713867 0 0 0 0 
2406666666.6666665077 0.172655716538429288009481865629 0.000829843687824904918670654297 0.003384103300049901008605957031 0.000463813805254176313250941144 0 0 0 0 
2406833333.3333334923 0.172676861286163302322549384371 -0.001310604973696172020555805737 0.003224106738343834877014160156 0.000114106471301056403987346510 0 0 0 0 
2407000000.0000000000 0.172718495130538912674111884371 -0.003351246239617466926574707031 0.003119855420663952827453613281 0.000066408691054675728082656860 0 0 0 0 
2407166666.6666665077 0.172704502940177889724893134371 -0.005530914291739463806152343750 0.003149421885609627203700400244 -0.000078477860370185226202011108 0 0 0 0 
2407333333.3333334923 0.172761470079421997070312500000 -0.007592168636620044708251953125 0.002972632646560668945312500000 -0.000112378344056196497239251408 0 0 0 0 
2407500000.0000000000 0.173046424984932001311932481258 -0.009719976224005222320556640625 0.002867448143661022186279296875 -0.000311026436975225806236267090 0 0 0 0 
2407666666.6666665077 0.173267900943756103515625000000 -0.011693050153553489339808280079 0.002885585185140370888950966943 -0.000449132407084107398986816406 0 0 0 0 
2407833333.3333334923 0.173351362347602788727130018742 -0.013767971657216550654401210352 0.002779454691335558891296386719 -0.000393181951949372887611389160 0 0 0 0 
2408000000.0000000000 0.173878282308578491210937500000 -0.016025107353925708425501639454 0.002685446990653872923610068213 -0.000549137126654386520385742188 0 0 0 0 
2408166666.6666665077 0.174108847975730895996093750000 -0.017749706283211711538294608204 0.002483876189216970963719033350 -0.000444805918959900682598668231 0 0 0 0 
2408333333.3333334923 0.174678876996040288727130018742 -0.019701955839991569519042968750 0.002453436376526951789855957031 -0.000596024852711707353591918945 0 0 0 0 
2408500000.0000000000 0.175072610378265408614950615629 -0.021781951189041141164759451954 0.002421008190140128135681152344 -0.000674972485285252332687377930 0 0 0 0 
2408666666.6666665077 0.175366029143333407303018134371 -0.023541064932942390441894531250 0.002187558682635426954982138525 -0.000584679481107741594314575195 0 0 0 0 
2408833333.3333334923 0.175815224647522000411825615629 -0.025362486019730571401575858204 0.002146087819710373878479003906 -0.000660614459775388240814208984 0 0 0 0 
2409000000.0000000000 0.176264837384223910232705634371 -0.026850128546357158315638358204 0.001824851729907094998600625146 -0.000595870893448591232299804688 0 0 0 0 
2409166666.6666665077 0.176761522889137295821981865629 -0.028417212888598438608189766796 0.001901711919344962076899863135 -0.000614791410043835639953613281 0 0 0 0 
2409333333.3333334923 0.177358210086822509765625000000 -0.029802067205309871328333670704 0.001662175287492573044420551831 -0.000774627958890050649642944336 0 0 0 0 
2409500000.0000000000 0.177592501044273404220419365629 -0.031258478760719299316406250000 0.001513930852524935982347797925 -0.000603642140049487352371215820 0 0 0 0 
2409666666.6666665077 0.178035512566566495040731865629 -0.032490707933902740478515625000 0.001452016294933855967280722510 -0.000495745800435543060302734375 0 0 0 0 
2409833333.3333334923 0.178556606173515292068643134371 -0.033465109765529632568359375000 0.001289860112592577934265136719 -0.000381518824724480509757995605 0 0 0 0 
2410000000.0000000000 0.179179936647415188888388115629 -0.034561388194561011577565778907 0.001341091003268956921221088940 -0.000423218007199466174274998798 0 0 0 0 
2410166666.6666665077 0.179543197154998807052450615629 -0.035401172935962677001953125000 0.001311578322201967022539448315 -0.000332245544996112585067749023 0 0 0 0 
2410333333.3333334923 0.179898962378501892089843750000 -0.036315497010946266864817033593 0.001350912265479565100428915869 -0.000357748387614265084266662598 0 0 0 0 
2410500000.0000000000 0.180448234081268310546875000000 -0.037176441401243209838867187500 0.001299813156947493986842490088 -0.000174636152223683893680572510 0 0 0 0 
2410666666.6666665077 0.180606037378311212737713731258 -0.037976719439029686664621721093 0.001306067570112646059748984229 -0.000230161414947360808223170148 0 0 0 0 
2410833333.3333334923 0.181082502007484408279580634371 -0.038490973412990570068359375000 0.001375119551084936098811484229 0.000077941942436154931783676147 0 0 0 0 
2411000000.0000000000 0.181432947516441400725994981258 -0.039160016924142837524414062500 0.001354947453364730098127055591 -0.000008415048796450719237327576 0 0 0 0 
2411166666.6666665077 0.181614905595779391189736884371 -0.039739336818456649780273437500 0.001474460237659513950347900391 0.000159674484166316688060760498 0 0 0 0 
2411333333.3333334923 0.181805610656738309005575615629 -0.040114730596542358398437500000 0.001611022162251174016239785303 0.000235671788686886402681627817 0 0 0 0 
2411500000.0000000000 0.181802764534950311858807481258 -0.040822386741638176654856096093 0.001733757671900093989131308447 0.000249996053753420710563659668 0 0 0 0 
2411666666.6666665077 0.182143926620483398437500000000 -0.041243530809879302978515625000 0.001870616921223700046539306641 0.000156310634338297004073542462 0 0 0 0 
2411833333.3333334923 0.181967005133628900725994981258 -0.041614081710577011108398437500 0.001973877893760799927952431787 0.000381098012439906597137451172 0 0 0 0 
2412000000.0000000000 0.181788519024848910232705634371 -0.042076408863067626953125000000 0.002013264456763863997218466650 0.000289532123133540207713526593 0 0 0 0 
2412166666.6666665077 0.181368008255958612640057481258 -0.042370650917291641235351562500 0.002244292525574564933776855469 0.000149056257214397192001342773 0 0 0 0 
2412333333.3333334923 0.181187435984611511230468750000 -0.042599767446517937397043596093 0.002255784347653388977050781250 0.000206887387321330606937408447 0 0 0 0 
2412500000.0000000000 0.180430993437767001053018134371 -0.042794380336999893188476562500 0.002422147663310170173645019531 0.000047987763537093997001647949 0 0 0 0 
2412666666.6666665077 0.180103972554206903655682481258 -0.043535463511943817138671875000 0.002621714025735855102539062500 -0.000161026298883371109336298810 0 0 0 0 
2412833333.3333334923 0.179412603378295898437500000000 -0.043806053698062896728515625000 0.002705759601667522950413369287 -0.000164144468726590302869519644 0 0 0 0 
2413000000.0000000000 0.178680047392845209319744981258 -0.043945532292127609252929687500 0.002805733354762196974513388525 -0.000357010343577712774276733398 0 0 0 0 
2413166666.6666665077 0.177915006875991793533486884371 -0.044690977782011032104492187500 0.002868632553145288987400673975 -0.000370499095879495089680272235 0 0 0 0 
2413333333.3333334923 0.176899001002311706542968750000 -0.044979043304920196533203125000 0.002883666427806020216700888525 -0.000597552396357059478759765625 0 0 0 0 
2413500000.0000000000 0.175948038697242709060830634371 -0.045308310538530349731445312500 0.002765020588412880897521972656 -0.000798159395344555377960205078 0 0 0 0 
2413666666.6666665077 0.174888610839843805511151231258 -0.046006001532077789306640625000 0.002909061964601277871372841943 -0.000943366729188710451126098633 0 0 0 0 
2413833333.3333334923 0.173787802457809503753338731258 -0.046667933464050292968750000000 0.002771204803138970895054482568 -0.001141654094681143977521586841 0 0 0 0 
2414000000.0000000000 0.172673672437667902190838731258 -0.047367252409458160400390625000 0.002603666391223669052124023438 -0.001345864729955791993382119287 0 0 0 0 
2414166666.6666665077 0.171578317880630493164062500000 -0.047995369881391532207448591407 0.002636993769556283950805664062 -0.001417175750248133919359516675 0 0 0 0 
2414333333.3333334923 0.170343160629272488693075615629 -0.048933103680610656738281250000 0.002528122393414378166198730469 -0.001474468270316720008850097656 0 0 0 0 
2414500000.0000000000 0.169313609600067110916299384371 -0.049697194248437881469726562500 0.002415530616417527198791503906 -0.001757457386702298901201557690 0 0 0 0 
2414666666.6666665077 0.168017998337745694259481865629 -0.050553292036056518554687500000 0.002424609381705522970912314307 -0.001732891658321022987365722656 0 0 0 0 
2414833333.3333334923 0.166760116815566988845986884371 -0.051782451570034027099609375000 0.002178299240767956213710165869 -0.001699863118119538047193217700 0 0 0 0 
2415000000.0000000000 0.165536642074584988693075615629 -0.052749272435903549194335937500 0.002210378646850585937500000000 -0.001829574350267648913739848560 0 0 0 0 
2415166666.6666665077 0.164363861083984402755575615629 -0.054006155580282211303710937500 0.002244733041152358055114746094 -0.001947091193869709968566894531 0 0 0 0 
2415333333.3333334923 0.163289055228233309646768134371 -0.055293560028076171875000000000 0.002044764114543796019313193213 -0.001951898331753910021540976416 0 0 0 0 
2415500000.0000000000 0.162083745002746609786825615629 -0.056633435189723968505859375000 0.002011811593547462983372353662 -0.001910021179355680942535400391 0 0 0 0 
2415666666.6666665077 0.160810515284538296798544365629 -0.058043465018272399902343750000 0.001750573166646062894108437646 -0.002067182678729296164271689307 0 0 0 0 
2415833333.3333334923 0.159955188632011413574218750000 -0.059653621166944496845285783593 0.001928482786752284006831503760 -0.002177978632971643967869423975 0 0 0 0 
2416000000.0000000000 0.158588111400604303558026231258 -0.061319343745708472515065778907 0.001806082203984260992762900244 -0.002071971772238612174987792969 0 0 0 0 
2416166666.6666665077 0.157843902707099886795205634371 -0.062995821237564086914062500000 0.001703161513432859940769814600 -0.001996071543544530868530273438 0 0 0 0 
2416333333.3333334923 0.156800404191017206390057481258 -0.064704634249210357666015625000 0.001753350370563566901563334888 -0.002114708302542566819431923975 0 0 0 0 
2416500000.0000000000 0.155912801623344393631143134371 -0.066513225436210632324218750000 0.001734387362375855012180947412 -0.002142364392057061195373535156 0 0 0 0 
2416666666.6666665077 0.155024647712707491775674384371 -0.068293347954750061035156250000 0.001594213885255157947540283203 -0.002131027635186911062953329932 0 0 0 0 
2416833333.3333334923 0.154251843690872192382812500000 -0.070316471159458160400390625000 0.001558648888021707968470908057 -0.002225821139290928840637207031 0 0 0 0 
2417000000.0000000000 0.153322026133537292480468750000 -0.072312846779823303222656250000 0.001536146854050457911250449072 -0.002197674475610256195068359375 0 0 0 0 
2417166666.6666665077 0.152656733989715603927450615629 -0.074056401848793029785156250000 0.001622317242436110973358154297 -0.002179685514420270919799804688 0 0 0 0 
2417333333.3333334923 0.152112886309623690506143134371 -0.076024405658245086669921875000 0.001447428716346621947047568213 -0.002300742082297801971435546875 0 0 0 0 
2417500000.0000000000 0.151526123285293606857138115629 -0.078051410615444183349609375000 0.001491226255893707058550190503 -0.002359916688874363899230957031 0 0 0 0 
2417666666.6666665077 0.151185467839241000076455634371 -0.079722836613655090332031250000 0.001439666142687201933619833838 -0.002253192942589520974400185693 0 0 0 0 
2417833333.3333334923 0.150727182626724187652911268742 -0.081597723066806793212890625000 0.001537206582725048065185546875 -0.002219380112364888191223144531 0 0 0 0 
2418000000.0000000000 0.150257006287574795821981865629 -0.083513282239437103271484375000 0.001471635419875382943394326318 -0.002453950000926851792576455225 0 0 0 0 
2418166666.6666665077 0.150022968649864196777343750000 -0.085114523768424987792968750000 0.001335018198005855083465576172 -0.002412189496681094169616699219 0 0 0 0 
2418333333.3333334923 0.149919226765632601638955634371 -0.086744032800197601318359375000 0.001259886776097119071363139575 -0.002615975681692361831665039062 0 0 0 0 
2418500000.0000000000 0.149800568819045992752236884371 -0.088412247598171234130859375000 0.001398758264258503913879394531 -0.002748311264440416856053017725 0 0 0 0 
2418666666.6666665077 0.149778097867965698242187500000 -0.090023756027221679687500000000 0.001205271692015231089351035010 -0.002762906486168504194972372900 0 0 0 0 
2418833333.3333334923 0.149488255381584195236044365629 -0.091511942446231842041015625000 0.001269651926122606017469096606 -0.002769499318674207167384482275 0 0 0 0 
2419000000.0000000000 0.149584949016570989410723768742 -0.092695176601409912109375000000 0.001125126960687339089037251050 -0.002910853363573551177978515625 0 0 0 0 
2419166666.6666665077 0.149777576327323913574218750000 -0.093995466828346252441406250000 0.001002481556497514031053852612 -0.002934742486104369163513183594 0 0 0 0 
2419333333.3333334923 0.149621441960334805587606865629 -0.095085076987743377685546875000 0.001026842510327697017072368091 -0.003095528110861777825596474756 0 0 0 0 
2419500000.0000000000 0.149768307805061312576455634371 -0.096281968057155609130859375000 0.000994004658423364162445068359 -0.003041740739718080000636435400 0 0 0 0 
2419666666.6666665077 0.150043204426765386383380018742 -0.097264580428600311279296875000 0.000836049614008516073226928711 -0.002990322886034845872166298975 0 0 0 0 
2419833333.3333334923 0.150112941861152704436932481258 -0.097940064966678619384765625000 0.000679137359838932752609252930 -0.003238583682104945182800292969 0 0 0 0 
