# Hz S RI R 50
2400000000.0000000000 0.155235707759857205489950615629 0.106904506683349595497212192186 -0.001275830785743891976000141675 0.000042303468944737687706947327 0 0 0 0 
2400166666.6666665077 0.155051052570342989822549384371 0.104463085532188401649555942186 -0.001399244181811809973475790869 0.000189446524018421796247205191 0 0 0 0 
2400333333.3333334923 0.154990896582603510100994981258 0.102032966911792796760316548443 -0.001250448403879999897600483472 0.000342324783559888601303100586 0 0 0 0 
2400500000.0000000000 0.155137166380882290939169365629 0.099399909377098083496093750000 -0.001281407545320689895032573169 0.000357241195160895586013793945 0 0 0 0 
2400666666.6666665077 0.155086413025855990310830634371 0.096894755959510803222656250000 -0.001264514401555060906651162256 0.000411875953432172482639866962 0 0 0 0 
2400833333.3333334923 0.155328303575515802581463731258 0.094052456319332122802734375000 -0.001197194214910269000409770435 0.000291805656161159276962280273 0 0 0 0 
2401000000.0000000000 0.155446439981460599044638115629 0.091352537274360656738281250000 -0.001115231541916728019714355469 0.000600814935751259326934814453 0 0 0 0 
2401166666.6666665077 0.155481919646263094803018134371 0.088564887642860412597656250000 -0.001016605296172202067134238135 0.000588161230552941560745239258 0 0 0 0 
2401333333.3333334923 0.155940070748329190353231865629 0.085848368704319000244140625000 -0.000948164495639503002166748047 0.000569079653359949588775634766 0 0 0 0 
2401500000.0000000000 0.156397461891174288650674384371 0.082829944789409637451171875000 -0.000828805903438478708267211914 0.000637477787677198648452758789 0 0 0 0 
2401666666.6666665077 0.156752154231071499923544365629 0.080191008746623992919921875000 -0.000746186997275799512863159180 0.000524552771821618080139160156 0 0 0 0 
2401833333.3333334923 0.157447889447212191482705634371 0.077429823577404022216796875000 -0.000863634806592017412185668945 0.000586928857956081628799438477 0 0 0 0 
2402000000.0000000000 0.158306658267974909026776231258 0.074803747236728668212890625000 -0.000831725657917559146881103516 0.000427707651397213285595494403 0 0 0 0 
2402166666.6666665077 0.159029692411422701736611884371 0.072247505187988281250000000000 -0.000729691179003566503524780273 0.000552272773347795009613037109 0 0 0 0 
2402333333.3333334923 0.160099864006042508224325615629 0.069380193948745727539062500000 -0.000554081983864307403564453125 0.000347224791767075712054652081 0 0 0 0 
2402500000.0000000000 0.161213263869285611251669365629 0.066990666091442108154296875000 -0.000781238079071044921875000000 0.000310195377096533775329589844 0 0 0 0 
2402666666.6666665077 0.162474736571312006194744981258 0.064577914774417877197265625000 -0.000715473142918199300765991211 0.000401125318603590076595860614 0 0 0 0 
2402833333.3333334923 0.163646861910820007324218750000 0.062235731631517410278320312500 -0.000855642778333276510238647461 0.000429590960266068577766418457 0 0 0 0 
2403000000.0000000000 0.165215507149696405608807481258 0.059988096356391906738281250000 -0.000744558579754084348678588867 0.000411495624575763886601048602 0 0 0 0 
2403166666.6666665077 0.166976556181907709319744981258 0.057789053767919540405273437500 -0.000799167086370289325714111328 0.000395684648538008278042393817 0 0 0 0 
2403333333.3333334923 0.168443396687507601638955634371 0.055593855679035186767578125000 -0.001011570449918508963343954932 0.000463916279841214418411254883 0 0 0 0 
2403500000.0000000000 0.170180544257164001464843750000 0.053571451455354690551757812500 -0.001003769575618208105202699976 0.000516537751536816358566284180 0 0 0 0 
2403666666.6666665077 0.171818733215332003494424384371 0.051772210747003562236745466407 -0.001136807026341557936427451025 0.000774682441260665655136108398 0 0 0 0 
2403833333.3333334923 0.173439383506774902343750000000 0.049864020198583602905273437500 -0.000926994951441884040832519531 0.000795633182860910892486572266 0 0 0 0 
2404000000.0000000000 0.174966588616371210296307481258 0.048114627599716193462331403907 -0.000953269656747579574584960938 0.001021347125060855908634804834 0 0 0 0 
2404166666.6666665077 0.176892146468162508865518134371 0.046722959727048866962473283593 -0.000896216661203652620315551758 0.001044580945745110945460654150 0 0 0 0 
2404333333.3333334923 0.178562000393867492675781250000 0.045186303555965416645090471093 -0.000927138142287731170654296875 0.000992265297099947929382324219 0 0 0 0 
2404500000.0000000000 0.179935663938522311111611884371 0.043791186064481742168386091407 -0.000607761729042977094650268555 0.001177765196189284107805561597 0 0 0 0 
2404666666.6666665077 0.181490212678909301757812500000 0.042573370039463043212890625000 -0.000657299300655722618103027344 0.000991639564745128154754638672 0 0 0 0 
2404833333.3333334923 0.183210104703903198242187500000 0.041518799960613250732421875000 -0.000518202548846602439880371094 0.001043408061377703926683735425 0 0 0 0 
2405000000.0000000000 0.184575051069259588043536268742 0.040991548448801040649414062500 -0.000485883123474195599555969238 0.001156260259449481964111328125 0 0 0 0 
2405166666.6666665077 0.186041295528411892989950615629 0.040234290063381202007253278907 -0.000361680024070665186077672137 0.001112979953177273056627583081 0 0 0 0 
2405333333.3333334923 0.187353149056434603592080634371 0.039722498506307601928710937500 -0.000209697624086402410834711896 0.001090954407118261077283549731 0 0 0 0 
2405500000.0000000000 0.188777983188629205901776231258 0.039180621504783630371093750000 -0.000230124336667358902379712515 0.000979273230768740177154541016 0 0 0 0 
2405666666.6666665077 0.189918532967567388336505018742 0.038669273257255547260324846093 -0.000285731133772060275077819824 0.001075102249160408973693847656 0 0 0 0 
2405833333.3333334923 0.191130459308624295333700615629 0.038514010608196258544921875000 -0.000229551893426105407163342886 0.000941350648645311594009399414 0 0 0 0 
2406000000.0000000000 0.192213371396064813811932481258 0.038267470896244049072265625000 -0.000224227260332554605886182242 0.000941416830755770206451416016 0 0 0 0 
2406166666.6666665077 0.193137571215629605392294365629 0.037996258586645133281667341407 -0.000245795323280617594718933105 0.000957855256274342536926269531 0 0 0 0 
2406333333.3333334923 0.193983197212219210525674384371 0.038057547062635421752929687500 -0.000396075891330838203430175781 0.001123941503465176062342978369 0 0 0 0 
2406500000.0000000000 0.194896921515464810470419365629 0.037988282740116119384765625000 -0.000347514927852898781925755634 0.001174417673610151030896830981 0 0 0 0 
2406666666.6666665077 0.195302501320838900467080634371 0.038083612918853759765625000000 -0.000243736212723888511031550275 0.000948997738305479288101196289 0 0 0 0 
2406833333.3333334923 0.195800229907035799881143134371 0.037879657000303268432617187500 -0.000106617924757301793851037297 0.001258495496585964939714741284 0 0 0 0 
2407000000.0000000000 0.196101307868957491775674384371 0.038216292858123779296875000000 -0.000090815701696556061506271362 0.001214307965710758946062397534 0 0 0 0 
2407166666.6666665077 0.196502938866615295410156250000 0.037972327321767807006835937500 0.000052392857469385489821434021 0.001252720481716095967533730615 0 0 0 0 
2407333333.3333334923 0.196388080716133089920205634371 0.037925358861684799194335937500 0.000078889737778808921575546265 0.001137695391662419059156108325 0 0 0 0 
2407500000.0000000000 0.196328744292259188553018134371 0.038058169186115271831472028907 0.000116717790660914006546297617 0.001220462843775748989702534253 0 0 0 0 
2407666666.6666665077 0.196386486291885403732138115629 0.037836220115423202514648437500 0.000145657351822592290952959604 0.001156922895461321093915629810 0 0 0 0 
2407833333.3333334923 0.195794194936752291580361884371 0.037674456834793090820312500000 0.000086902327893767505884170532 0.001104712602682412104365683447 0 0 0 0 
2408000000.0000000000 0.195722803473472595214843750000 0.037577088922262191772460937500 0.000428449886385351419448852539 0.001176193589344620921491313403 0 0 0 0 
2408166666.6666665077 0.195113450288772610763388115629 0.037154488265514366840402971093 0.000418545823777094483375549316 0.001002002623863518021227192456 0 0 0 0 
2408333333.3333334923 0.194701761007308987716513115629 0.036719448864459991455078125000 0.000369973306078463792800903320 0.001114265993237494988682412256 0 0 0 0 
2408500000.0000000000 0.193988919258117703536825615629 0.036223255097866058349609375000 0.000609467620961368083953857422 0.001100580790080130100250244141 0 0 0 0 
2408666666.6666665077 0.193406775593757601638955634371 0.035704351961612701416015625000 0.000574123696424067020416259766 0.001219549798406660990474081885 0 0 0 0 
2408833333.3333334923 0.192678362131118802169638115629 0.034775689244270331645925153907 0.000594315410126000642776489258 0.001152820070274173996568989331 0 0 0 0 
2409000000.0000000000 0.191699117422103909591513115629 0.033989511430263519287109375000 0.000576952937990427017211914062 0.001227694912813604094861674731 0 0 0 0 
2409166666.6666665077 0.190760508179664611816406250000 0.032911069691181182861328125000 0.000737737806048244237899780273 0.000941873178817331790924072266 0 0 0 0 
2409333333.3333334923 0.189995840191841097732705634371 0.031874980777502059936523437500 0.000877258076798170804977416992 0.001012249733321368911145854419 0 0 0 0 
2409500000.0000000000 0.188761100172996493240518134371 0.030584676191210750234583670704 0.000770837999880313873291015625 0.001024329103529453060747456128 0 0 0 0 
2409666666.6666665077 0.187739208340644808670205634371 0.029050135985016819345494454296 0.001003866898827254989026713794 0.000919302401598542928695678711 0 0 0 0 
2409833333.3333334923 0.186860948801040704925213731258 0.027633346617221828805943673046 0.000952476810198277235031127930 0.000785018026363104581832885742 0 0 0 0 
2410000000.0000000000 0.185859069228172302246093750000 0.025767758488655090332031250000 0.001066542346961796066881489331 0.000792536360677331686019897461 0 0 0 0 
2410166666.6666665077 0.184898272156715393066406250000 0.023985173553228378295898437500 0.000931928458157926797866821289 0.000705484882928431034088134766 0 0 0 0 
2410333333.3333334923 0.183892980217933710296307481258 0.022335043177008628845214843750 0.000911914336029440164566040039 0.000566451170016080141067504883 0 0 0 0 
2410500000.0000000000 0.182954013347625704666299384371 0.020185096189379688608189766796 0.001018478418700397014617919922 0.000489696569275110960006713867 0 0 0 0 
2410666666.6666665077 0.182039514183998107910156250000 0.018041925504803661001185233204 0.001038800459355116107343364185 0.000442958815256133675575256348 0 0 0 0 
2410833333.3333334923 0.181471034884452792068643134371 0.015838362276554111135462576954 0.001051113940775394006016396631 0.000294554309220984578132629395 0 0 0 0 
2411000000.0000000000 0.180530861020088195800781250000 0.013680488802492620295514491602 0.000981259392574429512023925781 0.000201372429728507995605468750 0 0 0 0 
2411166666.6666665077 0.179939538240432711502236884371 0.011508584022521969186803048046 0.000978933647274971008300781250 0.000161433665198274010985773907 0 0 0 0 
2411333333.3333334923 0.179480627179145812988281250000 0.009045550599694252014160156250 0.000963488011620938777923583984 0.000203191899345256388187408447 0 0 0 0 
2411500000.0000000000 0.179074779152870205978231865629 0.006483606994152069091796875000 0.001208727946504950957057333838 0.000162666881806217106893816537 0 0 0 0 
2411666666.6666665077 0.179025068879127502441406250000 0.004300564993172883987426757812 0.001005678321234882094739604419 0.000135409893118776408120831900 0 0 0 0 
2411833333.3333334923 0.178660601377487210372763115629 0.001867990242317318916320800781 0.000960889330599457025527954102 0.000072580078267492353916168213 0 0 0 0 
2412000000.0000000000 0.178906068205833407303018134371 -0.000813335180282592773437500000 0.000999978277832269668579101562 -0.000110675420728512094773431096 0 0 0 0 
2412166666.6666665077 0.178789183497428894042968750000 -0.002783857285976409912109375000 0.000876891601365059614181518555 0.000013782091627945190464156304 0 0 0 0 
2412333333.3333334923 0.179057031869888305664062500000 -0.005529377609491348266601562500 0.000831565819680690765380859375 -0.000199832531507126986980438232 0 0 0 0 
2412500000.0000000000 0.179710522294044494628906250000 -0.007730049546808004379272460938 0.000716909416951239109039306641 -0.000126722370623610886648455209 0 0 0 0 
2412666666.6666665077 0.180054485797882107833700615629 -0.010398843325674530374547188671 0.000569491414353251457214355469 -0.000184939533937722390324193134 0 0 0 0 
2412833333.3333334923 0.180684387683868408203125000000 -0.012793206609785560262659842579 0.000555748876649886369705200195 -0.000162136668222956386491498404 0 0 0 0 
2413000000.0000000000 0.181398034095764187911825615629 -0.014963900670409200840960117773 0.000638965750113129615783691406 -0.000143554265378043109744471417 0 0 0 0 
2413166666.6666665077 0.182259991765022305587606865629 -0.017245115712285038339635079296 0.000461560004623606801033020020 -0.000142055476317182210370740347 0 0 0 0 
2413333333.3333334923 0.183234289288520812988281250000 -0.019524233415722850454310233204 0.000379200821043923497200012207 -0.000238708234974183087975102557 0 0 0 0 
2413500000.0000000000 0.183991059660911587814169365629 -0.021860620006918910634974295704 0.000390996778151020407676696777 0.000181101480848155888632097787 0 0 0 0 
2413666666.6666665077 0.185050308704376192947549384371 -0.023899372667074200021763985546 0.000367649074178188985020238055 -0.000035523495171219110488891602 0 0 0 0 
2413833333.3333334923 0.186283707618713406661825615629 -0.025825900956988341594655622657 0.000370820227544754689365941180 0.000175526860402897000312805176 0 0 0 0 
2414000000.0000000000 0.187252059578895596603231865629 -0.027788741514086719858189766796 0.000246397481532767415046691895 0.000184407763299532207563677377 0 0 0 0 
2414166666.6666665077 0.188519820570945711990518134371 -0.029669519513845440256138985546 0.000364847044693306088447570801 0.000185187789611518410131177359 0 0 0 0 
2414333333.3333334923 0.189607858657836886306924384371 -0.031559590250253677368164062500 0.000593651260714977979660034180 0.000420371914515271782875061035 0 0 0 0 
2414500000.0000000000 0.190835982561111505706463731258 -0.032888438552618026733398437500 0.000721761432942003011703491211 0.000574356701690703630447387695 0 0 0 0 
2414666666.6666665077 0.191963151097297696212606865629 -0.034342721104621887207031250000 0.000749817059841006994247436523 0.000497589760925620794296264648 0 0 0 0 
2414833333.3333334923 0.193055287003517206390057481258 -0.035655133426189422607421875000 0.000837438448797911405563354492 0.000414305977756157517433166504 0 0 0 0 
2415000000.0000000000 0.194069191813468905349893134371 -0.036900304257869720458984375000 0.001059731235727668025373149341 0.000397296884329989606707972394 0 0 0 0 
2415166666.6666665077 0.195385769009590204436932481258 -0.037912625819444663310964216407 0.001002872246317565007450722803 0.000341177219524979591369628906 0 0 0 0 
2415333333.3333334923 0.196417614817619295974893134371 -0.038803219795227050781250000000 0.001107567572034894986393593896 0.000310002738842740709155482159 0 0 0 0 
2415500000.0000000000 0.197519898414611788650674384371 -0.039590954780578613281250000000 0.001118593150749803023097372900 0.000241356567130424109384259634 0 0 0 0 
2415666666.6666665077 0.198415756225585909744424384371 -0.040448326617479317401926408593 0.001132467878051101944567036206 0.000041096471250057220458984375 0 0 0 0 
2415833333.3333334923 0.199257329106330899337606865629 -0.040912121534347527240793596093 0.001099943765439092896105122144 0.000081521975516807287931442261 0 0 0 0 
2416000000.0000000000 0.199899628758430508712606865629 -0.041580151766538619995117187500 0.001162900705821811936022114331 -0.000003207038162145181982542715 0 0 0 0 
2416166666.6666665077 0.200626492500305203536825615629 -0.042105607688426971435546875000 0.001213857554830610968946147388 0.000033456413802923641424586637 0 0 0 0 
2416333333.3333334923 0.201264455914497403243856865629 -0.042274821549654006958007812500 0.001169149414636194922803569263 -0.000201763876248151091024121695 0 0 0 0 
2416500000.0000000000 0.201638162136077908614950615629 -0.042595185339450843120534528907 0.001112350728362798907636332935 -0.000229632540140300989151000977 0 0 0 0 
2416666666.6666665077 0.201927855610847500900106865629 -0.042930886149406433105468750000 0.001231478760018944957135844653 -0.000202756695216521593645372934 0 0 0 0 
2416833333.3333334923 0.202107951045036288162393134371 -0.042916003614664077758789062500 0.001227322150953114032745361328 -0.000225377632887102690622052603 0 0 0 0 
2417000000.0000000000 0.202113047242164611816406250000 -0.043049193918704986572265625000 0.001475377939641475894330668872 -0.000366256048437207883030491962 0 0 0 0 
2417166666.6666665077 0.201905325055122403243856865629 -0.042932149022817611694335937500 0.001411391072906553962110209888 -0.000452704611234366893768310547 0 0 0 0 
2417333333.3333334923 0.201563850045204190353231865629 -0.042795978486537933349609375000 0.001466216752305627086042094653 -0.000458785507362335920333862305 0 0 0 0 
2417500000.0000000000 0.201323553919792203048544365629 -0.042844466865062706684152971093 0.001421458786353468894958496094 -0.000726586615201085805892944336 0 0 0 0 
2417666666.6666665077 0.200681105256080599685830634371 -0.042669851332902908325195312500 0.001374482526443898894666362231 -0.000733568216674029827117919922 0 0 0 0 
2417833333.3333334923 0.200350746512412997146768134371 -0.042577538639307022094726562500 0.001514333998784423091291118091 -0.001019990420900285027147602612 0 0 0 0 
2418000000.0000000000 0.199665695428848294357138115629 -0.042240675538778311992604841407 0.001392684876918792941449809497 -0.000983999692834913730621337891 0 0 0 0 
2418166666.6666665077 0.198922514915466308593750000000 -0.042156785726547241210937500000 0.001230523688718677000758505713 -0.001187666435725986957550048828 0 0 0 0 
2418333333.3333334923 0.197948560118675204178018134371 -0.042058445513248436664621721093 0.001217664103023708083509135669 -0.001117085455916821956634521484 0 0 0 0 
2418500000.0000000000 0.196894764900207491775674384371 -0.042017005383968353271484375000 0.001088646356947720050811767578 -0.001238047378137707927106547778 0 0 0 0 
2418666666.6666665077 0.195915728807449313064736884371 -0.042109675705432891845703125000 0.001195382210426032976863242041 -0.001093656988814472935320210034 0 0 0 0 
2418833333.3333334923 0.194660007953643798828125000000 -0.042182862758636481548268903907 0.001177639234811068014857626807 -0.001392087782733141942265175928 0 0 0 0 
2419000000.0000000000 0.193414762616157503982705634371 -0.042476862668991088867187500000 0.001068438170477747917175292969 -0.001508545712567866065381694263 0 0 0 0 
2419166666.6666665077 0.192103326320648193359375000000 -0.042793966829776756977121721093 0.000939538527745753526687622070 -0.001593110850080847957013774341 0 0 0 0 
2419333333.3333334923 0.190811231732368496993856865629 -0.043325547128915786743164062500 0.000981074175797402858734130859 -0.001542736543342470905901264722 0 0 0 0 
2419500000.0000000000 0.189370825886726407150106865629 -0.043704088777303702617604841407 0.000860210624523460865020751953 -0.001704055117443203926086425781 0 0 0 0 
2419666666.6666665077 0.187839329242706298828125000000 -0.044462457299232482910156250000 0.000696528877597302198410034180 -0.001582407276146114089368510669 0 0 0 0 
2419833333.3333334923 0.186098948121070889571981865629 -0.045200936496257781982421875000 0.000676891708280891180038452148 -0.001795842777937650897382426685 0 0 0 0 
2420000000.0000000000 0.184669673442840603927450615629 -0.046131752431392669677734375000 0.000669952540192753076553344727 -0.001821165904402733065961528247 0 0 0 0 
