# Version 1.00
#
freq[Hz];re:Trc1_S11;im:Trc1_S11;re:Trc2_S21;im:Trc2_S21;
2.400000000000000E+009;1.550359129905701E-001;1.065757647156715E-001;2.579217078164220E-003;-2.454301808029413E-003;
2.400166666666667E+009;1.547522097826004E-001;1.040959358215332E-001;2.612950047478080E-003;-2.404475584626198E-003;
2.400333333333334E+009;1.549756973981857E-001;1.017654463648796E-001;2.376580378040671E-003;-2.473469823598862E-003;
2.400500000000000E+009;1.548972278833389E-001;9.908744692802429E-002;2.431873464956880E-003;-2.545261988416314E-003;
2.400666666666667E+009;1.551216393709183E-001;9.665498882532120E-002;2.414316404610872E-003;-2.551838988438249E-003;
2.400833333333334E+009;1.549861431121826E-001;9.384583681821823E-002;2.503587398678064E-003;-2.468931488692761E-003;
2.401000000000000E+009;1.553796827793121E-001;9.099137037992477E-002;2.230258425697684E-003;-2.729183761402965E-003;
2.401166666666667E+009;1.553267836570740E-001;8.818290382623673E-002;2.286436269059777E-003;-2.776587847620249E-003;
2.401333333333334E+009;1.558446884155273E-001;8.537224680185318E-002;2.150314860045910E-003;-2.762046642601490E-003;
2.401500000000000E+009;1.562356054782867E-001;8.247720450162888E-002;2.142643090337515E-003;-2.741472795605660E-003;
2.401666666666667E+009;1.565480530261993E-001;7.982752472162247E-002;2.121596597135067E-003;-2.865336835384369E-003;
2.401833333333334E+009;1.571967750787735E-001;7.727333158254623E-002;1.895678695291281E-003;-3.080676542595029E-003;
2.402000000000000E+009;1.581573784351349E-001;7.433184236288071E-002;1.819512923248112E-003;-3.087321994826198E-003;
2.402166666666667E+009;1.589044928550720E-001;7.189416140317917E-002;1.759319566190243E-003;-3.179070306941867E-003;
2.402333333333334E+009;1.598388105630875E-001;6.914598494768143E-002;1.562398276291788E-003;-3.249314846470952E-003;
2.402500000000000E+009;1.609352678060532E-001;6.682092696428299E-002;1.306441728956997E-003;-3.323460696265101E-003;
2.402666666666667E+009;1.622344404459000E-001;6.449821591377258E-002;1.123279682360590E-003;-3.341793082654476E-003;
2.402833333333334E+009;1.636286526918411E-001;6.208548694849014E-002;1.016772352159023E-003;-3.296913579106331E-003;
2.403000000000000E+009;1.648524254560471E-001;5.977206677198410E-002;8.842456154525280E-004;-3.181438194587827E-003;
2.403166666666667E+009;1.666857451200485E-001;5.758947134017944E-002;6.750686443410814E-004;-3.073919797316194E-003;
2.403333333333334E+009;1.681016683578491E-001;5.545312538743019E-002;5.705789080820978E-004;-3.171465825289488E-003;
2.403500000000000E+009;1.699620932340622E-001;5.343774706125259E-002;2.861501707229763E-004;-2.915008692070842E-003;
2.403666666666667E+009;1.716902107000351E-001;5.147163197398186E-002;2.559310523793101E-004;-2.804032061249018E-003;
2.403833333333334E+009;1.733409613370895E-001;4.958397895097733E-002;9.212276199832559E-005;-2.922834130004048E-003;
2.404000000000000E+009;1.748986393213272E-001;4.788462817668915E-002;1.424442889401689E-004;-2.441459102556109E-003;
2.404166666666667E+009;1.766790598630905E-001;4.648336023092270E-002;1.766151690389961E-004;-2.452388871461153E-003;
2.404333333333334E+009;1.781722158193588E-001;4.509318619966507E-002;2.291701239300892E-004;-2.301760716363788E-003;
2.404500000000000E+009;1.798889786005020E-001;4.350088909268379E-002;4.300009168218821E-004;-2.258332213386893E-003;
2.404666666666667E+009;1.814955770969391E-001;4.266804829239845E-002;3.985866205766797E-004;-2.218154026195407E-003;
2.404833333333334E+009;1.831969320774078E-001;4.164340719580650E-002;4.859394393861294E-004;-2.302817534655333E-003;
2.405000000000000E+009;1.844954937696457E-001;4.086660593748093E-002;6.721914396621287E-004;-2.278349362313747E-003;
2.405166666666667E+009;1.860532909631729E-001;4.014298692345619E-002;4.651772906072438E-004;-2.347707981243730E-003;
2.405333333333334E+009;1.872314363718033E-001;3.952398523688316E-002;6.274288170970976E-004;-2.376574091613293E-003;
2.405500000000000E+009;1.887872070074081E-001;3.899981454014778E-002;6.198187475092709E-004;-2.524825977161527E-003;
2.405666666666667E+009;1.898730695247650E-001;3.864740952849388E-002;4.748235514853150E-004;-2.714156871661544E-003;
2.405833333333334E+009;1.911624222993851E-001;3.851032257080078E-002;5.075791268609464E-004;-2.668008673936129E-003;
2.406000000000000E+009;1.922252625226975E-001;3.827100619673729E-002;4.614438512362540E-004;-2.646962646394968E-003;
2.406166666666667E+009;1.931448727846146E-001;3.807645291090012E-002;2.629732771310955E-004;-2.767616882920265E-003;
2.406333333333334E+009;1.939044594764710E-001;3.795413300395012E-002;2.990746579598635E-004;-2.720244461670518E-003;
2.406500000000000E+009;1.946029812097549E-001;3.792082145810127E-002;1.892226282507181E-004;-2.588847186416388E-003;
2.406666666666667E+009;1.951683461666107E-001;3.793899342417717E-002;2.191715757362545E-004;-2.502598334103823E-003;
2.406833333333334E+009;1.957468092441559E-001;3.797580674290657E-002;1.862138196884189E-005;-2.663971157744527E-003;
2.407000000000000E+009;1.959889680147171E-001;3.811610117554665E-002;9.232773300027475E-005;-2.527778968214989E-003;
2.407166666666667E+009;1.962923407554627E-001;3.787412121891975E-002;2.381050944677554E-005;-2.571273362264037E-003;
2.407333333333334E+009;1.961853057146072E-001;3.802761435508728E-002;1.939783251145855E-004;-2.636748133227229E-003;
2.407500000000000E+009;1.961543112993240E-001;3.808631375432015E-002;1.830624532885850E-004;-2.735386835411191E-003;
2.407666666666667E+009;1.961738467216492E-001;3.790573775768280E-002;1.400265755364671E-004;-2.608795883134008E-003;
2.407833333333334E+009;1.955772042274475E-001;3.766153007745743E-002;3.214784082956612E-004;-2.686487510800362E-003;
2.408000000000000E+009;1.954572498798370E-001;3.740479424595833E-002;2.465852012392134E-004;-2.815765095874667E-003;
2.408166666666667E+009;1.947111189365387E-001;3.714844211935997E-002;3.133058198727667E-004;-2.854409394785762E-003;
2.408333333333334E+009;1.943335086107254E-001;3.652646020054817E-002;2.583460300229490E-004;-3.097645938396454E-003;
2.408500000000000E+009;1.935996562242508E-001;3.621064126491547E-002;3.152899153064936E-004;-3.209211165085435E-003;
2.408666666666667E+009;1.931236386299133E-001;3.557347133755684E-002;2.257910964544863E-004;-3.445373149588704E-003;
2.408833333333334E+009;1.922726929187775E-001;3.479119762778282E-002;1.936206244863570E-004;-3.397653577849269E-003;
2.409000000000000E+009;1.913799345493317E-001;3.381802886724472E-002;-4.255885869497433E-006;-3.738974919542670E-003;
2.409166666666667E+009;1.903090178966522E-001;3.285698220133781E-002;-1.743601605994627E-004;-3.793576033785939E-003;
2.409333333333334E+009;1.895513236522675E-001;3.176878020167351E-002;-2.637642901390791E-004;-4.009888973087072E-003;
2.409500000000000E+009;1.883188486099243E-001;3.037344478070736E-002;-4.663718864321709E-004;-3.996131941676140E-003;
2.409666666666667E+009;1.874444633722305E-001;2.881694585084915E-002;-5.609959480352700E-004;-4.101621918380261E-003;
2.409833333333334E+009;1.863659620285034E-001;2.738311327993870E-002;-7.112863822840154E-004;-4.347340669482946E-003;
2.410000000000000E+009;1.853844672441483E-001;2.587405592203140E-002;-1.072726328857243E-003;-4.394553136080504E-003;
2.410166666666667E+009;1.843249499797821E-001;2.395932003855705E-002;-1.220743171870709E-003;-4.373109899461269E-003;
2.410333333333334E+009;1.835855245590210E-001;2.220045961439610E-002;-1.530528301373124E-003;-4.452600143849850E-003;
2.410500000000000E+009;1.824309974908829E-001;2.024739421904087E-002;-1.708086696453393E-003;-4.344834480434656E-003;
2.410666666666667E+009;1.816887259483337E-001;1.802657172083855E-002;-1.980992499738932E-003;-4.123285878449678E-003;
2.410833333333334E+009;1.807828396558762E-001;1.587476208806038E-002;-2.132021123543382E-003;-4.121707752346993E-003;
2.411000000000000E+009;1.802180558443070E-001;1.380690000951290E-002;-2.421237528324127E-003;-4.086445551365614E-003;
2.411166666666667E+009;1.795533001422882E-001;1.151667162775993E-002;-2.543526235967875E-003;-3.993245307356119E-003;
2.411333333333334E+009;1.790685057640076E-001;8.958227001130581E-003;-2.626372035592794E-003;-3.989624325186014E-003;
2.411500000000000E+009;1.785606443881989E-001;6.597192026674748E-003;-2.844541566446424E-003;-3.898981958627701E-003;
2.411666666666667E+009;1.785609573125839E-001;4.222279414534569E-003;-3.094882238656282E-003;-3.707468276843429E-003;
2.411833333333334E+009;1.781982332468033E-001;1.902433577924967E-003;-3.223291598260403E-003;-3.708201460540295E-003;
2.412000000000000E+009;1.783816814422607E-001;-6.609397823922336E-004;-3.427289193496108E-003;-3.543211147189140E-003;
2.412166666666667E+009;1.784691959619522E-001;-3.003599820658565E-003;-3.589575644582510E-003;-3.647891571745277E-003;
2.412333333333334E+009;1.786154657602310E-001;-5.415930412709713E-003;-3.831088775768876E-003;-3.444871166720986E-003;
2.412500000000000E+009;1.791151911020279E-001;-7.837493903934956E-003;-3.990781959146261E-003;-3.342102747410536E-003;
2.412666666666667E+009;1.795779466629028E-001;-1.021542493253946E-002;-4.144426900893450E-003;-3.178948536515236E-003;
2.412833333333334E+009;1.801986247301102E-001;-1.270880363881588E-002;-4.373757634311914E-003;-2.944044535979629E-003;
2.413000000000000E+009;1.809464693069458E-001;-1.496952865272760E-002;-4.702294245362282E-003;-2.774711232632399E-003;
2.413166666666667E+009;1.817760020494461E-001;-1.708259992301464E-002;-4.821588750928640E-003;-2.544196555390954E-003;
2.413333333333334E+009;1.827965080738068E-001;-1.931695081293583E-002;-4.953827708959580E-003;-2.384452847763896E-003;
2.413500000000000E+009;1.837185919284821E-001;-2.152665145695210E-002;-5.076041445136070E-003;-2.018275903537870E-003;
2.413666666666667E+009;1.848081797361374E-001;-2.363321185112000E-002;-5.255739204585552E-003;-1.711420365609229E-003;
2.413833333333334E+009;1.860448122024536E-001;-2.553829737007618E-002;-5.312013905495405E-003;-1.284155878238380E-003;
2.414000000000000E+009;1.870160847902298E-001;-2.733640000224114E-002;-5.479501560330391E-003;-1.011471380479634E-003;
2.414166666666667E+009;1.883527487516403E-001;-2.934435382485390E-002;-5.411442369222641E-003;-7.688636542297900E-004;
2.414333333333334E+009;1.892602592706680E-001;-3.114742226898670E-002;-5.288482643663883E-003;-3.627488913480192E-004;
2.414500000000000E+009;1.905550658702850E-001;-3.243538364768028E-002;-5.328373517841101E-003;-4.314094621804543E-005;
2.414666666666667E+009;1.916969269514084E-001;-3.400436416268349E-002;-5.277452524751425E-003;2.137382107321173E-004;
2.414833333333334E+009;1.929472833871841E-001;-3.518912941217423E-002;-5.200567189604044E-003;5.309837288223207E-004;
2.415000000000000E+009;1.938945949077606E-001;-3.637672588229179E-002;-4.893627483397722E-003;8.643789915367961E-004;
2.415166666666667E+009;1.951868832111359E-001;-3.752255439758301E-002;-4.754520487040281E-003;1.138005987741053E-003;
2.415333333333334E+009;1.963196694850922E-001;-3.841500356793404E-002;-4.686949774622917E-003;1.235809409990907E-003;
2.415500000000000E+009;1.973257362842560E-001;-3.904076665639877E-002;-4.552290309220552E-003;1.412586541846395E-003;
2.415666666666667E+009;1.983662694692612E-001;-3.994071111083031E-002;-4.469996318221092E-003;1.609786762855947E-003;
2.415833333333334E+009;1.991526484489441E-001;-4.052061215043068E-002;-4.274778999388218E-003;1.869328320026398E-003;
2.416000000000000E+009;1.999753415584564E-001;-4.109448567032814E-002;-4.010292235761881E-003;2.003030385822058E-003;
2.416166666666667E+009;2.005787640810013E-001;-4.168658331036568E-002;-3.892382839694619E-003;2.107900334522128E-003;
2.416333333333334E+009;2.013175636529923E-001;-4.186114296317101E-002;-3.618675284087658E-003;2.379764569923282E-003;
2.416500000000000E+009;2.017413675785065E-001;-4.206712916493416E-002;-3.394919214770198E-003;2.504782518371940E-003;
2.416666666666667E+009;2.019873261451721E-001;-4.235014691948891E-002;-3.151199081912637E-003;2.585605485364795E-003;
2.416833333333334E+009;2.021286636590958E-001;-4.233783856034279E-002;-2.832854166626930E-003;2.779510337859392E-003;
2.417000000000000E+009;2.022358477115631E-001;-4.256714507937431E-002;-2.614304190501571E-003;2.692214213311672E-003;
2.417166666666667E+009;2.020145356655121E-001;-4.240967705845833E-002;-2.393571194261313E-003;2.734565176069737E-003;
2.417333333333334E+009;2.017458677291870E-001;-4.236779361963272E-002;-2.114534610882402E-003;2.588774776086211E-003;
2.417500000000000E+009;2.013993859291077E-001;-4.234968498349190E-002;-1.869614934548736E-003;2.571833319962025E-003;
2.417666666666667E+009;2.008508741855621E-001;-4.222559183835983E-002;-1.517690601758659E-003;2.360955346375704E-003;
2.417833333333334E+009;2.003783881664276E-001;-4.204971715807915E-002;-1.471145544201136E-003;2.353535499423742E-003;
2.418000000000000E+009;1.997651457786560E-001;-4.180501028895378E-002;-1.401102053932846E-003;2.313085133209825E-003;
2.418166666666667E+009;1.988146454095841E-001;-4.182723909616470E-002;-1.190948300063610E-003;2.090043388307095E-003;
2.418333333333334E+009;1.979277729988098E-001;-4.160033166408539E-002;-1.216633245348930E-003;2.025983063504100E-003;
2.418500000000000E+009;1.970846801996231E-001;-4.171267151832581E-002;-1.316294074058533E-003;1.895732944831252E-003;
2.418666666666667E+009;1.960025876760483E-001;-4.175903275609016E-002;-1.002232311293483E-003;1.633901149034500E-003;
2.418833333333334E+009;1.946844458580017E-001;-4.189597442746162E-002;-1.109081204049289E-003;1.517351018264890E-003;
2.419000000000000E+009;1.935362517833710E-001;-4.215289279818535E-002;-1.172974356450141E-003;1.480623730458319E-003;
2.419166666666667E+009;1.921765059232712E-001;-4.244092106819153E-002;-1.134814461693168E-003;1.200951635837555E-003;
2.419333333333334E+009;1.907753497362137E-001;-4.306122288107872E-002;-1.150935655459762E-003;1.171104726381600E-003;
2.419500000000000E+009;1.894029080867767E-001;-4.341291636228561E-002;-1.252507907338440E-003;1.162737258709967E-003;
2.419666666666667E+009;1.878253370523453E-001;-4.434825479984283E-002;-1.152973971329629E-003;1.031877123750746E-003;
2.419833333333334E+009;1.861868053674698E-001;-4.495561122894287E-002;-1.314721070230007E-003;9.630132699385285E-004;
2.420000000000000E+009;1.846645623445511E-001;-4.588572308421135E-002;-1.369644305668771E-003;9.324554121121764E-004;
2.420166666666667E+009;1.829984337091446E-001;-4.680655524134636E-002;-1.512853777967393E-003;9.473650134168565E-004;
2.420333333333334E+009;1.814231723546982E-001;-4.791912436485291E-002;-1.657297369092703E-003;9.696499910205603E-004;
2.420500000000000E+009;1.797841340303421E-001;-4.922042042016983E-002;-1.727789524011314E-003;7.467160467058420E-004;
2.420666666666667E+009;1.782346218824387E-001;-5.052809044718742E-002;-1.842593192122877E-003;8.309633703902364E-004;
2.420833333333334E+009;1.766542345285416E-001;-5.192917957901955E-002;-1.957695232704282E-003;8.542780415154994E-004;
2.421000000000000E+009;1.753798574209213E-001;-5.358142033219338E-002;-1.864018966443837E-003;8.997602271847427E-004;
2.421166666666667E+009;1.737948954105377E-001;-5.524801090359688E-002;-2.075697528198361E-003;1.018915791064501E-003;
2.421333333333334E+009;1.723243594169617E-001;-5.680861324071884E-002;-2.010091207921505E-003;1.029321807436645E-003;
2.421500000000000E+009;1.710611879825592E-001;-5.871846899390221E-002;-2.070609945803881E-003;1.237740158103406E-003;
2.421666666666667E+009;1.698986142873764E-001;-6.052071228623390E-002;-2.169556682929397E-003;1.303181517869234E-003;
2.421833333333334E+009;1.687797307968140E-001;-6.235253438353539E-002;-2.199040725827217E-003;1.396914711222053E-003;
2.422000000000000E+009;1.677099615335465E-001;-6.425501406192780E-002;-2.152454340830445E-003;1.408775220625103E-003;
2.422166666666667E+009;1.668941229581833E-001;-6.637129187583923E-002;-2.138606039807200E-003;1.502098049968481E-003;
2.422333333333334E+009;1.660254001617432E-001;-6.843029707670212E-002;-2.240432659164071E-003;1.669569406658411E-003;
2.422500000000000E+009;1.651003062725067E-001;-7.029009610414505E-002;-2.240428933873773E-003;1.820959500037134E-003;
2.422666666666667E+009;1.645531803369522E-001;-7.240340113639832E-002;-2.200578106567264E-003;1.731363590806723E-003;
2.422833333333334E+009;1.639702320098877E-001;-7.422985881567001E-002;-2.182839205488563E-003;1.740459934808314E-003;
2.423000000000000E+009;1.636541634798050E-001;-7.645242661237717E-002;-2.166466088965535E-003;1.870379666797817E-003;
2.423166666666667E+009;1.632380038499832E-001;-7.830137759447098E-002;-2.132533118128777E-003;2.072399016469717E-003;
2.423333333333334E+009;1.630138754844666E-001;-8.018588274717331E-002;-2.156281843781471E-003;2.142261248081923E-003;
2.423500000000000E+009;1.628419458866119E-001;-8.199986815452576E-002;-2.097159624099731E-003;2.086100168526173E-003;
2.423666666666667E+009;1.629598885774612E-001;-8.380777388811112E-002;-2.199243754148483E-003;2.251227851957083E-003;
2.423833333333334E+009;1.629257053136826E-001;-8.551698923110962E-002;-2.190147992223501E-003;2.393038943409920E-003;
2.424000000000000E+009;1.629448533058167E-001;-8.729696273803711E-002;-2.212508814409375E-003;2.548025455325842E-003;
2.424166666666667E+009;1.631834059953690E-001;-8.871323615312576E-002;-2.257128944620490E-003;2.571895020082593E-003;
2.424333333333334E+009;1.635213047266007E-001;-9.033314138650894E-002;-2.270982367917895E-003;2.930545713752508E-003;
2.424500000000000E+009;1.637142151594162E-001;-9.206669032573700E-002;-2.052136231213808E-003;2.959226025268436E-003;
2.424666666666667E+009;1.641060560941696E-001;-9.323345869779587E-002;-2.084187231957912E-003;3.196568228304386E-003;
2.424833333333334E+009;1.645252555608749E-001;-9.436649084091187E-002;-2.012308919802308E-003;3.400358837097883E-003;
2.425000000000000E+009;1.650112271308899E-001;-9.567735344171524E-002;-1.795445336028934E-003;3.763020038604736E-003;
2.425166666666667E+009;1.653135418891907E-001;-9.675923734903336E-002;-1.671197009272873E-003;3.862487617880106E-003;
2.425333333333334E+009;1.656040549278259E-001;-9.753829985857010E-002;-1.519012614153326E-003;4.050154704600573E-003;
2.425500000000000E+009;1.659013628959656E-001;-9.855122864246368E-002;-1.164180925115943E-003;3.959757741540670E-003;
2.425666666666667E+009;1.663339138031006E-001;-9.922625124454498E-002;-9.885557228699327E-004;4.052895586937666E-003;
2.425833333333334E+009;1.666728407144547E-001;-9.994594007730484E-002;-6.378990365192294E-004;4.064857959747315E-003;
2.426000000000000E+009;1.670676618814468E-001;-1.004041060805321E-001;-5.446908180601895E-004;4.241161979734898E-003;
2.426166666666667E+009;1.674545258283615E-001;-1.009854674339294E-001;-4.469374252948910E-004;4.217233508825302E-003;
2.426333333333334E+009;1.675314754247665E-001;-1.015034765005112E-001;-8.363018423551694E-005;4.182159900665283E-003;
2.426500000000000E+009;1.678914278745651E-001;-1.016098931431770E-001;1.941631344379857E-004;4.204205702990294E-003;
2.426666666666667E+009;1.679284572601318E-001;-1.021381989121437E-001;2.330288843950257E-004;4.158605821430683E-003;
2.426833333333334E+009;1.683379560709000E-001;-1.022673621773720E-001;4.466213285923004E-004;4.074936732649803E-003;
2.427000000000000E+009;1.681973338127136E-001;-1.024721264839172E-001;5.149727221578360E-004;3.835993120446801E-003;
2.427166666666667E+009;1.683003753423691E-001;-1.026280969381332E-001;6.392124923877418E-004;3.805120941251516E-003;
2.427333333333334E+009;1.681597232818604E-001;-1.029252335429192E-001;7.415780564770103E-004;3.754969453439117E-003;
2.427500000000000E+009;1.678311675786972E-001;-1.030754074454308E-001;8.697250741533935E-004;3.789116395637393E-003;
2.427666666666667E+009;1.674921959638596E-001;-1.029544472694397E-001;1.094870269298554E-003;3.734451020136476E-003;
