# Version 1.00
#
freq[Hz];re:Trc1_S11;im:Trc1_S11;re:Trc2_S21;im:Trc2_S21;
2.400000000000000E+009;1.563235372304916E-001;1.103066354990006E-001;-5.316027905791998E-003;-1.601883908733726E-003;
2.400166666666667E+009;1.558410823345184E-001;1.078772023320198E-001;-5.549607798457146E-003;-1.453433069400489E-003;
2.400333333333334E+009;1.555101126432419E-001;1.057407408952713E-001;-5.704937037080526E-003;-1.164724002592266E-003;
2.400500000000000E+009;1.551449149847031E-001;1.030808165669441E-001;-5.739399231970310E-003;-8.792190928943455E-004;
2.400666666666667E+009;1.548595279455185E-001;1.005828753113747E-001;-5.717317573726177E-003;-6.825677119195461E-004;
2.400833333333334E+009;1.545328944921494E-001;9.762586653232575E-002;-5.662107840180397E-003;-5.748432013206184E-004;
2.401000000000000E+009;1.547332704067230E-001;9.485106915235519E-002;-5.712676327675581E-003;-2.191926032537594E-004;
2.401166666666667E+009;1.542848646640778E-001;9.193239361047745E-002;-5.750715266913176E-003;-1.266738254344091E-004;
2.401333333333334E+009;1.543442606925964E-001;8.910644799470902E-002;-5.810217466205359E-003;1.018578623188660E-004;
2.401500000000000E+009;1.545810848474503E-001;8.591359108686447E-002;-5.910683423280716E-003;2.933071227744222E-004;
2.401666666666667E+009;1.545726656913757E-001;8.300603181123734E-002;-5.845104344189167E-003;5.175007390789688E-004;
2.401833333333334E+009;1.548902988433838E-001;7.997319102287293E-002;-5.649509374052286E-003;8.034109487198293E-004;
2.402000000000000E+009;1.554550677537918E-001;7.705608755350113E-002;-5.758235231041908E-003;9.380903211422265E-004;
2.402166666666667E+009;1.561504006385803E-001;7.416554540395737E-002;-5.847240332514048E-003;1.210867660120130E-003;
2.402333333333334E+009;1.567667275667191E-001;7.139778882265091E-002;-5.796075798571110E-003;1.221706159412861E-003;
2.402500000000000E+009;1.579319536685944E-001;6.833234429359436E-002;-5.773916840553284E-003;1.526104984804988E-003;
2.402666666666667E+009;1.588098406791687E-001;6.576900929212570E-002;-5.732596386224031E-003;1.787994406186044E-003;
2.402833333333334E+009;1.599848866462708E-001;6.321363896131516E-002;-5.667972844094038E-003;1.877873670309782E-003;
2.403000000000000E+009;1.615637689828873E-001;6.056533753871918E-002;-5.697591695934534E-003;2.067046007141471E-003;
2.403166666666667E+009;1.631639748811722E-001;5.808624997735024E-002;-5.598624236881733E-003;2.465863479301333E-003;
2.403333333333334E+009;1.644816547632217E-001;5.559775233268738E-002;-5.622918251901865E-003;2.658702200278640E-003;
2.403500000000000E+009;1.661955118179321E-001;5.326592177152634E-002;-5.456426180899143E-003;3.038770984858275E-003;
2.403666666666667E+009;1.678883731365204E-001;5.125129222869873E-002;-5.344556178897619E-003;3.226602915674448E-003;
2.403833333333334E+009;1.697015911340714E-001;4.913308098912239E-002;-5.296770483255386E-003;3.589171916246414E-003;
2.404000000000000E+009;1.714784055948257E-001;4.702133312821388E-002;-5.109607242047787E-003;3.821321297436953E-003;
2.404166666666667E+009;1.733873039484024E-001;4.541852325201035E-002;-4.990042652934790E-003;4.099452868103981E-003;
2.404333333333334E+009;1.750409156084061E-001;4.376256465911865E-002;-4.968763794749975E-003;4.247940611094236E-003;
2.404500000000000E+009;1.768579185009003E-001;4.217295348644257E-002;-4.651706665754318E-003;4.591311793774366E-003;
2.404666666666667E+009;1.788129806518555E-001;4.090667888522148E-002;-4.538434091955423E-003;4.740031901746988E-003;
2.404833333333334E+009;1.804636865854263E-001;3.966937214136124E-002;-4.063386004418135E-003;5.036710761487484E-003;
2.405000000000000E+009;1.820119321346283E-001;3.895341604948044E-002;-3.620745148509741E-003;5.178296472877264E-003;
2.405166666666667E+009;1.837169677019119E-001;3.816653415560722E-002;-3.586457110941410E-003;5.413774400949478E-003;
2.405333333333334E+009;1.854752004146576E-001;3.758623078465462E-002;-3.329624421894550E-003;5.693753715604544E-003;
2.405500000000000E+009;1.869990527629852E-001;3.704822808504105E-002;-3.025002311915159E-003;5.634676199406385E-003;
2.405666666666667E+009;1.884493678808212E-001;3.671067208051682E-002;-2.796396147459745E-003;5.710574798285961E-003;
2.405833333333334E+009;1.900456845760346E-001;3.650477528572083E-002;-2.299836371093988E-003;5.772729404270649E-003;
2.406000000000000E+009;1.912590116262436E-001;3.628075867891312E-002;-2.066300017759204E-003;5.786989815533161E-003;
2.406166666666667E+009;1.924572139978409E-001;3.627406433224678E-002;-1.856940099969506E-003;5.756122060120106E-003;
2.406333333333334E+009;1.937770247459412E-001;3.659108281135559E-002;-1.593302120454609E-003;5.832530092447996E-003;
2.406500000000000E+009;1.946444958448410E-001;3.673551976680756E-002;-1.359893823973835E-003;5.631453357636929E-003;
2.406666666666667E+009;1.955823302268982E-001;3.690065443515778E-002;-1.130551681853831E-003;5.791156552731991E-003;
2.406833333333334E+009;1.962770223617554E-001;3.737663850188255E-002;-8.805781253613532E-004;5.735375918447971E-003;
2.407000000000000E+009;1.968283802270889E-001;3.764588385820389E-002;-8.465541177429259E-004;5.768047180026770E-003;
2.407166666666667E+009;1.973944455385208E-001;3.772196546196938E-002;-6.032334640622139E-004;5.714789498597384E-003;
2.407333333333334E+009;1.975062191486359E-001;3.819965571165085E-002;-5.107932956889272E-004;5.713143385946751E-003;
2.407500000000000E+009;1.976282149553299E-001;3.861947357654572E-002;-1.844750659074634E-004;5.641414318233728E-003;
2.407666666666667E+009;1.978081762790680E-001;3.874952346086502E-002;-7.702349830651656E-005;5.715774837881327E-003;
2.407833333333334E+009;1.975404918193817E-001;3.908117115497589E-002;1.087074415409006E-004;5.557978060096502E-003;
2.408000000000000E+009;1.975351274013519E-001;3.920131176710129E-002;4.362215986475349E-004;5.463037174195051E-003;
2.408166666666667E+009;1.969657391309738E-001;3.938276693224907E-002;5.099343834444881E-004;5.413606297224760E-003;
2.408333333333334E+009;1.965496242046356E-001;3.913046419620514E-002;7.055631722323597E-004;5.383189767599106E-003;
2.408500000000000E+009;1.959072798490524E-001;3.914027661085129E-002;8.616694249212742E-004;5.286452360451222E-003;
2.408666666666667E+009;1.952689290046692E-001;3.897478803992271E-002;8.928822353482246E-004;5.222548265010119E-003;
2.408833333333334E+009;1.945358067750931E-001;3.855349496006966E-002;1.182322273962200E-003;5.083024967461824E-003;
2.409000000000000E+009;1.936595886945725E-001;3.804358094930649E-002;1.256019575521350E-003;5.029010586440563E-003;
2.409166666666667E+009;1.924683153629303E-001;3.747813031077385E-002;1.415404258295894E-003;4.975238814949989E-003;
2.409333333333334E+009;1.916404366493225E-001;3.682124987244606E-002;1.395953469909728E-003;4.794483538717032E-003;
2.409500000000000E+009;1.903791874647141E-001;3.574898466467857E-002;1.438733423128724E-003;4.717383068054915E-003;
2.409666666666667E+009;1.892622560262680E-001;3.458091989159584E-002;1.492370734922588E-003;4.663457628339529E-003;
2.409833333333334E+009;1.880191266536713E-001;3.330736607313156E-002;1.514815608970821E-003;4.584915470331907E-003;
2.410000000000000E+009;1.868466287851334E-001;3.201021999120712E-002;1.559953903779388E-003;4.574790596961975E-003;
2.410166666666667E+009;1.856549531221390E-001;3.025915101170540E-002;1.506483531557024E-003;4.629899747669697E-003;
2.410333333333334E+009;1.844675540924072E-001;2.862817235291004E-002;1.726171933114529E-003;4.539195913821459E-003;
2.410500000000000E+009;1.832202970981598E-001;2.694993652403355E-002;2.024818910285831E-003;4.746240098029375E-003;
2.410666666666667E+009;1.821985989809036E-001;2.475326322019100E-002;2.130843466147780E-003;4.686398431658745E-003;
2.410833333333334E+009;1.812781393527985E-001;2.264695614576340E-002;2.247664146125317E-003;4.664005246013403E-003;
2.411000000000000E+009;1.802366822957993E-001;2.040216326713562E-002;2.213409636169672E-003;4.663120955228806E-003;
2.411166666666667E+009;1.794389784336090E-001;1.848370023071766E-002;2.498912625014782E-003;4.574624355882406E-003;
2.411333333333334E+009;1.787413954734802E-001;1.581342332065105E-002;2.505875425413251E-003;4.483439028263092E-003;
2.411500000000000E+009;1.781736612319946E-001;1.334832981228828E-002;2.797831082716584E-003;4.417541902512312E-003;
2.411666666666667E+009;1.776518225669861E-001;1.099992543458939E-002;3.074012696743012E-003;4.297962412238121E-003;
2.411833333333334E+009;1.771492063999176E-001;8.627364411950111E-003;3.067546989768744E-003;4.315393045544624E-003;
2.412000000000000E+009;1.771706044673920E-001;5.788889247924089E-003;3.277663374319673E-003;4.265076015144587E-003;
2.412166666666667E+009;1.771300584077835E-001;3.498742356896401E-003;3.420626511797309E-003;4.118668381124735E-003;
2.412333333333334E+009;1.769975870847702E-001;6.408768240362406E-004;3.692155005410314E-003;3.884789533913136E-003;
2.412500000000000E+009;1.773574501276016E-001;-1.900322153232992E-003;3.696506842970848E-003;3.883110592141748E-003;
2.412666666666667E+009;1.777465641498566E-001;-4.589400254189968E-003;3.770830808207393E-003;3.690955927595496E-003;
2.412833333333334E+009;1.783620268106461E-001;-7.315989583730698E-003;3.888953244313598E-003;3.813005285337567E-003;
2.413000000000000E+009;1.791549474000931E-001;-9.994445368647575E-003;4.026181995868683E-003;3.631477942690253E-003;
2.413166666666667E+009;1.798590868711472E-001;-1.232798770070076E-002;4.267164971679449E-003;3.492010757327080E-003;
2.413333333333334E+009;1.809184700250626E-001;-1.500863768160343E-002;4.414539318531752E-003;3.549520391970873E-003;
2.413500000000000E+009;1.816795617341995E-001;-1.763489097356796E-002;4.595897626131773E-003;3.299980890005827E-003;
2.413666666666667E+009;1.828384697437286E-001;-2.005527913570404E-002;4.786992445588112E-003;3.232012270018458E-003;
2.413833333333334E+009;1.841741651296616E-001;-2.236452326178551E-002;4.756995476782322E-003;2.834093524143100E-003;
2.414000000000000E+009;1.851790994405747E-001;-2.456959336996079E-002;4.934762138873339E-003;2.778599038720131E-003;
2.414166666666667E+009;1.865676343441010E-001;-2.659714408218861E-002;5.046727601438761E-003;2.584195230156183E-003;
2.414333333333334E+009;1.877782642841339E-001;-2.879836596548557E-002;5.283509846776724E-003;2.451820299029350E-003;
2.414500000000000E+009;1.892448067665100E-001;-3.044081851840019E-002;5.231896415352821E-003;2.222946612164378E-003;
2.414666666666667E+009;1.904468387365341E-001;-3.217684850096703E-002;5.339361727237701E-003;2.257294254377484E-003;
2.414833333333334E+009;1.917637735605240E-001;-3.392389044165611E-002;5.486156325787306E-003;1.946031581610441E-003;
2.415000000000000E+009;1.930354684591293E-001;-3.539740294218063E-002;5.589184351265431E-003;1.669757533818483E-003;
2.415166666666667E+009;1.946151405572891E-001;-3.661511093378067E-002;5.641683004796505E-003;1.389489741995931E-003;
2.415333333333334E+009;1.960004717111588E-001;-3.772612661123276E-002;5.715516395866871E-003;1.269402913749218E-003;
2.415500000000000E+009;1.974165886640549E-001;-3.850952535867691E-002;5.833432544022799E-003;9.282224345952272E-004;
2.415666666666667E+009;1.985648870468140E-001;-3.953197225928307E-002;5.984637886285782E-003;7.399980677291751E-004;
2.415833333333334E+009;1.997169703245163E-001;-4.015736654400826E-002;5.907758604735136E-003;1.991285826079547E-004;
2.416000000000000E+009;2.006892263889313E-001;-4.083443805575371E-002;6.038019433617592E-003;4.570042074192315E-005;
2.416166666666667E+009;2.017649412155151E-001;-4.143272712826729E-002;5.796321667730808E-003;-9.964363562176004E-005;
2.416333333333334E+009;2.027588933706284E-001;-4.171700775623322E-002;5.840144120156765E-003;-4.754722176585347E-004;
2.416500000000000E+009;2.034450322389603E-001;-4.211359098553658E-002;5.776848178356886E-003;-8.805505931377411E-004;
2.416666666666667E+009;2.040310353040695E-001;-4.238202795386314E-002;5.584877450019121E-003;-9.984369389712811E-004;
2.416833333333334E+009;2.045016139745712E-001;-4.231742396950722E-002;5.536810494959354E-003;-1.305151265114546E-003;
2.417000000000000E+009;2.048692554235458E-001;-4.230237752199173E-002;5.337963812053204E-003;-1.458966638892889E-003;
2.417166666666667E+009;2.048241496086121E-001;-4.223519563674927E-002;5.290157627314329E-003;-1.638549380004406E-003;
2.417333333333334E+009;2.049323320388794E-001;-4.195913672447205E-002;5.060473456978798E-003;-1.583176315762103E-003;
2.417500000000000E+009;2.048697471618652E-001;-4.187667369842529E-002;4.839545581489801E-003;-1.844933023676276E-003;
2.417666666666667E+009;2.046531885862351E-001;-4.144392162561417E-002;4.875957034528256E-003;-1.769865164533258E-003;
2.417833333333334E+009;2.043581902980804E-001;-4.109974950551987E-002;4.703407175838947E-003;-2.039297251030803E-003;
2.418000000000000E+009;2.038676887750626E-001;-4.067878797650337E-002;4.863229580223560E-003;-1.952452119439840E-003;
2.418166666666667E+009;2.032012343406677E-001;-4.038892313838005E-002;4.755650181323290E-003;-1.975973369553685E-003;
2.418333333333334E+009;2.023031264543533E-001;-4.004393517971039E-002;4.787446465343237E-003;-2.074718475341797E-003;
2.418500000000000E+009;2.015662938356400E-001;-3.982395678758621E-002;4.589235875755549E-003;-2.290923148393631E-003;
2.418666666666667E+009;2.005451470613480E-001;-3.947152569890022E-002;4.721157252788544E-003;-2.366667613387108E-003;
2.418833333333334E+009;1.993025988340378E-001;-3.946496546268463E-002;4.653785843402147E-003;-2.653402741998434E-003;
2.419000000000000E+009;1.981500387191773E-001;-3.931134566664696E-002;4.515263717621565E-003;-2.667525783181191E-003;
2.419166666666667E+009;1.968001872301102E-001;-3.942044451832771E-002;4.582117777317762E-003;-2.828192664310336E-003;
2.419333333333334E+009;1.954765915870667E-001;-3.959695994853973E-002;4.524523392319679E-003;-3.203127300366759E-003;
2.419500000000000E+009;1.939626634120941E-001;-3.990589082241058E-002;4.467458464205265E-003;-3.280149074271321E-003;
2.419666666666667E+009;1.923220008611679E-001;-4.046975076198578E-002;4.339235834777355E-003;-3.451763652265072E-003;
2.419833333333334E+009;1.906346678733826E-001;-4.084824770689011E-002;4.196489695459604E-003;-3.629399463534355E-003;
2.420000000000000E+009;1.888930350542069E-001;-4.146772623062134E-002;4.208618775010109E-003;-3.910720814019442E-003;
2.420166666666667E+009;1.871719211339951E-001;-4.239173606038094E-002;3.835846902802587E-003;-3.963855560868979E-003;
2.420333333333334E+009;1.852989047765732E-001;-4.335780814290047E-002;3.676095046103001E-003;-4.117667675018311E-003;
2.420500000000000E+009;1.834679096937180E-001;-4.459751397371292E-002;3.577835625037551E-003;-4.230300430208445E-003;
2.420666666666667E+009;1.817057132720947E-001;-4.544896632432938E-002;3.527986817061901E-003;-4.280203022062779E-003;
2.420833333333334E+009;1.798332929611206E-001;-4.699658229947090E-002;3.286582650616765E-003;-4.317720420658588E-003;
2.421000000000000E+009;1.780937314033508E-001;-4.843263700604439E-002;3.136750543490052E-003;-4.614243749529123E-003;
2.421166666666667E+009;1.765888929367065E-001;-5.022538453340530E-002;3.001950914040208E-003;-4.617641679942608E-003;
2.421333333333334E+009;1.745820045471191E-001;-5.153975635766983E-002;2.773014595732093E-003;-4.748665727674961E-003;
2.421500000000000E+009;1.732235401868820E-001;-5.344103649258614E-002;2.782613737508655E-003;-4.972247406840324E-003;
2.421666666666667E+009;1.717993468046188E-001;-5.536047741770744E-002;2.651602961122990E-003;-4.802594427019358E-003;
2.421833333333334E+009;1.704078018665314E-001;-5.724442005157471E-002;2.352281473577023E-003;-5.011016502976418E-003;
2.422000000000000E+009;1.690238118171692E-001;-5.934189632534981E-002;2.255919622257352E-003;-5.027915816754103E-003;
2.422166666666667E+009;1.680475473403931E-001;-6.154535710811615E-002;2.146869199350476E-003;-5.289461463689804E-003;
2.422333333333334E+009;1.667804718017578E-001;-6.353032588958740E-002;1.878758193925023E-003;-5.234482698142529E-003;
2.422500000000000E+009;1.659330576658249E-001;-6.561531871557236E-002;1.508567715063691E-003;-5.263247992843390E-003;
2.422666666666667E+009;1.651128381490707E-001;-6.794149428606033E-002;1.331953913904727E-003;-5.380115937441587E-003;
2.422833333333334E+009;1.643909513950348E-001;-7.021225988864899E-002;1.117646344937384E-003;-5.431971047073603E-003;
2.423000000000000E+009;1.639388203620911E-001;-7.252781838178635E-002;9.968294762074947E-004;-5.505571141839027E-003;
2.423166666666667E+009;1.634400933980942E-001;-7.461029291152954E-002;7.227360038086772E-004;-5.431385710835457E-003;
2.423333333333334E+009;1.631550341844559E-001;-7.697602361440659E-002;2.872435143217444E-004;-5.465174093842506E-003;
2.423500000000000E+009;1.630598008632660E-001;-7.892143726348877E-002;1.599357201484963E-004;-5.569279193878174E-003;
2.423666666666667E+009;1.631864160299301E-001;-8.120064437389374E-002;-9.196427708957344E-005;-5.567333195358515E-003;
2.423833333333334E+009;1.629580259323120E-001;-8.308558166027069E-002;-2.067430905299261E-004;-5.466967821121216E-003;
2.424000000000000E+009;1.631247401237488E-001;-8.516965061426163E-002;-5.180026637390256E-004;-5.443757399916649E-003;
2.424166666666667E+009;1.632182896137238E-001;-8.712978661060333E-002;-6.348920287564397E-004;-5.417400971055031E-003;
2.424333333333334E+009;1.635699719190598E-001;-8.884305506944656E-002;-8.424862753599882E-004;-5.364952143281698E-003;
2.424500000000000E+009;1.640885621309280E-001;-9.088397771120071E-002;-1.199504127725959E-003;-5.185824353247881E-003;
2.424666666666667E+009;1.642844676971436E-001;-9.241933375597000E-002;-1.390308723784983E-003;-5.144532304257155E-003;
2.424833333333334E+009;1.651471108198166E-001;-9.385330975055695E-002;-1.539430697448552E-003;-5.211558192968369E-003;
2.425000000000000E+009;1.655277907848358E-001;-9.536520391702652E-002;-1.719942199997604E-003;-4.866892006248236E-003;
2.425166666666667E+009;1.660748869180679E-001;-9.679281711578369E-002;-2.026887610554695E-003;-4.676602780818939E-003;
2.425333333333334E+009;1.666280329227448E-001;-9.791076928377152E-002;-2.158721210435033E-003;-4.599916283041239E-003;
2.425500000000000E+009;1.672709882259369E-001;-9.923945367336273E-002;-2.285588067024946E-003;-4.435610491782427E-003;
2.425666666666667E+009;1.678454428911209E-001;-9.990379214286804E-002;-2.352129435166717E-003;-4.422047641128302E-003;
2.425833333333334E+009;1.683745384216309E-001;-1.009800732135773E-001;-2.440790180116892E-003;-4.297034814953804E-003;
2.426000000000000E+009;1.690243631601334E-001;-1.014105752110481E-001;-2.599993720650673E-003;-4.084521904587746E-003;
2.426166666666667E+009;1.696856915950775E-001;-1.020279452204704E-001;-2.570630051195622E-003;-3.947054967284203E-003;
2.426333333333334E+009;1.699763685464859E-001;-1.027307510375977E-001;-2.801775000989437E-003;-3.877768758684397E-003;
2.426500000000000E+009;1.706654131412506E-001;-1.030449047684670E-001;-2.891231561079621E-003;-3.609888954088092E-003;
2.426666666666667E+009;1.710827499628067E-001;-1.033676713705063E-001;-3.081077476963401E-003;-3.516222583130002E-003;
2.426833333333334E+009;1.716517508029938E-001;-1.036491990089417E-001;-3.023911034688354E-003;-3.339345101267099E-003;
2.427000000000000E+009;1.718487292528153E-001;-1.038995310664177E-001;-3.241925965994597E-003;-3.223110688850284E-003;
2.427166666666667E+009;1.721320748329163E-001;-1.039034947752953E-001;-3.142529400065541E-003;-3.052535932511091E-003;
2.427333333333334E+009;1.722694635391235E-001;-1.040941402316093E-001;-3.256715135648847E-003;-2.987973624840379E-003;
2.427500000000000E+009;1.722626686096191E-001;-1.042194887995720E-001;-3.378552384674549E-003;-2.793230116367340E-003;
2.427666666666667E+009;1.721660196781158E-001;-1.041393056511879E-001;-3.260874189436436E-003;-2.695659874007106E-003;
2.427833333333334E+009;1.720545589923859E-001;-1.042211502790451E-001;-3.491434967145324E-003;-2.443411387503147E-003;
