# Hz S RI R 50
2400000000.0000000000 0.173777297139167813400106865629 0.049496460705995559692382812500 0.003537501441314816908595419775 0.000705442333128303289413452148 0 0 0 0 
2400166666.6666665077 0.174207195639610290527343750000 0.049049999564886093139648437500 0.003620034782215952873229980469 0.000603426189627498388290405273 0 0 0 0 
2400333333.3333334923 0.174613356590270996093750000000 0.048284925520420067523996721093 0.003559527918696403937098837744 0.000609756156336516141891479492 0 0 0 0 
2400500000.0000000000 0.175112754106521606445312500000 0.047542862594127661968190778907 0.003379280911758542060852050781 0.000416137190768495202064514160 0 0 0 0 
2400666666.6666665077 0.175197109580040005782919365629 0.046776529401540763164479841407 0.003360356204211711883544921875 0.000506245414726436138153076172 0 0 0 0 
2400833333.3333334923 0.175596430897712707519531250000 0.046319197863340377807617187500 0.003392688930034637884852743994 0.000281741784419864416122436523 0 0 0 0 
2401000000.0000000000 0.175565510988235501388388115629 0.045553747564554207538645158593 0.003417914733290671868565224756 0.000213847248232923502295893536 0 0 0 0 
2401166666.6666665077 0.175737977027893094161825615629 0.044985495507717132568359375000 0.003549468237906693978550576318 0.000213229795917868587091723032 0 0 0 0 
2401333333.3333334923 0.175856232643127413650674384371 0.044345930218696587299387346093 0.003429679665714501900913857568 0.000189924132428131997585296631 0 0 0 0 
2401500000.0000000000 0.176175743341445895095986884371 0.043639566749334342266042341407 0.003609656589105724854710244287 0.000127096835058182505056104117 0 0 0 0 
2401666666.6666665077 0.175995543599128695388955634371 0.042877893894910812377929687500 0.003639808855950831933262490381 -0.000008319137123180553317070007 0 0 0 0 
2401833333.3333334923 0.175722956657409695724325615629 0.042085818946361541748046875000 0.003622126067057251930236816406 -0.000081952930486295372247695923 0 0 0 0 
2402000000.0000000000 0.175322115421295193771200615629 0.041209585964679718017578125000 0.003510179230943322181701660156 -0.000460110139101743698120117188 0 0 0 0 
2402166666.6666665077 0.175284937024116488357705634371 0.040250036865472786640207658593 0.003442881396040319962742470850 -0.000359872879926115274429321289 0 0 0 0 
2402333333.3333334923 0.174944356083869906326455634371 0.039250496774911880493164062500 0.003572136629372835159301757812 -0.000656848540529608726501464844 0 0 0 0 
2402500000.0000000000 0.174993187189102200607138115629 0.038038175553083419799804687500 0.003630258608609437942504882812 -0.000837015104480087757110595703 0 0 0 0 
2402666666.6666665077 0.174519792199134798904580634371 0.037038348615169532085378278907 0.003533778712153435187098837744 -0.000915300159249454736709594727 0 0 0 0 
2402833333.3333334923 0.174169406294822692871093750000 0.035931076854467391967773437500 0.003491159295663238005397177588 -0.000833693600725382566452026367 0 0 0 0 
2403000000.0000000000 0.173811718821525601486044365629 0.034576762467622756958007812500 0.003431433346122502846958779443 -0.001292748493142426013946533203 0 0 0 0 
2403166666.6666665077 0.173576056957244900802450615629 0.033138252794742577289621721093 0.003392242128029466109034872900 -0.001392503851093352057813334888 0 0 0 0 
2403333333.3333334923 0.173139929771423312088174384371 0.031907547265291207050363908593 0.003269629552960395812988281250 -0.001507276087068021080614399487 0 0 0 0 
2403500000.0000000000 0.172804623842239407638388115629 0.030316999182105060922642891796 0.003339314600452781157252646338 -0.001708227326162159009220742334 0 0 0 0 
2403666666.6666665077 0.172225609421730013748330634371 0.028500048443675041198730468750 0.003139456966891884803771972656 -0.001847208477556705908534384619 0 0 0 0 
2403833333.3333334923 0.172069475054740905761718750000 0.026728540658950809133509451954 0.003046798286959528923034667969 -0.002026282483711839155909872900 0 0 0 0 
2404000000.0000000000 0.171520352363586398025674384371 0.025098336860537528991699218750 0.002929895883426070213317871094 -0.002170340158045291900634765625 0 0 0 0 
2404166666.6666665077 0.171158760786056490799111884371 0.022981300950050350534459298046 0.002697583753615618185756064307 -0.002151469234377146200892783057 0 0 0 0 
2404333333.3333334923 0.170880556106567410568075615629 0.021370487287640571594238281250 0.002525499323382974104640341650 -0.002352039795368909835815429688 0 0 0 0 
2404500000.0000000000 0.170469969511032104492187500000 0.019271595403552058828333670704 0.002432114444673060937168740381 -0.002466185716912149949314736475 0 0 0 0 
2404666666.6666665077 0.170231118798255892654580634371 0.017277939245104789733886718750 0.002206104574725031852722167969 -0.002488670405000447793247841943 0 0 0 0 
2404833333.3333334923 0.169984713196754511077557481258 0.015353689901530739175816719921 0.002023000968620181083679199219 -0.002551748184487224058863974463 0 0 0 0 
2405000000.0000000000 0.169853448867797907073651231258 0.013194750994443889963170235546 0.001863457611761986992479633862 -0.002583033638074994087219238281 0 0 0 0 
2405166666.6666665077 0.169913455843925503829794365629 0.011275790631771089381207850977 0.001761784544214606068254780347 -0.002699486678466200828552246094 0 0 0 0 
2405333333.3333334923 0.169901832938194302657919365629 0.009121854789555072784423828125 0.001484429580159484906437539209 -0.002639586105942726135253906250 0 0 0 0 
2405500000.0000000000 0.169935360550880404373330634371 0.007102522067725658416748046875 0.001265308703295886950251913916 -0.002746626269072293801548623193 0 0 0 0 
2405666666.6666665077 0.170076504349708612640057481258 0.004985902458429337415213300488 0.001149008516222238974330283057 -0.002475407673045992851257324219 0 0 0 0 
2405833333.3333334923 0.170151397585868807693643134371 0.003102210815995932059047079932 0.001130716176703572056413960034 -0.002411072375252842903137207031 0 0 0 0 
2406000000.0000000000 0.170486971735954312423544365629 0.000909811758901923894882202148 0.000999633921310305595397949219 -0.002407857915386558012721396338 0 0 0 0 
2406166666.6666665077 0.170675396919250488281250000000 -0.001104668248444796042201376807 0.000753849686589092016220092773 -0.002311568474397062821629189600 0 0 0 0 
2406333333.3333334923 0.171309396624565096756143134371 -0.003116548294201492829563759912 0.000675353338010609149932861328 -0.002376355463638902144191122900 0 0 0 0 
2406500000.0000000000 0.171771690249443109710369981258 -0.005092002451419830322265625000 0.000580371706746518611907958984 -0.002273773541674017906188964844 0 0 0 0 
2406666666.6666665077 0.172105252742767306228799384371 -0.007010136730968952178955078125 0.000508466444443911314010620117 -0.002180579584091902212855673682 0 0 0 0 
2406833333.3333334923 0.172795847058296203613281250000 -0.008916962891817092895507812500 0.000464726676000282222598475323 -0.001856244169175625064252543872 0 0 0 0 
2407000000.0000000000 0.173547565937042208572549384371 -0.010822179727256299799909022852 0.000443452998297289013862609863 -0.001750451978296041922328329932 0 0 0 0 
2407166666.6666665077 0.174425274133682306487713731258 -0.012665508314967160660713396680 0.000297368096653372103541773663 -0.001820883364416659095166850513 0 0 0 0 
2407333333.3333334923 0.174965158104896600921307481258 -0.014637178741395470010777657421 0.000262727815425023382336217059 -0.001706446986645459911943745190 0 0 0 0 
2407500000.0000000000 0.175653815269470187088174384371 -0.016212228685617450368861014454 0.000391415844205766916275024414 -0.001760913291946053938624716650 0 0 0 0 
2407666666.6666665077 0.176517680287361200530682481258 -0.017892945557832721364954764454 0.000436760194133967215388697491 -0.001824878039769828102709126050 0 0 0 0 
2407833333.3333334923 0.177133396267890902420205634371 -0.019605930894613269460657889454 0.000269665935775265097618103027 -0.001738991355523467063903808594 0 0 0 0 
2408000000.0000000000 0.177929520606994601150674384371 -0.021263938397169109689732735546 0.000380762649001553708880823956 -0.001645302749238908074022602612 0 0 0 0 
2408166666.6666665077 0.178797513246536310393963731258 -0.022445725277066230773925781250 0.000345882144756615216105860577 -0.001621279283426702022552490234 0 0 0 0 
2408333333.3333334923 0.179673597216606112381143134371 -0.023972621187567710876464843750 0.000385978433769196326106470929 -0.001630742102861403985264443506 0 0 0 0 
2408500000.0000000000 0.180163413286209106445312500000 -0.025479041039943698537806326954 0.000141975251608528196811676025 -0.001691962359473109028459858472 0 0 0 0 
2408666666.6666665077 0.180809140205383300781250000000 -0.026667827740311619150181954296 0.000263069756329059600830078125 -0.001814569346606730981114052881 0 0 0 0 
2408833333.3333334923 0.181207165122032193282919365629 -0.027788259088993069040318673046 0.000159792718477547195836743765 -0.001732868491671978993656777490 0 0 0 0 
2409000000.0000000000 0.181593880057334899902343750000 -0.028719078749418258666992187500 0.000186431396286934587076464243 -0.001715918770059942982317280347 0 0 0 0 
2409166666.6666665077 0.182177841663360595703125000000 -0.029767766594886779785156250000 0.000050014346925308927893638611 -0.001646895427256823019740439307 0 0 0 0 
2409333333.3333334923 0.182747855782508905608807481258 -0.030453033745288848876953125000 0.000016606698409304950723444291 -0.001717472565360367081285786206 0 0 0 0 
2409500000.0000000000 0.182989463210105895996093750000 -0.031350333243608481670339216407 -0.000107052081148140105322161264 -0.001691604848019778945325541919 0 0 0 0 
2409666666.6666665077 0.183168753981590298751669365629 -0.031846284866333007812500000000 -0.000119742537208367098443446974 -0.001640742528252304033992148291 0 0 0 0 
2409833333.3333334923 0.183398142457008389571981865629 -0.032058455049991607666015625000 -0.000086074418504722416400909424 -0.001603483106009661934496235425 0 0 0 0 
2410000000.0000000000 0.183698728680610712249432481258 -0.032642956823110580444335937500 -0.000179670998477376997470855713 -0.001480967970564960999729775537 0 0 0 0 
2410166666.6666665077 0.183853611350059509277343750000 -0.032952200621366500854492187500 -0.000236999258049763712003984995 -0.001458317739889025905011821216 0 0 0 0 
2410333333.3333334923 0.183777675032615689376669365629 -0.033328872174024581909179687500 -0.000359929486876353621482849121 -0.001420812797732651016832661206 0 0 0 0 
2410500000.0000000000 0.183895289897918701171875000000 -0.033682383596897132183034528907 -0.000323309097439050674438476562 -0.001444555004127324061152792822 0 0 0 0 
2410666666.6666665077 0.183676287531852694412393134371 -0.034068889915943152690847028907 -0.000277145038126036524772644043 -0.001447823015041648907902382959 0 0 0 0 
2410833333.3333334923 0.183514699339866610428018134371 -0.034220326691865921020507812500 -0.000247271091211587190628051758 -0.001447115093469619967816996997 0 0 0 0 
2411000000.0000000000 0.183129936456680297851562500000 -0.034605123102664947509765625000 -0.000264844711637124419212341309 -0.001251394627615809006931923975 0 0 0 0 
2411166666.6666665077 0.182945176959037808517294365629 -0.034789476543664932250976562500 -0.000405428232625126784473973407 -0.001292749657295644066454243237 0 0 0 0 
2411333333.3333334923 0.182448029518127413650674384371 -0.034964591264724731445312500000 -0.000509363890159875154495239258 -0.001198846963234245993970561450 0 0 0 0 
2411500000.0000000000 0.181920677423477200607138115629 -0.035506412386894233013112653907 -0.000400043936679139679104405536 -0.001032262924127280928968120044 0 0 0 0 
2411666666.6666665077 0.181187719106674194335937500000 -0.035834349691867828369140625000 -0.000438640563515946323245447980 -0.001057194895111023946049355615 0 0 0 0 
2411833333.3333334923 0.180545881390571594238281250000 -0.036115404218435287475585937500 -0.000400246703065931797027587891 -0.001071649254299700043321919019 0 0 0 0 
2412000000.0000000000 0.179891675710678100585937500000 -0.036604296416044242168386091407 -0.000340609811246395111083984375 -0.000883184431586414575576782227 0 0 0 0 
2412166666.6666665077 0.178867906332015991210937500000 -0.037143442779779427265207658593 -0.000401898782001808285713195801 -0.001018955139443278095842670972 0 0 0 0 
2412333333.3333334923 0.178025171160697909256143134371 -0.037462759763002402568776716407 -0.000405320955906063318252563477 -0.000927951186895370483398437500 0 0 0 0 
2412500000.0000000000 0.176829054951667813400106865629 -0.038105808198452002788503278907 -0.000502639799378812313079833984 -0.000694715068675577640533447266 0 0 0 0 
2412666666.6666665077 0.175908103585243197342080634371 -0.038859754800796508789062500000 -0.000319863727781921625137329102 -0.000849109259434044361114501953 0 0 0 0 
2412833333.3333334923 0.174700304865837097167968750000 -0.039601948112249367450754533593 -0.000270605523837730288505554199 -0.000675695831887423992156982422 0 0 0 0 
2413000000.0000000000 0.173469007015228299239950615629 -0.040258843451738357543945312500 -0.000286657916149124503135681152 -0.000549094867892563343048095703 0 0 0 0 
2413166666.6666665077 0.172083109617233304122763115629 -0.041260816156864173198659528907 -0.000252726196777075474888402118 -0.000661889149341732263565063477 0 0 0 0 
2413333333.3333334923 0.170809909701347406585369981258 -0.042181771248579032207448591407 -0.000247576419496908783912658691 -0.000356346426997333819240015851 0 0 0 0 
2413500000.0000000000 0.169716984033584594726562500000 -0.043233200907707207416574846093 -0.000048976202378980822186877592 -0.000532737991306930780410766602 0 0 0 0 
2413666666.6666665077 0.168353512883186312576455634371 -0.044153012335300452495534528907 -0.000094259157776832580566406250 -0.000390004395740106701850891113 0 0 0 0 
2413833333.3333334923 0.166875764727592496017294365629 -0.045388203114271157001535783593 -0.000065690604969859123229980469 -0.000355493422830477411120814191 0 0 0 0 
2414000000.0000000000 0.165492326021194513518963731258 -0.046573530882596969604492187500 0.000165891091455705490991315298 -0.000384917977498844320147913800 0 0 0 0 
2414166666.6666665077 0.164262741804122897049111884371 -0.047926448285579681396484375000 0.000262962857959792017936706543 -0.000214883722946979105472564697 0 0 0 0 
2414333333.3333334923 0.163036882877349909026776231258 -0.049335423856973648071289062500 0.000236808540648780790254315787 -0.000352975737769156694412231445 0 0 0 0 
2414500000.0000000000 0.162149548530578613281250000000 -0.050701502710580832744557966407 0.000316190446028485894203186035 -0.000214261221117340001180925912 0 0 0 0 
2414666666.6666665077 0.160893902182579012771768134371 -0.052294563502073287963867187500 0.000508926110342144966125488281 -0.000394833070458844304084777832 0 0 0 0 
2414833333.3333334923 0.159776806831359891036825615629 -0.054174154996871948242187500000 0.000686456100083887577056884766 -0.000287005736026912873417454852 0 0 0 0 
2415000000.0000000000 0.158649966120719909667968750000 -0.055518306791782379150390625000 0.000541994464583694934844970703 -0.000455195608083158677250462665 0 0 0 0 
2415166666.6666665077 0.157795056700706509689169365629 -0.057399205863475799560546875000 0.000903425971046090126037597656 -0.000575408688746392726898193359 0 0 0 0 
2415333333.3333334923 0.156989008188247708419638115629 -0.059279553592205047607421875000 0.000837037980090826749801635742 -0.000665772065985947847366333008 0 0 0 0 
2415500000.0000000000 0.156303003430366488357705634371 -0.061042353510856628417968750000 0.001041904091835021972656250000 -0.000761982577387243509292602539 0 0 0 0 
2415666666.6666665077 0.155549213290214510818643134371 -0.062888428568840026855468750000 0.001227735192514955997467041016 -0.000986484112218022346496582031 0 0 0 0 
2415833333.3333334923 0.154990717768669100662393134371 -0.065006725490093231201171875000 0.001027836813591421084163046729 -0.001064217067323625087738037109 0 0 0 0 
2416000000.0000000000 0.154192551970481900314169365629 -0.066828608512878417968750000000 0.001216535572893917994258261572 -0.001226246473379432938219379956 0 0 0 0 
2416166666.6666665077 0.154010251164436312576455634371 -0.068795993924140930175781250000 0.001200361177325248935102153247 -0.001419045613147317929508828271 0 0 0 0 
2416333333.3333334923 0.153455659747123690506143134371 -0.070777475833892822265625000000 0.001178796752355993010877299731 -0.001580975251272320964215922778 0 0 0 0 
2416500000.0000000000 0.153162688016891507247763115629 -0.072818227112293243408203125000 0.001148679177276789925218891675 -0.001685599330812693075892783057 0 0 0 0 
2416666666.6666665077 0.152819931507110595703125000000 -0.074734568595886230468750000000 0.000923527986742556095123291016 -0.001990525284782052040100097656 0 0 0 0 
2416833333.3333334923 0.152703434228897094726562500000 -0.076811134815216064453125000000 0.000985051621682941913604736328 -0.002185289049521089033839560400 0 0 0 0 
2417000000.0000000000 0.152292966842651394943075615629 -0.078791588544845581054687500000 0.000882062362506985664367675781 -0.002296117600053548812866210938 0 0 0 0 
2417166666.6666665077 0.152292430400848388671875000000 -0.080538161098957061767578125000 0.000782204268034547567367553711 -0.002431189874187111854553222656 0 0 0 0 
2417333333.3333334923 0.152210593223571805099325615629 -0.082244396209716796875000000000 0.000574534817133098840713500977 -0.002741253934800624847412109375 0 0 0 0 
2417500000.0000000000 0.152153521776199313064736884371 -0.084097124636173248291015625000 0.000441947282524779384762364520 -0.002725481986999512152430868994 0 0 0 0 
2417666666.6666665077 0.152321368455886813064736884371 -0.085603132843971252441406250000 0.000289923307718709111213684082 -0.002939726924523711204528808594 0 0 0 0 
2417833333.3333334923 0.152240499854087801834268134371 -0.087257340550422668457031250000 -0.000050631180783966562967707975 -0.003010075306519865989685058594 0 0 0 0 
2418000000.0000000000 0.152416765689849909026776231258 -0.088706858456134796142578125000 -0.000230929610552266213014879770 -0.002957777120172977013828896631 0 0 0 0 
2418166666.6666665077 0.152530163526535006424111884371 -0.089963376522064208984375000000 -0.000407268351409584283828735352 -0.003105140756815671920776367188 0 0 0 0 
2418333333.3333334923 0.152864068746566800216513115629 -0.091171361505985260009765625000 -0.000661360449157655239105224609 -0.003186869435012340979335165869 0 0 0 0 
2418500000.0000000000 0.152933835983276394943075615629 -0.092320799827575683593750000000 -0.000897427962627261877059936523 -0.003086533863097428841831826318 0 0 0 0 
2418666666.6666665077 0.153167307376861600021200615629 -0.093357339501380920410156250000 -0.001170903560705482959747314453 -0.002959613455459475950953818213 0 0 0 0 
2418833333.3333334923 0.153275445103645296951455634371 -0.094325251877307891845703125000 -0.001331689301878214099286723560 -0.002885140245780349211451865088 0 0 0 0 
2419000000.0000000000 0.153481334447860690017861884371 -0.094967752695083618164062500000 -0.001557860174216330051422119141 -0.002840858651325107054469443213 0 0 0 0 
2419166666.6666665077 0.153716072440147399902343750000 -0.095706701278686523437500000000 -0.001637820038013160011888813550 -0.002594767138361930847167968750 0 0 0 0 
2419333333.3333334923 0.153729185461998013595419365629 -0.096009105443954467773437500000 -0.001837440184317528984667133862 -0.002558525418862700896022177588 0 0 0 0 
2419500000.0000000000 0.154024720191955594161825615629 -0.096695564687252044677734375000 -0.002033733297139406204223632812 -0.002192068146541715101954794775 0 0 0 0 
2419666666.6666665077 0.154259249567985506912393134371 -0.096999041736125946044921875000 -0.002094603376463056044337607275 -0.002265645423904060883762978662 0 0 0 0 
2419833333.3333334923 0.154294431209564208984375000000 -0.097018525004386901855468750000 -0.002299073617905377907993935693 -0.002002327935770153999328613281 0 0 0 0 
