# Hz S RI R 
2400000000.0000000000 0.171198830008506802657919365629 0.039939336478710181499440778907 -0.000892530078999698162078857422 0.001743490807712078094482421875 0 0 0 0 
2400166666.6666665077 0.171862930059433011154013115629 0.039455126971006393432617187500 -0.000945365696679800748825073242 0.001732987002469599030138325269 0 0 0 0 
2400333333.3333334923 0.172303751111030606368856865629 0.038708023726940161968190778907 -0.000930784037336707115173339844 0.001513835508376359939575195312 0 0 0 0 
2400500000.0000000000 0.172758713364601107498330634371 0.038213931024074547504465471093 -0.000715164991561323404312133789 0.001307063852436840967891074072 0 0 0 0 
2400666666.6666665077 0.172881826758384704589843750000 0.037448029965162277221679687500 -0.000818611530121415853500366211 0.001355381798930465958238911206 0 0 0 0 
2400833333.3333334923 0.173252224922180203536825615629 0.037048492580652236938476562500 -0.000985096790827810764312744141 0.001301560550928116061566996997 0 0 0 0 
2401000000.0000000000 0.173447385430335998535156250000 0.036300696432590491558034528907 -0.001051078899763524965998984229 0.001140741049312054894090961987 0 0 0 0 
2401166666.6666665077 0.173589810729026794433593750000 0.035585451871156692504882812500 -0.001129198470152914957759238135 0.001089886995032429911969829028 0 0 0 0 
2401333333.3333334923 0.173428609967231805999432481258 0.035076331347227096557617187500 -0.001196802710182965018628764575 0.001058040070347487926483154297 0 0 0 0 
2401500000.0000000000 0.173516273498535211761151231258 0.034492764621973037719726562500 -0.001444849884137511036516499097 0.000978896627202630043029785156 0 0 0 0 
2401666666.6666665077 0.173534303903579711914062500000 0.034041333943605422973632812500 -0.001437204773537815050837851416 0.001074406318366527991053915869 0 0 0 0 
2401833333.3333334923 0.173447281122207613845986884371 0.033225156366825096820871721093 -0.001816705800592899105669331128 0.001095034298487008051631308447 0 0 0 0 
2402000000.0000000000 0.172967344522476196289062500000 0.032270330935716629028320312500 -0.001844865153543651103973388672 0.001248496118932961983921670068 0 0 0 0 
2402166666.6666665077 0.172830387949943486969317518742 0.031520105898380279541015625000 -0.002032182179391384124755859375 0.001325040590018033981323242188 0 0 0 0 
2402333333.3333334923 0.172327637672424288650674384371 0.030681995674967769277552420704 -0.001978962682187556786778115381 0.001363916904665529944776225513 0 0 0 0 
2402500000.0000000000 0.172367855906486511230468750000 0.029901159927248961711843122657 -0.002195191802456974983215332031 0.001770920003764330907108925928 0 0 0 0 
2402666666.6666665077 0.172014027833938598632812500000 0.029180819168686870229700858204 -0.002017625374719500975367880713 0.001871713437139987945556640625 0 0 0 0 
2402833333.3333334923 0.171763077378273010253906250000 0.028133545070886608469029610546 -0.002166240010410546822788857568 0.002028209390118718147277832031 0 0 0 0 
2403000000.0000000000 0.171481087803840609451455634371 0.027031239122152328491210937500 -0.002222641138359903855564736475 0.002374069532379508018493652344 0 0 0 0 
2403166666.6666665077 0.171121194958686800857705634371 0.025764653459191318857213204296 -0.002140388125553727149963378906 0.002657061209902166886570595850 0 0 0 0 
2403333333.3333334923 0.170729592442512512207031250000 0.024716991931200030935267264454 -0.002189643215388060049769736182 0.002897977363318204879760742188 0 0 0 0 
2403500000.0000000000 0.170306965708732604980468750000 0.023487163707613948476771170704 -0.001960590016096829934361123193 0.002886284608393907980677939307 0 0 0 0 
2403666666.6666665077 0.169893041253089904785156250000 0.022151239216327670705775076954 -0.001786161330528557083727192456 0.003149624215438961982727050781 0 0 0 0 
2403833333.3333334923 0.169832795858383206466513115629 0.020750192925333980215052420704 -0.001669154386036098003387451172 0.003528309985995293097255087744 0 0 0 0 
2404000000.0000000000 0.169402047991752596756143134371 0.019218513742089271545410156250 -0.001500194892287253899815224756 0.003552493639290332794189453125 0 0 0 0 
2404166666.6666665077 0.168996542692184503753338731258 0.017690621316432949411412423046 -0.001471163472160696983337402344 0.003789123380556703047511435400 0 0 0 0 
2404333333.3333334923 0.168782904744148309905682481258 0.016286639496684070932408516796 -0.001098044333048165061353373950 0.004017669707536697387695312500 0 0 0 0 
2404500000.0000000000 0.168523058295249911209268134371 0.014570372179150579625139805273 -0.000932954368181526660919189453 0.003997969441115856170654296875 0 0 0 0 
2404666666.6666665077 0.168408378958702087402343750000 0.013071102090179920196533203125 -0.000589279690757393836975097656 0.004164024721831083297729492188 0 0 0 0 
2404833333.3333334923 0.168275102972984286209268134371 0.011287254281342029571533203125 -0.000351656781276687979698181152 0.004193276166915894422049237988 0 0 0 0 
2405000000.0000000000 0.168135672807693509200888115629 0.009517149999737739562988281250 -0.000210751502891071086556035175 0.004305544309318065643310546875 0 0 0 0 
2405166666.6666665077 0.167943596839904812911825615629 0.007658649701625108718872070312 -0.000047267199988709762692451477 0.004259782843291760358328534863 0 0 0 0 
2405333333.3333334923 0.168044120073318509200888115629 0.005774252582341432571411132812 0.000255260412814095616340637207 0.004398184362798929214477539062 0 0 0 0 
2405500000.0000000000 0.168012559413909912109375000000 0.004052678588777781400198652051 0.000451481580967083573341369629 0.004356639925390481948852539062 0 0 0 0 
2405666666.6666665077 0.167916670441627502441406250000 0.002305848523974419073817587744 0.000945232750382274389266967773 0.004476533737033605575561523438 0 0 0 0 
2405833333.3333334923 0.167873710393905611892861884371 0.000515373365487903356552124023 0.001098265405744313976885151440 0.004243252333253622055053710938 0 0 0 0 
2406000000.0000000000 0.168038010597229003906250000000 -0.001646542456001043102861713940 0.001375359948724508068682026440 0.004319954663515090942382812500 0 0 0 0 
2406166666.6666665077 0.167719841003417996505575615629 -0.003371733706444501876831054688 0.001569716841913759925244975513 0.004326105117797852429861737988 0 0 0 0 
2406333333.3333334923 0.167905047535896301269531250000 -0.005123371724039316177368164062 0.001894349232316016934038471753 0.004009471740573644638061523438 0 0 0 0 
2406500000.0000000000 0.167887330055236788650674384371 -0.007074357941746711730957031250 0.002202598610892891883850097656 0.004041223786771298322195722363 0 0 0 0 
2406666666.6666665077 0.167767807841300992111044365629 -0.008685072883963584899902343750 0.002266725525259972052333212744 0.003750875126570463180541992188 0 0 0 0 
2406833333.3333334923 0.167918145656585693359375000000 -0.010390384122729299717913242773 0.002451898530125617980957031250 0.003398949047550559043884277344 0 0 0 0 
2407000000.0000000000 0.168041437864303588867187500000 -0.012166003696620460855504219921 0.002689349465072154998779296875 0.003355477703735231919529580225 0 0 0 0 
2407166666.6666665077 0.168102517724037198165731865629 -0.013545479625463489187220389454 0.002934014657512307167053222656 0.003116924082860351042506552588 0 0 0 0 
2407333333.3333334923 0.168081566691398592849893134371 -0.015186490491032600402832031250 0.003072274615988134904148720850 0.002928176894783974127528525244 0 0 0 0 
2407500000.0000000000 0.168159738183021600921307481258 -0.016441905871033668518066406250 0.003002740442752838134765625000 0.002593403914943337006809853662 0 0 0 0 
2407666666.6666665077 0.168183118104934692382812500000 -0.017717767506837848318079764454 0.002985488390550016923191689600 0.002334650838747621016261435400 0 0 0 0 
2407833333.3333334923 0.168242260813713101486044365629 -0.018927752971649169921875000000 0.003018957329913973808288574219 0.002151085995137691931483603369 0 0 0 0 
2408000000.0000000000 0.168502479791641207595986884371 -0.020159764215350151062011718750 0.003006456186994909806492470850 0.002083941828459500832798623193 0 0 0 0 
2408166666.6666665077 0.168576389551162691970986884371 -0.021085938438773158681849295704 0.003002016339451075033900595557 0.001791441813111305019975971753 0 0 0 0 
2408333333.3333334923 0.168978020548820495605468750000 -0.021874822676181789743443673046 0.003034482477232813835144042969 0.001809041015803813934326171875 0 0 0 0 
2408500000.0000000000 0.169073671102523803710937500000 -0.022995760664343830453892891796 0.003054063068702816963195800781 0.001701171160675585053087544019 0 0 0 0 
2408666666.6666665077 0.169419541954994201660156250000 -0.023778818547725680959681326954 0.002871439093723893165588378906 0.001609231927432120063184428638 0 0 0 0 
2408833333.3333334923 0.169583544135093688964843750000 -0.024558490142226219177246093750 0.003197131678462028937098837744 0.001563804806210101084468222510 0 0 0 0 
2409000000.0000000000 0.169964060187339810470419365629 -0.025278897956013679504394531250 0.003018750110641121864318847656 0.001509822788648307106615376050 0 0 0 0 
2409166666.6666665077 0.170407414436340304275674384371 -0.026087814942002299917200858204 0.003208804177120327949523925781 0.001202137791551650004145956885 0 0 0 0 
2409333333.3333334923 0.170675769448280306717080634371 -0.026756206527352329599400704296 0.003231031121686100959777832031 0.001283480785787105993983603369 0 0 0 0 
2409500000.0000000000 0.171020954847335787674111884371 -0.027693325653672218322753906250 0.003327404381707311110255576025 0.000992383342236280441284179688 0 0 0 0 
2409666666.6666665077 0.171128824353218106368856865629 -0.028218993917107578622838204296 0.003427314572036265893223427881 0.000929566158447414636611938477 0 0 0 0 
2409833333.3333334923 0.171455726027488708496093750000 -0.028761368244886398315429687500 0.003433701116591691970825195312 0.000796121195890009403228759766 0 0 0 0 
2410000000.0000000000 0.171723932027816800216513115629 -0.029597705230116840707799141796 0.003314307425171136856079101562 0.000509517209138721227645874023 0 0 0 0 
2410166666.6666665077 0.171755030751228304763955634371 -0.030213974416255950927734375000 0.003328628139570354981663369287 0.000284612935502082109451293945 0 0 0 0 
2410333333.3333334923 0.171851560473442105392294365629 -0.030816862359642979013463204296 0.003265174105763434930088662256 0.000134769361466169411509913312 0 0 0 0 
2410500000.0000000000 0.171781256794929504394531250000 -0.031432274729013442993164062500 0.003188833361491560935974121094 -0.000098833566880784928798675537 0 0 0 0 
2410666666.6666665077 0.171783462166786193847656250000 -0.032179921865463256835937500000 0.003023072145879269079921103369 -0.000196888955542817711830139160 0 0 0 0 
2410833333.3333334923 0.171928837895393399337606865629 -0.032804775983095169067382812500 0.002972549293190240859985351562 -0.000280798441963270306587219238 0 0 0 0 
2411000000.0000000000 0.171578839421272305587606865629 -0.033347688615322113037109375000 0.002885867608711123900172568213 -0.000411386892665177583694458008 0 0 0 0 
2411166666.6666665077 0.171335652470588711837606865629 -0.034036111086606979370117187500 0.002653753617778420014622353662 -0.000434970192145556211471557617 0 0 0 0 
2411333333.3333334923 0.170957639813423212249432481258 -0.034716062247753143310546875000 0.002516123000532389120814658057 -0.000457062589703127687603551044 0 0 0 0 
2411500000.0000000000 0.170545101165771512130575615629 -0.035507898777723312377929687500 0.002367550740018486976623535156 -0.000588805938605219125747680664 0 0 0 0 
2411666666.6666665077 0.170409768819808987716513115629 -0.036053635179996490478515625000 0.002313826931640505790710449219 -0.000542962399777024984359741211 0 0 0 0 
2411833333.3333334923 0.169909477233886690994424384371 -0.036636248230934143066406250000 0.002186703728511929945704794775 -0.000508355442434549331665039062 0 0 0 0 
2412000000.0000000000 0.169529169797897311111611884371 -0.037485569715499877929687500000 0.002172301756218076185939169775 -0.000431760650826618075370788574 0 0 0 0 
2412166666.6666665077 0.169036045670509310623330634371 -0.038242436945438391948659528907 0.002112557180225849151611328125 -0.000400488410377875024646204816 0 0 0 0 
2412333333.3333334923 0.168800771236419705489950615629 -0.038922574371099472045898437500 0.002118339529260993003845214844 -0.000372911687009036486774998798 0 0 0 0 
2412500000.0000000000 0.167841210961341913421307481258 -0.039798770099878311157226562500 0.002033591968938707871678017725 -0.000318892387440428083569127216 0 0 0 0 
2412666666.6666665077 0.167494803667068509200888115629 -0.040758527815341949462890625000 0.002177671296522020859959267725 -0.000381967955036088824272155762 0 0 0 0 
2412833333.3333334923 0.166979968547820989410723768742 -0.041718192398548133159597028907 0.002078276826068758964538574219 -0.000333243398927152211039942609 0 0 0 0 
2413000000.0000000000 0.166263058781623812576455634371 -0.042666565626859671855886091407 0.002199385780841112136840820312 -0.000528257747646421194076538086 0 0 0 0 
2413166666.6666665077 0.165598899126052911956463731258 -0.043596491217613220214843750000 0.002168271224945784048793173682 -0.000592978787608444690704345703 0 0 0 0 
2413333333.3333334923 0.164828211069107111175213731258 -0.044627126306295401836354841407 0.001964949304237962202784872900 -0.000506427022628486156463623047 0 0 0 0 
2413500000.0000000000 0.164236724376678494552450615629 -0.045707289129495620727539062500 0.002032746328040957884547568213 -0.000552618468645960092544555664 0 0 0 0 
2413666666.6666665077 0.163696423172950689117755018742 -0.046827964484691619873046875000 0.001840167446061969020246196216 -0.000558639178052544593811035156 0 0 0 0 
2413833333.3333334923 0.162836119532585088531817518742 -0.047851089388132102275807966407 0.001900543924421072006225585938 -0.000638195255305618047714233398 0 0 0 0 
2414000000.0000000000 0.162011861801147488693075615629 -0.048946846276521682739257812500 0.001798245590180159048793173682 -0.000666368694510310888290405273 0 0 0 0 
2414166666.6666665077 0.161338090896606500823651231258 -0.049995888024568557739257812500 0.001916651846840978102443076025 -0.000448048900580033714145106183 0 0 0 0 
2414333333.3333334923 0.160744577646255493164062500000 -0.051319815218448638916015625000 0.001822018879465759017347026294 -0.000567915267311036586761474609 0 0 0 0 
2414500000.0000000000 0.160430938005447387695312500000 -0.052269138395786292339284528907 0.001831839326769113974330283057 -0.000602260814048349857330322266 0 0 0 0 
2414666666.6666665077 0.159745991230010986328125000000 -0.053469818085432052612304687500 0.001927154022268950939178466797 -0.000653751892969012260437011719 0 0 0 0 
2414833333.3333334923 0.159308776259422302246093750000 -0.054731499403715126728098283593 0.001946395030245184898376464844 -0.000577088969293981790542602539 0 0 0 0 
2415000000.0000000000 0.158977091312408502776776231258 -0.056046724319458007812500000000 0.001972725149244070053100585938 -0.000579812272917479276657104492 0 0 0 0 
2415166666.6666665077 0.158773273229598999023437500000 -0.057173527777194976806640625000 0.002033539349213242964503622900 -0.000554946949705481529235839844 0 0 0 0 
2415333333.3333334923 0.158486008644104003906250000000 -0.058776184916496276855468750000 0.002018692670390009880065917969 -0.000665632309392094612121582031 0 0 0 0 
2415500000.0000000000 0.158267721533775301834268134371 -0.059935618191957466815988908593 0.002005456248298286957981728662 -0.000787892786320298910140991211 0 0 0 0 
2415666666.6666665077 0.158021688461303710937500000000 -0.061438545584678649902343750000 0.002311686985194683074951171875 -0.000928356486838310956954956055 0 0 0 0 
2415833333.3333334923 0.157881736755371093750000000000 -0.062846034765243530273437500000 0.002102566650137304826023720850 -0.000946815533097833395004272461 0 0 0 0 
2416000000.0000000000 0.157542020082473810393963731258 -0.064317181706428527832031250000 0.002157964743673800988438271631 -0.000910627655684947967529296875 0 0 0 0 
2416166666.6666665077 0.157509937882423400878906250000 -0.065853543579578399658203125000 0.002193650230765343146083212744 -0.001020498690195382075068808447 0 0 0 0 
2416333333.3333334923 0.157294303178787203689736884371 -0.067160815000534057617187500000 0.002381838159635663032531738281 -0.001170851872302592017530131763 0 0 0 0 
2416500000.0000000000 0.157091245055198697189169365629 -0.068713724613189697265625000000 0.002145490143448113961460732568 -0.001150988740846514918683696216 0 0 0 0 
2416666666.6666665077 0.156774118542671203613281250000 -0.069913372397422790527343750000 0.002306482754647732214686728369 -0.001240617595613002993940043872 0 0 0 0 
2416833333.3333334923 0.156719580292701693435830634371 -0.071553692221641540527343750000 0.002248194068670272827148437500 -0.001257214113138616085052490234 0 0 0 0 
2417000000.0000000000 0.156286939978599603850994981258 -0.072766520082950592041015625000 0.002144224941730498833897256006 -0.001407840638421476104139018481 0 0 0 0 
2417166666.6666665077 0.156122282147407503982705634371 -0.074019953608512878417968750000 0.002073364099487661881687783350 -0.001423900946974753899815224756 0 0 0 0 
2417333333.3333334923 0.156145036220550509353799384371 -0.075005657970905303955078125000 0.002211836632341146902797079932 -0.001397151616401969952824257959 0 0 0 0 
2417500000.0000000000 0.155830234289169311523437500000 -0.076326385140419006347656250000 0.002088041044771670861485146631 -0.001622187090106308893916464697 0 0 0 0 
2417666666.6666665077 0.155825272202491788009481865629 -0.077217996120452880859375000000 0.002063102321699262099025107275 -0.001607148791663348891614604419 0 0 0 0 
2417833333.3333334923 0.155645474791526794433593750000 -0.078162856400012969970703125000 0.002207874087616800828220986475 -0.001724668778479099056841206128 0 0 0 0 
2418000000.0000000000 0.155450552701950100997763115629 -0.079150997102260589599609375000 0.002055946737527846856358193506 -0.001714427489787339947344135815 0 0 0 0 
2418166666.6666665077 0.155428841710090609451455634371 -0.079834319651126861572265625000 0.001965651055797934965846396338 -0.001825143815949558994890522534 0 0 0 0 
2418333333.3333334923 0.155548825860023498535156250000 -0.080731593072414398193359375000 0.001947604469023644924163818359 -0.001929481397382915019989013672 0 0 0 0 
2418500000.0000000000 0.155363172292709406097088731258 -0.081540882587432861328125000000 0.001857116352766752026201557690 -0.001885665464214981035945273291 0 0 0 0 
2418666666.6666665077 0.155512407422065707107705634371 -0.082301251590251922607421875000 0.002005870686843990845921181787 -0.002069008070975542068481445312 0 0 0 0 
2418833333.3333334923 0.155209213495254488845986884371 -0.083003185689449310302734375000 0.001943458802998065948486328125 -0.002092108130455017089843750000 0 0 0 0 
2419000000.0000000000 0.155157059431076105315838731258 -0.083588942885398864746093750000 0.001845185877755284092546772534 -0.002183152129873632951023720850 0 0 0 0 
2419166666.6666665077 0.155072346329688998123330634371 -0.084136396646499633789062500000 0.001718889689072967009303427588 -0.002370769158005713982823037256 0 0 0 0 
2419333333.3333334923 0.154729992151260403732138115629 -0.084564194083213806152343750000 0.001731636002659798102137900244 -0.002383373444899917082545615088 0 0 0 0 
2419500000.0000000000 0.154695630073547391036825615629 -0.085370294749736785888671875000 0.001723675639368593909619975513 -0.002423520665615797042846679688 0 0 0 0 
2419666666.6666665077 0.154653847217559786697549384371 -0.085810415446758270263671875000 0.001666815951466559930088662256 -0.002662420039996504783630371094 0 0 0 0 
2419833333.3333334923 0.154308110475540188888388115629 -0.085942387580871582031250000000 0.001681248308159410953521728516 -0.002526690252125263214111328125 0 0 0 0 
