# Hz S RI R 
2400000000.0000000000 0.163753256201744107345419365629 0.051896154880523681640625000000 -0.000202016657567582997396746225 0.005191898904740810394287109375 0 0 0 0 
2400166666.6666665077 0.163713440299034090896768134371 0.050401266664266593242604841407 0.000110092427348718101352137433 0.005275337956845760345458984375 0 0 0 0 
2400333333.3333334923 0.163610503077506991287393134371 0.048476301133632659912109375000 0.000216282671317458206981104718 0.005381646566092967987060546875 0 0 0 0 
2400500000.0000000000 0.163581222295761108398437500000 0.046560402959585189819335937500 0.000271334138233214616775512695 0.005367218516767024993896484375 0 0 0 0 
2400666666.6666665077 0.163448885083198602874432481258 0.044664893299341201782226562500 0.000553537742234766483306884766 0.005379259586334229382986737988 0 0 0 0 
2400833333.3333334923 0.163546130061149597167968750000 0.043023552745580673217773437500 0.000704905658494681119918823242 0.005515060853213071823120117188 0 0 0 0 
2401000000.0000000000 0.163685694336891202071981865629 0.041127502918243408203125000000 0.000977957621216773986816406250 0.005450850818306207656860351562 0 0 0 0 
2401166666.6666665077 0.163839235901832608321981865629 0.039071645587682717060129533593 0.001081426045857369899749755859 0.005554483737796545028686523438 0 0 0 0 
2401333333.3333334923 0.163797438144683810135049384371 0.036942698061466217041015625000 0.001404734095558523914934467847 0.005602122284471988677978515625 0 0 0 0 
2401500000.0000000000 0.164127841591834994217080634371 0.034896742552518851543386091407 0.001636234461329876942875527490 0.005569472908973693847656250000 0 0 0 0 
2401666666.6666665077 0.164315611124038696289062500000 0.033184282481670379638671875000 0.001827905769459903023363422925 0.005483932327479124069213867188 0 0 0 0 
2401833333.3333334923 0.164553180336952209472656250000 0.030942024663090709341028983204 0.001968910219147800965550088037 0.005447640083730220794677734375 0 0 0 0 
2402000000.0000000000 0.164585143327713012695312500000 0.029284220188856128347376639454 0.002116234973073006109950400244 0.005418847780674695968627929688 0 0 0 0 
2402166666.6666665077 0.164995357394218389313067518742 0.027217825874686241149902343750 0.002571230754256248907801962744 0.005216320045292378339285566113 0 0 0 0 
2402333333.3333334923 0.165348157286644009689169365629 0.025442637503147128713587576954 0.002787847770377994017360068213 0.005227225832641124725341796875 0 0 0 0 
2402500000.0000000000 0.165979117155075100997763115629 0.023521125316619869577428048046 0.003001454751938581900355673682 0.005204303655773401260375976562 0 0 0 0 
2402666666.6666665077 0.166362375020980807205361884371 0.021820845082402229309082031250 0.003116176463663578033447265625 0.005134260281920433044433593750 0 0 0 0 
2402833333.3333334923 0.166777685284614590743856865629 0.020285448059439659118652343750 0.003242674749344586892368935693 0.004952620249241591367239667676 0 0 0 0 
2403000000.0000000000 0.167533621191978510100994981258 0.018478360027074810373326485546 0.003501012921333312988281250000 0.004894898738712072372436523438 0 0 0 0 
2403166666.6666665077 0.168060958385467501541299384371 0.016910271719098091125488281250 0.003714916529133915901184082031 0.004716658499091863632202148438 0 0 0 0 
2403333333.3333334923 0.168654143810272189041299384371 0.015487828291952610015869140625 0.003958586137741804122924804688 0.004487208090722560882568359375 0 0 0 0 
2403500000.0000000000 0.169427335262298611739950615629 0.014069708064198490488072579296 0.003961641341447830200195312500 0.004405273124575614929199218750 0 0 0 0 
2403666666.6666665077 0.169965028762817410568075615629 0.012544200755655770737617693555 0.004282432608306407928466796875 0.004041553009301424026489257812 0 0 0 0 
2403833333.3333334923 0.170921355485916109939736884371 0.011161291040480140340784842579 0.004300140310078859329223632812 0.004063034895807504653930664062 0 0 0 0 
2404000000.0000000000 0.171472772955894497970419365629 0.010004826821386810647984688671 0.004467634018510580062866210938 0.003764723893254994912388466943 0 0 0 0 
2404166666.6666665077 0.172168031334876986404580634371 0.008689263835549354553222656250 0.004738974850624799728393554688 0.003517448902130126953125000000 0 0 0 0 
2404333333.3333334923 0.172842100262641906738281250000 0.007740167900919914245605468750 0.004747594241052865982055664062 0.003288445295765995979309082031 0 0 0 0 
2404500000.0000000000 0.173629656434059087555255018742 0.006612752564251422882080078125 0.004894977901130914688110351562 0.003166279988363385200500488281 0 0 0 0 
2404666666.6666665077 0.174558117985725402832031250000 0.005861639510840178403372480176 0.004984349012374877929687500000 0.002928701695054769949672079932 0 0 0 0 
2404833333.3333334923 0.175064772367477389236611884371 0.004876202903687953948974609375 0.005042559001594781875610351562 0.002852576551958919005153036963 0 0 0 0 
2405000000.0000000000 0.175853714346885708907919365629 0.004104636143893004331106855176 0.005070822779089212417602539062 0.002405321691185235977172851562 0 0 0 0 
2405166666.6666665077 0.176385015249252291580361884371 0.003363215364515780968907021631 0.005127544514834880828857421875 0.002566665876656771139857626807 0 0 0 0 
2405333333.3333334923 0.177217781543731689453125000000 0.002560557564720511002781533350 0.005192902404814958572387695312 0.002022494329139589829685830225 0 0 0 0 
2405500000.0000000000 0.177591130137443486969317518742 0.002085991669446229934692382812 0.005423063412308692932128906250 0.001856075250543653964996337891 0 0 0 0 
2405666666.6666665077 0.178153827786445589920205634371 0.001598117640241980986354208838 0.005362295079976320266723632812 0.001823757193051279024836874854 0 0 0 0 
2405833333.3333334923 0.178602427244186401367187500000 0.001112537924200295968296670068 0.005390481092035770416259765625 0.001602494856342673084856342847 0 0 0 0 
2406000000.0000000000 0.179150223731994601150674384371 0.000497052911669015884399414062 0.005365431308746337890625000000 0.001479920116253196976305317456 0 0 0 0 
2406166666.6666665077 0.179397955536842401702557481258 0.000281070388155058026313781738 0.005392948165535926818847656250 0.001203309395350516059278178638 0 0 0 0 
2406333333.3333334923 0.179872021079063387771768134371 -0.000128520245198160409927368164 0.005482769571244716644287109375 0.001016365014947951056836772388 0 0 0 0 
2406500000.0000000000 0.179921463131904602050781250000 -0.000541012617759406566619873047 0.005449300631880760192871093750 0.000890606374014168977737426758 0 0 0 0 
2406666666.6666665077 0.179979205131530789474325615629 -0.000709809479303658008575439453 0.005306119564920663833618164062 0.000864905887283384799957275391 0 0 0 0 
2406833333.3333334923 0.180087640881538391113281250000 -0.001234984374605119011522602612 0.005501720588654279708862304688 0.000510981015395373106002807617 0 0 0 0 
2407000000.0000000000 0.180286213755607604980468750000 -0.001550617278553545908686972510 0.005317621864378452301025390625 0.000317337282467633485794067383 0 0 0 0 
2407166666.6666665077 0.180286720395088195800781250000 -0.001824144041165709929225302588 0.005305023863911628723144531250 0.000242463531321846002906245099 0 0 0 0 
2407333333.3333334923 0.180156975984573392013388115629 -0.002325506415218114852905273438 0.005296288523823022842407226562 0.000044663316657533869147300720 0 0 0 0 
2407500000.0000000000 0.179992035031318692306356865629 -0.002630249364301561875584267725 0.005139763467013835906982421875 -0.000122800454846583306789398193 0 0 0 0 
2407666666.6666665077 0.179852679371833801269531250000 -0.003150784177705645994899130713 0.005224537570029497146606445312 -0.000257368403254076784283238544 0 0 0 0 
2407833333.3333334923 0.179268538951873807052450615629 -0.003653933294117451147792197119 0.005105632357299327850341796875 -0.000493093859404325485229492188 0 0 0 0 
2408000000.0000000000 0.179019778966903686523437500000 -0.004213287495076656341552734375 0.005217821337282657623291015625 -0.000662452308461070060729980469 0 0 0 0 
2408166666.6666665077 0.178502917289733886718750000000 -0.004673162940889596939086914062 0.005097665823996067047119140625 -0.000795780331827700138092041016 0 0 0 0 
2408333333.3333334923 0.178146228194236810882244981258 -0.005409731529653072357177734375 0.005048795137554407119750976562 -0.000911708630155771970748901367 0 0 0 0 
2408500000.0000000000 0.177543386816978510100994981258 -0.006178118754178285598754882812 0.004951165523380041122436523438 -0.001106715644709765911102294922 0 0 0 0 
2408666666.6666665077 0.176952779293060302734375000000 -0.006981562357395887374877929688 0.004944680258631706237792968750 -0.001056665903888643004773784106 0 0 0 0 
2408833333.3333334923 0.176298335194587707519531250000 -0.007816179655492305755615234375 0.004748682491481304168701171875 -0.001366423210129142024396586841 0 0 0 0 
2409000000.0000000000 0.175662308931350708007812500000 -0.008639547973871231079101562500 0.004856848623603582382202148438 -0.001358440495096147060394287109 0 0 0 0 
2409166666.6666665077 0.175122618675231905838174384371 -0.009723767638206481933593750000 0.004736136179417371749877929688 -0.001681687543168663978576660156 0 0 0 0 
2409333333.3333334923 0.174454748630523709396200615629 -0.010877053253352640324602695898 0.004656056873500347137451171875 -0.001777317607775330977198935400 0 0 0 0 
2409500000.0000000000 0.173843070864677401443643134371 -0.012177279219031330453892891796 0.004514684434980154037475585938 -0.001829954446293414072749472510 0 0 0 0 
2409666666.6666665077 0.172898039221763610839843750000 -0.013416199013590809213658516796 0.004415935371071100234985351562 -0.001971429446712135834934853662 0 0 0 0 
2409833333.3333334923 0.172239288687705993652343750000 -0.014498324133455749856969063671 0.004350493196398019790649414062 -0.002063506748527288003208779443 0 0 0 0 
2410000000.0000000000 0.171611651778221102615518134371 -0.015875203534960750234583670704 0.004317310638725757598876953125 -0.002039933111518621011021279443 0 0 0 0 
2410166666.6666665077 0.171025753021240206619424384371 -0.017436522990465160715123360546 0.004321849439293146133422851562 -0.002131978515535593032836914062 0 0 0 0 
2410333333.3333334923 0.170279860496520996093750000000 -0.018817743286490440368652343750 0.004073860589414834976196289062 -0.002294400241225957870483398438 0 0 0 0 
2410500000.0000000000 0.169681087136268587967080634371 -0.020592294633388519287109375000 0.003882941324263811111450195312 -0.002399673219770193099975585938 0 0 0 0 
2410666666.6666665077 0.169049531221389798263388115629 -0.022254113107919689523717110546 0.003986395895481109619140625000 -0.002315484452992678122279501807 0 0 0 0 
2410833333.3333334923 0.168491482734680203536825615629 -0.023835709318518638610839843750 0.003900499315932393074035644531 -0.002472611144185065789463662256 0 0 0 0 
2411000000.0000000000 0.168070524930954007247763115629 -0.025682860985398289072056954296 0.003811464877799152894261025537 -0.002532613230869174003601074219 0 0 0 0 
2411166666.6666665077 0.167733028531074496170205634371 -0.027572751045227050781250000000 0.003668519901111721992492675781 -0.002716633025556803183314658057 0 0 0 0 
2411333333.3333334923 0.167254239320755004882812500000 -0.029109396040439609182337576954 0.003778106067329645156860351562 -0.002657124074175953865051269531 0 0 0 0 
2411500000.0000000000 0.166842952370643587967080634371 -0.031215462833642959594726562500 0.003758011385798453850987099756 -0.002886974951252340836765908350 0 0 0 0 
2411666666.6666665077 0.166863709688186701018963731258 -0.033125706017017371440847028907 0.003660007612779736952540732275 -0.002949071815237402915954589844 0 0 0 0 
2411833333.3333334923 0.166645228862762506683026231258 -0.034813743084669113159179687500 0.003611267544329165978672646631 -0.003094891319051384925842285156 0 0 0 0 
2412000000.0000000000 0.166510462760925292968750000000 -0.036887276917695999145507812500 0.003551462898030877113342285156 -0.003091799095273017883300781250 0 0 0 0 
2412166666.6666665077 0.166381433606147793868856865629 -0.038859140127897262573242187500 0.003430073847994207902195595850 -0.003203678410500288009643554688 0 0 0 0 
2412333333.3333334923 0.166485637426376287262286268742 -0.040543530136346817016601562500 0.003433795878663659095764160156 -0.003342554671689867973327636719 0 0 0 0 
2412500000.0000000000 0.166469365358352688888388115629 -0.042515553534030907367746721093 0.003411067416891456084010458838 -0.003542997641488910155055380713 0 0 0 0 
2412666666.6666665077 0.166603431105613708496093750000 -0.044699080288410186767578125000 0.003280156757682561874389648438 -0.003662859322503209114074707031 0 0 0 0 
2412833333.3333334923 0.166731923818588312347088731258 -0.046285375952720642089843750000 0.003255369840189815001246786963 -0.003848979948088527159449911963 0 0 0 0 
2413000000.0000000000 0.166971072554588290115518134371 -0.048062872141599662090261091407 0.003009182633832097053527832031 -0.003801268525421618981602334131 0 0 0 0 
2413166666.6666665077 0.167300328612327603439169365629 -0.049936860799789428710937500000 0.003012422705069183869602822412 -0.003990501631051301956176757812 0 0 0 0 
2413333333.3333334923 0.167405202984809903243856865629 -0.051677599549293518066406250000 0.002841407433152198791503906250 -0.004056884907186031341552734375 0 0 0 0 
2413500000.0000000000 0.167900472879409790039062500000 -0.053248867392539978027343750000 0.002664669184014201164245605469 -0.004327164497226476669311523438 0 0 0 0 
2413666666.6666665077 0.168288677930831909179687500000 -0.054862137883901603008229841407 0.002704635495319962935206747900 -0.004309424664825201034545898438 0 0 0 0 
2413833333.3333334923 0.168618932366371210296307481258 -0.056337539106607437133789062500 0.002361971652135252952575683594 -0.004476291593164206418509198926 0 0 0 0 
2414000000.0000000000 0.168890416622161892989950615629 -0.057904962450265877460520158593 0.002185857156291604042053222656 -0.004641749896109104156494140625 0 0 0 0 
2414166666.6666665077 0.169571399688720703125000000000 -0.059180900454521179199218750000 0.001989598153159021897556923975 -0.004757635761052370071411132812 0 0 0 0 
2414333333.3333334923 0.169853746891021700760049384371 -0.060429543256759636615793596093 0.001875096117146312973619770581 -0.004626981448382139205932617188 0 0 0 0 
2414500000.0000000000 0.170518606901168795486611884371 -0.061590034514665596698801408593 0.001590045983903110027313232422 -0.004700945224612951278686523438 0 0 0 0 
2414666666.6666665077 0.170804500579834012130575615629 -0.062786497175693511962890625000 0.001281708478927612087847065503 -0.004935080185532569885253906250 0 0 0 0 
2414833333.3333334923 0.171170100569725008865518134371 -0.063844524323940277099609375000 0.001350329024717211940168071216 -0.004952546674758195877075195312 0 0 0 0 
2415000000.0000000000 0.171449303627014187911825615629 -0.064542502164840698242187500000 0.001047501573339105086085654150 -0.004895333200693131360525800488 0 0 0 0 
2415166666.6666665077 0.171984449028968811035156250000 -0.065653771162033081054687500000 0.000845559639856219291687011719 -0.004969891626387835416311933301 0 0 0 0 
2415333333.3333334923 0.172412738204002408126669365629 -0.066452421247959136962890625000 0.000500281515996903181076049805 -0.004935498349368572235107421875 0 0 0 0 
2415500000.0000000000 0.172657027840614291092080634371 -0.066933743655681610107421875000 0.000535259430762380361557006836 -0.004941481165587902069091796875 0 0 0 0 
2415666666.6666665077 0.172872036695480402190838731258 -0.067506700754165649414062500000 0.000100778459454886601723809514 -0.004801354836672545346731855176 0 0 0 0 
2415833333.3333334923 0.173081755638122586349325615629 -0.068150125443935394287109375000 0.000151187778101302710458478384 -0.004922805819660425186157226562 0 0 0 0 
2416000000.0000000000 0.173145964741706903655682481258 -0.068659581243991851806640625000 -0.000123749443446285995558062143 -0.004890658427029848098754882812 0 0 0 0 
2416166666.6666665077 0.173390835523605402190838731258 -0.069131091237068176269531250000 -0.000332887633703648989826756610 -0.004749525338411331176757812500 0 0 0 0 
2416333333.3333334923 0.173323333263397189041299384371 -0.069329969584941864013671875000 -0.000460164184914901906817835675 -0.004745291545987129211425781250 0 0 0 0 
2416500000.0000000000 0.173263207077980013748330634371 -0.069821223616600036621093750000 -0.000782531686127185821533203125 -0.004745566751807928085327148438 0 0 0 0 
2416666666.6666665077 0.172984138131141690353231865629 -0.070026561617851257324218750000 -0.000791734317317605018615722656 -0.004478646907955408096313476562 0 0 0 0 
2416833333.3333334923 0.172852933406829806228799384371 -0.070527240633964538574218750000 -0.000909871363546699285507202148 -0.004551739897578954696655273438 0 0 0 0 
2417000000.0000000000 0.172399371862411499023437500000 -0.070756554603576660156250000000 -0.001237166579812764904619526440 -0.004458778537809848785400390625 0 0 0 0 
2417166666.6666665077 0.172053858637809808929119981258 -0.070789754390716552734375000000 -0.001180981518700719096540141528 -0.004460614640265703201293945312 0 0 0 0 
2417333333.3333334923 0.171678766608238192459268134371 -0.070959471166133880615234375000 -0.001417572726495563983917236328 -0.004226408433169127377981855176 0 0 0 0 
2417500000.0000000000 0.170987829566001892089843750000 -0.071332968771457672119140625000 -0.001353118335828185081481933594 -0.004223216790705919265747070312 0 0 0 0 
2417666666.6666665077 0.170474216341972406585369981258 -0.071469329297542572021484375000 -0.001712241093628108935115195166 -0.004181258846074342727661132812 0 0 0 0 
2417833333.3333334923 0.169724494218826293945312500000 -0.071639396250247955322265625000 -0.001630970858968793912174843896 -0.003935558721423149108886718750 0 0 0 0 
2418000000.0000000000 0.168804928660392788986044365629 -0.071999914944171905517578125000 -0.001828904263675213076947856372 -0.003991671837866306304931640625 0 0 0 0 
2418166666.6666665077 0.167925342917442294021768134371 -0.072123423218727111816406250000 -0.001883333548903465054155659253 -0.003845471888780593872070312500 0 0 0 0 
2418333333.3333334923 0.167336195707321194747763115629 -0.072546236217021942138671875000 -0.001974553102627397017237997900 -0.003819913836196064949035644531 0 0 0 0 
2418500000.0000000000 0.166140466928482111175213731258 -0.072804749011993408203125000000 -0.001894573331810534000396728516 -0.003711912781000136895420693506 0 0 0 0 
2418666666.6666665077 0.165173634886741610428018134371 -0.073294699192047119140625000000 -0.001973452977836132049560546875 -0.003639255417510867118835449219 0 0 0 0 
2418833333.3333334923 0.163837417960166903396768134371 -0.073763757944107055664062500000 -0.002197076333686708970310830225 -0.003367319237440824942347861182 0 0 0 0 
2419000000.0000000000 0.162635862827300997635049384371 -0.074217401444911956787109375000 -0.002348901238292456106898642432 -0.003302257740870118141174316406 0 0 0 0 
2419166666.6666665077 0.161549806594848605056924384371 -0.074815951287746429443359375000 -0.002297611674293876127955771338 -0.003345108823850750923156738281 0 0 0 0 
2419333333.3333334923 0.160205051302909906585369981258 -0.075138889253139495849609375000 -0.002378491917625070051905966650 -0.003267667721956967873814248193 0 0 0 0 
2419500000.0000000000 0.158999204635620089431924384371 -0.076125800609588623046875000000 -0.002467186888679862022399902344 -0.003141513094305992126464843750 0 0 0 0 
2419666666.6666665077 0.157951533794403103927450615629 -0.076849304139614105224609375000 -0.002756778383627533912658691406 -0.003127007046714425086975097656 0 0 0 0 
2419833333.3333334923 0.156513273715972900390625000000 -0.077533043920993804931640625000 -0.002638691337779163880589150537 -0.003020658623427153067347861182 0 0 0 0 
