# Hz S RI R 
2400000000.0000000000 0.158028319478035000900106865629 0.112748511135578197150941548443 -0.008821541443467140197753906250 0.000231533675105311003610333853 0 0 0 0 
2400166666.6666665077 0.157381966710090609451455634371 0.110519178211688995361328125000 -0.008769231848418712615966796875 0.000556934392079710960388183594 0 0 0 0 
2400333333.3333334923 0.157056272029876708984375000000 0.108340740203857394119424384371 -0.008532368578016757965087890625 0.000873287557624280452728271484 0 0 0 0 
2400500000.0000000000 0.156771421432495089431924384371 0.105691686272621196418519673443 -0.008596577681601047515869140625 0.001304408186115324930903769385 0 0 0 0 
2400666666.6666665077 0.156495615839958190917968750000 0.103282816708087893387002509371 -0.008339096792042255401611328125 0.001562725286930799917933798682 0 0 0 0 
2400833333.3333334923 0.156129941344261197189169365629 0.100437134504318195671324076557 -0.008242652751505374908447265625 0.001745668938383460044860839844 0 0 0 0 
2401000000.0000000000 0.156032428145408602615518134371 0.097494356334209442138671875000 -0.008164014667272567749023437500 0.002176612382754683928248740088 0 0 0 0 
2401166666.6666665077 0.155720382928848294357138115629 0.094852052628993988037109375000 -0.007960265502333641052246093750 0.002364575630053877830505371094 0 0 0 0 
2401333333.3333334923 0.155698314309120205978231865629 0.091869257390499114990234375000 -0.007931704632937908172607421875 0.002508659847080707983729697119 0 0 0 0 
2401500000.0000000000 0.155844449996948186676348768742 0.088780857622623443603515625000 -0.007789642084389925003051757812 0.002798331901431084112880087744 0 0 0 0 
2401666666.6666665077 0.155757084488868713378906250000 0.085617050528526306152343750000 -0.007410907652229070663452148438 0.003091633552685379981994628906 0 0 0 0 
2401833333.3333334923 0.156020313501358004470986884371 0.082856856286525726318359375000 -0.007434223778545857343191816113 0.003377827815711497826817177881 0 0 0 0 
2402000000.0000000000 0.156717479228973388671875000000 0.079829648137092590332031250000 -0.007358111906796693801879882812 0.003387102391570806936976767432 0 0 0 0 
2402166666.6666665077 0.157209143042564392089843750000 0.076997257769107818603515625000 -0.007240935694426298141479492188 0.003836185904219747023341513525 0 0 0 0 
2402333333.3333334923 0.157766938209533691406250000000 0.073826879262924194335937500000 -0.006991650443524122238159179688 0.003831480862572789192199707031 0 0 0 0 
2402500000.0000000000 0.158770710229873712737713731258 0.071147114038467407226562500000 -0.006745142862200736999511718750 0.004021867644041776657104492188 0 0 0 0 
2402666666.6666665077 0.159450739622116088867187500000 0.068234436213970184326171875000 -0.006505855359137058258056640625 0.004363270942121744155883789062 0 0 0 0 
2402833333.3333334923 0.160720124840736389160156250000 0.065500341355800628662109375000 -0.006320498418062925338745117188 0.004484690260142087936401367188 0 0 0 0 
2403000000.0000000000 0.161944746971130398849325615629 0.062712252140045166015625000000 -0.006123815197497606277465820312 0.004797783680260181427001953125 0 0 0 0 
2403166666.6666665077 0.163478374481201199630575615629 0.060192469507455832744557966407 -0.005986258853226900100708007812 0.005025942809879779815673828125 0 0 0 0 
2403333333.3333334923 0.164963573217391995529013115629 0.057501487433910369873046875000 -0.005693631246685981750488281250 0.005066897254437208175659179688 0 0 0 0 
2403500000.0000000000 0.166690081357955904861611884371 0.055099330842494971538503278907 -0.005534240044653415679931640625 0.005163062829524278640747070312 0 0 0 0 
2403666666.6666665077 0.168324694037437411209268134371 0.052884455770254142070729841407 -0.005166561808437108993530273438 0.005448852200061082839965820312 0 0 0 0 
2403833333.3333334923 0.170086875557899502853231865629 0.050622608512639999389648437500 -0.004902572836726903915405273438 0.005575407762080430984497070312 0 0 0 0 
2404000000.0000000000 0.171654582023620605468750000000 0.048440769314765930175781250000 -0.004770593252032995223999023438 0.005613332148641347885131835938 0 0 0 0 
2404166666.6666665077 0.173447683453559903243856865629 0.046536900103092186664621721093 -0.004538905341178178787231445312 0.005834763869643211364746093750 0 0 0 0 
2404333333.3333334923 0.175380527973175104339276231258 0.044571857899427407001535783593 -0.004335235804319381713867187500 0.005786929745227099332327558301 0 0 0 0 
2404500000.0000000000 0.177103266119956997970419365629 0.042889200150966637348215471093 -0.003996808547526597976684570312 0.005925983656197786331176757812 0 0 0 0 
2404666666.6666665077 0.178804129362106295486611884371 0.041444979608058929443359375000 -0.003781036706641315980198525537 0.006128762848675251007080078125 0 0 0 0 
2404833333.3333334923 0.180619746446609497070312500000 0.040083575993776321411132812500 -0.003531723981723188920262002100 0.006118877325206995010375976562 0 0 0 0 
2405000000.0000000000 0.182327508926391601562500000000 0.039213962852954871440847028907 -0.003334722016006708145141601562 0.006096415687352418899536132812 0 0 0 0 
2405166666.6666665077 0.183941707015037508865518134371 0.038238160312175750732421875000 -0.003141027642413973808288574219 0.006039168220013380050659179688 0 0 0 0 
2405333333.3333334923 0.185675919055938692947549384371 0.037397060543298721313476562500 -0.002797469729557632966282509912 0.006135801319032908353323652051 0 0 0 0 
2405500000.0000000000 0.187380775809287997146768134371 0.036755517125129699707031250000 -0.002394522773101925849914550781 0.005978638306260108947753906250 0 0 0 0 
2405666666.6666665077 0.188988104462623596191406250000 0.036274220794439322734792341407 -0.002244894625619053840637207031 0.006158792879432439804077148438 0 0 0 0 
2405833333.3333334923 0.190423533320426913162393134371 0.035843294113874442363698591407 -0.001934615196660161018371582031 0.005988569464534521102905273438 0 0 0 0 
2406000000.0000000000 0.191808298230171203613281250000 0.035690784454345703125000000000 -0.001827273285016417937037802588 0.005846003070473670959472656250 0 0 0 0 
2406166666.6666665077 0.193177834153175409515057481258 0.035489775240421302104909528907 -0.001533892587758600928662944263 0.005926597863435745239257812500 0 0 0 0 
2406333333.3333334923 0.194504752755165100097656250000 0.035397756844758987426757812500 -0.001522458740510046915767050635 0.005792940966784954071044921875 0 0 0 0 
2406500000.0000000000 0.195513159036636408050213731258 0.035598527640104286884348283593 -0.001355756307020782990696572412 0.005755645222961902618408203125 0 0 0 0 
2406666666.6666665077 0.196518301963806207854901231258 0.035674203187227249145507812500 -0.001413337769918143966077495044 0.005645500030368567380423261426 0 0 0 0 
2406833333.3333334923 0.197329267859458895584268134371 0.035801146179437637329101562500 -0.001064010080881417014478373950 0.005461522378027439117431640625 0 0 0 0 
2407000000.0000000000 0.197978839278221102615518134371 0.036185700446367256855051408593 -0.001011106651276350021362304688 0.005528714973479509353637695312 0 0 0 0 
2407166666.6666665077 0.198821455240249606033486884371 0.036165207624435431743581403907 -0.001088229357264935970306396484 0.005486329551786184310913085938 0 0 0 0 
2407333333.3333334923 0.199088975787162808517294365629 0.036656174808740622783620466407 -0.000912116724066436290740966797 0.005398998968303203582763671875 0 0 0 0 
2407500000.0000000000 0.199257358908653287032919365629 0.036993686109781272197682966407 -0.000794832827523350715637207031 0.005308611784130334854125976562 0 0 0 0 
2407666666.6666665077 0.199538409709930392166299384371 0.037251476198434829711914062500 -0.000696058734320104122161865234 0.005090602673590183258056640625 0 0 0 0 
2407833333.3333334923 0.199299141764640808105468750000 0.037308748811483383178710937500 -0.000695626833476126194000244141 0.005242048762738704681396484375 0 0 0 0 
2408000000.0000000000 0.199551299214363098144531250000 0.037545859813690192485768903907 -0.000614965509157627820968627930 0.005189876537770032882690429688 0 0 0 0 
2408166666.6666665077 0.199118763208389309982138115629 0.037608299404382712627370466407 -0.000543028872925788164138793945 0.005060443188995122909545898438 0 0 0 0 
2408333333.3333334923 0.198965519666671808440838731258 0.037525586783885962749440778907 -0.000493023428134620189666748047 0.005191450472921133041381835938 0 0 0 0 
2408500000.0000000000 0.198337942361831692794638115629 0.037658315151929862285573591407 -0.000580993539188057184219360352 0.005116664338856936368460370801 0 0 0 0 
2408666666.6666665077 0.197838559746742304046307481258 0.037419717758893966674804687500 -0.000414854701375588774681091309 0.004972286056727170944213867188 0 0 0 0 
2408833333.3333334923 0.197082340717315701583700615629 0.037216801196336753154714216407 -0.000641083053778856992721557617 0.005083594936877489089965820312 0 0 0 0 
2409000000.0000000000 0.196367755532264709472656250000 0.036708004772663123393972028907 -0.000380492274416610598564147949 0.004986766725778579711914062500 0 0 0 0 
2409166666.6666665077 0.195340350270271301269531250000 0.036256708204746253276784528907 -0.000449688261142000610202235089 0.005089784506708384427542402051 0 0 0 0 
2409333333.3333334923 0.194385066628456087967080634371 0.035502489656209952617604841407 -0.000388350483262911384731846942 0.005192820448428392410278320312 0 0 0 0 
2409500000.0000000000 0.193240672349929809570312500000 0.034677490592002868652343750000 -0.000380389974452555179595947266 0.005323441233485937118530273438 0 0 0 0 
2409666666.6666665077 0.192134648561477688888388115629 0.033489294350147247314453125000 -0.000381248159101232886314392090 0.005555814132094383239746093750 0 0 0 0 
2409833333.3333334923 0.190810710191726712325888115629 0.032505434006452560424804687500 -0.000262211513472720980644226074 0.005523922853171825408935546875 0 0 0 0 
2410000000.0000000000 0.189704805612564086914062500000 0.031247546896338459360142891796 -0.000173254418768920004367828369 0.005587806925177574157714843750 0 0 0 0 
2410166666.6666665077 0.188444197177886990646200615629 0.029492633417248729360560233204 0.000019855406208080239593982697 0.005804763175547122955322265625 0 0 0 0 
2410333333.3333334923 0.187206864356994601150674384371 0.028149669989943500864049141796 0.000327790039591491222381591797 0.005827520973980426788330078125 0 0 0 0 
2410500000.0000000000 0.186155721545219393631143134371 0.026359573006629940378209298046 0.000451140251243487000465393066 0.006068400572985410690307617188 0 0 0 0 
2410666666.6666665077 0.184784114360809298416299384371 0.024317260831594470632532889454 0.000615283090155571699142456055 0.005960529204457998275756835938 0 0 0 0 
2410833333.3333334923 0.183914005756378201583700615629 0.022373124957084659231165701954 0.000933429633732885122299194336 0.006211313419044017791748046875 0 0 0 0 
2411000000.0000000000 0.182866454124450711349325615629 0.020294696092605590820312500000 0.000954499409999698400497436523 0.006066780537366867065429687500 0 0 0 0 
2411166666.6666665077 0.181832030415535000900106865629 0.018240548670291900634765625000 0.001213484676554799079895019531 0.006040203850716353330130292676 0 0 0 0 
2411333333.3333334923 0.180885761976242093185263115629 0.015688497573137279855748360546 0.001405588351190089962602924878 0.006090372335165739059448242188 0 0 0 0 
2411500000.0000000000 0.180167943239212008377236884371 0.013244600966572759800921055273 0.001623942633159459070918417822 0.006155740935355424880981445312 0 0 0 0 
2411666666.6666665077 0.179891467094421386718750000000 0.010947695933282380539863787305 0.001841114833950995965244912256 0.006082894280552864074707031250 0 0 0 0 
2411833333.3333334923 0.179217711091041592696981865629 0.008520562201738357543945312500 0.002081950195133686065673828125 0.006005643866956233978271484375 0 0 0 0 
2412000000.0000000000 0.178885892033576993087606865629 0.005721244029700756072998046875 0.002312142169103025956394814600 0.005924832075834274291992187500 0 0 0 0 
2412166666.6666665077 0.178667962551116887848223768742 0.003382793162018061117884970557 0.002373236464336514906642294775 0.005953358951956033706665039062 0 0 0 0 
2412333333.3333334923 0.178450107574462890625000000000 0.000690829183440655469894409180 0.002669528126716614203212118994 0.005828211084008216857910156250 0 0 0 0 
2412500000.0000000000 0.178724005818367004394531250000 -0.002048211637884377999546670068 0.002876201644539833068847656250 0.005773919634521008405203534863 0 0 0 0 
2412666666.6666665077 0.178904250264167813400106865629 -0.004662248771637678146362304688 0.003156761871650815010070800781 0.005573524627834559354300214551 0 0 0 0 
2412833333.3333334923 0.179391250014305086990518134371 -0.007399824913591147336477948926 0.003209052840247749848606728662 0.005496715661138296127319335938 0 0 0 0 
2413000000.0000000000 0.179850831627845791915731865629 -0.009813305921852588653564453125 0.003411799436435102982762002100 0.005261537618935108184814453125 0 0 0 0 
2413166666.6666665077 0.180321350693702697753906250000 -0.012322398833930490666399570898 0.003626063000410795211791992188 0.005125991068780422210693359375 0 0 0 0 
2413333333.3333334923 0.181250929832458496093750000000 -0.015118058770895000803013985546 0.003675041720271110968348837744 0.005032929126173257827758789062 0 0 0 0 
2413500000.0000000000 0.182024940848350497146768134371 -0.017773302271962169301966483204 0.003763633547350763840916298975 0.004912781994789838790893554688 0 0 0 0 
2413666666.6666665077 0.183142468333244295974893134371 -0.020152742043137550354003906250 0.004086534958332777023315429688 0.004690047353506088256835937500 0 0 0 0 
2413833333.3333334923 0.184059396386146600921307481258 -0.022441443055868148803710937500 0.004184023477137088775634765625 0.004604234360158444318289472363 0 0 0 0 
2414000000.0000000000 0.185208439826965304275674384371 -0.024715589359402660024622733204 0.004219640512019395828247070312 0.004449150990694761276245117188 0 0 0 0 
2414166666.6666665077 0.186453312635421808440838731258 -0.026889953762292858469029610546 0.004339858889579772949218750000 0.004277504980564117431640625000 0 0 0 0 
2414333333.3333334923 0.187682583928108187576455634371 -0.029209813103079799306849295704 0.004414077382534742355346679688 0.004257641267031431198120117188 0 0 0 0 
2414500000.0000000000 0.188944876194000188629473768742 -0.030908850952982899057408516796 0.004585640970617532730102539062 0.004096601158380508422851562500 0 0 0 0 
2414666666.6666665077 0.190146371722221402267294365629 -0.032916784286499023437500000000 0.004715804010629653930664062500 0.003682674141600728034973144531 0 0 0 0 
2414833333.3333334923 0.191443294286727905273437500000 -0.034543931484222412109375000000 0.004878475796431303024291992188 0.003935422748327255249023437500 0 0 0 0 
2415000000.0000000000 0.192742079496383694747763115629 -0.035997029393911361694335937500 0.005086153745651245117187500000 0.003707276657223701910731650244 0 0 0 0 
2415166666.6666665077 0.194320589303970309158486884371 -0.037454131990671157836914062500 0.005090412683784961700439453125 0.003537710290402173995971679688 0 0 0 0 
2415333333.3333334923 0.195585712790489196777343750000 -0.038694255053997039794921875000 0.005146817769855260848999023438 0.003315489040687679810764931787 0 0 0 0 
2415500000.0000000000 0.196892261505127008636151231258 -0.039541039615869522094726562500 0.005285925231873989105224609375 0.003099314169958233833312988281 0 0 0 0 
2415666666.6666665077 0.198167920112609891036825615629 -0.040727570652961730957031250000 0.005411080084741115570068359375 0.002892324933782219886779785156 0 0 0 0 
2415833333.3333334923 0.199315443634986905196981865629 -0.041542064398527152324636091407 0.005418046843260526657104492188 0.002741857431828976111171103369 0 0 0 0 
2416000000.0000000000 0.200438350439071710784588731258 -0.042269192636013031005859375000 0.005505532026290894422049237988 0.002516422420740127997157431494 0 0 0 0 
2416166666.6666665077 0.201517671346664400955361884371 -0.042993459850549697875976562500 0.005328701809048652648925781250 0.002172684995457530021667480469 0 0 0 0 
2416333333.3333334923 0.202399209141731289962606865629 -0.043328974395990371704101562500 0.005400571040809155377859784863 0.002323257969692349000218056787 0 0 0 0 
2416500000.0000000000 0.203174233436584500411825615629 -0.043778825551271438598632812500 0.005664431490004062652587890625 0.002044353168457746939418173682 0 0 0 0 
2416666666.6666665077 0.203850165009498596191406250000 -0.044139578938484191894531250000 0.005636155605316162109375000000 0.001860425574705004908918071216 0 0 0 0 
2416833333.3333334923 0.204370021820068387130575615629 -0.044190242886543266986887346093 0.005611141677945852279663085938 0.001828239299356936974766396631 0 0 0 0 
2417000000.0000000000 0.204750955104827908614950615629 -0.044277902692556381225585937500 0.005657150875777006149291992188 0.001588566927239299037336039966 0 0 0 0 
2417166666.6666665077 0.204713419079780606368856865629 -0.044182680547237403179128278907 0.005499848630279302597045898438 0.001508935703895986080169677734 0 0 0 0 
2417333333.3333334923 0.204773753881454495529013115629 -0.043918099254369742656667341407 0.005756135564297437667846679688 0.001311787054874002933502197266 0 0 0 0 
2417500000.0000000000 0.204891040921211187164630018742 -0.043736316263675689697265625000 0.005739538464695215225219726562 0.001180483144707977988599467700 0 0 0 0 
2417666666.6666665077 0.204633861780166598220986884371 -0.043440513312816619873046875000 0.005755899008363485336303710938 0.000894207681994885206222534180 0 0 0 0 
2417833333.3333334923 0.204516962170600891113281250000 -0.043196942657232291484792341407 0.005750351585447788238525390625 0.000748647784348577260971069336 0 0 0 0 
2418000000.0000000000 0.204106211662292508224325615629 -0.042712520807981491088867187500 0.005804156418889760971069335938 0.000518899993039667606353759766 0 0 0 0 
2418166666.6666665077 0.203376695513725308517294365629 -0.042399197816848761821706403907 0.005923031829297542572021484375 0.000551595119759440422058105469 0 0 0 0 
2418333333.3333334923 0.202695667743682889083700615629 -0.041925374418497092510182966407 0.005864315200597047805786132812 0.000251497025601565783649998798 0 0 0 0 
2418500000.0000000000 0.201881900429725702483807481258 -0.041751146316528320312500000000 0.005841733422130346298217773438 0.000056307635531993582844734192 0 0 0 0 
2418666666.6666665077 0.201133251190185602386151231258 -0.041291132569313049316406250000 0.005951678380370140075683593750 -0.000073587478254921734333038330 0 0 0 0 
2418833333.3333334923 0.200085833668708801269531250000 -0.041175551712512969970703125000 0.005858351476490497589111328125 -0.000479243317386135513156336652 0 0 0 0 
2419000000.0000000000 0.198776081204414395431356865629 -0.041048441082239151000976562500 0.005702670663595199584960937500 -0.000534323509782552719116210938 0 0 0 0 
2419166666.6666665077 0.197633624076843289474325615629 -0.041026335209608078002929687500 0.005632880609482526779174804688 -0.000550752854906022548675537109 0 0 0 0 
2419333333.3333334923 0.196095973253250094314736884371 -0.041227757930755622173268903907 0.005569261033087968826293945312 -0.000797192449681460857391357422 0 0 0 0 
2419500000.0000000000 0.194639489054679898361044365629 -0.041330415755510330200195312500 0.005329329054802656173706054688 -0.000947808672208338975906372070 0 0 0 0 
2419666666.6666665077 0.192975416779518099685830634371 -0.041823349893093109130859375000 0.005495469551533460617065429688 -0.001091765239834785895106650244 0 0 0 0 
2419833333.3333334923 0.191374525427818298339843750000 -0.042162101715803153301198591407 0.005321396980434656143188476562 -0.001229512155987321896793984521 0 0 0 0 
2420000000.0000000000 0.189657837152481106857138115629 -0.042857576161623001098632812500 0.005226099397987127304077148438 -0.001296025351621211008784628760 0 0 0 0 
