# Hz S RI R 
2400000000.0000000000 0.168725490570068387130575615629 0.045883022248744971538503278907 -0.005764846224337816238403320312 -0.001166841597296297983882285010 0 0 0 0 
2400166666.6666665077 0.169787511229515103439169365629 0.044873628765344619750976562500 -0.005880651064217090606689453125 -0.001167873502708971934077597510 0 0 0 0 
2400333333.3333334923 0.170794293284416198730468750000 0.043767023831605911254882812500 -0.006053999997675418853759765625 -0.000873026845511049032211303711 0 0 0 0 
2400500000.0000000000 0.171735122799873407561932481258 0.042789153754711151123046875000 -0.006190576124936342239379882812 -0.000708110281266272068023681641 0 0 0 0 
2400666666.6666665077 0.172635391354560907561932481258 0.041709300130605697631835937500 -0.006155228242278099060058593750 -0.000627062574494630098342895508 0 0 0 0 
2400833333.3333334923 0.173667624592781094650106865629 0.041079670190811157226562500000 -0.006268990691751241683959960938 -0.000298550061415880918502807617 0 0 0 0 
2401000000.0000000000 0.174430280923843411544638115629 0.040273096412420272827148437500 -0.006395309697836638364309980176 -0.000242137975874356898382463998 0 0 0 0 
2401166666.6666665077 0.175124853849411010742187500000 0.039488852024078369140625000000 -0.006409302353858947753906250000 0.000046897741412976756691932678 0 0 0 0 
2401333333.3333334923 0.175816312432289095779580634371 0.038809325546026229858398437500 -0.006521021015942096710205078125 0.000390478759072721004486083984 0 0 0 0 
2401500000.0000000000 0.176745280623436001876669365629 0.038019247353076941753347028907 -0.006680986378341913223266601562 0.000462474388768896514743250714 0 0 0 0 
2401666666.6666665077 0.177274212241172790527343750000 0.037659958004951477050781250000 -0.006654224824160336580758379199 0.000851060962304472923278808594 0 0 0 0 
2401833333.3333334923 0.177584797143936212737713731258 0.037008557468652732158620466407 -0.006774604786187410354614257812 0.000939213554374873638153076172 0 0 0 0 
2402000000.0000000000 0.178268224000930786132812500000 0.036354158073663711547851562500 -0.006932485383003950119018554688 0.001285800011828541972516704028 0 0 0 0 
2402166666.6666665077 0.178540274500846890548544365629 0.035683751106262207031250000000 -0.006974393501877784729003906250 0.001669506891630589962005615234 0 0 0 0 
2402333333.3333334923 0.179062068462371798416299384371 0.035388760268688201904296875000 -0.006732364650815725326538085938 0.001722465851344167969347309644 0 0 0 0 
2402500000.0000000000 0.179520606994628906250000000000 0.034574385732412338256835937500 -0.006806663703173398971557617188 0.001970126759260892868041992188 0 0 0 0 
2402666666.6666665077 0.179508134722709711272869981258 0.033889651298522949218750000000 -0.006801397074013947573190019824 0.002280740765854715867283486475 0 0 0 0 
2402833333.3333334923 0.179764866828918512542401231258 0.033293768763542182231862653907 -0.006745203398168087005615234375 0.002675038529559969902038574219 0 0 0 0 
2403000000.0000000000 0.179819613695144708831463731258 0.032748460769653320312500000000 -0.006689507514238358411307050488 0.002886333037167787985560751807 0 0 0 0 
2403166666.6666665077 0.179825976490974398513955634371 0.031708393245935440063476562500 -0.006742698606103658676147460938 0.003264933358877896828892373193 0 0 0 0 
2403333333.3333334923 0.179853290319442804534588731258 0.031009344384074211120605468750 -0.006549533922225236892700195312 0.003528409171849489212036132812 0 0 0 0 
2403500000.0000000000 0.179596394300460787674111884371 0.030113033950328830373743826954 -0.006565254181623458862304687500 0.003709615441039205031154013525 0 0 0 0 
2403666666.6666665077 0.179287835955619812011718750000 0.029037266969680789602259451954 -0.006345377303659915924072265625 0.004075797274708747863769531250 0 0 0 0 
2403833333.3333334923 0.179227784276008605957031250000 0.028217047452926639211634451954 -0.006279194261878728866577148438 0.004143591038882732391357421875 0 0 0 0 
2404000000.0000000000 0.178623855113983209808026231258 0.026991441845893859863281250000 -0.005972504615783691406250000000 0.004521052818745374679565429688 0 0 0 0 
2404166666.6666665077 0.178396672010421808440838731258 0.025817716494202610361119454296 -0.005897054448723793029785156250 0.004860750865191221237182617188 0 0 0 0 
2404333333.3333334923 0.177800789475441006759481865629 0.024619815871119499206542968750 -0.005698064807802438735961914062 0.005182003136724233627319335938 0 0 0 0 
2404500000.0000000000 0.177317678928375188629473768742 0.023389820009469989431361014454 -0.005552878137677907943725585938 0.005344311241060495376586914062 0 0 0 0 
2404666666.6666665077 0.176773592829704312423544365629 0.021946031600236889230748360546 -0.005333292763680219650268554688 0.005615527275949716567993164062 0 0 0 0 
2404833333.3333334923 0.176328927278518704513388115629 0.020518153905868530273437500000 -0.004969523288309574127197265625 0.005907518323510885238647460938 0 0 0 0 
2405000000.0000000000 0.175994083285331698318643134371 0.019139282405376430856724923046 -0.004666103981435298919677734375 0.006020389962941408157348632812 0 0 0 0 
2405166666.6666665077 0.175517976284027099609375000000 0.017586890608072280883789062500 -0.004386227577924728393554687500 0.006191860418766736984252929688 0 0 0 0 
2405333333.3333334923 0.175110176205635098556356865629 0.015806693583726879465123360546 -0.004185448400676251325125409863 0.006361078005284070968627929688 0 0 0 0 
2405500000.0000000000 0.174562320113182095626669365629 0.014202145859599109994908516796 -0.003957382403314113616943359375 0.006572984624654054641723632812 0 0 0 0 
2405666666.6666665077 0.174228608608245905120526231258 0.012558496557176109659215157421 -0.003604172496125102043151855469 0.006595530081540346145629882812 0 0 0 0 
2405833333.3333334923 0.173799559473991394042968750000 0.010733328759670259303082850977 -0.003273113397881389097926474463 0.006800353061407805356497480176 0 0 0 0 
2406000000.0000000000 0.173608973622322110275106865629 0.008709949441254138946533203125 -0.003095079679042100906372070312 0.006882189307361841201782226562 0 0 0 0 
2406166666.6666665077 0.173225358128547696212606865629 0.006965278647840023040771484375 -0.002816431690007448196411132812 0.006849871482700110349173261426 0 0 0 0 
2406333333.3333334923 0.173173516988754300216513115629 0.005093999207019805908203125000 -0.002553144702687859968898154150 0.007013150025159121427054120801 0 0 0 0 
2406500000.0000000000 0.172959789633750887771768134371 0.003017533104866743087768554688 -0.002066395943984388871433877100 0.007084246724843978881835937500 0 0 0 0 
2406666666.6666665077 0.172680765390396090408486884371 0.001051402417942882017848349463 -0.001876782742328942038892436450 0.007124264258891344070434570312 0 0 0 0 
2406833333.3333334923 0.172880038619041387359942518742 -0.001081404043361545042750693213 -0.001536682248115539984462118994 0.006967975292354822158813476562 0 0 0 0 
2407000000.0000000000 0.172914415597915704925213731258 -0.003171571530401707129237509619 -0.001376932021230458996416401440 0.007064326200634241104125976562 0 0 0 0 
2407166666.6666665077 0.173036456108093289474325615629 -0.005260545294731855392456054688 -0.001042400021106004931806254810 0.006901111453771591186523437500 0 0 0 0 
2407333333.3333334923 0.173208251595497103592080634371 -0.007627552840858697891235351562 -0.000766131153795868158340454102 0.007069126702845096588134765625 0 0 0 0 
2407500000.0000000000 0.173348724842071505447549384371 -0.009498346596956253051757812500 -0.000520786212291568517684936523 0.006947285030037164688110351562 0 0 0 0 
2407666666.6666665077 0.173657283186912508865518134371 -0.011510505340993399184257306445 -0.000123653415357694002702990121 0.006953299976885318756103515625 0 0 0 0 
2407833333.3333334923 0.173831105232238797286825615629 -0.013620910234749320638636405079 -0.000206773052923381301477709360 0.006860055029392242431640625000 0 0 0 0 
2408000000.0000000000 0.174157053232192993164062500000 -0.016097061336040500295618826954 0.000055487238569185137748718262 0.006922807078808546066284179688 0 0 0 0 
2408166666.6666665077 0.174513176083564813811932481258 -0.017819127067923549306849295704 0.000234072373132221400737762451 0.006745489779859781265258789062 0 0 0 0 
2408333333.3333334923 0.175031647086143493652343750000 -0.019819341599941250192662423046 0.000484506279462948387295323505 0.006611118558794260025024414062 0 0 0 0 
2408500000.0000000000 0.175372421741485595703125000000 -0.021787902340292930603027343750 0.000524927978403866291046142578 0.006547088269144296646118164062 0 0 0 0 
2408666666.6666665077 0.175735652446746798416299384371 -0.023827508091926581645925153907 0.000812273880001157522201538086 0.006335128564387559890747070312 0 0 0 0 
2408833333.3333334923 0.175906285643577603439169365629 -0.025527210906147960317591483204 0.001042500487528740926029824365 0.006303634960204362869262695312 0 0 0 0 
2409000000.0000000000 0.176255792379379300216513115629 -0.027113966643810268747349923046 0.001201444654725492000579833984 0.006384547799825668334960937500 0 0 0 0 
2409166666.6666665077 0.176889538764953613281250000000 -0.028646748512983318674107735546 0.001267496729269623973249125903 0.006222267169505357742309570312 0 0 0 0 
2409333333.3333334923 0.177355274558067294021768134371 -0.029994687065482139587402343750 0.001414233702234924056409526294 0.006206915248185396194458007812 0 0 0 0 
2409500000.0000000000 0.177729070186614990234375000000 -0.031560961157083511352539062500 0.001431622426025569005253457178 0.006170297972857952117919921875 0 0 0 0 
2409666666.6666665077 0.178128063678741510589276231258 -0.032733276486396789550781250000 0.001702206907793879942653036963 0.006172058172523975372314453125 0 0 0 0 
2409833333.3333334923 0.178393393754959106445312500000 -0.033730287104845046997070312500 0.001900220639072359041926718604 0.005937427282333374023437500000 0 0 0 0 
2410000000.0000000000 0.178960368037223788162393134371 -0.034642007201910018920898437500 0.002024169778451323942897177588 0.005972207523882389068603515625 0 0 0 0 
2410166666.6666665077 0.179536804556846590896768134371 -0.035499941557645797729492187500 0.002135790651664137840270996094 0.005758002400398254394531250000 0 0 0 0 
2410333333.3333334923 0.179924800992011996170205634371 -0.036434143781661987304687500000 0.002179625444114207787754677881 0.006026173010468482971191406250 0 0 0 0 
2410500000.0000000000 0.180397003889083890060263115629 -0.037366628646850592876393903907 0.002286068862304091887233115088 0.005998210515826941403860761426 0 0 0 0 
2410666666.6666665077 0.180719196796417208572549384371 -0.038223147392272949218750000000 0.002523513976484537124633789062 0.005955944769084453582763671875 0 0 0 0 
2410833333.3333334923 0.181214019656181307693643134371 -0.038610387593507766723632812500 0.002708134939894080162048339844 0.005936086177825927734375000000 0 0 0 0 
2411000000.0000000000 0.181243076920509310623330634371 -0.039236873388290412212331403907 0.002959839766845107078552246094 0.006048363167792558670043945312 0 0 0 0 
2411166666.6666665077 0.181666091084480313400106865629 -0.039964023977518081665039062500 0.003113729646429419951197958838 0.005935772322118282318115234375 0 0 0 0 
2411333333.3333334923 0.181628346443176297286825615629 -0.040239185094833367084543596093 0.003279356285929679870605468750 0.005975317675620318326468183301 0 0 0 0 
2411500000.0000000000 0.181646466255187988281250000000 -0.040705062448978417133371721093 0.003466404974460601806640625000 0.005865178536623716354370117188 0 0 0 0 
2411666666.6666665077 0.181920155882835388183593750000 -0.041285842657089233398437500000 0.003706992836669086976292275537 0.005784671753644943237304687500 0 0 0 0 
2411833333.3333334923 0.181793212890625000000000000000 -0.041444525122642517089843750000 0.003966347780078650388235761426 0.005851696245372295379638671875 0 0 0 0 
2412000000.0000000000 0.181658267974853487869424384371 -0.041924413293600082397460937500 0.004236678592860698699951171875 0.005749509669840335845947265625 0 0 0 0 
2412166666.6666665077 0.181363150477409390548544365629 -0.042365092784166342998464216407 0.004494384862482547760009765625 0.005788512062281370162963867188 0 0 0 0 
2412333333.3333334923 0.181189104914665194412393134371 -0.042554125189781188964843750000 0.004671104717999696731567382812 0.005578271578997373580932617188 0 0 0 0 
2412500000.0000000000 0.180436074733734103103799384371 -0.042946688830852508544921875000 0.004969533998519182205200195312 0.005528478883206844329833984375 0 0 0 0 
2412666666.6666665077 0.180172398686408996582031250000 -0.043413102626800537109375000000 0.005287938285619021329397870801 0.005309286061674357327933027051 0 0 0 0 
2412833333.3333334923 0.179357737302780206878338731258 -0.043662734329700469970703125000 0.005551104433834552764892578125 0.005039596464484930038452148438 0 0 0 0 
2413000000.0000000000 0.178592652082443209549111884371 -0.044102866202592849731445312500 0.005861230194568634033203125000 0.005045079160481691360473632812 0 0 0 0 
2413166666.6666665077 0.177857533097267206390057481258 -0.044425457715988159179687500000 0.005968090612441301345825195312 0.004789414815604686737060546875 0 0 0 0 
2413333333.3333334923 0.176951095461845397949218750000 -0.044860482215881347656250000000 0.006251336541026830673217773438 0.004460935946553946408743573926 0 0 0 0 
2413500000.0000000000 0.175887405872344998458700615629 -0.045443985611200332641601562500 0.006598132196813821792602539062 0.004236369859427213668823242188 0 0 0 0 
2413666666.6666665077 0.174946203827857998946981865629 -0.046044360846281051635742187500 0.006663109175860881805419921875 0.003922174684703350067138671875 0 0 0 0 
2413833333.3333334923 0.173839569091796902755575615629 -0.046440828591585159301757812500 0.006848258897662162780761718750 0.003468909999355673789978027344 0 0 0 0 
2414000000.0000000000 0.172731384634971590896768134371 -0.047167532145977020263671875000 0.007089732680469751358032226562 0.003515158547088503837585449219 0 0 0 0 
2414166666.6666665077 0.171667054295539911468182481258 -0.047872971743345260620117187500 0.007120404858142138394827558301 0.003026521997526288032531738281 0 0 0 0 
2414333333.3333334923 0.170488506555557306487713731258 -0.048768691718578338623046875000 0.007282089907675982388968183301 0.002812297083437443213221884619 0 0 0 0 
2414500000.0000000000 0.169515356421470586578692518742 -0.049323052167892462993581403907 0.007486099377274513244628906250 0.002518612658604979948756552588 0 0 0 0 
2414666666.6666665077 0.168277755379676791092080634371 -0.050437428057193763042409528907 0.007631232962012290954589843750 0.002206072444096208052394247900 0 0 0 0 
2414833333.3333334923 0.166933864355087308029013115629 -0.051487110555171966552734375000 0.007488121744245290756225585938 0.001819014083594084002851176685 0 0 0 0 
2415000000.0000000000 0.165745601058006286621093750000 -0.052613753825426101684570312500 0.007711989339441061019897460938 0.001635005115531384944915771484 0 0 0 0 
2415166666.6666665077 0.164658099412918090820312500000 -0.053833365440368652343750000000 0.007612887304276227951049804688 0.001102252164855598969700478662 0 0 0 0 
2415333333.3333334923 0.163549900054931612869424384371 -0.055204257369041442871093750000 0.007776997052133083343505859375 0.000830117380246520042419433594 0 0 0 0 
2415500000.0000000000 0.162335485219955388824786268742 -0.056479461491107940673828125000 0.007762196939438582334036542676 0.000566632661502808332443237305 0 0 0 0 
2415666666.6666665077 0.161257863044738797286825615629 -0.058046132326126098632812500000 0.007586614694446325302124023438 0.000232284990488551611274165021 0 0 0 0 
2415833333.3333334923 0.160222887992858886718750000000 -0.059650834649801247333567033593 0.007560909260064364346975995801 -0.000139329597004689303323468619 0 0 0 0 
2416000000.0000000000 0.159033194184303311446981865629 -0.061191953718662261962890625000 0.007516178768128156661987304688 -0.000357118522515520507663172589 0 0 0 0 
2416166666.6666665077 0.158184528350830105880575615629 -0.063047386705875396728515625000 0.007640371099114418029785156250 -0.000754929613322019577026367188 0 0 0 0 
2416333333.3333334923 0.157171234488487188141192518742 -0.064744368195533752441406250000 0.007334609050303697586059570312 -0.001146502094343305067775107275 0 0 0 0 
2416500000.0000000000 0.156202852725982693771200615629 -0.066701956093311309814453125000 0.007259747944772244367117597363 -0.001248849905095994906184531104 0 0 0 0 
2416666666.6666665077 0.155250281095504788497763115629 -0.068487778306007385253906250000 0.007089281454682350158691406250 -0.001322588766925036907196044922 0 0 0 0 
2416833333.3333334923 0.154444798827171297928018134371 -0.070659264922142028808593750000 0.007179697975516319274902343750 -0.001640478381887078068376850659 0 0 0 0 
2417000000.0000000000 0.153479099273681612869424384371 -0.072506420314311981201171875000 0.006906582508236169815063476562 -0.002009736141189932823181152344 0 0 0 0 
2417166666.6666665077 0.152891263365745488922442518742 -0.074377164244651794433593750000 0.006738945376127958297729492188 -0.002123174723237752914428710938 0 0 0 0 
2417333333.3333334923 0.152199923992157010177450615629 -0.076324000954627990722656250000 0.006670532282441855344290448926 -0.002468867693096398873570107568 0 0 0 0 
2417500000.0000000000 0.151656270027160589020098768742 -0.078346028923988342285156250000 0.006561605259776115417480468750 -0.002596771810203791098353720557 0 0 0 0 
2417666666.6666665077 0.151165291666984613616619981258 -0.080108679831027984619140625000 0.006636624690145254135131835938 -0.002778011141344904899597167969 0 0 0 0 
2417833333.3333334923 0.150582149624824496170205634371 -0.081881038844585418701171875000 0.006350878160446882247924804688 -0.002886754460632801055908203125 0 0 0 0 
2418000000.0000000000 0.150164321064949007888955634371 -0.083866879343986511230468750000 0.006334928795695304870605468750 -0.003205300308763980865478515625 0 0 0 0 
2418166666.6666665077 0.149975582957267788986044365629 -0.085379973053932189941406250000 0.006142813246697187423706054688 -0.003400231013074516816380166162 0 0 0 0 
2418333333.3333334923 0.149900600314140292068643134371 -0.087150193750858306884765625000 0.006031931377947331342215253613 -0.003531244350597261948826455225 0 0 0 0 
2418500000.0000000000 0.149629369378089904785156250000 -0.088783301413059234619140625000 0.005857100244611501693725585938 -0.003654354950413107872009277344 0 0 0 0 
2418666666.6666665077 0.149588137865066500564736884371 -0.090331360697746276855468750000 0.005714418366551399230957031250 -0.004073366057127714157104492188 0 0 0 0 
2418833333.3333334923 0.149369716644287109375000000000 -0.091730862855911254882812500000 0.005561547353863716125488281250 -0.003963775001466274261474609375 0 0 0 0 
2419000000.0000000000 0.149276271462440490722656250000 -0.093028321862220764160156250000 0.005403464660048484802246093750 -0.004257107153534889221191406250 0 0 0 0 
2419166666.6666665077 0.149497419595718411544638115629 -0.094269759953022003173828125000 0.005301672033965587615966796875 -0.004285510629415512084960937500 0 0 0 0 
2419333333.3333334923 0.149395108222961398025674384371 -0.095186874270439147949218750000 0.005088628269731997576241777637 -0.004690647590905427932739257812 0 0 0 0 
2419500000.0000000000 0.149594217538833590408486884371 -0.096346154808998107910156250000 0.004994203336536884307861328125 -0.004725794773548842343802167676 0 0 0 0 
2419666666.6666665077 0.149836033582687405685263115629 -0.097340501844882965087890625000 0.004809996578842402371878339551 -0.005047139246016740798950195312 0 0 0 0 
2419833333.3333334923 0.149983018636703491210937500000 -0.098061583936214447021484375000 0.004592054523527622222900390625 -0.005171947646886110305786132812 0 0 0 0 
