# Hz S RI R 50
2400000000.0000000000 0.157096385955810602386151231258 0.060921553522348396991770158593 -0.001888456637971102974535297925 -0.002204450080171227888820029150 0 0 0 0 
2400166666.6666665077 0.157188326120376586914062500000 0.059216938912868499755859375000 -0.002034110017120838165283203125 -0.002053815871477127075195312500 0 0 0 0 
2400333333.3333334923 0.157259613275528009612713731258 0.057228557765483863140065778907 -0.002086192136630415916442871094 -0.002019715495407580895664834131 0 0 0 0 
2400500000.0000000000 0.157189488410949707031250000000 0.055281702429056167602539062500 -0.002168718259781599044799804688 -0.002007836010307074026820517432 0 0 0 0 
2400666666.6666665077 0.157653987407684298416299384371 0.053189892321825027465820312500 -0.002357812598347663879394531250 -0.001989193959161639213562011719 0 0 0 0 
2400833333.3333334923 0.157781735062599209884481865629 0.051379445940256118774414062500 -0.002389705041423439979553222656 -0.001790475682355463938472128760 0 0 0 0 
2401000000.0000000000 0.158062011003494290450888115629 0.049006983637809753417968750000 -0.002644543070346117019653320312 -0.001819160650484263896942138672 0 0 0 0 
2401166666.6666665077 0.158433929085731506347656250000 0.047073364257812500000000000000 -0.002534511033445597128627158057 -0.001703366520814598040339804541 0 0 0 0 
2401333333.3333334923 0.158704087138175992111044365629 0.045005109161138541484792341407 -0.002724891295656561851501464844 -0.001627495279535650990129780347 0 0 0 0 
2401500000.0000000000 0.159488052129745511154013115629 0.042965933680534362792968750000 -0.002791507402434945106506347656 -0.001473701791837811903712607275 0 0 0 0 
2401666666.6666665077 0.159963905811309786697549384371 0.041260194033384323120117187500 -0.002846036106348038153407431494 -0.001430375850759447054622031104 0 0 0 0 
2401833333.3333334923 0.160264641046524103362713731258 0.038997914642095572734792341407 -0.002926863962784409956691122900 -0.001371349557302891991258930737 0 0 0 0 
2402000000.0000000000 0.160850971937179593185263115629 0.037054050713777542114257812500 -0.002974457573145627975463867188 -0.001337612629868089935900044019 0 0 0 0 
2402166666.6666665077 0.161673843860626192947549384371 0.035095393657684333110768903907 -0.003084837226197123961207724463 -0.001192022231407463984248495947 0 0 0 0 
2402333333.3333334923 0.162136912345886202713174384371 0.033590149134397506713867187500 -0.003189098788425325913670205225 -0.001114411978051065964939736475 0 0 0 0 
2402500000.0000000000 0.163111090660095187088174384371 0.031823229044675827026367187500 -0.003278073621913791136500693213 -0.000929293979424983263015747070 0 0 0 0 
2402666666.6666665077 0.163892164826393099685830634371 0.030164504423737529409388358204 -0.003284815466031432151794433594 -0.000853070698212832212448120117 0 0 0 0 
2402833333.3333334923 0.164737656712531987945880018742 0.028662905097007751464843750000 -0.003561354475095868110656738281 -0.000843092973809689283370971680 0 0 0 0 
2403000000.0000000000 0.165635153651237487792968750000 0.027133937925100330007532889454 -0.003448719857260584831237792969 -0.000625571876298636198043823242 0 0 0 0 
2403166666.6666665077 0.166640982031822204589843750000 0.025726791471242911601979841407 -0.003650372615084052085876464844 -0.000579551036935299634933471680 0 0 0 0 
2403333333.3333334923 0.167423754930496188064736884371 0.024385685101151469839075858204 -0.003526967950165272192714072119 -0.000434428307926282286643981934 0 0 0 0 
2403500000.0000000000 0.168389916419982910156250000000 0.023084277287125590932825858204 -0.003601121017709373994114541162 -0.000280866894172504490048009052 0 0 0 0 
2403666666.6666665077 0.169363215565681513030682481258 0.021720577031373981130579764454 -0.003727281698957086043116904150 -0.000148729784996248808786115103 0 0 0 0 
2403833333.3333334923 0.170354947447776794433593750000 0.020620875060558319091796875000 -0.003730833530426024956944131006 0.000068497029133141040802001953 0 0 0 0 
2404000000.0000000000 0.171195760369300786774005018742 0.019633324816823009145716483204 -0.003900435287505387826206826318 0.000197432600543834296151837759 0 0 0 0 
2404166666.6666665077 0.172079578042030306717080634371 0.018563656136393550527552420704 -0.003981642890721560391897870801 0.000242026449996046694830217905 0 0 0 0 
2404333333.3333334923 0.172992989420890808105468750000 0.017801353707909580575963204296 -0.003769623814150691032409667969 0.000484340387629345113604945050 0 0 0 0 
2404500000.0000000000 0.173741579055786105056924384371 0.016896439716219898569127266796 -0.003969268873333930969238281250 0.000660761841572821140289306641 0 0 0 0 
2404666666.6666665077 0.174671262502670288085937500000 0.016202716156840320932408516796 -0.003889092709869145913365029443 0.000848565716296434402465820312 0 0 0 0 
2404833333.3333334923 0.175343796610832186599893134371 0.015698079019784930837611014454 -0.003933051135390996932983398438 0.000936950091272592544555664062 0 0 0 0 
2405000000.0000000000 0.176149487495422391036825615629 0.014916609972715379542340663477 -0.003924133721739053726196289062 0.001018354902043939070460654150 0 0 0 0 
2405166666.6666665077 0.176745489239692687988281250000 0.014433119446039199829101562500 -0.003958133514970541000366210938 0.001341497292742132923723530347 0 0 0 0 
2405333333.3333334923 0.177497699856758089920205634371 0.013767749071121219289759451954 -0.003858522977679967880249023438 0.001602142234332859949824667822 0 0 0 0 
2405500000.0000000000 0.178033784031868008712606865629 0.013549954630434509622594063671 -0.003960260655730962753295898438 0.001860165735706686973571777344 0 0 0 0 
2405666666.6666665077 0.178516149520873995681924384371 0.013131746090948579960833164648 -0.003892818931490182876586914062 0.002022353466600180105922079932 0 0 0 0 
2405833333.3333334923 0.178728803992271395584268134371 0.012886540964245799673060233204 -0.003722232999280095100402832031 0.002088502747938036918640136719 0 0 0 0 
2406000000.0000000000 0.179281070828437805175781250000 0.012471314519643780099888985546 -0.003678797744214535193202353369 0.002365286229178309006931923975 0 0 0 0 
2406166666.6666665077 0.179438471794128390213174384371 0.012232286855578420811663242773 -0.003640845417976378960850381006 0.002589668612927197976353310693 0 0 0 0 
2406333333.3333334923 0.179728060960769708831463731258 0.011928628198802469426165195898 -0.003414228558540343804600381006 0.002636512974277139143702841650 0 0 0 0 
2406500000.0000000000 0.179767176508903503417968750000 0.011646099388599399221400076954 -0.003379470901563764052150107275 0.002669115317985415892360068213 0 0 0 0 
2406666666.6666665077 0.179755270481109591385049384371 0.011280635371804240835169608204 -0.003184865694493054909947060693 0.003104763105511664910557412256 0 0 0 0 
2406833333.3333334923 0.179763078689575195312500000000 0.010860143229365350550641444727 -0.003180730622261763052699423682 0.003261056961491703987121582031 0 0 0 0 
2407000000.0000000000 0.179717287421226501464843750000 0.010499909520149229222307774023 -0.002794945845380425886866904150 0.003456672420725225968601845850 0 0 0 0 
2407166666.6666665077 0.179540738463401794433593750000 0.010153884068131450307825858204 -0.002661453094333409829380654443 0.003506999928504229025599814307 0 0 0 0 
2407333333.3333334923 0.179279491305351312835369981258 0.009613185189664363861083984375 -0.002636324614286423163173056494 0.003563033416867256164550781250 0 0 0 0 
2407500000.0000000000 0.179119125008583096603231865629 0.009225726127624511718750000000 -0.002496534958481789068934775244 0.003633654676377772851231240381 0 0 0 0 
2407666666.6666665077 0.178645908832550104339276231258 0.008756251074373722076416015625 -0.002185782184824347929713583838 0.003521006321534513993504189600 0 0 0 0 
2407833333.3333334923 0.178092509508132906814736884371 0.007887206971645355224609375000 -0.002117975149303675131556845557 0.003734511788934468789341591943 0 0 0 0 
2408000000.0000000000 0.177710890769958496093750000000 0.007289866916835308074951171875 -0.001907138503156601948979043115 0.003762799547985196113586425781 0 0 0 0 
2408166666.6666665077 0.177219241857528686523437500000 0.006686054635792970657348632812 -0.001703790738247334957122802734 0.003924937918782234191894531250 0 0 0 0 
2408333333.3333334923 0.176761090755462701995526231258 0.005650331731885671615600585938 -0.001398962107487023093579936450 0.003957223612815141677856445312 0 0 0 0 
2408500000.0000000000 0.176058813929557800292968750000 0.004672027658671140670776367188 -0.001313625718466937975642538916 0.004182727541774511337280273438 0 0 0 0 
2408666666.6666665077 0.175409778952598599532919365629 0.003572691464796661896946572412 -0.001173523953184485001804970850 0.003927572164684534072875976562 0 0 0 0 
2408833333.3333334923 0.174559205770492609222088731258 0.002626862842589617209193564307 -0.000986738712526857852935791016 0.004159563686698675155639648438 0 0 0 0 
2409000000.0000000000 0.173988953232765197753906250000 0.001484800013713539080378867041 -0.000916369026526808738708496094 0.004136815201491118344778730176 0 0 0 0 
2409166666.6666665077 0.173338815569877596756143134371 -0.000002463695864207692952130594 -0.000734191853553056716918945312 0.004156201612204313278198242188 0 0 0 0 
2409333333.3333334923 0.172872886061668395996093750000 -0.001299290568567812009098672021 -0.000430786982178688103526514874 0.004115628078579902648925781250 0 0 0 0 
2409500000.0000000000 0.172039270401001004318075615629 -0.002805327996611595153808593750 -0.000325581844663247520297449933 0.004050775896757841110229492188 0 0 0 0 
2409666666.6666665077 0.171446710824966402908486884371 -0.004276411607861518859863281250 -0.000323318090522661805152893066 0.004033213946968317031860351562 0 0 0 0 
2409833333.3333334923 0.170743376016616793533486884371 -0.005886030383408069610595703125 -0.000154950932483188807964324951 0.004071926232427358627319335938 0 0 0 0 
2410000000.0000000000 0.170276954770088195800781250000 -0.007437250576913356781005859375 0.000086970147094689309597015381 0.004030972719192504882812500000 0 0 0 0 
2410166666.6666665077 0.169777527451515197753906250000 -0.009050021879374980926513671875 0.000241999499849043786525726318 0.004047919996082782745361328125 0 0 0 0 
2410333333.3333334923 0.169158995151519803146200615629 -0.010886650532484059769600115430 0.000507612363435328006744384766 0.003914731089025735855102539062 0 0 0 0 
2410500000.0000000000 0.168828934431076105315838731258 -0.012754479423165319615374180273 0.000578233448322862386703491211 0.003804861567914485931396484375 0 0 0 0 
2410666666.6666665077 0.168480604887008694747763115629 -0.014685876667499540501604649023 0.000752417603507637977600097656 0.003797952085733414129969931494 0 0 0 0 
2410833333.3333334923 0.168404430150985690017861884371 -0.016224626451730731618861014454 0.000994408386759459972381591797 0.003921035677194595336914062500 0 0 0 0 
2411000000.0000000000 0.168037101626396206954794365629 -0.018129484727978709829310233204 0.001084090443328022956848144531 0.003800385398790239854099892725 0 0 0 0 
2411166666.6666665077 0.167801260948181207854901231258 -0.020209714770317081106165701954 0.001197251840494572899462055737 0.003661200869828463034388876807 0 0 0 0 
2411333333.3333334923 0.167786598205566406250000000000 -0.022234572097659111022949218750 0.001397461281158030033111572266 0.003533984301611781120300292969 0 0 0 0 
2411500000.0000000000 0.167496219277381896972656250000 -0.024215390905737880361536795704 0.001357125700451434092280722510 0.003334673820063471794128417969 0 0 0 0 
2411666666.6666665077 0.167646542191505404373330634371 -0.026037113741040229797363281250 0.001561907818540930964826274341 0.003359925234690309004542685400 0 0 0 0 
2411833333.3333334923 0.167870461940765408614950615629 -0.027948608621954921377161795704 0.001627619611099361939671181787 0.003271906403824687004089355469 0 0 0 0 
2412000000.0000000000 0.168395906686782809158486884371 -0.029940376058220859872838204296 0.001710345852188766002655029297 0.003123670816421508789062500000 0 0 0 0 
2412166666.6666665077 0.168366283178329495529013115629 -0.031700540333986282348632812500 0.001868629013188183090807270581 0.003023821627721190886256552588 0 0 0 0 
2412333333.3333334923 0.168865114450454711914062500000 -0.033616177737712860107421875000 0.001910329214297235012054443359 0.002870856318622827963588095557 0 0 0 0 
2412500000.0000000000 0.169106528162956210037393134371 -0.035246029496192932128906250000 0.002023183275014162063598632812 0.002855106024071574211120605469 0 0 0 0 
2412666666.6666665077 0.169678628444671603103799384371 -0.037315156310796737670898437500 0.002142888261005281968357705225 0.002627804176881908936741494287 0 0 0 0 
2412833333.3333334923 0.169944703578949002364950615629 -0.039008755236864089965820312500 0.002144518075510859923121786963 0.002610323717817664146423339844 0 0 0 0 
2413000000.0000000000 0.170686900615692110916299384371 -0.040690172463655471801757812500 0.002347917528823018074035644531 0.002580022905021905899047851562 0 0 0 0 
2413166666.6666665077 0.170934513211250305175781250000 -0.042181145399808876728098283593 0.002305228728801012039184570312 0.002418446354568005041835165869 0 0 0 0 
2413333333.3333334923 0.171497866511344909667968750000 -0.043852619826793670654296875000 0.002333316486328839822056435693 0.002199708018451929092407226562 0 0 0 0 
2413500000.0000000000 0.172339215874671908279580634371 -0.045446101576089859008789062500 0.002429737476631999015808105469 0.002099561970680952072143554688 0 0 0 0 
2413666666.6666665077 0.172897607088088989257812500000 -0.046992685645818710327148437500 0.002449532737955451011657714844 0.002076569944620132012608193506 0 0 0 0 
2413833333.3333334923 0.173370718955993707854901231258 -0.048095770180225372314453125000 0.002558639738708734946009970557 0.001918847439810634093043661963 0 0 0 0 
2414000000.0000000000 0.173778295516967801193075615629 -0.049419414252042770385742187500 0.002545255934819579124450683594 0.001806639367714524052263569409 0 0 0 0 
2414166666.6666665077 0.174551397562027005294638115629 -0.050695665180683142925222028907 0.002640359802171587944030761719 0.001720063504762947993037558447 0 0 0 0 
2414333333.3333334923 0.175208300352096613128338731258 -0.051743142306804656982421875000 0.002467766171321272850036621094 0.001531571499072015068651508862 0 0 0 0 
2414500000.0000000000 0.175890639424324007888955634371 -0.052741263061761863017995466407 0.002603490138426423072814941406 0.001281997305341064929962158203 0 0 0 0 
2414666666.6666665077 0.176292404532432611663494981258 -0.053614899516105651855468750000 0.002607811940833926200866699219 0.001265086815692483945133828271 0 0 0 0 
2414833333.3333334923 0.176518246531486511230468750000 -0.054513577371835708618164062500 0.002660833531990646882298134912 0.001263678306713700077654194409 0 0 0 0 
2415000000.0000000000 0.177008211612701388260049384371 -0.055217504501342773437500000000 0.002499387133866548971888876807 0.001227937755174935080884623950 0 0 0 0 
2415166666.6666665077 0.177393853664398193359375000000 -0.055753555148839950561523437500 0.002499518450349568886997841943 0.001141944667324424006818461841 0 0 0 0 
2415333333.3333334923 0.177843675017356900314169365629 -0.056404724717140197753906250000 0.002673514885827898979187011719 0.001032695174217223904253315503 0 0 0 0 
2415500000.0000000000 0.178023055195808410644531250000 -0.056867755949497222900390625000 0.002720535965636372999904013525 0.000860256084706634283065795898 0 0 0 0 
2415666666.6666665077 0.178182899951934786697549384371 -0.057424493134021759033203125000 0.002514245221391319794895791162 0.000723943696357309818267822266 0 0 0 0 
2415833333.3333334923 0.178296789526939392089843750000 -0.057750064879655838012695312500 0.002478352515026926994323730469 0.000569443451240658760070800781 0 0 0 0 
2416000000.0000000000 0.178219065070152310470419365629 -0.058161940425634377216379533593 0.002372743561863898797276162256 0.000661514932289719581604003906 0 0 0 0 
2416166666.6666665077 0.178284257650375393966513115629 -0.058503303676843643188476562500 0.002469006692990661101100302588 0.000446785910753533189922886981 0 0 0 0 
2416333333.3333334923 0.177979618310928289215411268742 -0.058661840856075286865234375000 0.002500113798305391831638955225 0.000389640452340245301097315656 0 0 0 0 
2416500000.0000000000 0.177743792533874511718750000000 -0.059025462716817862773854841407 0.002461660420522094206569052588 0.000312586955260485410690307617 0 0 0 0 
2416666666.6666665077 0.177484750747680691818075615629 -0.059121523052454001689870466407 0.002409765031188725991490029443 0.000136158836539834710672655649 0 0 0 0 
2416833333.3333334923 0.177210718393325805664062500000 -0.059436991810798651958425153907 0.002352084964513779120204306494 0.000039935075619723647832870483 0 0 0 0 
2417000000.0000000000 0.176412656903266906738281250000 -0.059630103409290306781809221093 0.002323428168892859978916787256 0.000050630023906705901026725769 0 0 0 0 
2417166666.6666665077 0.175909698009490994552450615629 -0.059869561344385147094726562500 0.002256786916404962973353720557 -0.000055064265325199812650680542 0 0 0 0 
2417333333.3333334923 0.175242111086845397949218750000 -0.060030840337276458740234375000 0.002287312643602489991428994287 -0.000111141889647114994838991708 0 0 0 0 
2417500000.0000000000 0.174488127231597900390625000000 -0.060432203114032752300222028907 0.002269386081025003953220986475 -0.000223813854972831904888153076 0 0 0 0 
2417666666.6666665077 0.173731327056884793380575615629 -0.060443922877311706542968750000 0.002127215731889009909388876807 -0.000260071217780932784080505371 0 0 0 0 
2417833333.3333334923 0.172635987401008605957031250000 -0.060870300978422171855886091407 0.002163036260753870010375976562 -0.000441787095041945576667785645 0 0 0 0 
2418000000.0000000000 0.171782046556472806075888115629 -0.061351630836725241924245466407 0.002180489478632808165309286963 -0.000386071129469201022952479230 0 0 0 0 
2418166666.6666665077 0.170531541109085110763388115629 -0.061611734330654137348215471093 0.002031905809417366981506347656 -0.000398834119550883824199122296 0 0 0 0 
2418333333.3333334923 0.169816344976425198654013115629 -0.062105838209390640258789062500 0.001903052208945154926897358472 -0.000391272158594802021980285645 0 0 0 0 
2418500000.0000000000 0.168665319681167602539062500000 -0.062597766518592834472656250000 0.001920508104376495101331401294 -0.000493358180392533540725708008 0 0 0 0 
2418666666.6666665077 0.167503818869590787032919365629 -0.063400447368621826171875000000 0.001758793601766228892682719653 -0.000500447058584541082382202148 0 0 0 0 
2418833333.3333334923 0.166189000010490389724893134371 -0.063973553478717803955078125000 0.001697252155281602902653359521 -0.000541848770808428525924682617 0 0 0 0 
2419000000.0000000000 0.164870277047157287597656250000 -0.064647227525711059570312500000 0.001509882626123725934269570459 -0.000590581912547349929809570312 0 0 0 0 
2419166666.6666665077 0.163803383708000210861044365629 -0.065577827394008636474609375000 0.001637030043639243082759238135 -0.000559512176550924777984619141 0 0 0 0 
2419333333.3333334923 0.162425518035888699630575615629 -0.066175922751426696777343750000 0.001542761106975377039668417822 -0.000665410771034657955169677734 0 0 0 0 
2419500000.0000000000 0.161274164915084811111611884371 -0.067339956760406494140625000000 0.001785861444659530899645161206 -0.000552857411094009876251220703 0 0 0 0 
2419666666.6666665077 0.160271480679511996170205634371 -0.068524546921253204345703125000 0.001485040294937789006474160303 -0.000597982085309922695159912109 0 0 0 0 
2419833333.3333334923 0.158968746662139892578125000000 -0.069342844188213348388671875000 0.001567084225825964970829629053 -0.000628718931693583726882934570 0 0 0 0 
