# Hz S RI R 50
2400000000.0000000000 0.169410914182662991622763115629 0.046085134148597717285156250000 -0.000015680499927839260885511705 -0.002073773182928562164306640625 0 0 0 0 
2400166666.6666665077 0.170487955212593106368856865629 0.045332752168178558349609375000 0.000110689725261181606493811336 -0.002149687381461263136622763525 0 0 0 0 
2400333333.3333334923 0.171378761529922513107138115629 0.043995052576065056537668596093 0.000183110692887567010804852896 -0.002048767404630779786350869287 0 0 0 0 
2400500000.0000000000 0.172456115484237698654013115629 0.043107386678457260131835937500 -0.000001469348035243456040161033 -0.002010484691709280014038085938 0 0 0 0 
2400666666.6666665077 0.173425659537315396407919365629 0.042227737605571746826171875000 0.000325735629303380901187342511 -0.002079213038086891174316406250 0 0 0 0 
2400833333.3333334923 0.174374803900718688964843750000 0.041381150484085083007812500000 0.000313947733957320505946558820 -0.001970533281564712958094931494 0 0 0 0 
2401000000.0000000000 0.175095468759536687652911268742 0.040688555687665939331054687500 0.000382349506253376603126525879 -0.002150671789422630830052041162 0 0 0 0 
2401166666.6666665077 0.175939545035362188141192518742 0.039788153022527701641042341407 0.000254560174653306603431701660 -0.002211620332673192024230957031 0 0 0 0 
2401333333.3333334923 0.176418408751487704178018134371 0.039223849773406982421875000000 0.000330239825416356325149536133 -0.002226406708359717889073037256 0 0 0 0 
2401500000.0000000000 0.177542656660080011565838731258 0.038640975952148437500000000000 0.000279892730759456807940882550 -0.002253688871860504150390625000 0 0 0 0 
2401666666.6666665077 0.178209632635116604904013115629 0.038219310343265533447265625000 0.000377706513972953016131800519 -0.002559293992817401885986328125 0 0 0 0 
2401833333.3333334923 0.178706914186477688888388115629 0.037430029362440109252929687500 0.000459008297184482216835021973 -0.002579362131655215783360146631 0 0 0 0 
2402000000.0000000000 0.178870677947998102386151231258 0.036924805492162697528879533593 0.000163633376359939602300366812 -0.002648414345458149909973144531 0 0 0 0 
2402166666.6666665077 0.179399728775024386306924384371 0.036245234310626976703684221093 0.000328997935866936987072545184 -0.002792099257931112809422158350 0 0 0 0 
2402333333.3333334923 0.179729282855987604339276231258 0.035702757537364959716796875000 0.000221708221943117705270490103 -0.002970413304865359826328896631 0 0 0 0 
2402500000.0000000000 0.180327862501144409179687500000 0.035131111741065979003906250000 0.000188442281796596890122014178 -0.002856742125004529953002929688 0 0 0 0 
2402666666.6666665077 0.180304348468780489822549384371 0.034507866948843002319335937500 0.000014108223695075139403343201 -0.003048358252272009849548339844 0 0 0 0 
2402833333.3333334923 0.180471763014793395996093750000 0.033860437572002410888671875000 -0.000177831272594630691126146860 -0.003185606095939875082728720557 0 0 0 0 
2403000000.0000000000 0.180532053112983703613281250000 0.033017192035913467407226562500 -0.000260799890384078025817871094 -0.003159569809213281111476279150 0 0 0 0 
2403166666.6666665077 0.180360704660415704925213731258 0.032195717096328742290456403907 -0.000387138570658862590789794922 -0.003087824443355203108546591650 0 0 0 0 
2403333333.3333334923 0.180564090609550503829794365629 0.031450673937797553325612653907 -0.000399212032789364511340540753 -0.003361037466675043106079101562 0 0 0 0 
2403500000.0000000000 0.180105030536651611328125000000 0.030455693602561950683593750000 -0.000487533892737701481014805927 -0.003242866136133670806884765625 0 0 0 0 
2403666666.6666665077 0.179754883050918606857138115629 0.029251052066683769226074218750 -0.000596018973737955093383789062 -0.003299556672573090033290243994 0 0 0 0 
2403833333.3333334923 0.179585471749305697342080634371 0.028277402743697169912318045704 -0.000799099740106612443923950195 -0.003364710370078682899475097656 0 0 0 0 
2404000000.0000000000 0.179120108485221890548544365629 0.027079757302999499929407889454 -0.001190130482427776076673198169 -0.003368104808032513098475790869 0 0 0 0 
2404166666.6666665077 0.178621679544448908050213731258 0.025940436869859698904017264454 -0.001102815731428564028498984229 -0.003388935001567006111145019531 0 0 0 0 
2404333333.3333334923 0.178045824170112609863281250000 0.024683218449354168283482735546 -0.001387037686072289943695068359 -0.003253560047596693038940429688 0 0 0 0 
2404500000.0000000000 0.177398696541786193847656250000 0.023263258859515190124511718750 -0.001417725114151835007908486475 -0.003519335994496942000148154150 0 0 0 0 
2404666666.6666665077 0.176982626318931607345419365629 0.021902974694967269897460937500 -0.001678537228144705078722309644 -0.003476003184914588928222656250 0 0 0 0 
2404833333.3333334923 0.176410108804702786544638115629 0.020406439900398250925084298046 -0.001668146927841007926343608325 -0.003255021292716265158412314307 0 0 0 0 
2405000000.0000000000 0.175704821944236810882244981258 0.018994702026247981679896170704 -0.001702109351754188971278525244 -0.003284512320533394813537597656 0 0 0 0 
2405166666.6666665077 0.175381824374198913574218750000 0.017335483804345130920410156250 -0.001840518089011311964747763525 -0.003268378321081399917602539062 0 0 0 0 
2405333333.3333334923 0.174975231289863586425781250000 0.015525930561125280207623866602 -0.002115290146321057839634560693 -0.003247328568249940872192382812 0 0 0 0 
2405500000.0000000000 0.174428090453147888183593750000 0.014071959070861339569091796875 -0.002176288515329360961914062500 -0.003323535900563002066371298682 0 0 0 0 
2405666666.6666665077 0.173846542835235595703125000000 0.012320457026362420863141444727 -0.002258476568385959105250693213 -0.003156180959194899039027548682 0 0 0 0 
2405833333.3333334923 0.173415049910545404632244981258 0.010535999201238160569160662305 -0.002550416858866810798645019531 -0.003023574827238916917088173975 0 0 0 0 
2406000000.0000000000 0.173244670033454895019531250000 0.008445956744253635406494140625 -0.002727919258177279992344521631 -0.003055383916944264931919716943 0 0 0 0 
2406166666.6666665077 0.172745689749717712402343750000 0.006757696624845266342163085938 -0.002826764481142162842991494287 -0.003105044830590486960170126807 0 0 0 0 
2406333333.3333334923 0.172640249133110101897869981258 0.004722807090729475021362304688 -0.002804704476147890090942382812 -0.003173872828483581976649618994 0 0 0 0 
2406500000.0000000000 0.172379285097122192382812500000 0.002578045707195996804478310693 -0.003193286480382084846496582031 -0.002948119305074214935302734375 0 0 0 0 
2406666666.6666665077 0.172042474150657709319744981258 0.000580625433940440416336059570 -0.003391980193555355072021484375 -0.002967295702546834945678710938 0 0 0 0 
2406833333.3333334923 0.172149255871772793868856865629 -0.001419477746821939945220947266 -0.003576010931283235983607626807 -0.002815638668835163116455078125 0 0 0 0 
2407000000.0000000000 0.172276914119720486739950615629 -0.003486007684841752052307128906 -0.003676529042422771887538290869 -0.002746919868513942198512411963 0 0 0 0 
2407166666.6666665077 0.172534957528114291092080634371 -0.005621284246444702148437500000 -0.003918774891644716262817382812 -0.002649245085194706916809082031 0 0 0 0 
2407333333.3333334923 0.172500982880592401702557481258 -0.007926163263618946075439453125 -0.004061108455061913403982831738 -0.002462255768477917151210165869 0 0 0 0 
2407500000.0000000000 0.172713562846183804611044365629 -0.009934153407812118530273437500 -0.004163675010204315185546875000 -0.002208399586379528045654296875 0 0 0 0 
2407666666.6666665077 0.173117503523826599121093750000 -0.011984191834926610428779802930 -0.004475466441363096237182617188 -0.001961050555109978155848837744 0 0 0 0 
2407833333.3333334923 0.173333570361137390136718750000 -0.014082039706408979243268397852 -0.004624878987669944763183593750 -0.001760790823027492003199911963 0 0 0 0 
2408000000.0000000000 0.173608198761940002441406250000 -0.016251917928457260131835937500 -0.004655507858842611312866210938 -0.001543831662274897098541259766 0 0 0 0 
2408166666.6666665077 0.173966839909553500076455634371 -0.018224908038973808288574218750 -0.004806408658623695373535156250 -0.001169450930319726900813437354 0 0 0 0 
2408333333.3333334923 0.174603939056396512130575615629 -0.020187148824334151531179060157 -0.004760968964546918869018554688 -0.001049109618179500102996826172 0 0 0 0 
2408500000.0000000000 0.174873828887939508636151231258 -0.022188242524862289428710937500 -0.004868594929575920104980468750 -0.000766989425756037235260009766 0 0 0 0 
2408666666.6666665077 0.175399392843246487716513115629 -0.024071915075182921672780622657 -0.004954731557518243789672851562 -0.000414850219385698383480626239 0 0 0 0 
2408833333.3333334923 0.175626099109649713714276231258 -0.025814028456807140005091483204 -0.004804330877959728240966796875 -0.000205641510547138804763239728 0 0 0 0 
2409000000.0000000000 0.176071316003799410720986884371 -0.027288863435387611389160156250 -0.004933255724608898162841796875 0.000104386868770234300337652888 0 0 0 0 
2409166666.6666665077 0.176564514636993408203125000000 -0.028962699696421619760533516796 -0.004741436336189507570748613574 0.000345015869243070483207702637 0 0 0 0 
2409333333.3333334923 0.176975458860397311111611884371 -0.030362144112586978567103201954 -0.004690233618021011352539062500 0.000679898599628359079360961914 0 0 0 0 
2409500000.0000000000 0.177508100867271395584268134371 -0.031822733581066131591796875000 -0.004657232668250799179077148438 0.000637065735645592212677001953 0 0 0 0 
2409666666.6666665077 0.177871823310852106292401231258 -0.032983034849166870117187500000 -0.004689664579927921295166015625 0.000925337779335677623748779297 0 0 0 0 
2409833333.3333334923 0.178459510207176208496093750000 -0.033840909600257866596262346093 -0.004653315991163253784179687500 0.001261267811059951999066996997 0 0 0 0 
2410000000.0000000000 0.178965687751769991775674384371 -0.034902539104223251342773437500 -0.004374320153146982192993164062 0.001397509709931910037994384766 0 0 0 0 
2410166666.6666665077 0.179562434554100008865518134371 -0.035548407584428787231445312500 -0.004363836720585823059082031250 0.001520544523373245976091694409 0 0 0 0 
2410333333.3333334923 0.180022016167640713790731865629 -0.036553282290697097778320312500 -0.004250236321240664395804120801 0.001653132145293056964874267578 0 0 0 0 
2410500000.0000000000 0.180323287844657897949218750000 -0.037307441234588623046875000000 -0.004027430433779954910278320312 0.001986508723348379135131835938 0 0 0 0 
2410666666.6666665077 0.180578127503395108321981865629 -0.038017861545085906982421875000 -0.003964906092733144760131835938 0.002038206206634641127345419775 0 0 0 0 
2410833333.3333334923 0.181105732917785589020098768742 -0.038380056619644171977956403907 -0.003880596952512859864475869287 0.002223776653409004211425781250 0 0 0 0 
2411000000.0000000000 0.181592926383018493652343750000 -0.038879036903381347656250000000 -0.003721010172739624977111816406 0.002385978354141116142272949219 0 0 0 0 
2411166666.6666665077 0.181746989488601712325888115629 -0.039681978523731231689453125000 -0.003588841529563068909886025537 0.002570842159911990165710449219 0 0 0 0 
2411333333.3333334923 0.181961953639984103103799384371 -0.039985392242670059204101562500 -0.003424950875341891808750771631 0.002614296041429042816162109375 0 0 0 0 
2411500000.0000000000 0.181881695985794095138388115629 -0.040427122265100479125976562500 -0.003387929173186420960667275537 0.003101487876847385926487588037 0 0 0 0 
2411666666.6666665077 0.181942433118820190429687500000 -0.040688633918762207031250000000 -0.003004270372912288145778036963 0.002953633200377225875854492188 0 0 0 0 
2411833333.3333334923 0.182041838765144403655682481258 -0.040900200605392462993581403907 -0.002990363398566842079162597656 0.002914938377216457886936806787 0 0 0 0 
2412000000.0000000000 0.181825160980224609375000000000 -0.041279811412096016620676408593 -0.002727313665673137144801474463 0.003161168890073895888087607275 0 0 0 0 
2412166666.6666665077 0.181537672877311706542968750000 -0.041563183069229132915456403907 -0.002555117243900895118713378906 0.003257751930505036874058388818 0 0 0 0 
2412333333.3333334923 0.181303247809410095214843750000 -0.041751563549041748046875000000 -0.002479766728356481032130576025 0.003233559662476181983947753906 0 0 0 0 
2412500000.0000000000 0.180783376097679110428018134371 -0.042195025831460952758789062500 -0.002261174377053976058959960938 0.003315026173368095917942666162 0 0 0 0 
2412666666.6666665077 0.180226355791091891189736884371 -0.042579006403684623027761091407 -0.001918395049870013973833393628 0.003277896670624614195582724463 0 0 0 0 
2412833333.3333334923 0.179623007774352999588174384371 -0.042996533215045928955078125000 -0.001797459321096539931056357275 0.003207851434126495881321572412 0 0 0 0 
2413000000.0000000000 0.178832456469535799881143134371 -0.043078862130641937255859375000 -0.001733675831928849003435444409 0.003252357244491577148437500000 0 0 0 0 
2413166666.6666665077 0.177919298410415704925213731258 -0.043624378740787513042409528907 -0.001511449227109550996067666162 0.003136633895337582068202353369 0 0 0 0 
2413333333.3333334923 0.176926970481872586349325615629 -0.043960686773061752319335937500 -0.001338226022198796055437397534 0.003108442295342683792114257812 0 0 0 0 
2413500000.0000000000 0.176078230142593411544638115629 -0.044421613216400153423268903907 -0.001338418573141098022460937500 0.003168988507241011099574423682 0 0 0 0 
2413666666.6666665077 0.175115644931793212890625000000 -0.045183390378952033306081403907 -0.001147052040323615074157714844 0.003017986193299293951747275244 0 0 0 0 
2413833333.3333334923 0.173854678869247408767861884371 -0.045494288206100456928293596093 -0.000968781299889087677001953125 0.003015382215380669073817587744 0 0 0 0 
2414000000.0000000000 0.172803431749343899825888115629 -0.046298574656248092651367187500 -0.000852689612656831741333007812 0.003022155025973916053771972656 0 0 0 0 
2414166666.6666665077 0.171614632010459899902343750000 -0.046839088201522827148437500000 -0.000870135729201138019561767578 0.002899630460888146920445107568 0 0 0 0 
2414333333.3333334923 0.170490860939025906661825615629 -0.047583978623151779174804687500 -0.000816304178442806005477905273 0.002755403285846114158630371094 0 0 0 0 
2414500000.0000000000 0.169205754995346097091513115629 -0.048477474600076682353932966407 -0.000899511447641998529434204102 0.002782509196549654006958007812 0 0 0 0 
2414666666.6666665077 0.168125554919242886642294365629 -0.049435764551162719726562500000 -0.000736243382561951875686645508 0.002826713956892489953282021631 0 0 0 0 
2414833333.3333334923 0.166768372058868408203125000000 -0.050601553171873092651367187500 -0.000730404106434434652328491211 0.002580223139375447793247841943 0 0 0 0 
2415000000.0000000000 0.165439859032630892654580634371 -0.051669970154762268066406250000 -0.000735335575882345438003540039 0.002725828671827911896946572412 0 0 0 0 
2415166666.6666665077 0.164438217878341702560263115629 -0.052872076630592353130300153907 -0.000837959174532443284988403320 0.002618151251226664023158408057 0 0 0 0 
2415333333.3333334923 0.163392826914787292480468750000 -0.054318804293870932842214216407 -0.000782307120971381664276123047 0.002735022455453873114344931494 0 0 0 0 
2415500000.0000000000 0.162144362926483209808026231258 -0.055653024464845657348632812500 -0.000767963880207389593124389648 0.002722636330872774124145507812 0 0 0 0 
2415666666.6666665077 0.160947456955909701248330634371 -0.057145610451698303222656250000 -0.000827940471936017274856567383 0.002694439608603715896606445312 0 0 0 0 
2415833333.3333334923 0.159904107451438903808593750000 -0.058832004666328430175781250000 -0.000592810101807117462158203125 0.002757864538580179214477539062 0 0 0 0 
2416000000.0000000000 0.158773764967918395996093750000 -0.060585934668779373168945312500 -0.000685935607179999351501464844 0.002721995813772081895115517725 0 0 0 0 
2416166666.6666665077 0.157895803451538113693075615629 -0.062336407601833336566965471093 -0.000585422501899302005767822266 0.002741969889029860930201865088 0 0 0 0 
2416333333.3333334923 0.156930401921272305587606865629 -0.064045242965221405029296875000 -0.000710960652213543653488159180 0.002832735190168023109436035156 0 0 0 0 
2416500000.0000000000 0.155874714255333002288494981258 -0.066016711294651031494140625000 -0.000546568073332309722900390625 0.002784298500046133995056152344 0 0 0 0 
2416666666.6666665077 0.154912814497947692871093750000 -0.067914992570877075195312500000 -0.000631493108812719583511352539 0.002995184622704983191249228369 0 0 0 0 
2416833333.3333334923 0.154338255524635287185830634371 -0.069985747337341308593750000000 -0.000493023137096315622329711914 0.002965699415653944015502929688 0 0 0 0 
2417000000.0000000000 0.153389543294906588455361884371 -0.071999259293079376220703125000 -0.000347240362316370010375976562 0.003045329358428717093226767432 0 0 0 0 
2417166666.6666665077 0.152661502361297607421875000000 -0.073774412274360656738281250000 -0.000501481932587921619415283203 0.003160919062793254852294921875 0 0 0 0 
2417333333.3333334923 0.152136310935020502288494981258 -0.075871281325817108154296875000 -0.000424323312472552115291041241 0.003276655916124581856968545068 0 0 0 0 
2417500000.0000000000 0.151635587215423611739950615629 -0.077931784093379974365234375000 -0.000090947862190660089254379272 0.003199793864041566848754882812 0 0 0 0 
2417666666.6666665077 0.151198208332061795333700615629 -0.079665228724479675292968750000 -0.000112529567559249699115753174 0.003261960810050367875340127100 0 0 0 0 
2417833333.3333334923 0.150753125548362704178018134371 -0.081559531390666961669921875000 -0.000057713321439223357219288485 0.003404945367947220802307128906 0 0 0 0 
2418000000.0000000000 0.150220245122909601409588731258 -0.083486452698707580566406250000 0.000104411745269317193470816341 0.003335096174851059913635253906 0 0 0 0 
2418166666.6666665077 0.149978220462799100021200615629 -0.085232987999916076660156250000 0.000255922757787630016177576886 0.003495789598673582077026367188 0 0 0 0 
2418333333.3333334923 0.150118216872215298751669365629 -0.086949154734611511230468750000 0.000309055176330730319023132324 0.003641055431216955184936523438 0 0 0 0 
2418500000.0000000000 0.149915486574173001388388115629 -0.088617302477359771728515625000 0.000455078232334926724433898926 0.003508361987769604162928915869 0 0 0 0 
2418666666.6666665077 0.150013729929924011230468750000 -0.090276323258876800537109375000 0.000660344259813427925109863281 0.003534542629495263099670410156 0 0 0 0 
2418833333.3333334923 0.149727091193199213225994981258 -0.091625988483428955078125000000 0.000793338695075362920761108398 0.003589237341657280921936035156 0 0 0 0 
2419000000.0000000000 0.149785950779914911468182481258 -0.092955209314823150634765625000 0.000829216907732188701629638672 0.003599368268623948097229003906 0 0 0 0 
2419166666.6666665077 0.150004744529724093338174384371 -0.094306245446205139160156250000 0.001154778641648590998408652197 0.003721165703609586195704794775 0 0 0 0 
2419333333.3333334923 0.149766147136688204666299384371 -0.095269769430160522460937500000 0.001378507236950099901912070166 0.003610774176195263862609863281 0 0 0 0 
2419500000.0000000000 0.150244474411010686676348768742 -0.096460908651351928710937500000 0.001516455202363432104226137476 0.003545340383425354957580566406 0 0 0 0 
2419666666.6666665077 0.150510087609291104415731865629 -0.097364515066146850585937500000 0.001769987982697784900665283203 0.003565444843843578858616494287 0 0 0 0 
2419833333.3333334923 0.150665000081062289138955634371 -0.098124362528324127197265625000 0.001903923694044352011439658057 0.003583536483347415924072265625 0 0 0 0 
