# Version 1.00
#
freq[Hz];re:Trc1_S11;im:Trc1_S11;re:Trc2_S21;im:Trc2_S21;
2.400000000000000E+009;1.629989445209503E-001;5.976439639925957E-002;2.823381451889873E-003;1.283401623368263E-003;
2.400166666666667E+009;1.631414592266083E-001;5.853054672479630E-002;3.207504749298096E-003;1.125435926951468E-003;
2.400333333333334E+009;1.631006598472595E-001;5.702053382992744E-002;3.285461338236928E-003;1.230688882060349E-003;
2.400500000000000E+009;1.631913036108017E-001;5.544758960604668E-002;3.227352397516370E-003;1.086680684238672E-003;
2.400666666666667E+009;1.631862819194794E-001;5.390861257910729E-002;3.523520892485976E-003;1.183195156045258E-003;
2.400833333333334E+009;1.635549664497376E-001;5.241443589329720E-002;3.627509344369173E-003;1.014210633002222E-003;
2.401000000000000E+009;1.635088175535202E-001;5.079819634556770E-002;3.539392724633217E-003;9.955390123650432E-004;
2.401166666666667E+009;1.635990589857101E-001;4.921689257025719E-002;3.856821684166789E-003;9.964213240891695E-004;
2.401333333333334E+009;1.636098176240921E-001;4.744980484247208E-002;4.067818634212017E-003;7.233186624944210E-004;
2.401500000000000E+009;1.637707799673080E-001;4.587206616997719E-002;4.091884940862656E-003;6.436068215407431E-004;
2.401666666666667E+009;1.639576554298401E-001;4.428298026323319E-002;4.156394395977259E-003;5.105243762955070E-004;
2.401833333333334E+009;1.641129255294800E-001;4.262122884392738E-002;4.359150305390358E-003;5.505856242962182E-004;
2.402000000000000E+009;1.641667336225510E-001;4.096396639943123E-002;4.531180486083031E-003;2.064046129817143E-004;
2.402166666666667E+009;1.645016968250275E-001;3.917574509978294E-002;4.659030586481094E-003;7.954834291012958E-005;
2.402333333333334E+009;1.647845655679703E-001;3.781816363334656E-002;4.720777738839388E-003;-2.724841215240303E-005;
2.402500000000000E+009;1.651088148355484E-001;3.627571091055870E-002;4.934716969728470E-003;-2.610501833260059E-004;
2.402666666666667E+009;1.653643697500229E-001;3.451482951641083E-002;5.108229350298643E-003;-4.986122366972268E-004;
2.402833333333334E+009;1.656172275543213E-001;3.315153717994690E-002;5.059157963842154E-003;-5.686297081410885E-004;
2.403000000000000E+009;1.661328226327896E-001;3.181384876370430E-002;5.207626149058342E-003;-9.428525809198618E-004;
2.403166666666667E+009;1.666204780340195E-001;3.011260926723480E-002;5.207161419093609E-003;-1.162850763648748E-003;
2.403333333333334E+009;1.669576317071915E-001;2.877090685069561E-002;5.183765199035406E-003;-1.580379554070532E-003;
2.403500000000000E+009;1.674039065837860E-001;2.749759517610073E-002;5.141853354871273E-003;-1.678079366683960E-003;
2.403666666666667E+009;1.679821461439133E-001;2.599613927304745E-002;5.180332344025374E-003;-1.993984915316105E-003;
2.403833333333334E+009;1.684902012348175E-001;2.485006861388683E-002;5.128771997988224E-003;-2.326363231986761E-003;
2.404000000000000E+009;1.689636707305908E-001;2.356493659317493E-002;5.042928736656904E-003;-2.450296655297279E-003;
2.404166666666667E+009;1.695636659860611E-001;2.236152999103069E-002;5.112607497721911E-003;-2.758016344159842E-003;
2.404333333333334E+009;1.698849052190781E-001;2.113626711070538E-002;5.010818596929312E-003;-2.998605603352189E-003;
2.404500000000000E+009;1.704818904399872E-001;1.998019963502884E-002;4.950108937919140E-003;-3.299359697848558E-003;
2.404666666666667E+009;1.709292083978653E-001;1.899728737771511E-002;4.808140452951193E-003;-3.574911970645189E-003;
2.404833333333334E+009;1.716491132974625E-001;1.780897751450539E-002;4.601053893566132E-003;-3.798528574407101E-003;
2.405000000000000E+009;1.720721423625946E-001;1.690395176410675E-002;4.512010142207146E-003;-4.085677210241556E-003;
2.405166666666667E+009;1.726237535476685E-001;1.597232744097710E-002;4.362166859209538E-003;-4.173930268734694E-003;
2.405333333333334E+009;1.732415556907654E-001;1.487319637089968E-002;4.144291859120131E-003;-4.560207016766071E-003;
2.405500000000000E+009;1.736604571342468E-001;1.423737220466137E-002;3.809530287981033E-003;-4.764975979924202E-003;
2.405666666666667E+009;1.742032468318939E-001;1.338235940784216E-002;3.600461175665259E-003;-4.795198328793049E-003;
2.405833333333334E+009;1.745252609252930E-001;1.265454664826393E-002;3.405932802706957E-003;-5.140990484505892E-003;
2.406000000000000E+009;1.749875992536545E-001;1.174657605588436E-002;3.263829508796334E-003;-5.321817472577095E-003;
2.406166666666667E+009;1.753311008214951E-001;1.114656217396259E-002;3.071738639846444E-003;-5.360120907425880E-003;
2.406333333333334E+009;1.759961396455765E-001;1.059195771813393E-002;2.737946808338165E-003;-5.437456537038088E-003;
2.406500000000000E+009;1.761433482170105E-001;9.712663479149342E-003;2.657859586179256E-003;-5.578705575317144E-003;
2.406666666666667E+009;1.763309240341187E-001;9.035383351147175E-003;2.414715941995382E-003;-5.474138073623180E-003;
2.406833333333334E+009;1.768119931221008E-001;8.420187048614025E-003;1.859525684267283E-003;-5.676951725035906E-003;
2.407000000000000E+009;1.769869923591614E-001;7.661141920834780E-003;1.784929423592985E-003;-5.732915829867125E-003;
2.407166666666667E+009;1.774199306964874E-001;7.054155226796866E-003;1.662249211221933E-003;-5.837592761963606E-003;
2.407333333333334E+009;1.773597598075867E-001;6.223121192306280E-003;1.426402013748884E-003;-5.653701256960630E-003;
2.407500000000000E+009;1.774849146604538E-001;5.608639214187861E-003;1.168693532235920E-003;-5.678027868270874E-003;
2.407666666666667E+009;1.776304244995117E-001;4.906183574348688E-003;1.054510590620339E-003;-5.757943727076054E-003;
2.407833333333334E+009;1.775011122226715E-001;4.042575135827065E-003;8.219087030738592E-004;-5.780651699751616E-003;
2.408000000000000E+009;1.775677502155304E-001;3.207504283636808E-003;6.169848493300378E-004;-5.865296348929405E-003;
2.408166666666667E+009;1.774160712957382E-001;2.507694764062762E-003;2.984499733429402E-004;-5.879171658307314E-003;
2.408333333333334E+009;1.775823980569840E-001;1.678052125498653E-003;5.985161260468885E-005;-5.903162993490696E-003;
2.408500000000000E+009;1.772460490465164E-001;8.460648823529482E-004;-1.413134159520268E-004;-5.727053154259920E-003;
2.408666666666667E+009;1.774025261402130E-001;-2.498979738447815E-004;-1.178961974801496E-004;-5.726266186684370E-003;
2.408833333333334E+009;1.769117563962936E-001;-1.325352699495852E-003;-3.718940715771169E-004;-5.631625186651945E-003;
2.409000000000000E+009;1.766662448644638E-001;-2.186330268159509E-003;-5.319374613463879E-004;-5.545035470277071E-003;
2.409166666666667E+009;1.765366196632385E-001;-3.348911646753550E-003;-7.599433301948011E-004;-5.559303797781467E-003;
2.409333333333334E+009;1.762540042400360E-001;-4.345266148447990E-003;-8.867512806318700E-004;-5.725865252315998E-003;
2.409500000000000E+009;1.758655607700348E-001;-5.713762715458870E-003;-1.048115314915776E-003;-5.643167067319155E-003;
2.409666666666667E+009;1.756748259067535E-001;-6.734781898558140E-003;-1.110028591938317E-003;-5.421691574156284E-003;
2.409833333333334E+009;1.752455830574036E-001;-7.864286191761494E-003;-1.385296462103725E-003;-5.428130272775888E-003;
2.410000000000000E+009;1.750781238079071E-001;-9.171818383038044E-003;-1.622026436962187E-003;-5.351067520678043E-003;
2.410166666666667E+009;1.747369915246964E-001;-1.054123882204294E-002;-1.791162649169564E-003;-5.398870911449194E-003;
2.410333333333334E+009;1.743396371603012E-001;-1.187623105943203E-002;-1.810028101317585E-003;-5.271955858916044E-003;
2.410500000000000E+009;1.741351932287216E-001;-1.327028032392263E-002;-2.015329431742430E-003;-5.269961897283793E-003;
2.410666666666667E+009;1.738318055868149E-001;-1.470327377319336E-002;-2.042464213445783E-003;-5.097212269902229E-003;
2.410833333333334E+009;1.735997349023819E-001;-1.605910435318947E-002;-2.249892335385084E-003;-4.998412914574146E-003;
2.411000000000000E+009;1.732049584388733E-001;-1.748608611524105E-002;-2.433883259072900E-003;-5.062279291450977E-003;
2.411166666666667E+009;1.729025691747665E-001;-1.919446326792240E-002;-2.308449940755963E-003;-5.047754384577274E-003;
2.411333333333334E+009;1.729058474302292E-001;-2.063277736306191E-002;-2.634445903822780E-003;-5.099452566355467E-003;
2.411500000000000E+009;1.725640892982483E-001;-2.252842858433723E-002;-2.801627153530717E-003;-4.929475020617247E-003;
2.411666666666667E+009;1.725116968154907E-001;-2.382894046604633E-002;-2.832550555467606E-003;-4.940459504723549E-003;
2.411833333333334E+009;1.724669784307480E-001;-2.548402361571789E-002;-3.047360805794597E-003;-4.880162421613932E-003;
2.412000000000000E+009;1.722902953624725E-001;-2.717504464089871E-002;-3.131784265860915E-003;-4.623499233275652E-003;
2.412166666666667E+009;1.721228808164597E-001;-2.866760827600956E-002;-3.357029752805829E-003;-4.652125295251608E-003;
2.412333333333334E+009;1.721745133399963E-001;-3.020199760794640E-002;-3.542966675013304E-003;-4.406494554132223E-003;
2.412500000000000E+009;1.720354110002518E-001;-3.184453397989273E-002;-3.716431790962815E-003;-4.602903034538031E-003;
2.412666666666667E+009;1.721746176481247E-001;-3.359836339950562E-002;-3.924786578863859E-003;-4.529105965048075E-003;
2.412833333333334E+009;1.721686273813248E-001;-3.510352224111557E-002;-4.132638219743967E-003;-4.383331630378962E-003;
2.413000000000000E+009;1.724070459604263E-001;-3.652373701334000E-002;-4.302665125578642E-003;-4.366803448647261E-003;
2.413166666666667E+009;1.722705513238907E-001;-3.806576132774353E-002;-4.551665857434273E-003;-4.206254146993160E-003;
2.413333333333334E+009;1.723184585571289E-001;-3.952163830399513E-002;-4.575522150844336E-003;-4.048909526318312E-003;
2.413500000000000E+009;1.724336296319962E-001;-4.113535210490227E-002;-4.861120134592056E-003;-3.969924990087748E-003;
2.413666666666667E+009;1.724078804254532E-001;-4.245354980230331E-002;-5.131327081471682E-003;-3.843993879854679E-003;
2.413833333333334E+009;1.725394278764725E-001;-4.395721107721329E-002;-5.308942869305611E-003;-3.533166833221912E-003;
2.414000000000000E+009;1.727526187896729E-001;-4.530323669314385E-002;-5.344462580978870E-003;-3.515067510306835E-003;
2.414166666666667E+009;1.729953736066818E-001;-4.646662622690201E-002;-5.622670985758305E-003;-3.186722518876195E-003;
2.414333333333334E+009;1.730863600969315E-001;-4.753891751170158E-002;-5.843784660100937E-003;-3.096792846918106E-003;
2.414500000000000E+009;1.734195351600647E-001;-4.889440163969994E-002;-5.935763008892536E-003;-2.689529210329056E-003;
2.414666666666667E+009;1.735285371541977E-001;-5.001457035541534E-002;-6.098298355937004E-003;-2.554742852225900E-003;
2.414833333333334E+009;1.735691279172897E-001;-5.119248107075691E-002;-6.227045319974423E-003;-2.340573351830244E-003;
2.415000000000000E+009;1.736013889312744E-001;-5.204121768474579E-002;-6.450781133025885E-003;-2.056187717244029E-003;
2.415166666666667E+009;1.738576442003250E-001;-5.312494933605194E-002;-6.458529736846685E-003;-1.757586374878883E-003;
2.415333333333334E+009;1.740009188652039E-001;-5.407691374421120E-002;-6.452710833400488E-003;-1.322148018516600E-003;
2.415500000000000E+009;1.740815639495850E-001;-5.479699373245239E-002;-6.694372277706862E-003;-1.184536144137383E-003;
2.415666666666667E+009;1.740353405475617E-001;-5.555342882871628E-002;-6.689624860882759E-003;-8.879746310412884E-004;
2.415833333333334E+009;1.742327362298966E-001;-5.638194456696510E-002;-6.775208748877049E-003;-5.663165939040482E-004;
2.416000000000000E+009;1.738936156034470E-001;-5.710002407431603E-002;-6.646253634244204E-003;-2.156936097890139E-004;
2.416166666666667E+009;1.741282343864441E-001;-5.773947760462761E-002;-6.627422757446766E-003;1.082394737750292E-004;
2.416333333333334E+009;1.740563213825226E-001;-5.839842930436134E-002;-6.745208986103535E-003;2.795371692627668E-004;
2.416500000000000E+009;1.738955527544022E-001;-5.911291763186455E-002;-6.573050748556852E-003;8.190550142899156E-004;
2.416666666666667E+009;1.736638545989990E-001;-5.949556455016136E-002;-6.650494411587715E-003;1.172159682027996E-003;
2.416833333333334E+009;1.735648065805435E-001;-6.037314981222153E-002;-6.518002133816481E-003;1.300849718973041E-003;
2.417000000000000E+009;1.730368286371231E-001;-6.084224209189415E-002;-6.376979872584343E-003;1.585897640325129E-003;
2.417166666666667E+009;1.728154718875885E-001;-6.123733893036842E-002;-6.104678846895695E-003;1.888553379103541E-003;
2.417333333333334E+009;1.724415868520737E-001;-6.173224374651909E-002;-6.049558985978365E-003;2.263160655274987E-003;
2.417500000000000E+009;1.719413995742798E-001;-6.242937222123146E-002;-5.904113873839378E-003;2.398393349722028E-003;
2.417666666666667E+009;1.715600341558456E-001;-6.288081407546997E-002;-5.711931735277176E-003;2.724110847339034E-003;
2.417833333333334E+009;1.710737347602844E-001;-6.343595683574677E-002;-5.552823655307293E-003;2.889890689402819E-003;
2.418000000000000E+009;1.704150736331940E-001;-6.400123983621597E-002;-5.343064665794373E-003;3.116820938885212E-003;
2.418166666666667E+009;1.697545796632767E-001;-6.446234136819840E-002;-4.993511829525232E-003;3.290581516921520E-003;
2.418333333333334E+009;1.694048792123795E-001;-6.507392227649689E-002;-4.863516893237829E-003;3.555199829861522E-003;
2.418500000000000E+009;1.685201376676559E-001;-6.558156013488770E-002;-4.585103597491980E-003;3.564256709069014E-003;
2.418666666666667E+009;1.678824871778488E-001;-6.624659150838852E-002;-4.496052861213684E-003;3.672460094094276E-003;
2.418833333333334E+009;1.669911444187164E-001;-6.686374545097351E-002;-4.208261147141457E-003;3.796750446781516E-003;
2.419000000000000E+009;1.661120504140854E-001;-6.751451641321182E-002;-4.105066880583763E-003;3.931900020688772E-003;
2.419166666666667E+009;1.653965115547180E-001;-6.829423457384110E-002;-3.799022873863578E-003;4.076638724654913E-003;
2.419333333333334E+009;1.644960790872574E-001;-6.882899999618530E-002;-3.734929952770472E-003;4.165668971836567E-003;
2.419500000000000E+009;1.636862158775330E-001;-6.967723369598389E-002;-3.486800706014037E-003;4.130616318434477E-003;
2.419666666666667E+009;1.628706902265549E-001;-7.056351751089096E-002;-3.044850891456008E-003;4.143407102674246E-003;
2.419833333333334E+009;1.619733870029450E-001;-7.121441513299942E-002;-3.164848079904914E-003;4.458392970263958E-003;
2.420000000000000E+009;1.611770391464233E-001;-7.211066037416458E-002;-2.800782443955541E-003;4.448534920811653E-003;
2.420166666666667E+009;1.604230552911758E-001;-7.315854728221893E-002;-2.643556566908956E-003;4.365469794720411E-003;
2.420333333333334E+009;1.597170084714890E-001;-7.416150718927383E-002;-2.324409550055862E-003;4.508468322455883E-003;
2.420500000000000E+009;1.589263975620270E-001;-7.494221627712250E-002;-2.292006043717265E-003;4.432113375514746E-003;
2.420666666666667E+009;1.580344438552856E-001;-7.599958777427673E-002;-2.008394338190556E-003;4.436798393726349E-003;
2.420833333333334E+009;1.574528813362122E-001;-7.717715948820114E-002;-1.759097329340875E-003;4.399189725518227E-003;
2.421000000000000E+009;1.566811352968216E-001;-7.835515588521957E-002;-1.567539526149631E-003;4.386773798614740E-003;
2.421166666666667E+009;1.560449600219727E-001;-7.962638139724731E-002;-1.280738506466150E-003;4.562642890959978E-003;
2.421333333333334E+009;1.553331017494202E-001;-8.101566880941391E-002;-1.185315079055727E-003;4.418277181684971E-003;
2.421500000000000E+009;1.546960771083832E-001;-8.199255168437958E-002;-1.060838229022920E-003;4.439487587660551E-003;
2.421666666666667E+009;1.542533636093140E-001;-8.319894224405289E-002;-8.372445590794087E-004;4.424467217177153E-003;
2.421833333333334E+009;1.538635939359665E-001;-8.467938005924225E-002;-6.207465776242316E-004;4.289462696760893E-003;
2.422000000000000E+009;1.532928347587585E-001;-8.607511967420578E-002;-3.826155734714121E-004;4.274174105376005E-003;
2.422166666666667E+009;1.528137326240540E-001;-8.747089654207230E-002;-2.559039567131549E-004;4.047707654535770E-003;
2.422333333333334E+009;1.526476591825485E-001;-8.877752721309662E-002;8.859820809448138E-005;3.943339921534061E-003;
2.422500000000000E+009;1.522875130176544E-001;-9.006368368864059E-002;9.092895197682083E-005;3.963580355048180E-003;
2.422666666666667E+009;1.520003676414490E-001;-9.158825129270554E-002;2.317595499334857E-004;3.967003431171179E-003;
2.422833333333334E+009;1.518228203058243E-001;-9.319539368152618E-002;3.743561101146042E-004;3.787605091929436E-003;
2.423000000000000E+009;1.515431702136993E-001;-9.461892396211624E-002;4.303721070755273E-004;3.452941076830030E-003;
2.423166666666667E+009;1.514601111412048E-001;-9.613927453756332E-002;7.518604397773743E-004;3.636459354311228E-003;
2.423333333333334E+009;1.513984352350235E-001;-9.733375906944275E-002;7.295061368495226E-004;3.408700693398714E-003;
2.423500000000000E+009;1.512287408113480E-001;-9.878031909465790E-002;8.123627048917115E-004;3.371225437149406E-003;
2.423666666666667E+009;1.510763317346573E-001;-1.002726703882217E-001;8.987535256892443E-004;3.243638435378671E-003;
2.423833333333334E+009;1.511327922344208E-001;-1.015378236770630E-001;1.009760075248778E-003;2.898799022659659E-003;
2.424000000000000E+009;1.510135680437088E-001;-1.028077602386475E-001;1.064476207830012E-003;2.802175004035235E-003;
2.424166666666667E+009;1.509327888488770E-001;-1.041976213455200E-001;1.173578202724457E-003;2.725460799410939E-003;
2.424333333333334E+009;1.512248218059540E-001;-1.053296253085136E-001;1.079253386706114E-003;2.591696567833424E-003;
2.424500000000000E+009;1.512209922075272E-001;-1.066207885742188E-001;1.161149353720248E-003;2.375510521233082E-003;
2.424666666666667E+009;1.514734327793121E-001;-1.075027734041214E-001;1.146223861724138E-003;2.340475097298622E-003;
2.424833333333334E+009;1.512350887060165E-001;-1.087413877248764E-001;1.307863742113113E-003;2.115053823217750E-003;
2.425000000000000E+009;1.514163762331009E-001;-1.097394004464150E-001;1.019838149659336E-003;2.056323457509279E-003;
2.425166666666667E+009;1.512774378061295E-001;-1.108393520116806E-001;1.243079197593033E-003;1.847757492214441E-003;
2.425333333333334E+009;1.513971835374832E-001;-1.117118969559670E-001;1.276025082916021E-003;1.844483776949346E-003;
2.425500000000000E+009;1.514308750629425E-001;-1.126044020056725E-001;1.152057899162173E-003;1.708519179373980E-003;
2.425666666666667E+009;1.513340622186661E-001;-1.134520843625069E-001;1.172151649370790E-003;1.614227890968323E-003;
2.425833333333334E+009;1.513951271772385E-001;-1.142718642950058E-001;1.169645693153143E-003;1.556000788696110E-003;
2.426000000000000E+009;1.512701213359833E-001;-1.151274070143700E-001;1.135333208367229E-003;1.523519982583821E-003;
2.426166666666667E+009;1.514292955398560E-001;-1.158858686685562E-001;1.013813307508826E-003;1.348698046058416E-003;
2.426333333333334E+009;1.511270999908447E-001;-1.164846792817116E-001;1.005223486572504E-003;1.459749997593463E-003;
2.426500000000000E+009;1.510290652513504E-001;-1.169378161430359E-001;9.866739856079221E-004;1.264087855815888E-003;
2.426666666666667E+009;1.509418487548828E-001;-1.174024492502213E-001;1.009875093586743E-003;1.238298602402210E-003;
2.426833333333334E+009;1.506904810667038E-001;-1.180255413055420E-001;7.453133002854884E-004;1.309550832957029E-003;
2.427000000000000E+009;1.503328680992127E-001;-1.185811832547188E-001;7.483279332518578E-004;1.189868547953665E-003;
2.427166666666667E+009;1.499368697404862E-001;-1.188918054103851E-001;6.296487990766764E-004;1.245949068106711E-003;
2.427333333333334E+009;1.494829207658768E-001;-1.194185689091682E-001;5.784658133052290E-004;1.100881025195122E-003;
2.427500000000000E+009;1.490916460752487E-001;-1.198862120509148E-001;6.694738985970616E-004;1.217790297232568E-003;
2.427666666666667E+009;1.486696153879166E-001;-1.203621253371239E-001;6.005440372973681E-004;1.047321129590273E-003;
