# Hz S RI R 
2400000000.0000000000 0.158678740262985201736611884371 0.062941640615463256835937500000 -0.000331192859448492527008056641 -0.001696311403065920092939067310 0 0 0 0 
2400166666.6666665077 0.158418834209442110916299384371 0.061446905136108398437500000000 -0.000295025471132248585850316180 -0.001588056911714375019073486328 0 0 0 0 
2400333333.3333334923 0.158184453845024108886718750000 0.059568997472524642944335937500 -0.000364637468010187203257960187 -0.001642938004806637980817485278 0 0 0 0 
2400500000.0000000000 0.158041030168533297439736884371 0.057607065886259078979492187500 -0.000363651168299838900566101074 -0.001590937841683625958086323315 0 0 0 0 
2400666666.6666665077 0.157986789941787691970986884371 0.055596567690372467041015625000 -0.000410006410675123279720860614 -0.001644042204134166023851704175 0 0 0 0 
2400833333.3333334923 0.157998993992805508712606865629 0.053746584802865982055664062500 -0.000244625582126900607913416730 -0.001626479090191423892974853516 0 0 0 0 
2401000000.0000000000 0.158163726329803494552450615629 0.051633071154356002807617187500 -0.000341311795637011473805028094 -0.001607414567843080000636435400 0 0 0 0 
2401166666.6666665077 0.158147394657135009765625000000 0.049559872597455978393554687500 -0.000299136096145957708358764648 -0.001706732087768614075304340894 0 0 0 0 
2401333333.3333334923 0.158303409814834594726562500000 0.047480490058660507202148437500 -0.000371175439795479178428649902 -0.001704980502836406014086079175 0 0 0 0 
2401500000.0000000000 0.158587947487831087967080634371 0.045363839715719223022460937500 -0.000307068403344601392745971680 -0.001842294470407068946241069263 0 0 0 0 
2401666666.6666665077 0.158851847052574213225994981258 0.043340981006622307514231096093 -0.000515756662935018539428710938 -0.001730696647427975914598774487 0 0 0 0 
2401833333.3333334923 0.159252613782882690429687500000 0.041239365935325622558593750000 -0.000472652434837073087692260742 -0.001821057987399399063707661206 0 0 0 0 
2402000000.0000000000 0.159454122185707092285156250000 0.039257537573575966571848283593 -0.000381488760467618703842163086 -0.001884920289739965958836220850 0 0 0 0 
2402166666.6666665077 0.159962207078933688064736884371 0.037370763719081878662109375000 -0.000480242277262732386589050293 -0.002034401288256049156188964844 0 0 0 0 
2402333333.3333334923 0.160603925585746792892294365629 0.035456415265798568725585937500 -0.000614855845924466848373413086 -0.001973544014617801146266318213 0 0 0 0 
2402500000.0000000000 0.161300048232078607757244981258 0.033527575433254241943359375000 -0.000683468242641538381576538086 -0.002037168713286519050598144531 0 0 0 0 
2402666666.6666665077 0.161890253424644497970419365629 0.031787037849426269531250000000 -0.000815521343611180782318115234 -0.002046782290562986893894814600 0 0 0 0 
2402833333.3333334923 0.162550851702690096756143134371 0.030011063441634181631068045704 -0.001014271285384892983677529443 -0.002027057111263275146484375000 0 0 0 0 
2403000000.0000000000 0.163459271192550686935263115629 0.028288669884204871440847028907 -0.001173618249595165035845112378 -0.001988512929528952078578329932 0 0 0 0 
2403166666.6666665077 0.164338842034339904785156250000 0.026884570717811581003209298046 -0.001143759465776384093640971606 -0.002222864888608456091639853369 0 0 0 0 
2403333333.3333334923 0.165134578943252591232138115629 0.025092096999287608755091483204 -0.001194460201077163002611469800 -0.001950491219758986993076943506 0 0 0 0 
2403500000.0000000000 0.165953010320663507659588731258 0.023661963641643520700474923046 -0.001236656447872519926783896338 -0.001869508647359908060786581885 0 0 0 0 
2403666666.6666665077 0.166879102587699890136718750000 0.022185316309332851064661795704 -0.001435461686924099922180175781 -0.001944308518432080962537455981 0 0 0 0 
2403833333.3333334923 0.167963236570358304122763115629 0.020860867574810978281041329296 -0.001668423181399703025817871094 -0.001884430297650397040723491138 0 0 0 0 
2404000000.0000000000 0.168946146965026910979901231258 0.019643271341919898986816406250 -0.001718801911920309066772460938 -0.002027712995186448097229003906 0 0 0 0 
2404166666.6666665077 0.169818967580795288085937500000 0.018332516774535179138183593750 -0.001882329001091421084163046729 -0.001692071906290947957279824365 0 0 0 0 
2404333333.3333334923 0.170803382992744501311932481258 0.017453210428357120859166329296 -0.001849486376158893108367919922 -0.001605914672836660905125283350 0 0 0 0 
2404500000.0000000000 0.171804621815681513030682481258 0.016372874379158020019531250000 -0.001929922844283282973645854419 -0.001539651304483413913129496997 0 0 0 0 
2404666666.6666665077 0.172732174396514892578125000000 0.015396320261061189824114414648 -0.002314937068149447007420205225 -0.001407130854204297065734863281 0 0 0 0 
2404833333.3333334923 0.173725813627242986481036268742 0.014696247875690460205078125000 -0.002268311567604542212245322119 -0.001455187913961708979365683447 0 0 0 0 
2405000000.0000000000 0.174573004245758112151776231258 0.013853400945663450413714024023 -0.002261906862258911132812500000 -0.001315508154220879077911376953 0 0 0 0 
2405166666.6666665077 0.175331041216850308517294365629 0.013303207233548159163505353320 -0.002389207482337952093837118994 -0.001150218187831342003465961987 0 0 0 0 
2405333333.3333334923 0.176211819052696200271768134371 0.012527986429631710052490234375 -0.002253450686112045808079384912 -0.001195771037600934939143515479 0 0 0 0 
2405500000.0000000000 0.177032098174095209319744981258 0.012023070827126499521275704296 -0.002231494290754199028015136719 -0.000987074337899684906005859375 0 0 0 0 
2405666666.6666665077 0.177674144506454495529013115629 0.011680692434310909616490548046 -0.002325644483789802031276083838 -0.000786720134783536195755004883 0 0 0 0 
2405833333.3333334923 0.178253173828125000000000000000 0.011275582015514370309849923046 -0.002334100427106022834777832031 -0.000740575254894793033599853516 0 0 0 0 
2406000000.0000000000 0.178917720913886996170205634371 0.010672645643353460484514805273 -0.002344346139580010934116982568 -0.000607912021223455667495727539 0 0 0 0 
2406166666.6666665077 0.179352954030036898513955634371 0.010496216826140880584716796875 -0.002370486734434961838963173975 -0.000452786334790289402008056641 0 0 0 0 
2406333333.3333334923 0.179933995008468600174111884371 0.010174780152738090860387032421 -0.002401023404672741889953613281 -0.000279933621641248518794459210 0 0 0 0 
2406500000.0000000000 0.180185511708259610275106865629 0.009820821695029735565185546875 -0.002452692482620478110072470557 -0.000326653011143207604258936749 0 0 0 0 
2406666666.6666665077 0.180472359061241205413494981258 0.009472931735217571258544921875 -0.002362527418881655173060751807 -0.000280516076600179076194763184 0 0 0 0 
2406833333.3333334923 0.180774450302123995681924384371 0.009195885621011257171630859375 -0.002328589791432023048400878906 -0.000161410571308806511476793832 0 0 0 0 
2407000000.0000000000 0.180843710899352999588174384371 0.008794751018285751342773437500 -0.002200765535235404968261718750 -0.000000979075821305741555988789 0 0 0 0 
2407166666.6666665077 0.181043401360511807540731865629 0.008654818870127201080322265625 -0.002323321765288711027858115088 0.000004166114194958936423063278 0 0 0 0 
2407333333.3333334923 0.180820375680923489669638115629 0.008119630627334117889404296875 -0.002103530801832675933837890625 0.000128816798678599298000335693 0 0 0 0 
2407500000.0000000000 0.180760666728019686599893134371 0.007767266593873500823974609375 -0.002085724845528603033778525244 0.000223439245019108111232203351 0 0 0 0 
2407666666.6666665077 0.180703505873680086990518134371 0.007419504225254058837890625000 -0.002114654751494526863098144531 0.000213297273148782605498713361 0 0 0 0 
2407833333.3333334923 0.180174112319946289062500000000 0.006813385989516974362845136426 -0.002060024533420801162719726562 0.000334722892148420214653015137 0 0 0 0 
2408000000.0000000000 0.179964184761047391036825615629 0.006249284837394952774047851562 -0.002045461442321538925170898438 0.000436751375673338825076502667 0 0 0 0 
2408166666.6666665077 0.179488196969032287597656250000 0.005770220886915922164916992188 -0.001781237311661243005039834131 0.000385274470318108797073364258 0 0 0 0 
2408333333.3333334923 0.179166883230209406097088731258 0.005073409527540206909179687500 -0.001989165088161826133728027344 0.000420684053096920306056422101 0 0 0 0 
2408500000.0000000000 0.178577885031700106521768134371 0.004125763662159442901611328125 -0.001798390294425189928767538916 0.000693620007950812578201293945 0 0 0 0 
2408666666.6666665077 0.177985802292823791503906250000 0.003231107722967863082885742188 -0.001674873055890202955958701025 0.000699866795912384986877441406 0 0 0 0 
2408833333.3333334923 0.177332699298858587066973768742 0.002336860401555895805358886719 -0.001603006850928067944170307690 0.000529807643033564090728759766 0 0 0 0 
2409000000.0000000000 0.176667645573616000076455634371 0.001459950814023613929748535156 -0.001633949694223701953887939453 0.000706545659340918064117431641 0 0 0 0 
2409166666.6666665077 0.176128864288330105880575615629 0.000374705879949033314555567609 -0.001521038357168436050415039062 0.000717988645192235708236694336 0 0 0 0 
2409333333.3333334923 0.175393447279930086990518134371 -0.001002741861157119057298969800 -0.001495479373261332945582724463 0.000587891147006303071975708008 0 0 0 0 
2409500000.0000000000 0.174670159816741887848223768742 -0.002216604538261889977696084131 -0.001407721894793211980106972803 0.000675850431434810161590576172 0 0 0 0 
2409666666.6666665077 0.173859030008316012283486884371 -0.003503316314890981154200888525 -0.001387860043905674977543496240 0.000608195317909121513366699219 0 0 0 0 
2409833333.3333334923 0.173117950558662386795205634371 -0.004721664823591709136962890625 -0.001300201751291752078412700122 0.000570348987821489572525024414 0 0 0 0 
2410000000.0000000000 0.172662213444709805587606865629 -0.006253241095691919326782226562 -0.001174122095108032009722065503 0.000617886136751621961593627930 0 0 0 0 
2410166666.6666665077 0.172019600868225097656250000000 -0.007756135426461696624755859375 -0.001092833233997225978254008716 0.000724357785657048225402832031 0 0 0 0 
2410333333.3333334923 0.171233028173446710784588731258 -0.009420827962458133697509765625 -0.001272258930839597962023090894 0.000612365140113979578018188477 0 0 0 0 
2410500000.0000000000 0.170588150620460510253906250000 -0.011109518818557260685930820898 -0.001063785515725613074061728369 0.000422741024522110819816589355 0 0 0 0 
2410666666.6666665077 0.170010820031166104415731865629 -0.012823059223592279606829258398 -0.001188890659250319004058837891 0.000666285865008831024169921875 0 0 0 0 
2410833333.3333334923 0.169689550995826693435830634371 -0.014583420008420940744420235546 -0.001115473452955483956577920068 0.000499160902108997106552124023 0 0 0 0 
2411000000.0000000000 0.169212415814399691482705634371 -0.016369160264730450021763985546 -0.001192387309856713034986186450 0.000531364581547677516937255859 0 0 0 0 
2411166666.6666665077 0.168791651725768987457598768742 -0.018281053751707080495814139454 -0.001040228293277323029161762769 0.000526149640791118144989013672 0 0 0 0 
2411333333.3333334923 0.168407008051872308929119981258 -0.020175496116280559194544608204 -0.001087940647266804955126118237 0.000439495575847104191780090332 0 0 0 0 
2411500000.0000000000 0.168392345309257507324218750000 -0.022357046604156490671178048046 -0.001097913016565144062042236328 0.000452433392638340592384338379 0 0 0 0 
2411666666.6666665077 0.168219566345214788238848768742 -0.024168085306882858276367187500 -0.001272354274988174004795693506 0.000511908612679690122604370117 0 0 0 0 
2411833333.3333334923 0.168074652552604703048544365629 -0.026001665741205218923548514454 -0.001153873628936707973480224609 0.000476411310955882126658839093 0 0 0 0 
2412000000.0000000000 0.168200850486755398849325615629 -0.027852710336446758615513985546 -0.001305614365264772935154580225 0.000467058474896475726931971417 0 0 0 0 
2412166666.6666665077 0.168212488293647793868856865629 -0.029963709414005279541015625000 -0.001078815315850079059600830078 0.000403575046220794320106506348 0 0 0 0 
2412333333.3333334923 0.168374389410018893142861884371 -0.031825095415115363384206403907 -0.001291806343942881064174033057 0.000439522904343903118937891827 0 0 0 0 
2412500000.0000000000 0.168351396918296786209268134371 -0.033692032098770141601562500000 -0.001225841930136084990260458838 0.000559221662115305662155151367 0 0 0 0 
2412666666.6666665077 0.168681666254997308929119981258 -0.035770732909440987323801408593 -0.001305196667090057893040322412 0.000594836426898837089538574219 0 0 0 0 
2412833333.3333334923 0.169116705656051607986611884371 -0.037458833307027816772460937500 -0.001390085322782397053362202222 0.000594552315305918455123901367 0 0 0 0 
2413000000.0000000000 0.169417485594749506194744981258 -0.039357360452413558959960937500 -0.001458969200029968998552631909 0.000503971241414546966552734375 0 0 0 0 
2413166666.6666665077 0.169712468981742886642294365629 -0.041079211980104453350026716407 -0.001451678341254591941833496094 0.000573598721530288457870483398 0 0 0 0 
2413333333.3333334923 0.170062869787216186523437500000 -0.042852986603975302959401716407 -0.001455591875128448009490966797 0.000762171170208603143692016602 0 0 0 0 
2413500000.0000000000 0.170645937323570306975994981258 -0.044452492147684097290039062500 -0.001443385612219572067260742188 0.000818257511127740144729614258 0 0 0 0 
2413666666.6666665077 0.171256855130195589920205634371 -0.046007849276065833354909528907 -0.001442892360500990910771035303 0.000669506960548460483551025391 0 0 0 0 
2413833333.3333334923 0.171555444598197909256143134371 -0.047669585794210427021067033593 -0.001337760011665523052215576172 0.000966688734479248523712158203 0 0 0 0 
2414000000.0000000000 0.172152414917945889571981865629 -0.049178231507539749145507812500 -0.001336106797680258967755961841 0.000845254689920693635940551758 0 0 0 0 
2414166666.6666665077 0.172789841890335110763388115629 -0.050409261137247092510182966407 -0.001295101828873157934901572119 0.000969001965131610631942749023 0 0 0 0 
2414333333.3333334923 0.173375591635704012771768134371 -0.051862906664609909057617187500 -0.001322020543739200072047568213 0.000976551556959748268127441406 0 0 0 0 
2414500000.0000000000 0.174124270677566500564736884371 -0.052802305668592453002929687500 -0.001441027037799357934239052881 0.001037815003655851104139018481 0 0 0 0 
2414666666.6666665077 0.174464836716651888748330634371 -0.054034352302551269531250000000 -0.001459012622945011095759726416 0.001140955951996148066279745947 0 0 0 0 
2414833333.3333334923 0.174834951758384704589843750000 -0.055102694779634482646901716407 -0.001302067888900638060328818213 0.001117874751798809008357382666 0 0 0 0 
2415000000.0000000000 0.175484776496887207031250000000 -0.055972408503293991088867187500 -0.001164031447842716953874897534 0.001137395040132104916813515771 0 0 0 0 
2415166666.6666665077 0.175889357924461392501669365629 -0.056728508323431021953542341407 -0.001330304425209761099574423682 0.001326011726632714054704975659 0 0 0 0 
2415333333.3333334923 0.176240935921669006347656250000 -0.057674068957567221904714216407 -0.001082756905816494984867714990 0.001275074668228626034380268628 0 0 0 0 
2415500000.0000000000 0.176531240344047601897869981258 -0.058206964284181601787526716407 -0.001093419967219233946559286963 0.001438058912754059054731059497 0 0 0 0 
2415666666.6666665077 0.176835298538208007812500000000 -0.058701671659946441650390625000 -0.001005948404781519932987832178 0.001269303029403090910670615088 0 0 0 0 
2415833333.3333334923 0.177136957645416287521200615629 -0.059284985065460212017018903907 -0.001064883195795119025586772388 0.001465086243115365938899374854 0 0 0 0 
2416000000.0000000000 0.177159607410430908203125000000 -0.059747062623500817035715471093 -0.000937725882977247238159179688 0.001296784146688878969905234229 0 0 0 0 
2416166666.6666665077 0.177524924278259305099325615629 -0.060109540820121772075612653907 -0.000869500567205250263214111328 0.001440924126654862923863076318 0 0 0 0 
2416333333.3333334923 0.177390769124031094650106865629 -0.060470655560493469238281250000 -0.000973190821241587400436401367 0.001544676255434751944300986182 0 0 0 0 
2416500000.0000000000 0.177305072546005304534588731258 -0.060760769993066787719726562500 -0.000935439660679548978805541992 0.001428309478797018961665488135 0 0 0 0 
2416666666.6666665077 0.177042648196220397949218750000 -0.060919817537069320678710937500 -0.000937712611630558967590332031 0.001654433668591082096099853516 0 0 0 0 
2416833333.3333334923 0.177090808749198913574218750000 -0.061347603797912597656250000000 -0.000780130503699183464050292969 0.001578263822011650042292929541 0 0 0 0 
2417000000.0000000000 0.176477432250976590255575615629 -0.061645429581403732299804687500 -0.000762271229177713394165039062 0.001621833187527955012080527197 0 0 0 0 
2417166666.6666665077 0.176074191927909906585369981258 -0.061749331653118126606027971093 -0.000836990366224199533462524414 0.001735211350023746924159384619 0 0 0 0 
2417333333.3333334923 0.175698041915893610198651231258 -0.061835333704948432231862653907 -0.000789987039752304553985595703 0.001649631885811686949488974463 0 0 0 0 
2417500000.0000000000 0.175074234604835510253906250000 -0.062211569398641593242604841407 -0.000750753737520426511764526367 0.001671551028266548893572163159 0 0 0 0 
2417666666.6666665077 0.174487099051475497146768134371 -0.062245152890682220458984375000 -0.000727487960830330848693847656 0.001681127585470675988438271631 0 0 0 0 
2417833333.3333334923 0.173671886324882507324218750000 -0.062560759484767913818359375000 -0.000578589038923382759094238281 0.001676610438153147914289164966 0 0 0 0 
2418000000.0000000000 0.172673344612121609786825615629 -0.062889747321605682373046875000 -0.000656507734674960374832153320 0.001706728944554924964904785156 0 0 0 0 
2418166666.6666665077 0.171956822276115389724893134371 -0.063083477318286895751953125000 -0.000504283467307686805725097656 0.001783161889761686108232807690 0 0 0 0 
2418333333.3333334923 0.171161159873008700271768134371 -0.063407287001609802246093750000 -0.000557501160074025392532348633 0.001930652884766459898707724463 0 0 0 0 
2418500000.0000000000 0.170036822557449313064736884371 -0.063852466642856597900390625000 -0.000413697969634085893630981445 0.001945661380887031988856650244 0 0 0 0 
2418666666.6666665077 0.169088363647460909744424384371 -0.064433842897415161132812500000 -0.000282749766483902877003270282 0.001811726251617074012756347656 0 0 0 0 
2418833333.3333334923 0.167788475751876803299111884371 -0.064883843064308166503906250000 -0.000450283667305484414100646973 0.001843398553319274945500039209 0 0 0 0 
2419000000.0000000000 0.166587606072425786774005018742 -0.065372794866561889648437500000 -0.000277142826234921813011169434 0.001724458648823202090022421729 0 0 0 0 
2419166666.6666665077 0.165452033281326293945312500000 -0.066054724156856536865234375000 -0.000277742976322770118713378906 0.001869908766821027018903422778 0 0 0 0 
2419333333.3333334923 0.164120718836784390548544365629 -0.066632352769374847412109375000 -0.000234099192311987307950696402 0.001927454257383943037745810400 0 0 0 0 
2419500000.0000000000 0.163103029131889287750567518742 -0.067501455545425415039062500000 -0.000200359078007750213146209717 0.001882409327663481018663715894 0 0 0 0 
2419666666.6666665077 0.161980167031288202483807481258 -0.068426497280597686767578125000 -0.000249170261668041402667445050 0.001903834636323153972625732422 0 0 0 0 
2419833333.3333334923 0.160726249217987088302450615629 -0.069148153066635131835937500000 -0.000177047419128939509391784668 0.001927774399518966891645121997 0 0 0 0 
