# Version 1.00
#
freq[Hz];re:Trc1_S11;im:Trc1_S11;re:Trc2_S21;im:Trc2_S21;
2.400000000000000E+009;1.690004914999008E-001;4.563897475600243E-002;-5.311199929565191E-004;5.595711991190910E-003;
2.400166666666667E+009;1.701356768608093E-001;4.468968883156776E-002;-1.183943459182046E-004;5.457800813019276E-003;
2.400333333333334E+009;1.710501611232758E-001;4.348075389862061E-002;1.327087375102565E-004;5.250445101410151E-003;
2.400500000000000E+009;1.718451678752899E-001;4.247454926371574E-002;4.825420037377626E-004;5.203318316489458E-003;
2.400666666666667E+009;1.726042032241821E-001;4.155946150422096E-002;6.186899263411760E-004;5.200036801397800E-003;
2.400833333333334E+009;1.738302111625671E-001;4.083130136132240E-002;7.556337513960898E-004;4.985837265849114E-003;
2.401000000000000E+009;1.744437068700790E-001;3.984203189611435E-002;9.799565887078643E-004;4.887370858341456E-003;
2.401166666666667E+009;1.753098517656326E-001;3.932393342256546E-002;1.130918855778873E-003;4.927949979901314E-003;
2.401333333333334E+009;1.758356243371964E-001;3.868507966399193E-002;1.157827093265951E-003;4.532449878752232E-003;
2.401500000000000E+009;1.768052130937576E-001;3.800232335925102E-002;1.469333888962865E-003;4.474002867937088E-003;
2.401666666666667E+009;1.772485673427582E-001;3.739042952656746E-002;1.589153776876628E-003;4.432467743754387E-003;
2.401833333333334E+009;1.776905059814453E-001;3.674842417240143E-002;1.618976006284356E-003;4.240134265273809E-003;
2.402000000000000E+009;1.780890375375748E-001;3.621616214513779E-002;1.847208826802671E-003;4.131145775318146E-003;
2.402166666666667E+009;1.785964965820313E-001;3.556591272354126E-002;1.917398534715176E-003;4.010289907455444E-003;
2.402333333333334E+009;1.788257807493210E-001;3.489062935113907E-002;1.906775985844433E-003;3.985567484050989E-003;
2.402500000000000E+009;1.795075684785843E-001;3.427313640713692E-002;1.902486197650433E-003;3.818896831944585E-003;
2.402666666666667E+009;1.796313524246216E-001;3.397083654999733E-002;2.178565599024296E-003;3.509770147502422E-003;
2.402833333333334E+009;1.797291040420532E-001;3.320270404219627E-002;2.197748748585582E-003;3.612813772633672E-003;
2.403000000000000E+009;1.798101961612701E-001;3.235966339707375E-002;2.310470910742879E-003;3.529055276885629E-003;
2.403166666666667E+009;1.798349022865295E-001;3.173081949353218E-002;2.418208634480834E-003;3.445106092840433E-003;
2.403333333333334E+009;1.798233538866043E-001;3.092011064291000E-002;2.650840673595667E-003;3.385552205145359E-003;
2.403500000000000E+009;1.794736981391907E-001;2.995773032307625E-002;2.609709976240993E-003;3.226309781894088E-003;
2.403666666666667E+009;1.792082786560059E-001;2.893488481640816E-002;2.628707559779286E-003;2.959212288260460E-003;
2.403833333333334E+009;1.790832579135895E-001;2.794403769075871E-002;2.704414306208491E-003;3.045941470190883E-003;
2.404000000000000E+009;1.787026375532150E-001;2.699527889490128E-002;2.813993720337749E-003;3.002285258844495E-003;
2.404166666666667E+009;1.783920675516129E-001;2.572120353579521E-002;2.989282598719001E-003;2.884296234697104E-003;
2.404333333333334E+009;1.778573989868164E-001;2.456506714224815E-002;2.932039787992835E-003;2.673334674909711E-003;
2.404500000000000E+009;1.773264110088348E-001;2.317152544856072E-002;3.211792092770338E-003;2.599060069769621E-003;
2.404666666666667E+009;1.769221723079681E-001;2.184965461492539E-002;3.104286966845393E-003;2.343196654692292E-003;
2.404833333333334E+009;1.764047443866730E-001;2.039548382163048E-002;3.293733112514019E-003;2.448452636599541E-003;
2.405000000000000E+009;1.759177595376968E-001;1.890317723155022E-002;3.399801440536976E-003;2.303329063579440E-003;
2.405166666666667E+009;1.754488795995712E-001;1.733495295047760E-002;3.551785135641694E-003;1.911363215185702E-003;
2.405333333333334E+009;1.752206385135651E-001;1.573857478797436E-002;3.444393398240209E-003;1.872397609986365E-003;
2.405500000000000E+009;1.747487485408783E-001;1.409746985882521E-002;3.616425907239318E-003;1.673176069743931E-003;
2.405666666666667E+009;1.742770373821259E-001;1.225495338439941E-002;3.576728049665690E-003;1.591698266565800E-003;
2.405833333333334E+009;1.736280918121338E-001;1.058992184698582E-002;3.574500558897853E-003;1.228174543939531E-003;
2.406000000000000E+009;1.735518872737885E-001;8.548677898943424E-003;3.616337431594729E-003;1.027144840918481E-003;
2.406166666666667E+009;1.731074601411820E-001;6.794106215238571E-003;3.577797440811992E-003;9.342653793282807E-004;
2.406333333333334E+009;1.731054484844208E-001;4.816635046154261E-003;3.442498855292797E-003;7.944807875901461E-004;
2.406500000000000E+009;1.729442179203033E-001;2.817956730723381E-003;3.477965015918016E-003;5.205259658396244E-004;
2.406666666666667E+009;1.726360917091370E-001;6.871736259199679E-004;3.203386208042502E-003;4.301832523196936E-004;
2.406833333333334E+009;1.726588159799576E-001;-1.324931508861482E-003;3.152517601847649E-003;3.067214274778962E-004;
2.407000000000000E+009;1.728423237800598E-001;-3.434425219893456E-003;3.186577931046486E-003;-3.782223575399257E-005;
2.407166666666667E+009;1.728813499212265E-001;-5.462351720780134E-003;3.114132443442941E-003;9.201320062857121E-005;
2.407333333333334E+009;1.728310436010361E-001;-7.572798989713192E-003;3.064745804294944E-003;-9.474350372329354E-005;
2.407500000000000E+009;1.731024682521820E-001;-9.625932201743126E-003;2.844595117494464E-003;-2.117734693456441E-004;
2.407666666666667E+009;1.733857095241547E-001;-1.173555664718151E-002;2.810449339449406E-003;-3.034608671441674E-004;
2.407833333333334E+009;1.734956502914429E-001;-1.395060401409864E-002;2.766333054751158E-003;-2.428202278679237E-004;
2.408000000000000E+009;1.739511489868164E-001;-1.594832912087441E-002;2.633695490658283E-003;-3.586408856790513E-004;
2.408166666666667E+009;1.741817891597748E-001;-1.780189014971256E-002;2.588046481832862E-003;-4.168918239884079E-004;
2.408333333333334E+009;1.747482270002365E-001;-1.972801052033901E-002;2.555215032771230E-003;-6.364550208672881E-004;
2.408500000000000E+009;1.751823276281357E-001;-2.170947752892971E-002;2.370249014347792E-003;-5.311223212629557E-004;
2.408666666666667E+009;1.754634678363800E-001;-2.346308156847954E-002;2.161096548661590E-003;-6.864067399874330E-004;
2.408833333333334E+009;1.759917140007019E-001;-2.530576474964619E-002;2.137180184945464E-003;-6.466082413680852E-004;
2.409000000000000E+009;1.763523370027542E-001;-2.691547758877277E-002;1.961920177564025E-003;-6.163862417452037E-004;
2.409166666666667E+009;1.768612116575241E-001;-2.848759852349758E-002;1.649990328587592E-003;-6.144013605080545E-004;
2.409333333333334E+009;1.774718761444092E-001;-2.987005747854710E-002;1.710226759314537E-003;-6.546369404532015E-004;
2.409500000000000E+009;1.777376085519791E-001;-3.148264810442925E-002;1.672702142968774E-003;-6.683868123218417E-004;
2.409666666666667E+009;1.780422329902649E-001;-3.250380232930183E-002;1.488729962147772E-003;-5.765930982306600E-004;
2.409833333333334E+009;1.785406172275543E-001;-3.364352509379387E-002;1.545742969028652E-003;-5.763196968473494E-004;
2.410000000000000E+009;1.791842430830002E-001;-3.454921394586563E-002;1.350577338598669E-003;-4.196647496428341E-004;
2.410166666666667E+009;1.796955764293671E-001;-3.562973812222481E-002;1.309064682573080E-003;-3.784067812375724E-004;
2.410333333333334E+009;1.800564676523209E-001;-3.637869656085968E-002;1.399982371367514E-003;-2.510835474822670E-004;
2.410500000000000E+009;1.804495900869370E-001;-3.707016259431839E-002;1.383709604851902E-003;-1.750619121594355E-004;
2.410666666666667E+009;1.807594299316406E-001;-3.805489093065262E-002;1.460866420529783E-003;1.856945164036006E-005;
2.410833333333334E+009;1.812243610620499E-001;-3.856404870748520E-002;1.527499523945153E-003;1.400945329805836E-004;
2.411000000000000E+009;1.815336346626282E-001;-3.936197236180306E-002;1.453165314160287E-003;1.216554665006697E-004;
2.411166666666667E+009;1.816054433584213E-001;-3.979221358895302E-002;1.469568465836346E-003;1.796769938664511E-004;
2.411333333333334E+009;1.817990839481354E-001;-4.022768884897232E-002;1.569858053699136E-003;2.020355896092951E-004;
2.411500000000000E+009;1.819347739219666E-001;-4.087187349796295E-002;1.775877666659653E-003;3.222095547243953E-004;
2.411666666666667E+009;1.820318698883057E-001;-4.117887839674950E-002;1.880807685665786E-003;3.760471881832928E-004;
2.411833333333334E+009;1.818279176950455E-001;-4.160127416253090E-002;1.994259422644973E-003;1.801630278350785E-004;
2.412000000000000E+009;1.818263679742813E-001;-4.204819723963738E-002;2.149109495803714E-003;2.851194876711816E-004;
2.412166666666667E+009;1.812595129013062E-001;-4.239234328269959E-002;2.316431375220418E-003;1.083970710169524E-004;
2.412333333333334E+009;1.811433285474777E-001;-4.261469841003418E-002;2.330923220142722E-003;2.967947802972049E-004;
2.412500000000000E+009;1.803922206163406E-001;-4.296475648880005E-002;2.536552259698510E-003;1.328339130850509E-004;
2.412666666666667E+009;1.800979226827622E-001;-4.354365542531014E-002;2.687383210286498E-003;-1.279683638131246E-004;
2.412833333333334E+009;1.794412732124329E-001;-4.374223574995995E-002;2.812534337863326E-003;-9.241711086360738E-005;
2.413000000000000E+009;1.786289215087891E-001;-4.409521445631981E-002;2.756186993792653E-003;-2.224122436018661E-004;
2.413166666666667E+009;1.778635531663895E-001;-4.462818056344986E-002;2.878327388316393E-003;-4.559509106911719E-004;
2.413333333333334E+009;1.768368333578110E-001;-4.513538256287575E-002;2.830744953826070E-003;-5.936425295658410E-004;
2.413500000000000E+009;1.759823113679886E-001;-4.561090469360352E-002;2.890591975301504E-003;-8.151396759785712E-004;
2.413666666666667E+009;1.750656962394714E-001;-4.617855697870255E-002;2.926550339907408E-003;-9.500605519860983E-004;
2.413833333333334E+009;1.738495230674744E-001;-4.679138958454132E-002;2.760788891464472E-003;-1.082575297914445E-003;
2.414000000000000E+009;1.725787073373795E-001;-4.736230149865151E-002;2.826771931722760E-003;-1.287047751247883E-003;
2.414166666666667E+009;1.715850085020065E-001;-4.795920103788376E-002;2.735222456976771E-003;-1.342974137514830E-003;
2.414333333333334E+009;1.703871637582779E-001;-4.895597323775291E-002;2.695254748687148E-003;-1.677049556747079E-003;
2.414500000000000E+009;1.693899184465408E-001;-4.972761496901512E-002;2.574021928012371E-003;-1.533080707304180E-003;
2.414666666666667E+009;1.680137217044830E-001;-5.056553706526756E-002;2.461754949763417E-003;-1.557804644107819E-003;
2.414833333333334E+009;1.667302548885346E-001;-5.176739394664764E-002;2.416733652353287E-003;-1.646235235966742E-003;
2.415000000000000E+009;1.654914319515228E-001;-5.272962898015976E-002;2.234898507595062E-003;-1.898771966807544E-003;
2.415166666666667E+009;1.642409414052963E-001;-5.404627695679665E-002;2.192917047068477E-003;-1.787010580301285E-003;
2.415333333333334E+009;1.632250845432282E-001;-5.543319135904312E-002;2.158577553927898E-003;-1.987120369449258E-003;
2.415500000000000E+009;1.621489673852921E-001;-5.678186565637589E-002;2.228117547929287E-003;-2.025663619861007E-003;
2.415666666666667E+009;1.608822643756867E-001;-5.806106328964233E-002;2.041474450379610E-003;-1.940330723300576E-003;
2.415833333333334E+009;1.597488373517990E-001;-5.972861126065254E-002;2.092261100187898E-003;-1.978923100978136E-003;
2.416000000000000E+009;1.586074978113174E-001;-6.131819263100624E-002;2.022206783294678E-003;-2.101962454617024E-003;
2.416166666666667E+009;1.579474508762360E-001;-6.295072287321091E-002;1.952482154592872E-003;-2.209137193858624E-003;
2.416333333333334E+009;1.568255722522736E-001;-6.474305689334869E-002;1.846726867370307E-003;-2.150076208636165E-003;
2.416500000000000E+009;1.558087021112442E-001;-6.652703136205673E-002;1.835414557717741E-003;-2.202051226049662E-003;
2.416666666666667E+009;1.548924595117569E-001;-6.835097819566727E-002;1.752124517224729E-003;-2.147051505744457E-003;
2.416833333333334E+009;1.541913151741028E-001;-7.026454061269760E-002;1.729236566461623E-003;-2.383599290624261E-003;
2.417000000000000E+009;1.533489078283310E-001;-7.234120368957520E-002;1.633420703001320E-003;-2.398665063083172E-003;
2.417166666666667E+009;1.525658369064331E-001;-7.404513657093048E-002;1.591546926647425E-003;-2.303804969415069E-003;
2.417333333333334E+009;1.520685851573944E-001;-7.600810378789902E-002;1.477997982874513E-003;-2.297994913533330E-003;
2.417500000000000E+009;1.513978540897369E-001;-7.796273380517960E-002;1.595438108779490E-003;-2.488590311259031E-003;
2.417666666666667E+009;1.510332971811295E-001;-7.967832684516907E-002;1.557443407364190E-003;-2.383723156526685E-003;
2.417833333333334E+009;1.506249010562897E-001;-8.153284341096878E-002;1.443045912310481E-003;-2.527646021917462E-003;
2.418000000000000E+009;1.502819657325745E-001;-8.343318849802017E-002;1.412144396454096E-003;-2.538752043619752E-003;
2.418166666666667E+009;1.499213427305222E-001;-8.498669415712357E-002;1.435059821233153E-003;-2.574938815087080E-003;
2.418333333333334E+009;1.500145494937897E-001;-8.691110461950302E-002;1.360844005830586E-003;-2.685084240511060E-003;
2.418500000000000E+009;1.497055888175964E-001;-8.839334547519684E-002;1.293525332584977E-003;-2.669258974492550E-003;
2.418666666666667E+009;1.497282087802887E-001;-8.992478996515274E-002;1.259832410141826E-003;-2.880470594391227E-003;
2.418833333333334E+009;1.494690775871277E-001;-9.148335456848145E-002;1.149682328104973E-003;-2.854918828234077E-003;
2.419000000000000E+009;1.493788957595825E-001;-9.266413003206253E-002;1.219199271872640E-003;-2.875749254599214E-003;
2.419166666666667E+009;1.495273709297180E-001;-9.395231306552887E-002;1.010389649309218E-003;-2.956636017188430E-003;
2.419333333333334E+009;1.495423316955566E-001;-9.501029551029205E-002;9.518075967207551E-004;-3.128512063995004E-003;
2.419500000000000E+009;1.496765464544296E-001;-9.623582661151886E-002;8.889776072464883E-004;-3.136448562145233E-003;
2.419666666666667E+009;1.499931663274765E-001;-9.719771146774292E-002;7.471055141650140E-004;-3.211941337212920E-003;
2.419833333333334E+009;1.501319557428360E-001;-9.776344895362854E-002;7.397488225251436E-004;-3.330714767798781E-003;
2.420000000000000E+009;1.503754854202271E-001;-9.849634766578674E-002;6.557250162586570E-004;-3.292384324595332E-003;
2.420166666666667E+009;1.506997197866440E-001;-9.919671714305878E-002;5.602817982435226E-004;-3.469737013801932E-003;
2.420333333333334E+009;1.510410457849503E-001;-9.965962916612625E-002;3.488131042104214E-004;-3.476591547951102E-003;
2.420500000000000E+009;1.511559039354324E-001;-9.996088594198227E-002;3.921292955055833E-004;-3.611621214076877E-003;
2.420666666666667E+009;1.515050977468491E-001;-1.000012084841728E-001;2.850189048331231E-004;-3.479676088318229E-003;
2.420833333333334E+009;1.516799777746201E-001;-1.003475263714790E-001;1.139327141572721E-004;-3.427227493375540E-003;
2.421000000000000E+009;1.518282145261765E-001;-1.005276814103127E-001;1.600527757545933E-004;-3.714051330462098E-003;
2.421166666666667E+009;1.520904302597046E-001;-1.004472672939301E-001;-8.692938718013465E-005;-3.657930064946413E-003;
2.421333333333334E+009;1.524335592985153E-001;-1.004789024591446E-001;-4.688254193752073E-006;-3.734695026651025E-003;
2.421500000000000E+009;1.523022651672363E-001;-1.002413183450699E-001;-2.978049742523581E-004;-3.867002669721842E-003;
2.421666666666667E+009;1.522986739873886E-001;-1.001855283975601E-001;-2.570514916442335E-004;-3.847725922241807E-003;
2.421833333333334E+009;1.523548215627670E-001;-9.995537996292114E-002;-5.670328391715884E-004;-3.987351898103952E-003;
2.422000000000000E+009;1.521307975053787E-001;-9.970793128013611E-002;-7.389707607217133E-004;-4.075530450791121E-003;
2.422166666666667E+009;1.517819911241531E-001;-9.962476789951325E-002;-8.633405668660998E-004;-4.132420755922794E-003;
2.422333333333334E+009;1.515910178422928E-001;-9.927980601787567E-002;-1.103696995414794E-003;-4.138586577028036E-003;
2.422500000000000E+009;1.509890258312225E-001;-9.869598597288132E-002;-1.165917143225670E-003;-4.283126909285784E-003;
2.422666666666667E+009;1.504020392894745E-001;-9.860964119434357E-002;-1.360868336632848E-003;-4.446444567292929E-003;
2.422833333333334E+009;1.497304141521454E-001;-9.830627590417862E-002;-1.647887518629432E-003;-4.207539837807417E-003;
2.423000000000000E+009;1.488837599754334E-001;-9.789365530014038E-002;-1.870785374194384E-003;-4.399081692099571E-003;
2.423166666666667E+009;1.483007818460465E-001;-9.768595546483994E-002;-2.207637531682849E-003;-4.358786623924971E-003;
2.423333333333334E+009;1.473246961832047E-001;-9.721790999174118E-002;-2.535429783165455E-003;-4.328955430537462E-003;
2.423500000000000E+009;1.462494730949402E-001;-9.698488563299179E-002;-2.809465629979968E-003;-4.301026929169893E-003;
2.423666666666667E+009;1.449349671602249E-001;-9.677327424287796E-002;-3.130445722490549E-003;-4.117620643228293E-003;
2.423833333333334E+009;1.437944173812866E-001;-9.661734849214554E-002;-3.429786534979940E-003;-4.151073284447193E-003;
2.424000000000000E+009;1.424463540315628E-001;-9.625915437936783E-002;-3.670027712360025E-003;-3.937979694455862E-003;
2.424166666666667E+009;1.410898417234421E-001;-9.619845449924469E-002;-3.767775604501367E-003;-3.577869152650237E-003;
2.424333333333334E+009;1.398342251777649E-001;-9.613940119743347E-002;-4.016442224383354E-003;-3.472079522907734E-003;
2.424500000000000E+009;1.383522897958756E-001;-9.616312384605408E-002;-4.402155987918377E-003;-3.221674822270870E-003;
2.424666666666667E+009;1.370830684900284E-001;-9.608661383390427E-002;-4.636705853044987E-003;-3.073103260248900E-003;
2.424833333333334E+009;1.354717314243317E-001;-9.625955671072006E-002;-4.804401192814112E-003;-2.775016473606229E-003;
2.425000000000000E+009;1.339923143386841E-001;-9.658685326576233E-002;-4.983946681022644E-003;-2.469730563461781E-003;
2.425166666666667E+009;1.323713064193726E-001;-9.708169847726822E-002;-5.211313255131245E-003;-2.168879611417651E-003;
2.425333333333334E+009;1.309621185064316E-001;-9.758368134498596E-002;-5.209649913012981E-003;-1.714024576358497E-003;
2.425500000000000E+009;1.296712905168533E-001;-9.829577058553696E-002;-5.313704255968332E-003;-1.401503104716539E-003;
2.425666666666667E+009;1.280847340822220E-001;-9.890891611576080E-002;-5.353084299713373E-003;-1.232319278642535E-003;
2.425833333333334E+009;1.265830099582672E-001;-9.989758580923080E-002;-5.284405779093504E-003;-8.468555170111358E-004;
2.426000000000000E+009;1.252954900264740E-001;-1.008081361651421E-001;-5.129009485244751E-003;-5.097727407701314E-004;
2.426166666666667E+009;1.240383461117744E-001;-1.019007265567780E-001;-5.187601316720247E-003;-5.648747173836455E-005;
2.426333333333334E+009;1.226882711052895E-001;-1.031572893261910E-001;-4.979330115020275E-003;2.785796823445708E-004;
2.426500000000000E+009;1.214602738618851E-001;-1.043533161282539E-001;-5.053754895925522E-003;5.471301847137511E-004;
2.426666666666667E+009;1.203922033309937E-001;-1.056640520691872E-001;-4.788735881447792E-003;8.676894358359277E-004;
2.426833333333334E+009;1.192965656518936E-001;-1.072042956948280E-001;-4.597214516252279E-003;1.131640165112913E-003;
2.427000000000000E+009;1.181198805570602E-001;-1.087055355310440E-001;-4.428360145539045E-003;1.241616439074278E-003;
2.427166666666667E+009;1.172303855419159E-001;-1.102382689714432E-001;-4.201829433441162E-003;1.387721044011414E-003;
2.427333333333334E+009;1.162549033761025E-001;-1.118791103363037E-001;-4.068658687174320E-003;1.520079327747226E-003;
2.427500000000000E+009;1.155337095260620E-001;-1.136294379830360E-001;-3.533260896801949E-003;1.817748881876469E-003;
2.427666666666667E+009;1.148264706134796E-001;-1.153990402817726E-001;-3.430695971474052E-003;1.682098023593426E-003;
