# Version 1.00
#
freq[Hz];re:Trc1_S11;im:Trc1_S11;re:Trc2_S21;im:Trc2_S21;
2.400000000000000E+009;1.624095886945725E-001;5.678807199001312E-002;1.352541497908533E-003;4.779057577252388E-003;
2.400166666666667E+009;1.623618900775909E-001;5.529468134045601E-002;1.345588243566454E-003;4.759398754686117E-003;
2.400333333333334E+009;1.624983251094818E-001;5.366820469498634E-002;1.612126245163381E-003;4.866092000156641E-003;
2.400500000000000E+009;1.624777019023895E-001;5.197294056415558E-002;1.703903544694185E-003;4.940516315400600E-003;
2.400666666666667E+009;1.625684946775436E-001;5.012612044811249E-002;1.762034371495247E-003;4.980546887964010E-003;
2.400833333333334E+009;1.628996282815933E-001;4.832122474908829E-002;2.152509288862348E-003;4.904433153569698E-003;
2.401000000000000E+009;1.630252897739410E-001;4.649272561073303E-002;2.218432724475861E-003;5.077290814369917E-003;
2.401166666666667E+009;1.631734967231751E-001;4.471652954816818E-002;2.441505435854197E-003;5.203461740165949E-003;
2.401333333333334E+009;1.633237004280090E-001;4.317121952772141E-002;2.737592905759811E-003;5.216942634433508E-003;
2.401500000000000E+009;1.637426167726517E-001;4.115941375494003E-002;2.898092381656170E-003;5.291021429002285E-003;
2.401666666666667E+009;1.638872474431992E-001;3.942205756902695E-002;3.136898390948772E-003;5.269545596092939E-003;
2.401833333333334E+009;1.642103195190430E-001;3.760796412825584E-002;3.308381652459502E-003;5.201178602874279E-003;
2.402000000000000E+009;1.643676608800888E-001;3.592955321073532E-002;3.530025482177734E-003;5.168044939637184E-003;
2.402166666666667E+009;1.648197621107101E-001;3.420598804950714E-002;3.832760499790311E-003;5.217077210545540E-003;
2.402333333333334E+009;1.652861982584000E-001;3.254413604736328E-002;3.997828345745802E-003;4.959444049745798E-003;
2.402500000000000E+009;1.657506376504898E-001;3.097932413220406E-002;4.575549624860287E-003;4.950846545398235E-003;
2.402666666666667E+009;1.661762893199921E-001;2.932994067668915E-002;4.617502912878990E-003;4.972619470208883E-003;
2.402833333333334E+009;1.666739583015442E-001;2.783268503844738E-002;4.948067944496870E-003;4.621628206223249E-003;
2.403000000000000E+009;1.672948747873306E-001;2.632423862814903E-002;5.349731072783470E-003;4.478635732084513E-003;
2.403166666666667E+009;1.679326146841049E-001;2.481028065085411E-002;5.497784353792667E-003;4.150185734033585E-003;
2.403333333333334E+009;1.683306694030762E-001;2.372867800295353E-002;5.899075418710709E-003;4.186451435089111E-003;
2.403500000000000E+009;1.690235286951065E-001;2.247441187500954E-002;6.049208343029022E-003;3.685228293761611E-003;
2.403666666666667E+009;1.695412993431091E-001;2.111316658556461E-002;6.351124960929155E-003;3.550434717908502E-003;
2.403833333333334E+009;1.702492237091065E-001;1.998371630907059E-002;6.560654845088720E-003;3.181753912940621E-003;
2.404000000000000E+009;1.709164381027222E-001;1.877287775278091E-002;6.854220293462277E-003;2.777484711259604E-003;
2.404166666666667E+009;1.714950203895569E-001;1.751370169222355E-002;6.977583281695843E-003;2.570352051407099E-003;
2.404333333333334E+009;1.721651107072830E-001;1.658060774207115E-002;7.115312386304140E-003;2.267542760819197E-003;
2.404500000000000E+009;1.724831163883209E-001;1.545770838856697E-002;7.269994355738163E-003;2.016863785684109E-003;
2.404666666666667E+009;1.732961982488632E-001;1.478929072618485E-002;7.420182228088379E-003;1.434306148439646E-003;
2.404833333333334E+009;1.737429648637772E-001;1.384839601814747E-002;7.411667145788670E-003;1.060926588252187E-003;
2.405000000000000E+009;1.742428541183472E-001;1.303189434111118E-002;7.479409687221050E-003;9.563750936649740E-004;
2.405166666666667E+009;1.749137938022614E-001;1.244514342397451E-002;7.611800450831652E-003;3.746202855836600E-004;
2.405333333333334E+009;1.754501461982727E-001;1.170188561081886E-002;7.520122919231653E-003;-8.526592864654958E-005;
2.405500000000000E+009;1.759921014308929E-001;1.109290402382612E-002;7.537747267633677E-003;-4.619560786522925E-004;
2.405666666666667E+009;1.762433499097824E-001;1.068405900150538E-002;7.340544834733009E-003;-7.188786403276026E-004;
2.405833333333334E+009;1.764879822731018E-001;1.025234069675207E-002;7.269301451742649E-003;-1.041609561070800E-003;
2.406000000000000E+009;1.770696789026260E-001;9.435554966330528E-003;7.175762206315994E-003;-1.524068415164948E-003;
2.406166666666667E+009;1.771856695413590E-001;9.030831046402454E-003;7.040760945528746E-003;-1.652956823818386E-003;
2.406333333333334E+009;1.775090545415878E-001;8.548091165721417E-003;6.924542132765055E-003;-2.053584204986692E-003;
2.406500000000000E+009;1.776215285062790E-001;8.066391572356224E-003;6.749649532139301E-003;-2.441540127620101E-003;
2.406666666666667E+009;1.776445657014847E-001;7.657377980649471E-003;6.660952232778072E-003;-2.707369858399034E-003;
2.406833333333334E+009;1.778537929058075E-001;6.951882503926754E-003;6.481347139924765E-003;-2.868581563234329E-003;
2.407000000000000E+009;1.778101027011871E-001;6.558433175086975E-003;6.270366720855236E-003;-3.191907657310367E-003;
2.407166666666667E+009;1.780442744493485E-001;6.019055843353272E-003;6.026855669915676E-003;-3.598738694563508E-003;
2.407333333333334E+009;1.777299195528030E-001;5.343890748918057E-003;5.816162563860416E-003;-3.761514555662870E-003;
2.407500000000000E+009;1.775762736797333E-001;4.865565802901983E-003;5.591435357928276E-003;-3.921887837350369E-003;
2.407666666666667E+009;1.773408204317093E-001;4.266932141035795E-003;5.260950885713100E-003;-4.130032379180193E-003;
2.407833333333334E+009;1.770141869783402E-001;3.430266864597797E-003;5.085078068077564E-003;-4.324309993535280E-003;
2.408000000000000E+009;1.768793612718582E-001;2.548112999647856E-003;4.797028843313456E-003;-4.537757951766253E-003;
2.408166666666667E+009;1.765003353357315E-001;2.104798797518015E-003;4.617799073457718E-003;-4.620797000825405E-003;
2.408333333333334E+009;1.764083355665207E-001;1.130923978053033E-003;4.359780345112085E-003;-4.773598629981279E-003;
2.408500000000000E+009;1.758658736944199E-001;1.147185976151377E-004;4.079419653862715E-003;-4.979851190000773E-003;
2.408666666666667E+009;1.753276586532593E-001;-8.593901293352246E-004;3.712652483955026E-003;-4.990392364561558E-003;
2.408833333333334E+009;1.748438924551010E-001;-1.946572330780327E-003;3.461918793618679E-003;-5.110785365104675E-003;
2.409000000000000E+009;1.744060665369034E-001;-3.016614820808172E-003;3.227930283173919E-003;-5.055316723883152E-003;
2.409166666666667E+009;1.738310605287552E-001;-4.207988269627094E-003;2.983094425871968E-003;-5.168238189071417E-003;
2.409333333333334E+009;1.734858900308609E-001;-5.419866647571325E-003;2.694074297323823E-003;-5.173843819648027E-003;
2.409500000000000E+009;1.729020178318024E-001;-6.890368182212114E-003;2.579987049102783E-003;-5.266496445983648E-003;
2.409666666666667E+009;1.724207401275635E-001;-8.017797023057938E-003;2.250195480883122E-003;-5.212375894188881E-003;
2.409833333333334E+009;1.717446446418762E-001;-9.416963905096054E-003;2.081270096823573E-003;-5.218807142227888E-003;
2.410000000000000E+009;1.714989095926285E-001;-1.088891178369522E-002;1.945814816281200E-003;-5.274721886962652E-003;
2.410166666666667E+009;1.712544560432434E-001;-1.233341637998819E-002;1.684476272203028E-003;-5.089277867227793E-003;
2.410333333333334E+009;1.706241965293884E-001;-1.405397057533264E-002;1.587740494869649E-003;-5.119774024933577E-003;
2.410500000000000E+009;1.702481061220169E-001;-1.548860501497984E-002;1.311000320129097E-003;-5.051856394857168E-003;
2.410666666666667E+009;1.699084192514420E-001;-1.737464405596256E-002;9.312316542491317E-004;-4.987737163901329E-003;
2.410833333333334E+009;1.696858704090118E-001;-1.887768134474754E-002;1.063638599589467E-003;-4.922415129840374E-003;
2.411000000000000E+009;1.694698035717011E-001;-2.069664746522903E-002;6.407932960428298E-004;-4.915876779705286E-003;
2.411166666666667E+009;1.689875870943070E-001;-2.237735874950886E-002;5.319524789229035E-004;-4.835171159356833E-003;
2.411333333333334E+009;1.689514964818955E-001;-2.406893484294415E-002;4.867047246079892E-004;-4.735969938337803E-003;
2.411500000000000E+009;1.689327657222748E-001;-2.606353349983692E-002;2.866612921934575E-004;-4.726569633930922E-003;
2.411666666666667E+009;1.688588559627533E-001;-2.793209441006184E-002;1.949947909452021E-004;-4.780093673616648E-003;
2.411833333333334E+009;1.688554286956787E-001;-2.946707420051098E-002;2.589012146927416E-004;-4.574081860482693E-003;
2.412000000000000E+009;1.690855622291565E-001;-3.148773312568665E-002;-2.310831223439891E-005;-4.645515698939562E-003;
2.412166666666667E+009;1.688972413539887E-001;-3.312241658568382E-002;-2.077618410112336E-004;-4.601177293807268E-003;
2.412333333333334E+009;1.693429052829742E-001;-3.493786230683327E-002;-1.142355540650897E-004;-4.475762136280537E-003;
2.412500000000000E+009;1.693210899829865E-001;-3.655571490526199E-002;-3.778672544285655E-004;-4.413044080138207E-003;
2.412666666666667E+009;1.697058826684952E-001;-3.854852169752121E-002;-4.198334936518222E-004;-4.469836130738258E-003;
2.412833333333334E+009;1.699581742286682E-001;-4.021580889821053E-002;-6.367404712364078E-004;-4.358030855655670E-003;
2.413000000000000E+009;1.702312529087067E-001;-4.186304286122322E-002;-6.797180976718664E-004;-4.513585008680821E-003;
2.413166666666667E+009;1.705517023801804E-001;-4.341608285903931E-002;-1.013004803098738E-003;-4.320271313190460E-003;
2.413333333333334E+009;1.707514375448227E-001;-4.494064301252365E-002;-1.043225172907114E-003;-4.327927716076374E-003;
2.413500000000000E+009;1.712679266929627E-001;-4.649381339550018E-002;-1.168400864116848E-003;-4.135140683501959E-003;
2.413666666666667E+009;1.716923266649246E-001;-4.804060235619545E-002;-1.372640021145344E-003;-4.231240600347519E-003;
2.413833333333334E+009;1.721242815256119E-001;-4.938316345214844E-002;-1.409544842317700E-003;-4.062179010361433E-003;
2.414000000000000E+009;1.723289489746094E-001;-5.071924254298210E-002;-1.603200449608266E-003;-4.112893249839544E-003;
2.414166666666667E+009;1.729076802730560E-001;-5.194222927093506E-002;-1.835282659158111E-003;-4.014158621430397E-003;
2.414333333333334E+009;1.732565015554428E-001;-5.317659676074982E-002;-1.841216231696308E-003;-3.701722249388695E-003;
2.414500000000000E+009;1.738077849149704E-001;-5.398982390761375E-002;-1.941997325047851E-003;-3.883550409227610E-003;
2.414666666666667E+009;1.739885360002518E-001;-5.501230806112289E-002;-2.075267257168889E-003;-3.543110098689795E-003;
2.414833333333334E+009;1.743633747100830E-001;-5.608912557363510E-002;-2.326779998838902E-003;-3.598160343244672E-003;
2.415000000000000E+009;1.746339648962021E-001;-5.681816115975380E-002;-2.197620226070285E-003;-3.214528784155846E-003;
2.415166666666667E+009;1.748974472284317E-001;-5.767126008868218E-002;-2.345498185604811E-003;-3.345099277794361E-003;
2.415333333333334E+009;1.752829849720001E-001;-5.836629122495651E-002;-2.348726382479072E-003;-3.078082809224725E-003;
2.415500000000000E+009;1.754437088966370E-001;-5.901244282722473E-002;-2.526756841689348E-003;-2.990201348438859E-003;
2.415666666666667E+009;1.755586117506027E-001;-5.949882417917252E-002;-2.602959750220180E-003;-2.929185517132282E-003;
2.415833333333334E+009;1.757229715585709E-001;-6.015267595648766E-002;-2.592909848317504E-003;-2.859891392290592E-003;
2.416000000000000E+009;1.755704730749130E-001;-6.057272478938103E-002;-2.717043971642852E-003;-2.913192380219698E-003;
2.416166666666667E+009;1.758101582527161E-001;-6.103372573852539E-002;-2.756390254944563E-003;-2.544468035921454E-003;
2.416333333333334E+009;1.756834238767624E-001;-6.135592609643936E-002;-2.897856524214149E-003;-2.418960444629192E-003;
2.416500000000000E+009;1.754534542560577E-001;-6.173596531152725E-002;-2.924024360254407E-003;-2.483482472598553E-003;
2.416666666666667E+009;1.751229763031006E-001;-6.211179867386818E-002;-2.943624742329121E-003;-2.155278343707323E-003;
2.416833333333334E+009;1.749417036771774E-001;-6.251607835292816E-002;-2.996246563270688E-003;-2.007876057177782E-003;
2.417000000000000E+009;1.743651479482651E-001;-6.279282271862030E-002;-3.059099894016981E-003;-2.021842636168003E-003;
2.417166666666667E+009;1.739724576473236E-001;-6.291100382804871E-002;-3.058789763599634E-003;-1.670295838266611E-003;
2.417333333333334E+009;1.734327524900436E-001;-6.325990706682205E-002;-3.006800310686231E-003;-1.697729341685772E-003;
2.417500000000000E+009;1.728880405426025E-001;-6.357415020465851E-002;-3.164566121995449E-003;-1.700467313639820E-003;
2.417666666666667E+009;1.721386164426804E-001;-6.380994617938995E-002;-3.096067113801837E-003;-1.361190574243665E-003;
2.417833333333334E+009;1.713337153196335E-001;-6.408786773681641E-002;-3.208167618140578E-003;-1.407929463312030E-003;
2.418000000000000E+009;1.705720275640488E-001;-6.456045061349869E-002;-3.019684460014105E-003;-1.237232936546207E-003;
2.418166666666667E+009;1.695565581321716E-001;-6.480637192726135E-002;-3.249501110985875E-003;-1.022529671899974E-003;
2.418333333333334E+009;1.689460426568985E-001;-6.525576859712601E-002;-3.129102522507310E-003;-1.024287892505527E-003;
2.418500000000000E+009;1.679633110761643E-001;-6.571108847856522E-002;-3.022108459845185E-003;-8.421299862675369E-004;
2.418666666666667E+009;1.669152826070786E-001;-6.633742153644562E-002;-2.985659753903747E-003;-5.478532402776182E-004;
2.418833333333334E+009;1.657944470643997E-001;-6.690512597560883E-002;-3.008737927302718E-003;-6.693709874525666E-004;
2.419000000000000E+009;1.646347939968109E-001;-6.738781929016113E-002;-2.906027482822537E-003;-4.248582408763468E-004;
2.419166666666667E+009;1.636780947446823E-001;-6.802564114332199E-002;-2.949037821963430E-003;-4.531849699560553E-004;
2.419333333333334E+009;1.623653769493103E-001;-6.841321289539337E-002;-2.964144339784980E-003;-1.313300745096058E-004;
2.419500000000000E+009;1.613109111785889E-001;-6.939639896154404E-002;-2.987451152876020E-003;-5.661235991283320E-005;
2.419666666666667E+009;1.603124141693115E-001;-7.046200335025787E-002;-2.882312517613173E-003;-2.191225939895958E-005;
2.419833333333334E+009;1.591542810201645E-001;-7.125397771596909E-002;-2.932765288278461E-003;2.015971258515492E-004;
2.420000000000000E+009;1.581724435091019E-001;-7.215401530265808E-002;-2.633049618452787E-003;2.715736045502126E-004;
2.420166666666667E+009;1.569576710462570E-001;-7.316482812166214E-002;-2.739624353125691E-003;4.007545940112323E-004;
2.420333333333334E+009;1.560109555721283E-001;-7.446783035993576E-002;-2.743776421993971E-003;4.846145748160780E-004;
2.420500000000000E+009;1.550619304180145E-001;-7.533490657806397E-002;-2.520471112802625E-003;5.175113328732550E-004;
2.420666666666667E+009;1.540869921445847E-001;-7.652976363897324E-002;-2.483532996848226E-003;6.351873744279146E-004;
2.420833333333334E+009;1.532059758901596E-001;-7.799551635980606E-002;-2.388378139585257E-003;6.800052942708135E-004;
2.421000000000000E+009;1.523001790046692E-001;-7.936379313468933E-002;-2.275357488542795E-003;7.281661964952946E-004;
2.421166666666667E+009;1.515192538499832E-001;-8.079113066196442E-002;-2.050879411399365E-003;8.219379233196378E-004;
2.421333333333334E+009;1.511156708002091E-001;-8.233215659856796E-002;-1.893217093311250E-003;9.658895432949066E-004;
2.421500000000000E+009;1.501490622758865E-001;-8.372746407985687E-002;-1.814896473661065E-003;9.338509989902377E-004;
2.421666666666667E+009;1.497577428817749E-001;-8.529749512672424E-002;-1.787744578905404E-003;9.391663479618728E-004;
2.421833333333334E+009;1.491805166006088E-001;-8.694276958703995E-002;-1.656282111071050E-003;9.902624879032373E-004;
2.422000000000000E+009;1.487093269824982E-001;-8.838508278131485E-002;-1.457809819839895E-003;8.843786781653762E-004;
2.422166666666667E+009;1.484490633010864E-001;-9.023334830999374E-002;-1.378090586513281E-003;8.521880954504013E-004;
2.422333333333334E+009;1.481418013572693E-001;-9.189533442258835E-002;-1.375134568661451E-003;9.233862510882318E-004;
2.422500000000000E+009;1.477812379598618E-001;-9.361150860786438E-002;-1.230257679708302E-003;8.068426977843046E-004;
2.422666666666667E+009;1.475790441036224E-001;-9.519800543785095E-002;-1.076590851880610E-003;7.036680472083390E-004;
2.422833333333334E+009;1.477577984333038E-001;-9.693373739719391E-002;-1.022241660393775E-003;9.268001304008067E-004;
2.423000000000000E+009;1.476815193891525E-001;-9.840141236782074E-002;-8.238794398494065E-004;8.730363333597779E-004;
2.423166666666667E+009;1.476710885763168E-001;-1.002036109566689E-001;-9.157090680673719E-004;7.177283405326307E-004;
2.423333333333334E+009;1.477322727441788E-001;-1.014816388487816E-001;-9.849598864093423E-004;5.366889527067542E-004;
2.423500000000000E+009;1.478029191493988E-001;-1.031703650951386E-001;-6.384873413480818E-004;5.772955482825637E-004;
2.423666666666667E+009;1.477842330932617E-001;-1.047485694289208E-001;-6.581515772268176E-004;3.109405806753784E-004;
2.423833333333334E+009;1.481138914823532E-001;-1.062442809343338E-001;-5.571881774812937E-004;3.757017839234322E-004;
2.424000000000000E+009;1.483460515737534E-001;-1.075870692729950E-001;-7.682300056330860E-004;1.772690447978675E-004;
2.424166666666667E+009;1.485340446233749E-001;-1.088475659489632E-001;-7.047849940136075E-004;1.775659329723567E-004;
2.424333333333334E+009;1.488880366086960E-001;-1.102255731821060E-001;-6.398353725671768E-004;2.158357383450493E-004;
2.424500000000000E+009;1.492324769496918E-001;-1.114339232444763E-001;-7.135541527532041E-004;-5.435954153654166E-005;
2.424666666666667E+009;1.496367752552033E-001;-1.123896837234497E-001;-7.335860864259303E-004;-5.780840001534671E-005;
2.424833333333334E+009;1.498535871505737E-001;-1.136491820216179E-001;-7.816129364073277E-004;5.690321995643899E-005;
2.425000000000000E+009;1.501761227846146E-001;-1.146498396992683E-001;-8.867583237588406E-004;4.152583642280661E-005;
2.425166666666667E+009;1.502058506011963E-001;-1.154884472489357E-001;-8.873241604305804E-004;8.204983168980107E-005;
2.425333333333334E+009;1.506187915802002E-001;-1.164860725402832E-001;-8.971965871751308E-004;-1.138082952820696E-004;
2.425500000000000E+009;1.509298980236054E-001;-1.173392385244370E-001;-9.914103429764509E-004;1.338702713837847E-005;
2.425666666666667E+009;1.509021371603012E-001;-1.180520951747894E-001;-1.004248275421560E-003;9.087826765608043E-005;
2.425833333333334E+009;1.511926054954529E-001;-1.186322495341301E-001;-1.061512390151620E-003;-2.450471038173419E-005;
2.426000000000000E+009;1.511837691068649E-001;-1.192355379462242E-001;-1.206690212711692E-003;-2.214631422248203E-005;
2.426166666666667E+009;1.514080315828323E-001;-1.198135465383530E-001;-1.216999138705432E-003;3.213838863302954E-005;
2.426333333333334E+009;1.513163149356842E-001;-1.203881874680519E-001;-1.221766229718924E-003;8.782175427768379E-006;
2.426500000000000E+009;1.513283401727676E-001;-1.206986904144287E-001;-1.130063435994089E-003;1.342527975793928E-004;
2.426666666666667E+009;1.512794494628906E-001;-1.208859533071518E-001;-1.297472626902163E-003;4.917142632621108E-006;
2.426833333333334E+009;1.509572565555573E-001;-1.213120818138123E-001;-1.269640051759780E-003;-9.553378185955808E-005;
2.427000000000000E+009;1.507339328527451E-001;-1.216465532779694E-001;-1.481874613091350E-003;1.288956264033914E-004;
2.427166666666667E+009;1.503597050905228E-001;-1.218478828668594E-001;-1.392983249388635E-003;1.878668845165521E-004;
2.427333333333334E+009;1.499346494674683E-001;-1.219943538308144E-001;-1.461594249121845E-003;6.328804738586769E-005;
2.427500000000000E+009;1.494735777378082E-001;-1.222326755523682E-001;-1.305239507928491E-003;9.245987894246355E-005;
2.427666666666667E+009;1.487948000431061E-001;-1.224509179592133E-001;-1.484298729337752E-003;6.017681153025478E-005;
