# Version 1.00
#
freq[Hz];re:Trc1_S11;im:Trc1_S11;re:Trc2_S21;im:Trc2_S21;
2.400000000000000E+009;1.581800282001495E-001;6.178486347198486E-002;1.336326124146581E-003;-3.501786151900888E-003;
2.400166666666667E+009;1.582497656345367E-001;6.048895418643951E-002;1.110851648263633E-003;-3.408188465982676E-003;
2.400333333333334E+009;1.579991132020950E-001;5.840660259127617E-002;1.190807437524200E-003;-3.613072447478771E-003;
2.400500000000000E+009;1.582175046205521E-001;5.654514953494072E-002;1.031456631608307E-003;-3.595853224396706E-003;
2.400666666666667E+009;1.581315696239471E-001;5.454357713460922E-002;9.922375902533531E-004;-3.727668197825551E-003;
2.400833333333334E+009;1.581918001174927E-001;5.278605967760086E-002;9.429636993445456E-004;-3.778716083616018E-003;
2.401000000000000E+009;1.583372801542282E-001;5.061784014105797E-002;8.785222307778895E-004;-3.941880539059639E-003;
2.401166666666667E+009;1.585450470447540E-001;4.850336536765099E-002;8.800619398243725E-004;-4.002612549811602E-003;
2.401333333333334E+009;1.586895734071732E-001;4.651492461562157E-002;8.240783354267478E-004;-4.138286691159010E-003;
2.401500000000000E+009;1.588689833879471E-001;4.454094544053078E-002;6.657208432443440E-004;-4.203908611088991E-003;
2.401666666666667E+009;1.593914777040482E-001;4.269144684076309E-002;5.466362345032394E-004;-4.260378424078226E-003;
2.401833333333334E+009;1.599560827016830E-001;4.048275575041771E-002;3.626992984209210E-004;-4.418929107487202E-003;
2.402000000000000E+009;1.599957048892975E-001;3.850537165999413E-002;3.177541075274348E-004;-4.577975254505873E-003;
2.402166666666667E+009;1.606177091598511E-001;3.650165349245071E-002;3.039386137970723E-005;-4.750102292746306E-003;
2.402333333333334E+009;1.612547188997269E-001;3.476254642009735E-002;-1.047871701302938E-004;-4.721210803836584E-003;
2.402500000000000E+009;1.620446294546127E-001;3.293627128005028E-002;-3.953143022954464E-004;-4.866574425250292E-003;
2.402666666666667E+009;1.625862568616867E-001;3.139810636639595E-002;-4.366929933894426E-004;-4.934015218168497E-003;
2.402833333333334E+009;1.633917093276978E-001;2.965675480663776E-002;-7.660713163204491E-004;-4.968801047652960E-003;
2.403000000000000E+009;1.641908138990402E-001;2.800525352358818E-002;-9.860786376520991E-004;-5.109477322548628E-003;
2.403166666666667E+009;1.650746911764145E-001;2.642883546650410E-002;-1.291151740588248E-003;-4.982920363545418E-003;
2.403333333333334E+009;1.658517867326737E-001;2.500135079026222E-002;-1.672728452831507E-003;-4.982918035238981E-003;
2.403500000000000E+009;1.666370183229446E-001;2.358336374163628E-002;-1.838315511122346E-003;-5.076959263533354E-003;
2.403666666666667E+009;1.678011566400528E-001;2.218458801507950E-002;-2.083028666675091E-003;-4.883087240159512E-003;
2.403833333333334E+009;1.686190813779831E-001;2.086880244314671E-002;-2.260336419567466E-003;-4.967627115547657E-003;
2.404000000000000E+009;1.695691943168640E-001;1.972084306180477E-002;-2.579734660685062E-003;-4.758904222398996E-003;
2.404166666666667E+009;1.705149859189987E-001;1.856115646660328E-002;-2.786227269098163E-003;-4.526231437921524E-003;
2.404333333333334E+009;1.714947968721390E-001;1.767714507877827E-002;-3.009201725944877E-003;-4.600775428116322E-003;
2.404500000000000E+009;1.721902042627335E-001;1.662722229957581E-002;-3.258145414292812E-003;-4.335946869105101E-003;
2.404666666666667E+009;1.733046770095825E-001;1.573302038013935E-002;-3.486539702862501E-003;-4.171220120042563E-003;
2.404833333333334E+009;1.741392016410828E-001;1.499315444380045E-002;-3.739595180377364E-003;-3.813211340457201E-003;
2.405000000000000E+009;1.750011742115021E-001;1.422983873635531E-002;-3.974365536123514E-003;-3.621828509494662E-003;
2.405166666666667E+009;1.758241057395935E-001;1.374185737222433E-002;-3.974851686507464E-003;-3.634542226791382E-003;
2.405333333333334E+009;1.765165776014328E-001;1.281497068703175E-002;-4.281952511519194E-003;-3.312598215416074E-003;
2.405500000000000E+009;1.771865487098694E-001;1.244326401501894E-002;-4.264465067535639E-003;-3.258168930187821E-003;
2.405666666666667E+009;1.777322739362717E-001;1.207119319587946E-002;-4.396069794893265E-003;-3.105197101831436E-003;
2.405833333333334E+009;1.783211082220078E-001;1.164998859167099E-002;-4.403993953019381E-003;-2.812472404912114E-003;
2.406000000000000E+009;1.788895875215530E-001;1.115836575627327E-002;-4.642391577363014E-003;-2.568855183199048E-003;
2.406166666666667E+009;1.791437417268753E-001;1.089303474873304E-002;-4.422526340931654E-003;-2.462190808728337E-003;
2.406333333333334E+009;1.796506941318512E-001;1.039229426532984E-002;-4.493280779570341E-003;-2.267504576593638E-003;
2.406500000000000E+009;1.799589097499847E-001;1.015251036733389E-002;-4.589541349560022E-003;-1.913898740895093E-003;
2.406666666666667E+009;1.800082176923752E-001;9.834902361035347E-003;-4.676710348576307E-003;-1.838978612795472E-003;
2.406833333333334E+009;1.801751703023911E-001;9.525534696877003E-003;-4.691379144787788E-003;-1.679959357716143E-003;
2.407000000000000E+009;1.802756935358048E-001;8.990481495857239E-003;-4.735904280096293E-003;-1.564204809255898E-003;
2.407166666666667E+009;1.803366541862488E-001;8.766048587858677E-003;-4.788522142916918E-003;-1.375011634081602E-003;
2.407333333333334E+009;1.802402287721634E-001;8.179454132914543E-003;-4.771730862557888E-003;-1.225481508299708E-003;
2.407500000000000E+009;1.799540221691132E-001;7.868935354053974E-003;-4.746643360704184E-003;-1.063947100192308E-003;
2.407666666666667E+009;1.798288673162460E-001;7.287397049367428E-003;-4.688000306487083E-003;-7.267826003953815E-004;
2.407833333333334E+009;1.794856935739517E-001;6.667750887572765E-003;-4.862058907747269E-003;-7.183218840509653E-004;
2.408000000000000E+009;1.789546012878418E-001;6.015179213136435E-003;-4.845150746405125E-003;-5.352874286472797E-004;
2.408166666666667E+009;1.786634773015976E-001;5.495521705597639E-003;-4.628847353160381E-003;-4.297122650314122E-004;
2.408333333333334E+009;1.782061159610748E-001;4.771417472511530E-003;-4.601560998708010E-003;-1.355529238935560E-004;
2.408500000000000E+009;1.777280718088150E-001;3.865731414407492E-003;-4.659171216189861E-003;5.069293183623813E-005;
2.408666666666667E+009;1.771723777055740E-001;2.952391514554620E-003;-4.593177698552609E-003;1.333131367573515E-004;
2.408833333333334E+009;1.764363348484039E-001;2.016894519329071E-003;-4.601692780852318E-003;3.098888846579939E-004;
2.409000000000000E+009;1.757637411355972E-001;1.130969845689833E-003;-4.477750975638628E-003;3.577945171855390E-004;
2.409166666666667E+009;1.751658767461777E-001;-1.467150432290509E-004;-4.563712514936924E-003;5.809563444927335E-004;
2.409333333333334E+009;1.746269017457962E-001;-1.531714806333184E-003;-4.400389268994331E-003;6.467765197157860E-004;
2.409500000000000E+009;1.738699376583099E-001;-2.904824214056134E-003;-4.344872664660215E-003;7.495940662920475E-004;
2.409666666666667E+009;1.732998788356781E-001;-4.130908288061619E-003;-4.387482535094023E-003;8.524479926563799E-004;
2.409833333333334E+009;1.725565791130066E-001;-5.495941266417503E-003;-4.312811885029078E-003;9.457893902435899E-004;
2.410000000000000E+009;1.720726639032364E-001;-7.068165112286806E-003;-4.078521393239498E-003;1.051479834131897E-003;
2.410166666666667E+009;1.714528352022171E-001;-8.641245774924755E-003;-4.297579638659954E-003;1.030129147693515E-003;
2.410333333333334E+009;1.709588319063187E-001;-1.004969980567694E-002;-4.205339122563601E-003;1.223808038048446E-003;
2.410500000000000E+009;1.702853888273239E-001;-1.180905103683472E-002;-3.959391731768847E-003;1.358968205749989E-003;
2.410666666666667E+009;1.698357909917831E-001;-1.370684709399939E-002;-4.101594444364309E-003;1.401928486302495E-003;
2.410833333333334E+009;1.694680005311966E-001;-1.537751406431198E-002;-3.945165779441595E-003;1.542993239127100E-003;
2.411000000000000E+009;1.691366285085678E-001;-1.716602407395840E-002;-3.916436340659857E-003;1.550485379993916E-003;
2.411166666666667E+009;1.686293035745621E-001;-1.906095631420612E-002;-3.897743532434106E-003;1.723695895634592E-003;
2.411333333333334E+009;1.686371266841888E-001;-2.097510732710362E-002;-3.629554994404316E-003;1.739865285344422E-003;
2.411500000000000E+009;1.685027778148651E-001;-2.294790372252464E-002;-3.864523023366928E-003;1.752411248162389E-003;
2.411666666666667E+009;1.685293614864349E-001;-2.482565492391586E-002;-3.739344887435436E-003;1.947703072801232E-003;
2.411833333333334E+009;1.682301014661789E-001;-2.666673436760902E-002;-3.564930520951748E-003;2.091731410473585E-003;
2.412000000000000E+009;1.685013771057129E-001;-2.855524234473705E-002;-3.589175874367356E-003;2.307712566107512E-003;
2.412166666666667E+009;1.684469878673554E-001;-3.065627813339233E-002;-3.402807516977191E-003;2.299083163961768E-003;
2.412333333333334E+009;1.687831878662109E-001;-3.237040713429451E-002;-3.499091602861881E-003;2.230579499155283E-003;
2.412500000000000E+009;1.688073873519898E-001;-3.405048325657845E-002;-3.518631448969245E-003;2.441324992105365E-003;
2.412666666666667E+009;1.690897494554520E-001;-3.624524176120758E-002;-3.468968672677875E-003;2.631355077028275E-003;
2.412833333333334E+009;1.696802973747253E-001;-3.802280128002167E-002;-3.274144604802132E-003;2.741158939898014E-003;
2.413000000000000E+009;1.701041907072067E-001;-3.981592133641243E-002;-3.239413723349571E-003;2.892547519877553E-003;
2.413166666666667E+009;1.703220754861832E-001;-4.139885306358337E-002;-3.056689631193876E-003;2.907055197283626E-003;
2.413333333333334E+009;1.706948578357697E-001;-4.314758256077766E-002;-3.011785214766860E-003;3.062658477574587E-003;
2.413500000000000E+009;1.713490188121796E-001;-4.468600451946259E-002;-3.037422429770231E-003;3.145297989249229E-003;
2.413666666666667E+009;1.719541847705841E-001;-4.617333784699440E-002;-2.832409460097551E-003;3.323678160086274E-003;
2.413833333333334E+009;1.723048388957977E-001;-4.759109765291214E-002;-2.700357697904110E-003;3.214007476344705E-003;
2.414000000000000E+009;1.727579385042191E-001;-4.922737181186676E-002;-2.544625895097852E-003;3.499883459880948E-003;
2.414166666666667E+009;1.734110116958618E-001;-5.034181103110313E-002;-2.334426157176495E-003;3.638986498117447E-003;
2.414333333333334E+009;1.739572882652283E-001;-5.164984986186028E-002;-2.243316266685724E-003;3.474934026598930E-003;
2.414500000000000E+009;1.746316254138947E-001;-5.264277756214142E-002;-2.087555360049009E-003;3.617459675297141E-003;
2.414666666666667E+009;1.748921871185303E-001;-5.362187698483467E-002;-1.892437459900975E-003;3.749172668904066E-003;
2.414833333333334E+009;1.753977835178375E-001;-5.469214543700218E-002;-1.924515003338456E-003;3.844731254503131E-003;
2.415000000000000E+009;1.757558137178421E-001;-5.561578273773193E-002;-1.561064855195582E-003;3.800244536250830E-003;
2.415166666666667E+009;1.761536002159119E-001;-5.645700171589851E-002;-1.420624088495970E-003;3.794061252847314E-003;
2.415333333333334E+009;1.765660941600800E-001;-5.723088234663010E-002;-1.427208771929145E-003;3.682602196931839E-003;
2.415500000000000E+009;1.768404841423035E-001;-5.776470527052879E-002;-1.405570306815207E-003;3.758445382118225E-003;
2.415666666666667E+009;1.769935637712479E-001;-5.822960287332535E-002;-1.121592125855386E-003;3.878804622218013E-003;
2.415833333333334E+009;1.772620379924774E-001;-5.888012424111366E-002;-1.098869484849274E-003;3.765399800613523E-003;
2.416000000000000E+009;1.772350072860718E-001;-5.914935842156410E-002;-1.013365108519793E-003;3.634179243817926E-003;
2.416166666666667E+009;1.773350834846497E-001;-5.964673683047295E-002;-8.253060514107347E-004;3.796610515564680E-003;
2.416333333333334E+009;1.773068159818649E-001;-5.994907766580582E-002;-8.554637315683067E-004;3.602155484259129E-003;
2.416500000000000E+009;1.772168129682541E-001;-6.037253513932228E-002;-7.065302343107760E-004;3.682157257571816E-003;
2.416666666666667E+009;1.769381612539291E-001;-6.045813113451004E-002;-5.962857394479215E-004;3.595701418817043E-003;
2.416833333333334E+009;1.767395436763763E-001;-6.094906851649284E-002;-3.514552081469446E-004;3.531863214448094E-003;
2.417000000000000E+009;1.763182878494263E-001;-6.116323918104172E-002;-5.355826579034329E-004;3.538941033184528E-003;
2.417166666666667E+009;1.757963001728058E-001;-6.127378717064858E-002;-4.554773622658104E-004;3.745411755517125E-003;
2.417333333333334E+009;1.752023249864578E-001;-6.158687919378281E-002;-3.277878277003765E-004;3.575181355699897E-003;
2.417500000000000E+009;1.745598912239075E-001;-6.190055608749390E-002;-2.443312259856612E-004;3.475610632449389E-003;
2.417666666666667E+009;1.739314794540405E-001;-6.207595020532608E-002;-1.945968106156215E-004;3.511259797960520E-003;
2.417833333333334E+009;1.731214970350266E-001;-6.244992092251778E-002;-2.910762123065069E-005;3.455627243965864E-003;
2.418000000000000E+009;1.722522675991058E-001;-6.283536553382874E-002;5.952637366135605E-005;3.502380568534136E-003;
2.418166666666667E+009;1.713624298572540E-001;-6.296723335981369E-002;3.619970448198728E-005;3.471679752692580E-003;
2.418333333333334E+009;1.705088019371033E-001;-6.354159861803055E-002;1.230067118740408E-005;3.473014803603292E-003;
2.418500000000000E+009;1.693297773599625E-001;-6.394915282726288E-002;1.578824740136042E-004;3.449264215305448E-003;
2.418666666666667E+009;1.684391498565674E-001;-6.446936726570129E-002;1.667036704020575E-004;3.536454634740949E-003;
2.418833333333334E+009;1.670636683702469E-001;-6.504779309034348E-002;2.090077905450016E-004;3.451507771387696E-003;
2.419000000000000E+009;1.658831983804703E-001;-6.570174545049667E-002;2.385837869951502E-004;3.408228047192097E-003;
2.419166666666667E+009;1.649682372808456E-001;-6.637533754110336E-002;3.119152970612049E-004;3.516886383295059E-003;
2.419333333333334E+009;1.635940223932266E-001;-6.698633730411530E-002;3.838971024379134E-004;3.542284714058042E-003;
2.419500000000000E+009;1.625158935785294E-001;-6.789067387580872E-002;4.082527011632919E-004;3.640582785010338E-003;
2.419666666666667E+009;1.613536030054092E-001;-6.882221251726151E-002;3.575420123524964E-004;3.505546366795898E-003;
2.419833333333334E+009;1.601597368717194E-001;-6.964845955371857E-002;4.525032709352672E-004;3.574243979528546E-003;
2.420000000000000E+009;1.591881513595581E-001;-7.084446400403976E-002;6.531177787110210E-004;3.661269322037697E-003;
2.420166666666667E+009;1.580758839845657E-001;-7.183198630809784E-002;5.794322933070362E-004;3.781162435188890E-003;
2.420333333333334E+009;1.571491509675980E-001;-7.316124439239502E-002;6.837015389464796E-004;3.688184544444084E-003;
2.420500000000000E+009;1.561501473188400E-001;-7.424493134021759E-002;6.710444577038288E-004;3.642751369625330E-003;
2.420666666666667E+009;1.551466733217239E-001;-7.555578649044037E-002;8.837566128931940E-004;3.664824878796935E-003;
2.420833333333334E+009;1.544061303138733E-001;-7.701181620359421E-002;1.041774405166507E-003;3.729320596903563E-003;
2.421000000000000E+009;1.533380299806595E-001;-7.850734144449234E-002;1.123451394960284E-003;3.730628872290254E-003;
2.421166666666667E+009;1.527012437582016E-001;-7.989379018545151E-002;1.222905237227678E-003;3.827591892331839E-003;
2.421333333333334E+009;1.521189808845520E-001;-8.153423666954041E-002;1.043759519234300E-003;3.796799341216683E-003;
2.421500000000000E+009;1.514287292957306E-001;-8.310931921005249E-002;1.340674352832139E-003;3.849762724712491E-003;
2.421666666666667E+009;1.510150283575058E-001;-8.461537957191467E-002;1.367631601169705E-003;3.766224952414632E-003;
2.421833333333334E+009;1.505707800388336E-001;-8.624430000782013E-002;1.602873555384576E-003;3.888642415404320E-003;
2.422000000000000E+009;1.501311808824539E-001;-8.804747462272644E-002;1.705560600385070E-003;3.904070006683469E-003;
2.422166666666667E+009;1.499339342117310E-001;-8.989547193050385E-002;1.698996289633215E-003;3.999381326138973E-003;
2.422333333333334E+009;1.498164832592011E-001;-9.144594520330429E-002;1.866859267465770E-003;4.010468721389771E-003;
2.422500000000000E+009;1.496074646711350E-001;-9.316149353981018E-002;1.994515070691705E-003;3.967483993619680E-003;
2.422666666666667E+009;1.495144516229630E-001;-9.479088336229324E-002;2.372273243963718E-003;3.922066651284695E-003;
2.422833333333334E+009;1.496151834726334E-001;-9.661256521940231E-002;2.440519630908966E-003;4.042943939566612E-003;
2.423000000000000E+009;1.496244966983795E-001;-9.802605211734772E-002;2.535445382818580E-003;3.909928724169731E-003;
2.423166666666667E+009;1.499912589788437E-001;-9.995105862617493E-002;2.678176853805780E-003;4.017979372292757E-003;
2.423333333333334E+009;1.501936167478561E-001;-1.011549979448319E-001;2.918120939284563E-003;3.933700267225504E-003;
2.423500000000000E+009;1.505079865455627E-001;-1.028880849480629E-001;3.143797628581524E-003;3.871723776683211E-003;
2.423666666666667E+009;1.506538838148117E-001;-1.044030040502548E-001;3.162772860378027E-003;3.626061370596290E-003;
2.423833333333334E+009;1.511289328336716E-001;-1.056284308433533E-001;3.476634388789535E-003;3.795320866629481E-003;
2.424000000000000E+009;1.515559852123261E-001;-1.069943457841873E-001;3.619038732722402E-003;3.647647565230727E-003;
2.424166666666667E+009;1.518711298704147E-001;-1.082423329353333E-001;3.721417393535376E-003;3.605382051318884E-003;
2.424333333333334E+009;1.524506658315659E-001;-1.094567254185677E-001;4.128369968384504E-003;3.303157165646553E-003;
2.424500000000000E+009;1.528121531009674E-001;-1.106310114264488E-001;4.161641933023930E-003;3.287101630121470E-003;
2.424666666666667E+009;1.533604413270950E-001;-1.113921776413918E-001;4.416681826114655E-003;3.099879715591669E-003;
2.424833333333334E+009;1.537203639745712E-001;-1.124216914176941E-001;4.405498038977385E-003;3.046007594093680E-003;
2.425000000000000E+009;1.542713493108749E-001;-1.134232431650162E-001;4.728425294160843E-003;2.950242487713695E-003;
2.425166666666667E+009;1.543831378221512E-001;-1.142332479357719E-001;4.761758726090193E-003;2.722197677940130E-003;
2.425333333333334E+009;1.548893302679062E-001;-1.148922443389893E-001;4.884887021034956E-003;2.600383246317506E-003;
2.425500000000000E+009;1.551863551139832E-001;-1.156161800026894E-001;5.422512535005808E-003;2.413382055237889E-003;
2.425666666666667E+009;1.554078608751297E-001;-1.161403134465218E-001;5.188765935599804E-003;2.187952399253845E-003;
2.425833333333334E+009;1.556630134582520E-001;-1.166940033435822E-001;5.452848970890045E-003;2.054055687040091E-003;
2.426000000000000E+009;1.558389067649841E-001;-1.172175928950310E-001;5.525843240320683E-003;1.984925474971533E-003;
2.426166666666667E+009;1.561643481254578E-001;-1.175409778952599E-001;5.543685052543879E-003;1.518297940492630E-003;
2.426333333333334E+009;1.559753865003586E-001;-1.179710328578949E-001;5.705073475837708E-003;1.458568847738206E-003;
2.426500000000000E+009;1.559986472129822E-001;-1.181201040744782E-001;5.728514865040779E-003;1.038058660924435E-003;
2.426666666666667E+009;1.560644209384918E-001;-1.183071881532669E-001;5.668563302606344E-003;9.735073545016348E-004;
2.426833333333334E+009;1.557336896657944E-001;-1.184721887111664E-001;5.814984906464815E-003;5.722556379623711E-004;
2.427000000000000E+009;1.555332392454147E-001;-1.186883077025414E-001;5.878167226910591E-003;4.827770171687007E-004;
2.427166666666667E+009;1.550404876470566E-001;-1.187909543514252E-001;5.894714500755072E-003;2.769148559309542E-004;
2.427333333333334E+009;1.544729769229889E-001;-1.188426986336708E-001;5.719267763197422E-003;-1.173214113805443E-004;
2.427500000000000E+009;1.540838181972504E-001;-1.188971698284149E-001;5.893922876566649E-003;-2.271094563184306E-004;
2.427666666666667E+009;1.534561514854431E-001;-1.192386075854302E-001;5.887353327125311E-003;-4.625783185474575E-004;
2.427833333333334E+009;1.524799764156342E-001;-1.192061752080917E-001;5.834585521370173E-003;-7.349277730099857E-004;
