# Version 1.00
#
freq[Hz];re:Trc1_S11;im:Trc1_S11;re:Trc2_S21;im:Trc2_S21;
2.400000000000000E+009;1.582090258598328E-001;6.204582378268242E-002;1.243930775672197E-003;-3.653991036117077E-003;
2.400166666666667E+009;1.580781489610672E-001;6.037949398159981E-002;1.205715467222035E-003;-3.619505558162928E-003;
2.400333333333334E+009;1.580006182193756E-001;5.837029218673706E-002;1.194272306747735E-003;-3.639806993305683E-003;
2.400500000000000E+009;1.580378562211990E-001;5.649093538522720E-002;1.062899245880544E-003;-3.772184718400240E-003;
2.400666666666667E+009;1.581429690122604E-001;5.461204797029495E-002;1.110796350985766E-003;-3.534645540639758E-003;
2.400833333333334E+009;1.581590324640274E-001;5.257238447666168E-002;1.001340802758932E-003;-3.837318159639835E-003;
2.401000000000000E+009;1.582905054092407E-001;5.062855035066605E-002;1.056960085406900E-003;-4.302182700484991E-003;
2.401166666666667E+009;1.585382819175720E-001;4.864458739757538E-002;8.362951921299100E-004;-4.055338446050882E-003;
2.401333333333334E+009;1.586614996194840E-001;4.638614505529404E-002;7.828437373973429E-004;-4.136368632316589E-003;
2.401500000000000E+009;1.590769588947296E-001;4.455819725990295E-002;8.112156647257507E-004;-4.272879101336002E-003;
2.401666666666667E+009;1.592743098735809E-001;4.261550679802895E-002;5.729531985707581E-004;-4.367628134787083E-003;
2.401833333333334E+009;1.597937792539597E-001;4.055963456630707E-002;4.894685116596520E-004;-4.510487429797649E-003;
2.402000000000000E+009;1.600805073976517E-001;3.862886130809784E-002;3.711478784680367E-004;-4.669508431106806E-003;
2.402166666666667E+009;1.606312990188599E-001;3.651438280940056E-002;4.550993980956264E-005;-4.807788878679276E-003;
2.402333333333334E+009;1.611604839563370E-001;3.470587357878685E-002;2.345479697396513E-005;-4.791434388607740E-003;
2.402500000000000E+009;1.620967239141464E-001;3.296526148915291E-002;-2.716493327170610E-004;-5.083728116005659E-003;
2.402666666666667E+009;1.626087129116058E-001;3.128255158662796E-002;-3.969857643824071E-004;-5.051829852163792E-003;
2.402833333333334E+009;1.632716506719589E-001;2.970116026699543E-002;-6.641118670813739E-004;-5.050507374107838E-003;
2.403000000000000E+009;1.642817258834839E-001;2.795805409550667E-002;-8.723080391064286E-004;-5.104144569486380E-003;
2.403166666666667E+009;1.652236878871918E-001;2.635568194091320E-002;-1.194402109831572E-003;-5.038647912442684E-003;
2.403333333333334E+009;1.659178882837296E-001;2.494671009480953E-002;-1.475427998229861E-003;-5.212324205785990E-003;
2.403500000000000E+009;1.666050851345062E-001;2.366080507636070E-002;-1.780122751370072E-003;-5.053846165537834E-003;
2.403666666666667E+009;1.676635891199112E-001;2.223396860063076E-002;-1.939328154549003E-003;-5.162535235285759E-003;
2.403833333333334E+009;1.688881963491440E-001;2.103425934910774E-002;-2.249606186524034E-003;-4.939248785376549E-003;
2.404000000000000E+009;1.695773154497147E-001;1.974405534565449E-002;-2.560184337198734E-003;-4.834066145122051E-003;
2.404166666666667E+009;1.705647855997086E-001;1.860938034951687E-002;-2.952626440674067E-003;-4.862192086875439E-003;
2.404333333333334E+009;1.714086383581162E-001;1.766140013933182E-002;-3.123825183138251E-003;-4.617163911461830E-003;
2.404500000000000E+009;1.721721291542053E-001;1.656608097255230E-002;-3.200411563739181E-003;-4.601807799190283E-003;
2.404666666666667E+009;1.732525825500488E-001;1.575803942978382E-002;-3.527970984578133E-003;-4.442754201591015E-003;
2.404833333333334E+009;1.740528494119644E-001;1.496553793549538E-002;-3.823525272309780E-003;-4.060833249241114E-003;
2.405000000000000E+009;1.747697144746780E-001;1.422123145312071E-002;-3.902382450178266E-003;-3.935583867132664E-003;
2.405166666666667E+009;1.756205707788467E-001;1.349438633769751E-002;-4.056495148688555E-003;-3.826010739430785E-003;
2.405333333333334E+009;1.765935719013214E-001;1.284882705658674E-002;-4.016587976366282E-003;-3.390545956790447E-003;
2.405500000000000E+009;1.770500540733337E-001;1.252858992666006E-002;-4.265446215867996E-003;-3.360404400154948E-003;
2.405666666666667E+009;1.776743382215500E-001;1.194739807397127E-002;-4.252177197486162E-003;-3.180486150085926E-003;
2.405833333333334E+009;1.782851517200470E-001;1.168838329613209E-002;-4.432404413819313E-003;-2.913895528763533E-003;
2.406000000000000E+009;1.787750571966171E-001;1.111324131488800E-002;-4.557502456009388E-003;-2.713832771405578E-003;
2.406166666666667E+009;1.792107969522476E-001;1.097116991877556E-002;-4.614821169525385E-003;-2.633262658491731E-003;
2.406333333333334E+009;1.795169264078140E-001;1.051934156566858E-002;-4.645090084522963E-003;-2.244887873530388E-003;
2.406500000000000E+009;1.799279749393463E-001;1.012946851551533E-002;-4.752336535602808E-003;-2.186581026762724E-003;
2.406666666666667E+009;1.798293590545654E-001;9.852633811533451E-003;-4.611588083207607E-003;-1.922268536873162E-003;
2.406833333333334E+009;1.801402121782303E-001;9.411143139004707E-003;-4.520466551184654E-003;-1.734545454382896E-003;
2.407000000000000E+009;1.803763061761856E-001;9.174819104373455E-003;-4.740951582789421E-003;-1.700354623608291E-003;
2.407166666666667E+009;1.802780181169510E-001;8.856201544404030E-003;-4.753103014081717E-003;-1.445530215278268E-003;
2.407333333333334E+009;1.801942586898804E-001;8.153215050697327E-003;-4.942074883729219E-003;-1.366762211546302E-003;
2.407500000000000E+009;1.799816787242889E-001;7.944386452436447E-003;-4.777866881340742E-003;-1.090566045604646E-003;
2.407666666666667E+009;1.797100305557251E-001;7.379762362688780E-003;-4.668262321501970E-003;-9.234642493538559E-004;
2.407833333333334E+009;1.792389452457428E-001;6.731980945914984E-003;-4.760095383971930E-003;-7.403207710012794E-004;
2.408000000000000E+009;1.791005581617355E-001;6.144512910395861E-003;-4.671077243983746E-003;-6.162161007523537E-004;
2.408166666666667E+009;1.786479800939560E-001;5.613502115011215E-003;-4.794214386492968E-003;-5.059653776697815E-004;
2.408333333333334E+009;1.782815456390381E-001;4.783216398209333E-003;-4.729841835796833E-003;-4.184864228591323E-004;
2.408500000000000E+009;1.777024120092392E-001;3.787081921473146E-003;-4.591883160173893E-003;-1.768115762388334E-004;
2.408666666666667E+009;1.771149784326553E-001;3.052150132134557E-003;-4.750724881887436E-003;-4.378573430585675E-005;
2.408833333333334E+009;1.763892173767090E-001;2.036142162978649E-003;-4.606713540852070E-003;2.359480859013274E-004;
2.409000000000000E+009;1.758612543344498E-001;1.094947219826281E-003;-4.609025549143553E-003;2.943249710369855E-004;
2.409166666666667E+009;1.751884967088699E-001;-3.058858783333562E-005;-4.469980951398611E-003;4.391193215269595E-004;
2.409333333333334E+009;1.746871620416641E-001;-1.365710864774883E-003;-4.442346282303333E-003;6.479716976173222E-004;
2.409500000000000E+009;1.740080863237381E-001;-2.723676152527332E-003;-4.489868413656950E-003;6.090194219723344E-004;
2.409666666666667E+009;1.731031984090805E-001;-4.014997743070126E-003;-4.413594491779804E-003;6.826269673183560E-004;
2.409833333333334E+009;1.726049482822418E-001;-5.415453575551510E-003;-4.169829655438662E-003;9.513231925666332E-004;
2.410000000000000E+009;1.720954775810242E-001;-6.940143182873726E-003;-4.131851252168417E-003;1.002140226773918E-003;
2.410166666666667E+009;1.713934093713760E-001;-8.527856320142746E-003;-4.209293983876705E-003;1.090150559321046E-003;
2.410333333333334E+009;1.707479506731033E-001;-1.008728705346584E-002;-4.118026699870825E-003;1.278638839721680E-003;
2.410500000000000E+009;1.703010052442551E-001;-1.192143838852644E-002;-4.089268390089274E-003;1.203616964630783E-003;
2.410666666666667E+009;1.699872016906738E-001;-1.371671259403229E-002;-4.008155781775713E-003;1.300982548855245E-003;
2.410833333333334E+009;1.694425195455551E-001;-1.534499973058701E-002;-3.974581602960825E-003;1.506372937001288E-003;
2.411000000000000E+009;1.692346632480621E-001;-1.710287667810917E-002;-3.922561183571816E-003;1.485155429691076E-003;
2.411166666666667E+009;1.687346845865250E-001;-1.896796375513077E-002;-3.781205508857966E-003;1.680635497905314E-003;
2.411333333333334E+009;1.684599369764328E-001;-2.104371413588524E-002;-3.850411856546998E-003;1.696153660304844E-003;
2.411500000000000E+009;1.682873368263245E-001;-2.285915426909924E-002;-3.921932540833950E-003;1.923481817357242E-003;
2.411666666666667E+009;1.684699654579163E-001;-2.479386888444424E-002;-3.704944858327508E-003;1.879213843494654E-003;
2.411833333333334E+009;1.681969463825226E-001;-2.643392607569695E-002;-3.720825305208564E-003;2.117344643920660E-003;
2.412000000000000E+009;1.683633327484131E-001;-2.852160111069679E-002;-3.752186661586165E-003;2.168780891224742E-003;
2.412166666666667E+009;1.683301180601120E-001;-3.041923418641090E-002;-3.482330124825239E-003;2.110238885506988E-003;
2.412333333333334E+009;1.685913354158402E-001;-3.230899944901466E-002;-3.585440805181861E-003;2.447239123284817E-003;
2.412500000000000E+009;1.688794046640396E-001;-3.415583074092865E-002;-3.457999788224697E-003;2.497838111594319E-003;
2.412666666666667E+009;1.691871136426926E-001;-3.614664077758789E-002;-3.296629525721073E-003;2.495441352948546E-003;
2.412833333333334E+009;1.695788204669952E-001;-3.785295039415360E-002;-3.352341707795858E-003;2.517331158742309E-003;
2.413000000000000E+009;1.699215173721314E-001;-3.957676514983177E-002;-3.143600653856993E-003;2.722921082749963E-003;
2.413166666666667E+009;1.704380959272385E-001;-4.140088334679604E-002;-3.272553673014045E-003;2.855944214388728E-003;
2.413333333333334E+009;1.708526462316513E-001;-4.305527359247208E-002;-3.029098967090249E-003;2.875919220969081E-003;
2.413500000000000E+009;1.712109595537186E-001;-4.472002387046814E-002;-2.803066978231072E-003;3.033044282346964E-003;
2.413666666666667E+009;1.718228459358215E-001;-4.609790444374085E-002;-2.781952731311321E-003;3.064781194552779E-003;
2.413833333333334E+009;1.722168922424316E-001;-4.755958169698715E-002;-2.684724517166615E-003;3.271154360845685E-003;
2.414000000000000E+009;1.728034913539887E-001;-4.902686551213265E-002;-2.441064454615116E-003;3.423336427658796E-003;
2.414166666666667E+009;1.733596473932266E-001;-5.035268142819405E-002;-2.476191613823175E-003;3.442027373239398E-003;
2.414333333333334E+009;1.738907694816589E-001;-5.160873755812645E-002;-2.198784612119198E-003;3.412679769098759E-003;
2.414500000000000E+009;1.745469570159912E-001;-5.273956432938576E-002;-2.147412858903408E-003;3.539682831615210E-003;
2.414666666666667E+009;1.748895794153214E-001;-5.364073812961578E-002;-1.922365161590278E-003;3.523229388520122E-003;
2.414833333333334E+009;1.754353940486908E-001;-5.479168519377708E-002;-1.794057432562113E-003;3.723560832440853E-003;
2.415000000000000E+009;1.758723407983780E-001;-5.559873208403587E-002;-1.806920627132058E-003;3.586762817576528E-003;
2.415166666666667E+009;1.761646717786789E-001;-5.644223839044571E-002;-1.646945602260530E-003;3.758456092327833E-003;
2.415333333333334E+009;1.766066402196884E-001;-5.714739859104157E-002;-1.408220967277885E-003;3.692247904837132E-003;
2.415500000000000E+009;1.769089996814728E-001;-5.770876631140709E-002;-1.315959845669568E-003;3.745378460735083E-003;
2.415666666666667E+009;1.770272254943848E-001;-5.833037570118904E-002;-1.330409315414727E-003;3.836363321170211E-003;
2.415833333333334E+009;1.771907806396484E-001;-5.873887985944748E-002;-1.070864149369299E-003;3.682628972455859E-003;
2.416000000000000E+009;1.772101372480393E-001;-5.924224853515625E-002;-1.021059113554657E-003;3.748055780306459E-003;
2.416166666666667E+009;1.774427145719528E-001;-5.958435684442520E-002;-8.925732108764350E-004;3.795186989009380E-003;
2.416333333333334E+009;1.773011982440949E-001;-5.999724939465523E-002;-8.966314489953220E-004;3.649246180430055E-003;
2.416500000000000E+009;1.771916300058365E-001;-6.031887233257294E-002;-7.306830957531929E-004;3.675329498946667E-003;
2.416666666666667E+009;1.768486350774765E-001;-6.048287078738213E-002;-6.803006399422884E-004;3.516462631523609E-003;
2.416833333333334E+009;1.766174882650375E-001;-6.097254157066345E-002;-6.171545246616006E-004;3.615130903199315E-003;
2.417000000000000E+009;1.761539727449417E-001;-6.114505231380463E-002;-5.485222791321576E-004;3.671327140182257E-003;
2.417166666666667E+009;1.756794005632401E-001;-6.136032566428185E-002;-3.909419756382704E-004;3.497268073260784E-003;
2.417333333333334E+009;1.752602756023407E-001;-6.162261217832565E-002;-4.376517317723483E-004;3.379212459549308E-003;
2.417500000000000E+009;1.746027320623398E-001;-6.193001568317413E-002;-3.795356024056673E-004;3.407129086554050E-003;
2.417666666666667E+009;1.738791465759277E-001;-6.211674213409424E-002;-3.607191029004753E-004;3.417093539610505E-003;
2.417833333333334E+009;1.730475574731827E-001;-6.228961795568466E-002;-2.950819907709956E-004;3.501935396343470E-003;
2.418000000000000E+009;1.722110658884049E-001;-6.295701116323471E-002;-2.091367205139250E-004;3.380577312782407E-003;
2.418166666666667E+009;1.712146848440170E-001;-6.301134824752808E-002;-1.064803145709448E-004;3.656490705907345E-003;
2.418333333333334E+009;1.705352067947388E-001;-6.339677423238754E-002;1.166537258541212E-004;3.503650892525911E-003;
2.418500000000000E+009;1.693294793367386E-001;-6.392277032136917E-002;-5.345061799744144E-005;3.616513917222619E-003;
2.418666666666667E+009;1.684857010841370E-001;-6.450692564249039E-002;-3.069535523536615E-005;3.525876207277179E-003;
2.418833333333334E+009;1.670712828636169E-001;-6.503824889659882E-002;5.650039747706614E-005;3.464958164840937E-003;
2.419000000000000E+009;1.659219115972519E-001;-6.568714231252670E-002;1.800451427698135E-004;3.616657340899110E-003;
2.419166666666667E+009;1.648700088262558E-001;-6.641718745231628E-002;2.690141554921866E-004;3.552450332790613E-003;
2.419333333333334E+009;1.635653972625732E-001;-6.692691147327423E-002;2.722273347899318E-004;3.602024400606751E-003;
2.419500000000000E+009;1.624958813190460E-001;-6.803249567747116E-002;3.214780881535262E-004;3.619361203163862E-003;
2.419666666666667E+009;1.614409387111664E-001;-6.901604682207108E-002;4.207516903989017E-004;3.614447079598904E-003;
2.419833333333334E+009;1.602873057126999E-001;-6.961866468191147E-002;3.343465505167842E-004;3.592627355828881E-003;
2.420000000000000E+009;1.592184752225876E-001;-7.098497450351715E-002;6.221230723895133E-004;3.509478410705924E-003;
2.420166666666667E+009;1.581537276506424E-001;-7.185045629739761E-002;6.886540213599801E-004;3.611667780205607E-003;
2.420333333333334E+009;1.569944173097611E-001;-7.329282909631729E-002;6.837047985754907E-004;3.692314960062504E-003;
2.420500000000000E+009;1.559965610504150E-001;-7.417526841163635E-002;6.644671666435897E-004;3.645790508016944E-003;
2.420666666666667E+009;1.550242155790329E-001;-7.559935003519058E-002;7.602387922815979E-004;3.748814575374126E-003;
2.420833333333334E+009;1.542294621467590E-001;-7.715469598770142E-002;8.907238952815533E-004;3.769155358895659E-003;
2.421000000000000E+009;1.532744467258453E-001;-7.852707058191299E-002;9.914175607264042E-004;3.830309957265854E-003;
2.421166666666667E+009;1.525841653347015E-001;-7.997447252273560E-002;1.074935076758266E-003;3.861617064103484E-003;
2.421333333333334E+009;1.519545465707779E-001;-8.175135403871536E-002;1.186643494293094E-003;3.820143640041351E-003;
2.421500000000000E+009;1.512745469808579E-001;-8.306820690631867E-002;1.311252242885530E-003;3.808636683970690E-003;
2.421666666666667E+009;1.509682685136795E-001;-8.486075699329376E-002;1.428489340469241E-003;3.962758928537369E-003;
2.421833333333334E+009;1.505878269672394E-001;-8.653909713029862E-002;1.528223394416273E-003;3.888933919370174E-003;
2.422000000000000E+009;1.499862521886826E-001;-8.814880996942520E-002;1.712763099931181E-003;3.830706235021353E-003;
2.422166666666667E+009;1.498786360025406E-001;-9.010786563158035E-002;1.768003217875958E-003;3.849663771688938E-003;
2.422333333333334E+009;1.496037244796753E-001;-9.142936021089554E-002;1.806552638299763E-003;3.953476436436176E-003;
2.422500000000000E+009;1.494225263595581E-001;-9.307785332202911E-002;1.848879968747497E-003;3.963941708207130E-003;
2.422666666666667E+009;1.494439691305161E-001;-9.486243128776550E-002;2.134075155481696E-003;4.056960809975863E-003;
2.422833333333334E+009;1.494190543889999E-001;-9.651703387498856E-002;2.372588962316513E-003;3.930157981812954E-003;
2.423000000000000E+009;1.494512408971787E-001;-9.801314771175385E-002;2.531787147745490E-003;3.909981343895197E-003;
2.423166666666667E+009;1.499371826648712E-001;-9.958303719758987E-002;2.567413263022900E-003;3.809909103438258E-003;
2.423333333333334E+009;1.501253843307495E-001;-1.011285707354546E-001;2.790082478895783E-003;3.801248269155622E-003;
2.423500000000000E+009;1.504247635602951E-001;-1.027967780828476E-001;2.968398388475180E-003;3.919201437383890E-003;
2.423666666666667E+009;1.504611670970917E-001;-1.042033210396767E-001;3.049605526030064E-003;3.681090893223882E-003;
2.423833333333334E+009;1.510458141565323E-001;-1.057957485318184E-001;3.298316616564989E-003;3.672615159302950E-003;
2.424000000000000E+009;1.514197289943695E-001;-1.069331094622612E-001;3.513888688758016E-003;3.684696741402149E-003;
2.424166666666667E+009;1.518346667289734E-001;-1.082092002034187E-001;3.611775347962976E-003;3.565505146980286E-003;
2.424333333333334E+009;1.523786336183548E-001;-1.093255206942558E-001;3.774077165871859E-003;3.473646007478237E-003;
2.424500000000000E+009;1.528181135654450E-001;-1.105279251933098E-001;4.029690288007259E-003;3.355897963047028E-003;
2.424666666666667E+009;1.533985733985901E-001;-1.113447248935700E-001;4.226365592330694E-003;3.257117467001081E-003;
2.424833333333334E+009;1.537269651889801E-001;-1.123437359929085E-001;4.358939826488495E-003;3.203253494575620E-003;
2.425000000000000E+009;1.541756391525269E-001;-1.134064868092537E-001;4.659391939640045E-003;3.012540517374873E-003;
2.425166666666667E+009;1.544080823659897E-001;-1.140877455472946E-001;4.729958716779947E-003;2.947954460978508E-003;
2.425333333333334E+009;1.548341065645218E-001;-1.148204877972603E-001;4.962002392858267E-003;2.784215379506350E-003;
2.425500000000000E+009;1.552491039037705E-001;-1.156234070658684E-001;5.126697942614555E-003;2.534301718696952E-003;
2.425666666666667E+009;1.553632318973541E-001;-1.161680743098259E-001;5.151111632585526E-003;2.266732975840569E-003;
2.425833333333334E+009;1.556747108697891E-001;-1.166141033172607E-001;5.295861978083849E-003;2.042925916612148E-003;
2.426000000000000E+009;1.558374315500259E-001;-1.171465888619423E-001;5.432697944343090E-003;1.797887380234897E-003;
2.426166666666667E+009;1.560687273740768E-001;-1.175825074315071E-001;5.671222694218159E-003;1.728863338939846E-003;
2.426333333333334E+009;1.559779495000839E-001;-1.178990304470062E-001;5.595807917416096E-003;1.279554911889136E-003;
2.426500000000000E+009;1.561143547296524E-001;-1.180227249860764E-001;5.638094618916512E-003;1.267580315470696E-003;
2.426666666666667E+009;1.560148000717163E-001;-1.182342842221260E-001;5.683927796781063E-003;9.875505929812789E-004;
2.426833333333334E+009;1.557493060827255E-001;-1.184056028723717E-001;5.665314849466085E-003;5.117633845657110E-004;
2.427000000000000E+009;1.553703993558884E-001;-1.186872720718384E-001;5.926700308918953E-003;5.147036863490939E-004;
2.427166666666667E+009;1.550323367118835E-001;-1.187216416001320E-001;5.875785369426012E-003;2.622074389364570E-004;
2.427333333333334E+009;1.545075029134750E-001;-1.188698038458824E-001;5.912476684898138E-003;1.199287726194598E-004;
2.427500000000000E+009;1.540051251649857E-001;-1.190863028168678E-001;5.786438938230276E-003;-3.211244184058160E-004;
2.427666666666667E+009;1.532835066318512E-001;-1.191942691802979E-001;5.647686775773764E-003;-4.986295243725181E-004;
2.427833333333334E+009;1.524605900049210E-001;-1.192975789308548E-001;5.855187773704529E-003;-5.215352866798639E-004;
