# Version 1.00
#
freq[Hz];re:Trc1_S11;im:Trc1_S11;re:Trc2_S21;im:Trc2_S21;
2.400000000000000E+009;1.582587808370590E-001;6.190450116991997E-002;1.284548081457615E-003;-3.426406998187304E-003;
2.400166666666667E+009;1.581963300704956E-001;6.044551357626915E-002;1.240799087099731E-003;-3.402113215997815E-003;
2.400333333333334E+009;1.580791473388672E-001;5.851297453045845E-002;1.159970532171428E-003;-3.657556138932705E-003;
2.400500000000000E+009;1.581579595804215E-001;5.660671368241310E-002;1.067204168066382E-003;-3.654375905171037E-003;
2.400666666666667E+009;1.581364721059799E-001;5.461630970239639E-002;1.086842734366655E-003;-3.743566107004881E-003;
2.400833333333334E+009;1.582117676734924E-001;5.287502706050873E-002;9.027360938489437E-004;-3.789702896028757E-003;
2.401000000000000E+009;1.583016216754913E-001;5.076524615287781E-002;9.298347285948694E-004;-3.844753373414278E-003;
2.401166666666667E+009;1.583987027406693E-001;4.871025681495667E-002;7.303341408260167E-004;-4.144497681409121E-003;
2.401333333333334E+009;1.586058139801025E-001;4.657517746090889E-002;7.921174401417375E-004;-4.142837598919869E-003;
2.401500000000000E+009;1.589541286230087E-001;4.457848146557808E-002;6.441617733798921E-004;-4.251969978213310E-003;
2.401666666666667E+009;1.592378765344620E-001;4.271818697452545E-002;4.695416428148747E-004;-4.340273793786764E-003;
2.401833333333334E+009;1.598501652479172E-001;4.069112241268158E-002;4.118129727430642E-004;-4.527566954493523E-003;
2.402000000000000E+009;1.601926982402802E-001;3.867377340793610E-002;3.879728610627353E-004;-4.619624931365252E-003;
2.402166666666667E+009;1.606139838695526E-001;3.669221699237824E-002;1.456241298001260E-004;-4.746509250253439E-003;
2.402333333333334E+009;1.610573232173920E-001;3.485661000013351E-002;-1.805542560759932E-004;-4.783142823725939E-003;
2.402500000000000E+009;1.619524508714676E-001;3.326604887843132E-002;-2.863511617761105E-004;-5.004333332180977E-003;
2.402666666666667E+009;1.627752929925919E-001;3.136624395847321E-002;-6.766553269699216E-004;-4.999262746423483E-003;
2.402833333333334E+009;1.633282452821732E-001;2.991641312837601E-002;-7.155507919378579E-004;-4.946037661284208E-003;
2.403000000000000E+009;1.640451252460480E-001;2.804493345320225E-002;-1.101944013498724E-003;-4.987404216080904E-003;
2.403166666666667E+009;1.651429533958435E-001;2.647545747458935E-002;-1.217282377183437E-003;-5.165777169167996E-003;
2.403333333333334E+009;1.659327894449234E-001;2.499883621931076E-002;-1.561231911182404E-003;-5.086908582597971E-003;
2.403500000000000E+009;1.667926758527756E-001;2.365365624427795E-002;-1.740950392559171E-003;-5.145949311554432E-003;
2.403666666666667E+009;1.676951795816422E-001;2.215925976634026E-002;-1.905606477521360E-003;-4.960378166288137E-003;
2.403833333333334E+009;1.686803698539734E-001;2.090872079133987E-002;-2.177239395678043E-003;-4.944421816617250E-003;
2.404000000000000E+009;1.697246283292770E-001;1.974668912589550E-002;-2.483624033629894E-003;-4.875411745160818E-003;
2.404166666666667E+009;1.706477999687195E-001;1.860077120363712E-002;-2.856347942724824E-003;-4.572167061269283E-003;
2.404333333333334E+009;1.714329868555069E-001;1.762146316468716E-002;-2.943637315183878E-003;-4.580005537718535E-003;
2.404500000000000E+009;1.722183525562286E-001;1.666296832263470E-002;-3.137278603389859E-003;-4.614650271832943E-003;
2.404666666666667E+009;1.732911318540573E-001;1.590373553335667E-002;-3.551958361640573E-003;-4.340772982686758E-003;
2.404833333333334E+009;1.741170287132263E-001;1.502335071563721E-002;-3.535616444423795E-003;-3.961633425205946E-003;
2.405000000000000E+009;1.749118268489838E-001;1.433990336954594E-002;-3.956400323659182E-003;-3.774874610826373E-003;
2.405166666666667E+009;1.758016645908356E-001;1.353799086064100E-002;-4.028645809739828E-003;-3.702799789607525E-003;
2.405333333333334E+009;1.765484213829041E-001;1.299074664711952E-002;-4.094443283975124E-003;-3.412550315260887E-003;
2.405500000000000E+009;1.771133840084076E-001;1.250384375452995E-002;-4.262712318450213E-003;-3.270684508606792E-003;
2.405666666666667E+009;1.777731627225876E-001;1.198894716799259E-002;-4.313223529607058E-003;-3.088646568357945E-003;
2.405833333333334E+009;1.781571209430695E-001;1.162685733288527E-002;-4.288798663765192E-003;-2.860168227925897E-003;
2.406000000000000E+009;1.789361983537674E-001;1.101162657141686E-002;-4.458817653357983E-003;-2.460890216752887E-003;
2.406166666666667E+009;1.791433691978455E-001;1.078595686703920E-002;-4.557539708912373E-003;-2.467169426381588E-003;
2.406333333333334E+009;1.796791255474091E-001;1.062719896435738E-002;-4.544303286820650E-003;-2.219878369942308E-003;
2.406500000000000E+009;1.799136698246002E-001;1.014563348144293E-002;-4.704256076365709E-003;-2.066969871520996E-003;
2.406666666666667E+009;1.799478530883789E-001;9.892383590340614E-003;-4.614673089236021E-003;-1.967883203178644E-003;
2.406833333333334E+009;1.802159398794174E-001;9.428736753761768E-003;-4.628479480743408E-003;-1.646231161430478E-003;
2.407000000000000E+009;1.802688091993332E-001;9.108606725931168E-003;-4.695883020758629E-003;-1.595394453033805E-003;
2.407166666666667E+009;1.804302185773850E-001;8.869211189448834E-003;-4.533108789473772E-003;-1.319735776633024E-003;
2.407333333333334E+009;1.801721453666687E-001;8.270263671875000E-003;-4.769146908074617E-003;-1.172667136415839E-003;
2.407500000000000E+009;1.799581199884415E-001;7.903370074927807E-003;-4.767564125359058E-003;-1.021637697704136E-003;
2.407666666666667E+009;1.798499375581741E-001;7.490670308470726E-003;-4.722170066088438E-003;-9.376949165016413E-004;
2.407833333333334E+009;1.793327331542969E-001;6.772820837795734E-003;-4.626181442290545E-003;-6.902689347043634E-004;
2.408000000000000E+009;1.790961921215057E-001;6.076666992157698E-003;-4.733842797577381E-003;-5.557052209042013E-004;
2.408166666666667E+009;1.785101294517517E-001;5.682092625647783E-003;-4.717087373137474E-003;-5.147040938027203E-004;
2.408333333333334E+009;1.783185899257660E-001;4.749116022139788E-003;-4.713169299066067E-003;-2.875393547583371E-004;
2.408500000000000E+009;1.775762736797333E-001;3.925455268472433E-003;-4.607579670846462E-003;-1.640664850128815E-004;
2.408666666666667E+009;1.771285533905029E-001;3.083104966208339E-003;-4.611853510141373E-003;1.185677774628857E-005;
2.408833333333334E+009;1.764487326145172E-001;1.976974308490753E-003;-4.468147642910481E-003;9.685679833637551E-005;
2.409000000000000E+009;1.758966296911240E-001;1.167197478935123E-003;-4.570452496409416E-003;3.228936402592808E-004;
2.409166666666667E+009;1.752892285585403E-001;-1.598145026946440E-004;-4.478796850889921E-003;4.226775781717151E-004;
2.409333333333334E+009;1.746024340391159E-001;-1.303256372921169E-003;-4.432181362062693E-003;5.865493440069258E-004;
2.409500000000000E+009;1.739308536052704E-001;-2.746285405009985E-003;-4.256288520991802E-003;6.255824700929225E-004;
2.409666666666667E+009;1.731446385383606E-001;-4.036686848849058E-003;-4.220736213028431E-003;6.245364202186465E-004;
2.409833333333334E+009;1.724399477243424E-001;-5.306934937834740E-003;-4.168289247900248E-003;8.812884916551411E-004;
2.410000000000000E+009;1.719775795936585E-001;-6.935277953743935E-003;-4.222859162837267E-003;9.471009252592921E-004;
2.410166666666667E+009;1.712604463100433E-001;-8.319429121911526E-003;-4.221253097057343E-003;1.086145057342947E-003;
2.410333333333334E+009;1.707269549369812E-001;-1.019398123025894E-002;-4.145586863160133E-003;1.133280340582132E-003;
2.410500000000000E+009;1.701669692993164E-001;-1.189948432147503E-002;-4.014372359961271E-003;1.325404387898743E-003;
2.410666666666667E+009;1.698218435049057E-001;-1.356746628880501E-002;-3.930603619664908E-003;1.394624006934464E-003;
2.410833333333334E+009;1.694291383028030E-001;-1.524192932993174E-002;-3.893476678058505E-003;1.407601754181087E-003;
2.411000000000000E+009;1.691230684518814E-001;-1.719641312956810E-002;-3.851257730275393E-003;1.619974034838378E-003;
2.411166666666667E+009;1.687635183334351E-001;-1.916572824120522E-002;-4.034416750073433E-003;1.587552018463612E-003;
2.411333333333334E+009;1.683807969093323E-001;-2.094595879316330E-002;-3.719027852639556E-003;1.773109892383218E-003;
2.411500000000000E+009;1.683335602283478E-001;-2.289322391152382E-002;-3.750960575416684E-003;1.948567922227085E-003;
2.411666666666667E+009;1.683730334043503E-001;-2.472438476979733E-002;-3.571408335119486E-003;2.111508743837476E-003;
2.411833333333334E+009;1.683036088943481E-001;-2.664285711944103E-002;-3.689401550218463E-003;1.974312355741859E-003;
2.412000000000000E+009;1.685271859169006E-001;-2.859424613416195E-002;-3.548318753018975E-003;1.961861271411181E-003;
2.412166666666667E+009;1.684801727533341E-001;-3.071916103363037E-002;-3.391426289454103E-003;2.175307134166360E-003;
2.412333333333334E+009;1.687247306108475E-001;-3.226933628320694E-002;-3.585212398320437E-003;2.286983886733651E-003;
2.412500000000000E+009;1.688306182622910E-001;-3.410538285970688E-002;-3.402695758268237E-003;2.273396123200655E-003;
2.412666666666667E+009;1.692096143960953E-001;-3.620703145861626E-002;-3.307282226160169E-003;2.385629108175635E-003;
2.412833333333334E+009;1.695233881473541E-001;-3.780930861830711E-002;-3.246978158131242E-003;2.652498427778482E-003;
2.413000000000000E+009;1.700152754783630E-001;-3.972141817212105E-002;-3.211406525224447E-003;2.622616477310658E-003;
2.413166666666667E+009;1.703675687313080E-001;-4.141131415963173E-002;-3.123020054772496E-003;2.960811601951718E-003;
2.413333333333334E+009;1.708052456378937E-001;-4.302095994353294E-002;-3.072564490139484E-003;3.096506930887699E-003;
2.413500000000000E+009;1.713577359914780E-001;-4.466497525572777E-002;-2.942708320915699E-003;3.056355286389589E-003;
2.413666666666667E+009;1.719959229230881E-001;-4.613193124532700E-002;-2.814843319356442E-003;3.150084987282753E-003;
2.413833333333334E+009;1.723879277706146E-001;-4.767787083983421E-002;-2.819826826453209E-003;3.295601112768054E-003;
2.414000000000000E+009;1.729011982679367E-001;-4.903795197606087E-002;-2.645708620548248E-003;3.410091390833259E-003;
2.414166666666667E+009;1.733212620019913E-001;-5.031802877783775E-002;-2.467969199642539E-003;3.400938818231225E-003;
2.414333333333334E+009;1.738859266042709E-001;-5.170679092407227E-002;-2.239863621070981E-003;3.515871241688728E-003;
2.414500000000000E+009;1.746866554021835E-001;-5.269127339124680E-002;-2.257586456835270E-003;3.474423196166754E-003;
2.414666666666667E+009;1.748215258121491E-001;-5.378570407629013E-002;-2.090929308906198E-003;3.590740729123354E-003;
2.414833333333334E+009;1.753218770027161E-001;-5.486552044749260E-002;-1.788953552022576E-003;3.830140922218561E-003;
2.415000000000000E+009;1.757874488830566E-001;-5.554963275790215E-002;-1.756100449711084E-003;3.666151547804475E-003;
2.415166666666667E+009;1.762468665838242E-001;-5.648488178849220E-002;-1.623493619263172E-003;3.641781397163868E-003;
2.415333333333334E+009;1.765442937612534E-001;-5.714276060461998E-002;-1.398729393258691E-003;3.822366241365671E-003;
2.415500000000000E+009;1.768039613962174E-001;-5.775408819317818E-002;-1.356941764242947E-003;3.676827764138579E-003;
2.415666666666667E+009;1.770016998052597E-001;-5.833309888839722E-002;-1.264600781723857E-003;3.586145350709558E-003;
2.415833333333334E+009;1.773272454738617E-001;-5.888504907488823E-002;-1.273945206776261E-003;3.651772858574987E-003;
2.416000000000000E+009;1.772774308919907E-001;-5.921307578682900E-002;-1.056839479133487E-003;3.754015080630779E-003;
2.416166666666667E+009;1.774135679006577E-001;-5.972953513264656E-002;-9.376902598887682E-004;3.567201085388660E-003;
2.416333333333334E+009;1.772425621747971E-001;-5.994378402829170E-002;-8.817354682832956E-004;3.551495959982276E-003;
2.416500000000000E+009;1.771484613418579E-001;-6.031389161944389E-002;-8.321113418787718E-004;3.548442386090756E-003;
2.416666666666667E+009;1.768966168165207E-001;-6.047026067972183E-002;-7.253122748807073E-004;3.674687352031469E-003;
2.416833333333334E+009;1.766600608825684E-001;-6.094901636242867E-002;-6.014564423821867E-004;3.620858304202557E-003;
2.417000000000000E+009;1.761602610349655E-001;-6.123192608356476E-002;-5.731830024160445E-004;3.395974403247237E-003;
2.417166666666667E+009;1.757673323154450E-001;-6.135964393615723E-002;-6.090519600547850E-004;3.487596753984690E-003;
2.417333333333334E+009;1.752616018056870E-001;-6.155848130583763E-002;-5.311190034262836E-004;3.357305657118559E-003;
2.417500000000000E+009;1.745504885911942E-001;-6.187695264816284E-002;-3.876260598190129E-004;3.476171987131238E-003;
2.417666666666667E+009;1.739360988140106E-001;-6.197220087051392E-002;-4.764952464029193E-004;3.420416964218020E-003;
2.417833333333334E+009;1.731273680925369E-001;-6.233616173267365E-002;-3.226528060622513E-004;3.550845663994551E-003;
2.418000000000000E+009;1.721771508455277E-001;-6.271255761384964E-002;-1.992491306737065E-004;3.438455518335104E-003;
2.418166666666667E+009;1.712846755981445E-001;-6.291291862726212E-002;-2.737555478233844E-004;3.500860184431076E-003;
2.418333333333334E+009;1.705745309591293E-001;-6.348063796758652E-002;-1.111819510697387E-004;3.498163074254990E-003;
2.418500000000000E+009;1.694576591253281E-001;-6.396905332803726E-002;-8.106149471132085E-005;3.537956625223160E-003;
2.418666666666667E+009;1.685075610876083E-001;-6.446612626314163E-002;1.831466397561599E-005;3.577654017135501E-003;
2.418833333333334E+009;1.671446263790131E-001;-6.508096307516098E-002;-2.110665809595957E-005;3.356159199029207E-003;
2.419000000000000E+009;1.661202609539032E-001;-6.561248749494553E-002;-3.983911938121310E-006;3.597487695515156E-003;
2.419166666666667E+009;1.649351865053177E-001;-6.628117710351944E-002;1.258997072000057E-004;3.584417048841715E-003;
2.419333333333334E+009;1.637590378522873E-001;-6.692000478506088E-002;1.182548439828679E-004;3.628904465585947E-003;
2.419500000000000E+009;1.624656170606613E-001;-6.800041347742081E-002;1.103078611777164E-004;3.553056856617332E-003;
2.419666666666667E+009;1.614243984222412E-001;-6.888506561517716E-002;3.351226041559130E-004;3.605958074331284E-003;
2.419833333333334E+009;1.601754128932953E-001;-6.974167376756668E-002;3.887095954269171E-004;3.622584044933319E-003;
2.420000000000000E+009;1.592399924993515E-001;-7.072613388299942E-002;4.571356112137437E-004;3.740061540156603E-003;
2.420166666666667E+009;1.579729914665222E-001;-7.198358327150345E-002;5.741688655689359E-004;3.696414642035961E-003;
2.420333333333334E+009;1.570039838552475E-001;-7.316623628139496E-002;5.841735983267427E-004;3.735932754352689E-003;
2.420500000000000E+009;1.560839116573334E-001;-7.424405217170715E-002;5.757916951552033E-004;3.702852409332991E-003;
2.420666666666667E+009;1.552402377128601E-001;-7.546426355838776E-002;6.361274863593280E-004;3.869107691571116E-003;
2.420833333333334E+009;1.542649716138840E-001;-7.706172019243240E-002;8.229363593272865E-004;3.683222457766533E-003;
2.421000000000000E+009;1.533921509981155E-001;-7.856939733028412E-002;8.551932987757027E-004;3.772923722863197E-003;
2.421166666666667E+009;1.527554839849472E-001;-7.996293157339096E-002;1.007337239570916E-003;3.736548824235797E-003;
2.421333333333334E+009;1.520531624555588E-001;-8.156886696815491E-002;1.019407995045185E-003;3.726951079443097E-003;
2.421500000000000E+009;1.514526754617691E-001;-8.329475671052933E-002;1.210724236443639E-003;3.848750842735171E-003;
2.421666666666667E+009;1.509085893630981E-001;-8.475263416767120E-002;1.335431705228984E-003;3.966484218835831E-003;
2.421833333333334E+009;1.505395174026489E-001;-8.636998385190964E-002;1.421419088728726E-003;3.851469838991761E-003;
2.422000000000000E+009;1.501033753156662E-001;-8.812321722507477E-002;1.607511425390840E-003;3.924545831978321E-003;
2.422166666666667E+009;1.499644070863724E-001;-8.990509063005447E-002;1.723174354992807E-003;4.104661289602518E-003;
2.422333333333334E+009;1.497562825679779E-001;-9.147938340902329E-002;1.828147214837372E-003;3.955078776925802E-003;
2.422500000000000E+009;1.495348960161209E-001;-9.302626550197601E-002;1.992026809602976E-003;3.981227055191994E-003;
2.422666666666667E+009;1.492760181427002E-001;-9.473904222249985E-002;2.113299677148461E-003;4.051653668284416E-003;
2.422833333333334E+009;1.495533734560013E-001;-9.654725342988968E-002;2.276953076943755E-003;3.926006611436606E-003;
2.423000000000000E+009;1.496314406394959E-001;-9.809981286525726E-002;2.326059853658080E-003;3.783228807151318E-003;
2.423166666666667E+009;1.498438566923142E-001;-9.966153651475906E-002;2.560904948040843E-003;3.942522220313549E-003;
2.423333333333334E+009;1.502464115619659E-001;-1.009747609496117E-001;2.695297356694937E-003;3.895531874150038E-003;
2.423500000000000E+009;1.504112631082535E-001;-1.028326079249382E-001;2.979660872370005E-003;3.786617657169700E-003;
2.423666666666667E+009;1.504883170127869E-001;-1.043587625026703E-001;3.157597966492176E-003;3.652784973382950E-003;
2.423833333333334E+009;1.511598080396652E-001;-1.058149114251137E-001;3.342416137456894E-003;3.777846461161971E-003;
2.424000000000000E+009;1.513885110616684E-001;-1.068603247404099E-001;3.489940892904997E-003;3.759160637855530E-003;
2.424166666666667E+009;1.518772989511490E-001;-1.081410497426987E-001;3.624178934842348E-003;3.623984055593610E-003;
2.424333333333334E+009;1.524728238582611E-001;-1.094118207693100E-001;3.832659451290965E-003;3.388828132301569E-003;
2.424500000000000E+009;1.527740806341171E-001;-1.104874089360237E-001;4.003817215561867E-003;3.478034166619182E-003;
2.424666666666667E+009;1.533295512199402E-001;-1.113284900784493E-001;4.188153427094221E-003;3.276163479313254E-003;
2.424833333333334E+009;1.535421013832092E-001;-1.123781949281693E-001;4.499870818108320E-003;3.108300501480699E-003;
2.425000000000000E+009;1.540714353322983E-001;-1.133117899298668E-001;4.538659006357193E-003;2.967762760818005E-003;
2.425166666666667E+009;1.543639749288559E-001;-1.141252592206001E-001;4.783332347869873E-003;2.646919107064605E-003;
2.425333333333334E+009;1.548299044370651E-001;-1.148180887103081E-001;4.897526931017637E-003;2.606966765597463E-003;
2.425500000000000E+009;1.552798897027969E-001;-1.155187189579010E-001;5.066601093858481E-003;2.460063667967916E-003;
2.425666666666667E+009;1.553423851728439E-001;-1.160166636109352E-001;5.190705880522728E-003;2.211026614531875E-003;
2.425833333333334E+009;1.557113826274872E-001;-1.165909618139267E-001;5.213929340243340E-003;2.000524196773768E-003;
2.426000000000000E+009;1.558424532413483E-001;-1.172084957361221E-001;5.395573563873768E-003;1.722960383631289E-003;
2.426166666666667E+009;1.560893505811691E-001;-1.176020205020905E-001;5.402273498475552E-003;1.605534926056862E-003;
2.426333333333334E+009;1.559905409812927E-001;-1.178497895598412E-001;5.629283841699362E-003;1.345414202660322E-003;
2.426500000000000E+009;1.560256481170654E-001;-1.181872412562370E-001;5.717765074223280E-003;1.159706269390881E-003;
2.426666666666667E+009;1.560062617063522E-001;-1.181643977761269E-001;5.629774648696184E-003;9.491106029599905E-004;
2.426833333333334E+009;1.557223647832871E-001;-1.183670088648796E-001;5.868653766810894E-003;5.480922409333289E-004;
2.427000000000000E+009;1.554521620273590E-001;-1.187258437275887E-001;5.806159228086472E-003;4.952761810272932E-004;
2.427166666666667E+009;1.551188975572586E-001;-1.185499355196953E-001;5.788955371826887E-003;2.513155632186681E-004;
2.427333333333334E+009;1.544464528560638E-001;-1.188606768846512E-001;5.856705829501152E-003;1.721396620268934E-005;
2.427500000000000E+009;1.540890336036682E-001;-1.190570369362831E-001;5.528806243091822E-003;-5.900749965803698E-005;
2.427666666666667E+009;1.534312069416046E-001;-1.192471086978912E-001;5.794101860374212E-003;-3.881381417158991E-004;
