# Version 1.00
#
freq[Hz];re:Trc1_S11;im:Trc1_S11;re:Trc2_S21;im:Trc2_S21;
2.400000000000000E+009;1.582254022359848E-001;6.200524419546127E-002;1.040148898027837E-003;-3.396148793399334E-003;
2.400166666666667E+009;1.581154167652130E-001;6.048697978258133E-002;9.452498634345830E-004;-3.497744677588344E-003;
2.400333333333334E+009;1.581391394138336E-001;5.847424268722534E-002;1.003118930384517E-003;-3.406926058232784E-003;
2.400500000000000E+009;1.581716537475586E-001;5.669638514518738E-002;9.376106318086386E-004;-3.632271196693182E-003;
2.400666666666667E+009;1.580690890550613E-001;5.461701378226280E-002;9.045111364684999E-004;-3.657259745523334E-003;
2.400833333333334E+009;1.581846922636032E-001;5.273898690938950E-002;7.239564438350499E-004;-3.833797527477145E-003;
2.401000000000000E+009;1.584242135286331E-001;5.086774751543999E-002;6.516515859402716E-004;-3.748771036043763E-003;
2.401166666666667E+009;1.585800796747208E-001;4.862394183874130E-002;5.438574589788914E-004;-4.053166601806879E-003;
2.401333333333334E+009;1.586401909589768E-001;4.662375524640083E-002;5.689396057277918E-004;-4.108644090592861E-003;
2.401500000000000E+009;1.591378450393677E-001;4.473571106791496E-002;3.751448239199817E-004;-4.138571210205555E-003;
2.401666666666667E+009;1.593431681394577E-001;4.253266006708145E-002;3.636340552475303E-004;-4.358313977718353E-003;
2.401833333333334E+009;1.597758233547211E-001;4.053395241498947E-002;1.396802836097777E-004;-4.399434663355351E-003;
2.402000000000000E+009;1.601308137178421E-001;3.870075941085815E-002;8.177503332262859E-005;-4.359838552772999E-003;
2.402166666666667E+009;1.607914865016937E-001;3.669750690460205E-002;7.031172117422102E-006;-4.649265669286251E-003;
2.402333333333334E+009;1.611755490303040E-001;3.486235812306404E-002;-3.652287705335766E-004;-4.613396245986223E-003;
2.402500000000000E+009;1.619961559772492E-001;3.305547684431076E-002;-5.613724351860583E-004;-4.755752626806498E-003;
2.402666666666667E+009;1.625794619321823E-001;3.132370114326477E-002;-8.069053874351084E-004;-4.820067901164293E-003;
2.402833333333334E+009;1.634391546249390E-001;2.963248267769814E-002;-9.367068414576352E-004;-4.992614500224590E-003;
2.403000000000000E+009;1.642029732465744E-001;2.796090580523014E-002;-1.153060817159712E-003;-4.911208059638739E-003;
2.403166666666667E+009;1.650639027357101E-001;2.632593177258968E-002;-1.507859793491662E-003;-4.980023950338364E-003;
2.403333333333334E+009;1.660002917051315E-001;2.511124871671200E-002;-1.715947990305722E-003;-4.878776147961617E-003;
2.403500000000000E+009;1.666517555713654E-001;2.366913668811321E-002;-1.680606044828892E-003;-4.939909558743238E-003;
2.403666666666667E+009;1.676555275917053E-001;2.219244278967381E-002;-2.107675652951002E-003;-4.881971050053835E-003;
2.403833333333334E+009;1.688215434551239E-001;2.089549973607063E-002;-2.470409963279963E-003;-4.701344761997461E-003;
2.404000000000000E+009;1.695641875267029E-001;1.977617293596268E-002;-2.774808788672090E-003;-4.553672391921282E-003;
2.404166666666667E+009;1.705710738897324E-001;1.852762512862682E-002;-2.879217732697725E-003;-4.437920171767473E-003;
2.404333333333334E+009;1.714375466108322E-001;1.758640073239803E-002;-3.114139661192894E-003;-4.479445051401854E-003;
2.404500000000000E+009;1.723117977380753E-001;1.660463213920593E-002;-3.358779009431601E-003;-4.389927722513676E-003;
2.404666666666667E+009;1.731499284505844E-001;1.584766991436482E-002;-3.637472633272409E-003;-3.956574015319347E-003;
2.404833333333334E+009;1.742160618305206E-001;1.503959391266108E-002;-3.800827311351895E-003;-3.752073273062706E-003;
2.405000000000000E+009;1.748472303152084E-001;1.429249718785286E-002;-3.889396321028471E-003;-3.573880763724446E-003;
2.405166666666667E+009;1.757890731096268E-001;1.341739110648632E-002;-4.092417657375336E-003;-3.526248037815094E-003;
2.405333333333334E+009;1.765730381011963E-001;1.283685956150293E-002;-4.232538864016533E-003;-3.130089491605759E-003;
2.405500000000000E+009;1.771707832813263E-001;1.251364685595036E-002;-4.322050604969263E-003;-3.094345331192017E-003;
2.405666666666667E+009;1.779795438051224E-001;1.209201570600271E-002;-4.471219610422850E-003;-2.946955617517233E-003;
2.405833333333334E+009;1.782267540693283E-001;1.167975645512343E-002;-4.525806754827499E-003;-2.788596088066697E-003;
2.406000000000000E+009;1.787398904561997E-001;1.104591414332390E-002;-4.579204600304365E-003;-2.405273029580712E-003;
2.406166666666667E+009;1.791765540838242E-001;1.076118741184473E-002;-4.608646966516972E-003;-2.255641622468829E-003;
2.406333333333334E+009;1.796967834234238E-001;1.051808614283800E-002;-4.547136370092630E-003;-1.953210914507508E-003;
2.406500000000000E+009;1.799049824476242E-001;1.014138665050268E-002;-4.746099933981895E-003;-1.992015400901437E-003;
2.406666666666667E+009;1.798928827047348E-001;9.869990870356560E-003;-4.604340996593237E-003;-1.734248246066272E-003;
2.406833333333334E+009;1.801879554986954E-001;9.410671889781952E-003;-4.633919801563025E-003;-1.454453798942268E-003;
2.407000000000000E+009;1.802851855754852E-001;9.045153856277466E-003;-4.620078951120377E-003;-1.366279087960720E-003;
2.407166666666667E+009;1.804643571376801E-001;8.761099539697170E-003;-4.579553846269846E-003;-1.179119688458741E-003;
2.407333333333334E+009;1.801475137472153E-001;8.187663741409779E-003;-4.690144211053848E-003;-1.044646836817265E-003;
2.407500000000000E+009;1.799651235342026E-001;7.927598431706429E-003;-4.654054529964924E-003;-9.149982361122966E-004;
2.407666666666667E+009;1.798838526010513E-001;7.513792719691992E-003;-4.747257102280855E-003;-7.074571331031621E-004;
2.407833333333334E+009;1.792804896831513E-001;6.803744006901979E-003;-4.676406737416983E-003;-4.342304891906679E-004;
2.408000000000000E+009;1.790241003036499E-001;6.211116909980774E-003;-4.567915108054876E-003;-5.339058116078377E-004;
2.408166666666667E+009;1.786809116601944E-001;5.507346242666245E-003;-4.635907243937254E-003;-3.922880569007248E-004;
2.408333333333334E+009;1.784966886043549E-001;4.762487020343542E-003;-4.499854985624552E-003;-3.969311728724279E-005;
2.408500000000000E+009;1.777977645397186E-001;4.051692318171263E-003;-4.634744487702847E-003;-3.505793574731797E-005;
2.408666666666667E+009;1.771495193243027E-001;3.070988925173879E-003;-4.416221287101507E-003;1.237257383763790E-004;
2.408833333333334E+009;1.765299290418625E-001;2.021837281063199E-003;-4.495304543524981E-003;3.525638312567025E-004;
2.409000000000000E+009;1.757865995168686E-001;9.213950252160430E-004;-4.443972837179899E-003;3.982892085332423E-004;
2.409166666666667E+009;1.751809567213059E-001;-1.741829619277269E-004;-4.421983379870653E-003;6.422538426704705E-004;
2.409333333333334E+009;1.746724098920822E-001;-1.406788476742804E-003;-4.239775240421295E-003;7.168499869294465E-004;
2.409500000000000E+009;1.738307476043701E-001;-2.705968683585525E-003;-4.266089759767056E-003;8.536899113096297E-004;
2.409666666666667E+009;1.731375157833099E-001;-4.091281443834305E-003;-4.207536578178406E-003;8.483642595820129E-004;
2.409833333333334E+009;1.723762005567551E-001;-5.376392044126988E-003;-4.127867985516787E-003;1.003372250124812E-003;
2.410000000000000E+009;1.720271557569504E-001;-6.931392010301352E-003;-4.007070325314999E-003;1.017728005535901E-003;
2.410166666666667E+009;1.713744103908539E-001;-8.581628091633320E-003;-4.020854365080595E-003;1.127500087022781E-003;
2.410333333333334E+009;1.707985699176788E-001;-1.022806297987700E-002;-3.880421165376902E-003;1.386678894050419E-003;
2.410500000000000E+009;1.703548282384872E-001;-1.185962837189436E-002;-3.889915533363819E-003;1.393291749991477E-003;
2.410666666666667E+009;1.696580797433853E-001;-1.378844771534205E-002;-3.912717569619417E-003;1.440515043213964E-003;
2.410833333333334E+009;1.694026887416840E-001;-1.525045931339264E-002;-3.653583582490683E-003;1.782891456969082E-003;
2.411000000000000E+009;1.690304577350617E-001;-1.721302047371864E-002;-3.423126880079508E-003;1.641348004341126E-003;
2.411166666666667E+009;1.687352061271668E-001;-1.923279836773872E-002;-3.597500268369913E-003;1.735999830998480E-003;
2.411333333333334E+009;1.684569567441940E-001;-2.086345292627811E-002;-3.536097472533584E-003;1.667970442213118E-003;
2.411500000000000E+009;1.682647764682770E-001;-2.303214743733406E-002;-3.682082751765847E-003;2.036207588389516E-003;
2.411666666666667E+009;1.682171374559403E-001;-2.465665340423584E-002;-3.506144275888801E-003;1.996405422687531E-003;
2.411833333333334E+009;1.682344228029251E-001;-2.673303708434105E-002;-3.389989491552115E-003;2.117567230015993E-003;
2.412000000000000E+009;1.684177070856094E-001;-2.847789973020554E-002;-3.420876571908593E-003;2.128796186298132E-003;
2.412166666666667E+009;1.684183031320572E-001;-3.047864139080048E-002;-3.354156855493784E-003;2.258559456095099E-003;
2.412333333333334E+009;1.686711311340332E-001;-3.232845664024353E-002;-3.347330261021853E-003;2.448613988235593E-003;
2.412500000000000E+009;1.689766347408295E-001;-3.421796113252640E-002;-3.257156815379858E-003;2.504515461623669E-003;
2.412666666666667E+009;1.691262722015381E-001;-3.622705489397049E-002;-3.196603851392865E-003;2.557564759626985E-003;
2.412833333333334E+009;1.696800887584686E-001;-3.790280595421791E-002;-3.163358662277460E-003;2.676835749298334E-003;
2.413000000000000E+009;1.699318885803223E-001;-3.965695574879646E-002;-3.098701126873493E-003;2.800336340442300E-003;
2.413166666666667E+009;1.703509986400604E-001;-4.128038138151169E-002;-2.964116400107741E-003;2.803588286042213E-003;
2.413333333333334E+009;1.707671284675598E-001;-4.321623966097832E-002;-2.752524334937334E-003;3.074823413044214E-003;
2.413500000000000E+009;1.713536083698273E-001;-4.484295099973679E-002;-2.810860052704811E-003;3.097379812970758E-003;
2.413666666666667E+009;1.719282120466232E-001;-4.628070071339607E-002;-2.624915679916740E-003;3.223290899768472E-003;
2.413833333333334E+009;1.723292618989945E-001;-4.768498241901398E-002;-2.508039120584726E-003;3.348749130964279E-003;
2.414000000000000E+009;1.726496666669846E-001;-4.911946132779121E-002;-2.415067050606012E-003;3.461839631199837E-003;
2.414166666666667E+009;1.734411567449570E-001;-5.033308267593384E-002;-2.253260463476181E-003;3.555606584995985E-003;
2.414333333333334E+009;1.738096922636032E-001;-5.159419775009155E-002;-2.118132077157497E-003;3.550457069650292E-003;
2.414500000000000E+009;1.744263619184494E-001;-5.276056751608849E-002;-2.041686559095979E-003;3.478649770841003E-003;
2.414666666666667E+009;1.749733090400696E-001;-5.374403670430183E-002;-1.973376376554370E-003;3.637920599430800E-003;
2.414833333333334E+009;1.753057539463043E-001;-5.481509491801262E-002;-1.625129370950162E-003;3.635084722191095E-003;
2.415000000000000E+009;1.757215857505798E-001;-5.567925423383713E-002;-1.583997160196304E-003;3.553200047463179E-003;
2.415166666666667E+009;1.761294156312943E-001;-5.635122954845429E-002;-1.367421238683164E-003;3.763359738513827E-003;
2.415333333333334E+009;1.766217499971390E-001;-5.721936747431755E-002;-1.416232786141336E-003;3.569289343431592E-003;
2.415500000000000E+009;1.768419593572617E-001;-5.778154730796814E-002;-1.157500548288226E-003;3.583248937502503E-003;
2.415666666666667E+009;1.769274026155472E-001;-5.834400653839111E-002;-1.151820411905646E-003;3.683228744193912E-003;
2.415833333333334E+009;1.773034036159515E-001;-5.892911180853844E-002;-1.042084302753210E-003;3.635046072304249E-003;
2.416000000000000E+009;1.772793382406235E-001;-5.932547152042389E-002;-8.486915612593293E-004;3.717968007549644E-003;
2.416166666666667E+009;1.774708181619644E-001;-5.967552587389946E-002;-7.391364779323340E-004;3.590670414268971E-003;
2.416333333333334E+009;1.773991584777832E-001;-6.004086881875992E-002;-6.664405809715390E-004;3.656052285805345E-003;
2.416500000000000E+009;1.771720796823502E-001;-6.033464148640633E-002;-5.945519078522921E-004;3.544719191268086E-003;
2.416666666666667E+009;1.768610030412674E-001;-6.061260029673576E-002;-5.494839861057699E-004;3.593937959522009E-003;
2.416833333333334E+009;1.768143326044083E-001;-6.098344549536705E-002;-5.196541314944625E-004;3.503066021949053E-003;
2.417000000000000E+009;1.761568039655685E-001;-6.118382140994072E-002;-3.781418199650943E-004;3.378924680873752E-003;
2.417166666666667E+009;1.757648438215256E-001;-6.136285886168480E-002;-2.142602024832740E-004;3.563814330846071E-003;
2.417333333333334E+009;1.752894073724747E-001;-6.157235801219940E-002;-1.841406192397699E-004;3.461752319708467E-003;
2.417500000000000E+009;1.745335459709168E-001;-6.212202087044716E-002;-2.155842084903270E-004;3.427007468417287E-003;
2.417666666666667E+009;1.739389002323151E-001;-6.219213828444481E-002;2.527224569348618E-005;3.447398543357849E-003;
2.417833333333334E+009;1.731292754411697E-001;-6.236854568123817E-002;-1.247541949851438E-004;3.331365995109081E-003;
2.418000000000000E+009;1.722647696733475E-001;-6.272925436496735E-002;-9.425953612662852E-005;3.350249025970697E-003;
2.418166666666667E+009;1.712150871753693E-001;-6.301998347043991E-002;9.856942779151723E-005;3.381017129868269E-003;
2.418333333333334E+009;1.705533564090729E-001;-6.344878673553467E-002;1.688889024080709E-004;3.642144845798612E-003;
2.418500000000000E+009;1.693811714649200E-001;-6.404676288366318E-002;1.247203181264922E-004;3.467802423983812E-003;
2.418666666666667E+009;1.684560179710388E-001;-6.446415185928345E-002;9.985169162973762E-005;3.468723502010107E-003;
2.418833333333334E+009;1.671035587787628E-001;-6.511989980936050E-002;2.390800073044375E-004;3.372228238731623E-003;
2.419000000000000E+009;1.658851355314255E-001;-6.566348671913147E-002;2.467425656504929E-004;3.459406318143010E-003;
2.419166666666667E+009;1.648370027542114E-001;-6.646495312452316E-002;3.172706346958876E-004;3.441477194428444E-003;
2.419333333333334E+009;1.635412573814392E-001;-6.694892793893814E-002;3.666306729428470E-004;3.442790126428008E-003;
2.419500000000000E+009;1.625299304723740E-001;-6.801214814186096E-002;3.807623288594186E-004;3.531297435984016E-003;
2.419666666666667E+009;1.614361405372620E-001;-6.887774914503098E-002;5.006071878597140E-004;3.391591133549810E-003;
2.419833333333334E+009;1.601118296384811E-001;-6.970748305320740E-002;4.039253108203411E-004;3.604417433962226E-003;
2.420000000000000E+009;1.592088043689728E-001;-7.092160731554031E-002;7.087203557603061E-004;3.541508456692100E-003;
2.420166666666667E+009;1.580391377210617E-001;-7.190494984388351E-002;6.258674548007548E-004;3.613970009610057E-003;
2.420333333333334E+009;1.570112109184265E-001;-7.314998656511307E-002;8.138631819747388E-004;3.558727912604809E-003;
2.420500000000000E+009;1.561283916234970E-001;-7.430181652307510E-002;7.828699308447540E-004;3.567773615941405E-003;
2.420666666666667E+009;1.550880074501038E-001;-7.562258094549179E-002;1.022526295855641E-003;3.503617830574513E-003;
2.420833333333334E+009;1.540640443563461E-001;-7.708250731229782E-002;1.039908151142299E-003;3.651566337794066E-003;
2.421000000000000E+009;1.533680409193039E-001;-7.868149131536484E-002;1.033479114994407E-003;3.782864427193999E-003;
2.421166666666667E+009;1.525811254978180E-001;-7.998593151569367E-002;1.059160218574107E-003;3.764476394280791E-003;
2.421333333333334E+009;1.520483046770096E-001;-8.166388422250748E-002;1.210886286571622E-003;3.756504040211439E-003;
2.421500000000000E+009;1.513085514307022E-001;-8.320894092321396E-002;1.536735217086971E-003;3.738250816240907E-003;
2.421666666666667E+009;1.510288417339325E-001;-8.475408703088760E-002;1.548812142573297E-003;3.752251621335745E-003;
2.421833333333334E+009;1.504942476749420E-001;-8.650638908147812E-002;1.512145041488111E-003;3.721940563991666E-003;
2.422000000000000E+009;1.500147283077240E-001;-8.807959407567978E-002;1.723607303574681E-003;3.845087019726634E-003;
2.422166666666667E+009;1.497011184692383E-001;-8.989651501178742E-002;1.732500502839685E-003;3.819543402642012E-003;
2.422333333333334E+009;1.497162133455277E-001;-9.157986193895340E-002;1.920022768899798E-003;3.734552068635821E-003;
2.422500000000000E+009;1.495719999074936E-001;-9.316048026084900E-002;2.018481027334929E-003;3.769771195948124E-003;
2.422666666666667E+009;1.493724137544632E-001;-9.483463317155838E-002;2.206011209636927E-003;3.793274518102408E-003;
2.422833333333334E+009;1.494424343109131E-001;-9.642004966735840E-002;2.276497660204768E-003;3.769535338506103E-003;
2.423000000000000E+009;1.496981531381607E-001;-9.815632551908493E-002;2.439875621348620E-003;3.779022023081780E-003;
2.423166666666667E+009;1.498527973890305E-001;-9.981532394886017E-002;2.561188070103526E-003;3.794619813561440E-003;
2.423333333333334E+009;1.502146124839783E-001;-1.011744588613510E-001;2.644182182848454E-003;3.639419097453356E-003;
2.423500000000000E+009;1.504159718751907E-001;-1.027324646711350E-001;2.963224193081260E-003;3.781011793762445E-003;
2.423666666666667E+009;1.506302207708359E-001;-1.040669605135918E-001;3.113274928182364E-003;3.731676610186696E-003;
2.423833333333334E+009;1.510179787874222E-001;-1.056844145059586E-001;3.303873352706432E-003;3.665295895189047E-003;
2.424000000000000E+009;1.514742225408554E-001;-1.068840771913528E-001;3.406233619898558E-003;3.607770660892129E-003;
2.424166666666667E+009;1.518230587244034E-001;-1.082905903458595E-001;3.847630228847265E-003;3.598350565880537E-003;
2.424333333333334E+009;1.522589474916458E-001;-1.092729866504669E-001;3.909937571734190E-003;3.412120742723346E-003;
2.424500000000000E+009;1.528175324201584E-001;-1.104769706726074E-001;3.944884520024061E-003;3.278529969975352E-003;
2.424666666666667E+009;1.534308046102524E-001;-1.114038601517677E-001;4.294794518500567E-003;3.204988548532128E-003;
2.424833333333334E+009;1.536657065153122E-001;-1.124445572495461E-001;4.248136188834906E-003;2.924025058746338E-003;
2.425000000000000E+009;1.541123390197754E-001;-1.134376227855682E-001;4.526337608695030E-003;2.809586934745312E-003;
2.425166666666667E+009;1.544082462787628E-001;-1.140874400734901E-001;4.771274514496326E-003;2.695120172575116E-003;
2.425333333333334E+009;1.549296379089356E-001;-1.148142293095589E-001;4.909832961857319E-003;2.535011852160096E-003;
2.425500000000000E+009;1.552508771419525E-001;-1.156058833003044E-001;5.118726287037134E-003;2.339303493499756E-003;
2.425666666666667E+009;1.554019600152969E-001;-1.161539331078529E-001;5.235888529568911E-003;2.093413146212697E-003;
2.425833333333334E+009;1.556202769279480E-001;-1.167715489864349E-001;5.412935744971037E-003;1.925667864270508E-003;
2.426000000000000E+009;1.557452380657196E-001;-1.171611025929451E-001;5.588817875832319E-003;1.715547638013959E-003;
2.426166666666667E+009;1.560419350862503E-001;-1.175579801201820E-001;5.541437305510044E-003;1.418974134139717E-003;
2.426333333333334E+009;1.559120118618012E-001;-1.179157570004463E-001;5.685702897608280E-003;1.346995937637985E-003;
2.426500000000000E+009;1.560009121894836E-001;-1.182311102747917E-001;5.762894637882710E-003;1.006574719212949E-003;
2.426666666666667E+009;1.560065150260925E-001;-1.182943806052208E-001;5.777986720204353E-003;8.082536514848471E-004;
2.426833333333334E+009;1.556393504142761E-001;-1.185036748647690E-001;5.774504970759153E-003;5.451841279864311E-004;
2.427000000000000E+009;1.553350090980530E-001;-1.187478899955750E-001;5.928372964262962E-003;3.387871838640422E-004;
2.427166666666667E+009;1.549437642097473E-001;-1.187644526362419E-001;5.783441010862589E-003;8.170621731551364E-005;
2.427333333333334E+009;1.544020622968674E-001;-1.188508942723274E-001;5.856923293322325E-003;-1.923182135215029E-004;
2.427500000000000E+009;1.540200114250183E-001;-1.190520152449608E-001;5.840840283781290E-003;-2.875453210435808E-004;
2.427666666666667E+009;1.532001644372940E-001;-1.191956251859665E-001;5.720535293221474E-003;-5.119617562741041E-004;
2.427833333333334E+009;1.524351388216019E-001;-1.193631365895271E-001;5.737346597015858E-003;-6.347195012494922E-004;
