# Hz S RI R 50
2400000000.0000000000 0.172723367810249300857705634371 0.049028333276510238647460937500 0.002882029861211777167079306494 -0.004824870266020298004150390625 0 0 0 0 
2400166666.6666665077 0.173409029841423006912393134371 0.048453517258167266845703125000 0.002846282441169023947474814307 -0.004912198055535554885864257812 0 0 0 0 
2400333333.3333334923 0.173841297626495389083700615629 0.047832705080509192729909528907 0.002978842472657560868504189600 -0.005021039396524429321289062500 0 0 0 0 
2400500000.0000000000 0.174394786357879610916299384371 0.047104172408580780029296875000 0.002810614416375755830052041162 -0.005138180218636989593505859375 0 0 0 0 
2400666666.6666665077 0.174648955464363098144531250000 0.046276330947875976562500000000 0.002883576788008213043212890625 -0.005048333667218685150146484375 0 0 0 0 
2400833333.3333334923 0.175032988190650912185830634371 0.045734230428934097290039062500 0.002714406698942184014561318506 -0.005312385968863964080810546875 0 0 0 0 
2401000000.0000000000 0.175170734524726895431356865629 0.045040320605039596557617187500 0.002704888349398971037623740088 -0.005424039438366889953613281250 0 0 0 0 
2401166666.6666665077 0.175464108586311312576455634371 0.044407393783330917358398437500 0.002790883183479309082031250000 -0.005436191800981760025024414062 0 0 0 0 
2401333333.3333334923 0.175516724586486788650674384371 0.043543435633182532573659528907 0.002611637813970447020289755713 -0.005673383362591266632080078125 0 0 0 0 
2401500000.0000000000 0.175805479288101196289062500000 0.042951125651597976684570312500 0.002441180171445012092590332031 -0.005869430955499410629272460938 0 0 0 0 
2401666666.6666665077 0.175738304853439303299111884371 0.042403344064950942993164062500 0.002495900727808475928065634619 -0.006030497141182422637939453125 0 0 0 0 
2401833333.3333334923 0.175730034708976801116619981258 0.041578616946935646747629533593 0.002487396588549017906188964844 -0.006268317345529794692993164062 0 0 0 0 
2402000000.0000000000 0.175452366471290588378906250000 0.040703833103179931640625000000 0.002277613850310444831848144531 -0.006391664966940879821777343750 0 0 0 0 
2402166666.6666665077 0.175430372357368496993856865629 0.039702430367469787597656250000 0.002186256228014827208278036963 -0.006611951626837253570556640625 0 0 0 0 
2402333333.3333334923 0.175241023302078302581463731258 0.039007999002933502197265625000 0.002011283999308944182154990088 -0.007020064163953065872192382812 0 0 0 0 
2402500000.0000000000 0.175336867570877102950888115629 0.038056533783674240112304687500 0.001884098164737225012538290869 -0.007175401784479618072509765625 0 0 0 0 
2402666666.6666665077 0.175034508109092712402343750000 0.036873511970043182373046875000 0.001481176237575710036634135669 -0.007375768851488828659057617188 0 0 0 0 
2402833333.3333334923 0.174823448061943109710369981258 0.035728871822357177734375000000 0.001402572961524128913879394531 -0.007485871668905019760131835938 0 0 0 0 
2403000000.0000000000 0.174465402960777310470419365629 0.034386377781629562377929687500 0.001117619336582720062853169019 -0.007707833312451838579659746387 0 0 0 0 
2403166666.6666665077 0.174201026558876009842080634371 0.033276658505201339721679687500 0.000863390159793198108673095703 -0.007975934073328971862792968750 0 0 0 0 
2403333333.3333334923 0.173844560980796786209268134371 0.031790878623723976825754533593 0.000594929617363959550857543945 -0.008191723376512527465820312500 0 0 0 0 
2403500000.0000000000 0.173619478940963800628338731258 0.030434008687734600412388985546 0.000170483748661354211255750113 -0.008352736011147499084472656250 0 0 0 0 
2403666666.6666665077 0.173172846436500604827557481258 0.028701275587081909179687500000 -0.000102270743809640394009728703 -0.008494586683809757232666015625 0 0 0 0 
2403833333.3333334923 0.172802671790123013595419365629 0.027179172262549400329589843750 -0.000643836217932403087615966797 -0.008536042645573616027832031250 0 0 0 0 
2404000000.0000000000 0.172583788633346613128338731258 0.025304336100816730154017264454 -0.001026620855554938099504780347 -0.008591166697442531585693359375 0 0 0 0 
2404166666.6666665077 0.172240138053893987457598768742 0.023538835346698760986328125000 -0.001339001697488128922106098706 -0.008585124276578426361083984375 0 0 0 0 
2404333333.3333334923 0.171747013926505986969317518742 0.021909842267632480966588204296 -0.001809297245927155017852783203 -0.008787472732365131378173828125 0 0 0 0 
2404500000.0000000000 0.171266481280326787750567518742 0.019843660295009609567662423046 -0.002415582304820417924168252100 -0.008831055834889411926269531250 0 0 0 0 
2404666666.6666665077 0.171127140522003201583700615629 0.017867766320705410348912423046 -0.002667842898517847061157226562 -0.008808065205812454223632812500 0 0 0 0 
2404833333.3333334923 0.170911073684692410568075615629 0.016014400869607928884486014454 -0.003039655508473515944239951025 -0.008685416541993618011474609375 0 0 0 0 
2405000000.0000000000 0.170746237039566012283486884371 0.014081947505474090576171875000 -0.003717913292348384857177734375 -0.008498544804751873016357421875 0 0 0 0 
2405166666.6666665077 0.170579656958579989334268134371 0.011980146169662480790107927930 -0.003948383964598178863525390625 -0.008504074998199939727783203125 0 0 0 0 
2405333333.3333334923 0.170461252331733703613281250000 0.009827695786952972412109375000 -0.004616353660821914672851562500 -0.008193396963179111480712890625 0 0 0 0 
2405500000.0000000000 0.170540496706962613204794365629 0.007806110661476851377005292676 -0.004955872427672147750854492188 -0.007845192216336727142333984375 0 0 0 0 
2405666666.6666665077 0.170479595661163302322549384371 0.005775094963610172271728515625 -0.005413251463323832425589277051 -0.007566568907350301742553710938 0 0 0 0 
2405833333.3333334923 0.170513123273849487304687500000 0.003794737858697772026062011719 -0.005748010706156492233276367188 -0.007308350875973702344412519238 0 0 0 0 
2406000000.0000000000 0.170883432030677795410156250000 0.001835925038903952078578329932 -0.006058176979422569274902343750 -0.007148682605475187301635742188 0 0 0 0 
2406166666.6666665077 0.170977324247360201736611884371 -0.000125877762911841300412854605 -0.006311982870101928710937500000 -0.006719437893480063352102948926 0 0 0 0 
2406333333.3333334923 0.171496033668518094161825615629 -0.002263298491016029877903603662 -0.006691166665405035018920898438 -0.006286891642957925796508789062 0 0 0 0 
2406500000.0000000000 0.171906113624572809417401231258 -0.004326212219893932342529296875 -0.006764940451830626401419355176 -0.005825380329042673110961914062 0 0 0 0 
2406666666.6666665077 0.172087863087654113769531250000 -0.006181185133755207061767578125 -0.007030460517853499326224042676 -0.005538425873965024948120117188 0 0 0 0 
2406833333.3333334923 0.172728002071380587478799384371 -0.008230082690715789794921875000 -0.007271510548889636993408203125 -0.005211552139371634397024823926 0 0 0 0 
2407000000.0000000000 0.173422768712043789962606865629 -0.010134851559996610123604021680 -0.007468233816325665387625409863 -0.004899199586361646652221679688 0 0 0 0 
2407166666.6666665077 0.174022749066352788727130018742 -0.012065605260431769979456717579 -0.007593119982630014419555664062 -0.004269443452358245849609375000 0 0 0 0 
2407333333.3333334923 0.174652710556984003265057481258 -0.013920617289841180283516131055 -0.007695733103901147842407226562 -0.004016707651317119598388671875 0 0 0 0 
2407500000.0000000000 0.175288468599319513518963731258 -0.015595830045640470332135585352 -0.007633379194885492324829101562 -0.003568148473277688026428222656 0 0 0 0 
2407666666.6666665077 0.176077455282211303710937500000 -0.017320683225989338266392891796 -0.007742517627775669097900390625 -0.003342579817399383024928427588 0 0 0 0 
2407833333.3333334923 0.176551595330238286774005018742 -0.019063476473093029367467110546 -0.007833346724510192871093750000 -0.002844396978616714911219931494 0 0 0 0 
2408000000.0000000000 0.177489385008812006194744981258 -0.020831545814871791494349295704 -0.007757773157209157943725585938 -0.002593906130641698837280273438 0 0 0 0 
2408166666.6666665077 0.178099647164344787597656250000 -0.022213561460375789297083670704 -0.007606011815369129180908203125 -0.002141384175047277970554970850 0 0 0 0 
2408333333.3333334923 0.178938537836074801345986884371 -0.023701816797256469726562500000 -0.007621477358043193817138671875 -0.001830939552746712944628071362 0 0 0 0 
2408500000.0000000000 0.179441273212432889083700615629 -0.025314178317785259592076485546 -0.007582839112728834152221679688 -0.001557919546030462005017924731 0 0 0 0 
2408666666.6666665077 0.180071324110031100174111884371 -0.026547491550445560110071951954 -0.007531324401497840881347656250 -0.001317975460551678917528461987 0 0 0 0 
2408833333.3333334923 0.180366426706314086914062500000 -0.027724001556634899484654610546 -0.007286643143743276596069335938 -0.001029049046337604956385947119 0 0 0 0 
2409000000.0000000000 0.180925667285919189453125000000 -0.028794577345252040517786795704 -0.007250937633216381072998046875 -0.000611317402217537164688110352 0 0 0 0 
2409166666.6666665077 0.181348413228988702972088731258 -0.029893748462200171733815778907 -0.007191333919763565063476562500 -0.000576640130020678043365478516 0 0 0 0 
2409333333.3333334923 0.181748047471046503265057481258 -0.030636046081781390798548514454 -0.007048809435218572616577148438 -0.000344388157827779704898280011 0 0 0 0 
2409500000.0000000000 0.182090446352958706954794365629 -0.031534846872091293334960937500 -0.006847091019153594970703125000 -0.000239308501477353301927289420 0 0 0 0 
2409666666.6666665077 0.182247668504714993575888115629 -0.032132804393768310546875000000 -0.006818837951868773374075605176 -0.000131893859361298409387311392 0 0 0 0 
2409833333.3333334923 0.182527557015419006347656250000 -0.032708749175071723247487653907 -0.006697043776512145996093750000 0.000074783310992643237113952637 0 0 0 0 
2410000000.0000000000 0.182839602231979397872763115629 -0.033144425600767142559011091407 -0.006749011110514402389526367188 0.000255858671152964180142003192 0 0 0 0 
2410166666.6666665077 0.182989940047264099121093750000 -0.033532679080963141704518903907 -0.006575738545507192611694335938 0.000357873621396720409393310547 0 0 0 0 
2410333333.3333334923 0.183142632246017511565838731258 -0.033911667764186859130859375000 -0.006468927022069692611694335938 0.000629448972176760435104370117 0 0 0 0 
2410500000.0000000000 0.183174103498458890060263115629 -0.034431219100952148437500000000 -0.006530519574880599975585937500 0.000647153006866574287414550781 0 0 0 0 
2410666666.6666665077 0.182911217212677001953125000000 -0.034708023071289062500000000000 -0.006469296757131814956665039062 0.000693917740136384963989257812 0 0 0 0 
2410833333.3333334923 0.183008879423141507247763115629 -0.034968025982379913330078125000 -0.006362354848533868789672851562 0.000842270324937999248504638672 0 0 0 0 
2411000000.0000000000 0.182741761207580594161825615629 -0.035129353404045111919362653907 -0.006325166206806898117065429688 0.000906778208445757627487182617 0 0 0 0 
2411166666.6666665077 0.182370647788047790527343750000 -0.035556484013795852661132812500 -0.006328758317977190017700195312 0.001094127772375941059709858472 0 0 0 0 
2411333333.3333334923 0.182135850191116305252236884371 -0.035772763192653662944753278907 -0.006151729263365268707275390625 0.001244561281055212020874023438 0 0 0 0 
2411500000.0000000000 0.181516081094741793533486884371 -0.036330223083496086811106096093 -0.006369890645146369934082031250 0.001486144727095962004420615088 0 0 0 0 
2411666666.6666665077 0.181153148412704495529013115629 -0.036409404128789901733398437500 -0.006263059563934803009033203125 0.001474280143156647899030375903 0 0 0 0 
2411833333.3333334923 0.180461853742599487304687500000 -0.036780685186386108398437500000 -0.006210924126207829389090253613 0.001590027241036296107648539966 0 0 0 0 
2412000000.0000000000 0.179933950304985101897869981258 -0.037244480103254318237304687500 -0.006280951201915740966796875000 0.001949420082382858016370463794 0 0 0 0 
2412166666.6666665077 0.178828045725822504241619981258 -0.037685949355363852764089216407 -0.006115873344242572784423828125 0.001962556736543775038478232275 0 0 0 0 
2412333333.3333334923 0.178179085254669189453125000000 -0.037950802594423287128488908593 -0.006125940941274166107177734375 0.002164554549381136894226074219 0 0 0 0 
2412500000.0000000000 0.177249372005462701995526231258 -0.038554519414901733398437500000 -0.006063252687454223632812500000 0.002237530192360281944274902344 0 0 0 0 
2412666666.6666665077 0.176016554236412103850994981258 -0.039421036839485168457031250000 -0.006093434523791074752807617188 0.002495796885341405868530273438 0 0 0 0 
2412833333.3333334923 0.175344884395599392989950615629 -0.040087781846523291851003278907 -0.006048430688679218292236328125 0.002718294970691204071044921875 0 0 0 0 
2413000000.0000000000 0.173853144049644497970419365629 -0.040475424379110343242604841407 -0.005952844396233558654785156250 0.002751263091340661048889160156 0 0 0 0 
2413166666.6666665077 0.172464385628700311858807481258 -0.041581980884075171733815778907 -0.005964082665741443634033203125 0.003012361703440546989440917969 0 0 0 0 
2413333333.3333334923 0.171326011419296292404013115629 -0.042238179594278342510182966407 -0.005885202903300523757934570312 0.003164734924212098121643066406 0 0 0 0 
2413500000.0000000000 0.170088678598403902908486884371 -0.043321751058101647113840471093 -0.005804586689919233322143554688 0.003406396135687828063964843750 0 0 0 0 
2413666666.6666665077 0.168860346078872708419638115629 -0.044222749769687652587890625000 -0.005632261745631694793701171875 0.003664735704660416083094931494 0 0 0 0 
2413833333.3333334923 0.167524591088295010665731865629 -0.045464247465133666992187500000 -0.005476018413901329040527343750 0.003662034636363387107849121094 0 0 0 0 
2414000000.0000000000 0.166210979223251287262286268742 -0.046628873795270919799804687500 -0.005247610155493021011352539062 0.003865558188408613204956054688 0 0 0 0 
2414166666.6666665077 0.165105313062667902190838731258 -0.047663118690252297138254533593 -0.005297133699059486389160156250 0.004042732995003461837768554688 0 0 0 0 
2414333333.3333334923 0.163824051618576105315838731258 -0.049179766327142722392995466407 -0.005065518897026777267456054688 0.004311126191169024381155683301 0 0 0 0 
2414500000.0000000000 0.162827104330062893966513115629 -0.050562735646963119506835937500 -0.005094653926789760589599609375 0.004537025000900030136108398438 0 0 0 0 
2414666666.6666665077 0.161724239587783813476562500000 -0.051925797015428543090820312500 -0.004861878231167793273925781250 0.004594324156641960144042968750 0 0 0 0 
2414833333.3333334923 0.160463720560073908050213731258 -0.053612127900123603130300153907 -0.004798480309545993804931640625 0.004686550237238407135009765625 0 0 0 0 
2415000000.0000000000 0.159504204988479586502236884371 -0.055106498301029212261159528907 -0.004721640143543481826782226562 0.004953038413077592849731445312 0 0 0 0 
2415166666.6666665077 0.158532798290252713302450615629 -0.056928168982267379760742187500 -0.004497726913541555404663085938 0.005197175778448581695556640625 0 0 0 0 
2415333333.3333334923 0.157586187124252291580361884371 -0.058697581291198730468750000000 -0.004334553610533475875854492188 0.005399471148848533630371093750 0 0 0 0 
2415500000.0000000000 0.156884476542472811599893134371 -0.060413554310798651958425153907 -0.004243256989866495132446289062 0.005526802502572537335867597363 0 0 0 0 
2415666666.6666665077 0.156114310026168795486611884371 -0.062299713492393486713449846093 -0.003851621411740779876708984375 0.005776377394795417785644531250 0 0 0 0 
2415833333.3333334923 0.155470922589302090743856865629 -0.064288556575775146484375000000 -0.003742034314200282096862792969 0.005823727697134017944335937500 0 0 0 0 
2416000000.0000000000 0.154615864157676696777343750000 -0.066287189722061157226562500000 -0.003421844914555550055262900244 0.005901528522372245788574218750 0 0 0 0 
2416166666.6666665077 0.154323816299438504318075615629 -0.068231858313083648681640625000 -0.003280121134594082832336425781 0.006001491565257310867309570312 0 0 0 0 
2416333333.3333334923 0.153704926371574401855468750000 -0.070083968341350555419921875000 -0.003112037433311343193054199219 0.006152426823973655700683593750 0 0 0 0 
2416500000.0000000000 0.153324678540229797363281250000 -0.072268418967723846435546875000 -0.002753660315647720856907509912 0.006331896875053644180297851562 0 0 0 0 
2416666666.6666665077 0.152798995375633211990518134371 -0.074054241180419921875000000000 -0.002444323850795627074000693213 0.006388465873897075653076171875 0 0 0 0 
2416833333.3333334923 0.152643054723739596267861884371 -0.076126299798488616943359375000 -0.002208637306466699080226279150 0.006492774933576583862304687500 0 0 0 0 
2417000000.0000000000 0.152189612388610812088174384371 -0.078086264431476593017578125000 -0.002037049271166325049159384619 0.006427992135286331176757812500 0 0 0 0 
2417166666.6666665077 0.152045622467994689941406250000 -0.079812511801719665527343750000 -0.001705191447399557070491171729 0.006458614952862262725830078125 0 0 0 0 
2417333333.3333334923 0.151986792683601407150106865629 -0.081559598445892333984375000000 -0.001519391662441194057464599609 0.006468459032475948333740234375 0 0 0 0 
2417500000.0000000000 0.151882544159889193435830634371 -0.083465002477169036865234375000 -0.001156830927357078032252646338 0.006571346428245306015014648438 0 0 0 0 
2417666666.6666665077 0.151826739311218289474325615629 -0.084956593811511993408203125000 -0.000961939629632979631423950195 0.006278041750192642211914062500 0 0 0 0 
2417833333.3333334923 0.151789546012878390213174384371 -0.086475200951099395751953125000 -0.000702607794664800167083740234 0.006367472466081380844116210938 0 0 0 0 
2418000000.0000000000 0.151836201548576410491619981258 -0.088058672845363616943359375000 -0.000465799297671765089035034180 0.006275631953030824661254882812 0 0 0 0 
2418166666.6666665077 0.151951521635055486481036268742 -0.089385293424129486083984375000 -0.000268249918008223176002502441 0.006215051747858524322509765625 0 0 0 0 
2418333333.3333334923 0.152201220393180902679119981258 -0.090652018785476684570312500000 -0.000064681567891966551542282104 0.006201904732733964920043945312 0 0 0 0 
2418500000.0000000000 0.152208819985389709472656250000 -0.091788485646247863769531250000 0.000029185883249738250264917680 0.005997180473059415817260742188 0 0 0 0 
2418666666.6666665077 0.152503147721290588378906250000 -0.092907413840293884277343750000 0.000215143314562737887531834735 0.005927402060478925704956054688 0 0 0 0 
2418833333.3333334923 0.152518689632415799239950615629 -0.093995049595832824707031250000 0.000400898628868162577778416766 0.005946552380919457349295331738 0 0 0 0 
2419000000.0000000000 0.152701199054717989822549384371 -0.094747871160507202148437500000 0.000597730628214776515960693359 0.005771001800894737243652343750 0 0 0 0 
2419166666.6666665077 0.153044685721397399902343750000 -0.095441579818725585937500000000 0.000830570934340357780456542969 0.005774207413196563720703125000 0 0 0 0 
2419333333.3333334923 0.153081879019737188141192518742 -0.095812626183032989501953125000 0.000833807338494807481765747070 0.005764167290180922421927167676 0 0 0 0 
2419500000.0000000000 0.153412505984306307693643134371 -0.096729412674903869628906250000 0.001016940339468419985530234229 0.005507168825715780258178710938 0 0 0 0 
2419666666.6666665077 0.153619453310966491699218750000 -0.096933603286743164062500000000 0.001117357518523931936976767432 0.005586607381701469421386718750 0 0 0 0 
2419833333.3333334923 0.153620496392250088790731865629 -0.097076073288917541503906250000 0.001332601066678762002232216943 0.005420280620455741882324218750 0 0 0 0 
