# Version 1.00
#
freq[Hz];re:Trc1_S11;im:Trc1_S11;re:Trc2_S21;im:Trc2_S21;
2.400000000000000E+009;1.503699868917465E-001;1.138598620891571E-001;1.714418176561594E-003;8.920889813452959E-004;
2.400166666666667E+009;1.502967178821564E-001;1.116158738732338E-001;1.618383335880935E-003;4.324055043980479E-004;
2.400333333333334E+009;1.503104567527771E-001;1.093192398548126E-001;1.728043309412897E-003;1.312255189986900E-004;
2.400500000000000E+009;1.503799259662628E-001;1.066229417920113E-001;1.518552657216787E-003;-6.672188465017825E-005;
2.400666666666667E+009;1.506156772375107E-001;1.042616590857506E-001;1.134300488047302E-003;-4.040184139739722E-004;
2.400833333333334E+009;1.505936235189438E-001;1.012689471244812E-001;9.935005800798535E-004;-5.883559933863580E-004;
2.401000000000000E+009;1.510286331176758E-001;9.855455905199051E-002;6.263860850594938E-004;-9.186954121105373E-004;
2.401166666666667E+009;1.511731594800949E-001;9.586311876773834E-002;2.946374006569386E-004;-8.706859662197530E-004;
2.401333333333334E+009;1.517532914876938E-001;9.324673563241959E-002;-2.008461524383165E-005;-9.366094018332660E-004;
2.401500000000000E+009;1.522373557090759E-001;9.023889899253845E-002;-2.545208553783596E-004;-1.111432793550193E-003;
2.401666666666667E+009;1.528093665838242E-001;8.743753284215927E-002;-8.168533677235246E-004;-9.652031003497541E-004;
2.401833333333334E+009;1.534041613340378E-001;8.461593836545944E-002;-9.272273746319115E-004;-7.947938865981996E-004;
2.402000000000000E+009;1.544950604438782E-001;8.189739286899567E-002;-1.320323790423572E-003;-4.319740401115269E-004;
2.402166666666667E+009;1.552819311618805E-001;7.945012301206589E-002;-1.647160388529301E-003;-2.615187258925289E-004;
2.402333333333334E+009;1.563821285963059E-001;7.663318514823914E-002;-1.836899318732321E-003;-6.083746484364383E-005;
2.402500000000000E+009;1.578867286443710E-001;7.426344603300095E-002;-1.860539196059108E-003;2.673851558938623E-004;
2.402666666666667E+009;1.591110080480576E-001;7.193731516599655E-002;-1.942601986229420E-003;3.980686597060412E-004;
2.402833333333334E+009;1.605670452117920E-001;6.957026571035385E-002;-2.056174445897341E-003;6.146830855868757E-004;
2.403000000000000E+009;1.623446196317673E-001;6.719808280467987E-002;-2.074838848784566E-003;1.011712942272425E-003;
2.403166666666667E+009;1.642159372568131E-001;6.494834274053574E-002;-1.845116377808154E-003;1.387466792948544E-003;
2.403333333333334E+009;1.659301072359085E-001;6.278888136148453E-002;-1.848953077569604E-003;1.434590551070869E-003;
2.403500000000000E+009;1.677606701850891E-001;6.079241260886192E-002;-1.858260948210955E-003;1.618820009753108E-003;
2.403666666666667E+009;1.699387431144714E-001;5.872407183051109E-002;-1.785705215297639E-003;1.890092971734703E-003;
2.403833333333334E+009;1.717207431793213E-001;5.678593367338181E-002;-1.617116620764136E-003;1.909361570142210E-003;
2.404000000000000E+009;1.734221875667572E-001;5.497813224792481E-002;-1.379981753416359E-003;2.307916991412640E-003;
2.404166666666667E+009;1.754343509674072E-001;5.315105244517326E-002;-1.291388296522200E-003;2.373575698584318E-003;
2.404333333333334E+009;1.773584038019180E-001;5.175343528389931E-002;-1.057891175150871E-003;2.660789061337709E-003;
2.404500000000000E+009;1.790476590394974E-001;5.038008093833923E-002;-9.677659836597741E-004;2.678200602531433E-003;
2.404666666666667E+009;1.808024793863297E-001;4.898423701524735E-002;-8.814020548015833E-004;2.761656418442726E-003;
2.404833333333334E+009;1.827435344457626E-001;4.793962836265564E-002;-5.108424229547381E-004;2.855305094271898E-003;
2.405000000000000E+009;1.842009276151657E-001;4.752611368894577E-002;-3.619860799517483E-004;2.854337217286229E-003;
2.405166666666667E+009;1.859862208366394E-001;4.647017642855644E-002;-2.091323403874412E-004;2.736145164817572E-003;
2.405333333333334E+009;1.873513311147690E-001;4.591599106788635E-002;3.717700019478798E-005;2.917624777182937E-003;
2.405500000000000E+009;1.890269815921783E-001;4.549204930663109E-002;1.182568739750423E-004;2.928234636783600E-003;
2.405666666666667E+009;1.903303116559982E-001;4.490494728088379E-002;4.069363640155643E-004;2.905748086050153E-003;
2.405833333333334E+009;1.918257474899292E-001;4.465715214610100E-002;5.495907971635461E-004;2.851910423487425E-003;
2.406000000000000E+009;1.928918361663818E-001;4.456153512001038E-002;7.182653062045574E-004;2.811869606375694E-003;
2.406166666666667E+009;1.939931213855743E-001;4.425887390971184E-002;8.279113681055605E-004;2.852260367944837E-003;
2.406333333333334E+009;1.951951980590820E-001;4.419139772653580E-002;1.027968362905085E-003;2.735943766310811E-003;
2.406500000000000E+009;1.959672719240189E-001;4.417126253247261E-002;1.057993737049401E-003;2.747702179476619E-003;
2.406666666666667E+009;1.967435479164124E-001;4.417669028043747E-002;1.411747536621988E-003;2.722884295508266E-003;
2.406833333333334E+009;1.973270326852799E-001;4.406225308775902E-002;1.345705240964890E-003;2.598630730062723E-003;
2.407000000000000E+009;1.977293938398361E-001;4.428533092141151E-002;1.752343145199120E-003;2.449379768222570E-003;
2.407166666666667E+009;1.982545852661133E-001;4.395587369799614E-002;1.804299652576447E-003;2.494345186278224E-003;
2.407333333333334E+009;1.982022970914841E-001;4.414569586515427E-002;2.018237020820379E-003;2.540617017075419E-003;
2.407500000000000E+009;1.981803029775620E-001;4.406020790338516E-002;2.104385523125529E-003;2.240908797830343E-003;
2.407666666666667E+009;1.980671137571335E-001;4.400779306888580E-002;2.273074118420482E-003;2.132599707692862E-003;
2.407833333333334E+009;1.976763457059860E-001;4.390146210789681E-002;2.323168562725186E-003;1.950711943209171E-003;
2.408000000000000E+009;1.975701600313187E-001;4.368181154131889E-002;2.449030755087733E-003;1.813364215195179E-003;
2.408166666666667E+009;1.970164924860001E-001;4.320804774761200E-002;2.341115148738027E-003;1.635662512853742E-003;
2.408333333333334E+009;1.965162158012390E-001;4.271121323108673E-002;2.516177482903004E-003;1.599599723704159E-003;
2.408500000000000E+009;1.957721263170242E-001;4.223686456680298E-002;2.523393137380481E-003;1.350595499388874E-003;
2.408666666666667E+009;1.950650960206986E-001;4.180016741156578E-002;2.698540920391679E-003;1.186616835184395E-003;
2.408833333333334E+009;1.942122429609299E-001;4.113176465034485E-002;2.670372370630503E-003;1.172271789982915E-003;
2.409000000000000E+009;1.932297199964523E-001;3.991240635514259E-002;2.589039038866758E-003;1.020005322061479E-003;
2.409166666666667E+009;1.921993345022202E-001;3.901387751102448E-002;2.659417921677232E-003;8.082801941782236E-004;
2.409333333333334E+009;1.910511851310730E-001;3.794721513986588E-002;2.492660656571388E-003;7.482137298211455E-004;
2.409500000000000E+009;1.900168657302856E-001;3.675826266407967E-002;2.670800313353539E-003;6.324325222522020E-004;
2.409666666666667E+009;1.889106929302216E-001;3.538130968809128E-002;2.642282750457525E-003;6.251404411159456E-004;
2.409833333333334E+009;1.877419501543045E-001;3.379442542791367E-002;2.515674801543355E-003;3.464798792265356E-004;
2.410000000000000E+009;1.866137832403183E-001;3.219603002071381E-002;2.542605856433511E-003;2.862096880562604E-004;
2.410166666666667E+009;1.855986863374710E-001;3.047910705208778E-002;2.494160784408450E-003;3.488953225314617E-004;
2.410333333333334E+009;1.844995766878128E-001;2.864485606551170E-002;2.574022626504302E-003;1.742060121614486E-004;
2.410500000000000E+009;1.835461854934692E-001;2.667559124529362E-002;2.562979003414512E-003;-4.265438110451214E-005;
2.410666666666667E+009;1.826585829257965E-001;2.447347715497017E-002;2.467062324285507E-003;-5.940381379332393E-005;
2.410833333333334E+009;1.817993521690369E-001;2.241089195013046E-002;2.415027702227235E-003;-1.930814469233155E-004;
2.411000000000000E+009;1.810385733842850E-001;2.009825967252255E-002;2.331811236217618E-003;-2.174503752030432E-004;
2.411166666666667E+009;1.802819818258286E-001;1.777686923742294E-002;2.334021963179112E-003;-3.237329947296530E-004;
2.411333333333334E+009;1.797450333833695E-001;1.535828877240419E-002;2.229165285825729E-003;-4.383554623927921E-004;
2.411500000000000E+009;1.793961524963379E-001;1.305512338876724E-002;2.135185757651925E-003;-3.876911068800837E-004;
2.411666666666667E+009;1.791862249374390E-001;1.059624552726746E-002;2.161017619073391E-003;-4.129929293412715E-004;
2.411833333333334E+009;1.787162125110626E-001;8.209532126784325E-003;2.001275308430195E-003;-5.770858260802925E-004;
2.412000000000000E+009;1.787125170230866E-001;5.507149733603001E-003;1.945700496435165E-003;-6.007185438647866E-004;
2.412166666666667E+009;1.789551675319672E-001;3.270030487328768E-003;1.901573152281344E-003;-7.184108253568411E-004;
2.412333333333334E+009;1.791764944791794E-001;7.425913936458528E-004;1.984473550692201E-003;-6.883006426505745E-004;
2.412500000000000E+009;1.798346340656281E-001;-1.818903023377061E-003;1.958114095032215E-003;-6.874836399219930E-004;
2.412666666666667E+009;1.801147907972336E-001;-4.301917739212513E-003;1.792602241039276E-003;-7.553596515208483E-004;
2.412833333333334E+009;1.807446628808975E-001;-6.720882374793291E-003;1.721394364722073E-003;-6.945840432308614E-004;
2.413000000000000E+009;1.815556138753891E-001;-9.028365835547447E-003;1.646938850171864E-003;-6.752962362952530E-004;
2.413166666666667E+009;1.823722720146179E-001;-1.127557642757893E-002;1.774725271388888E-003;-6.428618798963726E-004;
2.413333333333334E+009;1.832709312438965E-001;-1.384906563907862E-002;1.758078811690211E-003;-6.234230822883546E-004;
2.413500000000000E+009;1.843374967575073E-001;-1.597107015550137E-002;1.711372635327280E-003;-7.102197268977761E-004;
2.413666666666667E+009;1.855188310146332E-001;-1.827532798051834E-002;1.777287805452943E-003;-7.380107417702675E-004;
2.413833333333334E+009;1.865363568067551E-001;-2.012344263494015E-002;1.673797727562487E-003;-8.376773912459612E-004;
2.414000000000000E+009;1.875884234905243E-001;-2.221368253231049E-002;1.970407320186496E-003;-7.628407329320908E-004;
2.414166666666667E+009;1.889596879482269E-001;-2.416872419416904E-002;1.898086629807949E-003;-8.570383652113378E-004;
2.414333333333334E+009;1.901881992816925E-001;-2.603200450539589E-002;1.973397796973586E-003;-1.034005428664386E-003;
2.414500000000000E+009;1.913387775421143E-001;-2.739437110722065E-002;1.922116847708821E-003;-1.166483387351036E-003;
2.414666666666667E+009;1.925803273916245E-001;-2.897823229432106E-002;1.844032667577267E-003;-1.106965006329119E-003;
2.414833333333334E+009;1.939429342746735E-001;-3.042540326714516E-002;1.866014790721238E-003;-1.257288502529264E-003;
2.415000000000000E+009;1.951065212488174E-001;-3.157729655504227E-002;1.855176407843828E-003;-1.452261582016945E-003;
2.415166666666667E+009;1.964694708585739E-001;-3.271520510315895E-002;1.666775788180530E-003;-1.669442164711654E-003;
2.415333333333334E+009;1.976067125797272E-001;-3.375880420207977E-002;1.665589166805148E-003;-1.529096509329975E-003;
2.415500000000000E+009;1.988158226013184E-001;-3.452742472290993E-002;1.470613642595708E-003;-1.767754671163857E-003;
2.415666666666667E+009;2.000686824321747E-001;-3.547650948166847E-002;1.437442260794342E-003;-1.839684788137674E-003;
2.415833333333334E+009;2.008385658264160E-001;-3.597465530037880E-002;1.176925841718912E-003;-1.766299246810377E-003;
2.416000000000000E+009;2.016346752643585E-001;-3.665943071246147E-002;1.107039279304445E-003;-1.915036817081273E-003;
2.416166666666667E+009;2.024084031581879E-001;-3.728345781564713E-002;9.096724679693580E-004;-1.911343890242279E-003;
2.416333333333334E+009;2.030292302370071E-001;-3.746369481086731E-002;7.537438650615513E-004;-1.916715293191373E-003;
2.416500000000000E+009;2.035808712244034E-001;-3.765990585088730E-002;8.414625190198422E-004;-1.918295980431140E-003;
2.416666666666667E+009;2.038762867450714E-001;-3.797482326626778E-002;6.930704694241285E-004;-1.909176236949861E-003;
2.416833333333334E+009;2.040153592824936E-001;-3.790043294429779E-002;6.051663658581674E-004;-1.619393005967140E-003;
2.417000000000000E+009;2.042914927005768E-001;-3.803046047687531E-002;5.325839738361538E-004;-1.627249410375953E-003;
2.417166666666667E+009;2.039984315633774E-001;-3.788571059703827E-002;8.277841261588037E-004;-1.647364464588463E-003;
2.417333333333334E+009;2.039002031087875E-001;-3.767635300755501E-002;7.087474223226309E-004;-1.618955982849002E-003;
2.417500000000000E+009;2.035893499851227E-001;-3.775514662265778E-002;8.508854662068188E-004;-1.729126437567174E-003;
2.417666666666667E+009;2.030526399612427E-001;-3.746751695871353E-002;5.955164087936282E-004;-1.639658818021417E-003;
2.417833333333334E+009;2.027117460966110E-001;-3.725821152329445E-002;6.325049907900393E-004;-1.817292650230229E-003;
2.418000000000000E+009;2.021486461162567E-001;-3.692056983709335E-002;6.302139372564852E-004;-1.968657830730081E-003;
2.418166666666667E+009;2.012810409069061E-001;-3.672268241643906E-002;5.310464184731245E-004;-2.143967431038618E-003;
2.418333333333334E+009;2.004826664924622E-001;-3.660830482840538E-002;4.606128495652229E-004;-1.912739244289696E-003;
2.418500000000000E+009;1.994434446096420E-001;-3.651776909828186E-002;3.378626715857536E-004;-2.002614084631205E-003;
2.418666666666667E+009;1.986833661794663E-001;-3.643598780035973E-002;1.777002034941688E-004;-2.027717418968678E-003;
2.418833333333334E+009;1.973385065793991E-001;-3.655723854899406E-002;9.917427087202668E-005;-1.994667341932654E-003;
2.419000000000000E+009;1.960766613483429E-001;-3.670042008161545E-002;-2.761966316029429E-004;-1.826539519242942E-003;
2.419166666666667E+009;1.947966963052750E-001;-3.712934628129005E-002;-2.483946445863694E-004;-1.753999385982752E-003;
2.419333333333334E+009;1.934521794319153E-001;-3.747739642858505E-002;-2.969207416754216E-004;-1.648224075324833E-003;
2.419500000000000E+009;1.920896768569946E-001;-3.808442130684853E-002;-4.301520239096135E-004;-1.671868492849171E-003;
2.419666666666667E+009;1.904318928718567E-001;-3.869608417153359E-002;-4.782043397426605E-004;-1.428983174264431E-003;
2.419833333333334E+009;1.887930482625961E-001;-3.939151018857956E-002;-3.914399421773851E-004;-1.303224358707666E-003;
2.420000000000000E+009;1.873082965612412E-001;-4.024790972471237E-002;-2.759964845608920E-004;-1.006869599223137E-003;
2.420166666666667E+009;1.856343746185303E-001;-4.141093045473099E-002;-3.678902867250145E-004;-7.844794308766723E-004;
2.420333333333334E+009;1.839670687913895E-001;-4.246526211500168E-002;-3.603243749239482E-005;-8.929917821660638E-004;
2.420500000000000E+009;1.821696013212204E-001;-4.397596791386604E-002;1.435204612789676E-004;-7.193742785602808E-004;
2.420666666666667E+009;1.805425733327866E-001;-4.501635953783989E-002;2.510429767426103E-004;-7.267527398653328E-004;
2.420833333333334E+009;1.788160204887390E-001;-4.649190604686737E-002;4.692339862231165E-004;-7.902817451395094E-004;
2.421000000000000E+009;1.771666407585144E-001;-4.806205257773399E-002;6.759854150004685E-004;-7.862230995669961E-004;
2.421166666666667E+009;1.757078468799591E-001;-4.970119521021843E-002;8.221948519349098E-004;-9.764641290530562E-004;
2.421333333333334E+009;1.741275340318680E-001;-5.124570801854134E-002;9.199046180583537E-004;-1.125996583141387E-003;
2.421500000000000E+009;1.727911084890366E-001;-5.310968309640884E-002;1.079050474800170E-003;-1.342817093245685E-003;
2.421666666666667E+009;1.714572757482529E-001;-5.494415387511253E-002;1.129715703427792E-003;-1.587493577972055E-003;
2.421833333333334E+009;1.702298820018768E-001;-5.676540732383728E-002;1.149377902038395E-003;-1.760269165970385E-003;
2.422000000000000E+009;1.689900755882263E-001;-5.855559557676315E-002;1.071866601705551E-003;-1.878890907391906E-003;
2.422166666666667E+009;1.683579385280609E-001;-6.068329513072968E-002;9.864008752629161E-004;-2.152619417756796E-003;
2.422333333333334E+009;1.671564579010010E-001;-6.258419901132584E-002;7.828340749256313E-004;-2.340702340006828E-003;
2.422500000000000E+009;1.665230989456177E-001;-6.459649652242661E-002;7.343510515056551E-004;-2.580730244517326E-003;
2.422666666666667E+009;1.658612638711929E-001;-6.661611050367355E-002;6.259686197154224E-004;-2.703022677451372E-003;
2.422833333333334E+009;1.655223816633225E-001;-6.874484568834305E-002;3.981663030572236E-004;-2.942332532256842E-003;
2.423000000000000E+009;1.651461422443390E-001;-7.078590989112854E-002;9.973632404580712E-005;-2.927219728007913E-003;
2.423166666666667E+009;1.646996885538101E-001;-7.270311564207077E-002;5.328268161974847E-005;-3.095936728641391E-003;
2.423333333333334E+009;1.644717305898666E-001;-7.464433461427689E-002;-3.791726776398718E-004;-3.071919083595276E-003;
2.423500000000000E+009;1.644046604633331E-001;-7.647735625505447E-002;-4.474097804632038E-004;-3.002487588673830E-003;
2.423666666666667E+009;1.644880473613739E-001;-7.846283167600632E-002;-6.708878790959716E-004;-3.053954336792231E-003;
2.423833333333334E+009;1.645906269550324E-001;-8.023046702146530E-002;-9.746885043568909E-004;-3.176323371008039E-003;
2.424000000000000E+009;1.648555248975754E-001;-8.198601752519608E-002;-9.886720217764378E-004;-3.107699099928141E-003;
2.424166666666667E+009;1.649763435125351E-001;-8.353455364704132E-002;-1.215436495840550E-003;-3.221908351406455E-003;
2.424333333333334E+009;1.653528511524200E-001;-8.518459647893906E-002;-1.461407518945634E-003;-2.862014109268785E-003;
2.424500000000000E+009;1.657006889581680E-001;-8.691932260990143E-002;-1.520288526080549E-003;-2.894670236855745E-003;
2.424666666666667E+009;1.661283224821091E-001;-8.819663524627686E-002;-1.816682401113212E-003;-2.852984238415957E-003;
2.424833333333334E+009;1.667386442422867E-001;-8.954703062772751E-002;-1.925274846144021E-003;-2.844204660505056E-003;
2.425000000000000E+009;1.671522855758667E-001;-9.074458479881287E-002;-2.182081341743469E-003;-2.641886007040739E-003;
2.425166666666667E+009;1.677618175745010E-001;-9.179175645112991E-002;-2.268305979669094E-003;-2.656566211953759E-003;
2.425333333333334E+009;1.680529862642288E-001;-9.275429695844650E-002;-2.312494907528162E-003;-2.464338205754757E-003;
2.425500000000000E+009;1.687474548816681E-001;-9.373861551284790E-002;-2.503614872694016E-003;-2.239381894469261E-003;
2.425666666666667E+009;1.691749393939972E-001;-9.431827068328857E-002;-2.585135400295258E-003;-2.285619964823127E-003;
2.425833333333334E+009;1.697092652320862E-001;-9.528664499521256E-002;-2.668462926521897E-003;-2.076496602967382E-003;
2.426000000000000E+009;1.703183203935623E-001;-9.553590416908264E-002;-2.908458467572928E-003;-1.909405458718538E-003;
2.426166666666667E+009;1.708201467990875E-001;-9.612499922513962E-002;-3.008002415299416E-003;-1.787071349099279E-003;
2.426333333333334E+009;1.711548119783402E-001;-9.662779420614243E-002;-3.213327145203948E-003;-1.636962755583227E-003;
2.426500000000000E+009;1.716956198215485E-001;-9.699892252683640E-002;-3.213643794879317E-003;-1.376686384901404E-003;
2.426666666666667E+009;1.720177680253983E-001;-9.730228036642075E-002;-3.190868999809027E-003;-1.262461650185287E-003;
2.426833333333334E+009;1.724146157503128E-001;-9.762784093618393E-002;-3.318335628136993E-003;-1.114771002903581E-003;
2.427000000000000E+009;1.726023852825165E-001;-9.790322929620743E-002;-3.380232490599155E-003;-1.065627904608846E-003;
2.427166666666667E+009;1.728020757436752E-001;-9.794640541076660E-002;-3.418321954086423E-003;-7.980971713550389E-004;
2.427333333333334E+009;1.727667003870010E-001;-9.822046756744385E-002;-3.330953884869814E-003;-5.789480055682361E-004;
2.427500000000000E+009;1.726920902729034E-001;-9.848640114068985E-002;-3.299445379525423E-003;-5.226893699727953E-004;
2.427666666666667E+009;1.725624650716782E-001;-9.856628626585007E-002;-3.286846680566669E-003;-2.469400933478028E-004;
