# Hz S RI R 50
2400000000.0000000000 0.154864028096199007888955634371 0.106174960732459994217080634371 -0.004260934889316558837890625000 -0.000999737414531409740447998047 0 0 0 0 
2400166666.6666665077 0.155342236161231994628906250000 0.104367554187774699836488423443 -0.003405777271836996078491210938 0.000323257991112768704265040265 0 0 0 0 
2400333333.3333334923 0.155240595340728787521200615629 0.101262710988521603683309990629 -0.003516018856316804885864257812 -0.000995181733742356300354003906 0 0 0 0 
2400500000.0000000000 0.154975160956382806975994981258 0.099308043718338012695312500000 -0.004555914551019668579101562500 0.000221251917537301805898389273 0 0 0 0 
2400666666.6666665077 0.155403673648834200760049384371 0.096226349472999572753906250000 -0.003598465817049146132228232275 -0.000660180288832634687423706055 0 0 0 0 
2400833333.3333334923 0.155706465244293212890625000000 0.093747705221176147460937500000 -0.003346794517710804939270019531 0.000482362433103844523429870605 0 0 0 0 
2401000000.0000000000 0.154512569308280889313067518742 0.090505279600620269775390625000 -0.005861137062311173352713300488 -0.001440281863324343941332172925 0 0 0 0 
2401166666.6666665077 0.155552104115486200530682481258 0.087606847286224365234375000000 -0.003937974106520414352416992188 -0.000689886510372161865234375000 0 0 0 0 
2401333333.3333334923 0.155880540609359713455361884371 0.085508324205875396728515625000 -0.004810743499547243118286132812 0.000681267003528773784637451172 0 0 0 0 
2401500000.0000000000 0.156252995133399991134481865629 0.082410171627998352050781250000 -0.004811659455299376574044512012 0.000754019885789602994918823242 0 0 0 0 
2401666666.6666665077 0.156519472599029513260049384371 0.079773314297199249267578125000 -0.004732691217213869094848632812 0.000868327100761234760284423828 0 0 0 0 
2401833333.3333334923 0.157267585396766690353231865629 0.077105894684791564941406250000 -0.004852741956710815429687500000 0.001046821475028991916059184497 0 0 0 0 
2402000000.0000000000 0.158224880695342989822549384371 0.074294172227382659912109375000 -0.004842151887714862823486328125 0.001232340233400464057922363281 0 0 0 0 
2402166666.6666665077 0.159006118774414090255575615629 0.071937985718250274658203125000 -0.004829009063541889190673828125 0.001436288468539715030072856372 0 0 0 0 
2402333333.3333334923 0.159964948892593411544638115629 0.069219529628753662109375000000 -0.004918927792459726333618164062 0.001692279707640409903285361182 0 0 0 0 
2402500000.0000000000 0.161229610443115206619424384371 0.066834524273872375488281250000 -0.004994604270905256271362304688 0.001775180106051265976549458081 0 0 0 0 
2402666666.6666665077 0.162313148379325894454794365629 0.064428597688674926757812500000 -0.004920678213238716125488281250 0.001980669330805540084838867188 0 0 0 0 
2402833333.3333334923 0.163534507155418395996093750000 0.061857063323259346698801408593 -0.004648564383387565612792968750 0.002314333338290452957153320312 0 0 0 0 
2403000000.0000000000 0.165183782577514703948651231258 0.059567894786596298217773437500 -0.004789370112121105194091796875 0.002553022000938653945922851562 0 0 0 0 
2403166666.6666665077 0.166619896888732910156250000000 0.057426620274782180786132812500 -0.004707863554358482360839843750 0.002711978508159517808201455225 0 0 0 0 
2403333333.3333334923 0.168120220303535489181356865629 0.055296901613473892211914062500 -0.004780260380357503890991210938 0.002933792304247618155238486182 0 0 0 0 
2403500000.0000000000 0.170126467943191500564736884371 0.053263802081346511840820312500 -0.004667324014008045196533203125 0.003187362337484955787658691406 0 0 0 0 
2403666666.6666665077 0.171829029917717007736044365629 0.051281671971082687377929687500 -0.004509201738983392715454101562 0.003630668390542269186732626807 0 0 0 0 
2403833333.3333334923 0.173443973064422607421875000000 0.049465380609035491943359375000 -0.004464319441467523574829101562 0.003786343149840832190272665869 0 0 0 0 
2404000000.0000000000 0.174862146377563504318075615629 0.047560289502143859863281250000 -0.004246993921697139739990234375 0.003988143056631088256835937500 0 0 0 0 
2404166666.6666665077 0.176589950919151306152343750000 0.046250429004430770874023437500 -0.003912868443876504898071289062 0.003239276120439171791076660156 0 0 0 0 
2404333333.3333334923 0.178154483437538202483807481258 0.044665753841400153423268903907 -0.002472641877830028967616415869 0.004475878085941076278686523438 0 0 0 0 
2404500000.0000000000 0.179819613695144708831463731258 0.043475914746522903442382812500 -0.003012200584635138945338583838 0.004843040835112333297729492188 0 0 0 0 
2404666666.6666665077 0.181423902511596707443075615629 0.042374573647975921630859375000 -0.002878243569284677939174033057 0.004112414550036191940307617188 0 0 0 0 
2404833333.3333334923 0.183008059859275790115518134371 0.041141767054796218872070312500 -0.002235230524092913107631064307 0.006363921333104372024536132812 0 0 0 0 
2405000000.0000000000 0.184406384825706509689169365629 0.040621154010295867919921875000 -0.002697552088648080825805664062 0.004507292527705430984497070312 0 0 0 0 
2405166666.6666665077 0.185649678111076410491619981258 0.039720039814710617065429687500 -0.002840495901182293891906738281 0.005265333689749240875244140625 0 0 0 0 
2405333333.3333334923 0.187199920415878295898437500000 0.039299316704273216938059221093 -0.002191736595705151991603232275 0.005887683480978012084960937500 0 0 0 0 
2405500000.0000000000 0.188486695289611788650674384371 0.038824524730443947528879533593 -0.001333411084488034031511616284 0.006795336958020926389212323926 0 0 0 0 
2405666666.6666665077 0.189681440591812106033486884371 0.038497112691402442241628278907 -0.001961010042577981948852539062 0.005478333216160535812377929688 0 0 0 0 
2405833333.3333334923 0.190953224897384588043536268742 0.038256090134382247924804687500 -0.001663243863731622912763286060 0.005205962806940078735351562500 0 0 0 0 
2406000000.0000000000 0.191940531134605407714843750000 0.037998292595148086547851562500 -0.001463051768951117992401123047 0.005242325365543366345877362988 0 0 0 0 
2406166666.6666665077 0.192844390869140597244424384371 0.037784829735755920410156250000 -0.001145728514529765085933066260 0.005247334484010934829711914062 0 0 0 0 
2406333333.3333334923 0.193845003843307495117187500000 0.037786893546581268310546875000 -0.001010601990856230042101215894 0.005293990951031447324270917676 0 0 0 0 
2406500000.0000000000 0.194503128528594998458700615629 0.037894573062658309936523437500 -0.000533408077899366617202758789 0.005225171335041522979736328125 0 0 0 0 
2406666666.6666665077 0.194989696145057705978231865629 0.037941109389066703105886091407 -0.000560793792828917503356933594 0.005081819836050271987915039062 0 0 0 0 
2406833333.3333334923 0.195565715432167108733807481258 0.037870675325393676757812500000 -0.000193866289919242289945325308 0.005092735867947340011596679688 0 0 0 0 
2407000000.0000000000 0.195801004767417907714843750000 0.037845347076654427265207658593 -0.000013776372725260440597330400 0.005125140771269798278808593750 0 0 0 0 
2407166666.6666665077 0.196159914135932894607705634371 0.037805896252393722534179687500 0.000212010403629392412587842398 0.004961766302585601806640625000 0 0 0 0 
2407333333.3333334923 0.196135744452476501464843750000 0.037939179688692092895507812500 0.000464963639387860894203186035 0.004950448404997587203979492188 0 0 0 0 
2407500000.0000000000 0.196020707488059997558593750000 0.037833083420991897583007812500 0.000746857956983149051666259766 0.004832130391150712966918945312 0 0 0 0 
2407666666.6666665077 0.195922210812568692306356865629 0.037729717791080481792409528907 0.000860210217069834470748901367 0.004580562468618155393118573926 0 0 0 0 
2407833333.3333334923 0.195496827363967895507812500000 0.037600297480821609497070312500 0.001092376653105020956752158057 0.004597728606313467025756835938 0 0 0 0 
2408000000.0000000000 0.195511072874069213867187500000 0.037368115037679672241210937500 0.001157238380983472087262797778 0.004453507252037525177001953125 0 0 0 0 
2408166666.6666665077 0.194736346602439908126669365629 0.037042897194623947143554687500 0.001352623803541064045549702222 0.004167752340435981750488281250 0 0 0 0 
2408333333.3333334923 0.194478869438171386718750000000 0.036589175462722778320312500000 0.001331833773292600891710590894 0.004182859789580106735229492188 0 0 0 0 
2408500000.0000000000 0.193817943334579495529013115629 0.036201883107423782348632812500 0.001478315913118422031402587891 0.004006530158221721649169921875 0 0 0 0 
2408666666.6666665077 0.193185240030288696289062500000 0.035487674176692962646484375000 0.001618367503397166945813823169 0.003719344735145568847656250000 0 0 0 0 
2408833333.3333334923 0.192257821559906005859375000000 0.034789603203535079956054687500 0.001601413707248866991755820166 0.003773055737838149070739746094 0 0 0 0 
2409000000.0000000000 0.191437542438507107833700615629 0.033836144953966140747070312500 0.001626729965209960937500000000 0.003595540765672922134399414062 0 0 0 0 
2409166666.6666665077 0.190482497215270996093750000000 0.032751999795436859130859375000 0.001722047920338809923884726416 0.003314301371574401855468750000 0 0 0 0 
2409333333.3333334923 0.189642027020454406738281250000 0.031737804412841796875000000000 0.001841856283135711929918598706 0.003290900494903326034545898438 0 0 0 0 
2409500000.0000000000 0.188495591282844487945880018742 0.030417567119002338754674141796 0.002022568602114915847778320312 0.003264780854806303977966308594 0 0 0 0 
2409666666.6666665077 0.187358111143112210372763115629 0.029012054204940799367884451954 0.001988939009606837792637490381 0.003068129532039165930507040869 0 0 0 0 
2409833333.3333334923 0.186376452445983886718750000000 0.027611101046204570425013358204 0.002038715174421668052673339844 0.002958732191473246054408408057 0 0 0 0 
2410000000.0000000000 0.185374289751052911956463731258 0.025930730625987049448033516796 0.002082213759422301812412881006 0.002838069805875421004054404150 0 0 0 0 
2410166666.6666665077 0.184651747345924405196981865629 0.023977881297469139099121093750 0.002121781930327415899989462744 0.002696023555472493171691894531 0 0 0 0 
2410333333.3333334923 0.183615267276763888260049384371 0.022355500608682628976842110546 0.002068644622340797944309853662 0.002615312580019236044642783057 0 0 0 0 
2410500000.0000000000 0.182673767209053011795205634371 0.020300546661019328725794608204 0.001939264009706676006317138672 0.002612401498481630845310830225 0 0 0 0 
2410666666.6666665077 0.181847333908081110198651231258 0.018134467303752899169921875000 0.002111724810674787001368857275 0.002321724779903889136073447119 0 0 0 0 
2410833333.3333334923 0.181169539690017700195312500000 0.016092313453555110586146170704 0.002007141476497054100036621094 0.002411809749901295141932822119 0 0 0 0 
2411000000.0000000000 0.180358126759529113769531250000 0.013759876601397989445696445898 0.001979505410417913956883095850 0.002349119167774916128871298682 0 0 0 0 
2411166666.6666665077 0.179914742708206204513388115629 0.011632546782493589573870274023 0.001981076551601291136500693213 0.002228318480774759812595986475 0 0 0 0 
2411333333.3333334923 0.179193601012229891678018134371 0.009024795144796371459960937500 0.001992331119254231886622763525 0.001968873664736748175380087744 0 0 0 0 
2411500000.0000000000 0.178867921233177212814169365629 0.006702052429318428039550781250 0.001869769650511444048640585791 0.001883432385511695904972695459 0 0 0 0 
2411666666.6666665077 0.178834915161132812500000000000 0.004348408896476030349731445312 0.001942562288604676940320659106 0.001744950190186500982997275244 0 0 0 0 
2411833333.3333334923 0.178589046001434298416299384371 0.001951776910573244094848632812 0.001818466698750853972194052588 0.001863721408881247043609619141 0 0 0 0 
2412000000.0000000000 0.178747415542602511306924384371 -0.000558060302864760160446166992 0.001837564283050596930860209888 0.001718139857985079071642231519 0 0 0 0 
2412166666.6666665077 0.178547024726867703536825615629 -0.002789705991744995117187500000 0.001681873109191655895830463940 0.001609555562026798941968608325 0 0 0 0 
2412333333.3333334923 0.178956851363182095626669365629 -0.005439056549221277236938476562 0.001622080802917480902430868994 0.001601765048690140030504536206 0 0 0 0 
2412500000.0000000000 0.179420724511146600921307481258 -0.007681911811232566833496093750 0.001491839764639735005022358472 0.001573965768329798958422016675 0 0 0 0 
2412666666.6666665077 0.179900303483009310623330634371 -0.010107630863785740243931954296 0.001389735494740306897404336084 0.001618278329260647080065083081 0 0 0 0 
2412833333.3333334923 0.180508822202682495117187500000 -0.012581497430801389866839024023 0.001530117122456430955174111475 0.001727679860778152942657470703 0 0 0 0 
2413000000.0000000000 0.181210801005363492111044365629 -0.014778402633965020615547381055 0.001278317766264081001281738281 0.001696948427706957080243754810 0 0 0 0 
2413166666.6666665077 0.181989759206771906097088731258 -0.016924452036619189870814139454 0.001293924986384809017181396484 0.001685196068137883923174213940 0 0 0 0 
2413333333.3333334923 0.183070808649063110351562500000 -0.019227743148803710937500000000 0.001237158197909594015834189307 0.001767919980920851013780903394 0 0 0 0 
2413500000.0000000000 0.184017062187194796463174384371 -0.021656122058629989624023437500 0.001101302681490778923034667969 0.001802418730221688964246440356 0 0 0 0 
2413666666.6666665077 0.184909343719482394119424384371 -0.023622104898095130920410156250 0.001369233475998044013977050781 0.001624305266886949972865439307 0 0 0 0 
2413833333.3333334923 0.185996919870376586914062500000 -0.025683658197522159921666329296 0.001255129813216627077815390479 0.002005717717111111120936728369 0 0 0 0 
2414000000.0000000000 0.187110811471939086914062500000 -0.027629626914858821523646170704 0.001215431606397032954572368091 0.002196591813117266134974814307 0 0 0 0 
2414166666.6666665077 0.188397899270057705978231865629 -0.029358174651861190795898437500 0.001234161783941090106964111328 0.002059648744761943817138671875 0 0 0 0 
2414333333.3333334923 0.189469769597053500076455634371 -0.031389530748128890991210937500 0.001301178359426558017730712891 0.002191933570429683165309286963 0 0 0 0 
2414500000.0000000000 0.190651953220367403885049384371 -0.032724604010581970214843750000 0.001442453823983669064165424878 0.002276854123920201821568154443 0 0 0 0 
2414666666.6666665077 0.191741719841957092285156250000 -0.034234438091516501689870466407 0.001516398857347667000414204175 0.002225165953859686851501464844 0 0 0 0 
2414833333.3333334923 0.192833155393600491622763115629 -0.035490427166223532939870466407 0.001686665811575948975206684644 0.002387386048212647004368447412 0 0 0 0 
2415000000.0000000000 0.194028854370117187500000000000 -0.036748573184013366699218750000 0.001750779687426984093309711987 0.002293792553246020837071084131 0 0 0 0 
2415166666.6666665077 0.195136204361915588378906250000 -0.037758816033601760864257812500 0.001825398067012429020525288159 0.002317145699635148048400878906 0 0 0 0 
2415333333.3333334923 0.196345344185829190353231865629 -0.038688156753778457641601562500 0.001880519092082977078081440503 0.002557577565312385992762900244 0 0 0 0 
2415500000.0000000000 0.197310045361518887618856865629 -0.039541721343994140625000000000 0.001940815011039376042009663159 0.002452750923112034797668457031 0 0 0 0 
2415666666.6666665077 0.198281913995742797851562500000 -0.040288392454385757446289062500 0.002251994563266634941101074219 0.002446501748636364936828613281 0 0 0 0 
2415833333.3333334923 0.199087455868721008300781250000 -0.040838647633790969848632812500 0.002222130540758370919468545068 0.002606406109407544136047363281 0 0 0 0 
2416000000.0000000000 0.199817061424255398849325615629 -0.041454270482063293457031250000 0.002275615464895964102504111182 0.002654825104400515990016318213 0 0 0 0 
2416166666.6666665077 0.200528740882873507400674384371 -0.041983686387538909912109375000 0.002534410450607537789585732568 0.002608599606901406808140420068 0 0 0 0 
2416333333.3333334923 0.201080814003944396972656250000 -0.042167156934738159179687500000 0.002789100632071495056152343750 0.002543440554291009902954101562 0 0 0 0 
2416500000.0000000000 0.201553061604499789138955634371 -0.042433638125658042217214216407 0.003013164270669221878051757812 0.002506079617887734933140420068 0 0 0 0 
2416666666.6666665077 0.201805204153060913085937500000 -0.042737826704978942871093750000 0.003225650871172546906712197412 0.002471328712999821142909384619 0 0 0 0 
2416833333.3333334923 0.201930344104766901214276231258 -0.042758457362651831890065778907 0.003299626754596828980686806787 0.002489086706191300912144326318 0 0 0 0 
2417000000.0000000000 0.202034294605255099197549384371 -0.042953670024871833110768903907 0.003516968805342913107631064307 0.002239431021735072135925292969 0 0 0 0 
2417166666.6666665077 0.201689392328262301345986884371 -0.042924705892801291728932966407 0.003661257214844226837158203125 0.002207047771662474112269736182 0 0 0 0 
2417333333.3333334923 0.201426178216934204101562500000 -0.042745351791381842876393903907 0.003691893536597489876988076318 0.001955190673470497131347656250 0 0 0 0 
2417500000.0000000000 0.201179474592208890060263115629 -0.042730305343866348266601562500 0.003925798460841178894042968750 0.001879498362541198947309184497 0 0 0 0 
2417666666.6666665077 0.200676098465919494628906250000 -0.042432107031345367431640625000 0.003999897278845310211181640625 0.001496444456279278018354106372 0 0 0 0 
2417833333.3333334923 0.200160652399063110351562500000 -0.042265806347131729125976562500 0.004178032744675874710083007812 0.001298938877880573055864643628 0 0 0 0 
2418000000.0000000000 0.199494808912277193924111884371 -0.042065132409334182739257812500 0.004013927187770605087280273438 0.001162520027719438076019287109 0 0 0 0 
2418166666.6666665077 0.198647677898407010177450615629 -0.042021166533231742168386091407 0.004182813689112663269042968750 0.000870522577315568923950195312 0 0 0 0 
2418333333.3333334923 0.197728604078292902190838731258 -0.041939675807952880859375000000 0.004179438110440970334524823926 0.000820515386294573653876149866 0 0 0 0 
2418500000.0000000000 0.196611449122428894042968750000 -0.041997220367193222045898437500 0.004154657013714314374441816113 0.000660948047880083322525024414 0 0 0 0 
2418666666.6666665077 0.195804744958877591232138115629 -0.041793834418058402324636091407 0.004169391002506017684936523438 0.000566637201700359582901000977 0 0 0 0 
2418833333.3333334923 0.194576710462570190429687500000 -0.041858971118927001953125000000 0.004128369968384504318237304688 0.000437456910731270909309387207 0 0 0 0 
2419000000.0000000000 0.193188443779945401290731865629 -0.042236246168613426898996721093 0.004196882247924804687500000000 0.000134819812956266105175018311 0 0 0 0 
2419166666.6666665077 0.192094996571540804763955634371 -0.042431741952896118164062500000 0.004128994885832071304321289062 0.000116605871880892704851688524 0 0 0 0 
2419333333.3333334923 0.190606534481048611739950615629 -0.043042141944169998168945312500 0.004179066512733697891235351562 0.000113276262709405300304135733 0 0 0 0 
2419500000.0000000000 0.189140722155571011642294365629 -0.043391555547714233398437500000 0.004087809938937425613403320312 -0.000108855041617061902158199171 0 0 0 0 
2419666666.6666665077 0.187630385160446194747763115629 -0.044196818023920059204101562500 0.004322906490415334701538085938 -0.000121470351587049703724445482 0 0 0 0 
2419833333.3333334923 0.186042919754981994628906250000 -0.044793713837862021709401716407 0.004150620196014642715454101562 -0.000204374009626917486816960468 0 0 0 0 
2420000000.0000000000 0.184631332755088806152343750000 -0.045740611851215362548828125000 0.004149756394326686859130859375 -0.000310701550915837287902832031 0 0 0 0 
