# Hz S RI R 50
2400000000.0000000000 0.155132904648780794998330634371 0.106627725064754499961772182814 -0.005112908780574798583984375000 -0.003514513140544294877293252100 0 0 0 0 
2400166666.6666665077 0.154684051871299688141192518742 0.104250423610210404823384067186 -0.005355515982955694198608398438 -0.003371095983311533927917480469 0 0 0 0 
2400333333.3333334923 0.154783248901367187500000000000 0.101863943040370899528745951557 -0.005609526764601469039916992188 -0.003119768109172583060023642432 0 0 0 0 
2400500000.0000000000 0.154652267694473294357138115629 0.099389970302581787109375000000 -0.005763752851635217666625976562 -0.002708343788981438116786337744 0 0 0 0 
2400666666.6666665077 0.154743313789367703536825615629 0.096689917147159576416015625000 -0.006040381733328104019165039062 -0.002443659817799925804138183594 0 0 0 0 
2400833333.3333334923 0.154736086726188687423544365629 0.093807980418205261230468750000 -0.006134236231446266174316406250 -0.001963009126484394073486328125 0 0 0 0 
2401000000.0000000000 0.154863402247428894042968750000 0.091161698102951049804687500000 -0.006110784132033587369436933301 -0.001652418519370258071302104419 0 0 0 0 
2401166666.6666665077 0.155030980706214904785156250000 0.088284648954868316650390625000 -0.006117636337876319885253906250 -0.001231327769346534989000629956 0 0 0 0 
2401333333.3333334923 0.155396595597267206390057481258 0.085564702749252319335937500000 -0.005885936319828032579903887012 -0.000935251708142459392547607422 0 0 0 0 
2401500000.0000000000 0.155899181962013189117755018742 0.082675337791442871093750000000 -0.005978304427117109298706054688 -0.000636643846519291400909423828 0 0 0 0 
2401666666.6666665077 0.156325325369834899902343750000 0.079852916300296783447265625000 -0.005893412511795759201049804688 -0.000241392161115072694703778677 0 0 0 0 
2401833333.3333334923 0.156654849648475702483807481258 0.076942421495914459228515625000 -0.005569765344262123107910156250 0.000224863964831456487804967059 0 0 0 0 
2402000000.0000000000 0.157660111784934997558593750000 0.074143968522548675537109375000 -0.005421148613095284375662519238 0.000338143639964982921451014386 0 0 0 0 
2402166666.6666665077 0.158373177051544189453125000000 0.071602284908294677734375000000 -0.005162419751286506652832031250 0.000367798871593549901812952863 0 0 0 0 
2402333333.3333334923 0.159261301159858703613281250000 0.068985730409622192382812500000 -0.004866931121796370419974042676 0.000587403890676796436309814453 0 0 0 0 
2402500000.0000000000 0.160345628857612609863281250000 0.066371470689773559570312500000 -0.004786056932061910629272460938 0.000581652217078953981399536133 0 0 0 0 
2402666666.6666665077 0.161596253514289911468182481258 0.064081750810146331787109375000 -0.004515091422945261001586914062 0.000768991478253155946731567383 0 0 0 0 
2402833333.3333334923 0.162873342633247403243856865629 0.061500769108533859252929687500 -0.004519854206591845426077558301 0.000857937498949468135833740234 0 0 0 0 
2403000000.0000000000 0.164270892739295987228231865629 0.059115935117006301879882812500 -0.004420487675815820693969726562 0.000798388151451945304870605469 0 0 0 0 
2403166666.6666665077 0.166002660989761408050213731258 0.056880556046962738037109375000 -0.004231821279972791671752929688 0.000799011788330972194671630859 0 0 0 0 
2403333333.3333334923 0.167528405785560607910156250000 0.054862920194864273071289062500 -0.004062197171151638031005859375 0.000869818089995533227920532227 0 0 0 0 
2403500000.0000000000 0.169112354516983004470986884371 0.052815951406955718994140625000 -0.003926933743059635162353515625 0.000955017574597150087356567383 0 0 0 0 
2403666666.6666665077 0.171109288930892888824786268742 0.050771128386259078979492187500 -0.004023933783173561096191406250 0.000946098589338362216949462891 0 0 0 0 
2403833333.3333334923 0.172420307993888910491619981258 0.048952214419841773296315778907 -0.003966830205172300338745117188 0.001093743601813911957981728662 0 0 0 0 
2404000000.0000000000 0.174127042293548611739950615629 0.047067202627658837055246721093 -0.004002686124294996261596679688 0.000940179510507732629776000977 0 0 0 0 
2404166666.6666665077 0.175816461443901089767294365629 0.045743577182292938232421875000 -0.003771645948290824890136718750 0.000972670444753021001815795898 0 0 0 0 
2404333333.3333334923 0.177360102534294100662393134371 0.044094987213611602783203125000 -0.003998390864580869674682617188 0.001068263431079685904859233325 0 0 0 0 
2404500000.0000000000 0.178880542516708401779013115629 0.042728032916784293437917341407 -0.003963693976402282714843750000 0.001245223334990442016004252856 0 0 0 0 
2404666666.6666665077 0.180614128708839388748330634371 0.041715268045663826679270158593 -0.003975569736212491989135742188 0.001249371562153100967407226562 0 0 0 0 
2404833333.3333334923 0.182353377342224093338174384371 0.040590249001979827880859375000 -0.003815478179603815078735351562 0.001511643524281681017634726416 0 0 0 0 
2405000000.0000000000 0.183750629425048800369424384371 0.039915487170219421386718750000 -0.003846478182822465896606445312 0.001525390078313648917554545825 0 0 0 0 
2405166666.6666665077 0.185119405388832092285156250000 0.039308909326791763305664062500 -0.003767579561099410057067871094 0.001733158365823328928706503760 0 0 0 0 
2405333333.3333334923 0.186517193913459805587606865629 0.038740631192922592163085937500 -0.003666940145194530920741415869 0.001810207497328520038007426685 0 0 0 0 
2405500000.0000000000 0.188005521893501309493856865629 0.038302898406982421875000000000 -0.003732260549440979957580566406 0.001852059853263198895695351709 0 0 0 0 
2405666666.6666665077 0.189255192875862093826455634371 0.038009345531463623046875000000 -0.003501358674839138984680175781 0.002129623666405677795410156250 0 0 0 0 
2405833333.3333334923 0.190500393509864807128906250000 0.037791565060615539550781250000 -0.003541860729455947875976562500 0.002041800878942012786865234375 0 0 0 0 
2406000000.0000000000 0.191446542739868191818075615629 0.037488769739866256713867187500 -0.003318006405606865882873535156 0.002059855265542864799499511719 0 0 0 0 
2406166666.6666665077 0.192421257495880099197549384371 0.037378512322902679443359375000 -0.003267059801146388053894042969 0.002072538249194622039794921875 0 0 0 0 
2406333333.3333334923 0.193333446979522705078125000000 0.037457559257745742797851562500 -0.003015550551936029954197548975 0.002135061658918858008143759619 0 0 0 0 
2406500000.0000000000 0.194157078862190302093182481258 0.037459876388311393047292341407 -0.002997605362907052040100097656 0.002160410163924098014831542969 0 0 0 0 
2406666666.6666665077 0.194675654172897311111611884371 0.037562452256679541851003278907 -0.002909098286181687875034951318 0.002012697979807854132411337744 0 0 0 0 
2406833333.3333334923 0.195358097553253201583700615629 0.037551846355199806903879533593 -0.002819931600242853164672851562 0.002242666436359285874607705225 0 0 0 0 
2407000000.0000000000 0.195616453886032104492187500000 0.037984251976013176654856096093 -0.002757519483566284179687500000 0.002010288648307323889491415869 0 0 0 0 
2407166666.6666665077 0.195977017283439608474893134371 0.037736453115940087055246721093 -0.002712645335122942924499511719 0.002018109429627656936645507812 0 0 0 0 
2407333333.3333334923 0.195921614766120910644531250000 0.038038212805986397480051408593 -0.002759110881015657944920205225 0.002036266261711717085597372900 0 0 0 0 
2407500000.0000000000 0.195923417806625393966513115629 0.038164123892784118652343750000 -0.002708781044930220083949423682 0.001925376243889332034467387622 0 0 0 0 
2407666666.6666665077 0.195905253291130093673544365629 0.038101341575384140014648437500 -0.002611810807138680978062295068 0.001929250196553766944287944263 0 0 0 0 
2407833333.3333334923 0.195387303829193087478799384371 0.038044583052396767353098283593 -0.002579555148258804841282509912 0.001884690602310002066968608325 0 0 0 0 
2408000000.0000000000 0.195371791720390292068643134371 0.037922132760286331176757812500 -0.002755388151854277090785361182 0.001707263872958719947217631763 0 0 0 0 
2408166666.6666665077 0.194779336452484103103799384371 0.037627078592777252197265625000 -0.002720768796280026002171181787 0.001862311386503278992296528394 0 0 0 0 
2408333333.3333334923 0.194403007626533508300781250000 0.037092398852109909057617187500 -0.002825876930728555159327841650 0.001592236803844570896745991284 0 0 0 0 
2408500000.0000000000 0.193743363022804288009481865629 0.036891762167215347290039062500 -0.002861072309315205054042197119 0.001787159591913223049761128003 0 0 0 0 
2408666666.6666665077 0.193199813365936307052450615629 0.036404680460691452026367187500 -0.002950860885903238816502236475 0.001858127652667463042615580981 0 0 0 0 
2408833333.3333334923 0.192418187856674194335937500000 0.035502474755048751831054687500 -0.003091395599767566160914755713 0.001838732277974485917332314600 0 0 0 0 
2409000000.0000000000 0.191633746027946499923544365629 0.034734696149826049804687500000 -0.002971645910292863845825195312 0.002073235809803009033203125000 0 0 0 0 
2409166666.6666665077 0.190434202551841708084268134371 0.033694099634885787963867187500 -0.003395091276615858078002929688 0.001985134324058889909031533350 0 0 0 0 
2409333333.3333334923 0.189550891518592806717080634371 0.032733414322137832641601562500 -0.003333077766001224951503134619 0.002190805738791822953465127100 0 0 0 0 
2409500000.0000000000 0.188357308506965609451455634371 0.031565055251121520996093750000 -0.003527527907863258881809853662 0.002287779701873660087585449219 0 0 0 0 
2409666666.6666665077 0.187448158860206604003906250000 0.030087051913142200815221016796 -0.003613709704950451850891113281 0.002519032219424843788146972656 0 0 0 0 
2409833333.3333334923 0.186394169926643399337606865629 0.028647085651755329477330391796 -0.003502116538584231896641396631 0.002739634830504655838012695312 0 0 0 0 
2410000000.0000000000 0.185469642281532287597656250000 0.027065787464380260812779610546 -0.003679238725453615188598632812 0.002884815214201807975769042969 0 0 0 0 
2410166666.6666665077 0.184405043721199007888955634371 0.025141781195998188364049141796 -0.003660470945760608153102255713 0.003215855453163384957554482568 0 0 0 0 
2410333333.3333334923 0.183533757925033597091513115629 0.023279774934053421020507812500 -0.003551824251189827919006347656 0.003432543016970158056971884619 0 0 0 0 
2410500000.0000000000 0.182661622762680109222088731258 0.021404391154646870004674141796 -0.003599993186071515083312988281 0.003603639779612421989440917969 0 0 0 0 
2410666666.6666665077 0.181690335273742703536825615629 0.019057868048548698425292968750 -0.003597605274990200996398925781 0.003785433480516076087951660156 0 0 0 0 
2410833333.3333334923 0.181084305047988891601562500000 0.017045933753252029418945312500 -0.003439556807279586791992187500 0.003953727427870035171508789062 0 0 0 0 
2411000000.0000000000 0.180230632424354608733807481258 0.014843091368675230198870274023 -0.003246872685849667029139853369 0.004335184115916491422171308301 0 0 0 0 
2411166666.6666665077 0.179674685001373291015625000000 0.012537955306470390665074532421 -0.003118952037766575813293457031 0.004406840540468692779541015625 0 0 0 0 
2411333333.3333334923 0.179239451885223388671875000000 0.010032873600721359252929687500 -0.002866953378543258146998740088 0.004519575275480747222900390625 0 0 0 0 
2411500000.0000000000 0.178743928670883206466513115629 0.007506710942834615707397460938 -0.002704218961298466162440634619 0.004761821124702692031860351562 0 0 0 0 
2411666666.6666665077 0.178573489189148004729901231258 0.005336456932127475738525390625 -0.002533410908654332160949707031 0.005013734102249146375174237988 0 0 0 0 
2411833333.3333334923 0.178241938352584811111611884371 0.002844413742423057989833212744 -0.002338484628126025199890136719 0.005023625679314137372488691113 0 0 0 0 
2412000000.0000000000 0.178376615047454806228799384371 0.000228580160182900699690142221 -0.002015713136643170876743935693 0.005177217070013284683227539062 0 0 0 0 
2412166666.6666665077 0.178531721234321594238281250000 -0.002152365865185856819152832031 -0.001920328126288950009586953271 0.005168130621314048767089843750 0 0 0 0 
2412333333.3333334923 0.178733274340629605392294365629 -0.004556783474981784820556640625 -0.001666123513132333972333598560 0.005239751189947128295898437500 0 0 0 0 
2412500000.0000000000 0.179206609725952203948651231258 -0.007086273748427630338186933301 -0.001424683141522109942195273291 0.005266911815851926803588867188 0 0 0 0 
2412666666.6666665077 0.179882854223251287262286268742 -0.009602018631994724273681640625 -0.001170360366813838915583945166 0.005262583028525114059448242188 0 0 0 0 
2412833333.3333334923 0.180429786443710299392861884371 -0.012004643678665159398089024023 -0.001015456393361092047450400244 0.005263521336019039154052734375 0 0 0 0 
2413000000.0000000000 0.181275293231010409256143134371 -0.014390761964023109781285469921 -0.000929238623939454555511474609 0.005266327876597642898559570312 0 0 0 0 
2413166666.6666665077 0.181853160262107904632244981258 -0.016598341986536979675292968750 -0.000730406842194497585296630859 0.005169511772692204389090253613 0 0 0 0 
2413333333.3333334923 0.183137238025665310958700615629 -0.018974227830767631530761718750 -0.000710470485500991344451904297 0.005276515614241361618041992188 0 0 0 0 
2413500000.0000000000 0.184016466140747098068075615629 -0.021307323127985000610351562500 -0.000375519332010299021571558820 0.005210618022829294204711914062 0 0 0 0 
2413666666.6666665077 0.185085475444793701171875000000 -0.023657821118831641460378278907 -0.000383236998459324186474400653 0.005310133565217257413382245801 0 0 0 0 
2413833333.3333334923 0.186214700341224698165731865629 -0.025577111169695850717564766796 -0.000276002800092101097106933594 0.005237777251750230789184570312 0 0 0 0 
2414000000.0000000000 0.187220603227615411956463731258 -0.027601813897490501403808593750 -0.000113610083644743995226998601 0.005361550953239203366751386426 0 0 0 0 
2414166666.6666665077 0.188587069511413601974325615629 -0.029530033469200130807896798046 0.000035909408325096592307090759 0.005359308328479528427124023438 0 0 0 0 
2414333333.3333334923 0.189810857176780700683593750000 -0.031467638909816741943359375000 0.000034158874768763780593872070 0.005411237943917512893676757812 0 0 0 0 
2414500000.0000000000 0.191006273031234713455361884371 -0.032855384051799767231027971093 0.000285812158836051821708679199 0.005522304680198431015014648438 0 0 0 0 
2414666666.6666665077 0.192172095179557800292968750000 -0.034459888935089111328125000000 0.000422870711190626025199890137 0.005625914316624402999877929688 0 0 0 0 
2414833333.3333334923 0.193230956792831393142861884371 -0.035695999860763549804687500000 0.000740506802685558795928955078 0.005717081017792224884033203125 0 0 0 0 
2415000000.0000000000 0.194341003894805908203125000000 -0.037065967917442321777343750000 0.001101503730751574039459228516 0.005763161461800336837768554688 0 0 0 0 
2415166666.6666665077 0.195533409714698791503906250000 -0.038231305778026580810546875000 0.001294354791752994060516357422 0.005772827193140983581542968750 0 0 0 0 
2415333333.3333334923 0.196840032935142489334268134371 -0.039091464132070541381835937500 0.001489263493567704937578510815 0.005683453287929297360892011426 0 0 0 0 
2415500000.0000000000 0.197897255420684786697549384371 -0.039633277803659439086914062500 0.001859182026237248940708779443 0.005666602402925491333007812500 0 0 0 0 
2415666666.6666665077 0.198827371001243591308593750000 -0.040729090571403503417968750000 0.002286450704559683799743652344 0.005739248823374509811401367188 0 0 0 0 
2415833333.3333334923 0.199740946292877197265625000000 -0.041198376566171653057057966407 0.002510741818696260885951376807 0.005634329747408629331106855176 0 0 0 0 
2416000000.0000000000 0.200483813881874112228231865629 -0.041874170303344726562500000000 0.002650244161486626105067587744 0.005402579903602600097656250000 0 0 0 0 
2416166666.6666665077 0.201173648238182095626669365629 -0.042342949658632278442382812500 0.003090326674282550811767578125 0.005272126290947198867797851562 0 0 0 0 
2416333333.3333334923 0.201885849237441988845986884371 -0.042608771473169326782226562500 0.003207728499546647071838378906 0.005105265881866216659545898438 0 0 0 0 
2416500000.0000000000 0.202302321791648892501669365629 -0.042826898396015167236328125000 0.003292153356596827940699911963 0.004884115420281887054443359375 0 0 0 0 
2416666666.6666665077 0.202664136886596707443075615629 -0.043175961822271347045898437500 0.003528311150148510932922363281 0.004662608262151479721069335938 0 0 0 0 
2416833333.3333334923 0.202775597572326687911825615629 -0.043151471763849258422851562500 0.003618476446717977957484579932 0.004508842248469591140747070312 0 0 0 0 
2417000000.0000000000 0.202926963567733792404013115629 -0.043255258351564407348632812500 0.003899868810549377961399697412 0.004217152483761310577392578125 0 0 0 0 
2417166666.6666665077 0.202522739768028287032919365629 -0.043103236705064766620676408593 0.003921115770936012268066406250 0.003998894710093736648559570312 0 0 0 0 
2417333333.3333334923 0.202392145991325406173544365629 -0.042896714061498641967773437500 0.004149476997554302215576171875 0.003677729982882738113403320312 0 0 0 0 
2417500000.0000000000 0.202010691165924100021200615629 -0.042886126786470413208007812500 0.004199001472443342208862304688 0.003558904398232698006870888818 0 0 0 0 
2417666666.6666665077 0.201609715819358797928018134371 -0.042655281722545616840402971093 0.004090395756065846356863691113 0.003309133229777216911315917969 0 0 0 0 
2417833333.3333334923 0.201223775744438199142294365629 -0.042521350085735321044921875000 0.004255028441548348340506269238 0.003106877906247973008396767725 0 0 0 0 
2418000000.0000000000 0.200514242053031893631143134371 -0.042087625712156302715261091407 0.004168559797108173370361328125 0.002996569965034722848179482568 0 0 0 0 
2418166666.6666665077 0.199707746505737304687500000000 -0.042221337556838989257812500000 0.004271622747182846069335937500 0.002869634889066218896153115381 0 0 0 0 
2418333333.3333334923 0.198764964938163812835369981258 -0.041855365037918090820312500000 0.004394144285470247268676757812 0.002571997698396443886997841943 0 0 0 0 
2418500000.0000000000 0.197749733924865694900674384371 -0.041970342397689819335937500000 0.004313177894800901412963867188 0.002439222531393169923069619287 0 0 0 0 
2418666666.6666665077 0.196881771087646512130575615629 -0.041856519877910607074777971093 0.004170420113950967788696289062 0.002335079945623875097987509619 0 0 0 0 
2418833333.3333334923 0.195522114634513910491619981258 -0.042026877403259277343750000000 0.004276823252439498901367187500 0.002206149511039257049560546875 0 0 0 0 
2419000000.0000000000 0.194235190749168395996093750000 -0.042183630168437957763671875000 0.004235704895108938217163085938 0.001983711030334233803990029443 0 0 0 0 
2419166666.6666665077 0.193030625581741305252236884371 -0.042445961385965347290039062500 0.004159598145633935928344726562 0.001836451119743287997004843604 0 0 0 0 
2419333333.3333334923 0.191464409232139587402343750000 -0.042963154613971710205078125000 0.004238452762365341186523437500 0.001703860238194466070887900244 0 0 0 0 
2419500000.0000000000 0.190059259533882113357705634371 -0.043334186077117919921875000000 0.004231214057654142379760742188 0.001573663786984980106353759766 0 0 0 0 
2419666666.6666665077 0.188337609171867398361044365629 -0.044132534414529800415039062500 0.004182860255241394042968750000 0.001452506985515356063842773438 0 0 0 0 
2419833333.3333334923 0.186851695179939297775106865629 -0.044858962297439582134206403907 0.004196160938590764999389648438 0.001318354159593581936479878003 0 0 0 0 
