# Hz S RI R 
2400000000.0000000000 0.157459586858749389648437500000 0.060237973928451538085937500000 -0.002629247959703207015991210938 0.000261158886132761781841832294 0 0 0 0 
2400166666.6666665077 0.157659128308296203613281250000 0.058414220809936523437500000000 -0.002471477724611759185791015625 0.000385572988307103514671325684 0 0 0 0 
2400333333.3333334923 0.157613635063171386718750000000 0.056646663695573806762695312500 -0.002513739978894590897801064600 0.000382184109184890985488891602 0 0 0 0 
2400500000.0000000000 0.157917514443397494217080634371 0.054688721895217902446706403907 -0.002563686342909932136535644531 0.000536930107045918703079223633 0 0 0 0 
2400666666.6666665077 0.157933428883552606780682481258 0.052676990628242492675781250000 -0.002621168736368418173549033057 0.000395566341467201709747314453 0 0 0 0 
2400833333.3333334923 0.158497571945190401931924384371 0.050745882093906402587890625000 -0.002533088671043515205383300781 0.000680896278936415910720825195 0 0 0 0 
2401000000.0000000000 0.158553227782249506194744981258 0.048580884933471679687500000000 -0.002477005822584033012390136719 0.000554530881345272064208984375 0 0 0 0 
2401166666.6666665077 0.158901810646057101150674384371 0.046733699738979339599609375000 -0.002427933271974325180053710938 0.000661733502056449651718139648 0 0 0 0 
2401333333.3333334923 0.159427925944328308105468750000 0.044528353959321982646901716407 -0.002340920967981218858006142725 0.000861845270264893770217895508 0 0 0 0 
2401500000.0000000000 0.159901186823844909667968750000 0.042650692164897918701171875000 -0.002617326332256197929382324219 0.000889362825546413660049438477 0 0 0 0 
2401666666.6666665077 0.160206273198127802093182481258 0.040815636515617370605468750000 -0.002307728165760635895970009912 0.000905419467017054557800292969 0 0 0 0 
2401833333.3333334923 0.160893589258193997482138115629 0.038756590336561203002929687500 -0.002349009970203042030334472656 0.000870197894982993602752685547 0 0 0 0 
2402000000.0000000000 0.161305516958236694335937500000 0.036812096834182739257812500000 -0.002203119453042746023890829932 0.001009691157378256104112934644 0 0 0 0 
2402166666.6666665077 0.162195995450019808670205634371 0.035104732960462570190429687500 -0.002342531224712729887721396338 0.001047754311002790927886962891 0 0 0 0 
2402333333.3333334923 0.162754893302917508224325615629 0.033464431762695312500000000000 -0.002096879761666059927699423682 0.001160275423899292945861816406 0 0 0 0 
2402500000.0000000000 0.163449212908744812011718750000 0.031750936061143882060964216407 -0.002065950073301792144775390625 0.000975866743829101324081420898 0 0 0 0 
2402666666.6666665077 0.164157643914222689529580634371 0.030227506533265110361119454296 -0.002067535184323788122889853369 0.001146290334872901005985879053 0 0 0 0 
2402833333.3333334923 0.165054038166999789138955634371 0.028738487511873248708704764454 -0.002083565341308712959289550781 0.001167686539702117009403847803 0 0 0 0 
2403000000.0000000000 0.165823876857757596114950615629 0.027271527796983718872070312500 -0.001977937994524836973903036963 0.001230422640219331004499125903 0 0 0 0 
2403166666.6666665077 0.166662663221359308440838731258 0.025939496234059330331822579296 -0.001933077583089471080182719653 0.001152249635197222015978169019 0 0 0 0 
2403333333.3333334923 0.167455390095710809905682481258 0.024564864113926890981653983204 -0.001965500880032777786254882812 0.001120220986194909052607870947 0 0 0 0 
2403500000.0000000000 0.168414160609245300292968750000 0.023367369547486308706263358204 -0.001926531200297177054761577075 0.001201504725031554915784526294 0 0 0 0 
2403666666.6666665077 0.169180780649185208419638115629 0.022120971232652660715123360546 -0.001847216510213911967036581885 0.001152799814008175893070839990 0 0 0 0 
2403833333.3333334923 0.170167282223701504806356865629 0.021193755790591239929199218750 -0.001883996068499981923344277490 0.001209451351314783096313476562 0 0 0 0 
2404000000.0000000000 0.171208009123802212814169365629 0.020202618092298511159876639454 -0.001893167733214796023127890479 0.001350042992271482944488525391 0 0 0 0 
2404166666.6666665077 0.171918243169784601409588731258 0.019181892275810241699218750000 -0.001829869812354446107979799585 0.001456693862564861991285014575 0 0 0 0 
2404333333.3333334923 0.172784745693206787109375000000 0.018477737903594970703125000000 -0.001817832235246896960614848560 0.001437967177480458996416401440 0 0 0 0 
2404500000.0000000000 0.173375099897384588043536268742 0.017668535932898521423339843750 -0.001800149795599282004712748950 0.001412522164173424027086567456 0 0 0 0 
2404666666.6666665077 0.174186736345291109939736884371 0.016907991841435428964635079296 -0.001641150796785951094386435400 0.001703245798125863075256347656 0 0 0 0 
2404833333.3333334923 0.174999892711639404296875000000 0.016236163675785071636159528907 -0.001659831847064197063446044922 0.001716784085147083022473979419 0 0 0 0 
2405000000.0000000000 0.175763398408889798263388115629 0.015628965571522709238072579296 -0.001572120236232876994489360278 0.001764601795002818107604980469 0 0 0 0 
2405166666.6666665077 0.176388308405876187423544365629 0.015130893327295780181884765625 -0.001578855444677174091339111328 0.001812981208786367936375283350 0 0 0 0 
2405333333.3333334923 0.176837593317031888107138115629 0.014599796384572979318638985546 -0.001560535165481268925907754053 0.001614244771189988093135214697 0 0 0 0 
2405500000.0000000000 0.177406042814254788497763115629 0.014288385398685930424700352148 -0.001388999051414429924608540112 0.001968723023310304121730185400 0 0 0 0 
2405666666.6666665077 0.177781954407692011077557481258 0.013887979090213780838936052930 -0.001403100672177969975712441553 0.001843905542045831897138286060 0 0 0 0 
2405833333.3333334923 0.178145274519920404632244981258 0.013639554381370539229423322070 -0.001240289071574806950212788159 0.001963970717042684988734579932 0 0 0 0 
2406000000.0000000000 0.178597107529640197753906250000 0.013055359013378620147705078125 -0.001139565487392246940015483325 0.002036919351667166189906454932 0 0 0 0 
2406166666.6666665077 0.178693950176239013671875000000 0.012955160811543469864814959180 -0.001064930693246423981310200269 0.001976433675736188888549804688 0 0 0 0 
2406333333.3333334923 0.179033219814300509353799384371 0.012565313838422300166119960352 -0.001086865435354412035701132666 0.001913226558826863982556987231 0 0 0 0 
2406500000.0000000000 0.179108723998069790939169365629 0.012202293612062929326067539648 -0.000911999493837356567382812500 0.002044083783403038978576660156 0 0 0 0 
2406666666.6666665077 0.179088041186332702636718750000 0.011829255148768430191963396680 -0.000862604530993849039077758789 0.001985257258638740019557333838 0 0 0 0 
2406833333.3333334923 0.179068267345428494552450615629 0.011425446718931199854840663477 -0.000814334780443459749221801758 0.001991379307582974000218056787 0 0 0 0 
2407000000.0000000000 0.179056480526924105545205634371 0.011053704656660560262659842579 -0.000663633050862699747085571289 0.002007150091230868859532021631 0 0 0 0 
2407166666.6666665077 0.178886517882347106933593750000 0.010545197874307630711565586523 -0.000705323705915361642837524414 0.001946848817169666073442768628 0 0 0 0 
2407333333.3333334923 0.178675770759582491775674384371 0.010019853711128240067451677930 -0.000671874731779098510742187500 0.001823915285058320002314902197 0 0 0 0 
2407500000.0000000000 0.178405985236167907714843750000 0.009442069567739963531494140625 -0.000600691651925444602966308594 0.001893519540317357020137167822 0 0 0 0 
2407666666.6666665077 0.177980750799179104904013115629 0.008893713355064392089843750000 -0.000567389419302344322204589844 0.001887682243250309987309121240 0 0 0 0 
2407833333.3333334923 0.177474156022071810623330634371 0.008141454309225082397460937500 -0.000464549171738326603740137921 0.001971275545656681060791015625 0 0 0 0 
2408000000.0000000000 0.177130982279777499099893134371 0.007243223488330841064453125000 -0.000391709967516362721293848859 0.001851545763202012018916464697 0 0 0 0 
2408166666.6666665077 0.176768600940704401214276231258 0.006522098556160926818847656250 -0.000390302710002288222312927246 0.001847704988904296918156289209 0 0 0 0 
2408333333.3333334923 0.176366046071052606780682481258 0.005503356456756591796875000000 -0.000349262845702469403117579327 0.001701363478787242932560586084 0 0 0 0 
2408500000.0000000000 0.175629019737243707854901231258 0.004447744227945804595947265625 -0.000458374357549473589092808856 0.001705121365375817038892436450 0 0 0 0 
2408666666.6666665077 0.175192698836326599121093750000 0.003343197982758284048793173682 -0.000261570356087759082943516864 0.001860763062722980976104736328 0 0 0 0 
2408833333.3333334923 0.174342185258865411956463731258 0.002256950829178094863891601562 -0.000251596706220880205005091534 0.001652260776609181924107216943 0 0 0 0 
2409000000.0000000000 0.173717781901359613616619981258 0.001029693754389882087707519531 -0.000310071045532822608947753906 0.001748718204908072948455810547 0 0 0 0 
2409166666.6666665077 0.173261478543281610686932481258 -0.000287228467641398310661315918 -0.000123360572615638402387341910 0.001626302604563534042955708081 0 0 0 0 
2409333333.3333334923 0.172701701521873501876669365629 -0.001754039665684103965759277344 -0.000140130461659282500117701398 0.001604447141289710998535156250 0 0 0 0 
2409500000.0000000000 0.172158971428871210296307481258 -0.003340793307870626015904091943 -0.000273430487141013199656885968 0.001596764195710421042201376807 0 0 0 0 
2409666666.6666665077 0.171513512730598505218182481258 -0.004821844864636659622192382812 -0.000171190084074623909875592642 0.001614054781384766101837158203 0 0 0 0 
2409833333.3333334923 0.170900270342826787750567518742 -0.006161551922559738159179687500 -0.000258764048339799100726527081 0.001461975392885505936266254956 0 0 0 0 
2410000000.0000000000 0.170342817902565002441406250000 -0.007741361390799283981323242188 -0.000096976815257221460342407227 0.001571099390275775952580117334 0 0 0 0 
2410166666.6666665077 0.170045763254165704925213731258 -0.009595103561878204345703125000 -0.000057255128922406577248165743 0.001702864887192844910862588037 0 0 0 0 
2410333333.3333334923 0.169571846723556490799111884371 -0.011436999775469299661656563671 -0.000228684002649970406859797345 0.001534773618914186954498291016 0 0 0 0 
2410500000.0000000000 0.169316604733467102050781250000 -0.012924830429255960637102695898 -0.000149844199768267599031171255 0.001555574825033545927760458838 0 0 0 0 
2410666666.6666665077 0.168936297297477694412393134371 -0.015011955983936790121058280079 -0.000169258972164243486806592398 0.001610404578968882994410849463 0 0 0 0 
2410833333.3333334923 0.168707504868507413009481865629 -0.016775406897068020212193673046 0.000125945836771279600545606070 0.001468202681280672983882285010 0 0 0 0 
2411000000.0000000000 0.168565720319747897049111884371 -0.018637074157595630991002266796 -0.000154263616423122611924848013 0.001564501901157199902775429834 0 0 0 0 
2411166666.6666665077 0.168420895934104891678018134371 -0.020658103749156001699427420704 0.000017444595869164910504614183 0.001577123883180320046068501050 0 0 0 0 
2411333333.3333334923 0.168541043996810913085937500000 -0.022428644821047779428502266796 -0.000014308994650491509923731157 0.001449771341867744922637939453 0 0 0 0 
2411500000.0000000000 0.168305173516273498535156250000 -0.024469833821058269845982735546 -0.000076499665738083422183990479 0.001631970400921999974491738428 0 0 0 0 
2411666666.6666665077 0.168585360050201388260049384371 -0.026315849274396899831751639454 0.000071814218244981020689010620 0.001591461012139915986302041162 0 0 0 0 
2411833333.3333334923 0.168597370386123712737713731258 -0.028037147596478458749791329296 -0.000094196322606876492500305176 0.001618612324818968989728618091 0 0 0 0 
2412000000.0000000000 0.169110611081123407561932481258 -0.029952375218272209167480468750 -0.000116862029244657605886459351 0.001567131839692593054530478369 0 0 0 0 
2412166666.6666665077 0.169190108776092501541299384371 -0.031872916966676712036132812500 0.000016768386558396738359724351 0.001763106207363307909724570166 0 0 0 0 
2412333333.3333334923 0.169574692845344487945880018742 -0.033482618629932396625559221093 0.000158553273649886304706019269 0.001799001707695424990413046729 0 0 0 0 
2412500000.0000000000 0.169863134622573908050213731258 -0.035405173897743232036550153907 -0.000039510741771664470434188843 0.001749941031448543071746826172 0 0 0 0 
2412666666.6666665077 0.170400708913803100585937500000 -0.037155710160732269287109375000 0.000076244708907324820756912231 0.001697411062195897102355957031 0 0 0 0 
2412833333.3333334923 0.170962929725647000411825615629 -0.038825463503599166870117187500 0.000242116671870462596416473389 0.001830989727750421004054404150 0 0 0 0 
2413000000.0000000000 0.171241700649261502364950615629 -0.040479648858308792114257812500 0.000172562271472997990533551627 0.001652114442549645900726318359 0 0 0 0 
2413166666.6666665077 0.171671554446220397949218750000 -0.042054791003465652465820312500 0.000117022005724720697529377123 0.001822547172196208997013711084 0 0 0 0 
2413333333.3333334923 0.172368541359901400467080634371 -0.043754350394010536884348283593 0.000262268469668924808502197266 0.001782198320142925002454448169 0 0 0 0 
2413500000.0000000000 0.172731414437294006347656250000 -0.045045375823974609375000000000 0.000374950643163174390792846680 0.001738626742735505104064941406 0 0 0 0 
2413666666.6666665077 0.173383414745330810546875000000 -0.046498991549015052104909528907 0.000369048852007836103439331055 0.001851695706136524894117045825 0 0 0 0 
2413833333.3333334923 0.173883870244026211837606865629 -0.047775715589523322368581403907 0.000500615395139902830123901367 0.001766419271007179997087788159 0 0 0 0 
2414000000.0000000000 0.174438014626502990722656250000 -0.048993039876222610473632812500 0.000657728640362620353698730469 0.001782960374839603900909423828 0 0 0 0 
2414166666.6666665077 0.175028175115585299392861884371 -0.050149794667959213256835937500 0.000600274244789034128189086914 0.001819271710701287009595561450 0 0 0 0 
2414333333.3333334923 0.175494372844695989410723768742 -0.051234476268291473388671875000 0.000777603010646998882293701172 0.001769764581695199012756347656 0 0 0 0 
2414500000.0000000000 0.176182970404624911209268134371 -0.052223581820726401592214216407 0.000899627571925520896911621094 0.001685434719547628922703408350 0 0 0 0 
2414666666.6666665077 0.176415264606475802322549384371 -0.053034041076898581767995466407 0.000828236108645796775817871094 0.001666474388912319920183491284 0 0 0 0 
2414833333.3333334923 0.176770821213722201248330634371 -0.054076980799436569213867187500 0.000888044072780758142471313477 0.001774957985617219968083047021 0 0 0 0 
2415000000.0000000000 0.177159473299980191329794365629 -0.054471429437398910522460937500 0.001031765597872436046600341797 0.001460387255065143108367919922 0 0 0 0 
2415166666.6666665077 0.177525147795677212814169365629 -0.055292218923568732524831403907 0.001009452389553189060808491284 0.001465259119868278937098837744 0 0 0 0 
2415333333.3333334923 0.177768424153327886383380018742 -0.055962216109037399291992187500 0.001165486406534909985185932690 0.001602441188879311084747314453 0 0 0 0 
2415500000.0000000000 0.177918553352356012542401231258 -0.056430287659168243408203125000 0.001214073505252599933026957935 0.001568502397276460907579731519 0 0 0 0 
2415666666.6666665077 0.177860289812088012695312500000 -0.056918289512395858764648437500 0.001218160730786622004268027197 0.001371266786009073040605854565 0 0 0 0 
2415833333.3333334923 0.178002819418907193282919365629 -0.057316407561302191997487653907 0.001170889474451541900634765625 0.001377766020596026940586709131 0 0 0 0 
2416000000.0000000000 0.177890971302986200530682481258 -0.057658739387989037250559221093 0.001239278702996670982958149487 0.001484318869188427925109863281 0 0 0 0 
2416166666.6666665077 0.177961334586143493652343750000 -0.057976253330707550048828125000 0.001228157198056579069850302588 0.001233311719261110045789409106 0 0 0 0 
2416333333.3333334923 0.177712813019752502441406250000 -0.058236073702573783184011091407 0.001301277661696075959446572412 0.001225827494636178016662597656 0 0 0 0 
2416500000.0000000000 0.177362009882926913162393134371 -0.058624248951673507690429687500 0.001387769123539329008815146338 0.001065324409864842891693115234 0 0 0 0 
2416666666.6666665077 0.176933392882347106933593750000 -0.058831159025430679321289062500 0.001299783820286392948747944409 0.000896017416380345821380615234 0 0 0 0 
2416833333.3333334923 0.176663234829902704436932481258 -0.059261482208967208862304687500 0.001344222575426101901410746997 0.000885351619217544794082641602 0 0 0 0 
2417000000.0000000000 0.175895288586616488357705634371 -0.059580907225608832622487653907 0.001213693874888122081756591797 0.000790141348261386156082153320 0 0 0 0 
2417166666.6666665077 0.175397485494613702972088731258 -0.059666350483894348144531250000 0.001323662931099534034729003906 0.000899234786629676818847656250 0 0 0 0 
2417333333.3333334923 0.174653992056846590896768134371 -0.059915922582149512554128278907 0.001260185730643569989445351709 0.000733292370568960905075073242 0 0 0 0 
2417500000.0000000000 0.173884212970733587066973768742 -0.060450077056884772563893903907 0.001287403749302030043361044775 0.000721777381841093301773071289 0 0 0 0 
2417666666.6666665077 0.173116862773895291427450615629 -0.060624916106462478637695312500 0.001237956457771361091016459888 0.000587083282880485057830810547 0 0 0 0 
2417833333.3333334923 0.172140836715698186676348768742 -0.060964435338973999023437500000 0.001186062465421855015995644678 0.000607233610935509204864501953 0 0 0 0 
2418000000.0000000000 0.171018257737159701248330634371 -0.061559353023767471313476562500 0.001168057904578744931461953271 0.000731698703020811080932617188 0 0 0 0 
2418166666.6666665077 0.170102223753929110428018134371 -0.061992067843675613403320312500 0.001167216803878545977948832935 0.000437962269643321579128819598 0 0 0 0 
2418333333.3333334923 0.169357433915138189117755018742 -0.062553815543651580810546875000 0.001182042993605137088178325122 0.000416561204474419409602564679 0 0 0 0 
2418500000.0000000000 0.168108493089675903320312500000 -0.063004657626152038574218750000 0.001137692015618086078046489185 0.000514356070198118686676025391 0 0 0 0 
2418666666.6666665077 0.167034611105918912032919365629 -0.063707254827022552490234375000 0.000955466297455132007598876953 0.000414389418438076972961425781 0 0 0 0 
2418833333.3333334923 0.165654361248016412933026231258 -0.064486257731914520263671875000 0.001121509121730924086329794775 0.000428514875238761305809020996 0 0 0 0 
2419000000.0000000000 0.164430126547813387771768134371 -0.065148502588272094726562500000 0.001106956973671912930132221753 0.000626805180218070853888356897 0 0 0 0 
2419166666.6666665077 0.163323447108268710037393134371 -0.065957508981227874755859375000 0.000961403071414679288864135742 0.000473453575978055596351623535 0 0 0 0 
2419333333.3333334923 0.162131726741790799239950615629 -0.066746674478054046630859375000 0.001000005053356290080426860278 0.000555630831513553857803344727 0 0 0 0 
2419500000.0000000000 0.160968706011772211272869981258 -0.067803785204887390136718750000 0.000983372796326875686645507812 0.000473492895253002589375096454 0 0 0 0 
2419666666.6666665077 0.159964114427566500564736884371 -0.068976216018199920654296875000 0.000820623070467263460159301758 0.000498192501254379749298095703 0 0 0 0 
2419833333.3333334923 0.158785000443458612640057481258 -0.069928094744682312011718750000 0.000938418903388082981109619141 0.000601087987888604402542114258 0 0 0 0 
2420000000.0000000000 0.157722696661949213225994981258 -0.071155056357383728027343750000 0.000890189316123723983764648438 0.000528577656950801610946655273 0 0 0 0 
