# Hz S RI R 
2400000000.0000000000 0.157466754317283602615518134371 0.060348819941282272338867187500 -0.002565043978393077850341796875 0.000515205436386168003082275391 0 0 0 0 
2400166666.6666665077 0.157562479376792907714843750000 0.058738775551319122314453125000 -0.002681802259758114814758300781 0.000312428077450022101402282715 0 0 0 0 
2400333333.3333334923 0.157785728573799105545205634371 0.056618761271238327026367187500 -0.002722098026424645943882607568 0.000394853675970807725757044659 0 0 0 0 
2400500000.0000000000 0.157960623502731295486611884371 0.054568257182836532592773437500 -0.002602395834401249885559082031 0.000551739532966166734695434570 0 0 0 0 
2400666666.6666665077 0.158145204186439486404580634371 0.052555810660123832012136091407 -0.002521376125514506860020302881 0.000598865502979606389999389648 0 0 0 0 
2400833333.3333334923 0.158432126045227106292401231258 0.050798580050468451763112653907 -0.002571254502981901168823242188 0.000769398233387619256973266602 0 0 0 0 
2401000000.0000000000 0.158704400062561007400674384371 0.048719257116317749023437500000 -0.002495156601071358160731650244 0.000728225859347730875015258789 0 0 0 0 
2401166666.6666665077 0.159046456217765808105468750000 0.046702384948730468750000000000 -0.002447232836857438087463378906 0.000947035674471408128738403320 0 0 0 0 
2401333333.3333334923 0.159235939383506802657919365629 0.044647671282291412353515625000 -0.002428639214485884146449423682 0.001026792800985276915906596606 0 0 0 0 
2401500000.0000000000 0.159932017326355008224325615629 0.042502019554376602172851562500 -0.002444722922518848939182900537 0.000834192789625376462936401367 0 0 0 0 
2401666666.6666665077 0.160464704036712701995526231258 0.040881905704736709594726562500 -0.002439712872728704972508095850 0.001005863305181265094159770435 0 0 0 0 
2401833333.3333334923 0.160979479551315307617187500000 0.038890857249498367309570312500 -0.002355774166062473817112588037 0.000964898848906159400939941406 0 0 0 0 
2402000000.0000000000 0.161166757345199612716513115629 0.036956939846277236938476562500 -0.002387479180470108985900878906 0.001040033064782619909999228369 0 0 0 0 
2402166666.6666665077 0.161921501159667996505575615629 0.035068165510892868041992187500 -0.002168021630495787100550986182 0.001099404296837747097015380859 0 0 0 0 
2402333333.3333334923 0.162656247615814208984375000000 0.033443477004766457294504533593 -0.002088048728182911872863769531 0.001143973669968545003178261865 0 0 0 0 
2402500000.0000000000 0.163557156920432988922442518742 0.031783271580934531475026716407 -0.002209105063229798836949013818 0.001062875497154891924617148291 0 0 0 0 
2402666666.6666665077 0.164409026503562899490518134371 0.030276957899332049978236014454 -0.002214985899627209143397665869 0.001089460100047290108324360425 0 0 0 0 
2402833333.3333334923 0.165042549371719388107138115629 0.028743270784616470336914062500 -0.002071755705401300950291298975 0.001143101369962095997453999097 0 0 0 0 
2403000000.0000000000 0.165795132517814608474893134371 0.027296999469399448740025704296 -0.002139009768143295808079384912 0.001240959856659173965454101562 0 0 0 0 
2403166666.6666665077 0.166721791028976412674111884371 0.025827867910265919076939766796 -0.001952845603227614922764443506 0.001202744548209011988398886572 0 0 0 0 
2403333333.3333334923 0.167583107948303194900674384371 0.024607388302683830261230468750 -0.001864148536697030067443847656 0.001346909091807902076123881763 0 0 0 0 
2403500000.0000000000 0.168222323060035705566406250000 0.023488415405154231679896170704 -0.001828129519708455042598105322 0.001242149854078888893127441406 0 0 0 0 
2403666666.6666665077 0.169357761740684509277343750000 0.022044733166694641113281250000 -0.001896382891573012091993022388 0.001385573530569673018214560400 0 0 0 0 
2403833333.3333334923 0.170335158705711392501669365629 0.021121017634868618356724923046 -0.001919305068440734906437539209 0.001464334083721041896222758716 0 0 0 0 
2404000000.0000000000 0.171048954129219110686932481258 0.020159620791673660278320312500 -0.001880438183434308008906699072 0.001446650014258920929552387769 0 0 0 0 
2404166666.6666665077 0.171914964914321899414062500000 0.019210362806916240346888358204 -0.001842011464759708101388002710 0.001355337910354136986973427881 0 0 0 0 
2404333333.3333334923 0.172651752829551696777343750000 0.018436279147863391530970389454 -0.001811384805478156046626425635 0.001566025544889271042467426831 0 0 0 0 
2404500000.0000000000 0.173417106270790100097656250000 0.017409337684512138366699218750 -0.001877382281236350970027304541 0.001615405897609889940974570166 0 0 0 0 
2404666666.6666665077 0.174280598759651211837606865629 0.016741422936320308340052420704 -0.001709063188172877051709819263 0.001609422615729271931889199365 0 0 0 0 
2404833333.3333334923 0.174897789955139187911825615629 0.016177762299776080739954764454 -0.001435232930816709995269775391 0.001608840655535459952113486182 0 0 0 0 
2405000000.0000000000 0.175539135932922391036825615629 0.015649698674678799020787423046 -0.001625161501578987078425742041 0.001671613776125014045118022388 0 0 0 0 
2405166666.6666665077 0.176066517829894991775674384371 0.015147224999964240682581717579 -0.001447873772121966102002788013 0.001915754866786300919176411206 0 0 0 0 
2405333333.3333334923 0.176869824528694208343182481258 0.014674089848995210474957850977 -0.001490942086093127944348979419 0.001867290004156529903411865234 0 0 0 0 
2405500000.0000000000 0.177429914474487304687500000000 0.014209799468517299997349923046 -0.001340910093858838081359863281 0.001900281524285674095153808594 0 0 0 0 
2405666666.6666665077 0.177843764424324007888955634371 0.013845184817910189192802228320 -0.001346236094832419915440224756 0.001892587402835488102556538159 0 0 0 0 
2405833333.3333334923 0.178058370947837801834268134371 0.013559600338339810807197771680 -0.001353728235699235959293984521 0.001980477944016457037684775244 0 0 0 0 
2406000000.0000000000 0.178460165858268710037393134371 0.013036547228693960362444492773 -0.001188100315630435943603515625 0.002107014646753668785095214844 0 0 0 0 
2406166666.6666665077 0.178674131631851196289062500000 0.012873117811977859842320626171 -0.001093979110009968063951801831 0.001906608114950359084485698169 0 0 0 0 
2406333333.3333334923 0.178924649953842190841513115629 0.012517761439085010183314139454 -0.000895828299690037965774536133 0.002018184168264269828796386719 0 0 0 0 
2406500000.0000000000 0.179008334875106811523437500000 0.012095212936401370656946951954 -0.000937348406296223402023315430 0.001953203231096268133876181494 0 0 0 0 
2406666666.6666665077 0.178963810205459594726562500000 0.011872713454067710531214530079 -0.000830294680781662464141845703 0.001873488188721240000483847510 0 0 0 0 
2406833333.3333334923 0.178934425115585299392861884371 0.011432668194174770009974295704 -0.000876341830007731914520263672 0.001939479960128664970397949219 0 0 0 0 
2407000000.0000000000 0.178989648818969698806924384371 0.011095228604972360783587070898 -0.000697311712428927421569824219 0.001790640992112457969068217700 0 0 0 0 
2407166666.6666665077 0.178916513919830294510049384371 0.010673857294023040426234061329 -0.000645011430606245994567871094 0.001823653699830174012425088037 0 0 0 0 
2407333333.3333334923 0.178521677851676913162393134371 0.009984188713133335113525390625 -0.000488703895825892686843872070 0.001843851408921181938768696362 0 0 0 0 
2407500000.0000000000 0.178175166249275207519531250000 0.009536284953355789184570312500 -0.000607529247645288705825805664 0.001920406590215862014173198169 0 0 0 0 
2407666666.6666665077 0.177967593073844909667968750000 0.008847738616168498992919921875 -0.000538470048923045396804809570 0.001952987979166209914563823169 0 0 0 0 
2407833333.3333334923 0.177438825368881197830361884371 0.008084187284111976623535156250 -0.000450891995569691116183680402 0.001808615983463824012159038013 0 0 0 0 
2408000000.0000000000 0.177011594176292391678018134371 0.007334511727094650268554687500 -0.000485879339976236224174499512 0.001759144011884927966474223560 0 0 0 0 
2408166666.6666665077 0.176480084657669095138388115629 0.006583723705261945724487304688 -0.000420871569076552987098693848 0.001886876299977302984950400244 0 0 0 0 
2408333333.3333334923 0.176198720932006808181924384371 0.005591261666268110275268554688 -0.000509340956341475248336791992 0.001718112383969127915026020581 0 0 0 0 
2408500000.0000000000 0.175653249025344904143963731258 0.004736572038382291793823242188 -0.000461364281363785321086329327 0.001639513298869132995605468750 0 0 0 0 
2408666666.6666665077 0.175134986639022799392861884371 0.003624771255999803976771689307 -0.000378660304704680984646397723 0.001739733736030756993534707178 0 0 0 0 
2408833333.3333334923 0.174475893378257806975994981258 0.002269965596497058868408203125 -0.000285975489532575011253356934 0.001696297549642622904536581885 0 0 0 0 
2409000000.0000000000 0.173802748322486905196981865629 0.001311668078415096022962260669 -0.000217171866097487509250640869 0.001577918999828398010851215894 0 0 0 0 
2409166666.6666665077 0.173258185386657687088174384371 -0.000074970739660784602165222168 -0.000186555451364256387383061542 0.001633267616853117942810058594 0 0 0 0 
2409333333.3333334923 0.172730490565299987792968750000 -0.001638133544474839947344135815 -0.000232681530178524607985895978 0.001691414974629878997802734375 0 0 0 0 
2409500000.0000000000 0.172126606106758089920205634371 -0.003112165257334709167480468750 -0.000132821282022632712691706525 0.001532226684503257057787251050 0 0 0 0 
2409666666.6666665077 0.171433314681053189376669365629 -0.004647891037166118621826171875 -0.000075252341048326343297958374 0.001754218363203108093859028394 0 0 0 0 
2409833333.3333334923 0.170892164111137390136718750000 -0.005959289614111185073852539062 -0.000109940345282666398726324763 0.001647689728997647979139018481 0 0 0 0 
2410000000.0000000000 0.170505881309509305099325615629 -0.007784191519021987915039062500 -0.000050522197852842509746551514 0.001611469197086990096448588794 0 0 0 0 
2410166666.6666665077 0.170063570141792297363281250000 -0.009466259740293025970458984375 -0.000140768563142046305254259653 0.001648663543164730072021484375 0 0 0 0 
2410333333.3333334923 0.169643938541412409026776231258 -0.011201120913028720510462576954 -0.000215934036532416912630358286 0.001561748911626636981964111328 0 0 0 0 
2410500000.0000000000 0.169285655021667508224325615629 -0.012985392473638059443463710352 -0.000161836040206253501489916391 0.001753196702338754913927387769 0 0 0 0 
2410666666.6666665077 0.168944463133812006194744981258 -0.015005958266556259500523751171 -0.000179603841388598111554822379 0.001546618761494755961774516528 0 0 0 0 
2410833333.3333334923 0.168859317898750305175781250000 -0.016667744144797328603724295704 -0.000148321400047279894351959229 0.001462696352973579926731728662 0 0 0 0 
2411000000.0000000000 0.168672606348991394042968750000 -0.018459497019648548471471016796 0.000035638018744066357612609863 0.001597222755663096904754638672 0 0 0 0 
2411166666.6666665077 0.168495357036590603927450615629 -0.020330499857664108276367187500 -0.000081761514593381434679031372 0.001557455165311693928362202222 0 0 0 0 
2411333333.3333334923 0.168402493000030489822549384371 -0.022241532802581790578821951954 -0.000047987101424951113086154325 0.001500287209637463092803955078 0 0 0 0 
2411500000.0000000000 0.168476372957229586502236884371 -0.024395328015089038503626639454 0.000043869680666830390691757202 0.001600710791535675959346152197 0 0 0 0 
2411666666.6666665077 0.168589293956756591796875000000 -0.026148337870836261404017264454 0.000103644924820400801583966666 0.001546240877360105948207236182 0 0 0 0 
2411833333.3333334923 0.168653413653373690506143134371 -0.028009943664073940622349923046 0.000013431848856271249667711752 0.001562125515192746899248432690 0 0 0 0 
2412000000.0000000000 0.168988376855850191970986884371 -0.029883168637752529489537423046 -0.000115331902634352499812525616 0.001736793201416731097577739185 0 0 0 0 
2412166666.6666665077 0.169228866696357699295205634371 -0.031762309372425079345703125000 0.000009460284672968555241823196 0.001745856599882245063781738281 0 0 0 0 
2412333333.3333334923 0.169618517160415704925213731258 -0.033631891012191772460937500000 0.000102540201623924103662213736 0.001780244405381381945369101416 0 0 0 0 
2412500000.0000000000 0.169910728931427001953125000000 -0.035172581672668457031250000000 0.000120894008432515006191791673 0.001811336260288953997968364185 0 0 0 0 
2412666666.6666665077 0.170284584164619501311932481258 -0.037141770124435431743581403907 0.000143176148412749198362073355 0.001766652334481477954267192310 0 0 0 0 
2412833333.3333334923 0.170849815011024502853231865629 -0.038871221244335181499440778907 0.000200704816961661008283338004 0.001624736352823674895642924731 0 0 0 0 
2413000000.0000000000 0.171373739838600186446981865629 -0.040492463856935501098632812500 0.000280741427559405619471949445 0.001659061643294990062713623047 0 0 0 0 
2413166666.6666665077 0.171676427125930786132812500000 -0.042039483785629272460937500000 0.000168730082805268493577680045 0.001866069040261209011077880859 0 0 0 0 
2413333333.3333334923 0.172119855880737304687500000000 -0.043611932545900351787526716407 0.000428803148679435307353419171 0.001944223651662468910217285156 0 0 0 0 
2413500000.0000000000 0.172867715358734103103799384371 -0.045055810362100601196289062500 0.000423645455157384276390075684 0.001723762950859963893890380859 0 0 0 0 
2413666666.6666665077 0.173493221402168301681356865629 -0.046352572739124298095703125000 0.000317407218972221016883850098 0.001802252256311476013780903394 0 0 0 0 
2413833333.3333334923 0.173967868089675903320312500000 -0.047649580985307686542551408593 0.000607399386353790760040283203 0.001801911392249166965484619141 0 0 0 0 
2414000000.0000000000 0.174408927559852600097656250000 -0.049088999629020690917968750000 0.000627088709734380353628957483 0.001935415435582398934605263818 0 0 0 0 
2414166666.6666665077 0.174992948770523099044638115629 -0.050137296319007866596262346093 0.000726146798115223646163940430 0.001858415431343019008636474609 0 0 0 0 
2414333333.3333334923 0.175566598773002596756143134371 -0.051187388598918921733815778907 0.000977471354417502880096435547 0.001908056205138563892961811597 0 0 0 0 
2414500000.0000000000 0.176074042916297912597656250000 -0.052108500152826309204101562500 0.000930853653699159622192382812 0.001685066963545978069305419922 0 0 0 0 
2414666666.6666665077 0.176470115780830411056356865629 -0.052984304726123809814453125000 0.000968807551544159650802612305 0.001830142573453485965728759766 0 0 0 0 
2414833333.3333334923 0.176760211586952209472656250000 -0.053949300199747092510182966407 0.000954423565417528152465820312 0.001552427420392632918116904150 0 0 0 0 
2415000000.0000000000 0.177174642682075500488281250000 -0.054500512778759002685546875000 0.001120192580856383063672709888 0.001695929677225648923161172021 0 0 0 0 
2415166666.6666665077 0.177409857511520413497763115629 -0.055229898542165763164479841407 0.001155146630480885939357138525 0.001620346680283546014073037256 0 0 0 0 
2415333333.3333334923 0.177713200449943486969317518742 -0.055933468043804168701171875000 0.001395252533257008032557822119 0.001559510594233870939967490088 0 0 0 0 
2415500000.0000000000 0.177931517362594604492187500000 -0.056387200951576232910156250000 0.001157747348770499012590717847 0.001544147729873657009722065503 0 0 0 0 
2415666666.6666665077 0.177883818745613098144531250000 -0.056768558919429779052734375000 0.001315010362304747104644775391 0.001357452361844480037689208984 0 0 0 0 
2415833333.3333334923 0.177953794598579406738281250000 -0.057268608361482620239257812500 0.001389873097650706984876323169 0.001183271640911697907688759912 0 0 0 0 
2416000000.0000000000 0.177797257900238009353799384371 -0.057718064635992050170898437500 0.001313968678005039908765483325 0.001249106484465301036834716797 0 0 0 0 
2416166666.6666665077 0.177879005670547513107138115629 -0.058063641190528869628906250000 0.001396767678670584938646626050 0.001200440805405377907993935693 0 0 0 0 
2416333333.3333334923 0.177561029791831997970419365629 -0.058259136974811547016184221093 0.001404456095770000977757119287 0.000964241626206785440444946289 0 0 0 0 
2416500000.0000000000 0.177318021655082702636718750000 -0.058592174202203750610351562500 0.001372366794385015964508056641 0.001118110609240829944610595703 0 0 0 0 
2416666666.6666665077 0.176974132657051086425781250000 -0.058834638446569442749023437500 0.001341343740932642979862832178 0.001072619343176484107971191406 0 0 0 0 
2416833333.3333334923 0.176596149802208002288494981258 -0.059143248945474631572682966407 0.001346348784863949038861918872 0.000951380236074328422546386719 0 0 0 0 
2417000000.0000000000 0.175778061151504488845986884371 -0.059368263930082321166992187500 0.001510515343397855975507426685 0.000859489198774099349975585938 0 0 0 0 
2417166666.6666665077 0.175285398960113497635049384371 -0.059619113802909851074218750000 0.001340985530987381935119628906 0.000756908557377755641937255859 0 0 0 0 
2417333333.3333334923 0.174638256430625887771768134371 -0.059884220361709601665456403907 0.001359454588964581923243857275 0.000878774502780288457870483398 0 0 0 0 
2417500000.0000000000 0.173802793025970486739950615629 -0.060311473906040191650390625000 0.001528894179500639004948281396 0.000639744917862117290496826172 0 0 0 0 
2417666666.6666665077 0.173117935657501192947549384371 -0.060534097254276282573659528907 0.001435849815607070922851562500 0.000584738096222281455993652344 0 0 0 0 
2417833333.3333334923 0.172157213091850308517294365629 -0.060939542949199683452565778907 0.001359782181680202917811728369 0.000536852283403277397155761719 0 0 0 0 
2418000000.0000000000 0.171141669154167203048544365629 -0.061408970504999160766601562500 0.001290488638915121989009238135 0.000543017580639570951461791992 0 0 0 0 
2418166666.6666665077 0.170159414410591097732705634371 -0.061802975833415992046315778907 0.001240280224010348103166889722 0.000451455562142655307620447980 0 0 0 0 
2418333333.3333334923 0.169282302260398892501669365629 -0.062278553843498229980468750000 0.001278802985325456099269247900 0.000398050760850310325622558594 0 0 0 0 
2418500000.0000000000 0.168017059564590509612713731258 -0.062962286174297332763671875000 0.001278281211853026910069131006 0.000508812197949737310409545898 0 0 0 0 
2418666666.6666665077 0.167053982615470886230468750000 -0.063688926398754119873046875000 0.001178188831545412974116660010 0.000416179362218827009201049805 0 0 0 0 
2418833333.3333334923 0.165831059217453002929687500000 -0.064356572926044464111328125000 0.001180990831926465034484863281 0.000450849271146580576896667480 0 0 0 0 
2419000000.0000000000 0.164532259106636102874432481258 -0.065125793218612670898437500000 0.001155760721303523020503378760 0.000430749874794855713844299316 0 0 0 0 
2419166666.6666665077 0.163535907864570589920205634371 -0.065950229763984680175781250000 0.001084221526980400085449218750 0.000381476653274148702621459961 0 0 0 0 
2419333333.3333334923 0.162231534719467190841513115629 -0.066744826734066009521484375000 0.001152635668404399914982461084 0.000474920903798192685276585712 0 0 0 0 
2419500000.0000000000 0.161065161228179903885049384371 -0.067903079092502593994140625000 0.000860412081237882375717163086 0.000401213939767330884933471680 0 0 0 0 
2419666666.6666665077 0.160060465335846002776776231258 -0.069026403129100799560546875000 0.001067131641320884010912251050 0.000591081799939274787902832031 0 0 0 0 
2419833333.3333334923 0.158699631690979003906250000000 -0.069920331239700317382812500000 0.001019334304146469073054648291 0.000522023881785571575164794922 0 0 0 0 
2420000000.0000000000 0.157910257577896090408486884371 -0.071122065186500549316406250000 0.000921648577786982059478759766 0.000534828868694603443145751953 0 0 0 0 
