# Version 1.00
#
freq[Hz];re:Trc1_S11;im:Trc1_S11;re:Trc2_S21;im:Trc2_S21;
2.400000000000000E+009;1.561640501022339E-001;1.066292822360992E-001;-2.838892396539450E-003;1.439829939045012E-003;
2.400166666666667E+009;1.558048278093338E-001;1.040792465209961E-001;-2.873355522751808E-003;1.672040787525475E-003;
2.400333333333334E+009;1.558863073587418E-001;1.019096672534943E-001;-2.951486734673381E-003;1.609907601960003E-003;
2.400500000000000E+009;1.558375060558319E-001;9.895932674407959E-002;-2.950377296656370E-003;1.759909326210618E-003;
2.400666666666667E+009;1.557721644639969E-001;9.654250741004944E-002;-2.989885862916708E-003;1.869180123321712E-003;
2.400833333333334E+009;1.556842178106308E-001;9.356296062469482E-002;-2.922842511907220E-003;1.968717901036143E-003;
2.401000000000000E+009;1.560197323560715E-001;9.060482680797577E-002;-2.887760289013386E-003;2.040710998699069E-003;
2.401166666666667E+009;1.559935510158539E-001;8.781756460666657E-002;-3.023749217391014E-003;2.207782352343202E-003;
2.401333333333334E+009;1.563531309366226E-001;8.499290049076080E-002;-2.932392992079258E-003;2.400959609076381E-003;
2.401500000000000E+009;1.568598896265030E-001;8.208833634853363E-002;-2.829360309988260E-003;2.518305322155356E-003;
2.401666666666667E+009;1.570401191711426E-001;7.920157164335251E-002;-2.716368529945612E-003;2.593277953565121E-003;
2.401833333333334E+009;1.578063517808914E-001;7.622009515762329E-002;-2.660762518644333E-003;2.811003010720015E-003;
2.402000000000000E+009;1.584983766078949E-001;7.345960289239883E-002;-2.510493621230125E-003;2.798180561512709E-003;
2.402166666666667E+009;1.593098342418671E-001;7.087855041027069E-002;-2.549970988184214E-003;2.886376110836864E-003;
2.402333333333334E+009;1.602262705564499E-001;6.829293072223663E-002;-2.417099894955754E-003;3.070776583626866E-003;
2.402500000000000E+009;1.614513695240021E-001;6.572340428829193E-002;-2.301941625773907E-003;3.221950260922313E-003;
2.402666666666667E+009;1.625864505767822E-001;6.307715922594070E-002;-2.371793147176504E-003;3.491698997095227E-003;
2.402833333333334E+009;1.638442873954773E-001;6.071479618549347E-002;-2.295282669365406E-003;3.489437047392130E-003;
2.403000000000000E+009;1.651609241962433E-001;5.829583480954170E-002;-2.014803700149059E-003;3.683937015011907E-003;
2.403166666666667E+009;1.668190658092499E-001;5.604946613311768E-002;-1.781950239092112E-003;3.810421098023653E-003;
2.403333333333334E+009;1.682255417108536E-001;5.372568219900131E-002;-1.614811480976641E-003;3.952038474380970E-003;
2.403500000000000E+009;1.699307411909103E-001;5.178843066096306E-002;-1.622110721655190E-003;4.052805248647928E-003;
2.403666666666667E+009;1.716587543487549E-001;4.972429946064949E-002;-1.291565364226699E-003;4.172679968178272E-003;
2.403833333333334E+009;1.733779460191727E-001;4.788018390536308E-002;-1.118684886023402E-003;4.070871043950319E-003;
2.404000000000000E+009;1.746210902929306E-001;4.635093361139298E-002;-7.876568124629557E-004;4.247955512255430E-003;
2.404166666666667E+009;1.764697134494782E-001;4.458929970860481E-002;-5.129061755724251E-004;4.110349807888269E-003;
2.404333333333334E+009;1.779369562864304E-001;4.304223507642746E-002;-3.782410931307823E-004;4.051191732287407E-003;
2.404500000000000E+009;1.794559508562088E-001;4.183616489171982E-002;-3.516702272463590E-004;4.039759282022715E-003;
2.404666666666667E+009;1.810791343450546E-001;4.048523306846619E-002;-1.058377456502058E-004;3.860450116917491E-003;
2.404833333333334E+009;1.827745288610458E-001;3.952757641673088E-002;1.977339852601290E-004;3.836185205727816E-003;
2.405000000000000E+009;1.840775907039642E-001;3.904847800731659E-002;2.542255970183760E-004;3.727905219420791E-003;
2.405166666666667E+009;1.854005753993988E-001;3.817287832498550E-002;4.158386727795005E-004;3.567688399925828E-003;
2.405333333333334E+009;1.867606937885284E-001;3.763093799352646E-002;3.609146806411445E-004;3.482363419607282E-003;
2.405500000000000E+009;1.882175952196121E-001;3.715660050511360E-002;4.523361567407847E-004;3.181135049089789E-003;
2.405666666666667E+009;1.894621551036835E-001;3.695246577262878E-002;5.949502228759229E-004;3.275773255154491E-003;
2.405833333333334E+009;1.907610595226288E-001;3.658574074506760E-002;5.893103079870343E-004;3.239444922655821E-003;
2.406000000000000E+009;1.915962398052216E-001;3.644718602299690E-002;6.030240911059082E-004;3.087984863668680E-003;
2.406166666666667E+009;1.924890875816345E-001;3.636921197175980E-002;7.296126568689942E-004;3.183842403814197E-003;
2.406333333333334E+009;1.933397352695465E-001;3.634248301386833E-002;6.392764043994248E-004;3.250140231102705E-003;
2.406500000000000E+009;1.941005140542984E-001;3.644095733761787E-002;9.160777553915978E-004;3.083718940615654E-003;
2.406666666666667E+009;1.947234272956848E-001;3.652394562959671E-002;9.651039727032185E-004;2.951400354504585E-003;
2.406833333333334E+009;1.952030658721924E-001;3.640515729784966E-002;1.013249973766506E-003;3.010449931025505E-003;
2.407000000000000E+009;1.953167915344238E-001;3.678521141409874E-002;1.176948426291347E-003;2.681123558431864E-003;
2.407166666666667E+009;1.958188265562058E-001;3.675773367285729E-002;1.094668288715184E-003;2.830939833074808E-003;
2.407333333333334E+009;1.956687718629837E-001;3.701091185212135E-002;1.233427436091006E-003;2.616733545437455E-003;
2.407500000000000E+009;1.954832822084427E-001;3.705296665430069E-002;1.305572339333594E-003;2.594569465145469E-003;
2.407666666666667E+009;1.955683529376984E-001;3.697375580668449E-002;1.350199803709984E-003;2.548648277297616E-003;
2.407833333333334E+009;1.950209885835648E-001;3.707199171185494E-002;1.176745165139437E-003;2.418830059468746E-003;
2.408000000000000E+009;1.949407160282135E-001;3.682711347937584E-002;1.369511941447854E-003;2.410236978903413E-003;
2.408166666666667E+009;1.943182200193405E-001;3.679555654525757E-002;1.355175627395511E-003;2.177608665078878E-003;
2.408333333333334E+009;1.938596218824387E-001;3.611620888113976E-002;1.354426844045520E-003;2.197640947997570E-003;
2.408500000000000E+009;1.931103318929672E-001;3.585142269730568E-002;1.242666156031191E-003;2.094301395118237E-003;
2.408666666666667E+009;1.924849003553391E-001;3.537520393729210E-002;1.178410602733493E-003;2.190036699175835E-003;
2.408833333333334E+009;1.917682439088821E-001;3.481158614158630E-002;1.212624134495854E-003;1.984560629352927E-003;
2.409000000000000E+009;1.908010393381119E-001;3.379194810986519E-002;1.225317246280611E-003;2.150194253772497E-003;
2.409166666666667E+009;1.898576170206070E-001;3.293636441230774E-002;1.138373278081417E-003;1.962770940735936E-003;
2.409333333333334E+009;1.889512091875076E-001;3.197412565350533E-002;1.067618606612086E-003;1.778381527401507E-003;
2.409500000000000E+009;1.877229362726212E-001;3.074964508414269E-002;1.134168356657028E-003;1.957668224349618E-003;
2.409666666666667E+009;1.867935359477997E-001;2.931159362196922E-002;1.120369415730238E-003;1.860101474449039E-003;
2.409833333333334E+009;1.857501715421677E-001;2.761821448802948E-002;1.158342463895679E-003;1.927798148244619E-003;
2.410000000000000E+009;1.847704201936722E-001;2.616029791533947E-002;1.128612086176872E-003;2.168336184695363E-003;
2.410166666666667E+009;1.837421357631683E-001;2.436389029026032E-002;1.014918088912964E-003;1.917238696478307E-003;
2.410333333333334E+009;1.827558875083923E-001;2.263016067445278E-002;1.116048893891275E-003;2.019736915826798E-003;
2.410500000000000E+009;1.816184222698212E-001;2.052747644484043E-002;1.074858126230538E-003;1.899897935800254E-003;
2.410666666666667E+009;1.807357072830200E-001;1.837932318449020E-002;1.265179831534624E-003;1.824731472879648E-003;
2.410833333333334E+009;1.801671385765076E-001;1.621831953525543E-002;1.246204832568765E-003;2.041122876107693E-003;
2.411000000000000E+009;1.793321222066879E-001;1.407434884458780E-002;1.202593441121280E-003;2.051090588793159E-003;
2.411166666666667E+009;1.785708218812943E-001;1.176764257252216E-002;1.363288145512343E-003;2.018496394157410E-003;
2.411333333333334E+009;1.782152503728867E-001;9.261442348361015E-003;1.254664966836572E-003;1.876762602478266E-003;
2.411500000000000E+009;1.775031685829163E-001;7.174640428274870E-003;1.357789733447135E-003;1.863742247223854E-003;
2.411666666666667E+009;1.776174902915955E-001;4.722580313682556E-003;1.447993796318770E-003;2.034685574471951E-003;
2.411833333333334E+009;1.773300617933273E-001;2.227736636996269E-003;1.443349174223840E-003;1.851336681284010E-003;
2.412000000000000E+009;1.773696243762970E-001;-3.616952162701637E-004;1.328122452832758E-003;1.882793032564223E-003;
2.412166666666667E+009;1.774361282587051E-001;-2.494030632078648E-003;1.365009462460876E-003;1.684876391664147E-003;
2.412333333333334E+009;1.776023656129837E-001;-5.170004907995462E-003;1.401066430844367E-003;1.775519456714392E-003;
2.412500000000000E+009;1.780092120170593E-001;-7.478705607354641E-003;1.393957529217005E-003;1.849727588705719E-003;
2.412666666666667E+009;1.786252111196518E-001;-9.996205568313599E-003;1.461376552470028E-003;1.675774925388396E-003;
2.412833333333334E+009;1.792090088129044E-001;-1.214560586959124E-002;1.377871260046959E-003;1.817565993405879E-003;
2.413000000000000E+009;1.800572574138641E-001;-1.465705502778292E-002;1.509350957348943E-003;1.886352547444403E-003;
2.413166666666667E+009;1.809093207120895E-001;-1.684611290693283E-002;1.504191197454929E-003;1.958053559064865E-003;
2.413333333333334E+009;1.819942295551300E-001;-1.923501677811146E-002;1.431982032954693E-003;2.001241780817509E-003;
2.413500000000000E+009;1.828737109899521E-001;-2.149584144353867E-002;1.444253837689757E-003;1.969536999240518E-003;
2.413666666666667E+009;1.841109097003937E-001;-2.356813289225102E-002;1.662775757722557E-003;1.980961533263326E-003;
2.413833333333334E+009;1.851775944232941E-001;-2.560625597834587E-002;1.687631360255182E-003;2.238414948806167E-003;
2.414000000000000E+009;1.862993091344833E-001;-2.750961482524872E-002;1.803756691515446E-003;2.210566774010658E-003;
2.414166666666667E+009;1.875960975885391E-001;-2.929003350436688E-002;1.922073541209102E-003;2.093992894515395E-003;
2.414333333333334E+009;1.888666003942490E-001;-3.121000155806541E-002;2.187215024605393E-003;2.024571411311626E-003;
2.414500000000000E+009;1.900621801614761E-001;-3.270638361573219E-002;2.186841098591685E-003;1.991829602047801E-003;
2.414666666666667E+009;1.910675913095474E-001;-3.424583375453949E-002;2.278282307088375E-003;1.932229264639318E-003;
2.414833333333334E+009;1.925457715988159E-001;-3.557808697223663E-002;2.280068583786488E-003;1.784333959221840E-003;
2.415000000000000E+009;1.935926675796509E-001;-3.687475994229317E-002;2.447336679324508E-003;1.668145414441824E-003;
2.415166666666667E+009;1.948299854993820E-001;-3.788473084568977E-002;2.404551953077316E-003;1.745691522955895E-003;
2.415333333333334E+009;1.959207952022553E-001;-3.885982930660248E-002;2.450338797643781E-003;1.569283660501242E-003;
2.415500000000000E+009;1.971178501844406E-001;-3.947898000478745E-002;2.637078519910574E-003;1.665897085331380E-003;
2.415666666666667E+009;1.981235891580582E-001;-4.037789255380631E-002;2.670712769031525E-003;1.568231265991926E-003;
2.415833333333334E+009;1.989723145961762E-001;-4.102274030447006E-002;2.704110229387879E-003;1.416924176737666E-003;
2.416000000000000E+009;1.996647119522095E-001;-4.153747111558914E-002;2.719707787036896E-003;1.570227788761258E-003;
2.416166666666667E+009;2.003844827413559E-001;-4.215681925415993E-002;2.837569219991565E-003;1.516956370323896E-003;
2.416333333333334E+009;2.010702788829804E-001;-4.225812852382660E-002;2.835822524502873E-003;1.492161420173943E-003;
2.416500000000000E+009;2.015329301357269E-001;-4.243091121315956E-002;2.991179935634136E-003;1.356666325591505E-003;
2.416666666666667E+009;2.017690986394882E-001;-4.273033142089844E-002;3.188747912645340E-003;1.494636060670018E-003;
2.416833333333334E+009;2.019050419330597E-001;-4.277083650231361E-002;3.314519301056862E-003;1.256107352674007E-003;
2.417000000000000E+009;2.020732164382935E-001;-4.277282208204269E-002;3.426077775657177E-003;1.067404053173959E-003;
2.417166666666667E+009;2.017499059438705E-001;-4.261114448308945E-002;3.601601114496589E-003;1.162579399533570E-003;
2.417333333333334E+009;2.015063613653183E-001;-4.235084354877472E-002;3.508492838591337E-003;1.090114237740636E-003;
2.417500000000000E+009;2.013464272022247E-001;-4.232522472739220E-002;3.633666085079312E-003;1.021506381221116E-003;
2.417666666666667E+009;2.006954699754715E-001;-4.200838133692741E-002;3.729963675141335E-003;7.646958110854030E-004;
2.417833333333334E+009;2.003498375415802E-001;-4.184313118457794E-002;3.710731631144881E-003;5.346406251192093E-004;
2.418000000000000E+009;1.996418088674545E-001;-4.144948348402977E-002;3.861738136038184E-003;4.449530679266900E-004;
2.418166666666667E+009;1.988479793071747E-001;-4.136569052934647E-002;3.867874387651682E-003;3.550177789293230E-004;
2.418333333333334E+009;1.980681866407394E-001;-4.114588722586632E-002;3.827879438176751E-003;1.022109936457127E-004;
2.418500000000000E+009;1.969562470912933E-001;-4.121020808815956E-002;3.797161858528853E-003;3.453958197496831E-005;
2.418666666666667E+009;1.960685849189758E-001;-4.108738526701927E-002;3.731882199645042E-003;-1.655806408962235E-004;
2.418833333333334E+009;1.947803795337677E-001;-4.119687527418137E-002;3.707163734361529E-003;-2.651599061209709E-004;
2.419000000000000E+009;1.935773938894272E-001;-4.138921201229096E-002;3.734151832759380E-003;-4.179810930509120E-004;
2.419166666666667E+009;1.922390013933182E-001;-4.167534783482552E-002;3.557773539796472E-003;-4.850307595916092E-004;
2.419333333333334E+009;1.909366995096207E-001;-4.208914190530777E-002;3.758111502975225E-003;-6.983145722188056E-004;
2.419500000000000E+009;1.895168721675873E-001;-4.255141690373421E-002;3.707173746079207E-003;-6.245799595490098E-004;
2.419666666666667E+009;1.878007203340530E-001;-4.338278993964195E-002;3.433016594499350E-003;-8.013398037292063E-004;
2.419833333333334E+009;1.863474100828171E-001;-4.407570883631706E-002;3.699403489008546E-003;-1.013960456475616E-003;
2.420000000000000E+009;1.847392171621323E-001;-4.496046900749207E-002;3.418695880100131E-003;-8.823199314065278E-004;
2.420166666666667E+009;1.831623464822769E-001;-4.588459432125092E-002;3.515982301905751E-003;-1.126803108491004E-003;
2.420333333333334E+009;1.815008372068405E-001;-4.704922810196877E-002;3.444635076448321E-003;-1.038930611684918E-003;
2.420500000000000E+009;1.799479871988297E-001;-4.838502779603005E-002;3.597153350710869E-003;-1.155117177404463E-003;
2.420666666666667E+009;1.782855540513992E-001;-4.947226867079735E-002;3.499512095004320E-003;-1.337753608822823E-003;
2.420833333333334E+009;1.766211837530136E-001;-5.096542462706566E-002;3.535109106451273E-003;-1.448854105547071E-003;
2.421000000000000E+009;1.751619726419449E-001;-5.253895744681358E-002;3.492891089990735E-003;-1.439125509932637E-003;
2.421166666666667E+009;1.738610863685608E-001;-5.429092794656754E-002;3.287127008661628E-003;-1.597289345227182E-003;
2.421333333333334E+009;1.720841377973557E-001;-5.573371797800064E-002;3.329865168780088E-003;-1.639034016989172E-003;
2.421500000000000E+009;1.708774119615555E-001;-5.778159573674202E-002;3.235295182093978E-003;-1.799511373974383E-003;
2.421666666666667E+009;1.697527468204498E-001;-5.964866653084755E-002;3.397978842258453E-003;-1.719901920296252E-003;
2.421833333333334E+009;1.684283912181854E-001;-6.153351068496704E-002;3.209416056051850E-003;-1.915131695568562E-003;
2.422000000000000E+009;1.674532592296600E-001;-6.344331800937653E-002;3.219896694645286E-003;-2.206645207479596E-003;
2.422166666666667E+009;1.667576432228088E-001;-6.561236083507538E-002;3.091472666710615E-003;-2.217913279309869E-003;
2.422333333333334E+009;1.657152622938156E-001;-6.763570010662079E-002;2.989538246765733E-003;-2.286173868924379E-003;
2.422500000000000E+009;1.650141626596451E-001;-6.948250532150269E-002;2.950929803773761E-003;-2.452975837513804E-003;
2.422666666666667E+009;1.643260866403580E-001;-7.158640772104263E-002;2.924731234088540E-003;-2.610819879919291E-003;
2.422833333333334E+009;1.639594435691834E-001;-7.368065416812897E-002;2.677999669685960E-003;-2.376434858888388E-003;
2.423000000000000E+009;1.634607017040253E-001;-7.569861412048340E-002;2.545943483710289E-003;-2.631716197356582E-003;
2.423166666666667E+009;1.630162298679352E-001;-7.759933918714523E-002;2.473956672474742E-003;-2.780813025310636E-003;
2.423333333333334E+009;1.628974229097366E-001;-7.971294969320297E-002;2.362804487347603E-003;-2.852031961083412E-003;
2.423500000000000E+009;1.629536300897598E-001;-8.156900852918625E-002;2.376388059929013E-003;-2.781608374789357E-003;
2.423666666666667E+009;1.630152165889740E-001;-8.350852131843567E-002;2.193326130509377E-003;-2.801895840093494E-003;
2.423833333333334E+009;1.630381345748901E-001;-8.537446707487106E-002;2.110370434820652E-003;-2.816096646711230E-003;
2.424000000000000E+009;1.633092612028122E-001;-8.707571029663086E-002;2.023663138970733E-003;-2.908772788941860E-003;
2.424166666666667E+009;1.631975769996643E-001;-8.877506107091904E-002;1.956846565008164E-003;-2.891135634854436E-003;
2.424333333333334E+009;1.636114567518234E-001;-9.027740359306335E-002;1.846942584961653E-003;-2.811881480738521E-003;
2.424500000000000E+009;1.641252785921097E-001;-9.212888777256012E-002;1.710596261546016E-003;-2.822302514687181E-003;
2.424666666666667E+009;1.643232703208923E-001;-9.345204383134842E-002;1.647236873395741E-003;-2.762379357591271E-003;
2.424833333333334E+009;1.649265140295029E-001;-9.483136236667633E-002;1.634191488847137E-003;-2.807092387229204E-003;
2.425000000000000E+009;1.652834415435791E-001;-9.608213603496552E-002;1.562625868245959E-003;-3.019275842234492E-003;
2.425166666666667E+009;1.658513545989990E-001;-9.710516780614853E-002;1.481206738390029E-003;-2.981636207550764E-003;
2.425333333333334E+009;1.660649776458740E-001;-9.806953370571137E-002;1.465241308324039E-003;-2.909678500145674E-003;
2.425500000000000E+009;1.665324270725250E-001;-9.914623200893402E-002;1.465618843212724E-003;-3.075914224609733E-003;
2.425666666666667E+009;1.669952720403671E-001;-9.977291524410248E-002;1.456178957596421E-003;-2.958924742415547E-003;
2.425833333333334E+009;1.673491150140762E-001;-1.006130501627922E-001;1.318480935879052E-003;-3.017932409420610E-003;
2.426000000000000E+009;1.677032858133316E-001;-1.011263579130173E-001;1.210212591104209E-003;-2.984423888847232E-003;
2.426166666666667E+009;1.682629436254501E-001;-1.016374528408051E-001;1.323027419857681E-003;-2.949601737782359E-003;
2.426333333333334E+009;1.683214455842972E-001;-1.021447479724884E-001;1.294531393796206E-003;-3.221349790692329E-003;
2.426500000000000E+009;1.687565743923187E-001;-1.023441478610039E-001;1.214308780618012E-003;-3.040750278159976E-003;
2.426666666666667E+009;1.689749658107758E-001;-1.027781814336777E-001;1.193217816762626E-003;-3.169189440086484E-003;
2.426833333333334E+009;1.691849380731583E-001;-1.030801758170128E-001;1.211067079566419E-003;-3.131138626486063E-003;
2.427000000000000E+009;1.692531257867813E-001;-1.032552793622017E-001;1.059592352248728E-003;-3.314308123663068E-003;
2.427166666666667E+009;1.693445444107056E-001;-1.032736599445343E-001;9.563221829012036E-004;-3.197303507477045E-003;
2.427333333333334E+009;1.691048741340637E-001;-1.035606563091278E-001;8.795112371444702E-004;-3.269078442826867E-003;
2.427500000000000E+009;1.689654588699341E-001;-1.037489846348763E-001;9.736218489706516E-004;-3.482050029560924E-003;
2.427666666666667E+009;1.686441004276276E-001;-1.038595587015152E-001;8.034454658627510E-004;-3.534221788868308E-003;
2.427833333333334E+009;1.682158261537552E-001;-1.039707586169243E-001;7.537751807831228E-004;-3.388598328456283E-003;
