# Hz S RI R 50
2400000000.0000000000 0.155953258275985690017861884371 0.111599713563919095138388115629 -0.004946864210069180402273847363 0.000536445586476475000381469727 0 0 0 0 
2400166666.6666665077 0.155319482088088989257812500000 0.109279945492744501311932481258 -0.004942348226904869079589843750 0.000626691326033324003219604492 0 0 0 0 
2400333333.3333334923 0.155151143670082092285156250000 0.107105687260627802093182481258 -0.004868027754127979278564453125 0.000828592979814857244491577148 0 0 0 0 
2400500000.0000000000 0.154684081673622103592080634371 0.104395583271980299522319057814 -0.004668029025197029113769531250 0.001171636511571704907658242334 0 0 0 0 
2400666666.6666665077 0.154579848051071194747763115629 0.101928412914276095291299384371 -0.004644748754799365997314453125 0.001243165927007793946507119287 0 0 0 0 
2400833333.3333334923 0.154266521334648104568643134371 0.099068157374858856201171875000 -0.004687281791120767593383789062 0.001234951429069041988970112378 0 0 0 0 
2401000000.0000000000 0.154245108366012600997763115629 0.096254207193851470947265625000 -0.004429279360920190811157226562 0.001436106860637665011762309497 0 0 0 0 
2401166666.6666665077 0.153979480266570989410723768742 0.093465521931648254394531250000 -0.004414897412061691284179687500 0.001586966682225465991376567310 0 0 0 0 
2401333333.3333334923 0.154191121459007290939169365629 0.091035231947898864746093750000 -0.004746709950268268585205078125 0.001735685626044868989231728662 0 0 0 0 
2401500000.0000000000 0.154008209705352810958700615629 0.087585873901844024658203125000 -0.004380512051284313201904296875 0.001551906578242778994916606372 0 0 0 0 
2401666666.6666665077 0.154702350497245788574218750000 0.083775877952575683593750000000 -0.003606474725529551939723349463 0.002030919073149561882019042969 0 0 0 0 
2401833333.3333334923 0.154730886220932006835937500000 0.081523254513740539550781250000 -0.004136017058044672012329101562 0.001933911233209073977229452979 0 0 0 0 
2402000000.0000000000 0.155450552701950100997763115629 0.078633338212966918945312500000 -0.004190912935882806777954101562 0.002066241111606359915492392432 0 0 0 0 
2402166666.6666665077 0.156320288777351407150106865629 0.075596831738948822021484375000 -0.003729847725480794906616210938 0.002251416211947799162623740088 0 0 0 0 
2402333333.3333334923 0.157334223389625604827557481258 0.072725370526313781738281250000 -0.003834540490061045126674033057 0.002705499995499848885777138818 0 0 0 0 
2402500000.0000000000 0.157285332679748507400674384371 0.069821529090404510498046875000 -0.003670625854283570809605263818 0.002375808544456959204432822119 0 0 0 0 
2402666666.6666665077 0.158751174807548495193643134371 0.066806606948375701904296875000 -0.003056940855458378791809082031 0.002599846338853240013122558594 0 0 0 0 
2402833333.3333334923 0.160875171422958401779013115629 0.064483374357223510742187500000 -0.003752127755433320999145507812 0.003231287933886051177978515625 0 0 0 0 
2403000000.0000000000 0.161848157644271906097088731258 0.062089167535305023193359375000 -0.003433726960793137984034872900 0.002776249544695020155665732275 0 0 0 0 
2403166666.6666665077 0.163347885012626703460369981258 0.059628982096910476684570312500 -0.003129931632429360909702920068 0.002877761842682958082911826025 0 0 0 0 
2403333333.3333334923 0.164858177304267911056356865629 0.057163435965776436542551408593 -0.003088156459853053092956542969 0.002937415614724158807041787256 0 0 0 0 
2403500000.0000000000 0.166593044996261596679687500000 0.054616574198007576679270158593 -0.002942980965599418120143271338 0.002994768321514130072352743994 0 0 0 0 
2403666666.6666665077 0.168432042002677889724893134371 0.052383296191692352294921875000 -0.002887398004531859917881631006 0.002727898070588707923889160156 0 0 0 0 
2403833333.3333334923 0.170200422406196594238281250000 0.050370212644338607788085937500 -0.002836311934515833854675292969 0.002803807612508534951450966943 0 0 0 0 
2404000000.0000000000 0.171743139624595586578692518742 0.048210468143224723125417341407 -0.002763554453849792914149618994 0.002617986407130957083461142432 0 0 0 0 
2404166666.6666665077 0.173610642552375793457031250000 0.046448450535535812377929687500 -0.002657798817381263212916708838 0.002790381666272879080531454932 0 0 0 0 
2404333333.3333334923 0.175632640719413812835369981258 0.044807862490415573120117187500 -0.002795707667246460914611816406 0.002912733005359768867492675781 0 0 0 0 
2404500000.0000000000 0.177236661314964294433593750000 0.043247260153293609619140625000 -0.002680955920368432998657226562 0.002814251696690917015075683594 0 0 0 0 
2404666666.6666665077 0.179105028510093688964843750000 0.041983049362897872924804687500 -0.002741423202678561210632324219 0.002893862081691623167750693213 0 0 0 0 
2404833333.3333334923 0.180954605340957613845986884371 0.040594153106212622905690778907 -0.002580231754109262986424111475 0.003102323040366172790527343750 0 0 0 0 
2405000000.0000000000 0.182533115148544311523437500000 0.039800368249416351318359375000 -0.002704638987779616875889443506 0.003349897218868135972263955225 0 0 0 0 
2405166666.6666665077 0.184265688061714200118856865629 0.039047993719577789306640625000 -0.002689267508685588836669921875 0.003224750747904181914088583838 0 0 0 0 
2405333333.3333334923 0.185884296894073486328125000000 0.038516338914632797241210937500 -0.002663922263309359984156943213 0.003496477613225578828098916162 0 0 0 0 
2405500000.0000000000 0.187459275126457186599893134371 0.037940889596939086914062500000 -0.002515933010727167129516601562 0.003634647931903601126429892432 0 0 0 0 
2405666666.6666665077 0.189063861966133089920205634371 0.037644796073436737060546875000 -0.002437504706904292106628417969 0.003709813114255667166468954932 0 0 0 0 
2405833333.3333334923 0.190691962838172912597656250000 0.037258870899677276611328125000 -0.002153134904801845984217978369 0.004000341985374689102172851562 0 0 0 0 
2406000000.0000000000 0.191991031169891412933026231258 0.037097267806529998779296875000 -0.001987327821552753014805459131 0.004033215343952178955078125000 0 0 0 0 
2406166666.6666665077 0.193218886852264404296875000000 0.037012491375207901000976562500 -0.001934875268489121957066201318 0.003893332788720726966857910156 0 0 0 0 
2406333333.3333334923 0.194438144564628601074218750000 0.037128403782844543457031250000 -0.001760364742949604988098144531 0.003917053341865540418142987988 0 0 0 0 
2406500000.0000000000 0.195408180356025695800781250000 0.037316236644983291625976562500 -0.001440761494450270912767719800 0.004000014625489711761474609375 0 0 0 0 
2406666666.6666665077 0.196253374218940707107705634371 0.037530489265918731689453125000 -0.001429093768820167021510458838 0.003970560152083635330200195312 0 0 0 0 
2406833333.3333334923 0.197067946195602389236611884371 0.037854485213756561279296875000 -0.001308484701439738056780170972 0.004117228090763092041015625000 0 0 0 0 
2407000000.0000000000 0.197642013430595397949218750000 0.038077838718891136859934221093 -0.001327813719399272961857461084 0.004014900419861078262329101562 0 0 0 0 
2407166666.6666665077 0.198209896683692904373330634371 0.038107927888631820678710937500 -0.001201713108457624912261962891 0.003863186575472354888916015625 0 0 0 0 
2407333333.3333334923 0.198233738541603088378906250000 0.038545265793800347065012346093 -0.001072165090590714974644326318 0.004027826711535453796386718750 0 0 0 0 
2407500000.0000000000 0.198398962616920498946981865629 0.038887314498424530029296875000 -0.001174799050204456069348979419 0.003978141583502292633056640625 0 0 0 0 
2407666666.6666665077 0.198533862829208401779013115629 0.039052095264196402812917341407 -0.000889245187863707542419433594 0.003988407552242279052734375000 0 0 0 0 
2407833333.3333334923 0.198160201311111505706463731258 0.039265420287847518920898437500 -0.001075743348337709903717041016 0.004165037069469690322875976562 0 0 0 0 
2408000000.0000000000 0.198212444782257107833700615629 0.039413589984178543090820312500 -0.000949396227952092885971069336 0.004143794067203999433035566113 0 0 0 0 
2408166666.6666665077 0.197674319148063687423544365629 0.039450887590646736835520158593 -0.000720079871825873851776123047 0.004344144370406866073608398438 0 0 0 0 
2408333333.3333334923 0.197362467646598788162393134371 0.039340186864137649536132812500 -0.000663928280118852853775024414 0.004455694928765296936035156250 0 0 0 0 
2408500000.0000000000 0.196587353944778386871661268742 0.039297774434089660644531250000 -0.000473577732918784022331237793 0.004403248894959688186645507812 0 0 0 0 
2408666666.6666665077 0.196026131510734613616619981258 0.039121959358453750610351562500 -0.000483940006233751773834228516 0.004543122835457324981689453125 0 0 0 0 
2408833333.3333334923 0.195278540253639193435830634371 0.038780845701694488525390625000 -0.000446955324150621891021728516 0.004536129999905824661254882812 0 0 0 0 
2409000000.0000000000 0.194305852055549593826455634371 0.038115724921226501464843750000 -0.000256632338277995586395263672 0.004671747796237468719482421875 0 0 0 0 
2409166666.6666665077 0.193318992853164700607138115629 0.037482123821973800659179687500 -0.000099358105217106640338897705 0.004668339155614376068115234375 0 0 0 0 
2409333333.3333334923 0.192215532064437893966513115629 0.036817200481891632080078125000 -0.000048591362428851432423999174 0.004803848918527364730834960938 0 0 0 0 
2409500000.0000000000 0.190981328487396212478799384371 0.035832028836011886596679687500 0.000234079372603446299403590070 0.004896360449492931365966796875 0 0 0 0 
2409666666.6666665077 0.189953610301017788986044365629 0.034731052815914147113840471093 0.000457379472209140712588709698 0.004942780826240777969360351562 0 0 0 0 
2409833333.3333334923 0.188574433326721191406250000000 0.033411983400583267211914062500 0.000553705380298197269439697266 0.004939007572829723358154296875 0 0 0 0 
2410000000.0000000000 0.187474951148033086578692518742 0.032089181244373321533203125000 0.000828252988867461681365966797 0.005051432643085718154907226562 0 0 0 0 
2410166666.6666665077 0.186293125152587890625000000000 0.030425034463405609130859375000 0.000910183647647500038146972656 0.005093363579362630844116210938 0 0 0 0 
2410333333.3333334923 0.185089558362960787674111884371 0.028714962303638461721400076954 0.001066647120751440958735800635 0.004848761484026908874511718750 0 0 0 0 
2410500000.0000000000 0.183845698833465603927450615629 0.026976469904184341430664062500 0.001311468891799449920654296875 0.005110741127282381057739257812 0 0 0 0 
2410666666.6666665077 0.182700306177139309982138115629 0.024887599050998691213587576954 0.001569966087117790959001850659 0.004969090688973665237426757812 0 0 0 0 
2410833333.3333334923 0.181760340929031399825888115629 0.022910114377737048757532889454 0.001675934996455908038495707935 0.004944432526826859387869550488 0 0 0 0 
2411000000.0000000000 0.180653721094131497482138115629 0.020713023841381069528599923046 0.001942574628628789944889687646 0.005048125982284545898437500000 0 0 0 0 
2411166666.6666665077 0.179929673671722412109375000000 0.018473841249942779541015625000 0.002260265406221150918247841943 0.004761852789670228958129882812 0 0 0 0 
2411333333.3333334923 0.179125189781188992599325615629 0.016008486971259120595911795704 0.002350677503272891044616699219 0.004813481587916612625122070312 0 0 0 0 
2411500000.0000000000 0.178583249449729891678018134371 0.013529932126402860123604021680 0.002476168330758810043334960938 0.004696527961641550064086914062 0 0 0 0 
2411666666.6666665077 0.178088054060936001876669365629 0.011168359778821470087994960352 0.002768579171970487074611044775 0.004566499963402748107910156250 0 0 0 0 
2411833333.3333334923 0.177557095885276794433593750000 0.008578581735491752624511718750 0.002816824708133935928344726562 0.004536587279289960861206054688 0 0 0 0 
2412000000.0000000000 0.177519068121910095214843750000 0.005897635128349065780639648438 0.003142646746709942817687988281 0.004455602262169122695922851562 0 0 0 0 
2412166666.6666665077 0.177177146077156094650106865629 0.003342729061841965155360556494 0.003266674932092428207397460938 0.004453157540410757064819335938 0 0 0 0 
2412333333.3333334923 0.177536621689796503265057481258 0.000709498825017362833023071289 0.003451544325798749923706054688 0.004147088620811700820922851562 0 0 0 0 
2412500000.0000000000 0.177653715014457702636718750000 -0.001835668459534645080566406250 0.003654727479442954063415527344 0.004140192177146673202514648438 0 0 0 0 
2412666666.6666665077 0.177969992160797091385049384371 -0.004635459743440151214599609375 0.003943943884223699569702148438 0.003927889280021190643310546875 0 0 0 0 
2412833333.3333334923 0.178570508956909207443075615629 -0.007267383392900229367727948926 0.004139377269893884658813476562 0.003942210692912340164184570312 0 0 0 0 
2413000000.0000000000 0.179384574294090298751669365629 -0.009794456884264945983886718750 0.004100488498806953430175781250 0.003669103141874074935913085938 0 0 0 0 
2413166666.6666665077 0.180000990629196194747763115629 -0.012312556616961959493616873829 0.004543800838291645050048828125 0.003515236079692841009852743994 0 0 0 0 
2413333333.3333334923 0.181037604808807400802450615629 -0.014914836734533309936523437500 0.004630681127309799194335937500 0.003192032221704721884486533057 0 0 0 0 
2413500000.0000000000 0.181664347648620605468750000000 -0.017431799322366711008092110546 0.004907271359115839004516601562 0.002923128427937626838684082031 0 0 0 0 
2413666666.6666665077 0.183077543973922701736611884371 -0.019825035706162449228306954296 0.005043026991188526153564453125 0.002741487929597496986389160156 0 0 0 0 
2413833333.3333334923 0.184199184179306002517861884371 -0.022078080102801319467564766796 0.005061982199549674987792968750 0.002348998095840216116664267432 0 0 0 0 
2414000000.0000000000 0.185343414545059204101562500000 -0.024196619167923930776575858204 0.005082576535642147064208984375 0.001986962743103504180908203125 0 0 0 0 
2414166666.6666665077 0.186700984835624694824218750000 -0.026400027796626091003417968750 0.005159957800060510635375976562 0.001674708211794496016261435400 0 0 0 0 
2414333333.3333334923 0.187987953424453707595986884371 -0.028521506115794178354283516796 0.005155315622687339782714843750 0.001296821748837829069850302588 0 0 0 0 
2414500000.0000000000 0.189303889870643587967080634371 -0.030032854527235031127929687500 0.005029907915741205215454101562 0.001109718810766934914829873193 0 0 0 0 
2414666666.6666665077 0.190770626068115206619424384371 -0.031926468014717102050781250000 0.005033018067479133605957031250 0.000901697669178247451782226562 0 0 0 0 
2414833333.3333334923 0.192026928067207308670205634371 -0.033441290259361267089843750000 0.004880389198660851392264081738 0.000587005226407200098037719727 0 0 0 0 
2415000000.0000000000 0.193248882889747591873330634371 -0.035073198378086090087890625000 0.004799831658601760864257812500 0.000380462763132527524798792706 0 0 0 0 
2415166666.6666665077 0.194760978221893310546875000000 -0.036233514547348022460937500000 0.004688430111855269345755292676 0.000205778982490301105097094125 0 0 0 0 
2415333333.3333334923 0.196206733584403991699218750000 -0.037376735359430313110351562500 0.004545249976217746734619140625 0.000095376213721465319395065308 0 0 0 0 
2415500000.0000000000 0.197620958089828491210937500000 -0.038166917860507972026784528907 0.004554230254143477353567792676 -0.000067602617491502314805984497 0 0 0 0 
2415666666.6666665077 0.198893219232559204101562500000 -0.039253350347280502319335937500 0.004403418395668268203735351562 -0.000236054154811426997184753418 0 0 0 0 
2415833333.3333334923 0.199950620532035799881143134371 -0.039902888238430023193359375000 0.004329372663050889968872070312 -0.000243036163737997412681579590 0 0 0 0 
2416000000.0000000000 0.201086863875389099121093750000 -0.040690653026103973388671875000 0.004400168545544148358816816113 -0.000473246676847338676452636719 0 0 0 0 
2416166666.6666665077 0.202069193124771090408486884371 -0.041206348687410361553151716407 0.004100495018064975738525390625 -0.000667569285724312067031860352 0 0 0 0 
2416333333.3333334923 0.203003332018852206131143134371 -0.041562709957361221313476562500 0.003972027450799942016601562500 -0.000755050277803093194961547852 0 0 0 0 
2416500000.0000000000 0.203742101788520812988281250000 -0.041858803480863571166992187500 0.003895237110555171966552734375 -0.000958455959334969520568847656 0 0 0 0 
2416666666.6666665077 0.204361796379089410979901231258 -0.042200434952974319458007812500 0.003751825541257857842686318506 -0.001007485669106245040893554688 0 0 0 0 
2416833333.3333334923 0.204827651381492586990518134371 -0.042109917849302291870117187500 0.003638023743405938148498535156 -0.001116752508096396923065185547 0 0 0 0 
2417000000.0000000000 0.205170646309852600097656250000 -0.042206361889839172363281250000 0.003386892611160873933079384912 -0.001202975399792193932774209131 0 0 0 0 
2417166666.6666665077 0.205174416303634588043536268742 -0.041995953768491751934011091407 0.003166717244312167167663574219 -0.001193632837384938976885151440 0 0 0 0 
2417333333.3333334923 0.205238237977027893066406250000 -0.041805535554885857318918596093 0.003082644194364548163173056494 -0.001124306349083781025530170972 0 0 0 0 
2417500000.0000000000 0.205147564411163302322549384371 -0.041687592864036560058593750000 0.003029584884643555121180868994 -0.001052979496307671070098876953 0 0 0 0 
2417666666.6666665077 0.204931244254112188141192518742 -0.041209582239389419555664062500 0.002942261286079884009120322119 -0.001124897156842052936553955078 0 0 0 0 
2417833333.3333334923 0.204628199338912991622763115629 -0.040954120457172386859934221093 0.002840348519384860992431640625 -0.001175909535959362983703613281 0 0 0 0 
2418000000.0000000000 0.204240232706070001800213731258 -0.040471207350492477416992187500 0.002816594671458005905151367188 -0.001140921609476208903669047778 0 0 0 0 
2418166666.6666665077 0.203564092516899108886718750000 -0.040254008024930947040598283593 0.002715435810387134985682822119 -0.000947107735555619001388549805 0 0 0 0 
2418333333.3333334923 0.202765077352523803710937500000 -0.039859149605035781860351562500 0.002709375228732823891880654443 -0.001050158869475126049639057690 0 0 0 0 
2418500000.0000000000 0.201857760548591613769531250000 -0.039729747921228408813476562500 0.002796025946736336188075400244 -0.000927747809328138828277587891 0 0 0 0 
2418666666.6666665077 0.201032772660255404373330634371 -0.039263326674699783325195312500 0.002821368630975484848022460938 -0.000994672882370650768280029297 0 0 0 0 
2418833333.3333334923 0.199816092848777798751669365629 -0.039358757436275482177734375000 0.002864975947886704964878701318 -0.000991855747997760772705078125 0 0 0 0 
2419000000.0000000000 0.198631718754768399337606865629 -0.039339393377304077148437500000 0.002782756695523858070373535156 -0.001046897377818823077558207935 0 0 0 0 
2419166666.6666665077 0.197426557540893610198651231258 -0.039396394044160842895507812500 0.002916526282206178145167685400 -0.001131570665165781974792480469 0 0 0 0 
2419333333.3333334923 0.195871412754058810135049384371 -0.039707832038402557373046875000 0.002861712360754609107971191406 -0.001113209291361271901371621240 0 0 0 0 
2419500000.0000000000 0.194404974579811096191406250000 -0.039851304143667221069335937500 0.002869584364816546006443642725 -0.001006954931654036045074462891 0 0 0 0 
2419666666.6666665077 0.192682906985282897949218750000 -0.040534630417823791503906250000 0.002713443944230676131007529150 -0.001104509807191788933397602612 0 0 0 0 
2419833333.3333334923 0.191023051738739013671875000000 -0.040843941271305077289621721093 0.002706860192120074792149209131 -0.001162522588856518051744770581 0 0 0 0 
2420000000.0000000000 0.189380854368209811111611884371 -0.041541341692209236835520158593 0.002787550212815403938293457031 -0.001035499270074069933650351416 0 0 0 0 
