# Hz S RI R 50
2400000000.0000000000 0.161863520741462707519531250000 0.056465297937393188476562500000 0.001381574315018951892852783203 0.003171583637595177130458212744 0 0 0 0 
2400166666.6666665077 0.161868631839752197265625000000 0.055195555090904242778737653907 0.001378959394060075066210102612 0.003322130069136620001551962744 0 0 0 0 
2400333333.3333334923 0.161815881729126004318075615629 0.053340435028076171875000000000 0.001466859015636146068572998047 0.003398211905732750892639160156 0 0 0 0 
2400500000.0000000000 0.162113741040229797363281250000 0.051658391952514648437500000000 0.001552272005937993960139609229 0.003263021353632212118861533057 0 0 0 0 
2400666666.6666665077 0.162095904350280789474325615629 0.049856267869472496723215471093 0.001684000948444009044049907153 0.003443347988650203184840536963 0 0 0 0 
2400833333.3333334923 0.162423565983772305587606865629 0.048342972993850708007812500000 0.001961203990504146055934286963 0.003307651029899715943577431787 0 0 0 0 
2401000000.0000000000 0.162416651844978304763955634371 0.046550527215003967285156250000 0.001990984426811337904689169775 0.003473048564046620888950966943 0 0 0 0 
2401166666.6666665077 0.162638917565345791915731865629 0.044720884412527077411692033593 0.002196337096393107934239052881 0.003261158009991050200221396338 0 0 0 0 
2401333333.3333334923 0.162751615047454806228799384371 0.042969137430191040039062500000 0.002399826655164361000061035156 0.003429759992286562919616699219 0 0 0 0 
2401500000.0000000000 0.163282319903373690506143134371 0.041017267853021621704101562500 0.002663609338924289183375693213 0.003390131983906031088588095557 0 0 0 0 
2401666666.6666665077 0.163350835442543002029580634371 0.039544649422168731689453125000 0.002664249623194336891174316406 0.003239287063479423956630087744 0 0 0 0 
2401833333.3333334923 0.163759931921958895584268134371 0.037649810314178466796875000000 0.002959329634904861883876181494 0.003206883557140827178955078125 0 0 0 0 
2402000000.0000000000 0.163779482245445306975994981258 0.035983063280582427978515625000 0.003056756919249891801121377100 0.003138710279017686843872070312 0 0 0 0 
2402166666.6666665077 0.164292588829994201660156250000 0.034272324293851852416992187500 0.003389358986169099807739257812 0.003203487023711204962489462744 0 0 0 0 
2402333333.3333334923 0.164807751774787902832031250000 0.032665319740772247314453125000 0.003471660660579801039454794775 0.002834601327776908874511718750 0 0 0 0 
2402500000.0000000000 0.165259018540382413009481865629 0.031113358214497569692591483204 0.003694053273648024039027548682 0.002910619601607323126551962744 0 0 0 0 
2402666666.6666665077 0.165683940052986200530682481258 0.029591906815767291677454764454 0.003811806207522749900817871094 0.002728797961026430130004882812 0 0 0 0 
2402833333.3333334923 0.166445016860961886306924384371 0.028055606409907341003417968750 0.004073682241141796112060546875 0.002533413935452700094935751807 0 0 0 0 
2403000000.0000000000 0.166759148240089388748330634371 0.026746505871415141714075858204 0.004290483426302671432495117188 0.002474960405379534201381064307 0 0 0 0 
2403166666.6666665077 0.167476534843444796463174384371 0.025199225172400481487233747657 0.004444358404725790023803710938 0.002234251704066991806030273438 0 0 0 0 
2403333333.3333334923 0.168188288807869013030682481258 0.024070085957646369934082031250 0.004649463109672070416922284863 0.001854042755439877943751669775 0 0 0 0 
2403500000.0000000000 0.168647170066833496093750000000 0.022755058482289310800572579296 0.004768844228237867355346679688 0.001711288234218955039978027344 0 0 0 0 
2403666666.6666665077 0.169308766722679110428018134371 0.021424684673547751689870466407 0.004981023725122213363647460938 0.001481463550589978911756205981 0 0 0 0 
2403833333.3333334923 0.170204684138298006912393134371 0.020215705037117000925084298046 0.004761453717947006225585937500 0.001074031810276210091234516675 0 0 0 0 
2404000000.0000000000 0.170664861798286410232705634371 0.019151266664266589773157889454 0.004930836148560047149658203125 0.000918076606467366218566894531 0 0 0 0 
2404166666.6666665077 0.171351149678230313400106865629 0.017897030338644981384277343750 0.004979451186954975128173828125 0.000462623749626800417900085449 0 0 0 0 
2404333333.3333334923 0.171954646706581087967080634371 0.016955956816673278808593750000 0.004993829410523176193237304688 0.000315681187203154022067469464 0 0 0 0 
2404500000.0000000000 0.172609761357307406326455634371 0.015996152535080909729003906250 0.004989046603441238403320312500 0.000175749417394399588734227313 0 0 0 0 
2404666666.6666665077 0.173222690820693997482138115629 0.015155373141169549769391444727 0.005055381916463375091552734375 -0.000180356044438667595386505127 0 0 0 0 
2404833333.3333334923 0.173969984054565401931924384371 0.014214416965842250478724295704 0.004909296054393053054809570312 -0.000613489479292184114456176758 0 0 0 0 
2405000000.0000000000 0.174378141760826110839843750000 0.013329149223864080256451991602 0.004913070239126682281494140625 -0.000722711381968110799789428711 0 0 0 0 
2405166666.6666665077 0.174998164176940890213174384371 0.012671784497797489166259765625 0.004776900634169579419607831738 -0.000990898814052343368530273438 0 0 0 0 
2405333333.3333334923 0.175611361861228887359942518742 0.012173478491604329890241054102 0.004541499074548482894897460938 -0.001288127969019114971160888672 0 0 0 0 
2405500000.0000000000 0.176100656390190096756143134371 0.011518429964780809229840663477 0.004599096253514289855957031250 -0.001368493889458477930781699072 0 0 0 0 
2405666666.6666665077 0.176515579223632812500000000000 0.010793753899633879225761212695 0.004364920780062676343435956738 -0.001659631147049366994145058740 0 0 0 0 
2405833333.3333334923 0.176688924431800786774005018742 0.010260198265314100438128086523 0.004179526120424270629882812500 -0.001799242338165641047834086841 0 0 0 0 
2406000000.0000000000 0.177145332098007202148437500000 0.009800369851291179656982421875 0.004121959209442138671875000000 -0.001898184535093605952021933447 0 0 0 0 
2406166666.6666665077 0.177257090806961087325888115629 0.009384769946336746215820312500 0.003707317169755696816685341943 -0.002126109786331654028651572119 0 0 0 0 
2406333333.3333334923 0.177613914012908907791299384371 0.008782823570072650909423828125 0.003545154584571719169616699219 -0.002370962174609303908107138525 0 0 0 0 
2406500000.0000000000 0.177790194749832208831463731258 0.008222606033086776733398437500 0.003541743149980903105494833838 -0.002427804982289671897888183594 0 0 0 0 
2406666666.6666665077 0.177964061498641995529013115629 0.007815148681402206420898437500 0.003294402500614523887634277344 -0.002616817830130457878112792969 0 0 0 0 
2406833333.3333334923 0.177994683384895296951455634371 0.007161611691117286682128906250 0.003300175769254564805271767725 -0.002556976862251759009120322119 0 0 0 0 
2407000000.0000000000 0.178087040781974792480468750000 0.006688835565000773343558027051 0.003116248408332467079162597656 -0.002781559713184833960292197119 0 0 0 0 
2407166666.6666665077 0.178100079298019409179687500000 0.006275086198002099990844726562 0.002948419190943241119384765625 -0.002764145610854030089137411963 0 0 0 0 
2407333333.3333334923 0.177834361791610690017861884371 0.005562774837017059326171875000 0.002742356387898325920104980469 -0.002944651991128921942469931494 0 0 0 0 
2407500000.0000000000 0.177787974476814297775106865629 0.004952109418809413909912109375 0.002434891881421207947971963037 -0.002820458495989441871643066406 0 0 0 0 
2407666666.6666665077 0.177571117877960205078125000000 0.004344419110566377639770507812 0.002328841248527168793919228662 -0.002789633348584175109863281250 0 0 0 0 
2407833333.3333334923 0.177208095788955688476562500000 0.003471624571830033822300576318 0.002013854216784238815307617188 -0.002848612144589424133300781250 0 0 0 0 
2408000000.0000000000 0.176931902766227694412393134371 0.002667573047801851792576455225 0.002062584506347775892970419775 -0.002816249383613467216491699219 0 0 0 0 
2408166666.6666665077 0.176717832684516906738281250000 0.002145484555512667135951376807 0.001819241326302289962768554688 -0.002800307702273129983189248193 0 0 0 0 
2408333333.3333334923 0.176495447754859896560830634371 0.001256041694432497024536132812 0.001615306129679084040998149341 -0.002715926384553312821629189600 0 0 0 0 
2408500000.0000000000 0.175860494375228909591513115629 0.000193234198377467691898345947 0.001574149355292320034624409253 -0.002760810777544974847080849756 0 0 0 0 
2408666666.6666665077 0.175516128540039090255575615629 -0.000894703494850546121597290039 0.001522168051451445059535361182 -0.002813430503010749816894531250 0 0 0 0 
2408833333.3333334923 0.174968406558036804199218750000 -0.001781994011253118948695517432 0.001327042817138134999516152490 -0.002689701970666646957397460938 0 0 0 0 
2409000000.0000000000 0.174498125910758999923544365629 -0.003110385732725263075587607275 0.001190465409308671951293945312 -0.002674988470971583886387490381 0 0 0 0 
2409166666.6666665077 0.173934042453765896896200615629 -0.004260203801095485687255859375 0.001037180307321250005009316553 -0.002618788043037056922912597656 0 0 0 0 
2409333333.3333334923 0.173525869846343994140625000000 -0.005462565459311009320730878613 0.001037925831042229912401508862 -0.002727097598835825920104980469 0 0 0 0 
2409500000.0000000000 0.172981411218643188476562500000 -0.006970372982323169708251953125 0.000752407649997621774673461914 -0.002405634615570307211634970557 0 0 0 0 
2409666666.6666665077 0.172356575727462796310263115629 -0.008014817722141742706298828125 0.000799075933173298835754394531 -0.002348110312595963911769247900 0 0 0 0 
2409833333.3333334923 0.171818822622299194335937500000 -0.009534831158816814422607421875 0.000588576367590576410293579102 -0.002336996374651790098903036963 0 0 0 0 
2410000000.0000000000 0.171504303812980707366619981258 -0.011004857718944549560546875000 0.000691459572408348321914672852 -0.002375046955421566963195800781 0 0 0 0 
2410166666.6666665077 0.171151623129844693282919365629 -0.012326272204518319910993007227 0.000687734107486903667449951172 -0.002276775892823934988734579932 0 0 0 0 
2410333333.3333334923 0.170591130852699307540731865629 -0.014024107716977599752405936329 0.000454890716355293989181518555 -0.002190727042034267945530556787 0 0 0 0 
2410500000.0000000000 0.170152530074119595626669365629 -0.015663806349039081228236014454 0.000500545371323823928833007812 -0.002111580688506364822387695312 0 0 0 0 
2410666666.6666665077 0.169901698827743502517861884371 -0.017429262399673458444615548046 0.000568379415199160575866699219 -0.002030835486948490142822265625 0 0 0 0 
2410833333.3333334923 0.169697582721710205078125000000 -0.018880425021052360534667968750 0.000653515162412077188491821289 -0.002141742268577218055725097656 0 0 0 0 
2411000000.0000000000 0.169200643897056607345419365629 -0.020713562145829200744628906250 0.000622068473603576421737670898 -0.001925922231748699925066303784 0 0 0 0 
2411166666.6666665077 0.169203281402587890625000000000 -0.022644829005002978933314139454 0.000648523855488747358322143555 -0.001873481669463217041612934644 0 0 0 0 
2411333333.3333334923 0.169078350067138699630575615629 -0.024208173155784610403040701954 0.000801953836344182491302490234 -0.001828696811571717045427631909 0 0 0 0 
2411500000.0000000000 0.168683677911758395095986884371 -0.026111204177141189575195312500 0.000705839542206376791000366211 -0.001890285289846360900281596606 0 0 0 0 
2411666666.6666665077 0.168794915080070495605468750000 -0.027960160747170448303222656250 0.000685069302562624216079711914 -0.002047333400696516036987304688 0 0 0 0 
2411833333.3333334923 0.168804243206977788727130018742 -0.029698766767978671682337576954 0.000754111388232558965682983398 -0.001701124361716211058973002856 0 0 0 0 
2412000000.0000000000 0.169010892510414095779580634371 -0.031622812151908881450612653907 0.000756457564420998096466064453 -0.001907780766487122015712118994 0 0 0 0 
2412166666.6666665077 0.168883100152015713790731865629 -0.033238552510738372802734375000 0.000850985466968268156051635742 -0.002072561299428344206569052588 0 0 0 0 
2412333333.3333334923 0.169353410601615905761718750000 -0.035012207925319671630859375000 0.000712423061486333608627319336 -0.001995644299313426017761230469 0 0 0 0 
2412500000.0000000000 0.169303178787231500823651231258 -0.036651525646448142314870466407 0.000857664621435105800628662109 -0.002199449809268116950988769531 0 0 0 0 
2412666666.6666665077 0.169825270771980313400106865629 -0.038679439574480056762695312500 0.000737123424187302589416503906 -0.002000339794903994040248251807 0 0 0 0 
2412833333.3333334923 0.169978797435760498046875000000 -0.040243081748485572124440778907 0.000664783758111298084259033203 -0.002103403210639954046962118994 0 0 0 0 
2413000000.0000000000 0.170295119285583496093750000000 -0.041778068989515311504323591407 0.000556794519070535898208618164 -0.002331330906599760055541992188 0 0 0 0 
2413166666.6666665077 0.170485585927963312347088731258 -0.043370816856622702861745466407 0.000686234037857502698898315430 -0.002200944349169731140136718750 0 0 0 0 
2413333333.3333334923 0.170713558793067904373330634371 -0.044981215149164199829101562500 0.000619941041804850101470947266 -0.002336766337975860075709677588 0 0 0 0 
2413500000.0000000000 0.171252191066741887848223768742 -0.046445496380329132080078125000 0.000639317848253995180130004883 -0.002336647594347596168518066406 0 0 0 0 
2413666666.6666665077 0.171629831194877596756143134371 -0.047903548926115042949636091407 0.000503282237332314252853393555 -0.002417349722236394882202148438 0 0 0 0 
2413833333.3333334923 0.172076538205146789550781250000 -0.049286749213933951641042341407 0.000552655896171927452087402344 -0.002239784691482781930210732568 0 0 0 0 
2414000000.0000000000 0.172369539737701388260049384371 -0.050658836960792541503906250000 0.000506770273204892873764038086 -0.002294250065460801124572753906 0 0 0 0 
2414166666.6666665077 0.172906965017318697830361884371 -0.051819790154695510864257812500 0.000416970258811488801806849347 -0.002478861017152667045593261719 0 0 0 0 
2414333333.3333334923 0.173139601945877102950888115629 -0.053001280874013900756835937500 0.000385655992431566119194030762 -0.002503439318388700918910361182 0 0 0 0 
2414500000.0000000000 0.173720851540565490722656250000 -0.053875170648097991943359375000 0.000351458962541073614924830304 -0.002598590683192015127894736182 0 0 0 0 
2414666666.6666665077 0.174106746912002591232138115629 -0.054926175624132163310964216407 0.000404130434617400223582667218 -0.002484555356204510168788290869 0 0 0 0 
2414833333.3333334923 0.174386128783226013183593750000 -0.056006904691457748413085937500 0.000160227558808401199892321176 -0.002618664409965277151820517432 0 0 0 0 
2415000000.0000000000 0.174728095531463595291299384371 -0.056692540645599372173268903907 0.000063956664234865456819534302 -0.002752599306404591040370322119 0 0 0 0 
2415166666.6666665077 0.175015747547149713714276231258 -0.057453934103250496601145158593 0.000046390501665882773023059232 -0.002746081911027431921717978369 0 0 0 0 
2415333333.3333334923 0.175331622362136813064736884371 -0.058211609721183776855468750000 -0.000060715319705195731740405424 -0.002813050989061594009399414062 0 0 0 0 
2415500000.0000000000 0.175459638237953213790731865629 -0.058787439018487930297851562500 -0.000100587843917310197226940016 -0.002697932766750454902648925781 0 0 0 0 
2415666666.6666665077 0.175668761134147588531817518742 -0.059418048709630973125417341407 -0.000193160260096192387029370718 -0.002681850921362638907191611182 0 0 0 0 
2415833333.3333334923 0.175831288099288912674111884371 -0.059957310557365417480468750000 -0.000392127840314060503810328351 -0.002914602169767022132873535156 0 0 0 0 
2416000000.0000000000 0.175807610154151888748330634371 -0.060524549335241317749023437500 -0.000338614976499229723781031476 -0.002979305107146501974818564307 0 0 0 0 
2416166666.6666665077 0.175920382142067011077557481258 -0.060889247804880142211914062500 -0.000501855975016951560974121094 -0.002701491117477416992187500000 0 0 0 0 
2416333333.3333334923 0.175846770405769403655682481258 -0.061158087104558951641042341407 -0.000708603882230818271636962891 -0.002720376476645470099208212744 0 0 0 0 
2416500000.0000000000 0.175605401396751403808593750000 -0.061683602631092071533203125000 -0.000715025817044079303741455078 -0.002869826974347234205958701025 0 0 0 0 
2416666666.6666665077 0.175332352519035311599893134371 -0.061876840889453887939453125000 -0.000769338279496878385543823242 -0.002788362093269824981689453125 0 0 0 0 
2416833333.3333334923 0.175243601202964810470419365629 -0.062390197068452842021901716407 -0.000842903275042772293090820312 -0.002792961196973919868469238281 0 0 0 0 
2417000000.0000000000 0.174712464213371304611044365629 -0.062643066048622131347656250000 -0.000882811553310602903366088867 -0.002686635125428438186645507812 0 0 0 0 
2417166666.6666665077 0.174208298325538607498330634371 -0.062948584556579589843750000000 -0.001045303768478333950042724609 -0.002652939409017562866210937500 0 0 0 0 
2417333333.3333334923 0.173725143074989291092080634371 -0.063038572669029235839843750000 -0.001146203954704106070874858325 -0.002635061275213956832885742188 0 0 0 0 
2417500000.0000000000 0.173128277063369806487713731258 -0.063662700355052947998046875000 -0.001068633049726485989214253003 -0.002477954374626278877258300781 0 0 0 0 
2417666666.6666665077 0.172486513853073092361611884371 -0.063716478645801544189453125000 -0.001145879505202173969866108472 -0.002490538172423840002772665869 0 0 0 0 
2417833333.3333334923 0.171744868159294100662393134371 -0.064063116908073425292968750000 -0.001302272081375122070312500000 -0.002526978496462107138392783057 0 0 0 0 
2418000000.0000000000 0.170811057090759305099325615629 -0.064808346331119537353515625000 -0.001250924193300307013868022388 -0.002337197307497262954711914062 0 0 0 0 
2418166666.6666665077 0.169982120394706698318643134371 -0.064807698130607604980468750000 -0.001346200122497976043103862231 -0.002495056716725229783299111475 0 0 0 0 
2418333333.3333334923 0.169219002127647399902343750000 -0.065344206988811492919921875000 -0.001465057488530874035478901440 -0.002459357259795070128199911963 0 0 0 0 
2418500000.0000000000 0.168106392025947598556356865629 -0.065867073833942413330078125000 -0.001500919694080949046491313403 -0.002263217000290751890895224463 0 0 0 0 
2418666666.6666665077 0.167223811149597195724325615629 -0.066421069204807281494140625000 -0.001515734591521322944043803638 -0.002310259733349084854125976562 0 0 0 0 
2418833333.3333334923 0.166052386164665194412393134371 -0.066848278045654296875000000000 -0.001599567360244690938236855615 -0.002251645084470510916468954932 0 0 0 0 
2419000000.0000000000 0.164844274520873995681924384371 -0.067571230232715606689453125000 -0.001639869064092636108398437500 -0.002319219056516886191127158057 0 0 0 0 
2419166666.6666665077 0.163858145475387600997763115629 -0.068160466849803924560546875000 -0.001671163365244864983799599756 -0.002153781475499271912815713037 0 0 0 0 
2419333333.3333334923 0.162537470459938104827557481258 -0.068697459995746612548828125000 -0.001673271763138473033905029297 -0.002250461839139461951014853369 0 0 0 0 
2419500000.0000000000 0.161605164408683804611044365629 -0.069687947630882263183593750000 -0.001756032463163137002232216943 -0.002151510212570428848266601562 0 0 0 0 
2419666666.6666665077 0.160501211881637600997763115629 -0.070771992206573486328125000000 -0.001761679886840284087537455981 -0.002348027192056179046630859375 0 0 0 0 
2419833333.3333334923 0.159187838435173006912393134371 -0.071572646498680114746093750000 -0.001722095301374793052673339844 -0.002123398473486303849461220850 0 0 0 0 
