# Hz S RI R 50
2400000000.0000000000 0.160451695322990389724893134371 0.057065054774284362792968750000 0.000578406965360045433044433594 0.000243552989559248089790344238 0 0 0 0 
2400166666.6666665077 0.160613849759101895431356865629 0.055428467690944671630859375000 0.000476998655358329415321350098 0.000151998028741218203872126447 0 0 0 0 
2400333333.3333334923 0.160577446222305297851562500000 0.053631592541933059692382812500 0.000655402836855500936508178711 0.000345959299011156017154139386 0 0 0 0 
2400500000.0000000000 0.160807758569717407226562500000 0.051838811486959457397460937500 0.000576259044464677572250366211 0.000280791457043960690498352051 0 0 0 0 
2400666666.6666665077 0.161016657948494013030682481258 0.049844454973936080932617187500 0.000774372776504606008529663086 0.000420692347688600420951843262 0 0 0 0 
2400833333.3333334923 0.161102771759033203125000000000 0.048186771571636199951171875000 0.000946680142078548669815063477 0.000395140115870162790447789325 0 0 0 0 
2401000000.0000000000 0.161192804574966402908486884371 0.046221945434808731079101562500 0.000775749853346496820449829102 0.000473365245852619409561157227 0 0 0 0 
2401166666.6666665077 0.161555543541908291915731865629 0.044264763593673712993581403907 0.000932234863284975290298461914 0.000499688088893890380859375000 0 0 0 0 
2401333333.3333334923 0.161752998828887911697549384371 0.042380098253488540649414062500 0.001124892733059823946711874854 0.000277461833320558125346583234 0 0 0 0 
2401500000.0000000000 0.162202566862106295486611884371 0.040644634515047073364257812500 0.001121343928389251015306782300 0.000440434814663603901863098145 0 0 0 0 
2401666666.6666665077 0.162574186921119689941406250000 0.038694743067026138305664062500 0.001351746614091098091722797925 0.000276574282906949520111083984 0 0 0 0 
2401833333.3333334923 0.163139805197715787032919365629 0.037021163851022720336914062500 0.001393635990098118998883891528 0.000429311447078362107276916504 0 0 0 0 
2402000000.0000000000 0.163420379161834689041299384371 0.035031404346227652812917341407 0.001445543719455600001691508716 0.000318104022881016081005650653 0 0 0 0 
2402166666.6666665077 0.163743600249290494064169365629 0.033371768891811370849609375000 0.001272541820071638064143515479 0.000268559670075774192810058594 0 0 0 0 
2402333333.3333334923 0.164238646626472500900106865629 0.031624659895896911621093750000 0.001555790193378925106645893628 0.000217189837712794488102513446 0 0 0 0 
2402500000.0000000000 0.165073275566101101974325615629 0.030213609337806701660156250000 0.001516450545750557942631386865 0.000181466253707185387611389160 0 0 0 0 
2402666666.6666665077 0.165566906332969693282919365629 0.028623346239328380929967110546 0.001744703622534871101379394531 0.000090591638581827282905578613 0 0 0 0 
2402833333.3333334923 0.166332751512527493575888115629 0.027019109576940539968470389454 0.001664190087467432022094726562 -0.000062163417169358581304550171 0 0 0 0 
2403000000.0000000000 0.167111843824386596679687500000 0.025599412620067599904993826954 0.001759412698447704098345112378 -0.000087213207734748721122741699 0 0 0 0 
2403166666.6666665077 0.167666852474212701995526231258 0.024248987436294559133509451954 0.001823484199121593995335244287 -0.000125961683806963292047223502 0 0 0 0 
2403333333.3333334923 0.168609514832496587555255018742 0.022965788841247558593750000000 0.001830318244174123027204204028 -0.000479660695418715476989746094 0 0 0 0 
2403500000.0000000000 0.168984219431877108474893134371 0.021688792854547500610351562500 0.001718821469694375991821289062 -0.000518657790962606668472290039 0 0 0 0 
2403666666.6666665077 0.169885411858558710296307481258 0.020354595035314559936523437500 0.001674231025390326976776123047 -0.000675970572046935558319091797 0 0 0 0 
2403833333.3333334923 0.170639902353286687652911268742 0.019220020622014999389648437500 0.002208678517490624947788857568 -0.000424609432229772210121154785 0 0 0 0 
2404000000.0000000000 0.171442955732345608810263115629 0.018193788826465610158900076954 0.001265430473722517924067831885 -0.000359219004167243784100133075 0 0 0 0 
2404166666.6666665077 0.172277852892875699142294365629 0.017150744795799258840540701954 0.001986660296097397804260253906 -0.001086750300601124980329204028 0 0 0 0 
2404333333.3333334923 0.172750085592269897460937500000 0.016096677631139758718470389454 0.001382457907311617894413613428 -0.001056812121532856984379433740 0 0 0 0 
2404500000.0000000000 0.173330247402191189864950615629 0.015386370941996569197685040820 0.001844685408286750099779438550 -0.000948431610595434904098510742 0 0 0 0 
2404666666.6666665077 0.174112573266029413421307481258 0.014738067053258420771588710352 0.001622123643755912997602153247 -0.001142803579568862915039062500 0 0 0 0 
2404833333.3333334923 0.174705639481544494628906250000 0.013810032047331329690953438671 0.001237130723893641991856240381 -0.001176592544652522043940878760 0 0 0 0 
2405000000.0000000000 0.175245121121406610686932481258 0.013109050691127780569056326954 0.001506843254901468970655131763 -0.000913655327167361974716186523 0 0 0 0 
2405166666.6666665077 0.175884842872619601150674384371 0.012421013787388799839983555273 0.001488823909312487082240439307 -0.001236190670169889926910400391 0 0 0 0 
2405333333.3333334923 0.176658555865287808517294365629 0.011730506084859369450579258398 0.000695705297403037548065185547 -0.001282012788578867912292480469 0 0 0 0 
2405500000.0000000000 0.176940977573394803146200615629 0.011440322734415529423723789648 0.001522521371953188939335488428 -0.001024050870910286903381347656 0 0 0 0 
2405666666.6666665077 0.177453979849815396407919365629 0.011040400713682179886787615430 0.000497485860250890254974365234 -0.001801313133910297913792275537 0 0 0 0 
2405833333.3333334923 0.177702158689498901367187500000 0.010581620968878269195556640625 0.000627253844868391752243041992 -0.001546447514556348106981586987 0 0 0 0 
2406000000.0000000000 0.178211495280265808105468750000 0.009962675161659717559814453125 0.000835962884593755006790161133 -0.001099484274163841984392475659 0 0 0 0 
2406166666.6666665077 0.178236946463584899902343750000 0.009674412198364734649658203125 0.000922916107811033725738525391 -0.001234642579220234914066933740 0 0 0 0 
2406333333.3333334923 0.178320348262786892989950615629 0.009239337407052516937255859375 0.001465817796997725963592529297 -0.001023530261591077067731547778 0 0 0 0 
2406500000.0000000000 0.178412005305290194412393134371 0.008790028281509876251220703125 0.000858739949762821197509765625 -0.000919528538361191749572753906 0 0 0 0 
2406666666.6666665077 0.178458675742149408538494981258 0.008520034141838550567626953125 0.000942386162932962179183959961 -0.001027989084832370064379047925 0 0 0 0 
2406833333.3333334923 0.178566411137580899337606865629 0.008060147985816001892089843750 0.000555892416741698980331420898 -0.001179743790999054908752441406 0 0 0 0 
2407000000.0000000000 0.178592503070831298828125000000 0.007608135696500539779663085938 0.000682304787915199995040893555 -0.000816524669062346220016479492 0 0 0 0 
2407166666.6666665077 0.178516611456871004959268134371 0.007249228190630674362182617188 0.000789468002039939165115356445 -0.000827620213385671377182006836 0 0 0 0 
2407333333.3333334923 0.178208857774734497070312500000 0.006547554861754179000854492188 0.000853329955134540796279907227 -0.000850002514198422431945800781 0 0 0 0 
2407500000.0000000000 0.178002104163169888595419365629 0.005971242208033800125122070312 0.000796592445112764835357666016 -0.000636428245343267917633056641 0 0 0 0 
2407666666.6666665077 0.177655652165412902832031250000 0.005441357847303152084350585938 0.000784233328886330127716064453 -0.000619373866356909275054931641 0 0 0 0 
2407833333.3333334923 0.177177011966705294510049384371 0.004668241366744040575509355762 0.000753558531869202852249145508 -0.000595066114328801631927490234 0 0 0 0 
2408000000.0000000000 0.176751449704170199295205634371 0.003960858564823865890502929688 0.000900595739949494600296020508 -0.000818899250589311122894287109 0 0 0 0 
2408166666.6666665077 0.176251694560050992111044365629 0.003270131535828113989589072119 0.000750061240978538990020751953 -0.000744471792131662368774414062 0 0 0 0 
2408333333.3333334923 0.176093012094497708419638115629 0.002470256295055150985717773438 0.000833159196190536022186279297 -0.000624419655650854110717773438 0 0 0 0 
2408500000.0000000000 0.175443783402442904373330634371 0.001407772535458206913591694409 0.001004799967631698088404990088 -0.000625474145635962486267089844 0 0 0 0 
2408666666.6666665077 0.174835473299026489257812500000 0.000343479245202615911334437238 0.000956324860453605651855468750 -0.000587862741667777299880981445 0 0 0 0 
2408833333.3333334923 0.174216523766517611404580634371 -0.000611035386100411415100097656 0.000816087529528886079788208008 -0.000695710128638893365859985352 0 0 0 0 
2409000000.0000000000 0.173579648137092590332031250000 -0.001681055873632431030273437500 0.001065960968844593004939413916 -0.000710095220711082220077514648 0 0 0 0 
2409166666.6666665077 0.173069894313812311370526231258 -0.003026164602488278908970498193 0.001200905768200754902483295972 -0.000678164884448051452636718750 0 0 0 0 
2409333333.3333334923 0.172541454434394808670205634371 -0.004413878079503774642944335938 0.001257579890079796097399067456 -0.000820644025225192308425903320 0 0 0 0 
2409500000.0000000000 0.171921983361244201660156250000 -0.005737406667321920394897460938 0.001245589694008230946184467847 -0.000805749441497027873992919922 0 0 0 0 
2409666666.6666665077 0.171325176954269409179687500000 -0.007222221232950687408447265625 0.001204606029205024025560688550 -0.000858775922097265720367431641 0 0 0 0 
2409833333.3333334923 0.170800775289535494705361884371 -0.008736848831176757812500000000 0.001315659494139254093170166016 -0.000738175120204687118530273438 0 0 0 0 
2410000000.0000000000 0.170256868004798889160156250000 -0.010125134140253070486048514454 0.001385287381708621978759765625 -0.000886417808942496776580810547 0 0 0 0 
2410166666.6666665077 0.169812500476837213714276231258 -0.011687052436172960453997227148 0.001433355268090962929966591943 -0.000986749655567109584808349609 0 0 0 0 
2410333333.3333334923 0.169459208846092196365518134371 -0.013417292386293409520159336523 0.001745871151797472996952675928 -0.001021904754452406926396035303 0 0 0 0 
2410500000.0000000000 0.169020637869834899902343750000 -0.015195944346487520390520664648 0.001549080945551394982578896631 -0.001044140779413283088086772388 0 0 0 0 
2410666666.6666665077 0.168647110462188692947549384371 -0.017222499474883079528808593750 0.001617860747501254081726074219 -0.000920234771911054849624633789 0 0 0 0 
2410833333.3333334923 0.168228358030319213867187500000 -0.018768740817904468881627266796 0.001572062261402606964111328125 -0.001242354628629982905146933447 0 0 0 0 
2411000000.0000000000 0.167993590235710088531817518742 -0.020638363435864448547363281250 0.001724325004033743901493691553 -0.001401611254550517039058066260 0 0 0 0 
2411166666.6666665077 0.167939513921737698654013115629 -0.022458948194980621337890625000 0.001700713881291449069976806641 -0.001554254791699350097058940356 0 0 0 0 
2411333333.3333334923 0.167790949344635009765625000000 -0.024314519017934799194335937500 0.001888486323878169059753417969 -0.001725517795421182892443012769 0 0 0 0 
2411500000.0000000000 0.167630016803741510589276231258 -0.026263365522027019155482108204 0.001905666198581456921221088940 -0.001871226937510072968126606519 0 0 0 0 
2411666666.6666665077 0.167763665318489102462606865629 -0.028131373226642608642578125000 0.001923903240822256045100546729 -0.001876155496574938080431294019 0 0 0 0 
2411833333.3333334923 0.167930617928504888336505018742 -0.029904089868068698537806326954 0.001890516607090831019757914966 -0.002222725423052906990051269531 0 0 0 0 
2412000000.0000000000 0.168046370148658807952557481258 -0.031777504831552512432057966407 0.001829303801059722900390625000 -0.002341424580663443045375204932 0 0 0 0 
2412166666.6666665077 0.168090119957923889160156250000 -0.033908311277627951885182966407 0.001835416769608855030657124097 -0.002392294816672801971435546875 0 0 0 0 
2412333333.3333334923 0.168565437197685186188067518742 -0.035465948283672332763671875000 0.001504251034930347962620400537 -0.002795739797875285148620605469 0 0 0 0 
2412500000.0000000000 0.168633610010147094726562500000 -0.037357099354267120361328125000 0.001673628343269228935241699219 -0.002902041189372539953944540869 0 0 0 0 
2412666666.6666665077 0.168992400169372586349325615629 -0.039312522858381271362304687500 0.001424404210411011955858540112 -0.003122941590845584869384765625 0 0 0 0 
2412833333.3333334923 0.169267654418945312500000000000 -0.040960706770420067523996721093 0.001267566694878041961072612231 -0.003188204951584339141845703125 0 0 0 0 
2413000000.0000000000 0.169852510094642611404580634371 -0.042672097682952880859375000000 0.001180794672109187083003378760 -0.003513838863000274138209677588 0 0 0 0 
2413166666.6666665077 0.170183330774307306487713731258 -0.044140677899122238159179687500 0.000985124730505049228668212891 -0.003459530882537364959716796875 0 0 0 0 
2413333333.3333334923 0.170676544308662386795205634371 -0.045659024268388748168945312500 0.000768352067098021507263183594 -0.003627549391239881949183798682 0 0 0 0 
2413500000.0000000000 0.171256244182586697677450615629 -0.047053992748260498046875000000 0.000644760904833674430847167969 -0.003985445946455001831054687500 0 0 0 0 
2413666666.6666665077 0.171740397810936001876669365629 -0.048667125403881072998046875000 0.000417246483266353607177734375 -0.003990386612713336944580078125 0 0 0 0 
2413833333.3333334923 0.172325596213340787032919365629 -0.050082735717296600341796875000 0.000097323725640308111906051636 -0.003854685928672552108764648438 0 0 0 0 
2414000000.0000000000 0.172540798783302307128906250000 -0.051371708512306213378906250000 -0.000164810742717236307546338492 -0.004138737451285123825073242188 0 0 0 0 
2414166666.6666665077 0.173261180520057705978231865629 -0.052410736680030822753906250000 -0.000317127880407497286796569824 -0.004212163854390382766723632812 0 0 0 0 
2414333333.3333334923 0.173656031489372308929119981258 -0.053568754345178597187082658593 -0.000540919776540249586105346680 -0.004083859268575906753540039062 0 0 0 0 
2414500000.0000000000 0.174400001764297513107138115629 -0.054536145180463790893554687500 -0.000777812965679913759231567383 -0.004155088681727647781372070312 0 0 0 0 
2414666666.6666665077 0.174694240093231201171875000000 -0.055577706545591347431223283593 -0.001137163955718279101728129810 -0.004060916136950253572945879199 0 0 0 0 
2414833333.3333334923 0.175134226679801913162393134371 -0.056317247450351722026784528907 -0.001313199754804373004316020435 -0.004061333835124970349783612988 0 0 0 0 
2415000000.0000000000 0.175392419099807711502236884371 -0.057142797857522957538645158593 -0.001560001284815371036529541016 -0.003865427803248167037963867188 0 0 0 0 
2415166666.6666665077 0.175902217626571710784588731258 -0.057898364961147308349609375000 -0.001896539819426835016963339697 -0.003887746715918182893040322412 0 0 0 0 
2415333333.3333334923 0.176203072071075411697549384371 -0.058490149676799767231027971093 -0.001938447123393415971043252100 -0.003806741209700704054591513525 0 0 0 0 
2415500000.0000000000 0.176510676741600008865518134371 -0.059029467403888702392578125000 -0.002259249100461602210998535156 -0.003664159681648015975952148438 0 0 0 0 
2415666666.6666665077 0.176649197936057988922442518742 -0.059563431888818740844726562500 -0.002619532635435461997985839844 -0.003531469963490962982177734375 0 0 0 0 
2415833333.3333334923 0.176672041416168212890625000000 -0.059962049126625061035156250000 -0.002673124196007847785949707031 -0.003345386590808629989624023438 0 0 0 0 
2416000000.0000000000 0.176713958382606506347656250000 -0.060310289263725280761718750000 -0.002758879680186510086059570312 -0.003280349308624864058253622900 0 0 0 0 
2416166666.6666665077 0.176958546042442294021768134371 -0.060633782297372817993164062500 -0.002918646670877933935878134619 -0.003091065911576151847839355469 0 0 0 0 
2416333333.3333334923 0.176690697669982910156250000000 -0.060879413038492202758789062500 -0.003235171316191554069519042969 -0.002969809575006366209742880713 0 0 0 0 
2416500000.0000000000 0.176578715443611200530682481258 -0.061249349266290671611745466407 -0.003311107633635402159449911963 -0.002789692720398306846618652344 0 0 0 0 
2416666666.6666665077 0.176164284348487909515057481258 -0.061416994780302047729492187500 -0.003429274540394545035121298682 -0.002559112152084708213806152344 0 0 0 0 
2416833333.3333334923 0.176039844751358004470986884371 -0.061746478080749511718750000000 -0.003617423353716731071472167969 -0.002275837352499365806579589844 0 0 0 0 
2417000000.0000000000 0.175305008888244601150674384371 -0.062042184174060821533203125000 -0.003555658971890807151794433594 -0.002090066671371459960937500000 0 0 0 0 
2417166666.6666665077 0.174783065915107699295205634371 -0.062117751687765121459960937500 -0.003589187515899538993835449219 -0.001829306944273412010790180737 0 0 0 0 
2417333333.3333334923 0.174265697598457308670205634371 -0.062247760593891136859934221093 -0.003687652759253979162928915869 -0.001681427704170346043230366284 0 0 0 0 
2417500000.0000000000 0.173563152551651000976562500000 -0.062715575098991394042968750000 -0.003723180619999765916111611475 -0.001533249393105506896972656250 0 0 0 0 
2417666666.6666665077 0.172930091619491604904013115629 -0.062830731272697448730468750000 -0.003665913362056016921997070312 -0.001285322476178408102748251807 0 0 0 0 
2417833333.3333334923 0.172088101506233187576455634371 -0.063063606619834899902343750000 -0.003724483307451010184047079932 -0.001179496524855494932887411963 0 0 0 0 
2418000000.0000000000 0.171164914965629605392294365629 -0.063536711037158966064453125000 -0.003561752149835228919982910156 -0.000974824302829802036285400391 0 0 0 0 
2418166666.6666665077 0.170064359903335599044638115629 -0.063678920269012451171875000000 -0.003719243453815578980686806787 -0.000741692900191992521286010742 0 0 0 0 
2418333333.3333334923 0.169299021363258389571981865629 -0.064191319048404693603515625000 -0.003769948147237300872802734375 -0.000522846414241939783096313477 0 0 0 0 
2418500000.0000000000 0.168071985244751004318075615629 -0.064561799168586730957031250000 -0.003548312932252883911132812500 -0.000498872075695544481277465820 0 0 0 0 
2418666666.6666665077 0.167099177837371798416299384371 -0.065144017338752746582031250000 -0.003701335284858942031860351562 -0.000421325617935508489608764648 0 0 0 0 
2418833333.3333334923 0.165755838155746487716513115629 -0.065730996429920196533203125000 -0.003513122908771038055419921875 -0.000205602787900716093465527945 0 0 0 0 
2419000000.0000000000 0.164518952369689913650674384371 -0.066380977630615234375000000000 -0.003614075714722276167628622900 0.000043276173528283827681133883 0 0 0 0 
2419166666.6666665077 0.163441956043243408203125000000 -0.067024476826190948486328125000 -0.003476970363408327102661132812 0.000136701710289344191551208496 0 0 0 0 
2419333333.3333334923 0.162130296230316189864950615629 -0.067436911165714263916015625000 -0.003495515557006001906154013525 0.000135527167003601789474487305 0 0 0 0 
2419500000.0000000000 0.160891056060790987869424384371 -0.068612143397331237792968750000 -0.003371671773493289947509765625 0.000280727224890142679214477539 0 0 0 0 
2419666666.6666665077 0.159790307283401489257812500000 -0.069632381200790405273437500000 -0.003369612386450171904322958838 0.000544272246770560741424560547 0 0 0 0 
2419833333.3333334923 0.158630266785621587555255018742 -0.070362046360969543457031250000 -0.003306995611637831167933798682 0.000652528135105967521667480469 0 0 0 0 
