# Hz S RI R 
2400000000.0000000000 0.154292657971382113357705634371 0.059232626110315322875976562500 -0.003550544148311018943786621094 -0.000353435403667390400737208234 0 0 0 0 
2400166666.6666665077 0.154465511441230801681356865629 0.057458002120256417011301408593 -0.003531311638653277917149209131 -0.000491496000904589891433715820 0 0 0 0 
2400333333.3333334923 0.154718756675720187088174384371 0.055312152951955802226979841407 -0.003673217492178082899806357275 -0.000345034990459680611461085187 0 0 0 0 
2400500000.0000000000 0.155142799019813509842080634371 0.053120784461498260498046875000 -0.003604619530960917906520224463 -0.000114736758405342698097229004 0 0 0 0 
2400666666.6666665077 0.155409753322601290603799384371 0.051076389849185936664621721093 -0.003605956444516777992248535156 -0.000093807946541346609592437744 0 0 0 0 
2400833333.3333334923 0.155943363904953002929687500000 0.049009278416633612895925153907 -0.003749023890122770829441689600 0.000003870343334710923954844475 0 0 0 0 
2401000000.0000000000 0.156558036804199190994424384371 0.047001898288726806640625000000 -0.003681426867842673821690224756 0.000193798026884905993938446045 0 0 0 0 
2401166666.6666665077 0.157210946083068903167401231258 0.044712390750646591186523437500 -0.003591071115806698799133300781 0.000239439788856543600559234619 0 0 0 0 
2401333333.3333334923 0.157597810029983492752236884371 0.042603068053722381591796875000 -0.003471924457699060006382607568 0.000552305078599601984024047852 0 0 0 0 
2401500000.0000000000 0.158548802137374905685263115629 0.040677361190319061279296875000 -0.003719623899087309837341308594 0.000645715568680316209793090820 0 0 0 0 
2401666666.6666665077 0.159398704767227200607138115629 0.038678612560033798217773437500 -0.003654721891507505936863564600 0.000624548585619777441024780273 0 0 0 0 
2401833333.3333334923 0.160295441746711703201455634371 0.036638852208852767944335937500 -0.003580231219530106024501181494 0.000927272019907832254111135217 0 0 0 0 
2402000000.0000000000 0.160969376564025906661825615629 0.034866061061620712280273437500 -0.003525895532220602035522460938 0.001004163292236625931383442456 0 0 0 0 
2402166666.6666665077 0.161814942955970791915731865629 0.032896954566240310668945312500 -0.003545575542375444932224892725 0.000968164531514048576354980469 0 0 0 0 
2402333333.3333334923 0.162809804081916809082031250000 0.031331460922956466674804687500 -0.003367922967299818992614746094 0.001072820858098566965815878760 0 0 0 0 
2402500000.0000000000 0.163990363478660611251669365629 0.029825394973158839834193045704 -0.003460573730990291075465536963 0.001289190957322716929792094653 0 0 0 0 
2402666666.6666665077 0.164887413382530212402343750000 0.028334153816103938711146170704 -0.003458532737568020820617675781 0.001481865183450282053706503760 0 0 0 0 
2402833333.3333334923 0.166053801774978609939736884371 0.026961192488670349121093750000 -0.003459799801930785179138183594 0.001626295619644225077388144385 0 0 0 0 
2403000000.0000000000 0.167049944400787409026776231258 0.025462754070758819580078125000 -0.003476221812888979911804199219 0.001504709711298346953151083838 0 0 0 0 
2403166666.6666665077 0.168288886547088595291299384371 0.024270765483379360544224923046 -0.003187810070812702178955078125 0.001744616194628179073333740234 0 0 0 0 
2403333333.3333334923 0.169432938098907498458700615629 0.023082330822944641113281250000 -0.003079444635659455819370888818 0.001889156061224638982060097803 0 0 0 0 
2403500000.0000000000 0.170318543910980196853799384371 0.022155420854687690734863281250 -0.003253329778090118928196572412 0.001931231701746582984924316406 0 0 0 0 
2403666666.6666665077 0.171439200639724703689736884371 0.020889863371849060058593750000 -0.003053838154301046891453408350 0.002070079790428280830383300781 0 0 0 0 
2403833333.3333334923 0.172500386834144592285156250000 0.020311418920755389821986014454 -0.003126472467556595802307128906 0.002184636658057570891139365088 0 0 0 0 
2404000000.0000000000 0.173488810658454895019531250000 0.019416633993387218820592110546 -0.002848788863047956986668252100 0.002272184705361723899841308594 0 0 0 0 
2404166666.6666665077 0.174418106675148010253906250000 0.018679695203900340688685233204 -0.002725342521443963050842285156 0.002215911401435732841491699219 0 0 0 0 
2404333333.3333334923 0.175264164805412292480468750000 0.017889743670821189880371093750 -0.002731031039729713959934853662 0.002540062880143523216247558594 0 0 0 0 
2404500000.0000000000 0.176104262471199007888955634371 0.017308875918388370168665701954 -0.002641750499606132941005087744 0.002633960219100118117091513525 0 0 0 0 
2404666666.6666665077 0.176954761147499112228231865629 0.016848498955368999135950858204 -0.002580900909379125075099326025 0.002627661451697349982020712744 0 0 0 0 
2404833333.3333334923 0.177635625004768399337606865629 0.016492636874318119394322579296 -0.002548688324168324904200888525 0.002845053328201175169703818213 0 0 0 0 
2405000000.0000000000 0.178383648395538302322549384371 0.015902958810329440725306326954 -0.002454640576615930037257529150 0.003086900571361184120178222656 0 0 0 0 
2405166666.6666665077 0.178897470235824612716513115629 0.015645537525415420532226562500 -0.002345686778426169915440224756 0.003074018284678459167480468750 0 0 0 0 
2405333333.3333334923 0.179523438215255709549111884371 0.015202823095023630314837070898 -0.002199298236519097848179482568 0.003152768593281507925746298682 0 0 0 0 
2405500000.0000000000 0.179951384663581903655682481258 0.015134823508560659235944179102 -0.002143522724509239196777343750 0.003221855731680988831761025537 0 0 0 0 
2405666666.6666665077 0.180100157856941195388955634371 0.014854116365313529968261718750 -0.001880174153484404087066650391 0.003282111370936036109924316406 0 0 0 0 
2405833333.3333334923 0.180244728922843905349893134371 0.014671582728624340402623360546 -0.001706955838017166094539023291 0.003278725780546665191650390625 0 0 0 0 
2406000000.0000000000 0.180513560771942110916299384371 0.014477225020527839660644531250 -0.001564203761518001990077353369 0.003441139357164502143859863281 0 0 0 0 
2406166666.6666665077 0.180337771773338290115518134371 0.014303598552942279470423514454 -0.001515284413471817970275878906 0.003509500529617071151733398438 0 0 0 0 
2406333333.3333334923 0.180448055267334012130575615629 0.014096487313508989161481288477 -0.001341487164609133980394672925 0.003725934773683547973632812500 0 0 0 0 
2406500000.0000000000 0.180382609367370605468750000000 0.013721256516873839986780936329 -0.001020188559778034903882670825 0.003556187264621258215663290869 0 0 0 0 
2406666666.6666665077 0.179931983351707486251669365629 0.013567228801548479252825352148 -0.000980897806584835052490234375 0.003549301763996481895446777344 0 0 0 0 
2406833333.3333334923 0.179729089140892001053018134371 0.013163248077034950256347656250 -0.000956131552811712026596069336 0.003648313693702220916748046875 0 0 0 0 
2407000000.0000000000 0.179510220885276794433593750000 0.012758444994688030588170235546 -0.000724796671420335769653320312 0.003730048891156911849975585938 0 0 0 0 
2407166666.6666665077 0.179108172655105590820312500000 0.012318863533437250309954258398 -0.000592496304307132959365844727 0.003619498573243618011474609375 0 0 0 0 
2407333333.3333334923 0.178493097424507113357705634371 0.011696282774209979665736014454 -0.000609319948125630617141723633 0.003678978886455297903773642432 0 0 0 0 
2407500000.0000000000 0.177930369973182705978231865629 0.011172712780535219365130039648 -0.000294892321107909083366394043 0.003674951614812016920802451025 0 0 0 0 
2407666666.6666665077 0.177443578839302090743856865629 0.010482894256711009633997733204 -0.000202933486434631103843134747 0.003565256018191576004028320312 0 0 0 0 
2407833333.3333334923 0.176580250263214111328125000000 0.009595508687198162078857421875 0.000000597716336869780207052827 0.003491804236546158790588378906 0 0 0 0 
2408000000.0000000000 0.175921663641929598709268134371 0.008719048462808132171630859375 0.000189896745723672211170196533 0.003609315957874060110804892432 0 0 0 0 
2408166666.6666665077 0.175188362598419189453125000000 0.007954972796142101287841796875 0.000282700464595109224319458008 0.003483397653326392173767089844 0 0 0 0 
2408333333.3333334923 0.174588665366172790527343750000 0.006848722696304321289062500000 0.000409721891628578305244445801 0.003401922062039374871494912256 0 0 0 0 
2408500000.0000000000 0.173650249838829012771768134371 0.005738010630011559400076581738 0.000435074034612625783115941180 0.003407694632187486128566122900 0 0 0 0 
2408666666.6666665077 0.172857716679573086837606865629 0.004437745083123446378225995801 0.000623870466370135654150808069 0.003353692125529050827026367188 0 0 0 0 
2408833333.3333334923 0.172126904129981994628906250000 0.003216704819351435141322470557 0.000688027474097907543182373047 0.003141118679195642904994345557 0 0 0 0 
2409000000.0000000000 0.171288251876831110198651231258 0.001626945100724696896196674878 0.000947827647905796766281127930 0.003153101773932576179504394531 0 0 0 0 
2409166666.6666665077 0.170563951134681701660156250000 0.000093503971584141254425048828 0.000848505238536745309829711914 0.003117967164143919944763183594 0 0 0 0 
2409333333.3333334923 0.169951081275939913650674384371 -0.001526088686659931919695210034 0.000881757237948477268218994141 0.003002543700858951048610068213 0 0 0 0 
2409500000.0000000000 0.169249594211578396896200615629 -0.003188199130818247795104980469 0.001150885014794766902923583984 0.003015273250639439062831259619 0 0 0 0 
2409666666.6666665077 0.168483600020408602615518134371 -0.004875429440289735794067382812 0.001144938752986490943311381763 0.003024342935532331900355673682 0 0 0 0 
2409833333.3333334923 0.167880371212959289550781250000 -0.006504309363663197431082441113 0.001139648957177997069117880713 0.002825751202180982069728232275 0 0 0 0 
2410000000.0000000000 0.167542651295661898513955634371 -0.008333339355885982513427734375 0.001320681301876903013942099463 0.002838152227923274040222167969 0 0 0 0 
2410166666.6666665077 0.167171597480773898025674384371 -0.010408542118966579437255859375 0.001326723839156330065486288916 0.002685901476070284843444824219 0 0 0 0 
2410333333.3333334923 0.166595414280891390701455634371 -0.012187440879642959939976876171 0.001482661464251578070996928638 0.002572177210822701887843466650 0 0 0 0 
2410500000.0000000000 0.166391640901565607268963731258 -0.014248278923332689457903477148 0.001492326264269649982452392578 0.002563018118962645964381552588 0 0 0 0 
2410666666.6666665077 0.166027918457984896560830634371 -0.016418198123574260366419608204 0.001552661764435470104217529297 0.002359251957386732101440429688 0 0 0 0 
2410833333.3333334923 0.166009530425071688553018134371 -0.018150193616747859609583670704 0.001598911010660230896593403394 0.002359193982556461854221963037 0 0 0 0 
2411000000.0000000000 0.165764585137367304046307481258 -0.020407268777489658700963204296 0.001510184258222579956054687500 0.002329664537683128876927041162 0 0 0 0 
2411166666.6666665077 0.165870785713195800781250000000 -0.022527104243636131286621093750 0.001647212193347513892530131763 0.002133809728547931151149130713 0 0 0 0 
2411333333.3333334923 0.165868178009986905196981865629 -0.024485234171152118337611014454 0.001763012842275202057482075269 0.002276640385389328002929687500 0 0 0 0 
2411500000.0000000000 0.166136994957923889160156250000 -0.026497812941670421255091483204 0.001899386057630181095720600659 0.002117978176102042198181152344 0 0 0 0 
2411666666.6666665077 0.166501462459564208984375000000 -0.028389094397425651550292968750 0.001883908407762646891950297778 0.002081701532006264166591025244 0 0 0 0 
2411833333.3333334923 0.166769742965698186676348768742 -0.030360680073499679565429687500 0.001924443291500210978864360278 0.001840980490669607899309467847 0 0 0 0 
2412000000.0000000000 0.167195379734039306640625000000 -0.032167557626962661743164062500 0.001956852385774254798889160156 0.001753651304170489094377827222 0 0 0 0 
2412166666.6666665077 0.167602390050888089279013115629 -0.034129288047552108764648437500 0.001975577557459474043605185400 0.001795099116861820004106831128 0 0 0 0 
2412333333.3333334923 0.168439283967018099685830634371 -0.035673700273036956787109375000 0.002067150082439184188842773438 0.001696942490525543906568217700 0 0 0 0 
2412500000.0000000000 0.168896734714508112151776231258 -0.037361815571784973144531250000 0.002120380057021975950953818213 0.001626705168746412017224955981 0 0 0 0 
2412666666.6666665077 0.169620916247367886642294365629 -0.039301060140132897113840471093 0.002090465277433394952061318506 0.001486505731008946895599365234 0 0 0 0 
2412833333.3333334923 0.170401453971862792968750000000 -0.040888644754886627197265625000 0.002061077626422048048732138525 0.001332939486019312901737832178 0 0 0 0 
2413000000.0000000000 0.171268403530120905120526231258 -0.042366247624158859252929687500 0.002212942577898501916172646631 0.001297942944802344062207866138 0 0 0 0 
2413166666.6666665077 0.171569660305976895431356865629 -0.043808951973915100097656250000 0.002037068130448461012599326025 0.001131044817157089927076030200 0 0 0 0 
2413333333.3333334923 0.172376871109008789062500000000 -0.045105807483196258544921875000 0.002252181759104133085963583838 0.001047918223775923035265278394 0 0 0 0 
2413500000.0000000000 0.173295423388481112381143134371 -0.046569228172302253032643903907 0.002028043847531079812290810693 0.001025088829919696071027446216 0 0 0 0 
2413666666.6666665077 0.174107581377029391189736884371 -0.047836445271968841552734375000 0.002150783082470297813415527344 0.001000847551040350957157754053 0 0 0 0 
2413833333.3333334923 0.175036311149597195724325615629 -0.048874951899051673198659528907 0.002136300550773739814758300781 0.000976599985733628273010253906 0 0 0 0 
2414000000.0000000000 0.175405085086822509765625000000 -0.050100389868021011352539062500 0.001990434015169740156886435400 0.000735941517632454633712768555 0 0 0 0 
2414166666.6666665077 0.176134407520294189453125000000 -0.050849091261625289916992187500 0.002050225855782628059387207031 0.000779182126279920339584350586 0 0 0 0 
2414333333.3333334923 0.176936239004135104080361884371 -0.051757864654064178466796875000 0.001916310633532702922821044922 0.000706366496160626411437988281 0 0 0 0 
2414500000.0000000000 0.177570819854736300369424384371 -0.052441995590925216674804687500 0.002093496732413769201991415869 0.000575275393202900886535644531 0 0 0 0 
2414666666.6666665077 0.178202524781227111816406250000 -0.053113922476768486713449846093 0.001931459759362041950225830078 0.000583408225793391466140747070 0 0 0 0 
2414833333.3333334923 0.178551942110061701018963731258 -0.053802289068698883056640625000 0.001821915386244655089137411963 0.000539177737664431333541870117 0 0 0 0 
2415000000.0000000000 0.179016038775444003006143134371 -0.054272808134555816650390625000 0.001857292256318032958387065356 0.000532917445525527000427246094 0 0 0 0 
2415166666.6666665077 0.179203420877456692794638115629 -0.054784473031759262084960937500 0.001924792770296335003496479565 0.000475263048429042100906372070 0 0 0 0 
2415333333.3333334923 0.179702669382095309158486884371 -0.055160503834486007690429687500 0.001942474860697984912275004810 0.000509147590491920709609985352 0 0 0 0 
2415500000.0000000000 0.179798230528831509689169365629 -0.055554538965225219726562500000 0.001711136894300580024719238281 0.000481091643450781702995300293 0 0 0 0 
2415666666.6666665077 0.179892912507057189941406250000 -0.055671960115432739257812500000 0.002000865060836077170131064307 0.000458027701824903488159179688 0 0 0 0 
2415833333.3333334923 0.179907828569412203689736884371 -0.056104958057403557514231096093 0.001798545010387897925135947119 0.000409308850066736286312657489 0 0 0 0 
2416000000.0000000000 0.179732829332351712325888115629 -0.056200586259365081787109375000 0.001696937368251383087755512769 0.000448702630819752812385559082 0 0 0 0 
2416166666.6666665077 0.179672300815582303146200615629 -0.056372512131929397583007812500 0.001713367993943393013597797925 0.000255141494562849402427673340 0 0 0 0 
2416333333.3333334923 0.179301857948303194900674384371 -0.056506920605897903442382812500 0.001625018077902496077893901294 0.000219978071982041001319885254 0 0 0 0 
2416500000.0000000000 0.178917750716209411621093750000 -0.056815009564161300659179687500 0.001598233939148486094233847510 0.000437927257735282182693481445 0 0 0 0 
2416666666.6666665077 0.178397834300994900802450615629 -0.056865744292736053466796875000 0.001718974905088543891906738281 0.000232702426728792488574981689 0 0 0 0 
2416833333.3333334923 0.177796006202697809417401231258 -0.057139862328767783428151716407 0.001591958804056047959568642725 0.000304057961329817826121729718 0 0 0 0 
2417000000.0000000000 0.176898375153541592696981865629 -0.057399172335863113403320312500 0.001704213791526854038238525391 0.000216917076613754006937304086 0 0 0 0 
2417166666.6666665077 0.176067203283309908767861884371 -0.057527612894773483276367187500 0.001566862920299171967747353662 0.000283124274574220180511474609 0 0 0 0 
2417333333.3333334923 0.175288766622543307205361884371 -0.057816464453935623168945312500 0.001704735681414603970171284253 0.000036886780435452237725257874 0 0 0 0 
2417500000.0000000000 0.174324244260787991622763115629 -0.058239396661519997333567033593 0.001725521637126802964451455225 0.000196371402125805589273729868 0 0 0 0 
2417666666.6666665077 0.173316001892089788238848768742 -0.058500338345766067504882812500 0.001702060573734343051910400391 0.000036081040889257571916987760 0 0 0 0 
2417833333.3333334923 0.172132134437561007400674384371 -0.058954793959856033325195312500 0.001675570150837301991106342847 0.000100189165095798698350629263 0 0 0 0 
2418000000.0000000000 0.170949131250381497482138115629 -0.059492405503988272930104841407 0.001616035355255007960675883716 0.000083159742644056677818298340 0 0 0 0 
2418166666.6666665077 0.169640377163886996170205634371 -0.059884924441575997089426408593 0.001547443564049900011775351416 0.000093881717475596815347671509 0 0 0 0 
2418333333.3333334923 0.168538525700569208343182481258 -0.060684584081172943115234375000 0.001651559257879853031755756909 0.000039652499253861612897326810 0 0 0 0 
2418500000.0000000000 0.167099535465240506271200615629 -0.061378628015518188476562500000 0.001624401193112134933471679688 0.000187833138625137507915496826 0 0 0 0 
2418666666.6666665077 0.165972247719764709472656250000 -0.062208004295825958251953125000 0.001669236691668630079982138525 0.000064613130234647542238235474 0 0 0 0 
2418833333.3333334923 0.164429754018783597091513115629 -0.063076384365558624267578125000 0.001771336887031794028041220557 -0.000061065569752827286720275879 0 0 0 0 
2419000000.0000000000 0.162902787327766390701455634371 -0.063929222524166107177734375000 0.001595089328475296931025839697 -0.000191711616935208412721911020 0 0 0 0 
2419166666.6666665077 0.161690443754196194747763115629 -0.065153256058692932128906250000 0.001634084852412343025207519531 -0.000053882882639300078153610229 0 0 0 0 
2419333333.3333334923 0.160198196768760708907919365629 -0.066021211445331573486328125000 0.001623522839508950927137065356 -0.000153627392137423211902064191 0 0 0 0 
2419500000.0000000000 0.158949896693229703048544365629 -0.067248165607452392578125000000 0.001662789843976498083827353369 -0.000158946175361052209704798566 0 0 0 0 
2419666666.6666665077 0.157899126410484286209268134371 -0.068592041730880737304687500000 0.001667761011049150986912392725 -0.000184503587661311003282824106 0 0 0 0 
2419833333.3333334923 0.156470626592636108398437500000 -0.069785647094249725341796875000 0.001630728133022784969927143628 -0.000281765445834025686413365497 0 0 0 0 
2420000000.0000000000 0.155464917421340886871661268742 -0.071286626160144805908203125000 0.001596810994669795036315917969 -0.000252626690780744010775965558 0 0 0 0 
