# Hz S RI R 
2400000000.0000000000 0.155149936676025390625000000000 0.111553445458412198165731865629 0.001551672117784618897678994287 0.006277430802583695325369550488 0 0 0 0 
2400166666.6666665077 0.154438912868499811370526231258 0.109270878136158003379740932814 0.001772105693817139105555868994 0.006359793245792388916015625000 0 0 0 0 
2400333333.3333334923 0.154302820563316400725994981258 0.106926985085010500808877509371 0.002083855913951992988586425781 0.006333966273814439773559570312 0 0 0 0 
2400500000.0000000000 0.153988838195800809005575615629 0.104468755424022702316122490629 0.002272327896207571029663085938 0.006249041762202978134155273438 0 0 0 0 
2400666666.6666665077 0.153856202960014287750567518742 0.101859778165817302375550923443 0.002619760343804955916163779150 0.006339436862617731094360351562 0 0 0 0 
2400833333.3333334923 0.153388425707817105392294365629 0.099006228148937225341796875000 0.002764730481430888175964355469 0.006243300624191761016845703125 0 0 0 0 
2401000000.0000000000 0.153503775596618707854901231258 0.096238754689693450927734375000 0.003007960738614201979396201025 0.006255373824387788772583007812 0 0 0 0 
2401166666.6666665077 0.153255447745323208907919365629 0.093462951481342315673828125000 0.003168286988511681990382529150 0.006155418697744607925415039062 0 0 0 0 
2401333333.3333334923 0.153580322861671503265057481258 0.090551920235157012939453125000 0.003537871874868870215175009619 0.006038218270987272262573242188 0 0 0 0 
2401500000.0000000000 0.153837844729423495193643134371 0.087470829486846923828125000000 0.003742647124454379081726074219 0.005985600408166646957397460938 0 0 0 0 
2401666666.6666665077 0.153850212693214388748330634371 0.084391780197620391845703125000 0.003917627967894077301025390625 0.005944772157818078994750976562 0 0 0 0 
2401833333.3333334923 0.154220238327980013748330634371 0.081639781594276428222656250000 0.004065912216901779174804687500 0.005868732929229736328125000000 0 0 0 0 
2402000000.0000000000 0.155073180794715909103231865629 0.078752361238002777099609375000 0.004235855769366025924682617188 0.005706332623958587646484375000 0 0 0 0 
2402166666.6666665077 0.155644282698631286621093750000 0.075803965330123901367187500000 0.004568174947053194046020507812 0.005606015678495168685913085938 0 0 0 0 
2402333333.3333334923 0.156484544277191189864950615629 0.072840183973312377929687500000 0.004786102101206780347342206738 0.005470954347401857376098632812 0 0 0 0 
2402500000.0000000000 0.157458633184433011154013115629 0.070026263594627380371093750000 0.005016691051423549652099609375 0.005364593118429183959960937500 0 0 0 0 
2402666666.6666665077 0.158784121274948092361611884371 0.067385181784629821777343750000 0.005247979890555143356323242188 0.005322603974491357803344726562 0 0 0 0 
2402833333.3333334923 0.159895181655883789062500000000 0.064680829644203186035156250000 0.005561835132539272308349609375 0.005238324403762817382812500000 0 0 0 0 
2403000000.0000000000 0.161214724183082608321981865629 0.062114294618368148803710937500 0.005793320015072822570800781250 0.004961593076586723327636718750 0 0 0 0 
2403166666.6666665077 0.163184821605682400802450615629 0.059730790555477142333984375000 0.006169485859572887420654296875 0.004807552322745323181152343750 0 0 0 0 
2403333333.3333334923 0.164500087499618502517861884371 0.057089611887931816791574846093 0.006344976369291543960571289062 0.004665909800678491592407226562 0 0 0 0 
2403500000.0000000000 0.166311591863632202148437500000 0.054853074252605438232421875000 0.006590324454009532928466796875 0.004321014974266290664672851562 0 0 0 0 
2403666666.6666665077 0.168178230524063110351562500000 0.052512921392917633056640625000 0.006766334176063537597656250000 0.003901723539456725120544433594 0 0 0 0 
2403833333.3333334923 0.169776976108550997635049384371 0.050513580441474921489675153907 0.007124247960746288299560546875 0.003674207022413610978367470850 0 0 0 0 
2404000000.0000000000 0.171459525823593111892861884371 0.048522509634494781494140625000 0.007418652065098285675048828125 0.003365706186741590933558798682 0 0 0 0 
2404166666.6666665077 0.173417761921882601638955634371 0.047043833881616592407226562500 0.007433753926306962966918945312 0.002972038229927421049830771338 0 0 0 0 
2404333333.3333334923 0.175292506814002990722656250000 0.045192033052444458007812500000 0.007766963914036750793457031250 0.002725990954786539077758789062 0 0 0 0 
2404500000.0000000000 0.176946580410003689864950615629 0.043678428977727890014648437500 0.007833410054445266723632812500 0.002150238258764148192164755713 0 0 0 0 
2404666666.6666665077 0.178905323147773687164630018742 0.042343225330114371562917341407 0.007875898852944374084472656250 0.001876888447441160895703959888 0 0 0 0 
2404833333.3333334923 0.180949911475181607345419365629 0.040992379188537597656250000000 0.008122960105538368225097656250 0.001339570037089288017870258862 0 0 0 0 
2405000000.0000000000 0.182330951094627408126669365629 0.040406778454780578613281250000 0.007962076924741268157958984375 0.000918641337193548679351806641 0 0 0 0 
2405166666.6666665077 0.184117481112480191329794365629 0.039295796304941177368164062500 0.008042960427701473236083984375 0.000552855839487165212631225586 0 0 0 0 
2405333333.3333334923 0.185854837298393305022869981258 0.038797151297330863262136091407 0.007881448604166507720947265625 0.000089772831415757536888122559 0 0 0 0 
2405500000.0000000000 0.187400460243225097656250000000 0.038322307169437408447265625000 0.008005958050489425659179687500 -0.000266640243353322202533167706 0 0 0 0 
2405666666.6666665077 0.189061224460601806640625000000 0.037900928407907492900807966407 0.007616656366735696792602539062 -0.000492360442876815795898437500 0 0 0 0 
2405833333.3333334923 0.190556392073631286621093750000 0.037754811346530907367746721093 0.007790969684720039367675781250 -0.000970447028521448373794555664 0 0 0 0 
2406000000.0000000000 0.191755592823028592208700615629 0.037533279508352279663085937500 0.007514540571719408035278320312 -0.001151038450188935019849467700 0 0 0 0 
2406166666.6666665077 0.193043962121009798904580634371 0.037456385791301727294921875000 0.007306359708309173583984375000 -0.001579464529640973047969199072 0 0 0 0 
2406333333.3333334923 0.194336637854576110839843750000 0.037643365561962127685546875000 0.007002993952482938766479492188 -0.001797482138499618010279990088 0 0 0 0 
2406500000.0000000000 0.195334717631339999099893134371 0.037744924426078803325612653907 0.006952108815312386426443769238 -0.002261762274429202079772949219 0 0 0 0 
2406666666.6666665077 0.196215197443962097167968750000 0.037874475121498107910156250000 0.006874039303511381149291992188 -0.002464905148372054100036621094 0 0 0 0 
2406833333.3333334923 0.197015464305877713302450615629 0.038173437118530273437500000000 0.006629250477999448776245117188 -0.002540006302297114892246865381 0 0 0 0 
2407000000.0000000000 0.197535693645477294921875000000 0.038497872650623321533203125000 0.006240172777324914932250976562 -0.002762811025604606108424521338 0 0 0 0 
2407166666.6666665077 0.198154762387275695800781250000 0.038484651595354080200195312500 0.006177521776407957077026367188 -0.003093621926382184028625488281 0 0 0 0 
2407333333.3333334923 0.198311984539032010177450615629 0.038972638547420501708984375000 0.006030158605426549911499023438 -0.003302162280306220054626464844 0 0 0 0 
2407500000.0000000000 0.198383346199989291092080634371 0.039379868656396872783620466407 0.005822490435093641281127929688 -0.003333043307065964178798056494 0 0 0 0 
2407666666.6666665077 0.198578700423240689376669365629 0.039490558207035071636159528907 0.005475629121065139770507812500 -0.003546687541529535813572548975 0 0 0 0 
2407833333.3333334923 0.198311835527419988434161268742 0.039774838835000991821289062500 0.005442858673632144927978515625 -0.003650951432064176039454794775 0 0 0 0 
2408000000.0000000000 0.198294147849083002288494981258 0.039793040603399276733398437500 0.005034344736486673355102539062 -0.003796759992837905883789062500 0 0 0 0 
2408166666.6666665077 0.197856843471527099609375000000 0.039825145155191421508789062500 0.004895545076578856381888105176 -0.003913548309355974197387695312 0 0 0 0 
2408333333.3333334923 0.197369024157524108886718750000 0.039659000933170318603515625000 0.004627323243767023086547851562 -0.003906492609530687332153320312 0 0 0 0 
2408500000.0000000000 0.196756660938262911697549384371 0.039729621261358261108398437500 0.004454630427062510576730058887 -0.004223700612783432006835937500 0 0 0 0 
2408666666.6666665077 0.196090221405029296875000000000 0.039439793676137917255442033593 0.004307625349611043930053710938 -0.004206480924040079116821289062 0 0 0 0 
2408833333.3333334923 0.195243224501609802246093750000 0.039002042263746261596679687500 0.004030361305922269821166992188 -0.004119164310395717620849609375 0 0 0 0 
2409000000.0000000000 0.194434478878974886795205634371 0.038513757288455963134765625000 0.003864618716761469841003417969 -0.004168626852333545684814453125 0 0 0 0 
2409166666.6666665077 0.193458154797553988357705634371 0.037862561643123626708984375000 0.003668744117021561102626181494 -0.004339811857789754867553710938 0 0 0 0 
2409333333.3333334923 0.192340314388275201995526231258 0.037102088332176208496093750000 0.003442266257479786872863769531 -0.004292825236916542053222656250 0 0 0 0 
2409500000.0000000000 0.191120609641075106521768134371 0.036018945276737213134765625000 0.003232638118788599967956542969 -0.004269955214112997055053710938 0 0 0 0 
2409666666.6666665077 0.189900189638137789627236884371 0.034932646900415420532226562500 0.003062800038605927987339638818 -0.004143501166254281997680664062 0 0 0 0 
2409833333.3333334923 0.188569724559783907791299384371 0.033747233450412750244140625000 0.002852548612281680107116699219 -0.004158216528594493865966796875 0 0 0 0 
2410000000.0000000000 0.187594696879386901855468750000 0.032301999628543846820871721093 0.002663160907104610963108681787 -0.004120776429772377014160156250 0 0 0 0 
2410166666.6666665077 0.186256080865860013107138115629 0.030625877901911739004114920704 0.002666428685188293890712118994 -0.004017983563244342803955078125 0 0 0 0 
2410333333.3333334923 0.185213610529899597167968750000 0.029066679999232288705846016796 0.002601044951006770133972167969 -0.004007218871265649795532226562 0 0 0 0 
2410500000.0000000000 0.183890536427497891525106865629 0.027178028598427769052525704296 0.002444219542667270140406943213 -0.003944882191717624664306640625 0 0 0 0 
2410666666.6666665077 0.182805925607681302169638115629 0.024945508688688281667689139454 0.002438899129629135131835937500 -0.003876541974022984938380576025 0 0 0 0 
2410833333.3333334923 0.181869700551032992263955634371 0.022971086204051971435546875000 0.002191381994634867148158408057 -0.003876114496961236000061035156 0 0 0 0 
2411000000.0000000000 0.180834770202636690994424384371 0.020743988454341888427734375000 0.002208653138950467109680175781 -0.003876656293869018988368368994 0 0 0 0 
2411166666.6666665077 0.179943308234214810470419365629 0.018472800031304359436035156250 0.002278520027175546126124716650 -0.003885151585564016862156533350 0 0 0 0 
2411333333.3333334923 0.179026544094085693359375000000 0.016070695593953129159947579296 0.002146644983440638022181845557 -0.003920984920114278793334960938 0 0 0 0 
2411500000.0000000000 0.178549095988273592849893134371 0.013799131847918030130406563671 0.002015609759837388992309570312 -0.003702376037836074829101562500 0 0 0 0 
2411666666.6666665077 0.178209170699119595626669365629 0.011217182502150540787666521680 0.001929313177242875099182128906 -0.003826364409178494973423623193 0 0 0 0 
2411833333.3333334923 0.177529439330101013183593750000 0.008831095881760120391845703125 0.001901824376545846895930624854 -0.003824838437139987945556640625 0 0 0 0 
2412000000.0000000000 0.177530601620674105545205634371 0.005971326958388090133666992188 0.001980328001081943945643759619 -0.003584172343835235075709677588 0 0 0 0 
2412166666.6666665077 0.177395701408386202713174384371 0.003436280181631445884704589844 0.001840682933107018904445029150 -0.003672480816021562056300497900 0 0 0 0 
2412333333.3333334923 0.177281245589256286621093750000 0.000831023091450333595275878906 0.001797309028916060924530029297 -0.003826291067525744004490517725 0 0 0 0 
2412500000.0000000000 0.177628114819526700118856865629 -0.001786520122550427913665771484 0.001821178593672811985015869141 -0.003720190608873962922337197412 0 0 0 0 
2412666666.6666665077 0.177975296974182101150674384371 -0.004499400500208139419555664062 0.001836867188103497028350830078 -0.003690288169309496879577636719 0 0 0 0 
2412833333.3333334923 0.178678840398788507659588731258 -0.007071538362652063369750976562 0.001837065559811889908434223706 -0.003771375166252255006077431787 0 0 0 0 
2413000000.0000000000 0.179203271865844698806924384371 -0.009732695296406745910644531250 0.001801419188268482901929545825 -0.003718407591804862022399902344 0 0 0 0 
2413166666.6666665077 0.179997727274894686599893134371 -0.012115946970880029850969883398 0.001822934835217892906786274487 -0.003838596399873495101928710938 0 0 0 0 
2413333333.3333334923 0.181154370307922391036825615629 -0.014757970348000529897669608204 0.001787157380022108988520956885 -0.003947193268686532974243164062 0 0 0 0 
2413500000.0000000000 0.181787922978401211837606865629 -0.017216227948665618896484375000 0.001731869997456670024274516528 -0.003939454909414052963256835938 0 0 0 0 
2413666666.6666665077 0.183207482099533108810263115629 -0.019606765359640121459960937500 0.001825886662118137099622416919 -0.003996538929641246795654296875 0 0 0 0 
2413833333.3333334923 0.184248477220535306075888115629 -0.021995561197400089609166329296 0.001853809808380902030347514575 -0.004160538781434298429007245801 0 0 0 0 
2414000000.0000000000 0.185522943735122708419638115629 -0.024115698412060741079310233204 0.001724178320728241963627480615 -0.004359633661806583404541015625 0 0 0 0 
2414166666.6666665077 0.186899110674858093261718750000 -0.026094635948538780212402343750 0.001731652999296783967259072412 -0.004496652632951737317557050488 0 0 0 0 
2414333333.3333334923 0.188279137015342712402343750000 -0.028500314801931381225585937500 0.001675833365879952907562255859 -0.004736780654639005661010742188 0 0 0 0 
2414500000.0000000000 0.189520552754402188400106865629 -0.030053103342652320861816406250 0.001464705099351703903795551831 -0.004915417172014713287353515625 0 0 0 0 
2414666666.6666665077 0.190843611955642700195312500000 -0.031707912683486938476562500000 0.001466525020077825026271201025 -0.004976960364729166030883789062 0 0 0 0 
2414833333.3333334923 0.192276164889335604568643134371 -0.033478613942861557006835937500 0.001210510730743407986284565503 -0.005003616679459810256958007812 0 0 0 0 
2415000000.0000000000 0.193587526679039001464843750000 -0.035024940967559807514231096093 0.001086083240807055993321084131 -0.005181232001632452011108398438 0 0 0 0 
2415166666.6666665077 0.195148438215255709549111884371 -0.036332849413156509399414062500 0.000951559050008654594421386719 -0.005271241068840026855468750000 0 0 0 0 
2415333333.3333334923 0.196466147899627713302450615629 -0.037308998405933380126953125000 0.000728379411157220602035522461 -0.005582191515713930130004882812 0 0 0 0 
2415500000.0000000000 0.197907015681266812423544365629 -0.038275133818387992168386091407 0.000569414056371897459030151367 -0.005550935398787260055541992188 0 0 0 0 
2415666666.6666665077 0.199164360761642511565838731258 -0.039120636880397796630859375000 0.000346072250977158600657862531 -0.005577576812356709566598222949 0 0 0 0 
2415833333.3333334923 0.200340747833252008636151231258 -0.039842624217271811748464216407 0.000157372356625273796633043832 -0.005877297837287187576293945312 0 0 0 0 
2416000000.0000000000 0.201420649886131286621093750000 -0.040566794574260711669921875000 0.000047430290578631677407810824 -0.005911942571401596069335937500 0 0 0 0 
2416166666.6666665077 0.202480435371398898025674384371 -0.041232828050851821899414062500 -0.000374207447748631184727269305 -0.005823816638439893722534179688 0 0 0 0 
2416333333.3333334923 0.203402176499366788009481865629 -0.041544593870639801025390625000 -0.000615686294622719287872314453 -0.005859503522515296936035156250 0 0 0 0 
2416500000.0000000000 0.204155698418617304046307481258 -0.041808050125837332988698591407 -0.000828064396046102046966552734 -0.005894502159208059310913085938 0 0 0 0 
2416666666.6666665077 0.204755961894989013671875000000 -0.042163927108049392700195312500 -0.001079382607713341929792094653 -0.006073738448321819305419921875 0 0 0 0 
2416833333.3333334923 0.205207139253616305252236884371 -0.042158782482147216796875000000 -0.001377660199068486907361674731 -0.005958830006420612335205078125 0 0 0 0 
2417000000.0000000000 0.205611929297447204589843750000 -0.042269974946975708007812500000 -0.001696837949566543102264404297 -0.005950145423412322998046875000 0 0 0 0 
2417166666.6666665077 0.205543309450149508377236884371 -0.042118985205888748168945312500 -0.001910307793878019072889018481 -0.005807504057884216308593750000 0 0 0 0 
2417333333.3333334923 0.205630555748939486404580634371 -0.041858036071062088012695312500 -0.002076992066577076911926269531 -0.005740968510508537292480468750 0 0 0 0 
2417500000.0000000000 0.205581992864608792404013115629 -0.041768755763769149780273437500 -0.002420384669676423072814941406 -0.005693004466593266400809003613 0 0 0 0 
2417666666.6666665077 0.205325737595558194259481865629 -0.041395727545022957538645158593 -0.002609473653137683868408203125 -0.005427977070212364196777343750 0 0 0 0 
2417833333.3333334923 0.205029621720313998123330634371 -0.041087269783020019531250000000 -0.002822586800903081893920898438 -0.005483347922563552856445312500 0 0 0 0 
2418000000.0000000000 0.204527154564857510665731865629 -0.040543287992477416992187500000 -0.002920856000855565071105957031 -0.005331315100193023681640625000 0 0 0 0 
2418166666.6666665077 0.203834190964698791503906250000 -0.040243826806545257568359375000 -0.003076528897508978843688964844 -0.005090541671961545944213867188 0 0 0 0 
2418333333.3333334923 0.203069731593131991287393134371 -0.040004707872867577289621721093 -0.003290013875812292098999023438 -0.005048493389040231704711914062 0 0 0 0 
2418500000.0000000000 0.202124655246734591385049384371 -0.039861395955085747455637346093 -0.003450710326433182196376181494 -0.005010521039366722106933593750 0 0 0 0 
2418666666.6666665077 0.201421633362770108321981865629 -0.039487473666667938232421875000 -0.003389721503481268882751464844 -0.004831673111766576766967773438 0 0 0 0 
2418833333.3333334923 0.200164526700973510742187500000 -0.039467662572860717773437500000 -0.003710213350132108168361044775 -0.004840463865548372268676757812 0 0 0 0 
2419000000.0000000000 0.198985084891319302657919365629 -0.039448849856853492046315778907 -0.003927437122911214828491210938 -0.004698823671787977218627929688 0 0 0 0 
2419166666.6666665077 0.197640866041183499435263115629 -0.039409823715686798095703125000 -0.004036860540509223937988281250 -0.004611602518707513809204101562 0 0 0 0 
2419333333.3333334923 0.196325108408927889724893134371 -0.039856437593698501586914062500 -0.004087296314537525177001953125 -0.004563770256936550140380859375 0 0 0 0 
2419500000.0000000000 0.194783300161361694335937500000 -0.040006253868341452861745466407 -0.004308149218559265136718750000 -0.004480732604861260327810956738 0 0 0 0 
2419666666.6666665077 0.193113535642623901367187500000 -0.040749929845333099365234375000 -0.004465493373572826385498046875 -0.004247469361871480941772460938 0 0 0 0 
2419833333.3333334923 0.191500514745712308029013115629 -0.041075222194194786762277971093 -0.004796672146767377853393554688 -0.004257014021277427673339843750 0 0 0 0 
