# Version 1.00
#
freq[Hz];re:Trc1_S11;im:Trc1_S11;re:Trc2_S21;im:Trc2_S21;
2.400000000000000E+009;1.678216308355331E-001;4.096358269453049E-002;3.468147013336420E-003;2.107767613779288E-005;
2.400166666666667E+009;1.683115959167481E-001;4.048213735222817E-002;3.670906182378531E-003;5.019286982133053E-005;
2.400333333333334E+009;1.689052581787109E-001;3.951571136713028E-002;3.816998563706875E-003;-8.929576870286837E-005;
2.400500000000000E+009;1.694523394107819E-001;3.861200436949730E-002;3.813084214925766E-003;-1.405572838848457E-004;
2.400666666666667E+009;1.697646528482437E-001;3.745966032147408E-002;3.772267838940024E-003;-1.211744311149232E-004;
2.400833333333334E+009;1.701547950506210E-001;3.682069107890129E-002;3.945327363908291E-003;-3.059475857298821E-004;
2.401000000000000E+009;1.705690473318100E-001;3.593479469418526E-002;4.188206512480974E-003;-4.340772866271436E-004;
2.401166666666667E+009;1.707809120416641E-001;3.504401072859764E-002;4.106647334992886E-003;-6.588512915186584E-004;
2.401333333333334E+009;1.708260476589203E-001;3.416039422154427E-002;4.163684323430061E-003;-6.305888528004289E-004;
2.401500000000000E+009;1.712312251329422E-001;3.315364196896553E-002;4.214993212372065E-003;-9.835611563175917E-004;
2.401666666666667E+009;1.712650656700134E-001;3.245584294199944E-002;4.376427270472050E-003;-1.014518085867167E-003;
2.401833333333334E+009;1.714612841606140E-001;3.146966174244881E-002;4.345102701336145E-003;-1.387098105624318E-003;
2.402000000000000E+009;1.713411062955856E-001;3.050271980464459E-002;4.310549702495337E-003;-1.535662449896336E-003;
2.402166666666667E+009;1.714684367179871E-001;2.931427210569382E-002;4.338030703365803E-003;-1.728022354654968E-003;
2.402333333333334E+009;1.713299602270126E-001;2.869063802063465E-002;4.060000181198120E-003;-1.880305004306138E-003;
2.402500000000000E+009;1.716546714305878E-001;2.763741649687290E-002;4.180282820016146E-003;-2.169538056477904E-003;
2.402666666666667E+009;1.716738939285278E-001;2.677205391228199E-002;3.966042306274176E-003;-2.319672610610724E-003;
2.402833333333334E+009;1.715287417173386E-001;2.567123062908649E-002;3.890657797455788E-003;-2.515522297471762E-003;
2.403000000000000E+009;1.714066118001938E-001;2.465214394032955E-002;3.842389443889260E-003;-2.919950522482395E-003;
2.403166666666667E+009;1.714654415845871E-001;2.341320551931858E-002;3.617584938183427E-003;-3.117680316790938E-003;
2.403333333333334E+009;1.714428365230560E-001;2.240578643977642E-002;3.441128414124250E-003;-3.275271505117416E-003;
2.403500000000000E+009;1.710960865020752E-001;2.116444334387779E-002;3.195651574060321E-003;-3.311702981591225E-003;
2.403666666666667E+009;1.710796952247620E-001;1.983744464814663E-002;3.141150111332536E-003;-3.313664579764009E-003;
2.403833333333334E+009;1.710457801818848E-001;1.874226331710815E-002;3.006569575518370E-003;-3.400136483833194E-003;
2.404000000000000E+009;1.710478663444519E-001;1.746122166514397E-002;2.865935675799847E-003;-3.477250225841999E-003;
2.404166666666667E+009;1.707212179899216E-001;1.611573621630669E-002;2.794661326333880E-003;-3.596958238631487E-003;
2.404333333333334E+009;1.706354469060898E-001;1.463412120938301E-002;2.620217856019735E-003;-3.312265034765005E-003;
2.404500000000000E+009;1.704481989145279E-001;1.330114714801312E-002;2.557219238951802E-003;-3.506377572193742E-003;
2.404666666666667E+009;1.703676879405975E-001;1.206060033291578E-002;2.464174991473556E-003;-3.527462715283036E-003;
2.404833333333334E+009;1.704386323690414E-001;1.060058083385229E-002;2.518850611522794E-003;-3.586019156500697E-003;
2.405000000000000E+009;1.703136712312698E-001;8.983790874481201E-003;2.276639919728041E-003;-3.624904202297330E-003;
2.405166666666667E+009;1.702595055103302E-001;7.557461038231850E-003;2.307964954525232E-003;-3.916193731129170E-003;
2.405333333333334E+009;1.702590286731720E-001;5.780681036412716E-003;2.244727220386267E-003;-3.968161065131426E-003;
2.405500000000000E+009;1.702263057231903E-001;4.499161615967751E-003;1.964967697858810E-003;-4.011209588497877E-003;
2.405666666666667E+009;1.702734827995300E-001;2.939738566055894E-003;1.906207646243274E-003;-4.217319656163454E-003;
2.405833333333334E+009;1.700538545846939E-001;1.364179654046893E-003;1.646895310841501E-003;-4.252093378454447E-003;
2.406000000000000E+009;1.700344830751419E-001;-2.950803318526596E-004;1.570700318552554E-003;-4.487042780965567E-003;
2.406166666666667E+009;1.698819696903229E-001;-1.730014686472714E-003;1.289229257963598E-003;-4.504475276917219E-003;
2.406333333333334E+009;1.698651909828186E-001;-3.248437074944377E-003;1.107788528315723E-003;-4.514764528721571E-003;
2.406500000000000E+009;1.697382926940918E-001;-4.962320439517498E-003;9.994618594646454E-004;-4.560795146971941E-003;
2.406666666666667E+009;1.694038212299347E-001;-6.542193237692118E-003;6.700339145027101E-004;-4.386531189084053E-003;
2.406833333333334E+009;1.694819033145905E-001;-7.931090891361237E-003;5.783695960417390E-004;-4.663200583308935E-003;
2.407000000000000E+009;1.692673414945602E-001;-9.438012726604939E-003;4.707783518824726E-004;-4.494719207286835E-003;
2.407166666666667E+009;1.692825406789780E-001;-1.066355872899294E-002;1.565311395097524E-004;-4.323275759816170E-003;
2.407333333333334E+009;1.688666343688965E-001;-1.227585133165121E-002;1.669323974056169E-004;-4.412594716995955E-003;
2.407500000000000E+009;1.687918603420258E-001;-1.352775748819113E-002;1.240357414644677E-005;-4.380688536912203E-003;
2.407666666666667E+009;1.685764193534851E-001;-1.458757836371660E-002;-2.266671071993187E-004;-4.504150245338678E-003;
2.407833333333334E+009;1.683921217918396E-001;-1.596811600029469E-002;-3.952892730012536E-004;-4.313266836106777E-003;
2.408000000000000E+009;1.683361530303955E-001;-1.690847612917423E-002;-5.722882342524827E-004;-4.254295490682125E-003;
2.408166666666667E+009;1.681075990200043E-001;-1.784198172390461E-002;-6.501208408735693E-004;-4.282613284885883E-003;
2.408333333333334E+009;1.683694273233414E-001;-1.888307370245457E-002;-8.558147237636149E-004;-4.186076112091541E-003;
2.408500000000000E+009;1.682650595903397E-001;-1.978287100791931E-002;-9.445074247196317E-004;-4.006118047982454E-003;
2.408666666666667E+009;1.682179719209671E-001;-2.083734050393105E-002;-9.407200850546360E-004;-3.892569569870830E-003;
2.408833333333334E+009;1.681651920080185E-001;-2.164034545421600E-002;-1.231904607266188E-003;-3.885971149429679E-003;
2.409000000000000E+009;1.683786064386368E-001;-2.239952795207501E-002;-1.237472053617239E-003;-3.781812731176615E-003;
2.409166666666667E+009;1.683250814676285E-001;-2.339156158268452E-002;-1.328653655946255E-003;-3.581864060834050E-003;
2.409333333333334E+009;1.687372773885727E-001;-2.434938773512840E-002;-1.483167870901525E-003;-3.592438297346234E-003;
2.409500000000000E+009;1.685881763696671E-001;-2.524563483893871E-002;-1.418660511262715E-003;-3.564774990081787E-003;
2.409666666666667E+009;1.688028275966644E-001;-2.598628960549831E-002;-1.650913385674357E-003;-3.423820016905665E-003;
2.409833333333334E+009;1.688389182090759E-001;-2.696054242551327E-002;-1.733659068122506E-003;-3.193777287378907E-003;
2.410000000000000E+009;1.690323203802109E-001;-2.784766629338265E-002;-1.808439032174647E-003;-3.239333163946867E-003;
2.410166666666667E+009;1.691249758005142E-001;-2.879354730248451E-002;-1.803962048143148E-003;-3.201269311830401E-003;
2.410333333333334E+009;1.691106408834457E-001;-2.966804243624210E-002;-2.130644395947456E-003;-3.095226828008890E-003;
2.410500000000000E+009;1.689754426479340E-001;-3.063791990280151E-002;-2.183993114158511E-003;-2.962534083053470E-003;
2.410666666666667E+009;1.687978208065033E-001;-3.153558447957039E-002;-2.118902979418635E-003;-2.797759370878339E-003;
2.410833333333334E+009;1.689481437206268E-001;-3.240579366683960E-002;-2.086317399516702E-003;-2.558071864768863E-003;
2.411000000000000E+009;1.686913222074509E-001;-3.326715901494026E-002;-2.313949866220355E-003;-2.538442611694336E-003;
2.411166666666667E+009;1.684431582689285E-001;-3.421522676944733E-002;-2.307365415617824E-003;-2.483960008248687E-003;
2.411333333333334E+009;1.683626770973206E-001;-3.498971462249756E-002;-2.281214809045196E-003;-2.181246876716614E-003;
2.411500000000000E+009;1.681151688098908E-001;-3.594096750020981E-002;-2.298631705343723E-003;-2.269537188112736E-003;
2.411666666666667E+009;1.679917722940445E-001;-3.666703030467033E-002;-2.320432337000966E-003;-2.111675683408976E-003;
2.411833333333334E+009;1.677793711423874E-001;-3.760491684079170E-002;-2.076229779049754E-003;-1.963973743841052E-003;
2.412000000000000E+009;1.675681918859482E-001;-3.870858997106552E-002;-2.171617466956377E-003;-1.746478490531445E-003;
2.412166666666667E+009;1.672229319810867E-001;-3.952417895197868E-002;-1.905371551401913E-003;-1.691601122729480E-003;
2.412333333333334E+009;1.669619828462601E-001;-4.043968021869659E-002;-1.804070081561804E-003;-1.425091759301722E-003;
2.412500000000000E+009;1.664862036705017E-001;-4.139624908566475E-002;-1.670356490649283E-003;-1.447467366233468E-003;
2.412666666666667E+009;1.663796752691269E-001;-4.251720756292343E-002;-1.543989987112582E-003;-1.536823809146881E-003;
2.412833333333334E+009;1.657698303461075E-001;-4.333001002669334E-002;-1.372399856336415E-003;-1.413300167769194E-003;
2.413000000000000E+009;1.654993295669556E-001;-4.436263814568520E-002;-1.289859414100647E-003;-1.646842923946679E-003;
2.413166666666667E+009;1.649674326181412E-001;-4.555681347846985E-002;-1.025409088470042E-003;-1.644749660044909E-003;
2.413333333333334E+009;1.645890176296234E-001;-4.642571136355400E-002;-1.130768447183073E-003;-1.830976572819054E-003;
2.413500000000000E+009;1.641639918088913E-001;-4.749430343508720E-002;-1.140719279646874E-003;-2.028887392953038E-003;
2.413666666666667E+009;1.636463254690170E-001;-4.861361160874367E-002;-1.018660608679056E-003;-2.043853513896465E-003;
2.413833333333334E+009;1.631299704313278E-001;-4.946716129779816E-002;-9.974683634936810E-004;-2.324302447959781E-003;
2.414000000000000E+009;1.624938398599625E-001;-5.049955099821091E-002;-9.083230397664011E-004;-2.445177175104618E-003;
2.414166666666667E+009;1.622679978609085E-001;-5.132319778203964E-002;-1.277027651667595E-003;-2.601864049211144E-003;
2.414333333333334E+009;1.618461906909943E-001;-5.238002166152000E-002;-1.291067455895245E-003;-3.042005235329270E-003;
2.414500000000000E+009;1.618695110082626E-001;-5.339677259325981E-002;-1.524814637377858E-003;-3.359732916578651E-003;
2.414666666666667E+009;1.612823903560638E-001;-5.430572479963303E-002;-1.797326840460300E-003;-3.246315289288759E-003;
2.414833333333334E+009;1.610258072614670E-001;-5.532867833971977E-002;-1.967002870514989E-003;-3.284610575065017E-003;
2.415000000000000E+009;1.609422415494919E-001;-5.630793422460556E-002;-2.540353918448091E-003;-3.590736305341125E-003;
2.415166666666667E+009;1.606404334306717E-001;-5.746822804212570E-002;-2.671179128810763E-003;-3.434235462918878E-003;
2.415333333333334E+009;1.605709940195084E-001;-5.856849253177643E-002;-2.945877145975828E-003;-3.388056065887213E-003;
2.415500000000000E+009;1.604174375534058E-001;-5.974303185939789E-002;-3.321134718134999E-003;-3.435454564169049E-003;
2.415666666666667E+009;1.602672934532166E-001;-6.086108461022377E-002;-3.618095302954316E-003;-3.291312139481306E-003;
2.415833333333334E+009;1.601437181234360E-001;-6.200763583183289E-002;-3.897523973137140E-003;-3.167507005855441E-003;
2.416000000000000E+009;1.598193347454071E-001;-6.337676197290421E-002;-4.021767992526293E-003;-2.932239556685090E-003;
2.416166666666667E+009;1.597899049520493E-001;-6.453383713960648E-002;-4.308823496103287E-003;-2.696469891816378E-003;
2.416333333333334E+009;1.595686078071594E-001;-6.566307693719864E-002;-4.617623984813690E-003;-2.553913509473205E-003;
2.416500000000000E+009;1.592110544443131E-001;-6.695532798767090E-002;-4.835126455873251E-003;-2.291452372446656E-003;
2.416666666666667E+009;1.589666604995728E-001;-6.804639101028442E-002;-4.880185239017010E-003;-2.180866897106171E-003;
2.416833333333334E+009;1.587572991847992E-001;-6.932378560304642E-002;-4.893227946013212E-003;-1.881646807305515E-003;
2.417000000000000E+009;1.582470685243607E-001;-7.045213878154755E-002;-4.984530154615641E-003;-1.544279977679253E-003;
2.417166666666667E+009;1.579161286354065E-001;-7.135337591171265E-002;-5.189175251871347E-003;-1.116442028433085E-003;
2.417333333333334E+009;1.576868742704392E-001;-7.235363870859146E-002;-5.288396496325731E-003;-7.844450883567333E-004;
2.417500000000000E+009;1.572615057229996E-001;-7.353671640157700E-002;-5.242191720753908E-003;-6.187265971675515E-004;
2.417666666666667E+009;1.569479256868362E-001;-7.422014325857163E-002;-5.296593997627497E-003;-1.845156657509506E-004;
2.417833333333334E+009;1.566395163536072E-001;-7.504275441169739E-002;-5.312733817845583E-003;-1.719533247523941E-005;
2.418000000000000E+009;1.561933308839798E-001;-7.606271654367447E-002;-5.264371167868376E-003;2.167669299524277E-004;
2.418166666666667E+009;1.559503823518753E-001;-7.685881108045578E-002;-5.074831191450357E-003;5.758102633990347E-004;
2.418333333333334E+009;1.558951586484909E-001;-7.775603979825974E-002;-4.956472665071487E-003;7.585993735119700E-004;
2.418500000000000E+009;1.555630415678024E-001;-7.839933037757874E-002;-4.949886351823807E-003;1.003732671961188E-003;
2.418666666666667E+009;1.552854180335999E-001;-7.919488102197647E-002;-4.776049870997667E-003;1.316833891905844E-003;
2.418833333333334E+009;1.548518836498261E-001;-7.997544109821320E-002;-4.693786147981882E-003;1.421560416929424E-003;
2.419000000000000E+009;1.545080244541168E-001;-8.067458122968674E-002;-4.320633132010698E-003;1.845012535341084E-003;
2.419166666666667E+009;1.542871892452240E-001;-8.133118599653244E-002;-4.304822999984026E-003;1.812727539800108E-003;
2.419333333333334E+009;1.538813710212708E-001;-8.179168403148651E-002;-4.087840672582388E-003;2.183924661949277E-003;
2.419500000000000E+009;1.535514295101166E-001;-8.266109228134155E-002;-3.915560897439718E-003;2.169628161936998E-003;
2.419666666666667E+009;1.533364206552506E-001;-8.327866345643997E-002;-3.762861480936408E-003;2.131127985194325E-003;
2.419833333333334E+009;1.527970433235169E-001;-8.377315849065781E-002;-3.552783513441682E-003;2.311090938746929E-003;
2.420000000000000E+009;1.526363492012024E-001;-8.435813337564468E-002;-3.336171153932810E-003;2.326189540326595E-003;
2.420166666666667E+009;1.521630138158798E-001;-8.486067503690720E-002;-3.101566107943654E-003;2.194191096350551E-003;
2.420333333333334E+009;1.518994718790054E-001;-8.564890921115875E-002;-3.060680348426104E-003;2.274315105751157E-003;
2.420500000000000E+009;1.515016555786133E-001;-8.610394597053528E-002;-2.957778749987483E-003;2.373132621869445E-003;
2.420666666666667E+009;1.511153727769852E-001;-8.643874526023865E-002;-2.822176087647677E-003;2.360982587561011E-003;
2.420833333333334E+009;1.508211195468903E-001;-8.728348463773727E-002;-2.563459798693657E-003;2.183816861361265E-003;
2.421000000000000E+009;1.503010094165802E-001;-8.797407895326614E-002;-2.630733419209719E-003;2.148278523236513E-003;
2.421166666666667E+009;1.499681621789932E-001;-8.869501948356628E-002;-2.658879850059748E-003;2.133911708369851E-003;
2.421333333333334E+009;1.494437754154205E-001;-8.928749710321426E-002;-2.655091928318143E-003;2.057707170024514E-003;
2.421500000000000E+009;1.487547159194946E-001;-8.984549343585968E-002;-2.784961601719260E-003;2.044767607003450E-003;
2.421666666666667E+009;1.482580751180649E-001;-9.054975211620331E-002;-2.644146559759975E-003;2.153733978047967E-003;
2.421833333333334E+009;1.478326767683029E-001;-9.135658293962479E-002;-2.631354844197631E-003;2.179408445954323E-003;
2.422000000000000E+009;1.471086442470551E-001;-9.200613945722580E-002;-2.575077349320054E-003;2.089769113808870E-003;
2.422166666666667E+009;1.464692056179047E-001;-9.300094842910767E-002;-2.466786187142134E-003;2.328530885279179E-003;
2.422333333333334E+009;1.459844261407852E-001;-9.359189122915268E-002;-2.560550346970558E-003;2.304981928318739E-003;
2.422500000000000E+009;1.452819406986237E-001;-9.419921040534973E-002;-2.515722298994660E-003;2.633896889165044E-003;
2.422666666666667E+009;1.445593088865280E-001;-9.521488100290299E-002;-2.409616485238075E-003;2.596859587356448E-003;
2.422833333333334E+009;1.440880149602890E-001;-9.600288420915604E-002;-2.315737074241042E-003;2.649019006639719E-003;
2.423000000000000E+009;1.433884352445602E-001;-9.679914265871048E-002;-2.178864087909460E-003;2.568222815170884E-003;
2.423166666666667E+009;1.429060250520706E-001;-9.758743643760681E-002;-2.038054168224335E-003;2.857990097254515E-003;
2.423333333333334E+009;1.423580348491669E-001;-9.839128702878952E-002;-1.965697854757309E-003;2.770134480670095E-003;
2.423500000000000E+009;1.416039615869522E-001;-9.953010827302933E-002;-1.895082881674171E-003;2.760699717327952E-003;
2.423666666666667E+009;1.407624781131744E-001;-1.004661917686462E-001;-1.777859404683113E-003;2.772526349872351E-003;
2.423833333333334E+009;1.404288262128830E-001;-1.014507636427879E-001;-1.775497803464532E-003;2.864787122234702E-003;
2.424000000000000E+009;1.396350562572479E-001;-1.023121997714043E-001;-1.586333266459405E-003;2.642956562340260E-003;
2.424166666666667E+009;1.388946771621704E-001;-1.033331155776978E-001;-1.559801050461829E-003;2.655729884281755E-003;
2.424333333333334E+009;1.383258104324341E-001;-1.042399927973747E-001;-1.643674797378480E-003;2.750752726569772E-003;
2.424500000000000E+009;1.377315670251846E-001;-1.051519215106964E-001;-1.616716617718339E-003;2.910063369199634E-003;
2.424666666666667E+009;1.372274756431580E-001;-1.059813648462296E-001;-1.523798215202987E-003;2.751610707491636E-003;
2.424833333333334E+009;1.364885270595551E-001;-1.070562675595284E-001;-1.477567246183753E-003;2.963053761050105E-003;
2.425000000000000E+009;1.360250562429428E-001;-1.080540418624878E-001;-1.416131854057312E-003;2.852324163541198E-003;
2.425166666666667E+009;1.353387236595154E-001;-1.090085655450821E-001;-1.588711980730295E-003;2.955479081720114E-003;
2.425333333333334E+009;1.348925977945328E-001;-1.100310534238815E-001;-1.352109364233911E-003;2.924270695075393E-003;
2.425500000000000E+009;1.344727724790573E-001;-1.110036745667458E-001;-1.404534443281591E-003;3.052548971027136E-003;
2.425666666666667E+009;1.337031424045563E-001;-1.121008023619652E-001;-1.367280026897788E-003;3.049931721761823E-003;
2.425833333333334E+009;1.333602964878082E-001;-1.130159944295883E-001;-1.449848525226116E-003;2.941936487331986E-003;
2.426000000000000E+009;1.329035013914108E-001;-1.140063181519508E-001;-1.240722136572003E-003;3.120673354715109E-003;
2.426166666666667E+009;1.327461749315262E-001;-1.149826496839523E-001;-1.300680101849139E-003;3.294633235782385E-003;
2.426333333333334E+009;1.320738494396210E-001;-1.159285157918930E-001;-1.239911187440157E-003;3.434526268392801E-003;
2.426500000000000E+009;1.317864060401917E-001;-1.168133988976479E-001;-1.095012412406504E-003;3.585894824936986E-003;
2.426666666666667E+009;1.314262598752976E-001;-1.175758764147759E-001;-7.779918378219008E-004;3.505878383293748E-003;
2.426833333333334E+009;1.309355646371841E-001;-1.185328215360642E-001;-9.394314256496728E-004;3.640881041064858E-003;
2.427000000000000E+009;1.305432617664337E-001;-1.194551214575768E-001;-7.284022867679596E-004;3.678074106574059E-003;
2.427166666666667E+009;1.302521228790283E-001;-1.200349330902100E-001;-4.747541388496757E-004;3.851520363241434E-003;
2.427333333333334E+009;1.297581791877747E-001;-1.208093911409378E-001;-2.598106511868537E-004;3.839528653770685E-003;
2.427500000000000E+009;1.295908093452454E-001;-1.215743646025658E-001;-2.631103561725467E-004;3.945282660424709E-003;
2.427666666666667E+009;1.291803121566773E-001;-1.223348900675774E-001;-6.244333053473383E-005;3.761861706152558E-003;
