# Version 1.00
#
freq[Hz];re:Trc1_S11;im:Trc1_S11;re:Trc2_S21;im:Trc2_S21;
2.400000000000000E+009;1.731523871421814E-001;4.938597232103348E-002;6.904240697622299E-003;-1.766232191585004E-003;
2.400166666666667E+009;1.736613214015961E-001;4.896249249577522E-002;6.918400526046753E-003;-2.022401196882129E-003;
2.400333333333334E+009;1.740895211696625E-001;4.800513386726379E-002;6.869907025247812E-003;-2.089041983708739E-003;
2.400500000000000E+009;1.745662391185761E-001;4.727473482489586E-002;6.882125511765480E-003;-2.441932912915945E-003;
2.400666666666667E+009;1.748392283916473E-001;4.658679664134979E-002;6.891582626849413E-003;-2.674551215022802E-003;
2.400833333333334E+009;1.751762032508850E-001;4.601886123418808E-002;6.995111703872681E-003;-3.005967941135168E-003;
2.401000000000000E+009;1.750911921262741E-001;4.553922638297081E-002;6.865992676466703E-003;-3.091827267780900E-003;
2.401166666666667E+009;1.753015667200089E-001;4.478886350989342E-002;6.755655165761709E-003;-3.431840101256967E-003;
2.401333333333334E+009;1.754262298345566E-001;4.414942860603333E-002;6.768946535885334E-003;-3.752095857635140E-003;
2.401500000000000E+009;1.755243837833405E-001;4.340413957834244E-002;6.775632966309786E-003;-3.913396969437599E-003;
2.401666666666667E+009;1.754145175218582E-001;4.265759140253067E-002;6.622953340411186E-003;-4.276302643120289E-003;
2.401833333333334E+009;1.754655390977860E-001;4.176748171448708E-002;6.668467540293932E-003;-4.505107179284096E-003;
2.402000000000000E+009;1.750724911689758E-001;4.104305431246758E-002;6.447648629546166E-003;-4.822887480258942E-003;
2.402166666666667E+009;1.749636679887772E-001;4.008129239082336E-002;6.456532981246710E-003;-5.042732693254948E-003;
2.402333333333334E+009;1.749169230461121E-001;3.923937305808067E-002;6.263636983931065E-003;-5.342192016541958E-003;
2.402500000000000E+009;1.748170554637909E-001;3.804241865873337E-002;6.059638690203428E-003;-5.685618612915278E-003;
2.402666666666667E+009;1.742729991674423E-001;3.686280548572540E-002;5.887865088880062E-003;-5.958215799182653E-003;
2.402833333333334E+009;1.741802543401718E-001;3.580838069319725E-002;5.724895279854536E-003;-6.226430181413889E-003;
2.403000000000000E+009;1.737848967313767E-001;3.450087085366249E-002;5.576109047979116E-003;-6.508624646812677E-003;
2.403166666666667E+009;1.736653596162796E-001;3.320401906967163E-002;5.423713941127062E-003;-6.917888298630714E-003;
2.403333333333334E+009;1.732663214206696E-001;3.179761767387390E-002;5.136914551258087E-003;-7.051009219139814E-003;
2.403500000000000E+009;1.728078126907349E-001;3.032420761883259E-002;4.690575879067183E-003;-7.396804634481669E-003;
2.403666666666667E+009;1.725346446037293E-001;2.859126962721348E-002;4.513928201049566E-003;-7.699433714151382E-003;
2.403833333333334E+009;1.722084283828735E-001;2.689590863883495E-002;4.403848666697741E-003;-7.939319126307964E-003;
2.404000000000000E+009;1.719687581062317E-001;2.531186304986477E-002;3.968013450503349E-003;-8.181921206414700E-003;
2.404166666666667E+009;1.714540719985962E-001;2.338129281997681E-002;3.605056321248412E-003;-8.392224088311195E-003;
2.404333333333334E+009;1.712645739316940E-001;2.173054963350296E-002;3.053207648918033E-003;-8.598288521170616E-003;
2.404500000000000E+009;1.707513779401779E-001;1.964161358773708E-002;2.762373303994536E-003;-8.622677996754646E-003;
2.404666666666667E+009;1.707887351512909E-001;1.763688027858734E-002;2.327971393242478E-003;-8.905705064535141E-003;
2.404833333333334E+009;1.706012487411499E-001;1.581032946705818E-002;1.875774818472564E-003;-9.032981470227242E-003;
2.405000000000000E+009;1.704552471637726E-001;1.374745368957520E-002;1.548533444292843E-003;-8.994732983410358E-003;
2.405166666666667E+009;1.703247427940369E-001;1.167279016226530E-002;1.204886357299984E-003;-9.175573475658894E-003;
2.405333333333334E+009;1.703374683856964E-001;9.596815332770348E-003;5.600614822469652E-004;-9.051293134689331E-003;
2.405500000000000E+009;1.703814864158630E-001;7.653099484741688E-003;1.299127907259390E-004;-8.963053114712238E-003;
2.405666666666667E+009;1.704228818416596E-001;5.571876652538776E-003;-1.398342137690634E-004;-8.931015618145466E-003;
2.405833333333334E+009;1.705333739519119E-001;3.553271526470780E-003;-6.245129625312984E-004;-8.838695473968983E-003;
2.406000000000000E+009;1.709069758653641E-001;1.393711660057306E-003;-1.104212831705809E-003;-8.608235977590084E-003;
2.406166666666667E+009;1.709628552198410E-001;-4.386524960864335E-004;-1.393764163367450E-003;-8.563018403947353E-003;
2.406333333333334E+009;1.715998500585556E-001;-2.596318954601884E-003;-1.870896201580763E-003;-8.328293450176716E-003;
2.406500000000000E+009;1.720287799835205E-001;-4.529426805675030E-003;-2.082016086205840E-003;-8.185358718037605E-003;
2.406666666666667E+009;1.723954379558563E-001;-6.481629330664873E-003;-2.445952966809273E-003;-7.974396459758282E-003;
2.406833333333334E+009;1.730211526155472E-001;-8.461068384349346E-003;-2.692222828045487E-003;-7.752394303679466E-003;
2.407000000000000E+009;1.735735088586807E-001;-1.026261784136295E-002;-3.194341203197837E-003;-7.338014431297779E-003;
2.407166666666667E+009;1.744163334369659E-001;-1.206496171653271E-002;-3.287871601060033E-003;-7.166337687522173E-003;
2.407333333333334E+009;1.749780774116516E-001;-1.396694499999285E-002;-3.469894174486399E-003;-7.061034906655550E-003;
2.407500000000000E+009;1.757451891899109E-001;-1.571712084114552E-002;-3.607564838603139E-003;-6.685603875666857E-003;
2.407666666666667E+009;1.766026020050049E-001;-1.733925007283688E-002;-3.795847995206714E-003;-6.511596031486988E-003;
2.407833333333334E+009;1.770516186952591E-001;-1.916573382914066E-002;-3.948654513806105E-003;-6.317452527582645E-003;
2.408000000000000E+009;1.779572665691376E-001;-2.068029344081879E-002;-4.077801480889320E-003;-6.012959405779839E-003;
2.408166666666667E+009;1.786580830812454E-001;-2.203158847987652E-002;-4.273731727153063E-003;-5.711890291422606E-003;
2.408333333333334E+009;1.794652491807938E-001;-2.353317104279995E-002;-4.339396022260189E-003;-5.682449787855148E-003;
2.408500000000000E+009;1.800047755241394E-001;-2.501481026411057E-002;-4.387223627418280E-003;-5.267135333269835E-003;
2.408666666666667E+009;1.806541979312897E-001;-2.625271677970886E-002;-4.581480752676725E-003;-5.089988932013512E-003;
2.408833333333334E+009;1.810796260833740E-001;-2.745222114026547E-002;-4.488692618906498E-003;-4.912586417049170E-003;
2.409000000000000E+009;1.814969182014465E-001;-2.847666293382645E-002;-4.671786911785603E-003;-4.557897336781025E-003;
2.409166666666667E+009;1.820296347141266E-001;-2.931760437786579E-002;-4.730509594082832E-003;-4.291794728487730E-003;
2.409333333333334E+009;1.824449896812439E-001;-3.029344230890274E-002;-4.691169597208500E-003;-4.184185992926359E-003;
2.409500000000000E+009;1.826935559511185E-001;-3.104021959006786E-002;-4.682592116296291E-003;-4.063736181706190E-003;
2.409666666666667E+009;1.828499436378479E-001;-3.151785209774971E-002;-4.575136583298445E-003;-3.784200642257929E-003;
2.409833333333334E+009;1.831753849983215E-001;-3.200401738286018E-002;-4.705028142780066E-003;-3.594534704461694E-003;
2.410000000000000E+009;1.835306435823441E-001;-3.253133594989777E-002;-4.710959736257792E-003;-3.384690266102552E-003;
2.410166666666667E+009;1.835474073886871E-001;-3.297607600688934E-002;-4.664831794798374E-003;-3.234922420233488E-003;
2.410333333333334E+009;1.835830211639404E-001;-3.326623886823654E-002;-4.592541139572859E-003;-3.211775561794639E-003;
2.410500000000000E+009;1.835168451070786E-001;-3.355994820594788E-002;-4.626678768545389E-003;-3.108362201601267E-003;
2.410666666666667E+009;1.834435462951660E-001;-3.405337035655975E-002;-4.632862284779549E-003;-2.823421033099294E-003;
2.410833333333334E+009;1.835587322711945E-001;-3.422945737838745E-002;-4.552831873297691E-003;-2.827159594744444E-003;
2.411000000000000E+009;1.833528727293015E-001;-3.448967263102531E-002;-4.547486547380686E-003;-2.683553379029036E-003;
2.411166666666667E+009;1.828335374593735E-001;-3.493362292647362E-002;-4.519152920693159E-003;-2.678928431123495E-003;
2.411333333333334E+009;1.824897974729538E-001;-3.517599031329155E-002;-4.419929347932339E-003;-2.433536807075143E-003;
2.411500000000000E+009;1.820502877235413E-001;-3.564666211605072E-002;-4.435450769960880E-003;-2.277213614434004E-003;
2.411666666666667E+009;1.814566999673843E-001;-3.591685369610786E-002;-4.545771516859531E-003;-2.446670550853014E-003;
2.411833333333334E+009;1.807716786861420E-001;-3.622132539749146E-002;-4.476874601095915E-003;-2.384305000305176E-003;
2.412000000000000E+009;1.801263391971588E-001;-3.671045228838921E-002;-4.321902990341187E-003;-2.313439967110753E-003;
2.412166666666667E+009;1.790195554494858E-001;-3.744023665785790E-002;-4.400329664349556E-003;-2.520812209695578E-003;
2.412333333333334E+009;1.784409731626511E-001;-3.788996860384941E-002;-4.507957957684994E-003;-2.261380665004253E-003;
2.412500000000000E+009;1.772625148296356E-001;-3.826830908656120E-002;-4.682179074734449E-003;-2.451720647513866E-003;
2.412666666666667E+009;1.762180328369141E-001;-3.916845098137856E-002;-4.401850514113903E-003;-2.338602207601070E-003;
2.412833333333334E+009;1.752013713121414E-001;-3.991341218352318E-002;-4.674144554883242E-003;-2.123726066201925E-003;
2.413000000000000E+009;1.740735024213791E-001;-4.057099297642708E-002;-4.524742718786001E-003;-2.185948425903916E-003;
2.413166666666667E+009;1.725869923830032E-001;-4.141572862863541E-002;-4.802484996616840E-003;-2.187446225434542E-003;
2.413333333333334E+009;1.711926609277725E-001;-4.243728891015053E-002;-4.734477959573269E-003;-1.986849121749401E-003;
2.413500000000000E+009;1.701685190200806E-001;-4.348868131637573E-002;-5.030964501202107E-003;-2.003650879487395E-003;
2.413666666666667E+009;1.687456369400024E-001;-4.449260979890823E-002;-4.920857492834330E-003;-1.958572305738926E-003;
2.413833333333334E+009;1.675089150667191E-001;-4.552744701504707E-002;-5.019181407988071E-003;-1.849304768256843E-003;
2.414000000000000E+009;1.659888774156570E-001;-4.681608825922012E-002;-5.019169300794601E-003;-1.637544017285109E-003;
2.414166666666667E+009;1.651223450899124E-001;-4.811323806643486E-002;-5.217728205025196E-003;-1.713496632874012E-003;
2.414333333333334E+009;1.637128293514252E-001;-4.958582296967506E-002;-5.262728780508041E-003;-1.587264938279986E-003;
2.414500000000000E+009;1.627161502838135E-001;-5.102918669581413E-002;-5.286726634949446E-003;-1.420014770701528E-003;
2.414666666666667E+009;1.616277992725372E-001;-5.257863923907280E-002;-5.650079343467951E-003;-1.330461003817618E-003;
2.414833333333334E+009;1.603640466928482E-001;-5.416607111692429E-002;-5.575677845627070E-003;-1.288726925849915E-003;
2.415000000000000E+009;1.594247519969940E-001;-5.581837892532349E-002;-5.755587946623564E-003;-1.055135857313871E-003;
2.415166666666667E+009;1.583890616893768E-001;-5.754080042243004E-002;-5.760625470429659E-003;-7.705457974225283E-004;
2.415333333333334E+009;1.577144712209702E-001;-5.925483256578445E-002;-5.829334259033203E-003;-6.358172977343202E-004;
2.415500000000000E+009;1.567493379116058E-001;-6.112042814493179E-002;-5.787239409983158E-003;-5.937475943937898E-004;
2.415666666666667E+009;1.560525149106979E-001;-6.304475665092468E-002;-5.857973825186491E-003;-3.372527135070413E-004;
2.415833333333334E+009;1.554060280323029E-001;-6.504958868026733E-002;-5.925110541284084E-003;-3.286016581114382E-004;
2.416000000000000E+009;1.547122597694397E-001;-6.701097637414932E-002;-5.833303555846214E-003;1.128244621213526E-004;
2.416166666666667E+009;1.542686522006989E-001;-6.893222779035568E-002;-5.900526884943247E-003;2.241744368802756E-004;
2.416333333333334E+009;1.537995338439941E-001;-7.086516171693802E-002;-5.854580085724592E-003;2.604545734357089E-004;
2.416500000000000E+009;1.534005552530289E-001;-7.285729050636292E-002;-5.798227619379759E-003;3.479276201687753E-004;
2.416666666666667E+009;1.529348045587540E-001;-7.482998818159103E-002;-5.684364121407270E-003;5.992408841848373E-004;
2.416833333333334E+009;1.527176052331924E-001;-7.678987830877304E-002;-5.739603191614151E-003;5.844006664119661E-004;
2.417000000000000E+009;1.522550731897354E-001;-7.871299982070923E-002;-5.755072459578514E-003;8.174454560503364E-004;
2.417166666666667E+009;1.521756947040558E-001;-8.042316883802414E-002;-5.590613465756178E-003;1.060050446540117E-003;
2.417333333333334E+009;1.521771699190140E-001;-8.208952099084854E-002;-5.706885829567909E-003;1.196264522150159E-003;
2.417500000000000E+009;1.520114839076996E-001;-8.409433811903000E-002;-5.689200945198536E-003;1.256461488083005E-003;
2.417666666666667E+009;1.520971357822418E-001;-8.553621172904968E-002;-5.494976416230202E-003;1.350771752186120E-003;
2.417833333333334E+009;1.519756019115448E-001;-8.699635416269302E-002;-5.486961454153061E-003;1.467662630602717E-003;
2.418000000000000E+009;1.520164757966995E-001;-8.853873610496521E-002;-5.614455789327622E-003;1.555802300572395E-003;
2.418166666666667E+009;1.520935148000717E-001;-8.967716991901398E-002;-5.600541364401579E-003;1.670643454417586E-003;
2.418333333333334E+009;1.525180190801621E-001;-9.102761000394821E-002;-5.604415200650692E-003;1.844462240114808E-003;
2.418500000000000E+009;1.524308770895004E-001;-9.213049709796906E-002;-5.484658293426037E-003;2.014559227973223E-003;
2.418666666666667E+009;1.528379172086716E-001;-9.318669885396957E-002;-5.491026677191258E-003;1.920067355968058E-003;
2.418833333333334E+009;1.527590900659561E-001;-9.400036185979843E-002;-5.525989923626185E-003;2.181676682084799E-003;
2.419000000000000E+009;1.528399139642716E-001;-9.489550441503525E-002;-5.543065257370472E-003;2.380660967901349E-003;
2.419166666666667E+009;1.532619893550873E-001;-9.548710286617279E-002;-5.487657152116299E-003;2.471528016030788E-003;
2.419333333333334E+009;1.532772183418274E-001;-9.588751941919327E-002;-5.368502810597420E-003;2.645906293764710E-003;
2.419500000000000E+009;1.535903513431549E-001;-9.651776403188705E-002;-5.490300711244345E-003;2.785548567771912E-003;
2.419666666666667E+009;1.537252068519592E-001;-9.688711911439896E-002;-5.450322292745113E-003;2.915251767262816E-003;
2.419833333333334E+009;1.539667397737503E-001;-9.681258350610733E-002;-5.418683867901564E-003;3.022227669134736E-003;
2.420000000000000E+009;1.541123390197754E-001;-9.718498587608337E-002;-5.497890990227461E-003;3.217932069674134E-003;
2.420166666666667E+009;1.541768312454224E-001;-9.720936417579651E-002;-5.593112204223871E-003;3.402474801987410E-003;
2.420333333333334E+009;1.543203592300415E-001;-9.712275117635727E-002;-5.480394233018160E-003;3.639795351773500E-003;
2.420500000000000E+009;1.544046401977539E-001;-9.696691483259201E-002;-5.500503815710545E-003;3.821798367425799E-003;
2.420666666666667E+009;1.542884111404419E-001;-9.671327471733093E-002;-5.561178550124168E-003;4.020892549306154E-003;
2.420833333333334E+009;1.541554033756256E-001;-9.651091694831848E-002;-5.476190242916346E-003;4.154470283538103E-003;
2.421000000000000E+009;1.542261689901352E-001;-9.636197239160538E-002;-5.380325485020876E-003;4.474310204386711E-003;
2.421166666666667E+009;1.538893729448319E-001;-9.602698683738709E-002;-5.524619016796351E-003;4.876417573541403E-003;
2.421333333333334E+009;1.537521779537201E-001;-9.570229053497315E-002;-5.376704968512058E-003;4.933791700750589E-003;
2.421500000000000E+009;1.530428081750870E-001;-9.523073583841324E-002;-5.101440474390984E-003;5.253587849438191E-003;
2.421666666666667E+009;1.527117937803268E-001;-9.514316171407700E-002;-5.093214567750692E-003;5.532332696020603E-003;
2.421833333333334E+009;1.521942317485809E-001;-9.476588666439056E-002;-4.955399781465530E-003;5.893216468393803E-003;
2.422000000000000E+009;1.515691429376602E-001;-9.448495507240295E-002;-4.900630097836256E-003;6.014305166900158E-003;
2.422166666666667E+009;1.505734771490097E-001;-9.434805065393448E-002;-4.682602826505899E-003;6.447149440646172E-003;
2.422333333333334E+009;1.497793644666672E-001;-9.406301379203796E-002;-4.448362626135349E-003;6.655353121459484E-003;
2.422500000000000E+009;1.487727612257004E-001;-9.373799711465836E-002;-4.195909481495619E-003;6.922564003616571E-003;
2.422666666666667E+009;1.477823555469513E-001;-9.377566725015640E-002;-3.962125629186630E-003;7.236324250698090E-003;
2.422833333333334E+009;1.465950310230255E-001;-9.372685849666596E-002;-3.728994866833091E-003;7.332984823733568E-003;
2.423000000000000E+009;1.452189385890961E-001;-9.363038092851639E-002;-3.270072164013982E-003;7.589183747768402E-003;
2.423166666666667E+009;1.440009474754334E-001;-9.361453354358673E-002;-3.075284417718649E-003;7.750134449452162E-003;
2.423333333333334E+009;1.426875591278076E-001;-9.361609816551209E-002;-2.677203156054020E-003;7.976079359650612E-003;
2.423500000000000E+009;1.412524729967117E-001;-9.361134469509125E-002;-2.364236162975431E-003;8.089677430689335E-003;
2.423666666666667E+009;1.396047919988632E-001;-9.383363276720047E-002;-2.139813499525189E-003;8.147109299898148E-003;
2.423833333333334E+009;1.383836418390274E-001;-9.412048757076263E-002;-1.620486844331026E-003;8.052451536059380E-003;
2.424000000000000E+009;1.367470026016235E-001;-9.423999488353729E-002;-1.398398657329381E-003;8.103108964860439E-003;
2.424166666666667E+009;1.352352052927017E-001;-9.477614611387253E-002;-9.896541014313698E-004;8.290930651128292E-003;
2.424333333333334E+009;1.336839795112610E-001;-9.499297291040421E-002;-7.299366989172995E-004;8.365632966160774E-003;
2.424500000000000E+009;1.322641670703888E-001;-9.586187452077866E-002;-3.579814801923931E-004;8.287321776151657E-003;
2.424666666666667E+009;1.308781206607819E-001;-9.622649103403091E-002;-1.127258365158923E-004;8.307180367410183E-003;
2.424833333333334E+009;1.293559670448303E-001;-9.704302996397018E-002;1.307399215875194E-004;8.238616399466991E-003;
2.425000000000000E+009;1.280193179845810E-001;-9.782995283603668E-002;3.783192369155586E-004;8.143609389662743E-003;
2.425166666666667E+009;1.265421658754349E-001;-9.874768555164337E-002;6.544963689520955E-004;8.192070759832859E-003;
2.425333333333334E+009;1.252617835998535E-001;-9.979628026485443E-002;8.119255071505904E-004;8.317688480019569E-003;
2.425500000000000E+009;1.243208646774292E-001;-1.010338515043259E-001;1.321637188084424E-003;8.195486851036549E-003;
2.425666666666667E+009;1.229270920157433E-001;-1.022045835852623E-001;1.515002106316388E-003;8.040517568588257E-003;
2.425833333333334E+009;1.218926385045052E-001;-1.034215837717056E-001;1.610353006981313E-003;8.006381802260876E-003;
2.426000000000000E+009;1.209061294794083E-001;-1.048400178551674E-001;1.965950243175030E-003;8.085213601589203E-003;
2.426166666666667E+009;1.201241463422775E-001;-1.062730550765991E-001;2.412304747849703E-003;7.872958667576313E-003;
2.426333333333334E+009;1.191079840064049E-001;-1.076844707131386E-001;2.602368593215942E-003;7.859240286052227E-003;
2.426500000000000E+009;1.184368357062340E-001;-1.092416346073151E-001;2.964134793728590E-003;7.756891660392284E-003;
2.426666666666667E+009;1.178158447146416E-001;-1.107513085007668E-001;3.235373413190246E-003;7.680037524551153E-003;
2.426833333333334E+009;1.172768920660019E-001;-1.123733669519424E-001;3.459366969764233E-003;7.458127569407225E-003;
2.427000000000000E+009;1.167469471693039E-001;-1.140891239047051E-001;3.767005633562803E-003;7.484619040042162E-003;
2.427166666666667E+009;1.162092387676239E-001;-1.155792772769928E-001;4.066096153110266E-003;7.279338780790567E-003;
2.427333333333334E+009;1.156825423240662E-001;-1.172198355197907E-001;4.190394189208746E-003;6.810208316892386E-003;
2.427500000000000E+009;1.155151724815369E-001;-1.188896447420120E-001;4.447240848094225E-003;6.824260111898184E-003;
2.427666666666667E+009;1.153743490576744E-001;-1.203750520944595E-001;4.963719286024571E-003;6.524627096951008E-003;
