# Version 1.00
#
freq[Hz];re:Trc1_S11;im:Trc1_S11;re:Trc2_S21;im:Trc2_S21;
2.400000000000000E+009;1.562455743551254E-001;1.055296286940575E-001;2.180768176913261E-003;-2.737259026616812E-003;
2.400166666666667E+009;1.561065763235092E-001;1.033130139112473E-001;2.162154065445066E-003;-2.688199281692505E-003;
2.400333333333334E+009;1.562149375677109E-001;1.011762470006943E-001;2.198236063122749E-003;-2.789404941722751E-003;
2.400500000000000E+009;1.566629111766815E-001;9.846470504999161E-002;2.182475291192532E-003;-2.682827413082123E-003;
2.400666666666667E+009;1.569564342498779E-001;9.596518427133560E-002;2.055712742730975E-003;-2.694934839382768E-003;
2.400833333333334E+009;1.571741551160812E-001;9.336761385202408E-002;2.127769635990262E-003;-2.740410622209311E-003;
2.401000000000000E+009;1.574378460645676E-001;9.065017104148865E-002;2.094429451972246E-003;-2.677998971194029E-003;
2.401166666666667E+009;1.575782895088196E-001;8.796273171901703E-002;1.971842488273978E-003;-2.699041273444891E-003;
2.401333333333334E+009;1.582570821046829E-001;8.552917838096619E-002;1.982105895876885E-003;-2.768240636214614E-003;
2.401500000000000E+009;1.586269140243530E-001;8.266559243202210E-002;1.991872210055590E-003;-2.993136644363403E-003;
2.401666666666667E+009;1.591276526451111E-001;8.016263693571091E-002;1.931370003148913E-003;-2.832446247339249E-003;
2.401833333333334E+009;1.596668213605881E-001;7.741522789001465E-002;1.882219105027616E-003;-3.044405952095985E-003;
2.402000000000000E+009;1.604118496179581E-001;7.488783448934555E-002;1.917697023600340E-003;-3.062849398702383E-003;
2.402166666666667E+009;1.611643582582474E-001;7.266099005937576E-002;1.779052079655230E-003;-3.243777202442288E-003;
2.402333333333334E+009;1.620234251022339E-001;7.009403407573700E-002;1.721087493933737E-003;-3.264813218265772E-003;
2.402500000000000E+009;1.633474528789520E-001;6.776136904954910E-002;1.461248844861984E-003;-3.346390556544066E-003;
2.402666666666667E+009;1.643297374248505E-001;6.572327762842178E-002;1.380128320306540E-003;-3.476772923022509E-003;
2.402833333333334E+009;1.653521060943604E-001;6.328311562538147E-002;1.259040203876793E-003;-3.482988337054849E-003;
2.403000000000000E+009;1.667496860027313E-001;6.116716936230660E-002;9.040351724252105E-004;-3.537957789376378E-003;
2.403166666666667E+009;1.684404164552689E-001;5.902723968029022E-002;8.146577165462077E-004;-3.408272983506322E-003;
2.403333333333334E+009;1.697539687156677E-001;5.710883438587189E-002;7.949546561576426E-004;-3.255077637732029E-003;
2.403500000000000E+009;1.711247116327286E-001;5.520151183009148E-002;5.017010844312608E-004;-3.261938923969865E-003;
2.403666666666667E+009;1.731068044900894E-001;5.349043011665344E-002;4.251133359503001E-004;-3.082152223214507E-003;
2.403833333333334E+009;1.742346286773682E-001;5.172595009207726E-002;3.592527064029127E-004;-3.195726545527577E-003;
2.404000000000000E+009;1.755191683769226E-001;5.013538897037506E-002;2.635609416756779E-004;-3.011800581589341E-003;
2.404166666666667E+009;1.772996783256531E-001;4.861115664243698E-002;4.230717895552516E-004;-2.862894907593727E-003;
2.404333333333334E+009;1.788366734981537E-001;4.719913005828857E-002;4.370248643681407E-004;-2.869202289730310E-003;
2.404500000000000E+009;1.799990087747574E-001;4.580498859286308E-002;3.649298159871250E-004;-2.676783595234156E-003;
2.404666666666667E+009;1.817006021738052E-001;4.485777765512466E-002;5.103728035464883E-004;-2.637610537931323E-003;
2.404833333333334E+009;1.832590699195862E-001;4.377006366848946E-002;5.684021161869168E-004;-2.842769725248218E-003;
2.405000000000000E+009;1.841610819101334E-001;4.300234094262123E-002;6.224093376658857E-004;-2.902469597756863E-003;
2.405166666666667E+009;1.856768131256104E-001;4.223766550421715E-002;5.950814229436219E-004;-2.868230454623699E-003;
2.405333333333334E+009;1.866912990808487E-001;4.170646890997887E-002;6.501335883513093E-004;-3.062359057366848E-003;
2.405500000000000E+009;1.880413442850113E-001;4.110394045710564E-002;4.062226507812738E-004;-3.155094571411610E-003;
2.405666666666667E+009;1.890723556280136E-001;4.075035452842712E-002;3.258375218138099E-004;-3.241766011342406E-003;
2.405833333333334E+009;1.901519447565079E-001;4.039216786623001E-002;2.754306187853217E-004;-3.284007078036666E-003;
2.406000000000000E+009;1.910330206155777E-001;4.013940691947937E-002;1.320651208516210E-004;-3.250945126637816E-003;
2.406166666666667E+009;1.919178962707520E-001;3.980726003646851E-002;3.867649866151623E-006;-3.284557256847620E-003;
2.406333333333334E+009;1.927723437547684E-001;3.973384946584702E-002;-1.423509384039789E-004;-3.234288655221462E-003;
2.406500000000000E+009;1.933693736791611E-001;3.945869952440262E-002;-2.087898465106264E-004;-3.182331798598170E-003;
2.406666666666667E+009;1.940046697854996E-001;3.935020789504051E-002;-2.408079744782299E-004;-3.257932839915156E-003;
2.406833333333334E+009;1.943288594484329E-001;3.924051672220230E-002;-2.302033099113032E-004;-3.212797921150923E-003;
2.407000000000000E+009;1.946362704038620E-001;3.942976891994476E-002;-4.748638893943280E-004;-3.082470968365669E-003;
2.407166666666667E+009;1.949208229780197E-001;3.900436311960220E-002;-3.767762391362339E-004;-3.219895530492067E-003;
2.407333333333334E+009;1.948759853839874E-001;3.889431804418564E-002;-2.865283167921007E-004;-3.033595159649849E-003;
2.407500000000000E+009;1.949419230222702E-001;3.885307535529137E-002;-1.951254234882072E-004;-2.845834940671921E-003;
2.407666666666667E+009;1.948482692241669E-001;3.863889351487160E-002;-4.468688275665045E-004;-2.945937681943178E-003;
2.407833333333334E+009;1.945038735866547E-001;3.821460902690888E-002;-3.052738029509783E-004;-2.900422550737858E-003;
2.408000000000000E+009;1.944144964218140E-001;3.790982812643051E-002;-2.173840330215171E-004;-2.934954594820738E-003;
2.408166666666667E+009;1.939478218555450E-001;3.746646270155907E-002;-2.401383535470814E-004;-3.023552708327770E-003;
2.408333333333334E+009;1.936798840761185E-001;3.680050745606422E-002;-1.368837693007663E-004;-2.969940192997456E-003;
2.408500000000000E+009;1.930265128612518E-001;3.634957224130631E-002;-2.507886383682489E-004;-3.260190133005381E-003;
2.408666666666667E+009;1.925306022167206E-001;3.561539575457573E-002;-1.638540561543778E-004;-3.307358594611287E-003;
2.408833333333334E+009;1.921126991510391E-001;3.489132598042488E-002;-3.871766093652695E-004;-3.434714628383517E-003;
2.409000000000000E+009;1.911577284336090E-001;3.390743955969811E-002;-3.525495412759483E-004;-3.663612995296717E-003;
2.409166666666667E+009;1.905205100774765E-001;3.291908651590347E-002;-5.289100809022784E-004;-3.600452793762088E-003;
2.409333333333334E+009;1.898186206817627E-001;3.180688619613648E-002;-7.468877593055368E-004;-3.645703895017505E-003;
2.409500000000000E+009;1.889467686414719E-001;3.034752048552036E-002;-9.271642193198204E-004;-3.843675600364804E-003;
2.409666666666667E+009;1.880808025598526E-001;2.907520346343517E-002;-1.029632752761245E-003;-3.975310828536749E-003;
2.409833333333334E+009;1.872017979621887E-001;2.763560041785240E-002;-1.322148018516600E-003;-3.911165520548821E-003;
2.410000000000000E+009;1.864823251962662E-001;2.595268748700619E-002;-1.396261272020638E-003;-3.978898748755455E-003;
2.410166666666667E+009;1.855872720479965E-001;2.414419129490852E-002;-1.598754781298339E-003;-4.037115257233381E-003;
2.410333333333334E+009;1.848036944866180E-001;2.239410206675530E-002;-1.731201424263418E-003;-3.962918184697628E-003;
2.410500000000000E+009;1.841319203376770E-001;2.059533260762692E-002;-1.968421274796128E-003;-3.904558951035142E-003;
2.410666666666667E+009;1.835027188062668E-001;1.845949515700340E-002;-2.147826831787825E-003;-3.867482766509056E-003;
2.410833333333334E+009;1.828574538230896E-001;1.639052480459213E-002;-2.286852570250630E-003;-3.853909438475967E-003;
2.411000000000000E+009;1.823860853910446E-001;1.439088024199009E-002;-2.531197853386402E-003;-3.897439688444138E-003;
2.411166666666667E+009;1.819809377193451E-001;1.218508277088404E-002;-2.585385926067829E-003;-3.668487071990967E-003;
2.411333333333334E+009;1.815380007028580E-001;9.904092177748680E-003;-2.765074605122209E-003;-3.566418774425983E-003;
2.411500000000000E+009;1.812780946493149E-001;7.669965736567974E-003;-2.952510723844171E-003;-3.529209876433015E-003;
2.411666666666667E+009;1.811285018920898E-001;5.507019348442555E-003;-3.150085220113397E-003;-3.546833992004395E-003;
2.411833333333334E+009;1.810193657875061E-001;3.216178854927421E-003;-3.178436774760485E-003;-3.482273314148188E-003;
2.412000000000000E+009;1.813457161188126E-001;8.207776118069887E-004;-3.390903817489743E-003;-3.341458505019546E-003;
2.412166666666667E+009;1.813194006681442E-001;-1.224592677317560E-003;-3.713031532242894E-003;-3.334842622280121E-003;
2.412333333333334E+009;1.815695911645889E-001;-3.671920392662287E-003;-3.697728738188744E-003;-3.195729805156589E-003;
2.412500000000000E+009;1.820934563875198E-001;-5.798271391540766E-003;-3.927331883460283E-003;-3.115452826023102E-003;
2.412666666666667E+009;1.827299892902374E-001;-7.982844486832619E-003;-4.018494859337807E-003;-2.981868339702487E-003;
2.412833333333334E+009;1.832795143127441E-001;-1.047335378825665E-002;-4.415164235979319E-003;-2.770321443676949E-003;
2.413000000000000E+009;1.840929538011551E-001;-1.260198000818491E-002;-4.583017434924841E-003;-2.636407967656851E-003;
2.413166666666667E+009;1.848193258047104E-001;-1.459955982863903E-002;-4.664251580834389E-003;-2.442837227135897E-003;
2.413333333333334E+009;1.857398748397827E-001;-1.671289466321468E-002;-4.916725214570761E-003;-2.175335073843598E-003;
2.413500000000000E+009;1.865534186363220E-001;-1.886123418807983E-002;-5.181374028325081E-003;-1.861208584159613E-003;
2.413666666666667E+009;1.877713799476624E-001;-2.086785249412060E-002;-5.221336148679256E-003;-1.580957788974047E-003;
2.413833333333334E+009;1.883887201547623E-001;-2.266141399741173E-002;-5.296663846820593E-003;-1.203766907565296E-003;
2.414000000000000E+009;1.896375566720963E-001;-2.449065446853638E-002;-5.386316217482090E-003;-8.272919221781194E-004;
2.414166666666667E+009;1.908181905746460E-001;-2.627396211028099E-002;-5.368425976485014E-003;-4.882099456153810E-004;
2.414333333333334E+009;1.919157505035400E-001;-2.821516431868076E-002;-5.190135911107063E-003;-1.511511945864186E-004;
2.414500000000000E+009;1.929767578840256E-001;-2.956548333168030E-002;-5.098162218928337E-003;1.009359984891489E-004;
2.414666666666667E+009;1.939667016267777E-001;-3.091395460069180E-002;-4.975200630724430E-003;2.869192685466260E-004;
2.414833333333334E+009;1.948882788419724E-001;-3.233658894896507E-002;-4.880365449935198E-003;6.607470568269491E-004;
2.415000000000000E+009;1.958278864622116E-001;-3.360115364193916E-002;-4.588632378727198E-003;9.187274263240397E-004;
2.415166666666667E+009;1.968206167221069E-001;-3.472972288727760E-002;-4.667747765779495E-003;9.247135021723807E-004;
2.415333333333334E+009;1.979690343141556E-001;-3.562660142779350E-002;-4.440943244844675E-003;1.230792957358062E-003;
2.415500000000000E+009;1.988320797681809E-001;-3.633483871817589E-002;-4.291185643523932E-003;1.259004115127027E-003;
2.415666666666667E+009;1.997837722301483E-001;-3.731864318251610E-002;-4.263821989297867E-003;1.516761840321124E-003;
2.415833333333334E+009;2.004096060991287E-001;-3.788526728749275E-002;-4.201359115540981E-003;1.642993185669184E-003;
2.416000000000000E+009;2.010484486818314E-001;-3.856122121214867E-002;-4.101207479834557E-003;1.853464054875076E-003;
2.416166666666667E+009;2.016669362783432E-001;-3.925019502639771E-002;-3.842007601633668E-003;1.847921055741608E-003;
2.416333333333334E+009;2.020705938339233E-001;-3.969182074069977E-002;-3.571159904822707E-003;2.023290377110243E-003;
2.416500000000000E+009;2.024874389171600E-001;-4.005998373031616E-002;-3.380985697731376E-003;2.279716543853283E-003;
2.416666666666667E+009;2.026012390851975E-001;-4.051935672760010E-002;-3.239651909098029E-003;2.263118745759130E-003;
2.416833333333334E+009;2.027042657136917E-001;-4.070588573813438E-002;-2.999487332999706E-003;2.320152707397938E-003;
2.417000000000000E+009;2.028281241655350E-001;-4.106544330716133E-002;-2.577944193035364E-003;2.248730044811964E-003;
2.417166666666667E+009;2.024203836917877E-001;-4.113968089222908E-002;-2.457271562889218E-003;2.386065199971199E-003;
2.417333333333334E+009;2.021105885505676E-001;-4.100596532225609E-002;-2.348602050915361E-003;2.434093505144119E-003;
2.417500000000000E+009;2.017757594585419E-001;-4.128410294651985E-002;-2.060955623164773E-003;2.271564677357674E-003;
2.417666666666667E+009;2.012003511190414E-001;-4.124965146183968E-002;-1.954925945028663E-003;2.282710047438741E-003;
2.417833333333334E+009;2.007307708263397E-001;-4.125733673572540E-002;-1.674910774454474E-003;2.110539469867945E-003;
2.418000000000000E+009;1.999721378087997E-001;-4.117422178387642E-002;-1.545715145766735E-003;1.937184249982238E-003;
2.418166666666667E+009;1.991882622241974E-001;-4.134954512119293E-002;-1.608482794836164E-003;1.720799249596894E-003;
2.418333333333334E+009;1.983844190835953E-001;-4.135619476437569E-002;-1.483320025727153E-003;1.748668379150331E-003;
2.418500000000000E+009;1.973663270473480E-001;-4.152457788586617E-002;-1.333031919784844E-003;1.547984429635108E-003;
2.418666666666667E+009;1.964464932680130E-001;-4.163855686783791E-002;-1.399201923049986E-003;1.461724052205682E-003;
2.418833333333334E+009;1.952724009752274E-001;-4.205330833792687E-002;-1.313060987740755E-003;1.262169680558145E-003;
2.419000000000000E+009;1.940570175647736E-001;-4.228822141885757E-002;-1.283876830711961E-003;1.277202856726944E-003;
2.419166666666667E+009;1.929723471403122E-001;-4.278140142560005E-002;-1.443449058569968E-003;1.097906730137765E-003;
2.419333333333334E+009;1.916903257369995E-001;-4.336916282773018E-002;-1.532338908873498E-003;1.034761196933687E-003;
2.419500000000000E+009;1.902871280908585E-001;-4.390773177146912E-002;-1.493276096880436E-003;9.300373494625092E-004;
2.419666666666667E+009;1.887961477041245E-001;-4.492797702550888E-002;-1.692346064373851E-003;8.778340416029096E-004;
2.419833333333334E+009;1.873837709426880E-001;-4.566918686032295E-002;-1.798854558728635E-003;1.046418328769505E-003;
2.420000000000000E+009;1.860544830560684E-001;-4.657046124339104E-002;-1.835763687267900E-003;7.689344929531217E-004;
2.420166666666667E+009;1.845295429229736E-001;-4.742446541786194E-002;-1.996356062591076E-003;8.087444584816694E-004;
2.420333333333334E+009;1.832160353660584E-001;-4.877942800521851E-002;-2.112136920914054E-003;7.860303740017116E-004;
2.420500000000000E+009;1.816482096910477E-001;-5.011164769530296E-002;-2.137768315151334E-003;1.013482571579516E-003;
2.420666666666667E+009;1.801925152540207E-001;-5.116361007094383E-002;-2.305605914443731E-003;8.590876241214573E-004;
2.420833333333334E+009;1.786886006593704E-001;-5.268463864922524E-002;-2.414952963590622E-003;1.077193184755743E-003;
2.421000000000000E+009;1.774643957614899E-001;-5.436197668313980E-002;-2.560186199843884E-003;1.064315089024603E-003;
2.421166666666667E+009;1.762277334928513E-001;-5.603868514299393E-002;-2.507399767637253E-003;1.041469164192677E-003;
2.421333333333334E+009;1.746863424777985E-001;-5.738219991326332E-002;-2.651774324476719E-003;1.229167915880680E-003;
2.421500000000000E+009;1.734450906515122E-001;-5.935053154826164E-002;-2.719654934480786E-003;1.412949990481138E-003;
2.421666666666667E+009;1.723972409963608E-001;-6.113937869668007E-002;-2.774152439087629E-003;1.546234707348049E-003;
2.421833333333334E+009;1.712466776371002E-001;-6.285269558429718E-002;-2.734304405748844E-003;1.693220925517380E-003;
2.422000000000000E+009;1.702708899974823E-001;-6.465643644332886E-002;-2.641242695972323E-003;2.012572716921568E-003;
2.422166666666667E+009;1.694887131452560E-001;-6.664338707923889E-002;-2.843044232577086E-003;1.877636997960508E-003;
2.422333333333334E+009;1.685662269592285E-001;-6.857877224683762E-002;-2.675987081602216E-003;2.069810871034861E-003;
2.422500000000000E+009;1.677680164575577E-001;-7.035090774297714E-002;-2.660080557689071E-003;2.316178521141410E-003;
2.422666666666667E+009;1.670816093683243E-001;-7.218819856643677E-002;-2.639344660565257E-003;2.417236100882292E-003;
2.422833333333334E+009;1.667660027742386E-001;-7.413171231746674E-002;-2.570769749581814E-003;2.610845956951380E-003;
2.423000000000000E+009;1.661654710769653E-001;-7.626915723085403E-002;-2.467965008690953E-003;2.608059439808130E-003;
2.423166666666667E+009;1.659207195043564E-001;-7.789554446935654E-002;-2.653852803632617E-003;2.815883606672287E-003;
2.423333333333334E+009;1.654329597949982E-001;-7.973600924015045E-002;-2.587053691968322E-003;2.916581230238080E-003;
2.423500000000000E+009;1.655866354703903E-001;-8.148767054080963E-002;-2.339332830160856E-003;2.867045113816857E-003;
2.423666666666667E+009;1.654305309057236E-001;-8.331657201051712E-002;-2.423019148409367E-003;3.144085407257080E-003;
2.423833333333334E+009;1.652691811323166E-001;-8.490703254938126E-002;-2.334891352802515E-003;3.253643633797765E-003;
2.424000000000000E+009;1.654222309589386E-001;-8.655367046594620E-002;-2.442618366330862E-003;3.347458550706506E-003;
2.424166666666667E+009;1.653562635183334E-001;-8.809340000152588E-002;-2.228531753644347E-003;3.403383539989591E-003;
2.424333333333334E+009;1.654856503009796E-001;-8.958815038204193E-002;-2.349358284845948E-003;3.761202329769731E-003;
2.424500000000000E+009;1.658824980258942E-001;-9.121534973382950E-002;-2.079949015751481E-003;4.057382233440876E-003;
2.424666666666667E+009;1.660132855176926E-001;-9.242936223745346E-002;-1.968459691852331E-003;3.957501146942377E-003;
2.424833333333334E+009;1.663197726011276E-001;-9.370922297239304E-002;-1.812206697650254E-003;4.389234818518162E-003;
2.425000000000000E+009;1.666621565818787E-001;-9.482642263174057E-002;-1.685138558968902E-003;4.431838635355234E-003;
2.425166666666667E+009;1.667080223560333E-001;-9.590947628021240E-002;-1.370263635180891E-003;4.533614031970501E-003;
2.425333333333334E+009;1.670264601707459E-001;-9.687506407499313E-002;-1.160879503004253E-003;4.844838287681341E-003;
2.425500000000000E+009;1.674021035432816E-001;-9.782775491476059E-002;-9.243556414730847E-004;4.587337840348482E-003;
2.425666666666667E+009;1.676390916109085E-001;-9.853819757699966E-002;-7.250796188600361E-004;4.806831479072571E-003;
2.425833333333334E+009;1.679889410734177E-001;-9.934832155704498E-002;-3.968227247241885E-004;4.750064108520746E-003;
2.426000000000000E+009;1.683222800493240E-001;-9.991278499364853E-002;-2.399083023192361E-004;4.687059205025435E-003;
2.426166666666667E+009;1.685544252395630E-001;-1.004626825451851E-001;2.615359262563288E-004;4.777679685503244E-003;
2.426333333333334E+009;1.685713529586792E-001;-1.011230349540710E-001;4.659625701606274E-004;4.617651458829641E-003;
2.426500000000000E+009;1.689828336238861E-001;-1.014134287834168E-001;5.324152298271656E-004;4.628285765647888E-003;
2.426666666666667E+009;1.690931171178818E-001;-1.018364727497101E-001;6.217105546966195E-004;4.456866532564163E-003;
2.426833333333334E+009;1.692413985729218E-001;-1.021929755806923E-001;9.574834257364273E-004;4.379594698548317E-003;
2.427000000000000E+009;1.691569089889526E-001;-1.024901568889618E-001;1.070920960046351E-003;4.367081448435783E-003;
2.427166666666667E+009;1.692072600126267E-001;-1.026929169893265E-001;1.054677879437804E-003;4.321812652051449E-003;
2.427333333333334E+009;1.689722239971161E-001;-1.030145063996315E-001;1.254867995157838E-003;4.143008030951023E-003;
2.427500000000000E+009;1.687062531709671E-001;-1.034247204661369E-001;1.540041877888143E-003;3.949182108044624E-003;
2.427666666666667E+009;1.684074699878693E-001;-1.036188825964928E-001;1.574479509145021E-003;3.867488587275147E-003;
