# Version 1.00
#
freq[Hz];re:Trc1_S11;im:Trc1_S11;re:Trc2_S21;im:Trc2_S21;
2.400000000000000E+009;1.551929563283920E-001;1.115978211164475E-001;4.461271222680807E-003;-2.240278990939260E-003;
2.400166666666667E+009;1.546421647071838E-001;1.093456000089645E-001;4.348707385361195E-003;-2.456825459375978E-003;
2.400333333333334E+009;1.544679850339890E-001;1.071821153163910E-001;4.066914785653353E-003;-2.695584204047918E-003;
2.400500000000000E+009;1.541808098554611E-001;1.045138612389565E-001;4.096401855349541E-003;-2.796424552798271E-003;
2.400666666666667E+009;1.538603752851486E-001;1.019060090184212E-001;3.819800680503249E-003;-3.248008899390698E-003;
2.400833333333334E+009;1.537426859140396E-001;9.910439699888229E-002;3.522361395880580E-003;-3.187631256878376E-003;
2.401000000000000E+009;1.537466943264008E-001;9.618042409420013E-002;3.466861089691520E-003;-3.323677694424987E-003;
2.401166666666667E+009;1.536032557487488E-001;9.342378377914429E-002;3.334025386720896E-003;-3.485833760350943E-003;
2.401333333333334E+009;1.534993797540665E-001;9.047317504882813E-002;3.173513803631067E-003;-3.573796479031444E-003;
2.401500000000000E+009;1.538354605436325E-001;8.729376643896103E-002;3.045663237571716E-003;-3.686318174004555E-003;
2.401666666666667E+009;1.538905054330826E-001;8.445379137992859E-002;2.797003369778395E-003;-3.743129782378674E-003;
2.401833333333334E+009;1.542844772338867E-001;8.171835541725159E-002;2.641308819875121E-003;-3.919295500963926E-003;
2.402000000000000E+009;1.549411267042160E-001;7.863108813762665E-002;2.260305918753147E-003;-3.784333355724812E-003;
2.402166666666667E+009;1.555889844894409E-001;7.587055116891861E-002;2.159662311896682E-003;-3.954380284994841E-003;
2.402333333333334E+009;1.562515050172806E-001;7.277019321918488E-002;2.156619448214769E-003;-3.904258599504829E-003;
2.402500000000000E+009;1.574762314558029E-001;7.003106921911240E-002;1.898627728223801E-003;-4.070539493113756E-003;
2.402666666666667E+009;1.584032773971558E-001;6.765628606081009E-002;1.808842294849455E-003;-3.977438434958458E-003;
2.402833333333334E+009;1.599936038255692E-001;6.478637456893921E-002;1.580571872182190E-003;-4.052547737956047E-003;
2.403000000000000E+009;1.612082868814468E-001;6.220959872007370E-002;1.336212037131190E-003;-4.036705009639263E-003;
2.403166666666667E+009;1.629849076271057E-001;5.990313366055489E-002;1.148657640442252E-003;-4.057527519762516E-003;
2.403333333333334E+009;1.644867658615112E-001;5.734609439969063E-002;1.071087550371885E-003;-4.016811493784189E-003;
2.403500000000000E+009;1.662276685237885E-001;5.499972030520439E-002;8.915026555769146E-004;-4.156863782554865E-003;
2.403666666666667E+009;1.681562215089798E-001;5.293951556086540E-002;8.408130379393697E-004;-4.082947503775358E-003;
2.403833333333334E+009;1.700615733861923E-001;5.092553049325943E-002;7.441725465469062E-004;-4.204758908599615E-003;
2.404000000000000E+009;1.715788096189499E-001;4.870006814599037E-002;7.199148531071842E-004;-4.137735813856125E-003;
2.404166666666667E+009;1.734925955533981E-001;4.705406725406647E-002;5.264793289825320E-004;-4.110722336918116E-003;
2.404333333333334E+009;1.754260510206223E-001;4.544623568654060E-002;2.012146433116868E-004;-4.208011087030172E-003;
2.404500000000000E+009;1.773159354925156E-001;4.376244172453880E-002;1.085902404156514E-004;-4.136170726269484E-003;
2.404666666666667E+009;1.791145801544190E-001;4.263330250978470E-002;-1.113111502490938E-004;-4.243977833539248E-003;
2.404833333333334E+009;1.808338165283203E-001;4.114132001996040E-002;-1.905515237012878E-004;-4.021522123366594E-003;
2.405000000000000E+009;1.825235784053803E-001;4.046156257390976E-002;-2.700024633668363E-004;-4.064533393830061E-003;
2.405166666666667E+009;1.842795312404633E-001;3.965827077627182E-002;-5.691873957403004E-004;-3.914470784366131E-003;
2.405333333333334E+009;1.858405023813248E-001;3.919908031821251E-002;-8.047539740800858E-004;-4.007936920970678E-003;
2.405500000000000E+009;1.875914037227631E-001;3.843226283788681E-002;-9.840433485805988E-004;-3.703542053699493E-003;
2.405666666666667E+009;1.891282647848129E-001;3.815609961748123E-002;-1.033420208841562E-003;-3.771800082176924E-003;
2.405833333333334E+009;1.906907409429550E-001;3.793916478753090E-002;-1.365197240374982E-003;-3.575289389118552E-003;
2.406000000000000E+009;1.920461207628250E-001;3.785907849669457E-002;-1.346442964859307E-003;-3.485802328214049E-003;
2.406166666666667E+009;1.931165605783463E-001;3.771076351404190E-002;-1.409021788276732E-003;-3.543442813679576E-003;
2.406333333333334E+009;1.944660544395447E-001;3.783522918820381E-002;-1.493989489972591E-003;-3.256347728893161E-003;
2.406500000000000E+009;1.954520493745804E-001;3.792340680956841E-002;-1.504928804934025E-003;-3.263897728174925E-003;
2.406666666666667E+009;1.963351219892502E-001;3.816322237253189E-002;-1.509708119556308E-003;-2.978783100843430E-003;
2.406833333333334E+009;1.972089856863022E-001;3.826567530632019E-002;-1.743312343023717E-003;-2.881568856537342E-003;
2.407000000000000E+009;1.976193040609360E-001;3.874056413769722E-002;-1.693298458121717E-003;-2.861425513401628E-003;
2.407166666666667E+009;1.981752514839172E-001;3.864878788590431E-002;-1.687653828412294E-003;-2.729369327425957E-003;
2.407333333333334E+009;1.984643489122391E-001;3.924055397510529E-002;-1.778976875357330E-003;-2.503670752048492E-003;
2.407500000000000E+009;1.986218690872192E-001;3.941059485077858E-002;-1.777320052497089E-003;-2.308537019416690E-003;
2.407666666666667E+009;1.987468600273132E-001;3.967010974884033E-002;-1.745058456435800E-003;-2.402192912995815E-003;
2.407833333333334E+009;1.984438449144363E-001;3.983698040246964E-002;-1.827648724429309E-003;-2.309580799192190E-003;
2.408000000000000E+009;1.985205560922623E-001;4.014339670538902E-002;-1.773294643498957E-003;-2.368129324167967E-003;
2.408166666666667E+009;1.979767829179764E-001;4.006547480821610E-002;-1.765473745763302E-003;-2.209849422797561E-003;
2.408333333333334E+009;1.975653618574143E-001;3.990619257092476E-002;-1.700364751741290E-003;-2.201063325628638E-003;
2.408500000000000E+009;1.969208866357803E-001;3.995749726891518E-002;-1.675167819485068E-003;-2.258592052385211E-003;
2.408666666666667E+009;1.962846815586090E-001;3.955878317356110E-002;-1.657381304539740E-003;-2.242424990981817E-003;
2.408833333333334E+009;1.955535262823105E-001;3.924585133790970E-002;-1.685525290668011E-003;-2.123851096257567E-003;
2.409000000000000E+009;1.946119666099548E-001;3.858809545636177E-002;-1.647547702305019E-003;-2.173477550968528E-003;
2.409166666666667E+009;1.936287879943848E-001;3.796898201107979E-002;-1.609003986231983E-003;-2.063511172309518E-003;
2.409333333333334E+009;1.926685422658920E-001;3.720742464065552E-002;-1.628640689887106E-003;-2.135843969881535E-003;
2.409500000000000E+009;1.914798170328140E-001;3.614411503076553E-002;-1.699438900686801E-003;-2.244041999801993E-003;
2.409666666666667E+009;1.902380585670471E-001;3.504605591297150E-002;-1.630687969736755E-003;-2.279064385220408E-003;
2.409833333333334E+009;1.891016364097595E-001;3.382849320769310E-002;-1.586076221428812E-003;-2.327943453565240E-003;
2.410000000000000E+009;1.879043430089951E-001;3.239915892481804E-002;-1.638178597204387E-003;-2.453804481774569E-003;
2.410166666666667E+009;1.864834874868393E-001;3.078423626720905E-002;-1.771381706930697E-003;-2.395961200818420E-003;
2.410333333333334E+009;1.854134052991867E-001;2.915115654468536E-002;-1.643903087824583E-003;-2.507829107344151E-003;
2.410500000000000E+009;1.841523647308350E-001;2.733118273317814E-002;-2.017742954194546E-003;-2.644425723701716E-003;
2.410666666666667E+009;1.830429583787918E-001;2.522961609065533E-002;-2.189722610637546E-003;-2.591949654743075E-003;
2.410833333333334E+009;1.820905208587647E-001;2.310098335146904E-002;-2.312682801857591E-003;-2.652753842994571E-003;
2.411000000000000E+009;1.811947822570801E-001;2.090544626116753E-002;-2.257848158478737E-003;-2.558799693360925E-003;
2.411166666666667E+009;1.802962571382523E-001;1.866522245109081E-002;-2.630396047607064E-003;-2.572683850303292E-003;
2.411333333333334E+009;1.794251799583435E-001;1.618779264390469E-002;-2.748617902398109E-003;-2.549928845837712E-003;
2.411500000000000E+009;1.786782741546631E-001;1.377958990633488E-002;-2.873328747227788E-003;-2.529448596760631E-003;
2.411666666666667E+009;1.785088777542114E-001;1.125698629766703E-002;-3.202670486643910E-003;-2.348512411117554E-003;
2.411833333333334E+009;1.779447346925736E-001;8.785777725279331E-003;-3.368177218362689E-003;-2.335485769435763E-003;
2.412000000000000E+009;1.778806895017624E-001;6.086056120693684E-003;-3.453022567555308E-003;-2.324266126379371E-003;
2.412166666666667E+009;1.779083013534546E-001;3.541163168847561E-003;-3.792408620938659E-003;-2.063462976366282E-003;
2.412333333333334E+009;1.778192818164825E-001;9.583797072991729E-004;-3.985538613051176E-003;-1.949214609339833E-003;
2.412500000000000E+009;1.780498325824738E-001;-1.621521776542068E-003;-4.033855162560940E-003;-1.663677627220750E-003;
2.412666666666667E+009;1.784753352403641E-001;-4.506297875195742E-003;-4.081856925040484E-003;-1.474772812798619E-003;
2.412833333333334E+009;1.790685057640076E-001;-7.003540638834238E-003;-4.271179437637329E-003;-1.336256042122841E-003;
2.413000000000000E+009;1.796970069408417E-001;-9.659978561103344E-003;-4.257938358932734E-003;-1.174348755739629E-003;
2.413166666666667E+009;1.806269437074661E-001;-1.216753851622343E-002;-4.444096703082323E-003;-8.739936747588217E-004;
2.413333333333334E+009;1.815717071294785E-001;-1.482695154845715E-002;-4.497434478253126E-003;-6.493695545941591E-004;
2.413500000000000E+009;1.824030578136444E-001;-1.737339608371258E-002;-4.516895394772291E-003;-3.890897787641734E-004;
2.413666666666667E+009;1.836590319871903E-001;-1.989546231925488E-002;-4.422653466463089E-003;-1.930692815221846E-004;
2.413833333333334E+009;1.847499310970306E-001;-2.209777757525444E-002;-4.519095178693533E-003;1.020408381009474E-004;
2.414000000000000E+009;1.859794855117798E-001;-2.422961965203285E-002;-4.350551869720221E-003;2.395968040218577E-004;
2.414166666666667E+009;1.872841119766235E-001;-2.643342129886150E-002;-4.220355767756701E-003;5.136469262652099E-004;
2.414333333333334E+009;1.885809600353241E-001;-2.848430164158344E-002;-4.286319948732853E-003;7.090748986229301E-004;
2.414500000000000E+009;1.899403035640717E-001;-3.023615106940270E-002;-4.222130868583918E-003;1.077784807421267E-003;
2.414666666666667E+009;1.912725567817688E-001;-3.196712210774422E-002;-4.073906224220991E-003;1.069982652552426E-003;
2.414833333333334E+009;1.926537752151489E-001;-3.359479084610939E-002;-4.088622983545065E-003;1.312592416070402E-003;
2.415000000000000E+009;1.939597874879837E-001;-3.502633050084114E-002;-3.994565922766924E-003;1.432450837455690E-003;
2.415166666666667E+009;1.954951733350754E-001;-3.653717786073685E-002;-3.769778180867434E-003;1.624454162083566E-003;
2.415333333333334E+009;1.968339979648590E-001;-3.755582123994827E-002;-3.801686223596335E-003;1.715477788820863E-003;
2.415500000000000E+009;1.981357187032700E-001;-3.829199075698853E-002;-3.594544949010015E-003;1.981463516131043E-003;
2.415666666666667E+009;1.995053589344025E-001;-3.949419781565666E-002;-3.566425060853362E-003;1.878496725112200E-003;
2.415833333333334E+009;2.006048709154129E-001;-4.024537280201912E-002;-3.289150539785624E-003;2.170335268601775E-003;
2.416000000000000E+009;2.016725540161133E-001;-4.088508337736130E-002;-3.305563703179359E-003;2.120191697031260E-003;
2.416166666666667E+009;2.027154117822647E-001;-4.148893058300018E-002;-3.174428595229983E-003;2.334925578907132E-003;
2.416333333333334E+009;2.036903947591782E-001;-4.188370332121849E-002;-2.999215386807919E-003;2.340693958103657E-003;
2.416500000000000E+009;2.043474316596985E-001;-4.216688126325607E-002;-2.879325067624450E-003;2.453632419928908E-003;
2.416666666666667E+009;2.049560993909836E-001;-4.256157577037811E-002;-2.721776487305760E-003;2.728552557528019E-003;
2.416833333333334E+009;2.054098844528198E-001;-4.266998544335365E-002;-2.728178398683667E-003;2.651979681104422E-003;
2.417000000000000E+009;2.057585716247559E-001;-4.265360534191132E-002;-2.660796977579594E-003;2.752751111984253E-003;
2.417166666666667E+009;2.057949602603912E-001;-4.250606894493103E-002;-2.326129004359245E-003;2.779714763164520E-003;
2.417333333333334E+009;2.057222723960877E-001;-4.221015796065331E-002;-2.305262023583055E-003;2.740562194958329E-003;
2.417500000000000E+009;2.058437764644623E-001;-4.223695397377014E-002;-2.268980257213116E-003;2.819550689309835E-003;
2.417666666666667E+009;2.053295075893402E-001;-4.177223145961762E-002;-2.122503705322743E-003;2.820601686835289E-003;
2.417833333333334E+009;2.050878554582596E-001;-4.141957685351372E-002;-1.902276999317110E-003;2.979574957862496E-003;
2.418000000000000E+009;2.046449184417725E-001;-4.098389297723770E-002;-1.990966498851776E-003;3.085639094933868E-003;
2.418166666666667E+009;2.038987129926682E-001;-4.082082584500313E-002;-1.761095481924713E-003;3.159341169521213E-003;
2.418333333333334E+009;2.032810151576996E-001;-4.027134925127029E-002;-1.755637000314891E-003;3.030854510143399E-003;
2.418500000000000E+009;2.022067457437515E-001;-4.007756710052490E-002;-1.596220303326845E-003;3.173749428242445E-003;
2.418666666666667E+009;2.014902532100678E-001;-3.993766754865646E-002;-1.526801846921444E-003;3.230448113754392E-003;
2.418833333333334E+009;2.002977430820465E-001;-3.986979648470879E-002;-1.396701321937144E-003;3.256831783801317E-003;
2.419000000000000E+009;1.989145427942276E-001;-3.976918756961823E-002;-1.191811403259635E-003;3.415826009586453E-003;
2.419166666666667E+009;1.977029442787170E-001;-3.992975503206253E-002;-1.216680742800236E-003;3.460526932030916E-003;
2.419333333333334E+009;1.962362527847290E-001;-4.025057330727577E-002;-8.350935531780124E-004;3.368352772668004E-003;
2.419500000000000E+009;1.947001367807388E-001;-4.037249833345413E-002;-7.120244554243982E-004;3.358189947903156E-003;
2.419666666666667E+009;1.931574344635010E-001;-4.102504998445511E-002;-5.552802467718720E-004;3.297499846667051E-003;
2.419833333333334E+009;1.912783533334732E-001;-4.153883457183838E-002;-3.831392969004810E-004;3.252421040087938E-003;
2.420000000000000E+009;1.897290199995041E-001;-4.203387722373009E-002;-2.989099011756480E-004;3.210132243111730E-003;
2.420166666666667E+009;1.878886669874191E-001;-4.293639957904816E-002;-1.987841387744993E-004;3.250644542276859E-003;
2.420333333333334E+009;1.860625296831131E-001;-4.400659725070000E-002;-3.527515946188942E-005;3.185042645782232E-003;
2.420500000000000E+009;1.842447668313980E-001;-4.509846121072769E-002;-7.973257015692070E-005;2.951413625851274E-003;
2.420666666666667E+009;1.824433356523514E-001;-4.628184065222740E-002;-4.303852256271057E-005;2.906803740188479E-003;
2.420833333333334E+009;1.806594431400299E-001;-4.768881574273109E-002;6.304118869593367E-005;2.936500124633312E-003;
2.421000000000000E+009;1.789657473564148E-001;-4.925344884395599E-002;1.497818593634293E-004;2.910793293267489E-003;
2.421166666666667E+009;1.773689985275269E-001;-5.083174258470535E-002;6.164324440760538E-005;2.998277777805924E-003;
2.421333333333334E+009;1.754962801933289E-001;-5.238555744290352E-002;1.263055601157248E-004;2.922718180343509E-003;
2.421500000000000E+009;1.738832890987396E-001;-5.452012643218041E-002;2.446447033435106E-004;2.879375591874123E-003;
2.421666666666667E+009;1.723868548870087E-001;-5.634183809161186E-002;3.304436395410448E-004;2.933835610747337E-003;
2.421833333333334E+009;1.710330396890640E-001;-5.815814435482025E-002;3.278370131738484E-004;2.870038384571672E-003;
2.422000000000000E+009;1.697075963020325E-001;-6.023240461945534E-002;5.174149991944432E-004;2.843777881935239E-003;
2.422166666666667E+009;1.684519201517105E-001;-6.256637722253799E-002;5.594827816821635E-004;2.927779685705900E-003;
2.422333333333334E+009;1.671212166547775E-001;-6.473958492279053E-002;7.034380687400699E-004;2.885182853788137E-003;
2.422500000000000E+009;1.662492901086807E-001;-6.675711274147034E-002;7.960567600093782E-004;2.984680701047182E-003;
2.422666666666667E+009;1.654576957225800E-001;-6.894125789403915E-002;8.231924730353057E-004;2.745210891589522E-003;
2.422833333333334E+009;1.648857742547989E-001;-7.135957479476929E-002;9.598717442713678E-004;2.768712118268013E-003;
2.423000000000000E+009;1.640921682119370E-001;-7.359088212251663E-002;9.817647514864802E-004;2.646067645400763E-003;
2.423166666666667E+009;1.635354459285736E-001;-7.572302967309952E-002;1.077952911145985E-003;2.787374891340733E-003;
2.423333333333334E+009;1.631870269775391E-001;-7.818721234798431E-002;1.228643930517137E-003;2.744942437857390E-003;
2.423500000000000E+009;1.631134301424027E-001;-7.997664809226990E-002;1.306662568822503E-003;2.593214157968760E-003;
2.423666666666667E+009;1.629818826913834E-001;-8.210393786430359E-002;1.462785061448813E-003;2.514407970011234E-003;
2.423833333333334E+009;1.627791970968247E-001;-8.414240926504135E-002;1.451559364795685E-003;2.497073030099273E-003;
2.424000000000000E+009;1.628505587577820E-001;-8.617099374532700E-002;1.614491338841617E-003;2.299846149981022E-003;
2.424166666666667E+009;1.629116386175156E-001;-8.794808387756348E-002;1.677007996477187E-003;2.271152567118406E-003;
2.424333333333334E+009;1.633408069610596E-001;-8.994656801223755E-002;1.732136122882366E-003;2.266593044623733E-003;
2.424500000000000E+009;1.636713296175003E-001;-9.178021550178528E-002;1.814311603084207E-003;2.260436303913593E-003;
2.424666666666667E+009;1.638063043355942E-001;-9.339776635169983E-002;2.006758935749531E-003;2.066539367660880E-003;
2.424833333333334E+009;1.646009236574173E-001;-9.485926479101181E-002;1.944624586030841E-003;1.754213473759592E-003;
2.425000000000000E+009;1.650701612234116E-001;-9.625318646430969E-002;2.035836689174175E-003;1.820327830500901E-003;
2.425166666666667E+009;1.655558347702026E-001;-9.757874161005020E-002;1.945640076883137E-003;1.627753255888820E-003;
2.425333333333334E+009;1.659063100814819E-001;-9.863780438899994E-002;1.927819685079157E-003;1.482350751757622E-003;
2.425500000000000E+009;1.665808111429215E-001;-9.981094300746918E-002;2.001883462071419E-003;1.481311395764351E-003;
2.425666666666667E+009;1.672723740339279E-001;-1.006717979907990E-001;1.899737748317421E-003;1.535913557745516E-003;
2.425833333333334E+009;1.677153855562210E-001;-1.016873568296433E-001;1.937589608132839E-003;1.299787429161370E-003;
2.426000000000000E+009;1.683624833822250E-001;-1.021466925740242E-001;2.043999498710036E-003;1.307321828790009E-003;
2.426166666666667E+009;1.689985692501068E-001;-1.027715876698494E-001;2.024633577093482E-003;1.132029341533780E-003;
2.426333333333334E+009;1.691748648881912E-001;-1.032448112964630E-001;2.022575819864869E-003;1.128110103309155E-003;
2.426500000000000E+009;1.698593646287918E-001;-1.037334501743317E-001;2.007858827710152E-003;1.083666458725929E-003;
2.426666666666667E+009;1.704350262880325E-001;-1.039441898465157E-001;1.962339971214533E-003;1.060101902112365E-003;
2.426833333333334E+009;1.709475368261337E-001;-1.043011024594307E-001;2.071437425911427E-003;9.700906230136752E-004;
2.427000000000000E+009;1.711104363203049E-001;-1.043762713670731E-001;2.140481257811189E-003;1.057846937328577E-003;
2.427166666666667E+009;1.713685542345047E-001;-1.044763103127480E-001;1.985613955184817E-003;8.802128722891212E-004;
2.427333333333334E+009;1.715053915977478E-001;-1.045728102326393E-001;2.086636144667864E-003;7.393601117655635E-004;
2.427500000000000E+009;1.714726835489273E-001;-1.046415790915489E-001;2.090619411319494E-003;7.165804272517562E-004;
2.427666666666667E+009;1.713686883449554E-001;-1.046154871582985E-001;2.170829102396965E-003;6.087889778427780E-004;
