# Version 1.00
#
freq[Hz];re:Trc1_S11;im:Trc1_S11;re:Trc2_S21;im:Trc2_S21;
2.400000000000000E+009;1.547818779945374E-001;1.120923161506653E-001;4.322703927755356E-003;-2.419317374005914E-003;
2.400166666666667E+009;1.542526334524155E-001;1.098210588097572E-001;4.106608685106039E-003;-2.703983336687088E-003;
2.400333333333334E+009;1.542081236839294E-001;1.075033545494080E-001;4.053488839417696E-003;-2.964766463264823E-003;
2.400500000000000E+009;1.538054794073105E-001;1.049857214093208E-001;3.748950548470020E-003;-3.044372890144587E-003;
2.400666666666667E+009;1.536819338798523E-001;1.025843918323517E-001;3.774642478674650E-003;-3.255389630794525E-003;
2.400833333333334E+009;1.534083783626556E-001;9.954795986413956E-002;3.403326729312539E-003;-3.274789080023766E-003;
2.401000000000000E+009;1.533828079700470E-001;9.670571237802506E-002;3.236317075788975E-003;-3.499696962535381E-003;
2.401166666666667E+009;1.532439440488815E-001;9.389489144086838E-002;3.261017845943570E-003;-3.617519047111273E-003;
2.401333333333334E+009;1.534197777509689E-001;9.103014320135117E-002;3.011906519532204E-003;-3.789778333157301E-003;
2.401500000000000E+009;1.535798162221909E-001;8.797049522399902E-002;2.824496477842331E-003;-3.769373986870050E-003;
2.401666666666667E+009;1.538592725992203E-001;8.496484160423279E-002;2.598347375169396E-003;-3.926214296370745E-003;
2.401833333333334E+009;1.539333164691925E-001;8.218878507614136E-002;2.389146247878671E-003;-3.928481601178646E-003;
2.402000000000000E+009;1.547767519950867E-001;7.922081649303436E-002;2.317393198609352E-003;-3.964245319366455E-003;
2.402166666666667E+009;1.554743945598602E-001;7.642278075218201E-002;2.182355616241694E-003;-4.163032863289118E-003;
2.402333333333334E+009;1.561736017465591E-001;7.347166538238525E-002;1.894780900329351E-003;-3.929301165044308E-003;
2.402500000000000E+009;1.571985483169556E-001;7.071018964052200E-002;1.600426970981062E-003;-4.065733402967453E-003;
2.402666666666667E+009;1.584428995847702E-001;6.800971925258637E-002;1.504833111539483E-003;-4.256947897374630E-003;
2.402833333333334E+009;1.596938520669937E-001;6.548955291509628E-002;1.417564111761749E-003;-4.137997981160879E-003;
2.403000000000000E+009;1.612952351570129E-001;6.275812536478043E-002;1.235433737747371E-003;-4.035440273582935E-003;
2.403166666666667E+009;1.629488021135330E-001;6.053629145026207E-002;8.947380119934678E-004;-4.076761193573475E-003;
2.403333333333334E+009;1.645927280187607E-001;5.798884853720665E-002;8.443020633421838E-004;-4.130718298256397E-003;
2.403500000000000E+009;1.662347167730331E-001;5.563608929514885E-002;6.378019461408258E-004;-4.108811728656292E-003;
2.403666666666667E+009;1.682160645723343E-001;5.346858128905296E-002;6.196330650709570E-004;-3.928530961275101E-003;
2.403833333333334E+009;1.698150634765625E-001;5.141401290893555E-002;4.470407147891820E-004;-4.088785033673048E-003;
2.404000000000000E+009;1.715788394212723E-001;4.923792555928230E-002;3.525654028635472E-004;-4.032134078443050E-003;
2.404166666666667E+009;1.735621988773346E-001;4.756101220846176E-002;1.660512061789632E-004;-4.058645106852055E-003;
2.404333333333334E+009;1.754250526428223E-001;4.563858360052109E-002;-1.235633317264728E-005;-4.086506552994251E-003;
2.404500000000000E+009;1.772379726171494E-001;4.411586374044418E-002;-2.035543002421036E-004;-4.192378371953964E-003;
2.404666666666667E+009;1.792677491903305E-001;4.274160042405129E-002;-3.287190920673311E-004;-4.171676002442837E-003;
2.404833333333334E+009;1.810671687126160E-001;4.153443127870560E-002;-5.709892138838768E-004;-4.099211655557156E-003;
2.405000000000000E+009;1.826170831918716E-001;4.084067419171333E-002;-6.057266728021205E-004;-3.991045989096165E-003;
2.405166666666667E+009;1.843930482864380E-001;3.993021324276924E-002;-9.976499713957310E-004;-3.943134099245071E-003;
2.405333333333334E+009;1.861022263765335E-001;3.924371302127838E-002;-9.657254558987916E-004;-3.884869860485196E-003;
2.405500000000000E+009;1.878318190574646E-001;3.879071772098541E-002;-1.182773034088314E-003;-3.748470917344093E-003;
2.405666666666667E+009;1.892925053834915E-001;3.840927779674530E-002;-1.149306539446116E-003;-3.778049256652594E-003;
2.405833333333334E+009;1.908710598945618E-001;3.822777792811394E-002;-1.310548977926374E-003;-3.575003007426858E-003;
2.406000000000000E+009;1.920556277036667E-001;3.807408735156059E-002;-1.524917548522353E-003;-3.306722035631537E-003;
2.406166666666667E+009;1.933466792106628E-001;3.782488778233528E-002;-1.620320370420814E-003;-3.271124558523297E-003;
2.406333333333334E+009;1.946941018104553E-001;3.806942328810692E-002;-1.662653288803995E-003;-3.083898453041911E-003;
2.406500000000000E+009;1.957747787237167E-001;3.830341249704361E-002;-1.839392585679889E-003;-3.211730159819126E-003;
2.406666666666667E+009;1.965100467205048E-001;3.850084170699120E-002;-1.813112292438746E-003;-2.928217640146613E-003;
2.406833333333334E+009;1.974104493856430E-001;3.849857673048973E-002;-1.793502247892320E-003;-2.885319292545319E-003;
2.407000000000000E+009;1.978829503059387E-001;3.896903246641159E-002;-1.834948896430433E-003;-2.529412973672152E-003;
2.407166666666667E+009;1.985256075859070E-001;3.905627131462097E-002;-1.639939262531698E-003;-2.685575745999813E-003;
2.407333333333334E+009;1.986425966024399E-001;3.941656276583672E-002;-1.794257084839046E-003;-2.403422957286239E-003;
2.407500000000000E+009;1.987828165292740E-001;3.986172750592232E-002;-1.762053812853992E-003;-2.404538448899984E-003;
2.407666666666667E+009;1.990723907947540E-001;4.005888104438782E-002;-1.863489975221455E-003;-2.265568822622299E-003;
2.407833333333334E+009;1.986048966646195E-001;4.016742482781410E-002;-1.747693051584065E-003;-2.206747652962804E-003;
2.408000000000000E+009;1.987118721008301E-001;4.023914784193039E-002;-1.918283873237670E-003;-2.351063303649426E-003;
2.408166666666667E+009;1.982264965772629E-001;4.028626531362534E-002;-1.788746798411012E-003;-2.181748393923044E-003;
2.408333333333334E+009;1.978145837783814E-001;4.019089043140411E-002;-1.827984349802136E-003;-1.955492654815316E-003;
2.408500000000000E+009;1.972557306289673E-001;4.014557227492333E-002;-1.887110178358853E-003;-1.918785274028778E-003;
2.408666666666667E+009;1.965711414813995E-001;3.990386053919792E-002;-1.770755508914590E-003;-2.111037494614720E-003;
2.408833333333334E+009;1.958686411380768E-001;3.946334123611450E-002;-1.753891818225384E-003;-1.886358950287104E-003;
2.409000000000000E+009;1.949179172515869E-001;3.891545906662941E-002;-1.539931632578373E-003;-1.987110357731581E-003;
2.409166666666667E+009;1.939387768507004E-001;3.828850015997887E-002;-1.718835323117673E-003;-1.917144865728915E-003;
2.409333333333334E+009;1.929868012666702E-001;3.751346468925476E-002;-1.414684113115072E-003;-1.968392869457603E-003;
2.409500000000000E+009;1.914332509040833E-001;3.646954149007797E-002;-1.565770944580436E-003;-2.071228111162782E-003;
2.409666666666667E+009;1.906363070011139E-001;3.512348234653473E-002;-1.473230193369091E-003;-2.197598339989781E-003;
2.409833333333334E+009;1.893314272165299E-001;3.391142189502716E-002;-1.611600862815976E-003;-2.101226942613721E-003;
2.410000000000000E+009;1.880787312984467E-001;3.258907422423363E-002;-1.678829547017813E-003;-2.326965099200606E-003;
2.410166666666667E+009;1.869138628244400E-001;3.087586723268032E-002;-1.732363365590572E-003;-2.394016366451979E-003;
2.410333333333334E+009;1.857853829860687E-001;2.916989475488663E-002;-1.837815623730421E-003;-2.385419327765703E-003;
2.410500000000000E+009;1.844286024570465E-001;2.737477421760559E-002;-2.143706195056438E-003;-2.558010630309582E-003;
2.410666666666667E+009;1.833026409149170E-001;2.539926394820213E-002;-2.125896746292710E-003;-2.518502995371819E-003;
2.410833333333334E+009;1.825144290924072E-001;2.311008796095848E-002;-2.158212941139936E-003;-2.566573908552527E-003;
2.411000000000000E+009;1.814273148775101E-001;2.083559520542622E-002;-2.672660630196333E-003;-2.479680813848972E-003;
2.411166666666667E+009;1.806337088346481E-001;1.871262304484844E-002;-2.674624091014266E-003;-2.466209698468447E-003;
2.411333333333334E+009;1.799951940774918E-001;1.629431173205376E-002;-2.767939819023013E-003;-2.475465647876263E-003;
2.411500000000000E+009;1.791985332965851E-001;1.382985617965460E-002;-3.000142984092236E-003;-2.489931182935834E-003;
2.411666666666667E+009;1.787571758031845E-001;1.128291152417660E-002;-3.203969681635499E-003;-2.247607801109552E-003;
2.411833333333334E+009;1.781534403562546E-001;8.838688954710960E-003;-3.451395314186811E-003;-2.247408498078585E-003;
2.412000000000000E+009;1.781483590602875E-001;6.140341516584158E-003;-3.641562769189477E-003;-2.130733104422689E-003;
2.412166666666667E+009;1.779809445142746E-001;3.722281660884619E-003;-3.684829454869032E-003;-1.902249641716480E-003;
2.412333333333334E+009;1.781286150217056E-001;1.076761400327086E-003;-3.740203334018588E-003;-1.746057067066431E-003;
2.412500000000000E+009;1.784279048442841E-001;-1.713073696009815E-003;-3.897541202604771E-003;-1.580529729835689E-003;
2.412666666666667E+009;1.788541972637177E-001;-4.356778226792812E-003;-4.075467586517334E-003;-1.417577033862472E-003;
2.412833333333334E+009;1.794553697109222E-001;-6.999384611845017E-003;-4.177242983132601E-003;-1.224201056174934E-003;
2.413000000000000E+009;1.800269335508347E-001;-9.661788120865822E-003;-4.237520042806864E-003;-1.005206373520196E-003;
2.413166666666667E+009;1.807423979043961E-001;-1.218729931861162E-002;-4.372818861156702E-003;-7.645589648745954E-004;
2.413333333333334E+009;1.817489862442017E-001;-1.495489478111267E-002;-4.368212074041367E-003;-4.494298482313752E-004;
2.413500000000000E+009;1.825971454381943E-001;-1.736347004771233E-002;-4.404229111969471E-003;-8.606429037172347E-005;
2.413666666666667E+009;1.837323755025864E-001;-1.979499869048595E-002;-4.399220459163189E-003;5.048631646786816E-005;
2.413833333333334E+009;1.848774254322052E-001;-2.202905900776386E-002;-4.308919422328472E-003;2.462307747919112E-004;
2.414000000000000E+009;1.861434727907181E-001;-2.436082810163498E-002;-4.424804355949163E-003;4.542462120298296E-004;
2.414166666666667E+009;1.874926090240479E-001;-2.631533518433571E-002;-4.156481474637985E-003;6.552560953423381E-004;
2.414333333333334E+009;1.888221353292465E-001;-2.863311581313610E-002;-4.168242216110230E-003;8.637093706056476E-004;
2.414500000000000E+009;1.902402341365814E-001;-3.038265928626061E-002;-4.076575860381126E-003;9.663744131103158E-004;
2.414666666666667E+009;1.914715021848679E-001;-3.209529072046280E-002;-4.114530980587006E-003;1.172246644273400E-003;
2.414833333333334E+009;1.928779929876328E-001;-3.365956246852875E-002;-3.919184207916260E-003;1.331791398115456E-003;
2.415000000000000E+009;1.941695213317871E-001;-3.528411313891411E-002;-3.729348769411445E-003;1.476092613302171E-003;
2.415166666666667E+009;1.956394463777542E-001;-3.656223788857460E-002;-3.801398910582066E-003;1.629209844395518E-003;
2.415333333333334E+009;1.969854086637497E-001;-3.773948550224304E-002;-3.667047945782542E-003;1.688481308519840E-003;
2.415500000000000E+009;1.984446197748184E-001;-3.865542635321617E-002;-3.505458822473884E-003;1.861868542619050E-003;
2.415666666666667E+009;1.995985209941864E-001;-3.973895311355591E-002;-3.365652170032263E-003;1.872489694505930E-003;
2.415833333333334E+009;2.007800340652466E-001;-4.025912284851074E-002;-3.201877465471625E-003;2.028904156759381E-003;
2.416000000000000E+009;2.017615735530853E-001;-4.106955602765083E-002;-3.172512399032712E-003;2.251479774713516E-003;
2.416166666666667E+009;2.028886824846268E-001;-4.177748784422875E-002;-2.898106118664146E-003;2.282603876665235E-003;
2.416333333333334E+009;2.036406546831131E-001;-4.208728671073914E-002;-2.907519228756428E-003;2.353383926674724E-003;
2.416500000000000E+009;2.045004516839981E-001;-4.233105853199959E-002;-2.976978663355112E-003;2.534274477511644E-003;
2.416666666666667E+009;2.051660567522049E-001;-4.275931045413017E-002;-2.756423316895962E-003;2.558842534199357E-003;
2.416833333333334E+009;2.054429054260254E-001;-4.272527992725372E-002;-2.593444660305977E-003;2.605648711323738E-003;
2.417000000000000E+009;2.057951986789703E-001;-4.289866983890533E-002;-2.423182129859924E-003;2.780986018478870E-003;
2.417166666666667E+009;2.056531012058258E-001;-4.274884611368179E-002;-2.405804349109530E-003;2.801983617246151E-003;
2.417333333333334E+009;2.057372182607651E-001;-4.243901744484901E-002;-2.286039758473635E-003;2.770130289718509E-003;
2.417500000000000E+009;2.056313604116440E-001;-4.235894978046417E-002;-2.137924078851938E-003;2.784576034173369E-003;
2.417666666666667E+009;2.054476737976074E-001;-4.190752282738686E-002;-2.035239944234490E-003;2.835419494658709E-003;
2.417833333333334E+009;2.051666378974915E-001;-4.164638370275497E-002;-2.033986384049058E-003;3.048723796382546E-003;
2.418000000000000E+009;2.045557051897049E-001;-4.115844890475273E-002;-1.849805936217308E-003;3.051891922950745E-003;
2.418166666666667E+009;2.038943469524384E-001;-4.082878306508064E-002;-1.739585190080106E-003;3.110889578238130E-003;
2.418333333333334E+009;2.031763046979904E-001;-4.071852192282677E-002;-1.622259151190519E-003;3.138357540592551E-003;
2.418500000000000E+009;2.023566514253616E-001;-4.041845351457596E-002;-1.511815935373306E-003;3.220173064619303E-003;
2.418666666666667E+009;2.013467550277710E-001;-3.999722376465797E-002;-1.540632336400449E-003;3.169596195220947E-003;
2.418833333333334E+009;2.001553624868393E-001;-3.998711332678795E-002;-1.255127019248903E-003;3.319885116070509E-003;
2.419000000000000E+009;1.989976912736893E-001;-3.996155411005020E-002;-1.088097342289984E-003;3.181825624778867E-003;
2.419166666666667E+009;1.975677311420441E-001;-4.007903486490250E-002;-1.043312600813806E-003;3.363649360835552E-003;
2.419333333333334E+009;1.962031275033951E-001;-4.027367383241653E-002;-7.228227914310992E-004;3.476688638329506E-003;
2.419500000000000E+009;1.947070658206940E-001;-4.048698768019676E-002;-5.652530817314982E-004;3.176053520292044E-003;
2.419666666666667E+009;1.930170506238937E-001;-4.110451415181160E-002;-4.254623490851373E-004;3.209113376215100E-003;
2.419833333333334E+009;1.913057118654251E-001;-4.161655902862549E-002;-4.849917604587972E-004;3.175959689542651E-003;
2.420000000000000E+009;1.896834075450897E-001;-4.210319742560387E-002;-2.928705362137407E-004;3.148071002215147E-003;
2.420166666666667E+009;1.878352165222168E-001;-4.299474135041237E-002;-1.912848092615604E-004;3.071928862482309E-003;
2.420333333333334E+009;1.859879940748215E-001;-4.415990412235260E-002;-2.548589145590086E-005;3.068064572289586E-003;
2.420500000000000E+009;1.841782629489899E-001;-4.519372060894966E-002;1.749928196659312E-004;2.988365013152361E-003;
2.420666666666667E+009;1.824029833078384E-001;-4.615573957562447E-002;7.545285188825801E-005;2.932605799287558E-003;
2.420833333333334E+009;1.804983913898468E-001;-4.769236221909523E-002;1.675564271863550E-005;2.687026979401708E-003;
2.421000000000000E+009;1.787724047899246E-001;-4.930952936410904E-002;6.629314157180488E-005;2.864061389118433E-003;
2.421166666666667E+009;1.770677864551544E-001;-5.095929279923439E-002;2.298744657309726E-004;2.873293124139309E-003;
2.421333333333334E+009;1.753103137016296E-001;-5.248667672276497E-002;1.997530634980649E-004;2.794000552967191E-003;
2.421500000000000E+009;1.738973408937454E-001;-5.452892929315567E-002;3.154781879857183E-004;2.782063093036413E-003;
2.421666666666667E+009;1.724047511816025E-001;-5.642775818705559E-002;3.059010196011514E-004;2.739299321547151E-003;
2.421833333333334E+009;1.708607077598572E-001;-5.833294242620468E-002;4.337174759712070E-004;2.770869061350822E-003;
2.422000000000000E+009;1.695773303508759E-001;-6.033391878008843E-002;4.885177477262914E-004;2.775240922346711E-003;
2.422166666666667E+009;1.684546619653702E-001;-6.257044523954392E-002;5.227881483733654E-004;2.793435938656330E-003;
2.422333333333334E+009;1.673389822244644E-001;-6.473920494318008E-002;7.445481605827808E-004;2.777074696496129E-003;
2.422500000000000E+009;1.662662923336029E-001;-6.684835255146027E-002;7.971762679517269E-004;2.791408915072680E-003;
2.422666666666667E+009;1.652420014142990E-001;-6.896892935037613E-002;8.240015013143420E-004;2.839811379089952E-003;
2.422833333333334E+009;1.646498739719391E-001;-7.129748910665512E-002;1.043970696628094E-003;2.621251391246915E-003;
2.423000000000000E+009;1.640018969774246E-001;-7.359366863965988E-002;1.050038845278323E-003;2.459757030010223E-003;
2.423166666666667E+009;1.634374260902405E-001;-7.572650164365768E-002;1.236914074979723E-003;2.514901105314493E-003;
2.423333333333334E+009;1.631333678960800E-001;-7.781443744897842E-002;1.264836871996522E-003;2.668916014954448E-003;
2.423500000000000E+009;1.628690659999847E-001;-7.992948591709137E-002;1.353649422526360E-003;2.511596539989114E-003;
2.423666666666667E+009;1.629954576492310E-001;-8.202871680259705E-002;1.337667810730636E-003;2.340368926525116E-003;
2.423833333333334E+009;1.627382934093475E-001;-8.410442620515823E-002;1.558343414217234E-003;2.356320619583130E-003;
2.424000000000000E+009;1.628727614879608E-001;-8.599942922592163E-002;1.607807818800211E-003;2.408017637208104E-003;
2.424166666666667E+009;1.627863198518753E-001;-8.788341283798218E-002;1.503582810983062E-003;2.226494485512376E-003;
2.424333333333334E+009;1.632021218538284E-001;-8.969449251890183E-002;1.689216820523143E-003;2.050046110525727E-003;
2.424500000000000E+009;1.635102480649948E-001;-9.178968518972397E-002;1.852396409958601E-003;1.981645124033094E-003;
2.424666666666667E+009;1.639229953289032E-001;-9.324459731578827E-002;1.731234602630138E-003;1.866911654360592E-003;
2.424833333333334E+009;1.645179837942123E-001;-9.472651779651642E-002;1.914909924380481E-003;1.835888251662254E-003;
2.425000000000000E+009;1.650622487068176E-001;-9.620689600706101E-002;1.881058677099645E-003;1.735464553348720E-003;
2.425166666666667E+009;1.654798835515976E-001;-9.754403680562973E-002;1.940304995514453E-003;1.719821710139513E-003;
2.425333333333334E+009;1.659908145666122E-001;-9.866463392972946E-002;1.905072480440140E-003;1.390996272675693E-003;
2.425500000000000E+009;1.665786653757095E-001;-9.987520426511765E-002;1.862907083705068E-003;1.486541470512748E-003;
2.425666666666667E+009;1.672076731920242E-001;-1.005808413028717E-001;1.923635951243341E-003;1.455748337320983E-003;
2.425833333333334E+009;1.677335351705551E-001;-1.015984639525414E-001;1.984196016564965E-003;1.219564233906567E-003;
2.426000000000000E+009;1.684688776731491E-001;-1.020072773098946E-001;2.052228199318051E-003;1.146221649833024E-003;
2.426166666666667E+009;1.690023988485336E-001;-1.027262136340141E-001;1.963014248758555E-003;1.175751211121678E-003;
2.426333333333334E+009;1.693089604377747E-001;-1.032897680997849E-001;1.825554994866252E-003;1.156917191110551E-003;
2.426500000000000E+009;1.700035631656647E-001;-1.036381870508194E-001;1.995144644752145E-003;1.191351679153740E-003;
2.426666666666667E+009;1.704318374395371E-001;-1.038900166749954E-001;1.979016000404954E-003;9.771412005648017E-004;
2.426833333333334E+009;1.709063053131104E-001;-1.041955798864365E-001;1.906219520606101E-003;1.055593835189939E-003;
2.427000000000000E+009;1.711283624172211E-001;-1.043596118688583E-001;1.954965526238084E-003;9.660175419412553E-004;
2.427166666666667E+009;1.713625788688660E-001;-1.043829023838043E-001;2.093943767249584E-003;8.558801491744816E-004;
2.427333333333334E+009;1.715786010026932E-001;-1.046073809266090E-001;1.976321451365948E-003;8.430447778664529E-004;
2.427500000000000E+009;1.715255528688431E-001;-1.045518517494202E-001;2.060538157820702E-003;8.299529436044395E-004;
2.427666666666667E+009;1.714150309562683E-001;-1.046058237552643E-001;2.035775687545538E-003;6.399230333045125E-004;
