# Hz S RI R 50
2400000000.0000000000 0.169700965285301208496093750000 0.039891667664051062847097028907 0.002311328658834100203273154150 0.001671600271947681903839111328 0 0 0 0 
2400166666.6666665077 0.170677453279495211502236884371 0.039273932576179497455637346093 0.002472221385687590079066611182 0.001457805628888309001922607422 0 0 0 0 
2400333333.3333334923 0.171197980642318697830361884371 0.038338724523782730102539062500 0.002436214592307806015014648438 0.001473545446060597896575927734 0 0 0 0 
2400500000.0000000000 0.171917930245399502853231865629 0.037667207419872276996652971093 0.002668596338480710983276367188 0.001335186650976539091822958838 0 0 0 0 
2400666666.6666665077 0.172379285097122192382812500000 0.037029743194580078125000000000 0.002694454044103622002842568506 0.001185254659503697915318154443 0 0 0 0 
2400833333.3333334923 0.173023447394371004959268134371 0.036391161382198326801340471093 0.002737844130024313926696777344 0.001231283531524240970611572266 0 0 0 0 
2401000000.0000000000 0.173385068774223299881143134371 0.035661350935697562480886091407 0.002816578373312950134277343750 0.001075166510418057008030556787 0 0 0 0 
2401166666.6666665077 0.173827812075614901443643134371 0.034940045326948172832448591407 0.002904644003137946128845214844 0.000824771996121853590011596680 0 0 0 0 
2401333333.3333334923 0.174018964171409606933593750000 0.034428168088197708129882812500 0.003054806264117360115051269531 0.000820711371488869190216064453 0 0 0 0 
2401500000.0000000000 0.174399375915527288238848768742 0.033642482012510299682617187500 0.002945826854556798934936523438 0.000661333033349364995956420898 0 0 0 0 
2401666666.6666665077 0.174458324909210205078125000000 0.033136215060949332500417341407 0.002979621291160583929774618994 0.000589016883168369531631469727 0 0 0 0 
2401833333.3333334923 0.174461945891380310058593750000 0.032458480447530753398854841407 0.003125469433143734931945800781 0.000562871864531189203262329102 0 0 0 0 
2402000000.0000000000 0.174491286277770996093750000000 0.031798873096704483032226562500 0.003139005741104484038112021338 0.000270268443273380398750305176 0 0 0 0 
2402166666.6666665077 0.174458801746368408203125000000 0.030896363779902461660364920704 0.003203901462256907983067177881 0.000302153843222186023562830792 0 0 0 0 
2402333333.3333334923 0.174221411347389193435830634371 0.030342489480972290039062500000 0.003164004068821669058558798682 -0.000136768998345360186979016714 0 0 0 0 
2402500000.0000000000 0.174296423792839105804119981258 0.029622610658407211303710937500 0.003303596982732415199279785156 -0.000196519948076456812307080679 0 0 0 0 
2402666666.6666665077 0.174289211630821200271768134371 0.028801105916500091552734375000 0.003394194645807147026062011719 -0.000365839747246354818344116211 0 0 0 0 
2402833333.3333334923 0.173964336514472989181356865629 0.027863278985023498535156250000 0.003290539374575018882751464844 -0.000654935836791992187500000000 0 0 0 0 
2403000000.0000000000 0.173733368515968294998330634371 0.026969643309712409973144531250 0.003220997983589767976048134912 -0.000841662287712097167968750000 0 0 0 0 
2403166666.6666665077 0.173596739768981905838174384371 0.026138313114643100393275076954 0.003090503159910440011265420068 -0.001032671425491570992710732568 0 0 0 0 
2403333333.3333334923 0.173224702477455111404580634371 0.025215612724423408508300781250 0.002884845016524196104762411963 -0.001302416436374187903163290869 0 0 0 0 
2403500000.0000000000 0.172942981123924310882244981258 0.023977857083082199096679687500 0.002921195700764656066894531250 -0.001400444656610488891601562500 0 0 0 0 
2403666666.6666665077 0.172656819224357604980468750000 0.022714106366038318979283516796 0.002560192486271262168884277344 -0.001426078844815493063685751807 0 0 0 0 
2403833333.3333334923 0.172320187091827392578125000000 0.021503796800971031188964843750 0.002464913297444581985473632812 -0.001611863728612660928013466943 0 0 0 0 
2404000000.0000000000 0.172172024846076993087606865629 0.020306838676333430898646170704 0.002243905793875455856323242188 -0.001630331971682607910753559644 0 0 0 0 
2404166666.6666665077 0.171585410833358792404013115629 0.018893908709287639963170235546 0.002237291308119893074035644531 -0.001581474090926348946214985425 0 0 0 0 
2404333333.3333334923 0.171368569135665893554687500000 0.017724582925438880920410156250 0.002166864229366182847263955225 -0.001708566094748676040052104419 0 0 0 0 
2404500000.0000000000 0.170850798487663296798544365629 0.016231292858719829214075858204 0.002020291285589336915257119287 -0.001618097769096493937848735278 0 0 0 0 
2404666666.6666665077 0.170667052268981905838174384371 0.014757950790226459503173828125 0.001832998823374510028241801685 -0.001484708394855261065839457935 0 0 0 0 
2404833333.3333334923 0.170238360762596102615518134371 0.013232569210231300699254219921 0.001895742723718285994288779150 -0.001498655183240771076799702222 0 0 0 0 
2405000000.0000000000 0.170013159513473510742187500000 0.011596620082855229813545427930 0.001822076388634741089464497144 -0.001521319034509361007093120044 0 0 0 0 
2405166666.6666665077 0.169806316494941711425781250000 0.009794994257390499114990234375 0.001628593890927731990814208984 -0.001465272391214966990827250903 0 0 0 0 
2405333333.3333334923 0.169642418622970608810263115629 0.008093554526567459106445312500 0.001571820699609816074371337891 -0.001614840934053062958958291162 0 0 0 0 
2405500000.0000000000 0.169376999139785794357138115629 0.006507333368062973022460937500 0.001568488660268485979792929541 -0.001570937223732471899745322119 0 0 0 0 
2405666666.6666665077 0.169275268912315396407919365629 0.004788777325302361574654863574 0.001620645867660642103907919775 -0.001577576156705617904663085938 0 0 0 0 
2405833333.3333334923 0.168830201029777499099893134371 0.003070792648941278891322470557 0.001489197020418941974639892578 -0.001642482005991042093989706885 0 0 0 0 
2406000000.0000000000 0.168748766183853204925213731258 0.000847004354000091552734375000 0.001433931407518685080884623950 -0.001569734886288643100141215747 0 0 0 0 
2406166666.6666665077 0.168468236923217801193075615629 -0.000670123146846890449523925781 0.001448246650397777991053915869 -0.001820393488742410919786762769 0 0 0 0 
2406333333.3333334923 0.168398857116699190994424384371 -0.002437120769172906875610351562 0.001385341980494559028028178638 -0.001731025869958102919934916919 0 0 0 0 
2406500000.0000000000 0.168133586645126287262286268742 -0.004324637819081544876098632812 0.001181092346087097904802631909 -0.001933123450726270892499614185 0 0 0 0 
2406666666.6666665077 0.167800813913345309158486884371 -0.005995026323944330215454101562 0.001301424228586256937739706885 -0.001865825848653912977931357275 0 0 0 0 
2406833333.3333334923 0.167629972100257901290731865629 -0.007725026458501815795898437500 0.001200346392579376914380717700 -0.001895662280730902931810688550 0 0 0 0 
2407000000.0000000000 0.167472407221794100662393134371 -0.009633008390665054321289062500 0.001101395813748240904567099463 -0.001759521313942969062207866138 0 0 0 0 
2407166666.6666665077 0.167564123868942288497763115629 -0.011057547293603420257568359375 0.000986395287327468395233154297 -0.001881993259303271987317729419 0 0 0 0 
2407333333.3333334923 0.167253330349922207931356865629 -0.012738542631268499547014805273 0.000888889597263187170028686523 -0.001782751060090959072113037109 0 0 0 0 
2407500000.0000000000 0.167274877429008511642294365629 -0.014130863361060619354248046875 0.000993180903606116771697998047 -0.001685893395915627913234091650 0 0 0 0 
2407666666.6666665077 0.167223751544952392578125000000 -0.015553669072687629354456717579 0.000871278753038495779037475586 -0.001586424885317683003069233472 0 0 0 0 
2407833333.3333334923 0.167110487818718012054119981258 -0.016858641058206561696986014454 0.000693980196956545114517211914 -0.001634260872378944916966103662 0 0 0 0 
2408000000.0000000000 0.167268499732017489334268134371 -0.018367212265729900705357735546 0.000724623212590813636779785156 -0.001622358686290680928471230615 0 0 0 0 
2408166666.6666665077 0.167363226413726806640625000000 -0.019182397052645679819127266796 0.000761690898798406124114990234 -0.001557878218591213009477924878 0 0 0 0 
2408333333.3333334923 0.167748883366584805587606865629 -0.020325712859630591655690778907 0.000866668007802218198776245117 -0.001543074613437056975123740088 0 0 0 0 
2408500000.0000000000 0.167872950434684808929119981258 -0.021530084311962131154993826954 0.000747031241189688444137573242 -0.001355350599624216990229941260 0 0 0 0 
2408666666.6666665077 0.167996078729629488845986884371 -0.022533765062689781188964843750 0.000721490534488111734390258789 -0.001509241643361747048021626050 0 0 0 0 
2408833333.3333334923 0.168282523751258905608807481258 -0.023433005437254909170130545704 0.000775663531385362148284912109 -0.001629499252885580062866210938 0 0 0 0 
2409000000.0000000000 0.168776422739028902908486884371 -0.024349829182028770446777343750 0.000894268741831183433532714844 -0.001581362215802073912379599463 0 0 0 0 
2409166666.6666665077 0.168989554047584505935830634371 -0.025261748582124710083007812500 0.000982598518021404743194580078 -0.001520307268947362899780273438 0 0 0 0 
2409333333.3333334923 0.169516846537589999099893134371 -0.026223884895443919790247733204 0.000891927920747548341751098633 -0.001585004152730107090593647534 0 0 0 0 
2409500000.0000000000 0.169824048876762390136718750000 -0.027222042903304100036621093750 0.001004311372525990009307861328 -0.001665781601332128047943115234 0 0 0 0 
2409666666.6666665077 0.170218378305435208419638115629 -0.027965079993009570730189139454 0.001035975525155663923976279150 -0.001576447044499218897578574072 0 0 0 0 
2409833333.3333334923 0.170545190572738702972088731258 -0.028746781870722770690917968750 0.000945136998780071735382080078 -0.001681949011981487057329487378 0 0 0 0 
2410000000.0000000000 0.170907631516456604003906250000 -0.029556814581155780446986014454 0.001030625542625785090802836841 -0.001737855956889688968658447266 0 0 0 0 
2410166666.6666665077 0.171208113431930486481036268742 -0.030367398634552959096888358204 0.001110641402192414023755717700 -0.001804514089599251963971782153 0 0 0 0 
2410333333.3333334923 0.171480283141136197189169365629 -0.031229944899678230285644531250 0.001036229194141923947575234521 -0.001901216804981231906293559497 0 0 0 0 
2410500000.0000000000 0.171687066555023193359375000000 -0.032099079340696341777761091407 0.001059809699654578945757221753 -0.001969665754586458206176757812 0 0 0 0 
2410666666.6666665077 0.171857669949531610686932481258 -0.032996755093336112285573591407 0.001017965492792427973506308447 -0.002155825961381196975708007812 0 0 0 0 
2410833333.3333334923 0.172032028436660794357138115629 -0.033620815724134452129323591407 0.000958158227149397134780883789 -0.002141449367627501921412802588 0 0 0 0 
2411000000.0000000000 0.171850129961967496017294365629 -0.034240670502185821533203125000 0.001011444255709647915483784253 -0.002302150009199976921081542969 0 0 0 0 
2411166666.6666665077 0.171745061874389703948651231258 -0.034979287534952156757395158593 0.000964224338531494140625000000 -0.002423570957034825845005654443 0 0 0 0 
2411333333.3333334923 0.171796336770057705978231865629 -0.035783138126134872436523437500 0.000867876398842781782150268555 -0.002576268045231699943542480469 0 0 0 0 
2411500000.0000000000 0.171627417206764193435830634371 -0.036516793072223663330078125000 0.000794961815699934959411621094 -0.002477188594639300866367959131 0 0 0 0 
2411666666.6666665077 0.171718597412109402755575615629 -0.037016849964857101440429687500 0.000830707722343504428863525391 -0.002672797767445445060729980469 0 0 0 0 
2411833333.3333334923 0.171284765005111694335937500000 -0.037694029510021209716796875000 0.000530318589881062507629394531 -0.002863319590687752203700400244 0 0 0 0 
2412000000.0000000000 0.171405479311943109710369981258 -0.038495417684316642070729841407 0.000494627398438751697540283203 -0.002836065832525492148158408057 0 0 0 0 
2412166666.6666665077 0.170702174305915804763955634371 -0.039282299578189849853515625000 0.000394332513678818886906224384 -0.003052198328077793121337890625 0 0 0 0 
2412333333.3333334923 0.170521765947341891189736884371 -0.039811350405216217041015625000 0.000357536046067252809375208722 -0.003070418257266283035278320312 0 0 0 0 
2412500000.0000000000 0.170069113373756408691406250000 -0.040568139404058463359792341407 0.000220445610466413199901580811 -0.003133729565888642831089638818 0 0 0 0 
2412666666.6666665077 0.169777169823646600921307481258 -0.041283629834651947021484375000 -0.000025100471248151731083189317 -0.003320519579574466185328818213 0 0 0 0 
2412833333.3333334923 0.169282644987106295486611884371 -0.042329981923103332519531250000 0.000024763852707110348751748732 -0.003438292304053903059718466650 0 0 0 0 
2413000000.0000000000 0.168709933757782010177450615629 -0.042953450232744216918945312500 -0.000257801613770425319671630859 -0.003485531080514193014857626807 0 0 0 0 
2413166666.6666665077 0.167996615171432495117187500000 -0.043767374008893966674804687500 -0.000341239501722157001495361328 -0.003545543644577264785766601562 0 0 0 0 
2413333333.3333334923 0.167288273572921808440838731258 -0.044734988361597061157226562500 -0.000592225696891546249389648438 -0.003704033326357603073120117188 0 0 0 0 
2413500000.0000000000 0.166604459285736111739950615629 -0.045459784567356109619140625000 -0.000843857531435787677764892578 -0.003552050795406103134155273438 0 0 0 0 
2413666666.6666665077 0.166124701499938992599325615629 -0.046539649367332458496093750000 -0.001004096353426576094386435400 -0.003701454959809780120849609375 0 0 0 0 
2413833333.3333334923 0.165312409400939913650674384371 -0.047368418425321578979492187500 -0.001267508952878416018245077979 -0.003723697504028677940368652344 0 0 0 0 
2414000000.0000000000 0.164593651890754699707031250000 -0.048221901059150702739675153907 -0.001457043108530343012568808447 -0.003748616902157663865330361475 0 0 0 0 
2414166666.6666665077 0.163996860384941101074218750000 -0.049010399729013442993164062500 -0.001736538135446608066558837891 -0.003713616868481040000915527344 0 0 0 0 
2414333333.3333334923 0.163297042250633211990518134371 -0.050118520855903632427175153907 -0.001945556257851422049878764575 -0.003583282697945833206176757812 0 0 0 0 
2414500000.0000000000 0.162931576371192904373330634371 -0.050904147326946258544921875000 -0.002205109922215342955348349463 -0.003426400944590568976161337744 0 0 0 0 
2414666666.6666665077 0.162252396345138605315838731258 -0.051757156848907470703125000000 -0.002390423556789755821228027344 -0.003370314836502075195312500000 0 0 0 0 
2414833333.3333334923 0.161738499999046297928018134371 -0.053009930998086929321289062500 -0.002638733712956308884861611475 -0.003362564835697412924525595557 0 0 0 0 
2415000000.0000000000 0.161316871643066406250000000000 -0.053954523056745529174804687500 -0.002915104152634739875793457031 -0.003242017235606908798217773438 0 0 0 0 
2415166666.6666665077 0.160822972655296297928018134371 -0.055048074573278427124023437500 -0.002914650132879614830017089844 -0.003120181150734425024745322119 0 0 0 0 
2415333333.3333334923 0.160575270652770996093750000000 -0.056457821279764182353932966407 -0.003462088294327259063720703125 -0.002859059954062103791477822412 0 0 0 0 
2415500000.0000000000 0.160159975290298489669638115629 -0.057649478316307067871093750000 -0.003500330029055476188659667969 -0.002774045802652835845947265625 0 0 0 0 
2415666666.6666665077 0.159708067774772588531817518742 -0.058867454528808586811106096093 -0.003676045686006546020507812500 -0.002399461576715112166163779150 0 0 0 0 
2415833333.3333334923 0.159511625766754205901776231258 -0.060263529419898986816406250000 -0.003959733992815017700195312500 -0.002064014086499809785130166162 0 0 0 0 
2416000000.0000000000 0.159030109643936212737713731258 -0.061699733138084411621093750000 -0.003939498215913772583007812500 -0.001926973462104796929600381006 0 0 0 0 
2416166666.6666665077 0.158895730972290011306924384371 -0.063020192086696624755859375000 -0.003856894094496964974644326318 -0.001560780568979680971858359229 0 0 0 0 
2416333333.3333334923 0.158537253737449701507244981258 -0.064383000135421752929687500000 -0.004077554680407047271728515625 -0.001181475818157196044921875000 0 0 0 0 
2416500000.0000000000 0.158131331205367986481036268742 -0.065862253308296203613281250000 -0.003933737054467201232910156250 -0.000873814802616834640502929688 0 0 0 0 
2416666666.6666665077 0.157736465334892300704794365629 -0.067237697541713714599609375000 -0.003974570427089929580688476562 -0.000524488219525665044784545898 0 0 0 0 
2416833333.3333334923 0.157431557774543789962606865629 -0.068809814751148223876953125000 -0.003991638310253620147705078125 -0.000402587815187871510356348859 0 0 0 0 
2417000000.0000000000 0.156834363937377901931924384371 -0.070163853466510772705078125000 -0.003837715368717908859252929688 -0.000112465990241617004997791429 0 0 0 0 
2417166666.6666665077 0.156754121184349087814169365629 -0.071280837059020996093750000000 -0.003775923280045390129089355469 -0.000038967606087680912833621366 0 0 0 0 
2417333333.3333334923 0.156413689255714388748330634371 -0.072576768696308135986328125000 -0.003658355213701725006103515625 0.000152512453496456200450342999 0 0 0 0 
2417500000.0000000000 0.156123101711273193359375000000 -0.073984317481517791748046875000 -0.003430081764236093001124716650 0.000414240028476342613070887433 0 0 0 0 
2417666666.6666665077 0.155841290950775201995526231258 -0.074939526617527008056640625000 -0.003230053000152111053466796875 0.000573326658923178911209106445 0 0 0 0 
2417833333.3333334923 0.155712902545929010589276231258 -0.075937673449516296386718750000 -0.003219706239178777174708701025 0.000800973968580365180969238281 0 0 0 0 
2418000000.0000000000 0.155448570847511291503906250000 -0.077313892543315887451171875000 -0.002899646526202559904811240088 0.000929438101593405008316040039 0 0 0 0 
2418166666.6666665077 0.155199706554412786285723768742 -0.078163854777812957763671875000 -0.002766577759757637977600097656 0.000870620366185903549194335938 0 0 0 0 
2418333333.3333334923 0.155468538403511102874432481258 -0.079252518713474273681640625000 -0.002819021698087453842163085938 0.000928263005334883928298950195 0 0 0 0 
2418500000.0000000000 0.155127346515655489822549384371 -0.080313138663768768310546875000 -0.002665260341018437905552529443 0.001027827616780996105791401440 0 0 0 0 
2418666666.6666665077 0.155217990279197692871093750000 -0.081226378679275512695312500000 -0.002267026808112860159633017432 0.000875686120707541704177856445 0 0 0 0 
2418833333.3333334923 0.154960274696350097656250000000 -0.082179993391036987304687500000 -0.002137595554813743071315146338 0.000925308035220950841903686523 0 0 0 0 
2419000000.0000000000 0.154793784022331210037393134371 -0.082987867295742034912109375000 -0.002006859984248877005336142432 0.000956838426645845174789428711 0 0 0 0 
2419166666.6666665077 0.154667288064956692794638115629 -0.083828657865524291992187500000 -0.002083721803501247925999306787 0.000942399958148598670959472656 0 0 0 0 
2419333333.3333334923 0.154646873474121093750000000000 -0.084378443658351898193359375000 -0.001994138583540916009190224756 0.000670717854518443346023559570 0 0 0 0 
2419500000.0000000000 0.154450312256813104827557481258 -0.085348039865493774414062500000 -0.001857538358308375098584819263 0.000671503250487148761749267578 0 0 0 0 
2419666666.6666665077 0.154439881443977411468182481258 -0.086060784757137298583984375000 -0.002048872876912354989292763818 0.000649393245112150907516479492 0 0 0 0 
2419833333.3333334923 0.154264971613883999923544365629 -0.086352787911891937255859375000 -0.002018042607232927842381142725 0.000690635642968118190765380859 0 0 0 0 
