# Version 1.00
#
freq[Hz];re:Trc1_S11;im:Trc1_S11;re:Trc2_S21;im:Trc2_S21;
2.400000000000000E+009;1.687394231557846E-001;4.578705132007599E-002;-6.410011555999517E-003;4.674517258536071E-004;
2.400166666666667E+009;1.699395924806595E-001;4.477671533823013E-002;-6.415630225092173E-003;5.561807774938643E-004;
2.400333333333334E+009;1.707145869731903E-001;4.355468600988388E-002;-6.239695940166712E-003;9.468345670029521E-004;
2.400500000000000E+009;1.718319952487946E-001;4.258901998400688E-002;-6.266841199249029E-003;1.276219147257507E-003;
2.400666666666667E+009;1.726661175489426E-001;4.149565100669861E-002;-6.092519033700228E-003;1.533401082269847E-003;
2.400833333333334E+009;1.736597418785095E-001;4.077291861176491E-002;-5.900976248085499E-003;1.977242995053530E-003;
2.401000000000000E+009;1.745610684156418E-001;3.989608213305473E-002;-5.664747208356857E-003;2.208295045420528E-003;
2.401166666666667E+009;1.752868294715881E-001;3.930193558335304E-002;-5.589161068201065E-003;2.586700953543186E-003;
2.401333333333334E+009;1.759715825319290E-001;3.848622366786003E-002;-5.430916324257851E-003;2.793207997456193E-003;
2.401500000000000E+009;1.766679435968399E-001;3.789291158318520E-002;-5.247136577963829E-003;2.920909784734249E-003;
2.401666666666667E+009;1.772787123918533E-001;3.731110692024231E-002;-5.010513588786125E-003;3.119661705568433E-003;
2.401833333333334E+009;1.780043840408325E-001;3.668235614895821E-002;-5.031204782426357E-003;3.324704710394144E-003;
2.402000000000000E+009;1.782303601503372E-001;3.621434420347214E-002;-4.667951259762049E-003;3.570326138287783E-003;
2.402166666666667E+009;1.786475479602814E-001;3.548362106084824E-002;-4.382121842354536E-003;3.692182013764978E-003;
2.402333333333334E+009;1.791545450687408E-001;3.509433567523956E-002;-4.324337467551231E-003;4.065878689289093E-003;
2.402500000000000E+009;1.796579957008362E-001;3.431208804249764E-002;-3.782749176025391E-003;4.168071784079075E-003;
2.402666666666667E+009;1.798399239778519E-001;3.366618230938911E-002;-3.633651882410049E-003;4.431794863194227E-003;
2.402833333333334E+009;1.797572523355484E-001;3.306528180837631E-002;-3.209497546777129E-003;4.598245490342379E-003;
2.403000000000000E+009;1.798101067543030E-001;3.231332078576088E-002;-2.908293390646577E-003;4.756344482302666E-003;
2.403166666666667E+009;1.798685193061829E-001;3.166480734944344E-002;-2.533495891839266E-003;4.793238826096058E-003;
2.403333333333334E+009;1.799717098474503E-001;3.072317317128182E-002;-2.207476878538728E-003;4.743971396237612E-003;
2.403500000000000E+009;1.796735972166061E-001;2.982515841722488E-002;-2.072277013212442E-003;4.796114750206471E-003;
2.403666666666667E+009;1.794495731592178E-001;2.895458042621613E-002;-1.566425780765712E-003;4.592408426105976E-003;
2.403833333333334E+009;1.792257428169251E-001;2.774222567677498E-002;-1.415717299096286E-003;4.617857746779919E-003;
2.404000000000000E+009;1.788200289011002E-001;2.674437314271927E-002;-1.075448002666235E-003;4.628262948244810E-003;
2.404166666666667E+009;1.785370111465454E-001;2.560791000723839E-002;-7.976118358783424E-004;4.385532811284065E-003;
2.404333333333334E+009;1.780377328395844E-001;2.424727939069271E-002;-2.663619816303253E-004;4.213763866573572E-003;
2.404500000000000E+009;1.774113923311234E-001;2.296926453709602E-002;-2.285256632603705E-004;4.130092915147543E-003;
2.404666666666667E+009;1.770018339157105E-001;2.166813053190708E-002;-1.706692128209397E-004;3.933973144739866E-003;
2.404833333333334E+009;1.765939444303513E-001;2.017028257250786E-002;1.818452437873930E-005;3.805922111496329E-003;
2.405000000000000E+009;1.759565770626068E-001;1.870395429432392E-002;2.007521397899836E-004;3.681096946820617E-003;
2.405166666666667E+009;1.755590140819550E-001;1.717217639088631E-002;5.157348350621760E-004;3.453360870480537E-003;
2.405333333333334E+009;1.751027256250382E-001;1.542224641889334E-002;3.964204224757850E-004;3.194204997271299E-003;
2.405500000000000E+009;1.746269464492798E-001;1.396927796304226E-002;6.526387878693640E-004;3.184453118592501E-003;
2.405666666666667E+009;1.742578744888306E-001;1.229223329573870E-002;7.687582401558757E-004;2.743353135883808E-003;
2.405833333333334E+009;1.736264824867249E-001;1.047436054795981E-002;7.509701536037028E-004;2.678098389878869E-003;
2.406000000000000E+009;1.734406501054764E-001;8.495160378515720E-003;7.103018579073250E-004;2.438561525195837E-003;
2.406166666666667E+009;1.730310171842575E-001;6.784525234252214E-003;7.168892771005631E-004;2.292069373652339E-003;
2.406333333333334E+009;1.730484366416931E-001;4.760727752000094E-003;5.487122689373791E-004;2.276368672028184E-003;
2.406500000000000E+009;1.726662516593933E-001;2.794746309518814E-003;7.473388686776161E-004;2.030052943155170E-003;
2.406666666666667E+009;1.726076304912567E-001;8.642782340757549E-004;5.871282774023712E-004;1.880550058558583E-003;
2.406833333333334E+009;1.725832372903824E-001;-1.275438116863370E-003;5.796940531581640E-004;1.770906266756356E-003;
2.407000000000000E+009;1.724947988986969E-001;-3.411736572161317E-003;4.609904717653990E-004;1.651572878472507E-003;
2.407166666666667E+009;1.727375686168671E-001;-5.372762214392424E-003;5.039222887717187E-004;1.576617010869086E-003;
2.407333333333334E+009;1.728090047836304E-001;-7.659076247364283E-003;2.144150930689648E-004;1.559642725624144E-003;
2.407500000000000E+009;1.730846315622330E-001;-9.557239711284638E-003;4.217166861053556E-005;1.357054337859154E-003;
2.407666666666667E+009;1.731621325016022E-001;-1.160006597638130E-002;-1.226204767590389E-004;1.568595878779888E-003;
2.407833333333334E+009;1.733159124851227E-001;-1.389387343078852E-002;-5.689517274731770E-005;1.531382673420012E-003;
2.408000000000000E+009;1.738222837448120E-001;-1.604427024722099E-002;-3.762160777114332E-004;1.527264481410384E-003;
2.408166666666667E+009;1.741092503070831E-001;-1.790265180170536E-002;-2.930388436652720E-004;1.600176212377846E-003;
2.408333333333334E+009;1.746819317340851E-001;-1.964425481855869E-002;-3.190802817698568E-004;1.741576124913991E-003;
2.408500000000000E+009;1.750236898660660E-001;-2.172455377876759E-002;-4.809302918147296E-004;1.802787417545915E-003;
2.408666666666667E+009;1.754550635814667E-001;-2.372376807034016E-002;-5.729166441597045E-004;1.937354914844036E-003;
2.408833333333334E+009;1.755805313587189E-001;-2.529705129563808E-002;-4.438092000782490E-004;2.039800398051739E-003;
2.409000000000000E+009;1.760811805725098E-001;-2.703151479363442E-002;-4.192391934338957E-004;2.218369627371430E-003;
2.409166666666667E+009;1.765213608741760E-001;-2.857459709048271E-002;-3.478086728136987E-004;2.262058900669217E-003;
2.409333333333334E+009;1.771365404129028E-001;-2.988391928374767E-002;-3.582366043701768E-004;2.466978272423148E-003;
2.409500000000000E+009;1.777101606130600E-001;-3.147815167903900E-002;-2.346017136005685E-004;2.534697297960520E-003;
2.409666666666667E+009;1.780590713024139E-001;-3.263482451438904E-002;-2.470048202667385E-004;2.576542319729924E-003;
2.409833333333334E+009;1.782952994108200E-001;-3.373274579644203E-002;-1.449987030355260E-004;2.757812151685357E-003;
2.410000000000000E+009;1.789904683828354E-001;-3.471571952104569E-002;1.248365151695907E-004;2.853417536243796E-003;
2.410166666666667E+009;1.793673336505890E-001;-3.562713786959648E-002;1.691728248260915E-004;3.019744530320168E-003;
2.410333333333334E+009;1.799450814723969E-001;-3.652163222432137E-002;4.211391787976027E-004;3.023757832124829E-003;
2.410500000000000E+009;1.802850961685181E-001;-3.736405074596405E-002;4.299222491681576E-004;3.180811414495111E-003;
2.410666666666667E+009;1.806605607271195E-001;-3.824370726943016E-002;6.849195924587548E-004;3.016303060576320E-003;
2.410833333333334E+009;1.810569316148758E-001;-3.859511762857437E-002;8.651877287775278E-004;3.164660185575485E-003;
2.411000000000000E+009;1.814264208078384E-001;-3.932055458426476E-002;1.086888602003455E-003;3.193263430148363E-003;
2.411166666666667E+009;1.815456300973892E-001;-3.993000462651253E-002;1.243194332346320E-003;3.239068435505033E-003;
2.411333333333334E+009;1.816318333148956E-001;-4.049842432141304E-002;1.521133817732334E-003;3.250451991334558E-003;
2.411500000000000E+009;1.816749423742294E-001;-4.100553318858147E-002;1.633915118873119E-003;2.965703839436173E-003;
2.411666666666667E+009;1.818697154521942E-001;-4.133654013276100E-002;1.748696551658213E-003;2.939656609669328E-003;
2.411833333333334E+009;1.818124204874039E-001;-4.159479588270187E-002;2.074628369882703E-003;2.601251937448978E-003;
2.412000000000000E+009;1.817500591278076E-001;-4.223099350929260E-002;2.217967296019197E-003;2.590660005807877E-003;
2.412166666666667E+009;1.812204569578171E-001;-4.245286434888840E-002;2.472180873155594E-003;2.387741813436151E-003;
2.412333333333334E+009;1.809972375631332E-001;-4.267951473593712E-002;2.371850190684199E-003;2.070371527224779E-003;
2.412500000000000E+009;1.806383430957794E-001;-4.304823279380798E-002;2.539175096899271E-003;2.004534471780062E-003;
2.412666666666667E+009;1.799906492233276E-001;-4.359125345945358E-002;2.657274249941111E-003;1.820188481360674E-003;
2.412833333333334E+009;1.794537007808685E-001;-4.389807209372520E-002;2.804111689329147E-003;1.480126986280084E-003;
2.413000000000000E+009;1.785694062709808E-001;-4.434593021869659E-002;2.665508771315217E-003;1.322500756941736E-003;
2.413166666666667E+009;1.778296828269959E-001;-4.477967694401741E-002;2.612062264233828E-003;1.064167241565883E-003;
2.413333333333334E+009;1.768086552619934E-001;-4.517729207873344E-002;2.589623676612973E-003;8.880138047970831E-004;
2.413500000000000E+009;1.759770363569260E-001;-4.575472325086594E-002;2.447338541969657E-003;6.958214798942208E-004;
2.413666666666667E+009;1.748627722263336E-001;-4.623397439718247E-002;2.370607806369662E-003;6.047921488061547E-004;
2.413833333333334E+009;1.738204360008240E-001;-4.672811925411224E-002;2.374536124989390E-003;4.085002292413265E-004;
2.414000000000000E+009;1.724381893873215E-001;-4.740745201706886E-002;2.111466601490974E-003;2.647482324391604E-004;
2.414166666666667E+009;1.713840216398239E-001;-4.812796041369438E-002;1.839943462982774E-003;2.976265677716583E-004;
2.414333333333334E+009;1.703052371740341E-001;-4.899716749787331E-002;1.922520459629595E-003;1.242095459019765E-004;
2.414500000000000E+009;1.692875176668167E-001;-4.984468594193459E-002;1.623849151656032E-003;1.125873968703672E-004;
2.414666666666667E+009;1.679672598838806E-001;-5.061251670122147E-002;1.387294498272240E-003;1.446053793188185E-004;
2.414833333333334E+009;1.666845232248306E-001;-5.158977583050728E-002;1.290283165872097E-003;2.306466049049050E-004;
2.415000000000000E+009;1.654502004384995E-001;-5.267072468996048E-002;1.127561437897384E-003;1.668550830800086E-004;
2.415166666666667E+009;1.641932576894760E-001;-5.403482541441917E-002;1.125053269788623E-003;2.731626154854894E-004;
2.415333333333334E+009;1.630817055702210E-001;-5.542367696762085E-002;1.023797551169992E-003;3.914237022399902E-004;
2.415500000000000E+009;1.620704680681229E-001;-5.654430389404297E-002;9.375279187224805E-004;5.687798256985843E-004;
2.415666666666667E+009;1.608698517084122E-001;-5.799584835767746E-002;7.923293742351234E-004;6.304627167992294E-004;
2.415833333333334E+009;1.597687005996704E-001;-5.957973375916481E-002;7.733649108558893E-004;7.274277741089463E-004;
2.416000000000000E+009;1.585588455200195E-001;-6.123964488506317E-002;7.417803863063455E-004;7.541871163994074E-004;
2.416166666666667E+009;1.577690988779068E-001;-6.288530677556992E-002;6.632209406234324E-004;8.030143217183650E-004;
2.416333333333334E+009;1.567728072404862E-001;-6.463722139596939E-002;8.029186865314841E-004;9.937427239492536E-004;
2.416500000000000E+009;1.557639688253403E-001;-6.650959700345993E-002;8.328913827426732E-004;1.052999868988991E-003;
2.416666666666667E+009;1.550081372261047E-001;-6.831458210945129E-002;9.913183748722076E-004;1.207362511195242E-003;
2.416833333333334E+009;1.542524397373200E-001;-7.027967274188995E-002;8.766763494350016E-004;1.126215443946421E-003;
2.417000000000000E+009;1.532644480466843E-001;-7.215232402086258E-002;8.819937356747687E-004;1.368242898024619E-003;
2.417166666666667E+009;1.525464504957199E-001;-7.412565499544144E-002;1.027294434607029E-003;1.454472891055048E-003;
2.417333333333334E+009;1.520220786333084E-001;-7.581902295351028E-002;1.123755471780896E-003;1.387550495564938E-003;
2.417500000000000E+009;1.513702273368835E-001;-7.802803069353104E-002;1.329940860159695E-003;1.482276711612940E-003;
2.417666666666667E+009;1.510399878025055E-001;-7.974839210510254E-002;1.200458500534296E-003;1.638590823858976E-003;
2.417833333333334E+009;1.506046503782272E-001;-8.148457109928131E-002;1.353211351670325E-003;1.628071768209338E-003;
2.418000000000000E+009;1.501615196466446E-001;-8.346231281757355E-002;1.406547264195979E-003;1.702670357190073E-003;
2.418166666666667E+009;1.498494148254395E-001;-8.507706224918366E-002;1.504780258983374E-003;1.776638906449080E-003;
2.418333333333334E+009;1.500019133090973E-001;-8.686247467994690E-002;1.562201767228544E-003;1.886530662886798E-003;
2.418500000000000E+009;1.496232599020004E-001;-8.845406025648117E-002;1.721009262837470E-003;1.972225029021502E-003;
2.418666666666667E+009;1.497044265270233E-001;-9.000033140182495E-002;2.045661443844438E-003;2.050826326012611E-003;
2.418833333333334E+009;1.493933349847794E-001;-9.157794713973999E-002;2.187869511544704E-003;2.134987618774176E-003;
2.419000000000000E+009;1.494433879852295E-001;-9.280956536531448E-002;2.323247725144029E-003;2.229970879852772E-003;
2.419166666666667E+009;1.495395153760910E-001;-9.407342970371246E-002;2.570153679698706E-003;2.310305600985885E-003;
2.419333333333334E+009;1.493857651948929E-001;-9.501615911722183E-002;2.981656696647406E-003;2.274448052048683E-003;
2.419500000000000E+009;1.496773064136505E-001;-9.629778563976288E-002;3.075423417612910E-003;2.268691780045629E-003;
2.419666666666667E+009;1.498707979917526E-001;-9.730345010757446E-002;3.198519581928849E-003;2.182330470532179E-003;
2.419833333333334E+009;1.499801874160767E-001;-9.791378676891327E-002;3.678984241560102E-003;2.144825179129839E-003;
2.420000000000000E+009;1.502380669116974E-001;-9.852506965398789E-002;3.909933846443892E-003;2.036770572885871E-003;
2.420166666666667E+009;1.505174636840820E-001;-9.920740127563477E-002;4.050739109516144E-003;1.821607351303101E-003;
2.420333333333334E+009;1.507567763328552E-001;-9.953047335147858E-002;4.468847531825304E-003;1.755998353473842E-003;
2.420500000000000E+009;1.510218381881714E-001;-9.993202984333038E-002;4.584507551044226E-003;1.463315566070378E-003;
2.420666666666667E+009;1.513398140668869E-001;-1.001750305294991E-001;4.998397082090378E-003;1.236675423569977E-003;
2.420833333333334E+009;1.515632271766663E-001;-1.006169170141220E-001;5.222161766141653E-003;9.465753682889044E-004;
2.421000000000000E+009;1.516583710908890E-001;-1.005644425749779E-001;5.523185711354017E-003;6.987928645685315E-004;
2.421166666666667E+009;1.518675535917282E-001;-1.006217002868652E-001;5.498887505382299E-003;3.243671671953052E-004;
2.421333333333334E+009;1.521068066358566E-001;-1.006152704358101E-001;5.729948170483112E-003;-3.602122524171136E-005;
2.421500000000000E+009;1.521536260843277E-001;-1.003236845135689E-001;5.781286861747503E-003;-3.339224494993687E-004;
2.421666666666667E+009;1.521132588386536E-001;-1.001867800951004E-001;5.916347261518240E-003;-7.217495585791767E-004;
2.421833333333334E+009;1.520057469606400E-001;-1.000837162137032E-001;5.837589502334595E-003;-1.103280228562653E-003;
2.422000000000000E+009;1.518147736787796E-001;-9.969864785671234E-002;6.003954447805882E-003;-1.559899421408773E-003;
2.422166666666667E+009;1.515822410583496E-001;-9.965226054191589E-002;5.914663430303335E-003;-1.917575951665640E-003;
2.422333333333334E+009;1.513689309358597E-001;-9.916584938764572E-002;5.999095737934113E-003;-2.402228768914938E-003;
2.422500000000000E+009;1.508382856845856E-001;-9.866115450859070E-002;5.792291834950447E-003;-2.781181596219540E-003;
2.422666666666667E+009;1.502335518598557E-001;-9.851389378309250E-002;5.600492469966412E-003;-3.106713294982910E-003;
2.422833333333334E+009;1.495066136121750E-001;-9.823601692914963E-002;5.389621015638113E-003;-3.538669086992741E-003;
2.423000000000000E+009;1.488859951496124E-001;-9.763942658901215E-002;5.378768779337406E-003;-3.934997599571943E-003;
2.423166666666667E+009;1.482413709163666E-001;-9.756543487310410E-002;5.138857290148735E-003;-4.445808008313179E-003;
2.423333333333334E+009;1.471236795186997E-001;-9.710031002759934E-002;4.842036869376898E-003;-4.650133196264505E-003;
2.423500000000000E+009;1.461743414402008E-001;-9.698943048715591E-002;4.476031288504601E-003;-4.969931207597256E-003;
2.423666666666667E+009;1.448731124401093E-001;-9.677947312593460E-002;4.165790043771267E-003;-5.158778280019760E-003;
2.423833333333334E+009;1.439556926488876E-001;-9.638274461030960E-002;3.779507474973798E-003;-5.415527615696192E-003;
2.424000000000000E+009;1.425557732582092E-001;-9.618929773569107E-002;3.417572705075145E-003;-5.608579609543085E-003;
2.424166666666667E+009;1.411608606576920E-001;-9.617756307125092E-002;3.050799947232008E-003;-5.828097462654114E-003;
2.424333333333334E+009;1.399518549442291E-001;-9.605532139539719E-002;2.863926580175757E-003;-5.829721689224243E-003;
2.424500000000000E+009;1.384762972593308E-001;-9.609907865524292E-002;2.566144103184342E-003;-6.011791527271271E-003;
2.424666666666667E+009;1.371252089738846E-001;-9.607209265232086E-002;2.080451697111130E-003;-6.121260114014149E-003;
2.424833333333334E+009;1.355091780424118E-001;-9.618187695741653E-002;1.782504259608686E-003;-6.147107109427452E-003;
2.425000000000000E+009;1.341269165277481E-001;-9.663634002208710E-002;1.418889616616070E-003;-6.261524744331837E-003;
2.425166666666667E+009;1.324747949838638E-001;-9.712509810924530E-002;1.133619691245258E-003;-6.155963987112045E-003;
2.425333333333334E+009;1.310885697603226E-001;-9.759543836116791E-002;8.482263656333089E-004;-6.105394102632999E-003;
2.425500000000000E+009;1.295752823352814E-001;-9.826768189668655E-002;4.443218349479139E-004;-6.102291401475668E-003;
2.425666666666667E+009;1.280920058488846E-001;-9.891673177480698E-002;4.222074494464323E-006;-6.174046546220779E-003;
2.425833333333334E+009;1.266282945871353E-001;-9.978013485670090E-002;-2.147729719581548E-005;-6.117749493569136E-003;
2.426000000000000E+009;1.254194676876068E-001;-1.008627712726593E-001;-5.215437267906964E-004;-5.815356038510799E-003;
2.426166666666667E+009;1.241433992981911E-001;-1.020169183611870E-001;-6.728664739057422E-004;-5.685180891305208E-003;
2.426333333333334E+009;1.226713806390762E-001;-1.031680628657341E-001;-8.284125942736864E-004;-5.750533659011126E-003;
2.426500000000000E+009;1.215834915637970E-001;-1.044482141733170E-001;-1.121349632740021E-003;-5.685739684849978E-003;
2.426666666666667E+009;1.204298213124275E-001;-1.056355535984039E-001;-1.454089768230915E-003;-5.429617129266262E-003;
2.426833333333334E+009;1.192101463675499E-001;-1.073085665702820E-001;-1.512091141194105E-003;-5.279525183141232E-003;
2.427000000000000E+009;1.181942075490952E-001;-1.089011207222939E-001;-1.879547140561044E-003;-5.176636856049299E-003;
2.427166666666667E+009;1.171813085675240E-001;-1.102727949619293E-001;-1.850087428465486E-003;-4.886343143880367E-003;
2.427333333333334E+009;1.161730140447617E-001;-1.119786947965622E-001;-1.953375060111284E-003;-4.789161030203104E-003;
2.427500000000000E+009;1.155208498239517E-001;-1.137200519442558E-001;-2.208658959716559E-003;-4.572480916976929E-003;
2.427666666666667E+009;1.147899478673935E-001;-1.153761371970177E-001;-2.376493765041232E-003;-4.500961396843195E-003;
2.427833333333334E+009;1.140586659312248E-001;-1.170541718602181E-001;-2.344418317079544E-003;-4.419918637722731E-003;
