# Version 1.00
#
freq[Hz];re:Trc1_S11;im:Trc1_S11;re:Trc2_S21;im:Trc2_S21;
2.400000000000000E+009;1.688174605369568E-001;4.580259695649147E-002;-6.492156069725752E-003;4.797828150913119E-004;
2.400166666666667E+009;1.697494536638260E-001;4.487320035696030E-002;-6.339678075164557E-003;7.512034499086440E-004;
2.400333333333334E+009;1.708469241857529E-001;4.369265958666802E-002;-6.311107426881790E-003;9.203013032674789E-004;
2.400500000000000E+009;1.719542145729065E-001;4.251663759350777E-002;-6.199448835104704E-003;1.173262600786984E-003;
2.400666666666667E+009;1.727847009897232E-001;4.178424924612045E-002;-5.908043589442968E-003;1.737482962198556E-003;
2.400833333333334E+009;1.736624836921692E-001;4.093553125858307E-002;-5.853028502315283E-003;1.834404887631536E-003;
2.401000000000000E+009;1.743272542953491E-001;4.013220965862274E-002;-5.622078198939562E-003;2.094537019729614E-003;
2.401166666666667E+009;1.753046363592148E-001;3.927444666624069E-002;-5.606966558843851E-003;2.362860832363367E-003;
2.401333333333334E+009;1.759959459304810E-001;3.856851533055306E-002;-5.264785140752792E-003;2.669425914064050E-003;
2.401500000000000E+009;1.767620444297791E-001;3.799827769398689E-002;-5.117846187204123E-003;2.954370109364390E-003;
2.401666666666667E+009;1.771766096353531E-001;3.753652423620224E-002;-5.035514477640390E-003;3.211805131286383E-003;
2.401833333333334E+009;1.778098493814468E-001;3.669797629117966E-002;-4.835373722016811E-003;3.355568274855614E-003;
2.402000000000000E+009;1.782512515783310E-001;3.641606867313385E-002;-4.550783894956112E-003;3.630131017416716E-003;
2.402166666666667E+009;1.788827925920487E-001;3.551066666841507E-002;-4.459877498447895E-003;3.782658604905009E-003;
2.402333333333334E+009;1.790123283863068E-001;3.499953076243401E-002;-3.998239524662495E-003;4.058423917740583E-003;
2.402500000000000E+009;1.795791983604431E-001;3.440876677632332E-002;-3.831394482403994E-003;4.216072615236044E-003;
2.402666666666667E+009;1.797720640897751E-001;3.375936299562454E-002;-3.505295142531395E-003;4.417940974235535E-003;
2.402833333333334E+009;1.799392849206924E-001;3.328236192464829E-002;-3.230978967621923E-003;4.516023211181164E-003;
2.403000000000000E+009;1.799144893884659E-001;3.238333016633987E-002;-2.791516482830048E-003;4.532791208475828E-003;
2.403166666666667E+009;1.798686683177948E-001;3.149104490876198E-002;-2.418845193460584E-003;4.629296250641346E-003;
2.403333333333334E+009;1.798291504383087E-001;3.088551387190819E-002;-2.118431963026524E-003;4.611750598996878E-003;
2.403500000000000E+009;1.797438561916351E-001;3.003584593534470E-002;-1.923859119415283E-003;4.643457941710949E-003;
2.403666666666667E+009;1.794944703578949E-001;2.890294231474400E-002;-1.598287955857813E-003;4.689360503107309E-003;
2.403833333333334E+009;1.791436672210693E-001;2.792812325060368E-002;-1.126612187363207E-003;4.530045669525862E-003;
2.404000000000000E+009;1.789563894271851E-001;2.679762244224548E-002;-1.020110910758376E-003;4.487357102334499E-003;
2.404166666666667E+009;1.783762425184250E-001;2.575235813856125E-002;-7.079740753397346E-004;4.376312252134085E-003;
2.404333333333334E+009;1.780959814786911E-001;2.447986975312233E-002;-4.526462580543011E-004;4.233653191477060E-003;
2.404500000000000E+009;1.774080693721771E-001;2.313797548413277E-002;-3.165984817314893E-004;4.111592657864094E-003;
2.404666666666667E+009;1.770271807909012E-001;2.171450108289719E-002;-3.820474375970662E-005;3.864734200760722E-003;
2.404833333333334E+009;1.764649748802185E-001;2.024145051836968E-002;1.758572616381571E-004;3.871824592351914E-003;
2.405000000000000E+009;1.760029941797257E-001;1.884653046727181E-002;2.044101274805144E-004;3.517745994031429E-003;
2.405166666666667E+009;1.754506081342697E-001;1.731749996542931E-002;3.778549144044519E-004;3.405598225072026E-003;
2.405333333333334E+009;1.750890463590622E-001;1.549698971211910E-002;4.751174419652671E-004;3.194349817931652E-003;
2.405500000000000E+009;1.746249943971634E-001;1.396914757788181E-002;3.636668843682855E-004;3.088235622271895E-003;
2.405666666666667E+009;1.741754412651062E-001;1.227986905723810E-002;7.269473862834275E-004;2.922934480011463E-003;
2.405833333333334E+009;1.737522482872009E-001;1.059397310018539E-002;6.511138053610921E-004;2.741792937740684E-003;
2.406000000000000E+009;1.735445261001587E-001;8.554507046937943E-003;7.818269077688456E-004;2.611898118630052E-003;
2.406166666666667E+009;1.731327772140503E-001;6.634819786995649E-003;7.880954071879387E-004;2.369915600866079E-003;
2.406333333333334E+009;1.731520295143127E-001;4.752814769744873E-003;6.701153470203280E-004;2.027572831138969E-003;
2.406500000000000E+009;1.728606671094894E-001;2.784400945529342E-003;6.720721721649170E-004;2.072094008326531E-003;
2.406666666666667E+009;1.725103557109833E-001;7.834593998268247E-004;4.131612950004637E-004;1.822594087570906E-003;
2.406833333333334E+009;1.725480705499649E-001;-1.248645363375545E-003;6.085497443564236E-004;1.682306057773531E-003;
2.407000000000000E+009;1.726806461811066E-001;-3.467131871730089E-003;4.064462846145034E-004;1.702889800071716E-003;
2.407166666666667E+009;1.728941500186920E-001;-5.438943859189749E-003;3.619658236857504E-004;1.492906012572348E-003;
2.407333333333334E+009;1.727614402770996E-001;-7.643288001418114E-003;2.684537321329117E-004;1.267847721464932E-003;
2.407500000000000E+009;1.730273216962814E-001;-9.614764712750912E-003;-2.376444899709895E-005;1.501078368164599E-003;
2.407666666666667E+009;1.732477992773056E-001;-1.168043166399002E-002;-1.168242015410215E-004;1.523373299278319E-003;
2.407833333333334E+009;1.735015511512756E-001;-1.388632226735354E-002;-8.962099673226476E-005;1.365228090435267E-003;
2.408000000000000E+009;1.737532615661621E-001;-1.602212712168694E-002;-3.165726957377046E-004;1.611395273357630E-003;
2.408166666666667E+009;1.741051971912384E-001;-1.789980195462704E-002;-3.485282359179109E-004;1.553154201246798E-003;
2.408333333333334E+009;1.747003644704819E-001;-1.980865560472012E-002;-3.577635216061026E-004;1.697912113741040E-003;
2.408500000000000E+009;1.750153601169586E-001;-2.174321189522743E-002;-4.865592345595360E-004;1.892218017019332E-003;
2.408666666666667E+009;1.754177212715149E-001;-2.357663773000240E-002;-5.926174926571548E-004;1.822642749175429E-003;
2.408833333333334E+009;1.758471131324768E-001;-2.532439678907394E-002;-4.775099805556238E-004;2.085937419906259E-003;
2.409000000000000E+009;1.760861128568649E-001;-2.711320854723454E-002;-4.854808794334531E-004;2.171289641410112E-003;
2.409166666666667E+009;1.766873747110367E-001;-2.867128513753414E-002;-4.962278180755675E-004;2.434668829664588E-003;
2.409333333333334E+009;1.772451400756836E-001;-3.014848567545414E-002;-4.362869949545711E-004;2.432884182780981E-003;
2.409500000000000E+009;1.775834262371063E-001;-3.145691752433777E-002;-3.035502741113305E-004;2.563946181908250E-003;
2.409666666666667E+009;1.780596077442169E-001;-3.268001973628998E-002;-2.867552684620023E-004;2.665652893483639E-003;
2.409833333333334E+009;1.784125864505768E-001;-3.383116424083710E-002;-1.516870688647032E-004;2.773823915049434E-003;
2.410000000000000E+009;1.790833175182343E-001;-3.483724966645241E-002;4.960002843290567E-005;2.790961880236864E-003;
2.410166666666667E+009;1.794133186340332E-001;-3.577130660414696E-002;2.167624625144526E-004;2.933877985924482E-003;
2.410333333333334E+009;1.798001974821091E-001;-3.661522269248962E-002;3.114912833552808E-004;3.086265176534653E-003;
2.410500000000000E+009;1.802453100681305E-001;-3.736747056245804E-002;5.252413684502244E-004;3.102925140410662E-003;
2.410666666666667E+009;1.805394589900971E-001;-3.819983452558518E-002;6.264711264520884E-004;3.085246775299311E-003;
2.410833333333334E+009;1.809142529964447E-001;-3.879318013787270E-002;9.906993946060538E-004;3.015524242073298E-003;
2.411000000000000E+009;1.812539994716644E-001;-3.937179222702980E-002;9.926065104082227E-004;2.992569003254175E-003;
2.411166666666667E+009;1.815471649169922E-001;-4.004617780447006E-002;1.236639567650855E-003;2.968157175928354E-003;
2.411333333333334E+009;1.817932277917862E-001;-4.047396406531334E-002;1.574966707266867E-003;2.910213544964790E-003;
2.411500000000000E+009;1.818012446165085E-001;-4.107184708118439E-002;1.551384688355029E-003;2.848837990313768E-003;
2.411666666666667E+009;1.818820089101791E-001;-4.146042838692665E-002;1.931859762407839E-003;2.792951185256243E-003;
2.411833333333334E+009;1.818369477987289E-001;-4.167584329843521E-002;2.198217203840613E-003;2.526757540181279E-003;
2.412000000000000E+009;1.815945506095886E-001;-4.210506752133369E-002;2.193211577832699E-003;2.362670144066215E-003;
2.412166666666667E+009;1.812039315700531E-001;-4.265464097261429E-002;2.328783040866256E-003;2.142726676538587E-003;
2.412333333333334E+009;1.811279952526093E-001;-4.266814514994621E-002;2.463063923642039E-003;1.941974624060094E-003;
2.412500000000000E+009;1.804782599210739E-001;-4.321897402405739E-002;2.613692777231336E-003;2.006179885938764E-003;
2.412666666666667E+009;1.798566132783890E-001;-4.373724386096001E-002;2.626156900078058E-003;1.594103174284101E-003;
2.412833333333334E+009;1.794644594192505E-001;-4.391092434525490E-002;2.472353866323829E-003;1.409891876392067E-003;
2.413000000000000E+009;1.785765141248703E-001;-4.419291764497757E-002;2.652899594977498E-003;1.250631059519947E-003;
2.413166666666667E+009;1.777278631925583E-001;-4.475112259387970E-002;2.492431318387389E-003;9.573361021466553E-004;
2.413333333333334E+009;1.767388284206390E-001;-4.514276981353760E-002;2.317131264135242E-003;8.489151368848980E-004;
2.413500000000000E+009;1.760178953409195E-001;-4.577533900737763E-002;2.307726303115487E-003;6.606427486985922E-004;
2.413666666666667E+009;1.750139594078064E-001;-4.624479264020920E-002;2.076266566291452E-003;5.518358084373176E-004;
2.413833333333334E+009;1.737702339887619E-001;-4.681621864438057E-002;1.857339171692729E-003;4.531058948487043E-004;
2.414000000000000E+009;1.724601536989212E-001;-4.742120206356049E-002;1.779905753210187E-003;5.069893086329103E-004;
2.414166666666667E+009;1.714120358228684E-001;-4.805061966180801E-002;1.753376680426300E-003;2.215058193542063E-004;
2.414333333333334E+009;1.701748967170715E-001;-4.897512122988701E-002;1.772530842572451E-003;2.474063658155501E-004;
2.414500000000000E+009;1.692984998226166E-001;-4.968324303627014E-002;1.531774178147316E-003;3.795509692281485E-004;
2.414666666666667E+009;1.680280417203903E-001;-5.058272555470467E-002;1.260075834579766E-003;2.896478399634361E-004;
2.414833333333334E+009;1.666819453239441E-001;-5.163855850696564E-002;1.335941255092621E-003;4.263454466126859E-004;
2.415000000000000E+009;1.653565615415573E-001;-5.268711596727371E-002;1.108704949729145E-003;3.949343808926642E-004;
2.415166666666667E+009;1.641590595245361E-001;-5.398560687899590E-002;9.360667318105698E-004;3.827078617177904E-004;
2.415333333333334E+009;1.631455421447754E-001;-5.523605272173882E-002;9.340468095615506E-004;4.573336336761713E-004;
2.415500000000000E+009;1.618576198816299E-001;-5.663228034973145E-002;8.526843157596886E-004;6.686277338303626E-004;
2.415666666666667E+009;1.607344597578049E-001;-5.796508491039276E-002;7.018714095465839E-004;7.898249896243215E-004;
2.415833333333334E+009;1.597101241350174E-001;-5.956451222300530E-002;8.615250699222088E-004;7.542437524534762E-004;
2.416000000000000E+009;1.585873365402222E-001;-6.121094152331352E-002;8.108717156574130E-004;9.457837441004813E-004;
2.416166666666667E+009;1.577401757240295E-001;-6.283716112375259E-002;8.247606456279755E-004;1.056831912137568E-003;
2.416333333333334E+009;1.567286103963852E-001;-6.463284045457840E-002;8.892613695934415E-004;1.115677063353360E-003;
2.416500000000000E+009;1.557685583829880E-001;-6.651857495307922E-002;7.726388284936547E-004;1.095444196835160E-003;
2.416666666666667E+009;1.548518091440201E-001;-6.820452213287354E-002;9.470953373238444E-004;1.209730631671846E-003;
2.416833333333334E+009;1.540158838033676E-001;-7.027610391378403E-002;9.962955955415964E-004;1.269805361516774E-003;
2.417000000000000E+009;1.530639380216599E-001;-7.221450656652451E-002;1.065500546246767E-003;1.244558487087488E-003;
2.417166666666667E+009;1.525355726480484E-001;-7.404591888189316E-002;1.030482351779938E-003;1.320942188613117E-003;
2.417333333333334E+009;1.519957631826401E-001;-7.590088248252869E-002;1.139997155405581E-003;1.529375207610428E-003;
2.417500000000000E+009;1.513992846012116E-001;-7.799719274044037E-002;1.113052014261484E-003;1.673483406193554E-003;
2.417666666666667E+009;1.509428173303604E-001;-7.961617410182953E-002;1.122991438023746E-003;1.784780179150403E-003;
2.417833333333334E+009;1.505385786294937E-001;-8.141614496707916E-002;1.343839219771326E-003;1.723639667034149E-003;
2.418000000000000E+009;1.502006649971008E-001;-8.337736874818802E-002;1.363777555525303E-003;1.657845219597220E-003;
2.418166666666667E+009;1.498277485370636E-001;-8.507669717073441E-002;1.427515991963446E-003;1.915480592288077E-003;
2.418333333333334E+009;1.498315185308456E-001;-8.687711507081986E-002;1.559734111651778E-003;1.962553709745407E-003;
2.418500000000000E+009;1.496770679950714E-001;-8.836265653371811E-002;1.638160552829504E-003;2.153225010260940E-003;
2.418666666666667E+009;1.495083421468735E-001;-9.003414213657379E-002;1.834288006648421E-003;2.232634462416172E-003;
2.418833333333334E+009;1.494475156068802E-001;-9.136963635683060E-002;2.075191354379058E-003;2.140264958143234E-003;
2.419000000000000E+009;1.493537276983261E-001;-9.284856915473938E-002;2.366088563576341E-003;2.399248071014881E-003;
2.419166666666667E+009;1.494650393724442E-001;-9.405472129583359E-002;2.366938861086965E-003;2.485619392246008E-003;
2.419333333333334E+009;1.493363231420517E-001;-9.485720843076706E-002;2.759014256298542E-003;2.336565637961030E-003;
2.419500000000000E+009;1.497054547071457E-001;-9.627731144428253E-002;2.997439354658127E-003;2.347236732020974E-003;
2.419666666666667E+009;1.497866958379746E-001;-9.722005575895309E-002;3.377145854756236E-003;2.304654335603118E-003;
2.419833333333334E+009;1.498686671257019E-001;-9.782691299915314E-002;3.567361505702138E-003;2.223114250227809E-003;
2.420000000000000E+009;1.502318978309631E-001;-9.857364743947983E-002;3.979569766670466E-003;2.052947413176298E-003;
2.420166666666667E+009;1.504913717508316E-001;-9.914335608482361E-002;4.212224390357733E-003;1.882651937194169E-003;
2.420333333333334E+009;1.507520228624344E-001;-9.968498349189758E-002;4.474023357033730E-003;1.678316155448556E-003;
2.420500000000000E+009;1.509546786546707E-001;-9.996518492698669E-002;4.594838246703148E-003;1.471419003792107E-003;
2.420666666666667E+009;1.512678712606430E-001;-1.002074703574181E-001;4.862400703132153E-003;1.225472544319928E-003;
2.420833333333334E+009;1.515838354825974E-001;-1.002898141741753E-001;5.189869087189436E-003;9.056714479811490E-004;
2.421000000000000E+009;1.517131924629211E-001;-1.004148051142693E-001;5.364640150219202E-003;6.295890780165792E-004;
2.421166666666667E+009;1.519920080900192E-001;-1.004883423447609E-001;5.506186746060848E-003;2.764356031548232E-004;
2.421333333333334E+009;1.521267592906952E-001;-1.004800498485565E-001;5.750928074121475E-003;-3.509310045046732E-005;
2.421500000000000E+009;1.520586460828781E-001;-1.002223342657089E-001;5.862600635737181E-003;-3.025846672244370E-004;
2.421666666666667E+009;1.521126478910446E-001;-1.001875475049019E-001;6.057905964553356E-003;-8.436204516328871E-004;
2.421833333333334E+009;1.520901471376419E-001;-9.986234456300736E-002;6.041084881871939E-003;-1.032036147080362E-003;
2.422000000000000E+009;1.518051773309708E-001;-9.959398955106735E-002;6.063200533390045E-003;-1.390532939694822E-003;
2.422166666666667E+009;1.517305076122284E-001;-9.966669976711273E-002;5.961061455309391E-003;-1.846668543294072E-003;
2.422333333333334E+009;1.515009254217148E-001;-9.918834269046783E-002;5.966322496533394E-003;-2.356879180297256E-003;
2.422500000000000E+009;1.508164852857590E-001;-9.878414869308472E-002;5.861865822225809E-003;-2.808172721415758E-003;
2.422666666666667E+009;1.503231525421143E-001;-9.841229021549225E-002;5.772865843027830E-003;-3.219934878870845E-003;
2.422833333333334E+009;1.498014926910400E-001;-9.826570004224777E-002;5.599065218120813E-003;-3.483466338366270E-003;
2.423000000000000E+009;1.488329768180847E-001;-9.774555265903473E-002;5.470646545290947E-003;-3.902650671079755E-003;
2.423166666666667E+009;1.481668651103973E-001;-9.755623340606690E-002;4.964473657310009E-003;-4.266520496457815E-003;
2.423333333333334E+009;1.472974717617035E-001;-9.700012952089310E-002;4.819936119019985E-003;-4.654732998460531E-003;
2.423500000000000E+009;1.463279277086258E-001;-9.689723700284958E-002;4.436897579580545E-003;-4.852812271565199E-003;
2.423666666666667E+009;1.449565738439560E-001;-9.672749787569046E-002;4.162312950938940E-003;-5.185591056942940E-003;
2.423833333333334E+009;1.439335346221924E-001;-9.633693844079971E-002;3.944460302591324E-003;-5.554696545004845E-003;
2.424000000000000E+009;1.426531821489334E-001;-9.617575258016586E-002;3.516859374940395E-003;-5.528266541659832E-003;
2.424166666666667E+009;1.412185132503510E-001;-9.606621414422989E-002;3.169370349496603E-003;-5.835701245814562E-003;
2.424333333333334E+009;1.399252116680145E-001;-9.609735012054443E-002;2.836956409737468E-003;-5.997070576995611E-003;
2.424500000000000E+009;1.386799365282059E-001;-9.599135816097260E-002;2.451089210808277E-003;-6.034843157976866E-003;
2.424666666666667E+009;1.372400820255280E-001;-9.609390795230866E-002;2.301414497196674E-003;-6.114202551543713E-003;
2.424833333333334E+009;1.355141550302506E-001;-9.617335349321365E-002;1.845354563556612E-003;-6.095463875681162E-003;
2.425000000000000E+009;1.342041641473770E-001;-9.663606435060501E-002;1.672275597229600E-003;-6.097962148487568E-003;
2.425166666666667E+009;1.325671076774597E-001;-9.689587354660034E-002;1.194180338643491E-003;-6.064289715141058E-003;
2.425333333333334E+009;1.311505138874054E-001;-9.762261807918549E-002;9.253422613255680E-004;-6.221582181751728E-003;
2.425500000000000E+009;1.298463940620422E-001;-9.825923293828964E-002;5.201593157835305E-004;-6.203498691320419E-003;
2.425666666666667E+009;1.281387060880661E-001;-9.900620579719544E-002;3.069376980420202E-004;-6.038302555680275E-003;
2.425833333333334E+009;1.268539279699326E-001;-9.994424134492874E-002;1.085363910533488E-004;-6.007447373121977E-003;
2.426000000000000E+009;1.254289001226425E-001;-1.009723916649818E-001;-3.263424441684037E-004;-5.874031689018011E-003;
2.426166666666667E+009;1.241757646203041E-001;-1.020046249032021E-001;-5.897306255064905E-004;-5.758911836892366E-003;
2.426333333333334E+009;1.228082478046417E-001;-1.032237187027931E-001;-7.688336772844195E-004;-5.556632764637470E-003;
2.426500000000000E+009;1.215618029236794E-001;-1.043994799256325E-001;-1.080949790775776E-003;-5.553544033318758E-003;
2.426666666666667E+009;1.205357238650322E-001;-1.059056520462036E-001;-1.329408027231693E-003;-5.558862816542387E-003;
2.426833333333334E+009;1.193754822015762E-001;-1.072435230016708E-001;-1.528283697552979E-003;-5.174328107386828E-003;
2.427000000000000E+009;1.182782575488091E-001;-1.088954806327820E-001;-1.640628674067557E-003;-5.116258747875691E-003;
2.427166666666667E+009;1.172432601451874E-001;-1.103213280439377E-001;-1.755453529767692E-003;-5.033993162214756E-003;
2.427333333333334E+009;1.163646206259728E-001;-1.119571328163147E-001;-1.996924867853522E-003;-4.855634644627571E-003;
2.427500000000000E+009;1.156535670161247E-001;-1.137182638049126E-001;-2.273479243740439E-003;-4.644500091671944E-003;
2.427666666666667E+009;1.147817596793175E-001;-1.154965087771416E-001;-2.193835331127048E-003;-4.664380569010973E-003;
2.427833333333334E+009;1.141019240021706E-001;-1.172205358743668E-001;-2.348858863115311E-003;-4.271277226507664E-003;
