# Hz S RI R 50
2400000000.0000000000 0.155308216810226412674111884371 0.107046894729137406776509067186 -0.000228371281991712803214472638 -0.006008597090840339660644531250 0 0 0 0 
2400166666.6666665077 0.154893234372139004806356865629 0.104618981480598505218182481258 -0.000430713029345497488975524902 -0.005904339253902435302734375000 0 0 0 0 
2400333333.3333334923 0.155052453279495211502236884371 0.102301724255085005332865932814 -0.000568058283533900976181030273 -0.005752489902079105377197265625 0 0 0 0 
2400500000.0000000000 0.154866337776184109786825615629 0.099704094231128692626953125000 -0.000451783300377428477436619891 -0.005383890587836503982543945312 0 0 0 0 
2400666666.6666665077 0.155058592557907104492187500000 0.096988812088966369628906250000 -0.000653601484373211860656738281 -0.005304257385432720184326171875 0 0 0 0 
2400833333.3333334923 0.155155822634696988204794365629 0.094255149364471435546875000000 -0.000560603803023696054159963342 -0.005428351927548646926879882812 0 0 0 0 
2401000000.0000000000 0.155170202255248995681924384371 0.091309003531932830810546875000 -0.000564374960958957672119140625 -0.005308994092047215375418378613 0 0 0 0 
2401166666.6666665077 0.155193671584129305740518134371 0.088554605841636657714843750000 -0.000472332263598218614428919659 -0.005083027761429548263549804688 0 0 0 0 
2401333333.3333334923 0.155559331178665188888388115629 0.085903845727443695068359375000 -0.000589118862990289926528930664 -0.005194468423724175366873456738 0 0 0 0 
2401500000.0000000000 0.156178936362266512771768134371 0.082946315407752990722656250000 -0.000568818533793091773986816406 -0.005286739673465490341186523438 0 0 0 0 
2401666666.6666665077 0.156306207180023193359375000000 0.079987004399299621582031250000 -0.000468957034172490184933262958 -0.005254977382719516754150390625 0 0 0 0 
2401833333.3333334923 0.156947985291480990310830634371 0.077222995460033416748046875000 -0.000577154278289526700973510742 -0.005343215540051460266113281250 0 0 0 0 
2402000000.0000000000 0.157787472009658813476562500000 0.074402600526809692382812500000 -0.000654075527563691139221191406 -0.005387795623391866683959960938 0 0 0 0 
2402166666.6666665077 0.158611610531807001311932481258 0.072005197405815124511718750000 -0.000786699063610285520553588867 -0.005523629020899534225463867188 0 0 0 0 
2402333333.3333334923 0.159555494785308810135049384371 0.069148756563663482666015625000 -0.000779783295001834630966186523 -0.005622271448373795423025800488 0 0 0 0 
2402500000.0000000000 0.160670489072799710372763115629 0.066611245274543762207031250000 -0.000987538252957165241241455078 -0.005671760533004999160766601562 0 0 0 0 
2402666666.6666665077 0.161923676729202298263388115629 0.064243219792842864990234375000 -0.001125458744354546070098876953 -0.005894329398870468139648437500 0 0 0 0 
2402833333.3333334923 0.163080036640167208572549384371 0.061659198254346847534179687500 -0.001422326546162367083905864185 -0.005750310607254505157470703125 0 0 0 0 
2403000000.0000000000 0.164623007178306607345419365629 0.059219054877758033061940778907 -0.001590920495800673961639404297 -0.005831202492117881774902343750 0 0 0 0 
2403166666.6666665077 0.166431799530982998946981865629 0.057279724627733230590820312500 -0.001797987613826989910723042065 -0.005802964325994253158569335938 0 0 0 0 
2403333333.3333334923 0.167755752801895113845986884371 0.055051110684871666645090471093 -0.002170857507735490798950195312 -0.005783430300652980804443359375 0 0 0 0 
2403500000.0000000000 0.169546961784362792968750000000 0.052876587957143776630442033593 -0.002445002086460589928867959131 -0.005677963607013226422781659863 0 0 0 0 
2403666666.6666665077 0.171115711331367492675781250000 0.050903733819723129272460937500 -0.002561616478487848801853798975 -0.005662881303578615188598632812 0 0 0 0 
2403833333.3333334923 0.172859936952590886871661268742 0.049007672816514968872070312500 -0.002767755882814526991603232275 -0.005594358313828706741333007812 0 0 0 0 
2404000000.0000000000 0.174410119652748107910156250000 0.047357745468616492534597028907 -0.002951260888949037031886435400 -0.005377877503633499145507812500 0 0 0 0 
2404166666.6666665077 0.176331117749214200118856865629 0.045630194246768951416015625000 -0.003039578674361110167262411963 -0.005161541514098644256591796875 0 0 0 0 
2404333333.3333334923 0.177858620882034301757812500000 0.044253159314393997192382812500 -0.003374380525201559066772460938 -0.005047801882028579711914062500 0 0 0 0 
2404500000.0000000000 0.179492682218551607986611884371 0.042780820280313491821289062500 -0.003422959707677363915684365381 -0.005085555370897054672241210938 0 0 0 0 
2404666666.6666665077 0.181088566780090304275674384371 0.041620813310146331787109375000 -0.003604710102081298828125000000 -0.004841897170990706357474042676 0 0 0 0 
2404833333.3333334923 0.182811856269836398025674384371 0.040539316833019256591796875000 -0.003631833242252469062805175781 -0.004785450175404548645019531250 0 0 0 0 
2405000000.0000000000 0.184158861637115506271200615629 0.039846725761890411376953125000 -0.003867365419864654974696493994 -0.004745660349726676940917968750 0 0 0 0 
2405166666.6666665077 0.185601472854614313323651231258 0.039241716265678412700612653907 -0.003910007420927286148071289062 -0.004602949600666761398315429688 0 0 0 0 
2405333333.3333334923 0.186942413449287386795205634371 0.038715049624443047260324846093 -0.004086896311491727828979492188 -0.004586684517562389373779296875 0 0 0 0 
2405500000.0000000000 0.188359498977661105056924384371 0.038228861987590789794921875000 -0.004275667481124401092529296875 -0.004281148314476013183593750000 0 0 0 0 
2405666666.6666665077 0.189662918448448208907919365629 0.037733860313892371440847028907 -0.004450404550880193710327148438 -0.004226192366331815719604492188 0 0 0 0 
2405833333.3333334923 0.190989449620246887207031250000 0.037621121853590011596679687500 -0.004598093219101428985595703125 -0.004063506145030260086059570312 0 0 0 0 
2406000000.0000000000 0.191986218094825689117755018742 0.037454310804605477069895158593 -0.004731911234557628631591796875 -0.003844973398372530937194824219 0 0 0 0 
2406166666.6666665077 0.192877739667892511565838731258 0.037261940538883209228515625000 -0.004740132484585046768188476562 -0.003760604653507471084594726562 0 0 0 0 
2406333333.3333334923 0.193816527724266107757244981258 0.037400849163532257080078125000 -0.004958286881446838378906250000 -0.003563025500625371932983398438 0 0 0 0 
2406500000.0000000000 0.194659098982811001876669365629 0.037331748753786087036132812500 -0.005024950951337814331054687500 -0.003390590427443385124206542969 0 0 0 0 
2406666666.6666665077 0.195184931159019497970419365629 0.037487909197807312011718750000 -0.005195360630750656127929687500 -0.003065275959670544104335165869 0 0 0 0 
2406833333.3333334923 0.195680692791938809493856865629 0.037464886903762817382812500000 -0.005350904539227485656738281250 -0.003036989131942390961887978662 0 0 0 0 
2407000000.0000000000 0.196074500679969787597656250000 0.037705164402723312377929687500 -0.005338384769856929779052734375 -0.002713708905503153800964355469 0 0 0 0 
2407166666.6666665077 0.196361079812049893478231865629 0.037567101418972022319753278907 -0.005401545204222202301025390625 -0.002511032158508896827697753906 0 0 0 0 
2407333333.3333334923 0.196363210678100613693075615629 0.037760127335786819458007812500 -0.005255344323813915252685546875 -0.002309060655534266991856240381 0 0 0 0 
2407500000.0000000000 0.196354031562805203536825615629 0.037857439368963241577148437500 -0.005414909217506647109985351562 -0.002139624441042542891261435400 0 0 0 0 
2407666666.6666665077 0.196184292435646112640057481258 0.037841822952032089233398437500 -0.005363708361983299255371093750 -0.001899405964650213935254741138 0 0 0 0 
2407833333.3333334923 0.195875138044357299804687500000 0.037710979580879211425781250000 -0.005422754213213920593261718750 -0.001673311111517250971553183447 0 0 0 0 
2408000000.0000000000 0.195742934942245511154013115629 0.037664301693439476703684221093 -0.005416917614638805389404296875 -0.001504328218288720087764120947 0 0 0 0 
2408166666.6666665077 0.195184752345085088531817518742 0.037339698523283011699636091407 -0.005323705729097127914428710938 -0.001303609344176948070526123047 0 0 0 0 
2408333333.3333334923 0.194705694913864107986611884371 0.036852054297924041748046875000 -0.005265650805085896578316972949 -0.001146947965025902011274028247 0 0 0 0 
2408500000.0000000000 0.194022625684738186935263115629 0.036464489996433258056640625000 -0.005358491092920303344726562500 -0.001126642921008170084712363135 0 0 0 0 
2408666666.6666665077 0.193277895450592013260049384371 0.036002445966005332256276716407 -0.005221700761467218399047851562 -0.000991742359474301338195800781 0 0 0 0 
2408833333.3333334923 0.192641422152519198318643134371 0.035250708460807800292968750000 -0.005169971380382776260375976562 -0.000844262074679136276245117188 0 0 0 0 
2409000000.0000000000 0.191691905260086087325888115629 0.034321472048759460449218750000 -0.005115309264510869979858398438 -0.000621163402684032917022705078 0 0 0 0 
2409166666.6666665077 0.190884932875633211990518134371 0.033471319824457168579101562500 -0.005065398756414651870727539062 -0.000588668044656515121459960938 0 0 0 0 
2409333333.3333334923 0.189952835440635708907919365629 0.032516546547412872314453125000 -0.005060852039605379104614257812 -0.000352048547938466126292628156 0 0 0 0 
2409500000.0000000000 0.188821002840995788574218750000 0.031145058572292331350306326954 -0.005040470976382493972778320312 -0.000257136503932997584342956543 0 0 0 0 
2409666666.6666665077 0.187734663486480712890625000000 0.029831837862730029714564139454 -0.005087807774543762207031250000 -0.000188201389391906586572369986 0 0 0 0 
2409833333.3333334923 0.186715319752693204025106865629 0.028327176347374919546107108204 -0.004910597577691078186035156250 -0.000331234739860519821017664777 0 0 0 0 
2410000000.0000000000 0.185619905591011102874432481258 0.026534313336014751089075858204 -0.004875111393630504608154296875 -0.000008428049113717861473560333 0 0 0 0 
2410166666.6666665077 0.184557631611824007888955634371 0.024824939668178558349609375000 -0.004824554082006216049194335938 0.000014345698218676259909766350 0 0 0 0 
2410333333.3333334923 0.183714002370834406097088731258 0.022991821169853210449218750000 -0.004854722414165735244750976562 0.000238310502027161392286577768 0 0 0 0 
2410500000.0000000000 0.182696998119354303558026231258 0.021157398819923400878906250000 -0.004741596989333629608154296875 0.000215345135075040188714703970 0 0 0 0 
2410666666.6666665077 0.181885167956352206131143134371 0.018894540145993229257603829296 -0.004796724766492843627929687500 0.000461232906673103625148218976 0 0 0 0 
2410833333.3333334923 0.181166097521781893631143134371 0.016644271090626720083216483204 -0.004672747571021317568307207324 0.000598083832301199436187744141 0 0 0 0 
2411000000.0000000000 0.180426329374313410003338731258 0.014424744062125679361363594921 -0.004385743755847215652465820312 0.000600933388341218233108520508 0 0 0 0 
2411166666.6666665077 0.179802834987640408614950615629 0.012166334316134449350377266796 -0.004338469356298446655273437500 0.000766885699704289436340332031 0 0 0 0 
2411333333.3333334923 0.179312869906425503829794365629 0.009766601957380771636962890625 -0.004223111085593700408935546875 0.000777960813138633966445922852 0 0 0 0 
2411500000.0000000000 0.178901940584182711502236884371 0.007294706068933010101318359375 -0.004342006519436836242675781250 0.000855574908200651407241821289 0 0 0 0 
2411666666.6666665077 0.178634762763977106292401231258 0.004947838839143514633178710938 -0.004103243816643953323364257812 0.000805614108685404062271118164 0 0 0 0 
2411833333.3333334923 0.178286567330360412597656250000 0.002607579808682202859165810693 -0.004220906645059585571289062500 0.000763997377362102270126342773 0 0 0 0 
2412000000.0000000000 0.178415775299072293380575615629 -0.000107264000689610798232494215 -0.004142988007515668869018554688 0.000752329011447727680206298828 0 0 0 0 
2412166666.6666665077 0.178539797663688687423544365629 -0.002333667362108827070948935400 -0.004055312369018793106079101562 0.000780332251451909542083740234 0 0 0 0 
2412333333.3333334923 0.178688451647758511642294365629 -0.004866924602538347244262695312 -0.004043404944241046905517578125 0.000883657892700284719467163086 0 0 0 0 
2412500000.0000000000 0.179231703281402587890625000000 -0.007360321935266256332397460938 -0.004007177893072366714477539062 0.000886922818608582019805908203 0 0 0 0 
2412666666.6666665077 0.179794475436210604568643134371 -0.009806502610445022583007812500 -0.003963988274335861206054687500 0.000646252767182886600494384766 0 0 0 0 
2412833333.3333334923 0.180382341146469088455361884371 -0.012354261241853240621546561329 -0.004221803508698940277099609375 0.000602201791480183601379394531 0 0 0 0 
2413000000.0000000000 0.181110873818397494217080634371 -0.014747287146747110539446445898 -0.004321872722357512387747480176 0.000790946243796497583389282227 0 0 0 0 
2413166666.6666665077 0.182049974799156188964843750000 -0.017016066238284111022949218750 -0.004368670750409364700317382812 0.000841276720166206359863281250 0 0 0 0 
2413333333.3333334923 0.182989612221717806717080634371 -0.019253633916378021240234375000 -0.004385639447718858718872070312 0.001069011166691780090332031250 0 0 0 0 
2413500000.0000000000 0.183959603309631403167401231258 -0.021676167845726009714146798046 -0.004394234158098697662353515625 0.001093555707484483935712504810 0 0 0 0 
2413666666.6666665077 0.185132011771202087402343750000 -0.023792516440153118478795235546 -0.004560169763863086700439453125 0.001235121279023587920545268481 0 0 0 0 
2413833333.3333334923 0.186131119728088406661825615629 -0.025880631059408191335657889454 -0.004480512812733650207519531250 0.001316801761277019977569580078 0 0 0 0 
2414000000.0000000000 0.187188014388084411621093750000 -0.027967918664216998708704764454 -0.004619868937879800796508789062 0.001485743909142911000492714990 0 0 0 0 
2414166666.6666665077 0.188506513833999606033486884371 -0.029724445194005969655970389454 -0.004616623278707265853881835938 0.001672289567068218968035053784 0 0 0 0 
2414333333.3333334923 0.189654022455215509612713731258 -0.031747654080390930175781250000 -0.004604634363204240798950195312 0.001868849270977080085157084888 0 0 0 0 
2414500000.0000000000 0.191009819507598904708700615629 -0.033145006746053702617604841407 -0.004546115640550851821899414062 0.002042983192950487136840820312 0 0 0 0 
2414666666.6666665077 0.192065313458442687988281250000 -0.034713089466094970703125000000 -0.004406942520290613174438476562 0.002128973370417952971217490088 0 0 0 0 
2414833333.3333334923 0.193108320236206110198651231258 -0.036143239587545401836354841407 -0.004328517243266105651855468750 0.002335631987079977989196777344 0 0 0 0 
2415000000.0000000000 0.194324985146522494217080634371 -0.037411712110042572021484375000 -0.004388757050037384033203125000 0.002404287224635481834411621094 0 0 0 0 
2415166666.6666665077 0.195524901151657104492187500000 -0.038458880037069320678710937500 -0.004376368131488561630249023438 0.002645964501425623893737792969 0 0 0 0 
2415333333.3333334923 0.196618050336837796310263115629 -0.039442934095859527587890625000 -0.004228007514029741287231445312 0.002807052107527852058410644531 0 0 0 0 
2415500000.0000000000 0.197819307446479797363281250000 -0.040168404579162597656250000000 -0.004177137278020381927490234375 0.002675306051969528198242187500 0 0 0 0 
2415666666.6666665077 0.198863759636878995040731865629 -0.041055116802454001689870466407 -0.004116664174944162368774414062 0.002850642427802085876464843750 0 0 0 0 
2415833333.3333334923 0.199621915817260686676348768742 -0.041574679315090179443359375000 -0.004029219970107079419607831738 0.003054635832086205916163779150 0 0 0 0 
2416000000.0000000000 0.200377419590950012207031250000 -0.042178075760602951049804687500 -0.003915663342922925949096679688 0.003123659640550612969639443506 0 0 0 0 
2416166666.6666665077 0.201116204261779812911825615629 -0.042878162115812301635742187500 -0.004017489030957221984863281250 0.003303686622530221939086914062 0 0 0 0 
2416333333.3333334923 0.201660692691803006271200615629 -0.042978912591934197162668596093 -0.003936236724257469177246093750 0.003248339053243399100062704932 0 0 0 0 
2416500000.0000000000 0.202185750007629394531250000000 -0.043163314461708068847656250000 -0.003718489082530140876770019531 0.003529277862980961799621582031 0 0 0 0 
2416666666.6666665077 0.202382028102874811370526231258 -0.043498132377862930297851562500 -0.003639078699052333831787109375 0.003549859393388032913208007812 0 0 0 0 
2416833333.3333334923 0.202557712793350191970986884371 -0.043496791273355477069895158593 -0.003629238577559589905979775537 0.003840507240965961976292275537 0 0 0 0 
2417000000.0000000000 0.202757030725479098220986884371 -0.043688204139471047138254533593 -0.003488209564238787131068564307 0.003793553449213504791259765625 0 0 0 0 
2417166666.6666665077 0.202379569411277798751669365629 -0.043430902063846588134765625000 -0.003498014993965626196620322119 0.004085846245288848876953125000 0 0 0 0 
2417333333.3333334923 0.202163845300674410720986884371 -0.043275780975818627094309221093 -0.003196851350367068810703896631 0.004138187039643526077270507812 0 0 0 0 
2417500000.0000000000 0.201921612024307306487713731258 -0.043293200433254241943359375000 -0.003127853851765394210815429688 0.004420462064445018768310546875 0 0 0 0 
2417666666.6666665077 0.201320260763168307205361884371 -0.043023820966482162475585937500 -0.003083267016336321830749511719 0.004484779201447963714599609375 0 0 0 0 
2417833333.3333334923 0.200949698686599703689736884371 -0.042860217392444610595703125000 -0.002866607625037432150599814307 0.004626872949302197370047284863 0 0 0 0 
2418000000.0000000000 0.200315326452255304534588731258 -0.042509913444519042968750000000 -0.002673672279343008995056152344 0.004533786792308092117309570312 0 0 0 0 
2418166666.6666665077 0.199474632740020807464276231258 -0.042387805879116058349609375000 -0.002513570245355368094203329932 0.004746099468320608139038085938 0 0 0 0 
2418333333.3333334923 0.198475390672683688064736884371 -0.042214754968881607055664062500 -0.002219022717326879935023642432 0.004892030265182256698608398438 0 0 0 0 
2418500000.0000000000 0.197385862469673212249432481258 -0.042365793138742446899414062500 -0.002123266225680708885192871094 0.004867400508373975753784179688 0 0 0 0 
2418666666.6666665077 0.196515515446662902832031250000 -0.042237929999828338623046875000 -0.001904101460240781090380024487 0.004788936581462621688842773438 0 0 0 0 
2418833333.3333334923 0.195313096046447809417401231258 -0.042348463088274002075195312500 -0.001538995536975563006160117041 0.004882561974227427568917558887 0 0 0 0 
2419000000.0000000000 0.193865835666656494140625000000 -0.042529683560132980346679687500 -0.001460251281969249031664204175 0.004884842783212661743164062500 0 0 0 0 
2419166666.6666665077 0.192641258239746093750000000000 -0.042727194726467132568359375000 -0.001354111940599977970123291016 0.004650906659662724408621503613 0 0 0 0 
2419333333.3333334923 0.191155627369880704025106865629 -0.043390292674303061748464216407 -0.001295989844948052926304482568 0.004626853857189416885375976562 0 0 0 0 
2419500000.0000000000 0.189745247364044189453125000000 -0.043732810765504837036132812500 -0.001046185498125850937486958081 0.004410802852362394332885742188 0 0 0 0 
2419666666.6666665077 0.188027858734130887130575615629 -0.044505320489406592632253278907 -0.001005544909276067993761372144 0.004340361338108777999877929688 0 0 0 0 
2419833333.3333334923 0.186381787061691311935263115629 -0.045003298670053482055664062500 -0.000945447944104671478271484375 0.004409118089824914932250976562 0 0 0 0 
