# Version 1.00
#
freq[Hz];re:Trc1_S11;im:Trc1_S11;re:Trc2_S21;im:Trc2_S21;
2.400000000000000E+009;1.737366914749146E-001;4.902960360050201E-002;2.648202236741781E-003;8.880221284925938E-003;
2.400166666666667E+009;1.742489039897919E-001;4.857786744832993E-002;2.865487011149526E-003;8.836776949465275E-003;
2.400333333333334E+009;1.746987402439117E-001;4.763871058821678E-002;3.238795790821314E-003;8.755813352763653E-003;
2.400500000000000E+009;1.752196103334427E-001;4.699871689081192E-002;3.356279339641333E-003;8.662170730531216E-003;
2.400666666666667E+009;1.752896904945374E-001;4.637461528182030E-002;3.392237704247236E-003;8.346498943865299E-003;
2.400833333333334E+009;1.756259500980377E-001;4.581219702959061E-002;3.755175508558750E-003;8.496339432895184E-003;
2.401000000000000E+009;1.756830215454102E-001;4.497856646776199E-002;3.965445328503847E-003;8.363414555788040E-003;
2.401166666666667E+009;1.757299154996872E-001;4.425589740276337E-002;4.278974607586861E-003;8.377350866794586E-003;
2.401333333333334E+009;1.757902503013611E-001;4.371635243296623E-002;4.507387988269329E-003;8.223035372793675E-003;
2.401500000000000E+009;1.757982820272446E-001;4.294907301664352E-002;4.784541204571724E-003;8.137556724250317E-003;
2.401666666666667E+009;1.757891625165939E-001;4.218827933073044E-002;5.032018292695284E-003;7.950679399073124E-003;
2.401833333333334E+009;1.758215427398682E-001;4.145121201872826E-002;5.329183302819729E-003;7.888738997280598E-003;
2.402000000000000E+009;1.755046248435974E-001;4.051599651575089E-002;5.598818417638540E-003;7.545069791376591E-003;
2.402166666666667E+009;1.754043400287628E-001;3.961445018649101E-002;6.098650395870209E-003;7.457874249666929E-003;
2.402333333333334E+009;1.748797744512558E-001;3.875285387039185E-002;6.351904943585396E-003;7.164128590375185E-003;
2.402500000000000E+009;1.750546544790268E-001;3.759028017520905E-002;6.582228001207113E-003;6.921347230672836E-003;
2.402666666666667E+009;1.745585054159164E-001;3.654697537422180E-002;6.993043236434460E-003;6.648935377597809E-003;
2.402833333333334E+009;1.744048446416855E-001;3.539350256323814E-002;7.223865948617458E-003;6.398235447704792E-003;
2.403000000000000E+009;1.740926057100296E-001;3.416702896356583E-002;7.512367796152830E-003;6.125770974904299E-003;
2.403166666666667E+009;1.737159937620163E-001;3.282708302140236E-002;7.731994614005089E-003;5.815110635012388E-003;
2.403333333333334E+009;1.734044849872589E-001;3.142363205552101E-002;7.833958603441715E-003;5.350067280232906E-003;
2.403500000000000E+009;1.728767156600952E-001;2.997331693768501E-002;7.846719585359097E-003;4.897854756563902E-003;
2.403666666666667E+009;1.724029630422592E-001;2.818158455193043E-002;8.154815062880516E-003;4.644736647605896E-003;
2.403833333333334E+009;1.721162199974060E-001;2.657259441912174E-002;8.092337287962437E-003;4.424350336194038E-003;
2.404000000000000E+009;1.717873811721802E-001;2.493139356374741E-002;8.240393362939358E-003;3.940498922020197E-003;
2.404166666666667E+009;1.712335199117661E-001;2.300949208438397E-002;8.216368965804577E-003;3.589427098631859E-003;
2.404333333333334E+009;1.708791404962540E-001;2.112556621432304E-002;8.350362069904804E-003;3.297467716038227E-003;
2.404500000000000E+009;1.701620519161224E-001;1.904132217168808E-002;8.340343832969666E-003;2.674230374395847E-003;
2.404666666666667E+009;1.709532886743546E-001;1.775635406374931E-002;8.491722866892815E-003;2.854743041098118E-003;
2.404833333333334E+009;1.700264811515808E-001;1.528160925954580E-002;8.317987434566021E-003;2.154098823666573E-003;
2.405000000000000E+009;1.704904437065125E-001;1.362617127597332E-002;8.399348706007004E-003;2.291388344019651E-003;
2.405166666666667E+009;1.692528873682022E-001;1.000128220766783E-002;8.111876435577869E-003;7.192132761701942E-004;
2.405333333333334E+009;1.698292344808579E-001;9.765624068677425E-003;7.911812514066696E-003;1.576054957695305E-003;
2.405500000000000E+009;1.704043596982956E-001;8.010718040168285E-003;8.172049187123776E-003;1.533046597614884E-003;
2.405666666666667E+009;1.695313602685928E-001;5.717338994145393E-003;7.668467238545418E-003;9.523491025902331E-004;
2.405833333333334E+009;1.706884503364563E-001;3.268505912274122E-003;8.256238885223866E-003;6.264214753173292E-004;
2.406000000000000E+009;1.699837148189545E-001;1.036355039104819E-003;7.703419309109449E-003;3.616875037550926E-004;
2.406166666666667E+009;1.706303805112839E-001;-6.902514141984284E-004;7.779388222843409E-003;1.793498959159479E-004;
2.406333333333334E+009;1.716688275337219E-001;-2.649524714797735E-003;7.924211211502552E-003;1.270601205760613E-004;
2.406500000000000E+009;1.723286211490631E-001;-5.108144599944353E-003;7.989918813109398E-003;-3.455741098150611E-004;
2.406666666666667E+009;1.721812486648560E-001;-6.778922863304615E-003;7.713443133980036E-003;-5.118929548189044E-004;
2.406833333333334E+009;1.734268069267273E-001;-7.460237480700016E-003;8.136834949254990E-003;-6.143652626633411E-007;
2.407000000000000E+009;1.737742125988007E-001;-1.017252728343010E-002;7.817219011485577E-003;-5.711628473363817E-004;
2.407166666666667E+009;1.734583079814911E-001;-1.226395275443792E-002;7.210678420960903E-003;-9.117732988670468E-004;
2.407333333333334E+009;1.748019307851791E-001;-1.390605978667736E-002;7.577269803732634E-003;-1.070283469744027E-003;
2.407500000000000E+009;1.756049990653992E-001;-1.571367494761944E-002;7.552258204668760E-003;-1.344572752714157E-003;
2.407666666666667E+009;1.762508749961853E-001;-1.698057353496552E-002;7.324684411287308E-003;-1.502276631072164E-003;
2.407833333333334E+009;1.768374741077423E-001;-1.884485408663750E-002;7.372121326625347E-003;-1.882081502117217E-003;
2.408000000000000E+009;1.778654307126999E-001;-2.062602713704109E-002;7.325534708797932E-003;-2.057729987427592E-003;
2.408166666666667E+009;1.784604638814926E-001;-2.223542332649231E-002;7.274676579982042E-003;-2.579409396275878E-003;
2.408333333333334E+009;1.792365908622742E-001;-2.313587442040443E-002;7.152003236114979E-003;-2.715004608035088E-003;
2.408500000000000E+009;1.798838675022125E-001;-2.439746260643005E-002;7.077259942889214E-003;-2.981508150696755E-003;
2.408666666666667E+009;1.807786375284195E-001;-2.606168016791344E-002;6.917651742696762E-003;-3.328575752675533E-003;
2.408833333333334E+009;1.809356659650803E-001;-2.696879394352436E-002;6.671620067209005E-003;-3.366067772731185E-003;
2.409000000000000E+009;1.815461069345474E-001;-2.788491733372212E-002;6.462103221565485E-003;-3.775513498112559E-003;
2.409166666666667E+009;1.820968836545944E-001;-2.898013778030872E-002;6.239132955670357E-003;-3.877051174640656E-003;
2.409333333333334E+009;1.826914399862289E-001;-2.990532293915749E-002;6.084361579269171E-003;-4.319845698773861E-003;
2.409500000000000E+009;1.831853538751602E-001;-3.113256022334099E-002;5.731171928346157E-003;-4.706018604338169E-003;
2.409666666666667E+009;1.829579621553421E-001;-3.144979104399681E-002;5.219446960836649E-003;-4.469242878258228E-003;
2.409833333333334E+009;1.834517568349838E-001;-3.183934837579727E-002;5.150698125362396E-003;-4.612636286765337E-003;
2.410000000000000E+009;1.839051693677902E-001;-3.215632587671280E-002;4.988371394574642E-003;-4.857998341321945E-003;
2.410166666666667E+009;1.837572306394577E-001;-3.280401974916458E-002;4.760933574289084E-003;-4.953463561832905E-003;
2.410333333333334E+009;1.840094625949860E-001;-3.320938721299171E-002;4.464782774448395E-003;-4.992264788597822E-003;
2.410500000000000E+009;1.839126944541931E-001;-3.353628888726234E-002;4.219805821776390E-003;-5.012585315853357E-003;
2.410666666666667E+009;1.836688667535782E-001;-3.414687514305115E-002;4.007875453680754E-003;-5.151911173015833E-003;
2.410833333333334E+009;1.836375743150711E-001;-3.436787426471710E-002;3.584795165807009E-003;-5.074233282357454E-003;
2.411000000000000E+009;1.835886687040329E-001;-3.454950451850891E-002;3.464816836640239E-003;-5.087411962449551E-003;
2.411166666666667E+009;1.830393671989441E-001;-3.515056148171425E-002;3.263941733166575E-003;-5.093011539429426E-003;
2.411333333333334E+009;1.828167140483856E-001;-3.505213186144829E-002;3.039691830053926E-003;-5.179930478334427E-003;
2.411500000000000E+009;1.820884644985199E-001;-3.554600477218628E-002;2.823497401550412E-003;-5.151418037712574E-003;
2.411666666666667E+009;1.815839558839798E-001;-3.596251457929611E-002;2.386131789535284E-003;-5.091641563922167E-003;
2.411833333333334E+009;1.810806244611740E-001;-3.650233894586563E-002;2.276582643389702E-003;-4.971176385879517E-003;
2.412000000000000E+009;1.801797896623612E-001;-3.686109185218811E-002;2.068473026156426E-003;-4.862914793193340E-003;
2.412166666666667E+009;1.789807528257370E-001;-3.742200136184692E-002;1.767415553331375E-003;-4.932156763970852E-003;
2.412333333333334E+009;1.783754825592041E-001;-3.780225664377213E-002;1.726351212710142E-003;-4.809432663023472E-003;
2.412500000000000E+009;1.773597896099091E-001;-3.831415995955467E-002;1.357391709461808E-003;-4.665288608521223E-003;
2.412666666666667E+009;1.763093322515488E-001;-3.929458558559418E-002;1.420431653968990E-003;-4.547814838588238E-003;
2.412833333333334E+009;1.751073747873306E-001;-3.988403081893921E-002;1.074511790648103E-003;-4.529027733951807E-003;
2.413000000000000E+009;1.738688796758652E-001;-4.062694311141968E-002;8.749408298172057E-004;-4.212405998259783E-003;
2.413166666666667E+009;1.724193990230560E-001;-4.141508787870407E-002;8.401463855989277E-004;-4.100509919226170E-003;
2.413333333333334E+009;1.712088882923126E-001;-4.252363368868828E-002;7.000446785241365E-004;-3.921851515769959E-003;
2.413500000000000E+009;1.701322346925736E-001;-4.339947178959847E-002;6.412517395801842E-004;-3.721935907378793E-003;
2.413666666666667E+009;1.687455475330353E-001;-4.450279101729393E-002;5.989582859911025E-004;-3.692411584779620E-003;
2.413833333333334E+009;1.674194186925888E-001;-4.563598334789276E-002;5.536708049476147E-004;-3.511733608320355E-003;
2.414000000000000E+009;1.660093367099762E-001;-4.663924500346184E-002;5.576051189564169E-004;-3.311961190775037E-003;
2.414166666666667E+009;1.649898290634155E-001;-4.797802865505219E-002;6.331223994493485E-004;-3.107850439846516E-003;
2.414333333333334E+009;1.636601090431213E-001;-4.933153465390205E-002;7.561613456346095E-004;-2.973748603835702E-003;
2.414500000000000E+009;1.627211421728134E-001;-5.070560425519943E-002;8.598844287917018E-004;-2.803806215524674E-003;
2.414666666666667E+009;1.614334732294083E-001;-5.229615420103073E-002;8.016283391043544E-004;-2.709941938519478E-003;
2.414833333333334E+009;1.602635532617569E-001;-5.384213477373123E-002;9.751943871378899E-004;-2.761927898973227E-003;
2.415000000000000E+009;1.593059301376343E-001;-5.553599447011948E-002;1.140935230068862E-003;-2.699099713936448E-003;
2.415166666666667E+009;1.583360284566879E-001;-5.729839205741882E-002;1.289008418098092E-003;-2.561503089964390E-003;
2.415333333333334E+009;1.575652509927750E-001;-5.905758216977119E-002;1.225133659318090E-003;-2.524714684113860E-003;
2.415500000000000E+009;1.568216681480408E-001;-6.093371659517288E-002;1.553313806653023E-003;-2.460341202095151E-003;
2.415666666666667E+009;1.559720039367676E-001;-6.269723176956177E-002;1.573178451508284E-003;-2.671923954039812E-003;
2.415833333333334E+009;1.554101854562759E-001;-6.470739096403122E-002;1.844266080297530E-003;-2.731999382376671E-003;
2.416000000000000E+009;1.546677052974701E-001;-6.658453494310379E-002;1.839543110691011E-003;-2.848924370482564E-003;
2.416166666666667E+009;1.542705148458481E-001;-6.867932528257370E-002;1.960281282663345E-003;-2.920119324699044E-003;
2.416333333333334E+009;1.538000702857971E-001;-7.053770124912262E-002;2.166250953450799E-003;-3.199192695319653E-003;
2.416500000000000E+009;1.533635556697846E-001;-7.248912751674652E-002;2.099249046295881E-003;-3.241974394768477E-003;
2.416666666666667E+009;1.530508995056152E-001;-7.436788827180862E-002;2.185000805184245E-003;-3.329740604385734E-003;
2.416833333333334E+009;1.528452634811401E-001;-7.643039524555206E-002;2.029981231316924E-003;-3.685691161081195E-003;
2.417000000000000E+009;1.524343192577362E-001;-7.835368067026138E-002;2.060758648440242E-003;-3.729544114321470E-003;
2.417166666666667E+009;1.523497551679611E-001;-7.991816848516464E-002;2.012330340221524E-003;-4.082442261278629E-003;
2.417333333333334E+009;1.523737311363220E-001;-8.179095387458801E-002;2.083497587591410E-003;-4.058326128870249E-003;
2.417500000000000E+009;1.522067338228226E-001;-8.364327996969223E-002;1.870202017016709E-003;-4.337986465543509E-003;
2.417666666666667E+009;1.523028463125229E-001;-8.503690361976624E-002;1.861418248154223E-003;-4.629945382475853E-003;
2.417833333333334E+009;1.522849649190903E-001;-8.666972070932388E-002;1.749725313857198E-003;-4.618749953806400E-003;
2.418000000000000E+009;1.523248106241226E-001;-8.819197863340378E-002;1.554407295770943E-003;-4.809492733329535E-003;
2.418166666666667E+009;1.525253057479858E-001;-8.940605074167252E-002;1.442422391846776E-003;-5.019091535359621E-003;
2.418333333333334E+009;1.528490185737610E-001;-9.069240838289261E-002;1.360552851110697E-003;-5.123714450746775E-003;
2.418500000000000E+009;1.530282795429230E-001;-9.185320883989334E-002;1.075912965461612E-003;-5.388945806771517E-003;
2.418666666666667E+009;1.532654464244843E-001;-9.294372797012329E-002;9.414965752512217E-004;-5.480012856423855E-003;
2.418833333333334E+009;1.533451825380325E-001;-9.398253262042999E-002;5.801325896754861E-004;-5.777996499091387E-003;
2.419000000000000E+009;1.534588932991028E-001;-9.476907551288605E-002;4.417076415847987E-004;-5.743598565459251E-003;
2.419166666666667E+009;1.537055373191834E-001;-9.541512280702591E-002;1.131977187469602E-004;-5.837726406753063E-003;
2.419333333333334E+009;1.538163721561432E-001;-9.583512693643570E-002;-6.106153159635142E-005;-5.750507116317749E-003;
2.419500000000000E+009;1.541407555341721E-001;-9.654492139816284E-002;-4.885614616796374E-004;-5.916195921599865E-003;
2.419666666666667E+009;1.543584913015366E-001;-9.695666283369064E-002;-5.261645419523120E-004;-5.834287032485008E-003;
2.419833333333334E+009;1.543477177619934E-001;-9.691701084375382E-002;-8.147977059707046E-004;-5.831820424646139E-003;
2.420000000000000E+009;1.545392125844955E-001;-9.726726263761520E-002;-1.128099509514868E-003;-5.865513347089291E-003;
2.420166666666667E+009;1.547056883573532E-001;-9.730461239814758E-002;-1.460365951061249E-003;-5.810584872961044E-003;
2.420333333333334E+009;1.548479497432709E-001;-9.738496690988541E-002;-1.676730113103986E-003;-5.601037293672562E-003;
2.420500000000000E+009;1.548136621713638E-001;-9.717161953449249E-002;-1.936577958986163E-003;-5.591735709458590E-003;
2.420666666666667E+009;1.546474546194077E-001;-9.701618552207947E-002;-2.126511419191957E-003;-5.484059918671846E-003;
2.420833333333334E+009;1.546031087636948E-001;-9.673432260751724E-002;-2.244143746793270E-003;-5.372678861021996E-003;
2.421000000000000E+009;1.543975472450256E-001;-9.658675640821457E-002;-2.647909335792065E-003;-5.161173641681671E-003;
2.421166666666667E+009;1.543604880571365E-001;-9.619641304016113E-002;-2.696713199838996E-003;-5.061517003923655E-003;
2.421333333333334E+009;1.540688425302506E-001;-9.604091942310333E-002;-2.853675745427609E-003;-5.046974401921034E-003;
2.421500000000000E+009;1.534995883703232E-001;-9.564589709043503E-002;-2.963833045214415E-003;-4.806396085768938E-003;
2.421666666666667E+009;1.530441939830780E-001;-9.547755122184753E-002;-3.108059987425804E-003;-4.588433541357517E-003;
2.421833333333334E+009;1.524259895086289E-001;-9.501220285892487E-002;-3.132858779281378E-003;-4.383122082799673E-003;
2.422000000000000E+009;1.518511623144150E-001;-9.465736895799637E-002;-3.202186897397041E-003;-4.191718529909849E-003;
2.422166666666667E+009;1.509742140769959E-001;-9.479635953903198E-002;-3.232921240851283E-003;-4.138053860515356E-003;
2.422333333333334E+009;1.502410471439362E-001;-9.440946578979492E-002;-3.315776353701949E-003;-3.962213173508644E-003;
2.422500000000000E+009;1.489745378494263E-001;-9.405095130205154E-002;-3.480190644040704E-003;-3.775133984163404E-003;
2.422666666666667E+009;1.478231400251389E-001;-9.401535987854004E-002;-3.319589421153069E-003;-3.593089524656534E-003;
2.422833333333334E+009;1.466877758502960E-001;-9.390778094530106E-002;-3.341238014400005E-003;-3.533888142555952E-003;
2.423000000000000E+009;1.455735564231873E-001;-9.386235475540161E-002;-3.217373508960009E-003;-3.260250203311443E-003;
2.423166666666667E+009;1.441719532012940E-001;-9.382598847150803E-002;-3.263123799115419E-003;-3.443361958488822E-003;
2.423333333333334E+009;1.429599672555924E-001;-9.374939650297165E-002;-3.348891856148839E-003;-3.244893625378609E-003;
2.423500000000000E+009;1.413472741842270E-001;-9.379735589027405E-002;-3.232910763472319E-003;-3.070043399930000E-003;
2.423666666666667E+009;1.398428678512573E-001;-9.406303614377976E-002;-3.221998689696193E-003;-3.144740825518966E-003;
2.423833333333334E+009;1.385350227355957E-001;-9.421777725219727E-002;-3.190744435414672E-003;-3.141209250316024E-003;
2.424000000000000E+009;1.368043273687363E-001;-9.447440505027771E-002;-3.110143588855863E-003;-3.215495031327009E-003;
2.424166666666667E+009;1.352857500314713E-001;-9.489759802818298E-002;-3.105655079707503E-003;-3.269199980422854E-003;
2.424333333333334E+009;1.338772177696228E-001;-9.528258442878723E-002;-3.006745595484972E-003;-3.137677209451795E-003;
2.424500000000000E+009;1.323731392621994E-001;-9.596263617277145E-002;-3.160139545798302E-003;-3.424912458285689E-003;
2.424666666666667E+009;1.311001032590866E-001;-9.641331434249878E-002;-3.326807869598270E-003;-3.414376638829708E-003;
2.424833333333334E+009;1.293826401233673E-001;-9.723023325204849E-002;-3.244554391130805E-003;-3.430913900956512E-003;
2.425000000000000E+009;1.281004846096039E-001;-9.806457906961441E-002;-3.397541586309671E-003;-3.531653899699450E-003;
2.425166666666667E+009;1.266674101352692E-001;-9.908328950405121E-002;-3.587601473554969E-003;-3.497384022921324E-003;
2.425333333333334E+009;1.255616843700409E-001;-1.001313254237175E-001;-3.941098693758249E-003;-3.572152229025960E-003;
2.425500000000000E+009;1.243204325437546E-001;-1.013081595301628E-001;-3.900228301063180E-003;-3.460668493062258E-003;
2.425666666666667E+009;1.231320798397064E-001;-1.025073230266571E-001;-3.970342688262463E-003;-3.587094135582447E-003;
2.425833333333334E+009;1.220189109444618E-001;-1.037712469696999E-001;-4.193238914012909E-003;-3.603174118325114E-003;
2.426000000000000E+009;1.209235489368439E-001;-1.052214354276657E-001;-4.329075105488300E-003;-3.290618536993861E-003;
2.426166666666667E+009;1.202053353190422E-001;-1.066996678709984E-001;-4.561500158160925E-003;-3.343253629282117E-003;
2.426333333333334E+009;1.191733628511429E-001;-1.082563176751137E-001;-4.691761918365955E-003;-3.214415395632386E-003;
2.426500000000000E+009;1.184032559394836E-001;-1.096647307276726E-001;-4.845464136451483E-003;-3.065673867240548E-003;
2.426666666666667E+009;1.178153976798058E-001;-1.111189648509026E-001;-4.778951406478882E-003;-3.154118312522769E-003;
2.426833333333334E+009;1.170413866639137E-001;-1.128391772508621E-001;-5.138914100825787E-003;-2.960854209959507E-003;
2.427000000000000E+009;1.164993122220039E-001;-1.145742014050484E-001;-5.073161795735359E-003;-2.633580705150962E-003;
2.427166666666667E+009;1.159847602248192E-001;-1.158567592501640E-001;-5.264339502900839E-003;-2.605356508865953E-003;
2.427333333333334E+009;1.155318990349770E-001;-1.175862252712250E-001;-5.517319310456514E-003;-2.549791242927313E-003;
2.427500000000000E+009;1.152990534901619E-001;-1.192167773842812E-001;-5.461911205202341E-003;-2.508741570636630E-003;
2.427666666666667E+009;1.150035709142685E-001;-1.208175122737885E-001;-5.692078266292810E-003;-2.244795439764857E-003;
