# Version 1.00
#
freq[Hz];re:Trc1_S11;im:Trc1_S11;re:Trc2_S21;im:Trc2_S21;
2.400000000000000E+009;1.545792967081070E-001;1.062974035739899E-001;1.057064044289291E-003;3.731998614966869E-003;
2.400166666666667E+009;1.542275696992874E-001;1.038956046104431E-001;1.266131876036525E-003;3.808464156463742E-003;
2.400333333333334E+009;1.543668210506439E-001;1.015668287873268E-001;1.722960150800645E-003;3.696198342368007E-003;
2.400500000000000E+009;1.543750762939453E-001;9.884145855903626E-002;1.867774990387261E-003;3.672622144222260E-003;
2.400666666666667E+009;1.546383053064346E-001;9.649003297090530E-002;2.139720600098372E-003;3.612622618675232E-003;
2.400833333333334E+009;1.545675098896027E-001;9.346530586481094E-002;2.267753472551704E-003;3.285879036411643E-003;
2.401000000000000E+009;1.547058224678040E-001;9.085447341203690E-002;2.420594915747643E-003;3.201844170689583E-003;
2.401166666666667E+009;1.549800932407379E-001;8.814559876918793E-002;2.547804964706302E-003;3.033753717318177E-003;
2.401333333333334E+009;1.552677601575851E-001;8.530639857053757E-002;2.852167235687375E-003;2.715658862143755E-003;
2.401500000000000E+009;1.557492613792419E-001;8.227210491895676E-002;2.865406917408109E-003;2.605319023132324E-003;
2.401666666666667E+009;1.561572104692459E-001;7.972086966037750E-002;2.904859837144613E-003;2.425054553896189E-003;
2.401833333333334E+009;1.567823141813278E-001;7.704791426658630E-002;2.899316372349858E-003;2.335699973627925E-003;
2.402000000000000E+009;1.577058285474777E-001;7.424794882535934E-002;2.801925875246525E-003;2.099253702908754E-003;
2.402166666666667E+009;1.584750711917877E-001;7.175499200820923E-002;3.022972028702498E-003;2.022426109761000E-003;
2.402333333333334E+009;1.594637185335159E-001;6.903615593910217E-002;2.946417080238462E-003;1.848602201789618E-003;
2.402500000000000E+009;1.606493890285492E-001;6.656314432621002E-002;3.023029305040836E-003;1.678475062362850E-003;
2.402666666666667E+009;1.619044542312622E-001;6.436485797166824E-002;2.966107102110982E-003;1.683564158156514E-003;
2.402833333333334E+009;1.630809605121613E-001;6.205713748931885E-002;2.898470032960177E-003;1.613358617760241E-003;
2.403000000000000E+009;1.646412461996079E-001;5.952977389097214E-002;2.748614409938455E-003;1.530689070932567E-003;
2.403166666666667E+009;1.663754284381867E-001;5.753590539097786E-002;2.795090200379491E-003;1.574251917190850E-003;
2.403333333333334E+009;1.678259223699570E-001;5.535695701837540E-002;3.011760534718633E-003;1.419207314029336E-003;
2.403500000000000E+009;1.695625036954880E-001;5.338104069232941E-002;2.689848188310862E-003;1.435122801922262E-003;
2.403666666666667E+009;1.713364571332932E-001;5.145974084734917E-002;2.860415494069457E-003;1.438275794498622E-003;
2.403833333333334E+009;1.730079054832459E-001;4.970118775963783E-002;2.684745937585831E-003;1.474626478739083E-003;
2.404000000000000E+009;1.744671463966370E-001;4.791809245944023E-002;2.904286375269294E-003;1.390384975820780E-003;
2.404166666666667E+009;1.763878613710403E-001;4.651160910725594E-002;3.157284110784531E-003;1.585352234542370E-003;
2.404333333333334E+009;1.778071224689484E-001;4.507450386881828E-002;3.156914375722408E-003;1.319150207564235E-003;
2.404500000000000E+009;1.794372051954269E-001;4.367841407656670E-002;3.216436831280589E-003;1.439959974959493E-003;
2.404666666666667E+009;1.810901761054993E-001;4.270032420754433E-002;3.326915903016925E-003;1.434072386473417E-003;
2.404833333333334E+009;1.827175766229630E-001;4.154426231980324E-002;3.587948158383369E-003;1.339162699878216E-003;
2.405000000000000E+009;1.840111166238785E-001;4.102879762649536E-002;3.791706170886755E-003;9.913817048072815E-004;
2.405166666666667E+009;1.854892075061798E-001;4.029566794633865E-002;3.811059985309839E-003;8.152932277880609E-004;
2.405333333333334E+009;1.868887692689896E-001;3.998526185750961E-002;3.910944331437349E-003;7.338448194786906E-004;
2.405500000000000E+009;1.882592737674713E-001;3.936541825532913E-002;3.917100373655558E-003;6.631816504523158E-004;
2.405666666666667E+009;1.894773095846176E-001;3.888297080993652E-002;4.091654904186726E-003;3.871464577969164E-004;
2.405833333333334E+009;1.906396597623825E-001;3.882146254181862E-002;4.175862763077021E-003;7.022303179837763E-005;
2.406000000000000E+009;1.916842162609100E-001;3.864037990570068E-002;4.189648665487766E-003;-4.653341238736175E-005;
2.406166666666667E+009;1.926812976598740E-001;3.842623531818390E-002;4.240723326802254E-003;-2.423019905108959E-004;
2.406333333333334E+009;1.935781240463257E-001;3.843394666910172E-002;4.077619872987270E-003;-4.329994553700090E-004;
2.406500000000000E+009;1.942691504955292E-001;3.856387734413147E-002;4.011717624962330E-003;-4.682682920247316E-004;
2.406666666666667E+009;1.949607282876968E-001;3.853791207075119E-002;4.122115205973387E-003;-6.650103023275733E-004;
2.406833333333334E+009;1.954231709241867E-001;3.848978877067566E-002;3.893851302564144E-003;-7.832188857719302E-004;
2.407000000000000E+009;1.956393271684647E-001;3.865600749850273E-002;3.766759065911174E-003;-1.086131785996258E-003;
2.407166666666667E+009;1.961051523685455E-001;3.845618292689323E-002;3.791038179770112E-003;-1.081719063222408E-003;
2.407333333333334E+009;1.959518194198608E-001;3.857484459877014E-002;3.678289009258151E-003;-1.173480413854122E-003;
2.407500000000000E+009;1.958421617746353E-001;3.865438327193260E-002;3.662015544250608E-003;-1.250653876923025E-003;
2.407666666666667E+009;1.958148032426834E-001;3.847946971654892E-002;3.586935112252832E-003;-1.207176712341607E-003;
2.407833333333334E+009;1.953975856304169E-001;3.815656527876854E-002;3.509473754093051E-003;-1.510725123807788E-003;
2.408000000000000E+009;1.952391415834427E-001;3.812418133020401E-002;3.431564662605524E-003;-1.495053991675377E-003;
2.408166666666667E+009;1.945601552724838E-001;3.763289004564285E-002;3.451794385910034E-003;-1.608156133443117E-003;
2.408333333333334E+009;1.941886246204376E-001;3.715313598513603E-002;3.400036599487066E-003;-1.801071921363473E-003;
2.408500000000000E+009;1.935677826404572E-001;3.686585277318955E-002;3.426281968131661E-003;-1.890621613711119E-003;
2.408666666666667E+009;1.928160637617111E-001;3.623049706220627E-002;3.293078858405352E-003;-1.995694590732455E-003;
2.408833333333334E+009;1.921234726905823E-001;3.540343046188355E-002;3.362158546224237E-003;-2.139742486178875E-003;
2.409000000000000E+009;1.912681907415390E-001;3.448193892836571E-002;3.191217780113220E-003;-2.240974456071854E-003;
2.409166666666667E+009;1.903263777494431E-001;3.340563550591469E-002;3.153015859425068E-003;-2.215610584244132E-003;
2.409333333333334E+009;1.894471198320389E-001;3.241905942559242E-002;3.204964566975832E-003;-2.368233865126967E-003;
2.409500000000000E+009;1.881900578737259E-001;3.113227337598801E-002;3.003514138981700E-003;-2.359170233830810E-003;
2.409666666666667E+009;1.873738020658493E-001;2.959351614117622E-002;2.897510072216392E-003;-2.422432648018003E-003;
2.409833333333334E+009;1.863286197185516E-001;2.814335562288761E-002;2.839990658685565E-003;-2.478008391335607E-003;
2.410000000000000E+009;1.853602379560471E-001;2.643211744725704E-002;2.949352608993650E-003;-2.536642830818892E-003;
2.410166666666667E+009;1.844154894351959E-001;2.446922101080418E-002;2.927712397649884E-003;-2.648579655215144E-003;
2.410333333333334E+009;1.834592372179031E-001;2.282398007810116E-002;2.974828472360969E-003;-2.706811996176839E-003;
2.410500000000000E+009;1.825861930847168E-001;2.078310772776604E-002;2.822029870003462E-003;-2.847007010132074E-003;
2.410666666666667E+009;1.816264390945435E-001;1.863279007375240E-002;2.929532434791327E-003;-2.986192936077714E-003;
2.410833333333334E+009;1.810434758663178E-001;1.637104153633118E-002;2.964370418339968E-003;-3.090879647061229E-003;
2.411000000000000E+009;1.802248209714890E-001;1.430391427129507E-002;3.021151060238481E-003;-3.364341799169779E-003;
2.411166666666667E+009;1.798732578754425E-001;1.198318786919117E-002;2.881427761167288E-003;-3.568584797903895E-003;
2.411333333333334E+009;1.793418526649475E-001;9.648249484598637E-003;2.830760553479195E-003;-3.629745217040181E-003;
2.411500000000000E+009;1.789930760860443E-001;6.985471118241549E-003;2.786975353956223E-003;-3.932004794478416E-003;
2.411666666666667E+009;1.788622587919235E-001;4.610664211213589E-003;2.432468347251415E-003;-4.048502072691917E-003;
2.411833333333334E+009;1.785336136817932E-001;2.476677298545837E-003;2.393533010035753E-003;-4.261790774762631E-003;
2.412000000000000E+009;1.788399219512940E-001;-1.500015641795471E-004;2.142207231372595E-003;-4.463248420506716E-003;
2.412166666666667E+009;1.788569837808609E-001;-2.622541738674045E-003;1.962374895811081E-003;-4.540944471955299E-003;
2.412333333333334E+009;1.791068613529205E-001;-5.305390339344740E-003;1.827289815992117E-003;-4.710879176855087E-003;
2.412500000000000E+009;1.795430183410645E-001;-7.404732983559370E-003;1.591204432770610E-003;-4.900619387626648E-003;
2.412666666666667E+009;1.800982654094696E-001;-1.002547051757574E-002;1.298781950026751E-003;-4.890929907560349E-003;
2.412833333333334E+009;1.807393431663513E-001;-1.235355902463198E-002;9.640401112847030E-004;-4.980004858225584E-003;
2.413000000000000E+009;1.818332970142365E-001;-1.469107903540134E-002;6.422864389605820E-004;-5.230111069977284E-003;
2.413166666666667E+009;1.823303103446960E-001;-1.699635758996010E-002;4.417303716763854E-004;-5.139097105711699E-003;
2.413333333333334E+009;1.833486407995224E-001;-1.926564238965511E-002;2.898134116549045E-004;-5.070899613201618E-003;
2.413500000000000E+009;1.842421740293503E-001;-2.152863517403603E-002;-1.388762611895800E-004;-5.209459923207760E-003;
2.413666666666667E+009;1.855210810899735E-001;-2.361338399350643E-002;-3.982126363553107E-004;-5.141513887792826E-003;
2.413833333333334E+009;1.863221526145935E-001;-2.566813491284847E-002;-6.527767982333899E-004;-5.084421020001173E-003;
2.414000000000000E+009;1.875157356262207E-001;-2.745842374861240E-002;-8.618608117103577E-004;-4.904483910650015E-003;
2.414166666666667E+009;1.886551231145859E-001;-2.919312939047813E-002;-1.137212268076837E-003;-4.677762743085623E-003;
2.414333333333334E+009;1.899731457233429E-001;-3.119439259171486E-002;-1.210824586451054E-003;-4.626080859452486E-003;
2.414500000000000E+009;1.910743117332459E-001;-3.251550719141960E-002;-1.381227863021195E-003;-4.445328842848539E-003;
2.414666666666667E+009;1.922561675310135E-001;-3.395422920584679E-002;-1.636240514926612E-003;-4.369930364191532E-003;
2.414833333333334E+009;1.932633221149445E-001;-3.544452413916588E-002;-1.772248884662986E-003;-4.161190241575241E-003;
2.415000000000000E+009;1.944237798452377E-001;-3.656687214970589E-002;-1.849732710979879E-003;-4.197870381176472E-003;
2.415166666666667E+009;1.955744475126267E-001;-3.765565901994705E-002;-1.917914720252156E-003;-4.063230007886887E-003;
2.415333333333334E+009;1.968366950750351E-001;-3.853253647685051E-002;-2.195464912801981E-003;-3.958803601562977E-003;
2.415500000000000E+009;1.977099925279617E-001;-3.920781984925270E-002;-2.326043089851737E-003;-3.831020090728998E-003;
2.415666666666667E+009;1.987748742103577E-001;-4.003574326634407E-002;-2.647365443408489E-003;-3.745927708223462E-003;
2.415833333333334E+009;1.995614916086197E-001;-4.055218026041985E-002;-2.713766880333424E-003;-3.640518290922046E-003;
2.416000000000000E+009;2.003089785575867E-001;-4.116625338792801E-002;-2.754635876044631E-003;-3.608349710702896E-003;
2.416166666666667E+009;2.008517980575562E-001;-4.168516770005226E-002;-2.799847163259983E-003;-3.387817414477468E-003;
2.416333333333334E+009;2.015254199504852E-001;-4.190909117460251E-002;-3.014907240867615E-003;-3.109366632997990E-003;
2.416500000000000E+009;2.019984871149063E-001;-4.217974096536636E-002;-3.192774718627334E-003;-2.923535183072090E-003;
2.416666666666667E+009;2.022011727094650E-001;-4.243242740631104E-002;-3.232453949749470E-003;-2.689726883545518E-003;
2.416833333333334E+009;2.023899555206299E-001;-4.241634905338287E-002;-3.276419593021274E-003;-2.492498373612762E-003;
2.417000000000000E+009;2.023277133703232E-001;-4.255700111389160E-002;-3.242030972614884E-003;-2.315440448001027E-003;
2.417166666666667E+009;2.022004276514053E-001;-4.254190996289253E-002;-3.335405141115189E-003;-2.136194612830877E-003;
2.417333333333334E+009;2.018298357725143E-001;-4.233209788799286E-002;-3.316415939480066E-003;-1.906947814859450E-003;
2.417500000000000E+009;2.015655338764191E-001;-4.241048544645309E-002;-3.277080366387963E-003;-1.948637305758894E-003;
2.417666666666667E+009;2.009926885366440E-001;-4.216068983078003E-002;-3.192630596458912E-003;-1.687402138486505E-003;
2.417833333333334E+009;2.005642503499985E-001;-4.196626693010330E-002;-3.190896008163691E-003;-1.607066369615495E-003;
2.418000000000000E+009;1.998628079891205E-001;-4.176456853747368E-002;-3.159411018714309E-003;-1.639761147089303E-003;
2.418166666666667E+009;1.990828216075897E-001;-4.172370955348015E-002;-3.079752903431654E-003;-1.270121661946178E-003;
2.418333333333334E+009;1.980399638414383E-001;-4.154501110315323E-002;-2.968628192320466E-003;-1.373597420752049E-003;
2.418500000000000E+009;1.971633285284042E-001;-4.163915663957596E-002;-2.884985180571675E-003;-1.302988617680967E-003;
2.418666666666667E+009;1.961932182312012E-001;-4.157118126749992E-002;-2.878840314224362E-003;-1.246732310391963E-003;
2.418833333333334E+009;1.947903335094452E-001;-4.187701642513275E-002;-2.896797843277454E-003;-1.122579909861088E-003;
2.419000000000000E+009;1.935981065034866E-001;-4.215632751584053E-002;-2.833410864695907E-003;-1.148479990661144E-003;
2.419166666666667E+009;1.923322379589081E-001;-4.234357923269272E-002;-2.914801007136703E-003;-1.258655916899443E-003;
2.419333333333334E+009;1.908860206604004E-001;-4.285877197980881E-002;-2.883288543671370E-003;-1.138796797022224E-003;
2.419500000000000E+009;1.895697265863419E-001;-4.344313964247704E-002;-3.011313499882817E-003;-1.091595157049596E-003;
2.419666666666667E+009;1.878986358642578E-001;-4.431826248764992E-002;-2.852117642760277E-003;-1.137580722570419E-003;
2.419833333333334E+009;1.863685101270676E-001;-4.490926861763001E-002;-3.074828535318375E-003;-1.214198186062276E-003;
2.420000000000000E+009;1.847595274448395E-001;-4.579937085509300E-002;-3.207932226359844E-003;-9.360171970911324E-004;
2.420166666666667E+009;1.831634342670441E-001;-4.689083248376846E-002;-3.103493247181177E-003;-9.055112022906542E-004;
2.420333333333334E+009;1.816269904375076E-001;-4.803961887955666E-002;-3.153590951114893E-003;-9.215075988322496E-004;
2.420500000000000E+009;1.798168867826462E-001;-4.941381886601448E-002;-3.178845858201385E-003;-6.866888143122196E-004;
2.420666666666667E+009;1.784585118293762E-001;-5.057483166456223E-002;-3.317712340503931E-003;-7.361721363849938E-004;
2.420833333333334E+009;1.769403368234634E-001;-5.230888724327087E-002;-3.404397750273347E-003;-5.457745282910764E-004;
2.421000000000000E+009;1.753904670476914E-001;-5.363817885518074E-002;-3.236200660467148E-003;-1.614049833733589E-004;
2.421166666666667E+009;1.740493923425674E-001;-5.533231794834137E-002;-3.267686581239104E-003;-2.613720134831965E-004;
2.421333333333334E+009;1.725512742996216E-001;-5.700469762086868E-002;-3.161561908200383E-003;-2.142113662557676E-004;
2.421500000000000E+009;1.712986528873444E-001;-5.894239246845245E-002;-3.164373338222504E-003;-1.875796442618594E-004;
2.421666666666667E+009;1.700300127267838E-001;-6.070587038993835E-002;-3.211769508197904E-003;4.106673077330925E-005;
2.421833333333334E+009;1.688626706600189E-001;-6.261554360389710E-002;-3.002482000738382E-003;1.167261070804671E-004;
2.422000000000000E+009;1.677970439195633E-001;-6.446359306573868E-002;-3.002022160217166E-003;1.169399984064512E-004;
2.422166666666667E+009;1.670434623956680E-001;-6.680417805910111E-002;-2.954459749162197E-003;8.644607441965491E-005;
2.422333333333334E+009;1.659106314182282E-001;-6.853079050779343E-002;-2.989871194586158E-003;2.144174650311470E-004;
2.422500000000000E+009;1.652604639530182E-001;-7.061933726072311E-002;-3.142727073282003E-003;1.112326790462248E-004;
2.422666666666667E+009;1.645165979862213E-001;-7.261926680803299E-002;-3.023558063432574E-003;2.004786219913513E-004;
2.422833333333334E+009;1.641552150249481E-001;-7.457415759563446E-002;-2.904871245846152E-003;2.752095169853419E-004;
2.423000000000000E+009;1.636218428611755E-001;-7.652375102043152E-002;-2.743784105405211E-003;1.815189752960578E-004;
2.423166666666667E+009;1.632436364889145E-001;-7.861475646495819E-002;-3.045340301468968E-003;1.330479863099754E-004;
2.423333333333334E+009;1.630419641733170E-001;-8.044740557670593E-002;-2.865423914045095E-003;2.903870772570372E-004;
2.423500000000000E+009;1.629851013422012E-001;-8.220998942852020E-002;-3.099612426012754E-003;3.081318282056600E-004;
2.423666666666667E+009;1.630976200103760E-001;-8.410358428955078E-002;-3.099411493167281E-003;3.719475935213268E-004;
2.423833333333334E+009;1.630098223686218E-001;-8.566195517778397E-002;-3.085164586082101E-003;4.788717778865248E-004;
2.424000000000000E+009;1.630879342556000E-001;-8.745887130498886E-002;-3.134229918941855E-003;4.928823909722269E-004;
2.424166666666667E+009;1.633134782314301E-001;-8.898746967315674E-002;-3.249472239986062E-003;6.225651595741510E-004;
2.424333333333334E+009;1.634447574615479E-001;-9.043482691049576E-002;-3.358400892466307E-003;7.458099862560630E-004;
2.424500000000000E+009;1.637901961803436E-001;-9.219220280647278E-002;-3.254464361816645E-003;8.563970914110541E-004;
2.424666666666667E+009;1.639793068170548E-001;-9.338540583848953E-002;-3.277191659435630E-003;9.055194677785039E-004;
2.424833333333334E+009;1.644779741764069E-001;-9.459571540355682E-002;-3.440571716055274E-003;1.154539873823524E-003;
2.425000000000000E+009;1.649029254913330E-001;-9.584305435419083E-002;-3.408400341868401E-003;1.167592243291438E-003;
2.425166666666667E+009;1.651823669672012E-001;-9.680685400962830E-002;-3.407501615583897E-003;1.427707145921886E-003;
2.425333333333334E+009;1.655050665140152E-001;-9.768901765346527E-002;-3.326372941955924E-003;1.778500154614449E-003;
2.425500000000000E+009;1.660493910312653E-001;-9.859565645456314E-002;-3.361664712429047E-003;1.754452940076590E-003;
2.425666666666667E+009;1.664326488971710E-001;-9.932412207126617E-002;-3.187917405739427E-003;1.897759968414903E-003;
2.425833333333334E+009;1.666532158851624E-001;-1.000948771834374E-001;-3.232428804039955E-003;2.021719468757510E-003;
2.426000000000000E+009;1.670730561017990E-001;-1.005434393882752E-001;-2.995947143062949E-003;2.206709934398532E-003;
2.426166666666667E+009;1.674693226814270E-001;-1.009839400649071E-001;-2.975787967443466E-003;2.362477825954557E-003;
2.426333333333334E+009;1.674614101648331E-001;-1.014879122376442E-001;-3.004168858751655E-003;2.474554581567645E-003;
2.426500000000000E+009;1.678700149059296E-001;-1.016754582524300E-001;-2.773504238575697E-003;2.652262570336461E-003;
2.426666666666667E+009;1.680939346551895E-001;-1.020410358905792E-001;-2.540684305131435E-003;2.804875373840332E-003;
2.426833333333334E+009;1.683180183172226E-001;-1.023308560252190E-001;-2.597162500023842E-003;2.913927193731070E-003;
2.427000000000000E+009;1.682583689689636E-001;-1.024723276495934E-001;-2.359606325626373E-003;2.932994626462460E-003;
2.427166666666667E+009;1.682813018560410E-001;-1.026486679911614E-001;-2.286008326336741E-003;2.960323356091976E-003;
2.427333333333334E+009;1.682106554508209E-001;-1.028219312429428E-001;-2.120043383911252E-003;3.007734427228570E-003;
2.427500000000000E+009;1.679273545742035E-001;-1.030503138899803E-001;-2.138379495590925E-003;3.154257778078318E-003;
2.427666666666667E+009;1.674787551164627E-001;-1.031475961208344E-001;-1.955719199031591E-003;3.036663634702563E-003;
