# Hz S RI R 50
2400000000.0000000000 0.155471071600914001464843750000 0.111486732959747300575337192186 -0.004688587971031665802001953125 0.002728668274357914924621582031 0 0 0 0 
2400166666.6666665077 0.155066266655921908279580634371 0.109170496463775593132261576557 -0.004818415734916925430297851562 0.003015847411006689071655273438 0 0 0 0 
2400333333.3333334923 0.154825627803802490234375000000 0.106968499720096602012553432814 -0.004564749076962471008300781250 0.003222251543775200843811035156 0 0 0 0 
2400500000.0000000000 0.154501706361770602127236884371 0.104173451662063598632812500000 -0.004503292031586170196533203125 0.003503454150632023811340332031 0 0 0 0 
2400666666.6666665077 0.154304072260856600662393134371 0.101619854569435105751118442186 -0.004418848082423210144042968750 0.003427040064707397980930947412 0 0 0 0 
2400833333.3333334923 0.153967961668968200683593750000 0.098786592483520507812500000000 -0.004315458238124847412109375000 0.003778309561312199072596884619 0 0 0 0 
2401000000.0000000000 0.153888747096061706542968750000 0.095727734267711639404296875000 -0.004164461046457290649414062500 0.004007178358733654022216796875 0 0 0 0 
2401166666.6666665077 0.153489008545875604827557481258 0.092995375394821166992187500000 -0.003940049093216657638549804688 0.004185152705758810043334960938 0 0 0 0 
2401333333.3333334923 0.153806671500205993652343750000 0.090059317648410797119140625000 -0.003809753572568296952488564600 0.004214888904243707656860351562 0 0 0 0 
2401500000.0000000000 0.153781145811080904861611884371 0.087017469108104705810546875000 -0.003798083867877721786499023438 0.004405589308589696884155273438 0 0 0 0 
2401666666.6666665077 0.153870999813079806228799384371 0.084034115076065063476562500000 -0.003533240407705307006835937500 0.004602066706866025924682617188 0 0 0 0 
2401833333.3333334923 0.154209271073341397384481865629 0.081070691347122192382812500000 -0.003479909384623169898986816406 0.004733843263238667574410722949 0 0 0 0 
2402000000.0000000000 0.155062749981880187988281250000 0.078231506049633026123046875000 -0.003290978493168950080871582031 0.004657082259654998779296875000 0 0 0 0 
2402166666.6666665077 0.155457288026809692382812500000 0.075464166700839996337890625000 -0.003021099837496877150294638525 0.004952325951308012008666992188 0 0 0 0 
2402333333.3333334923 0.156226098537445096114950615629 0.072510100901126861572265625000 -0.002958972938358784155604697119 0.005001316312700510025024414062 0 0 0 0 
2402500000.0000000000 0.157490789890289306640625000000 0.069620616734027862548828125000 -0.002553783357143402099609375000 0.005126352887600660324096679688 0 0 0 0 
2402666666.6666665077 0.158096998929977389236611884371 0.066960752010345458984375000000 -0.002729994943365455107447958838 0.005098496563732624053955078125 0 0 0 0 
2402833333.3333334923 0.159346118569374112228231865629 0.064561530947685241699218750000 -0.002551005221903324127197265625 0.005336449481546878814697265625 0 0 0 0 
2403000000.0000000000 0.160880193114280700683593750000 0.061936531215906143188476562500 -0.002475444925948977904078818213 0.005506904795765876770019531250 0 0 0 0 
2403166666.6666665077 0.162424698472023010253906250000 0.059560175985097892070729841407 -0.002148905070498586134669638525 0.005681334063410758972167968750 0 0 0 0 
2403333333.3333334923 0.163918137550354003906250000000 0.057037267833948142314870466407 -0.002003563567996025085449218750 0.005707387346774339675903320312 0 0 0 0 
2403500000.0000000000 0.165770441293716402908486884371 0.054693795740604400634765625000 -0.001879024552181363105773925781 0.005845596548169851303100585938 0 0 0 0 
2403666666.6666665077 0.167491957545280512054119981258 0.052596524357795722270925153907 -0.001567579689435661055921245044 0.005875980481505393981933593750 0 0 0 0 
2403833333.3333334923 0.169352397322654696365518134371 0.050518378615379326557199846093 -0.001434186706319450898411416162 0.006002647336572408676147460938 0 0 0 0 
2404000000.0000000000 0.170851960778236389160156250000 0.048613984137773506855051408593 -0.001432019751518964984296489185 0.006100383587181568145751953125 0 0 0 0 
2404166666.6666665077 0.172795981168747003753338731258 0.046839751303195953369140625000 -0.000846907554659992456436157227 0.006259793415665627393240644238 0 0 0 0 
2404333333.3333334923 0.174655914306640597244424384371 0.045392483472824096679687500000 -0.000689931388478726148605346680 0.006384574342519044876098632812 0 0 0 0 
2404500000.0000000000 0.176364645361900301834268134371 0.043569583445787429809570312500 -0.000375108968000859022140502930 0.006385050248354673385620117188 0 0 0 0 
2404666666.6666665077 0.178224921226501492599325615629 0.042407475411891937255859375000 -0.000139619718538597199037828989 0.006527678575366736325735761426 0 0 0 0 
2404833333.3333334923 0.180206254124641390701455634371 0.041247680783271789550781250000 0.000322859646985307281643468036 0.006580992136150599393362714551 0 0 0 0 
2405000000.0000000000 0.181773662567138699630575615629 0.040477421134710311889648437500 0.000524825125467032194137573242 0.006700262427330017089843750000 0 0 0 0 
2405166666.6666665077 0.183547869324684087555255018742 0.039628669619560241699218750000 0.000799946079496294260025024414 0.006557241082191467285156250000 0 0 0 0 
2405333333.3333334923 0.185201436281204195877236884371 0.039116840809583657001535783593 0.001264211372472346045850444263 0.006556324660778045654296875000 0 0 0 0 
2405500000.0000000000 0.186746463179588290115518134371 0.038673296570777893066406250000 0.001555787050165235996246337891 0.006518664769828320416922284863 0 0 0 0 
2405666666.6666665077 0.188319802284240694900674384371 0.038218308240175247192382812500 0.001946868607774377086042094653 0.006270693149417638778686523438 0 0 0 0 
2405833333.3333334923 0.189996451139450100997763115629 0.038076162338256842876393903907 0.002283213660120964050292968750 0.006280340254306793212890625000 0 0 0 0 
2406000000.0000000000 0.191049560904502896407919365629 0.037886507809162139892578125000 0.002527166856452823118922568213 0.006083946209400892257690429688 0 0 0 0 
2406166666.6666665077 0.192389443516731289962606865629 0.037802208214998252178151716407 0.002929206006228923797607421875 0.005779250059276819229125976562 0 0 0 0 
2406333333.3333334923 0.193676114082336398025674384371 0.038020879030227661132812500000 0.003245119005441666083094931494 0.005701050162315368652343750000 0 0 0 0 
2406500000.0000000000 0.194688439369201687911825615629 0.038338046520948410034179687500 0.003314717672765254974365234375 0.005477789323776960372924804688 0 0 0 0 
2406666666.6666665077 0.195583567023277310470419365629 0.038473807275295257568359375000 0.003528894390910863876342773438 0.005323435645550489425659179688 0 0 0 0 
2406833333.3333334923 0.196326449513435391525106865629 0.038716517388820648193359375000 0.003599196439608931975123740088 0.005067326594144105911254882812 0 0 0 0 
2407000000.0000000000 0.197033271193504305740518134371 0.039078336209058761596679687500 0.003840681398287415938136435400 0.004961516242474318418020917676 0 0 0 0 
2407166666.6666665077 0.197565019130706787109375000000 0.039290968328714370727539062500 0.003926258999854326248168945312 0.004617971833795309066772460938 0 0 0 0 
2407333333.3333334923 0.197718039155006408691406250000 0.039703547954559333110768903907 0.003917115274816752347464277051 0.004380576312541961669921875000 0 0 0 0 
2407500000.0000000000 0.198068469762802096267861884371 0.040177904069423682476003278907 0.004176101647317410382742597363 0.004362329840660095214843750000 0 0 0 0 
2407666666.6666665077 0.198251396417617797851562500000 0.040356006473302841186523437500 0.004287615884095430374145507812 0.004273924510926008224487304688 0 0 0 0 
2407833333.3333334923 0.197897747159004211425781250000 0.040571711957454681396484375000 0.004430266097187995910644531250 0.003788339206948875947239541162 0 0 0 0 
2408000000.0000000000 0.198090955615043612381143134371 0.040705464780330657958984375000 0.004543545190244913101196289062 0.003596676047891377969029091943 0 0 0 0 
2408166666.6666665077 0.197592198848724392989950615629 0.040722284466028206562082658593 0.004530074540525674819946289062 0.003545411862432957129237509619 0 0 0 0 
2408333333.3333334923 0.197248071432113702972088731258 0.040614519268274307250976562500 0.004800119437277317047119140625 0.003312051994726061820983886719 0 0 0 0 
2408500000.0000000000 0.196623325347900390625000000000 0.040721766650676727294921875000 0.004802098032087087631225585938 0.003096305998042225837707519531 0 0 0 0 
2408666666.6666665077 0.196008294820785494705361884371 0.040491782128810882568359375000 0.004763047210872173309326171875 0.002867317991331220106837607275 0 0 0 0 
2408833333.3333334923 0.195419341325759887695312500000 0.040039062500000000000000000000 0.004934726282954216003417968750 0.002710761036723852157592773438 0 0 0 0 
2409000000.0000000000 0.194501921534538296798544365629 0.039515100419521331787109375000 0.004814779385924339294433593750 0.002348016016185284094569540869 0 0 0 0 
2409166666.6666665077 0.193551421165466308593750000000 0.038783393800258643413503278907 0.004861953668296337127685546875 0.002237250097095965905430459131 0 0 0 0 
2409333333.3333334923 0.192629396915435791015625000000 0.038067311048507690429687500000 0.004988669883459805574899004199 0.002065921202301979064941406250 0 0 0 0 
2409500000.0000000000 0.191416889429092407226562500000 0.037143386900424957275390625000 0.004738487303256989392752362988 0.001940666115842760042903281104 0 0 0 0 
2409666666.6666665077 0.190402492880821200271768134371 0.035837691277265548706054687500 0.004699813202023506164550781250 0.001744162291288376071332621997 0 0 0 0 
2409833333.3333334923 0.189175575971603393554687500000 0.034695081412792212749440778907 0.004827973898500204086303710938 0.001582780969329177899601601709 0 0 0 0 
2410000000.0000000000 0.188138648867607088943643134371 0.033129334449768073345143903907 0.004736485891044139862060546875 0.001330203493125736930249858325 0 0 0 0 
2410166666.6666665077 0.186806708574294988434161268742 0.031513854861259460449218750000 0.004773288033902645111083984375 0.001223518513143063025233603369 0 0 0 0 
2410333333.3333334923 0.185805350542068509200888115629 0.029912525787949558603306954296 0.004673208575695753097534179688 0.001195425516925751946092915112 0 0 0 0 
2410500000.0000000000 0.184624746441841097732705634371 0.028093826025724411010742187500 0.004692763090133666992187500000 0.001047280151396990039228129810 0 0 0 0 
2410666666.6666665077 0.183681860566139193435830634371 0.025857621803879741323450858204 0.004621212836354970932006835938 0.001067030127160250923754047925 0 0 0 0 
2410833333.3333334923 0.182661846280097989181356865629 0.023630926385521888732910156250 0.004631412681192159652709960938 0.000849882606416940689086914062 0 0 0 0 
2411000000.0000000000 0.181628525257110595703125000000 0.021542284637689590454101562500 0.004858345724642276763916015625 0.000802959431894123554229736328 0 0 0 0 
2411166666.6666665077 0.180816173553466796875000000000 0.019229160621762279165247733204 0.004732328467071056365966796875 0.000763843592721968889236450195 0 0 0 0 
2411333333.3333334923 0.180023625493049593826455634371 0.016730174422264099121093750000 0.004735516849905253324026777051 0.000552743906155228614807128906 0 0 0 0 
2411500000.0000000000 0.179344803094863891601562500000 0.014391368255019189661969569727 0.004712655209004878997802734375 0.000367194879800081307261866437 0 0 0 0 
2411666666.6666665077 0.179047197103500393966513115629 0.011813385412096980703333670704 0.004722428508102893829345703125 0.000264836096903309226036071777 0 0 0 0 
2411833333.3333334923 0.178466185927391107757244981258 0.009335967712104320526123046875 0.004771789070218802365774823926 0.000103221536846831400268016676 0 0 0 0 
2412000000.0000000000 0.178474053740501403808593750000 0.006518339272588490572457597949 0.004681911319494246569161699512 0.000212829298106953501701354980 0 0 0 0 
2412166666.6666665077 0.178326755762100191970986884371 0.003982733469456434249877929688 0.004752593580633401870727539062 -0.000176673682290129390641889029 0 0 0 0 
2412333333.3333334923 0.178218275308609008789062500000 0.001424148445948957963230752100 0.004718358628451824188232421875 -0.000198601832380518290117540903 0 0 0 0 
2412500000.0000000000 0.178596556186675997635049384371 -0.001298852614127099947688437354 0.004525371827185153961181640625 -0.000274138816166669076115208759 0 0 0 0 
2412666666.6666665077 0.179210066795349093338174384371 -0.003942598588764668378348066113 0.004686625208705663681030273438 -0.000458130467450246214866638184 0 0 0 0 
2412833333.3333334923 0.179780766367912292480468750000 -0.006780185736715793609619140625 0.004706371575593948364257812500 -0.000547041418030858039855957031 0 0 0 0 
2413000000.0000000000 0.180416956543922396560830634371 -0.009517420083284378051757812500 0.004575477913022041320800781250 -0.000708765641320496797561645508 0 0 0 0 
2413166666.6666665077 0.181109368801116887848223768742 -0.011931885033845899754534336523 0.004643850959837436676025390625 -0.000857907114550471305847167969 0 0 0 0 
2413333333.3333334923 0.182204008102416992187500000000 -0.014615080319344999140729335352 0.004624050576239824295043945312 -0.001065702643245459036586142432 0 0 0 0 
2413500000.0000000000 0.182942047715187100509481865629 -0.017100298777222629892369454296 0.004443392157554627332205487988 -0.001209852402098477103589702075 0 0 0 0 
2413666666.6666665077 0.184201508760452298263388115629 -0.019596073776483539236048514454 0.004807904362678527832031250000 -0.001274174312129616954206157153 0 0 0 0 
2413833333.3333334923 0.185250684618949890136718750000 -0.022016165778040889394739920704 0.004588134586811065673828125000 -0.001549813780002295970916748047 0 0 0 0 
2414000000.0000000000 0.186540633440017700195312500000 -0.024191780015826228750208670704 0.004657520912587642669677734375 -0.001574808149598539092420268481 0 0 0 0 
2414166666.6666665077 0.187840923666954012771768134371 -0.026368578895926478994349295704 0.004395249299705029401297284863 -0.001765219261869787953020405347 0 0 0 0 
2414333333.3333334923 0.188927948474884005447549384371 -0.028672760352492328989049141796 0.004504407756030560407156659863 -0.002022259170189499855041503906 0 0 0 0 
2414500000.0000000000 0.190438434481620788574218750000 -0.030293706804513931274414062500 0.004253025166690349578857421875 -0.002141718287020922140834189307 0 0 0 0 
2414666666.6666665077 0.191619277000427301604901231258 -0.032109215855598449707031250000 0.004279647488147020339965820312 -0.002377466298639773888828896631 0 0 0 0 
2414833333.3333334923 0.193030327558517511565838731258 -0.033792719244956970214843750000 0.004094177857041358947753906250 -0.002328544622287154197692871094 0 0 0 0 
2415000000.0000000000 0.194263413548469487945880018742 -0.035366415977478027343750000000 0.004048138856887817382812500000 -0.002516966313123703002929687500 0 0 0 0 
2415166666.6666665077 0.195679426193237304687500000000 -0.036619041115045547485351562500 0.003856870811432600021362304688 -0.002661719219759107069728232275 0 0 0 0 
2415333333.3333334923 0.197105094790458706954794365629 -0.037861067801713936542551408593 0.003686784766614437103271484375 -0.002932740608230233192443847656 0 0 0 0 
2415500000.0000000000 0.198435083031654413421307481258 -0.038649816066026687622070312500 0.003761811880394815964939736475 -0.002905197907239199118373251807 0 0 0 0 
2415666666.6666665077 0.199723944067954989334268134371 -0.039681084454059600830078125000 0.003636430483311415152308798682 -0.003095736959949136214015341650 0 0 0 0 
2415833333.3333334923 0.200784936547279413421307481258 -0.040444470942020423198659528907 0.003506636014208198027369833838 -0.003314629662781953811645507812 0 0 0 0 
2416000000.0000000000 0.201672673225402804275674384371 -0.041145872324705116962473283593 0.003511529881507157845738076318 -0.003400067565962671799900673975 0 0 0 0 
2416166666.6666665077 0.202825754880905206878338731258 -0.041683830320835106586496721093 0.003249698551371694044825888525 -0.003627432044595479965209960938 0 0 0 0 
2416333333.3333334923 0.203707873821258489410723768742 -0.041984073817729949951171875000 0.003161770990118383927586220850 -0.003825970692560077147242880713 0 0 0 0 
2416500000.0000000000 0.204387962818145807464276231258 -0.042314022779464721679687500000 0.002894859760999679999110556494 -0.003807379165664314790012978662 0 0 0 0 
2416666666.6666665077 0.204928398132324190994424384371 -0.042805083096027367328684221093 0.002609461313113570213317871094 -0.003956363070756196975708007812 0 0 0 0 
2416833333.3333334923 0.205369442701339693924111884371 -0.042702380567789077758789062500 0.002530167112126946015598916162 -0.004105594009160996350760175488 0 0 0 0 
2417000000.0000000000 0.205795094370842007736044365629 -0.042751073837280273437500000000 0.002183725126087665991542197119 -0.004152528010308743390555097363 0 0 0 0 
2417166666.6666665077 0.205715879797935513595419365629 -0.042555794119834899902343750000 0.002021270105615257783177041162 -0.004279128275811672210693359375 0 0 0 0 
2417333333.3333334923 0.205744713544845608810263115629 -0.042309202253818511962890625000 0.001729964045807719013811420972 -0.004241323564201593399047851562 0 0 0 0 
2417500000.0000000000 0.205555841326713589767294365629 -0.042244035750627517700195312500 0.001561091747134923934936523438 -0.004199020098894835385794355176 0 0 0 0 
2417666666.6666665077 0.205272540450096102615518134371 -0.041929267346858978271484375000 0.001468586968258023045183491284 -0.004232259467244148254394531250 0 0 0 0 
2417833333.3333334923 0.204948589205741910079794365629 -0.041441734880208969116210937500 0.001278741401620209000231098706 -0.004150480497628450393676757812 0 0 0 0 
2418000000.0000000000 0.204559281468391390701455634371 -0.041038867086172096942942033593 0.001151323551312088966369628906 -0.003972623962908983230590820312 0 0 0 0 
2418166666.6666665077 0.203897580504417391678018134371 -0.040797822177410132671315778907 0.001151634496636688926099467700 -0.004027806688100100430960370801 0 0 0 0 
2418333333.3333334923 0.203050449490547207931356865629 -0.040393937379121780395507812500 0.000992385903373360633850097656 -0.003893401008099317984340048682 0 0 0 0 
2418500000.0000000000 0.202163711190223693847656250000 -0.040262810885906219482421875000 0.000790253339800983667373657227 -0.003945747390389441576485918262 0 0 0 0 
2418666666.6666665077 0.201292052865028409103231865629 -0.039920102804899222637136091407 0.000793431769125163555145263672 -0.003869853215292096138000488281 0 0 0 0 
2418833333.3333334923 0.200062215328216608245526231258 -0.039853621274232857440988908593 0.000698851596098393201828002930 -0.003912688698619604110717773438 0 0 0 0 
2419000000.0000000000 0.198893263936042813400106865629 -0.039835710078477859497070312500 0.000675632967613637447357177734 -0.003988327458500862121582031250 0 0 0 0 
2419166666.6666665077 0.197442516684532193282919365629 -0.039955746382474899291992187500 0.000642301107291132211685180664 -0.003937366418540477752685546875 0 0 0 0 
2419333333.3333334923 0.196115985512733487228231865629 -0.040216155350208282470703125000 0.000407947256462648510932922363 -0.004061282146722078323364257812 0 0 0 0 
2419500000.0000000000 0.194631621241569491287393134371 -0.040422886610031127929687500000 0.000256732688285410404205322266 -0.003934536129236221313476562500 0 0 0 0 
2419666666.6666665077 0.192827835679054288009481865629 -0.040788840502500527118723283593 0.000136258648126386106014251709 -0.003934207372367382049560546875 0 0 0 0 
2419833333.3333334923 0.191160082817077608963174384371 -0.041367117315530776977539062500 0.000069242661993484944105148315 -0.003900336567312479019165039062 0 0 0 0 
2420000000.0000000000 0.189382895827293395996093750000 -0.042047224938869483257253278907 -0.000262440938968211412429809570 -0.004053653683513402938842773438 0 0 0 0 
