# Hz S RI R 50
2400000000.0000000000 0.155377179384231595138388115629 0.111578658223152202277894673443 -0.004679408390074968338012695312 0.002974084345623850822448730469 0 0 0 0 
2400166666.6666665077 0.154806837439537103850994981258 0.109272234141826601883096259371 -0.004643798805773258209228515625 0.003144003683701158003566122900 0 0 0 0 
2400333333.3333334923 0.154593542218208312988281250000 0.107070505619049100021200615629 -0.004508623387664557370657636426 0.003471015952527523040771484375 0 0 0 0 
2400500000.0000000000 0.154153540730476407150106865629 0.104196287691593197921591240629 -0.004475574940443038940429687500 0.003621878568083047866821289062 0 0 0 0 
2400666666.6666665077 0.154110625386238098144531250000 0.101854182779788998702841240629 -0.004363989457488059997558593750 0.003933196887373924255371093750 0 0 0 0 
2400833333.3333334923 0.153682962059974698165731865629 0.098900966346263885498046875000 -0.004262024536728858947753906250 0.003985453862696886062622070312 0 0 0 0 
2401000000.0000000000 0.153817072510719299316406250000 0.096062041819095611572265625000 -0.004085107240825892362112714551 0.004148231353610754013061523438 0 0 0 0 
2401166666.6666665077 0.153636366128921508789062500000 0.093100726604461669921875000000 -0.003880147356539965109584189307 0.004203290212899447354788495801 0 0 0 0 
2401333333.3333334923 0.153554260730743408203125000000 0.090047098696231842041015625000 -0.003843569662421942190883017432 0.004311596509069204330444335938 0 0 0 0 
2401500000.0000000000 0.153586894273757906814736884371 0.087134532630443572998046875000 -0.003707899246364831924438476562 0.004495169967412948608398437500 0 0 0 0 
2401666666.6666665077 0.153917700052261408050213731258 0.084054179489612579345703125000 -0.003509520087391138076782226562 0.004481336567550897598266601562 0 0 0 0 
2401833333.3333334923 0.153949797153472900390625000000 0.081220746040344238281250000000 -0.003193499054759740829467773438 0.004552522674202919006347656250 0 0 0 0 
2402000000.0000000000 0.154876574873924310882244981258 0.078245297074317932128906250000 -0.003027534345164895057678222656 0.004864640999585390090942382812 0 0 0 0 
2402166666.6666665077 0.155387103557586697677450615629 0.075423717498779296875000000000 -0.002944071311503649191615439307 0.004905486013740301132202148438 0 0 0 0 
2402333333.3333334923 0.156165331602096613128338731258 0.072423361241817474365234375000 -0.002852683421224356131312704932 0.005045983474701642990112304688 0 0 0 0 
2402500000.0000000000 0.157066270709037808517294365629 0.069849796593189239501953125000 -0.002577470149844884872436523438 0.005141822155565023422241210938 0 0 0 0 
2402666666.6666665077 0.158136337995529202560263115629 0.067172378301620483398437500000 -0.002647701418027282194850302588 0.005195619538426399230957031250 0 0 0 0 
2402833333.3333334923 0.159288853406906100174111884371 0.064470082521438598632812500000 -0.002330296440050005912780761719 0.005337188020348548889160156250 0 0 0 0 
2403000000.0000000000 0.160636991262435913085937500000 0.062035739421844482421875000000 -0.002115266164764761924743652344 0.005275468342006207379812909863 0 0 0 0 
2403166666.6666665077 0.162408694624900790115518134371 0.059427745640277862548828125000 -0.001878966111689805984497070312 0.005510786548256874084472656250 0 0 0 0 
2403333333.3333334923 0.163894146680831909179687500000 0.057058744132518768310546875000 -0.001854126574471592903137207031 0.005522903520613908767700195312 0 0 0 0 
2403500000.0000000000 0.165627151727676391601562500000 0.054981891065835952758789062500 -0.001624803058803081946132040869 0.005717421416193246841430664062 0 0 0 0 
2403666666.6666665077 0.167441099882125910003338731258 0.052702277898788452148437500000 -0.001450015814043581919429160010 0.005932393018156290054321289062 0 0 0 0 
2403833333.3333334923 0.169318675994873102386151231258 0.050566311925649642944335937500 -0.001225921674631536006927490234 0.005945576354861260327810956738 0 0 0 0 
2404000000.0000000000 0.170878440141677911956463731258 0.048639021813869483257253278907 -0.001010444713756442070007324219 0.006077730562537909421438886426 0 0 0 0 
2404166666.6666665077 0.172825679183006286621093750000 0.046928782016038901592214216407 -0.000763315299991518259048461914 0.006310626864433288574218750000 0 0 0 0 
2404333333.3333334923 0.174654498696327209472656250000 0.045338157564401626586914062500 -0.000690521730575710535049438477 0.006170048378407955169677734375 0 0 0 0 
2404500000.0000000000 0.176415964961051913162393134371 0.043731950223445892333984375000 -0.000382300844648852890163975848 0.006368396803736686706542968750 0 0 0 0 
2404666666.6666665077 0.178412869572639493087606865629 0.042623315006494522094726562500 -0.000003488649326754967174257479 0.006500075105577707290649414062 0 0 0 0 
2404833333.3333334923 0.180196702480316189864950615629 0.041288010776042938232421875000 0.000241727597313001806109827863 0.006554385181516408920288085938 0 0 0 0 
2405000000.0000000000 0.181652843952179010589276231258 0.040564935654401779174804687500 0.000569828960578888654708862305 0.006625584326684474945068359375 0 0 0 0 
2405166666.6666665077 0.183533281087875393966513115629 0.039813738316297531127929687500 0.000942243321333080530166625977 0.006622978020459414395804120801 0 0 0 0 
2405333333.3333334923 0.185339525341987609863281250000 0.039198264479637152934987653907 0.001156225451268255927442241138 0.006446273531764745712280273438 0 0 0 0 
2405500000.0000000000 0.186856687068939208984375000000 0.038710668683052062988281250000 0.001552071887999773025512695312 0.006498081609606742858886718750 0 0 0 0 
2405666666.6666665077 0.188373520970344487945880018742 0.038337003439664840698242187500 0.001968993572518229918238974463 0.006233902648091316223144531250 0 0 0 0 
2405833333.3333334923 0.189980834722518893142861884371 0.038116049021482467651367187500 0.002046674024313687844517373193 0.006169377826154232025146484375 0 0 0 0 
2406000000.0000000000 0.191124394536018399337606865629 0.038029666990041732788085937500 0.002314856508746743202209472656 0.006010612938553094863891601562 0 0 0 0 
2406166666.6666665077 0.192379042506218012054119981258 0.037973534315824508666992187500 0.002873917343094944953918457031 0.005941800773143768310546875000 0 0 0 0 
2406333333.3333334923 0.193722441792488098144531250000 0.038131941109895713115651716407 0.002947049215435982184169150244 0.005659938789904117584228515625 0 0 0 0 
2406500000.0000000000 0.194729328155517605880575615629 0.038377653807401657104492187500 0.003112013917416334152221679688 0.005475957877933979034423828125 0 0 0 0 
2406666666.6666665077 0.195523709058761596679687500000 0.038549762219190597534179687500 0.003309371182695031166076660156 0.005358749534934759140014648438 0 0 0 0 
2406833333.3333334923 0.196383371949195889571981865629 0.038797207176685333251953125000 0.003648918820545076890232705225 0.005119248759001494321341230176 0 0 0 0 
2407000000.0000000000 0.196978360414505004882812500000 0.039270844310522079467773437500 0.003750446951016784147975302588 0.004825503099709749221801757812 0 0 0 0 
2407166666.6666665077 0.197506964206695612151776231258 0.039370849728584289550781250000 0.003792544594034553007838583838 0.004595539532601833343505859375 0 0 0 0 
2407333333.3333334923 0.197727710008621188064736884371 0.039796654134988791728932966407 0.003906584810465574264526367188 0.004551050718873739242553710938 0 0 0 0 
2407500000.0000000000 0.197916969656944302657919365629 0.040169179439544677734375000000 0.004043478053063154220581054688 0.004405451007187367352957441113 0 0 0 0 
2407666666.6666665077 0.198261812329292297363281250000 0.040474623441696166992187500000 0.004089877475053071975708007812 0.003991598729044198989868164062 0 0 0 0 
2407833333.3333334923 0.197977498173713711837606865629 0.040706664323806762695312500000 0.004278368316590785980224609375 0.003921110183000564575195312500 0 0 0 0 
2408000000.0000000000 0.198011219501495389083700615629 0.040804706513881683349609375000 0.004396572243422269821166992188 0.003917826339602470397949218750 0 0 0 0 
2408166666.6666665077 0.197603836655616788009481865629 0.040969587862491607666015625000 0.004480642266571521759033203125 0.003579256124794483184814453125 0 0 0 0 
2408333333.3333334923 0.197186142206191988845986884371 0.040567021816968917846679687500 0.004636767785996198654174804688 0.003469200571998953819274902344 0 0 0 0 
2408500000.0000000000 0.196520924568176297286825615629 0.040854565799236297607421875000 0.004722786135971546173095703125 0.003061638446524738831761025537 0 0 0 0 
2408666666.6666665077 0.196099847555160494705361884371 0.040553584694862372661550153907 0.004740532953292131423950195312 0.002922037383541464805603027344 0 0 0 0 
2408833333.3333334923 0.195449203252792386154013115629 0.040116578340530402446706403907 0.004729009233415126800537109375 0.002723666839301586151123046875 0 0 0 0 
2409000000.0000000000 0.194550037384033203125000000000 0.039561111479997641826589216407 0.004705456551164388656616210938 0.002553670434281229972839355469 0 0 0 0 
2409166666.6666665077 0.193410426378250094314736884371 0.039000943303108222270925153907 0.004727559164166451367850019238 0.002293024212121963934657431494 0 0 0 0 
2409333333.3333334923 0.192679405212402288238848768742 0.038152001798152916645090471093 0.004684471525251865386962890625 0.002227486576884984970092773438 0 0 0 0 
2409500000.0000000000 0.191398695111274691482705634371 0.037112645804882049560546875000 0.004696293268352746963500976562 0.002153708599507809118983603369 0 0 0 0 
2409666666.6666665077 0.190348759293556213378906250000 0.036035060882568359375000000000 0.004645207896828651428222656250 0.001789102330803870937944721753 0 0 0 0 
2409833333.3333334923 0.189134851098060607910156250000 0.034635480493307106708567033593 0.004804080817848443984985351562 0.001673752325586975054499960791 0 0 0 0 
2410000000.0000000000 0.188050612807273892501669365629 0.033213287591934197162668596093 0.004574477206915616989135742188 0.001660738606005907058715820312 0 0 0 0 
2410166666.6666665077 0.186924800276756286621093750000 0.031609691679477691650390625000 0.004653555341064929962158203125 0.001503934268839657089830708081 0 0 0 0 
2410333333.3333334923 0.185741901397705105880575615629 0.029982073232531551015833670704 0.004672067239880561828613281250 0.001368183060549200014827109229 0 0 0 0 
2410500000.0000000000 0.184603244066238403320312500000 0.027910873293876651418665701954 0.004509611520916224393362714551 0.001454533543437718911411904443 0 0 0 0 
2410666666.6666665077 0.183410674333572387695312500000 0.025960192084312438964843750000 0.004598400555551052093505859375 0.001302207121625543074366904150 0 0 0 0 
2410833333.3333334923 0.182621568441390991210937500000 0.023869335651397708547571951954 0.004799423273652791976928710938 0.001141220796853303909301757812 0 0 0 0 
2411000000.0000000000 0.181597292423248291015625000000 0.021575570106506351125696951954 0.004691082052886486053466796875 0.000999447889626026153564453125 0 0 0 0 
2411166666.6666665077 0.180590331554412786285723768742 0.019351841881871219980260079296 0.004654377233237028121948242188 0.000713653338607400655746459961 0 0 0 0 
2411333333.3333334923 0.179772973060607910156250000000 0.016728933900594711303710937500 0.004654217977076768875122070312 0.000892457377631217241287231445 0 0 0 0 
2411500000.0000000000 0.179216697812080411056356865629 0.014322417788207529240618320898 0.004601527936756610870361328125 0.000583259621635079383850097656 0 0 0 0 
2411666666.6666665077 0.178773730993270901779013115629 0.011862130835652349644671055273 0.004683556035161018371582031250 0.000447947764769196510314941406 0 0 0 0 
2411833333.3333334923 0.178443849086761502364950615629 0.009206629358232021331787109375 0.004688843619078397750854492188 0.000281092361547052914470118390 0 0 0 0 
2412000000.0000000000 0.178316146135330200195312500000 0.006463092751801013946533203125 0.004486623685806989669799804688 0.000296395766781642978817540302 0 0 0 0 
2412166666.6666665077 0.178362339735031100174111884371 0.004081441089510917663574218750 0.004703344777226448059082031250 0.000176207962795160710811614990 0 0 0 0 
2412333333.3333334923 0.178127944469451904296875000000 0.001156042329967021942138671875 0.004481894895434379577636718750 0.000064173036662396043539047241 0 0 0 0 
2412500000.0000000000 0.178576081991195706466513115629 -0.001484298612922430038452148438 0.004645739682018756866455078125 0.000000384322760282884701155126 0 0 0 0 
2412666666.6666665077 0.179007664322853088378906250000 -0.004189554136246442794799804688 0.004660842474550008773803710938 -0.000139684576424770111411494122 0 0 0 0 
2412833333.3333334923 0.179723232984542902190838731258 -0.006711432244628667831420898438 0.004689413122832775115966796875 -0.000393165304558351581722813739 0 0 0 0 
2413000000.0000000000 0.180188789963722201248330634371 -0.009456265717744827270507812500 0.004716929048299789428710937500 -0.000502482405863702297210693359 0 0 0 0 
2413166666.6666665077 0.180996060371398898025674384371 -0.011933127418160440272321132227 0.004731144290417432785034179688 -0.000578285020310431718826293945 0 0 0 0 
2413333333.3333334923 0.181945472955703707595986884371 -0.014420690946280959737757498829 0.004754954483360052108764648438 -0.000660094257909804582595825195 0 0 0 0 
2413500000.0000000000 0.182684332132339505294638115629 -0.017119426280260089529017264454 0.004735512193292379379272460938 -0.000945135252550244331359863281 0 0 0 0 
2413666666.6666665077 0.184162288904190091232138115629 -0.019671939313411709177037423046 0.004642395302653312683105468750 -0.001139829750172794082044291919 0 0 0 0 
2413833333.3333334923 0.185112074017524691482705634371 -0.021748581901192668569544608204 0.004645804408937692642211914062 -0.001252320711500942923902202075 0 0 0 0 
2414000000.0000000000 0.186411336064338711837606865629 -0.024231866002082831645925153907 0.004469173029065132141113281250 -0.001484078587964176914812397534 0 0 0 0 
2414166666.6666665077 0.187724828720092801193075615629 -0.026188064366579059255579764454 0.004689794033765792846679687500 -0.001515869982540608102913881616 0 0 0 0 
2414333333.3333334923 0.188929572701454190353231865629 -0.028455350548028949392298514454 0.004609857685863971710205078125 -0.001821087906137109019635844653 0 0 0 0 
2414500000.0000000000 0.190326943993568392654580634371 -0.030339436605572700500488281250 0.004509064834564924240112304688 -0.001944271614775062041041708838 0 0 0 0 
2414666666.6666665077 0.191590979695320101638955634371 -0.032047733664512627338449846093 0.004201601259410381317138671875 -0.002205525059252976937534951318 0 0 0 0 
2414833333.3333334923 0.192847222089767511565838731258 -0.033613599836826317523996721093 0.004261706024408341321463300488 -0.002361005404964088959934853662 0 0 0 0 
2415000000.0000000000 0.194128543138504000564736884371 -0.035137925297021872783620466407 0.004211755469441413879394531250 -0.002523858798667788939235068213 0 0 0 0 
2415166666.6666665077 0.195652082562446594238281250000 -0.036456055939197540283203125000 0.004192710388451814651489257812 -0.002553210593760014014003134619 0 0 0 0 
2415333333.3333334923 0.196839660406112698654013115629 -0.037553131580352783203125000000 0.003960319329053164395804120801 -0.002612063428387045860290527344 0 0 0 0 
2415500000.0000000000 0.198351815342903109451455634371 -0.038323175162076950073242187500 0.004028000868856906890869140625 -0.002828099997714161872863769531 0 0 0 0 
2415666666.6666665077 0.199582621455192593673544365629 -0.039413906633853912353515625000 0.003955279476940631866455078125 -0.002989609958603978157043457031 0 0 0 0 
2415833333.3333334923 0.200735166668891906738281250000 -0.040176827460527420043945312500 0.003730808151885867118835449219 -0.003312391228973865942714072119 0 0 0 0 
2416000000.0000000000 0.201791599392890902420205634371 -0.040908377617597579956054687500 0.003635255852714180946350097656 -0.003369186306372284889221191406 0 0 0 0 
2416166666.6666665077 0.202749013900756808181924384371 -0.041462533175945281982421875000 0.003482550382614136175868368994 -0.003408737713471055030822753906 0 0 0 0 
2416333333.3333334923 0.203638851642608587066973768742 -0.041856829077005393291432966407 0.003371121594682335853576660156 -0.003571165027096867995021201025 0 0 0 0 
2416500000.0000000000 0.204554304480552701095419365629 -0.042084079235792160034179687500 0.003139507491141558127162314307 -0.003942931536585093411917402051 0 0 0 0 
2416666666.6666665077 0.205067068338394192794638115629 -0.042491093277931213378906250000 0.002921642269939184188842773438 -0.004004890564829111099243164062 0 0 0 0 
2416833333.3333334923 0.205437466502189608474893134371 -0.042572971433401107788085937500 0.002782479859888554053065634619 -0.004118217620998620986938476562 0 0 0 0 
2417000000.0000000000 0.205822721123695401290731865629 -0.042515225708484649658203125000 0.002485913923010230064392089844 -0.004334257915616036328787519238 0 0 0 0 
2417166666.6666665077 0.205890327692031888107138115629 -0.042418483644723892211914062500 0.002252860693261026902439736475 -0.004072610754519701004028320312 0 0 0 0 
2417333333.3333334923 0.205872029066085787674111884371 -0.042117044329643249511718750000 0.002072410425171256065368652344 -0.004120656754821538925170898438 0 0 0 0 
2417500000.0000000000 0.205797955393791198730468750000 -0.042012102901935577392578125000 0.002019343664869666099548339844 -0.003985294606536626815795898438 0 0 0 0 
2417666666.6666665077 0.205505430698394803146200615629 -0.041810534894466400146484375000 0.001734351622872055010554648291 -0.004130254499614238739013671875 0 0 0 0 
2417833333.3333334923 0.205159142613411005218182481258 -0.041382722556591026996652971093 0.001489096088334918022155761719 -0.004139707889407873153686523438 0 0 0 0 
2418000000.0000000000 0.204700335860252408126669365629 -0.040970604866743087768554687500 0.001410640194080770015716552734 -0.004182129167020320892333984375 0 0 0 0 
2418166666.6666665077 0.204049482941627502441406250000 -0.040738895535469062114675153907 0.001369432080537080981610942310 -0.003985320217907428741455078125 0 0 0 0 
2418333333.3333334923 0.203198000788688687423544365629 -0.040393300354480743408203125000 0.001191853778436779975891113281 -0.003988188225775957107543945312 0 0 0 0 
2418500000.0000000000 0.202332451939582796951455634371 -0.040155585855245590209960937500 0.001247071893885731913922954028 -0.004001233261078596115112304688 0 0 0 0 
2418666666.6666665077 0.201407790184020996093750000000 -0.039873093366622931743581403907 0.001030030194669961929321289062 -0.003992784768342971801757812500 0 0 0 0 
2418833333.3333334923 0.200317293405532809158486884371 -0.039812497794628143310546875000 0.001004812074825168089625693213 -0.004089188296347857388968183301 0 0 0 0 
2419000000.0000000000 0.198832780122757013518963731258 -0.039814129471778869628906250000 0.001058159628883003971697163159 -0.004135339055210351943969726562 0 0 0 0 
2419166666.6666665077 0.197597071528434808929119981258 -0.039856232702732093120534528907 0.000906476227100938558578491211 -0.004163782112300395965576171875 0 0 0 0 
2419333333.3333334923 0.196185871958732604980468750000 -0.040199786424636840820312500000 0.000692214176524430513381958008 -0.004112485796213150024414062500 0 0 0 0 
2419500000.0000000000 0.194708988070488003829794365629 -0.040350951254367828369140625000 0.000643442908767610788345336914 -0.004139298573136329650878906250 0 0 0 0 
2419666666.6666665077 0.192914858460426302810830634371 -0.040901135653257369995117187500 0.000424316793214529806941431866 -0.004251636564731597900390625000 0 0 0 0 
2419833333.3333334923 0.191227376461029108245526231258 -0.041309189051389687274973283593 0.000351004884578287601470947266 -0.004249554127454757690429687500 0 0 0 0 
2420000000.0000000000 0.189641520380973788162393134371 -0.042047489434480667114257812500 0.000271122728008776903152465820 -0.004180062562227249145507812500 0 0 0 0 
