# Hz S RI R 
2400000000.0000000000 0.155617371201515197753906250000 0.111410692334175095985493442186 -0.004736391361802816390991210938 0.002589015290141106085536337744 0 0 0 0 
2400166666.6666665077 0.155033767223358209808026231258 0.109121784567833002288494981258 -0.004736817907541990280151367188 0.002698102034628390832188271631 0 0 0 0 
2400333333.3333334923 0.154895126819610595703125000000 0.106871493160724598259214701557 -0.004639713093638420104980468750 0.003002013079822063012364052881 0 0 0 0 
2400500000.0000000000 0.154394075274467496017294365629 0.104306675493717193603515625000 -0.004542325623333454132080078125 0.003047002945095301108119345557 0 0 0 0 
2400666666.6666665077 0.154252856969833401779013115629 0.101663000881671905517578125000 -0.004518064204603433609008789062 0.003547932952642440795898437500 0 0 0 0 
2400833333.3333334923 0.153854712843894986251669365629 0.098811641335487365722656250000 -0.004325514193624258041381835938 0.003750984324142336845397949219 0 0 0 0 
2401000000.0000000000 0.153806924819946289062500000000 0.095832802355289459228515625000 -0.004206113517284393310546875000 0.003738925093784927888157509912 0 0 0 0 
2401166666.6666665077 0.153628304600715609451455634371 0.092943795025348663330078125000 -0.004115833435207605361938476562 0.003953200764954090118408203125 0 0 0 0 
2401333333.3333334923 0.153630018234252901931924384371 0.090142741799354553222656250000 -0.003809115150943398909327841650 0.004097007215023040771484375000 0 0 0 0 
2401500000.0000000000 0.154009848833084106445312500000 0.087127931416034698486328125000 -0.003711753757670522169825888525 0.004215131513774394989013671875 0 0 0 0 
2401666666.6666665077 0.154017001390457208831463731258 0.084021672606468200683593750000 -0.003623476019129157066345214844 0.004244570154696702957153320312 0 0 0 0 
2401833333.3333334923 0.154175713658332796951455634371 0.081112764775753021240234375000 -0.003453526413068174882176064600 0.004450946114957332611083984375 0 0 0 0 
2402000000.0000000000 0.154864728450775201995526231258 0.078284263610839843750000000000 -0.003347110003232955932617187500 0.004534832667559385299682617188 0 0 0 0 
2402166666.6666665077 0.155496716499328613281250000000 0.075517378747463226318359375000 -0.003345764009281992912292480469 0.004752590321004390716552734375 0 0 0 0 
2402333333.3333334923 0.156307443976402310470419365629 0.072346702218055725097656250000 -0.003120274515822529792785644531 0.004769891034811735153198242188 0 0 0 0 
2402500000.0000000000 0.157326608896255493164062500000 0.069769732654094696044921875000 -0.002885509282350540161132812500 0.004941175226122140884399414062 0 0 0 0 
2402666666.6666665077 0.158301174640655489822549384371 0.067248933017253875732421875000 -0.002723323414102197127101279150 0.005087673198431730270385742188 0 0 0 0 
2402833333.3333334923 0.159620359539985712249432481258 0.064573429524898529052734375000 -0.002667111111804842948913574219 0.005231038201600313186645507812 0 0 0 0 
2403000000.0000000000 0.161004811525344904143963731258 0.062027294188737869262695312500 -0.002418087562546133995056152344 0.005292046815156936645507812500 0 0 0 0 
2403166666.6666665077 0.162639513611793490310830634371 0.059581827372312552715261091407 -0.002501324051991105079650878906 0.005301038268953561782836914062 0 0 0 0 
2403333333.3333334923 0.164167881011962890625000000000 0.057010505348443991924245466407 -0.002113815397024155096766806494 0.005521199200302361574654863574 0 0 0 0 
2403500000.0000000000 0.165848925709724398513955634371 0.054810263216495506977121721093 -0.002073672134429215951206826318 0.005596145987510681152343750000 0 0 0 0 
2403666666.6666665077 0.167777553200721712967080634371 0.052715439349412918090820312500 -0.001839305972680449919459677588 0.005853587761521339416503906250 0 0 0 0 
2403833333.3333334923 0.169546961784362792968750000000 0.050590101629495620727539062500 -0.001562034478411079103585268335 0.006022899411618710431570722363 0 0 0 0 
2404000000.0000000000 0.171184673905372591873330634371 0.048629872500896446918527971093 -0.001418417668901384093640971606 0.006051248870790004730224609375 0 0 0 0 
2404166666.6666665077 0.173146978020668002029580634371 0.046915698796510703350026716407 -0.001134084188379347107530903394 0.006112949922680854797363281250 0 0 0 0 
2404333333.3333334923 0.174847558140754699707031250000 0.045183084905147552490234375000 -0.000759848451707512140274047852 0.006314923055469989776611328125 0 0 0 0 
2404500000.0000000000 0.176711529493331909179687500000 0.043630402535200119018554687500 -0.000557773339096456766128540039 0.006469345185905694961547851562 0 0 0 0 
2404666666.6666665077 0.178606271743774386306924384371 0.042413566261529922485351562500 -0.000230665798881091204568585806 0.006560338195413351058959960938 0 0 0 0 
2404833333.3333334923 0.180510520935058593750000000000 0.041122145950794219970703125000 0.000036382556572789333086421354 0.006551680155098438262939453125 0 0 0 0 
2405000000.0000000000 0.181973204016685513595419365629 0.040400322526693337177317033593 0.000346468936186283826828002930 0.006663518026471138000488281250 0 0 0 0 
2405166666.6666665077 0.183820128440856905838174384371 0.039547406136989586566965471093 0.000814122438896447420120239258 0.006591034587472677230834960938 0 0 0 0 
2405333333.3333334923 0.185657486319541903396768134371 0.039071671664714813232421875000 0.001095527317374944903730082935 0.006535277701914311322684003613 0 0 0 0 
2405500000.0000000000 0.187185883522033691406250000000 0.038569670170545578002929687500 0.001435245154425502040265727466 0.006508319638669490814208984375 0 0 0 0 
2405666666.6666665077 0.188723817467689486404580634371 0.038213118910789489746093750000 0.001914361608214675946476601709 0.006466549821197986602783203125 0 0 0 0 
2405833333.3333334923 0.190217331051826504806356865629 0.038008559495210647583007812500 0.001895869383588433048845600659 0.006149862892925739288330078125 0 0 0 0 
2406000000.0000000000 0.191576898097991887848223768742 0.037798024713993072509765625000 0.002320959698408842086791992188 0.006089047063142061233520507812 0 0 0 0 
2406166666.6666665077 0.192754983901977511306924384371 0.037777546793222427368164062500 0.002662232145667076110839843750 0.006059734616428613662719726562 0 0 0 0 
2406333333.3333334923 0.193974137306213406661825615629 0.037912100553512573242187500000 0.002909122500568627877476357568 0.005748541094362735748291015625 0 0 0 0 
2406500000.0000000000 0.195001423358917208572549384371 0.038008838891983032226562500000 0.003013125620782374902012490381 0.005391293205320835113525390625 0 0 0 0 
2406666666.6666665077 0.195829957723617609222088731258 0.038286887109279632568359375000 0.003183280117809772925135947119 0.005346953403204680356497480176 0 0 0 0 
2406833333.3333334923 0.196713298559188787262286268742 0.038430459797382361675222028907 0.003306820522993803024291992188 0.005188218317925930023193359375 0 0 0 0 
2407000000.0000000000 0.197195455431938199142294365629 0.038989592343568801879882812500 0.003475676756352186203002929688 0.005036404356360436353201581738 0 0 0 0 
2407166666.6666665077 0.197883382439613286774005018742 0.039027746766805648803710937500 0.003741445019841194152832031250 0.004867125302553176879882812500 0 0 0 0 
2407333333.3333334923 0.197939112782478304763955634371 0.039397660642862319946289062500 0.003829149762168527083155966650 0.004547601565718650817871093750 0 0 0 0 
2407500000.0000000000 0.198212891817092895507812500000 0.039814341813325881958007812500 0.004012604709714651107788085938 0.004393690731376410398001386426 0 0 0 0 
2407666666.6666665077 0.198479607701301602462606865629 0.039975192397832870483398437500 0.004157906863838434219360351562 0.004215499851852655410766601562 0 0 0 0 
2407833333.3333334923 0.198048725724220303634481865629 0.040299359709024429321289062500 0.004293596372008323669433593750 0.004077420569956302642822265625 0 0 0 0 
2408000000.0000000000 0.198228374123573303222656250000 0.040510661900043487548828125000 0.004228662699460983276367187500 0.003802509512752294974086142432 0 0 0 0 
2408166666.6666665077 0.197757273912429809570312500000 0.040434706956148147583007812500 0.004558814223855733871459960938 0.003778507933020592169520712744 0 0 0 0 
2408333333.3333334923 0.197416827082633999923544365629 0.040361709892749793315847028907 0.004663047380745410919189453125 0.003562204306945205168483115088 0 0 0 0 
2408500000.0000000000 0.196719691157341003417968750000 0.040404193103313452983815778907 0.004606028087437152862548828125 0.003288340056315063996555947412 0 0 0 0 
2408666666.6666665077 0.196232423186302212814169365629 0.040068458765745162963867187500 0.004724741913378238677978515625 0.003019411349669098854064941406 0 0 0 0 
2408833333.3333334923 0.195509016513824490646200615629 0.039721336215734481811523437500 0.004840887617319822311401367188 0.002770572435110806985142373193 0 0 0 0 
2409000000.0000000000 0.194439321756362887283486884371 0.039081666618585586547851562500 0.004889225121587514877319335938 0.002593604614958167076110839844 0 0 0 0 
2409166666.6666665077 0.193566054105758694747763115629 0.038361575454473502422292341407 0.004939741920679807662963867188 0.002236919477581977844238281250 0 0 0 0 
2409333333.3333334923 0.192536696791648892501669365629 0.037770420312881469726562500000 0.004866160452365875244140625000 0.002158448100090026855468750000 0 0 0 0 
2409500000.0000000000 0.191401690244674710372763115629 0.036694031208753592754323591407 0.004758755210787057876586914062 0.001958009321242570877075195312 0 0 0 0 
2409666666.6666665077 0.190314367413520812988281250000 0.035491410642862319946289062500 0.004773325752466917037963867188 0.001778907724656165079829550635 0 0 0 0 
2409833333.3333334923 0.188970610499381991287393134371 0.034279603511095046997070312500 0.004682475700974464416503906250 0.001621482777409255938289023291 0 0 0 0 
2410000000.0000000000 0.187910079956054687500000000000 0.032780367881059646606445312500 0.004666679538786411285400390625 0.001583762001246213912963867188 0 0 0 0 
2410166666.6666665077 0.186699166893959100921307481258 0.031191550195217129098912423046 0.004763858858495950698852539062 0.001399644184857607104657817310 0 0 0 0 
2410333333.3333334923 0.185500502586364801604901231258 0.029670838266611099243164062500 0.004642790649086236953735351562 0.001272921683266758918762207031 0 0 0 0 
2410500000.0000000000 0.184449270367622403243856865629 0.027683977037668231618861014454 0.004608664661645889282226562500 0.001150667201727628924726176685 0 0 0 0 
2410666666.6666665077 0.183245643973350497146768134371 0.025489697232842448842982108204 0.004634984768927097320556640625 0.001212295843288301987888955225 0 0 0 0 
2410833333.3333334923 0.182439297437667902190838731258 0.023443941026926040649414062500 0.004650049842894077301025390625 0.000997185357846319675445556641 0 0 0 0 
2411000000.0000000000 0.181287631392478887359942518742 0.021129250526428219186803048046 0.004770638421177864074707031250 0.000838025414850562810897827148 0 0 0 0 
2411166666.6666665077 0.180384010076522799392861884371 0.019018776714801788330078125000 0.004625306464731693267822265625 0.000828497635666280984878540039 0 0 0 0 
2411333333.3333334923 0.179679766297340393066406250000 0.016523797065019611013392264454 0.004559453111141920089721679688 0.000757603032980114221572875977 0 0 0 0 
2411500000.0000000000 0.179031193256378201583700615629 0.014056037180125709878941719921 0.004678307101130486402029706738 0.000542181835044175386428833008 0 0 0 0 
2411666666.6666665077 0.178689464926719693282919365629 0.011669690720736980438232421875 0.004694940987974405288696289062 0.000489999714773148298263549805 0 0 0 0 
2411833333.3333334923 0.178193822503089904785156250000 0.009187246672809123992919921875 0.004681528080254793167114257812 0.000226682997890748110696515494 0 0 0 0 
2412000000.0000000000 0.178095057606697110275106865629 0.006463041994720697402954101562 0.004494308494031429290771484375 0.000097315001767128705978393555 0 0 0 0 
2412166666.6666665077 0.177873969078063992599325615629 0.003881156444549560980555868994 0.004558032378554344177246093750 -0.000070961104938760399818420410 0 0 0 0 
2412333333.3333334923 0.178021416068077087402343750000 0.001090260804630815982818603516 0.004524795338511466979980468750 -0.000056406934163533151149749756 0 0 0 0 
2412500000.0000000000 0.178227797150611905196981865629 -0.001464784494601190090179443359 0.004564647097140550613403320312 -0.000197264729649759801939287729 0 0 0 0 
2412666666.6666665077 0.178696244955062893966513115629 -0.004163646139204502105712890625 0.004542186390608549118041992188 -0.000307647889712825417518615723 0 0 0 0 
2412833333.3333334923 0.179297521710395812988281250000 -0.006720962002873420715332031250 0.004430006258189678192138671875 -0.000401811412302777225345057355 0 0 0 0 
2413000000.0000000000 0.179903060197830200195312500000 -0.009322430007159709930419921875 0.004611717071384192380423261426 -0.000576232385355979204177856445 0 0 0 0 
2413166666.6666665077 0.180528402328491210937500000000 -0.011881768703460689889928048046 0.004392862785607576370239257812 -0.000771621183957904577255249023 0 0 0 0 
2413333333.3333334923 0.181847929954528808593750000000 -0.014427121728658679616907889454 0.004478543996810913085937500000 -0.000949725334066897630691528320 0 0 0 0 
2413500000.0000000000 0.182526335120201110839843750000 -0.017034605145454410207728201954 0.004454492125660181045532226562 -0.001116279629059135913848876953 0 0 0 0 
2413666666.6666665077 0.183925434947013910491619981258 -0.019647300243377689016321951954 0.004636941011995077133178710938 -0.001286725280806422016741108472 0 0 0 0 
2413833333.3333334923 0.184989228844642611404580634371 -0.021915955469012260437011718750 0.004367677494883537292480468750 -0.001463513937778770923614501953 0 0 0 0 
2414000000.0000000000 0.186170682311057988922442518742 -0.024089431390166279184361641796 0.004422981757670640945434570312 -0.001660908805206418037414550781 0 0 0 0 
2414166666.6666665077 0.187515363097190912444744981258 -0.026217170059680938720703125000 0.004289524629712104797363281250 -0.001765299122780561013462685693 0 0 0 0 
2414333333.3333334923 0.188623771071433993240518134371 -0.028402674943208690988560860546 0.004256721120327711105346679688 -0.001897891983389853997471474756 0 0 0 0 
2414500000.0000000000 0.190078049898147610763388115629 -0.030158307403326041484792341407 0.004162264056503772735595703125 -0.001957372995093464851379394531 0 0 0 0 
2414666666.6666665077 0.191385284066200311858807481258 -0.031926855444908142089843750000 0.004286832641810178756713867188 -0.002152244560420513153076171875 0 0 0 0 
2414833333.3333334923 0.192787751555442810058593750000 -0.033555347472429282451589216407 0.004008419346064329147338867188 -0.002255951985716820196864462744 0 0 0 0 
2415000000.0000000000 0.194040566682815607268963731258 -0.034929808229207992553710937500 0.003991500940173864364624023438 -0.002433883026242256164550781250 0 0 0 0 
2415166666.6666665077 0.195591568946838406661825615629 -0.036383762955665588378906250000 0.003888205857947469191310263525 -0.002412295201793313026428222656 0 0 0 0 
2415333333.3333334923 0.196937859058380099197549384371 -0.037420161068439476703684221093 0.003829210763797163963317871094 -0.002651850925758481025695800781 0 0 0 0 
2415500000.0000000000 0.198295637965202303787393134371 -0.038412060588598251342773437500 0.003659461857751011848449707031 -0.002765905810520052909851074219 0 0 0 0 
2415666666.6666665077 0.199564442038536099532919365629 -0.039392281323671340942382812500 0.003430559299886227087733603369 -0.002781606744974852041957236182 0 0 0 0 
2415833333.3333334923 0.200592860579490689376669365629 -0.040031135082244873046875000000 0.003547475207597016854527138818 -0.003010739805176854133605957031 0 0 0 0 
2416000000.0000000000 0.201765641570091303069744981258 -0.040728121995925903320312500000 0.003428994677960873083827353369 -0.003112256294116377830505371094 0 0 0 0 
2416166666.6666665077 0.202768787741661099532919365629 -0.041439034044742577289621721093 0.003293187124654651121852255713 -0.003259287215769290924072265625 0 0 0 0 
2416333333.3333334923 0.203738495707511901855468750000 -0.041658360511064529418945312500 0.003145124297589064078090048682 -0.003340771654620767073390341650 0 0 0 0 
2416500000.0000000000 0.204431235790252713302450615629 -0.042069833725690841674804687500 0.002947959583252667947056435693 -0.003636259818449615998509072412 0 0 0 0 
2416666666.6666665077 0.205106839537620488922442518742 -0.042398050427436828613281250000 0.002789092948660254912135458838 -0.003699460765346885161158896338 0 0 0 0 
2416833333.3333334923 0.205505758523941012283486884371 -0.042441472411155700683593750000 0.002665145555511116981506347656 -0.003789836773648858070373535156 0 0 0 0 
2417000000.0000000000 0.205906257033348111251669365629 -0.042463675141334526752512346093 0.002504362724721432165858603369 -0.003862778190523386001586914062 0 0 0 0 
2417166666.6666665077 0.205934837460517911056356865629 -0.042335651814937591552734375000 0.002223217161372303962707519531 -0.003999614622443914413452148438 0 0 0 0 
2417333333.3333334923 0.205879703164100702483807481258 -0.042039263993501663208007812500 0.002057404257357120947596884619 -0.003965518902987241744995117188 0 0 0 0 
2417500000.0000000000 0.205844223499298095703125000000 -0.041999995708465583110768903907 0.001897304784506558938267373193 -0.003960315138101577758789062500 0 0 0 0 
2417666666.6666665077 0.205587297677993802169638115629 -0.041554231196641921997070312500 0.001632572617381810925127338940 -0.003902174066752194924595498193 0 0 0 0 
2417833333.3333334923 0.205328598618507413009481865629 -0.041334368288516998291015625000 0.001500753802247345013859414209 -0.003751161275431513786315917969 0 0 0 0 
2418000000.0000000000 0.204892486333847101409588731258 -0.040901601314544677734375000000 0.001402478897944092967389750903 -0.003990077413618564605712890625 0 0 0 0 
2418166666.6666665077 0.204190045595169095138388115629 -0.040673658251762390136718750000 0.001433044322766364054438925635 -0.003838436212390660805943154443 0 0 0 0 
2418333333.3333334923 0.203396096825599698165731865629 -0.040368314832448959350585937500 0.001347080455161631107330322266 -0.003887642174959183172938681494 0 0 0 0 
2418500000.0000000000 0.202443018555641202071981865629 -0.040099326521158218383789062500 0.001217541983351110978367470850 -0.003740143030881882147548056494 0 0 0 0 
2418666666.6666665077 0.201611980795860290527343750000 -0.039870940148830406879465471093 0.001051505911163985946057963794 -0.003788117785006761984584189307 0 0 0 0 
2418833333.3333334923 0.200558185577392605880575615629 -0.039783477783203131938893903907 0.000974694150499999523162841797 -0.003787170164287089867832802881 0 0 0 0 
2419000000.0000000000 0.199262946844101007659588731258 -0.039812944829463958740234375000 0.000884834618773311376571655273 -0.003912726882845163345336914062 0 0 0 0 
2419166666.6666665077 0.197983831167221097091513115629 -0.039869021624326712871511091407 0.000660504272673279047012329102 -0.003975372295826674375052167676 0 0 0 0 
2419333333.3333334923 0.196506530046463012695312500000 -0.040182523429393768310546875000 0.000613889947999268770217895508 -0.003988417796790599822998046875 0 0 0 0 
2419500000.0000000000 0.194962531328201293945312500000 -0.040352936834096908569335937500 0.000562402303330600261688232422 -0.003934735897928476333618164062 0 0 0 0 
2419666666.6666665077 0.193323329091072110275106865629 -0.041005186736583709716796875000 0.000422182813053950721591395245 -0.003978030756115913391113281250 0 0 0 0 
2419833333.3333334923 0.191538408398628207107705634371 -0.041504014283418662334401716407 0.000241166140767745700761517935 -0.004225677344948053359985351562 0 0 0 0 
2420000000.0000000000 0.189887106418609591385049384371 -0.042041424661874771118164062500 0.000021220748749328780582154921 -0.003902297699823975996730185400 0 0 0 0 
