# Version 1.00
#
freq[Hz];re:Trc1_S11;im:Trc1_S11;re:Trc2_S21;im:Trc2_S21;
2.400000000000000E+009;1.686796247959137E-001;3.950523212552071E-002;2.481495495885611E-003;1.183325657621026E-003;
2.400166666666667E+009;1.696225702762604E-001;3.899952396750450E-002;2.422785619273782E-003;1.273959991522133E-003;
2.400333333333334E+009;1.701233088970184E-001;3.794274106621742E-002;2.642557024955750E-003;1.501673716120422E-003;
2.400500000000000E+009;1.707230508327484E-001;3.713319823145866E-002;2.848949516192079E-003;1.497090444900096E-003;
2.400666666666667E+009;1.711914837360382E-001;3.627257421612740E-002;3.086937591433525E-003;1.435319427400827E-003;
2.400833333333334E+009;1.718722730875015E-001;3.565379977226257E-002;3.216040553525090E-003;1.464697648771107E-003;
2.401000000000000E+009;1.721458882093430E-001;3.492902219295502E-002;3.445077920332551E-003;1.327040721662343E-003;
2.401166666666667E+009;1.725013107061386E-001;3.417985886335373E-002;3.809402463957667E-003;1.136181061156094E-003;
2.401333333333334E+009;1.725593805313110E-001;3.362103551626205E-002;4.009318538010120E-003;8.894150960259140E-004;
2.401500000000000E+009;1.729682981967926E-001;3.267569467425346E-002;4.143500234931707E-003;7.509824936278164E-004;
2.401666666666667E+009;1.733265519142151E-001;3.212716057896614E-002;4.301376640796661E-003;3.068778605666012E-004;
2.401833333333334E+009;1.735109090805054E-001;3.130169212818146E-002;4.399293102324009E-003;1.530815352452919E-004;
2.402000000000000E+009;1.731565147638321E-001;3.063765168190002E-002;4.523470066487789E-003;-1.828000968089327E-004;
2.402166666666667E+009;1.732442826032639E-001;2.960115298628807E-002;4.366963636130095E-003;-4.860863264184445E-004;
2.402333333333334E+009;1.732930094003677E-001;2.889879979193211E-002;4.227267578244209E-003;-8.561446447856724E-004;
2.402500000000000E+009;1.733720004558563E-001;2.825962565839291E-002;4.283349495381117E-003;-1.108736614696682E-003;
2.402666666666667E+009;1.732134073972702E-001;2.750845253467560E-002;4.163500852882862E-003;-1.453824923373759E-003;
2.402833333333334E+009;1.731913387775421E-001;2.662680856883526E-002;3.950907383114100E-003;-1.627504243515432E-003;
2.403000000000000E+009;1.730318367481232E-001;2.572676725685597E-002;3.933065570890904E-003;-1.711950288154185E-003;
2.403166666666667E+009;1.731176376342773E-001;2.474688179790974E-002;3.772807773202658E-003;-1.871134038083255E-003;
2.403333333333334E+009;1.727644950151444E-001;2.372157573699951E-002;3.553297836333513E-003;-2.097683958709240E-003;
2.403500000000000E+009;1.723636686801910E-001;2.261602506041527E-002;3.553147427737713E-003;-2.139392308890820E-003;
2.403666666666667E+009;1.721834242343903E-001;2.149220928549767E-002;3.442348446696997E-003;-2.154661342501640E-003;
2.403833333333334E+009;1.719120591878891E-001;2.026205696165562E-002;3.312585409730673E-003;-2.143705263733864E-003;
2.404000000000000E+009;1.716693043708801E-001;1.913504675030708E-002;3.153124824166298E-003;-2.397652948275209E-003;
2.404166666666667E+009;1.715555340051651E-001;1.782221905887127E-002;3.029331564903259E-003;-2.422061515972018E-003;
2.404333333333334E+009;1.711043566465378E-001;1.661720313131809E-002;2.969769295305014E-003;-2.594208111986518E-003;
2.404500000000000E+009;1.707200258970261E-001;1.497968100011349E-002;2.991010434925556E-003;-2.831647871062160E-003;
2.404666666666667E+009;1.707065403461456E-001;1.383820269256830E-002;2.691230736672878E-003;-2.820480149239302E-003;
2.404833333333334E+009;1.704465150833130E-001;1.214348431676626E-002;2.633067779242992E-003;-2.893634373322129E-003;
2.405000000000000E+009;1.702510267496109E-001;1.081484369933605E-002;2.600637264549732E-003;-3.079929621890187E-003;
2.405166666666667E+009;1.700129061937332E-001;9.283087216317654E-003;2.397144678980112E-003;-3.045632038265467E-003;
2.405333333333334E+009;1.699544936418533E-001;7.423718459904194E-003;2.318020211532712E-003;-3.095837077125907E-003;
2.405500000000000E+009;1.696783006191254E-001;5.998398642987013E-003;2.197409281507134E-003;-3.448175033554435E-003;
2.405666666666667E+009;1.693822443485260E-001;4.166393540799618E-003;1.995813800022006E-003;-3.366307821124792E-003;
2.405833333333334E+009;1.691307574510574E-001;2.565438393503428E-003;1.892728963866830E-003;-3.181841922923923E-003;
2.406000000000000E+009;1.690977215766907E-001;7.055741152726114E-004;1.666909316554666E-003;-3.464577719569206E-003;
2.406166666666667E+009;1.688635945320129E-001;-8.274979772977531E-004;1.525600557215512E-003;-3.647708799690008E-003;
2.406333333333334E+009;1.687957197427750E-001;-2.566186944022775E-003;1.530316541902721E-003;-3.547503845766187E-003;
2.406500000000000E+009;1.684654653072357E-001;-4.349787719547749E-003;1.287843682803214E-003;-3.701273817569017E-003;
2.406666666666667E+009;1.680280119180679E-001;-5.872445646673441E-003;8.280309266410768E-004;-3.762537846341729E-003;
2.406833333333334E+009;1.680097728967667E-001;-7.645437493920326E-003;9.312083129771054E-004;-3.610256360843778E-003;
2.407000000000000E+009;1.679339408874512E-001;-9.269791655242443E-003;4.629864415619522E-004;-3.676725551486015E-003;
2.407166666666667E+009;1.678257137537003E-001;-1.070287730544806E-002;4.193897766526789E-004;-3.523215884342790E-003;
2.407333333333334E+009;1.675129681825638E-001;-1.229379512369633E-002;9.601809870218858E-005;-3.465377027168870E-003;
2.407500000000000E+009;1.673533916473389E-001;-1.373708900064230E-002;4.723020538222045E-006;-3.346220357343555E-003;
2.407666666666667E+009;1.671325415372849E-001;-1.515656616538763E-002;-1.019638366415165E-004;-3.243844257667661E-003;
2.407833333333334E+009;1.669680476188660E-001;-1.650224998593330E-002;-2.735214075073600E-004;-3.234934527426958E-003;
2.408000000000000E+009;1.669650077819824E-001;-1.780994422733784E-002;-3.941869072150439E-004;-3.046095371246338E-003;
2.408166666666667E+009;1.670744866132736E-001;-1.875714026391506E-002;-3.114582214038819E-004;-2.880616579204798E-003;
2.408333333333334E+009;1.673562824726105E-001;-1.985003240406513E-002;-6.187807302922010E-004;-2.796493237838149E-003;
2.408500000000000E+009;1.672559231519699E-001;-2.111730910837650E-002;-2.892731281463057E-004;-2.578775864094496E-003;
2.408666666666667E+009;1.674743145704269E-001;-2.201518602669239E-002;-4.765344783663750E-004;-2.694539027288556E-003;
2.408833333333334E+009;1.676364392042160E-001;-2.313872799277306E-002;-5.387568380683661E-004;-2.639313461259008E-003;
2.409000000000000E+009;1.678620576858521E-001;-2.388019673526287E-002;-5.448476294986904E-004;-2.368346555158496E-003;
2.409166666666667E+009;1.682731658220291E-001;-2.477765269577503E-002;-3.885855257976800E-004;-2.322956454008818E-003;
2.409333333333334E+009;1.687292605638504E-001;-2.592813596129417E-002;-4.992996109649539E-004;-2.279065316542983E-003;
2.409500000000000E+009;1.688026487827301E-001;-2.697084471583366E-002;-4.282544250600040E-004;-2.163304947316647E-003;
2.409666666666667E+009;1.690240949392319E-001;-2.770564146339893E-002;-4.031803691759706E-004;-2.352991607040167E-003;
2.409833333333334E+009;1.692644059658051E-001;-2.853947505354881E-002;-2.991182263940573E-004;-2.284469548612833E-003;
2.410000000000000E+009;1.698169559240341E-001;-2.953072637319565E-002;-1.625993754714727E-004;-2.249505603685975E-003;
2.410166666666667E+009;1.698951572179794E-001;-3.029355220496655E-002;-3.247512504458427E-004;-2.332933945581317E-003;
2.410333333333334E+009;1.700378060340881E-001;-3.125942125916481E-002;-3.913929976988584E-004;-2.375560346990824E-003;
2.410500000000000E+009;1.701927483081818E-001;-3.214786946773529E-002;-4.457282775547355E-004;-2.366968663409352E-003;
2.410666666666667E+009;1.702633500099182E-001;-3.308198973536491E-002;-4.952052258886397E-004;-2.365959575399756E-003;
2.410833333333334E+009;1.703382879495621E-001;-3.380080312490463E-002;-2.818570064846426E-004;-2.337887650355697E-003;
2.411000000000000E+009;1.703014969825745E-001;-3.454959020018578E-002;-4.923475207760930E-004;-2.440374344587326E-003;
2.411166666666667E+009;1.702863723039627E-001;-3.547114133834839E-002;-5.008014850318432E-004;-2.481714356690645E-003;
2.411333333333334E+009;1.701979786157608E-001;-3.612124174833298E-002;-5.872920155525208E-004;-2.496415283530951E-003;
2.411500000000000E+009;1.700007170438767E-001;-3.702651709318161E-002;-6.268144934438169E-004;-2.531141974031925E-003;
2.411666666666667E+009;1.701381206512451E-001;-3.761049732565880E-002;-5.073379143141210E-004;-2.517278073355556E-003;
2.411833333333334E+009;1.698694974184036E-001;-3.840643540024757E-002;-4.363206680864096E-004;-2.654944080859423E-003;
2.412000000000000E+009;1.696452796459198E-001;-3.907655924558640E-002;-5.689625395461917E-004;-2.799256239086390E-003;
2.412166666666667E+009;1.691891998052597E-001;-3.974400833249092E-002;-6.657012854702771E-004;-2.928241388872266E-003;
2.412333333333334E+009;1.691960245370865E-001;-4.055386409163475E-002;-8.331734570674598E-004;-2.916981698945165E-003;
2.412500000000000E+009;1.686682254076004E-001;-4.131621867418289E-002;-8.873349870555103E-004;-2.910021226853132E-003;
2.412666666666667E+009;1.684545427560806E-001;-4.227657243609428E-002;-1.022966927848756E-003;-3.144209273159504E-003;
2.412833333333334E+009;1.679658889770508E-001;-4.300997406244278E-002;-1.148541108705103E-003;-3.203912405297160E-003;
2.413000000000000E+009;1.675655245780945E-001;-4.402229934930801E-002;-1.303866505622864E-003;-3.210243768990040E-003;
2.413166666666667E+009;1.669185608625412E-001;-4.488800093531609E-002;-1.534412615001202E-003;-3.280421020463109E-003;
2.413333333333334E+009;1.663243174552918E-001;-4.567555710673332E-002;-1.845350372605026E-003;-3.291579661890864E-003;
2.413500000000000E+009;1.660002917051315E-001;-4.669642820954323E-002;-1.938493456691504E-003;-3.336592111736536E-003;
2.413666666666667E+009;1.654757410287857E-001;-4.766179993748665E-002;-2.242500660941005E-003;-3.301661927253008E-003;
2.413833333333334E+009;1.646429896354675E-001;-4.854097217321396E-002;-2.511461731046438E-003;-3.324918216094375E-003;
2.414000000000000E+009;1.640646606683731E-001;-4.943623021245003E-002;-2.798942849040031E-003;-3.099865512922406E-003;
2.414166666666667E+009;1.636610478162766E-001;-5.017066746950150E-002;-3.043108619749546E-003;-3.185126930475235E-003;
2.414333333333334E+009;1.629857122898102E-001;-5.115355551242828E-002;-3.323168493807316E-003;-2.982583595439792E-003;
2.414500000000000E+009;1.626331955194473E-001;-5.206349492073059E-002;-3.447745461016893E-003;-2.684554317966104E-003;
2.414666666666667E+009;1.621593534946442E-001;-5.300233513116837E-002;-3.572313580662012E-003;-2.384551335126162E-003;
2.414833333333334E+009;1.616824865341187E-001;-5.409894511103630E-002;-3.760015126317740E-003;-2.260080538690090E-003;
2.415000000000000E+009;1.612927615642548E-001;-5.499927699565888E-002;-3.965907264500856E-003;-1.992169534787536E-003;
2.415166666666667E+009;1.608347743749619E-001;-5.615250021219254E-002;-3.938004840165377E-003;-1.821050303988159E-003;
2.415333333333334E+009;1.605945080518723E-001;-5.733156949281693E-002;-4.055049736052752E-003;-1.427521696314216E-003;
2.415500000000000E+009;1.601591408252716E-001;-5.839994922280312E-002;-4.129495471715927E-003;-1.136674662120640E-003;
2.415666666666667E+009;1.598411649465561E-001;-5.964769795536995E-002;-4.203537013381720E-003;-8.347684633918107E-004;
2.415833333333334E+009;1.595321744680405E-001;-6.091918423771858E-002;-3.858658019453287E-003;-6.989712710492313E-004;
2.416000000000000E+009;1.590597182512283E-001;-6.214627251029015E-002;-4.088811576366425E-003;-4.594462516251952E-004;
2.416166666666667E+009;1.589901894330978E-001;-6.352824717760086E-002;-3.931655082851648E-003;-4.048312839586288E-004;
2.416333333333334E+009;1.585700064897537E-001;-6.473745405673981E-002;-3.866354236379266E-003;-2.056323573924601E-004;
2.416500000000000E+009;1.582634896039963E-001;-6.610849499702454E-002;-3.792600939050317E-003;4.718486161436886E-005;
2.416666666666667E+009;1.578515022993088E-001;-6.736447662115097E-002;-3.813380142673850E-003;9.650796528148931E-006;
2.416833333333334E+009;1.574900895357132E-001;-6.886798888444901E-002;-3.820762038230896E-003;4.506279074121267E-004;
2.417000000000000E+009;1.570248007774353E-001;-7.004671543836594E-002;-3.738578408956528E-003;4.977070493623614E-004;
2.417166666666667E+009;1.566876173019409E-001;-7.109410315752029E-002;-3.676857333630323E-003;6.263687973842025E-004;
2.417333333333334E+009;1.564281433820725E-001;-7.225867360830307E-002;-3.509867936372757E-003;8.430365705862641E-004;
2.417500000000000E+009;1.560511738061905E-001;-7.352640479803085E-002;-3.419853979721665E-003;1.042020274326205E-003;
2.417666666666667E+009;1.558799594640732E-001;-7.453096657991409E-002;-3.295453730970621E-003;1.108105992898345E-003;
2.417833333333334E+009;1.555350571870804E-001;-7.554963976144791E-002;-3.120018867775798E-003;1.326741301454604E-003;
2.418000000000000E+009;1.553263217210770E-001;-7.669826596975327E-002;-3.024617675691843E-003;1.521044061519206E-003;
2.418166666666667E+009;1.551163643598557E-001;-7.741659134626389E-002;-2.685165265575051E-003;1.553783193230629E-003;
2.418333333333334E+009;1.550545543432236E-001;-7.861397415399551E-002;-2.542020520195365E-003;1.506848610006273E-003;
2.418500000000000E+009;1.547966301441193E-001;-7.961050420999527E-002;-2.320933388546109E-003;1.574471010826528E-003;
2.418666666666667E+009;1.546748727560043E-001;-8.048044890165329E-002;-2.035936340689659E-003;1.611853600479662E-003;
2.418833333333334E+009;1.543244719505310E-001;-8.143842220306397E-002;-2.059001941233873E-003;1.536924857646227E-003;
2.419000000000000E+009;1.540374308824539E-001;-8.215979486703873E-002;-1.913480460643768E-003;1.415501581504941E-003;
2.419166666666667E+009;1.539458781480789E-001;-8.297647535800934E-002;-1.871655229479075E-003;1.302031218074262E-003;
2.419333333333334E+009;1.536907851696014E-001;-8.363241702318192E-002;-1.770210219547153E-003;1.124110305681825E-003;
2.419500000000000E+009;1.535554528236389E-001;-8.450231701135635E-002;-1.646068529225886E-003;1.155777368694544E-003;
2.419666666666667E+009;1.534606665372849E-001;-8.529078960418701E-002;-1.823715399950743E-003;9.695467306300998E-004;
2.419833333333334E+009;1.531023979187012E-001;-8.583915978670120E-002;-1.939362380653620E-003;9.387534228153527E-004;
2.420000000000000E+009;1.528612077236176E-001;-8.636390417814255E-002;-1.805485808290541E-003;9.906203486025333E-004;
2.420166666666667E+009;1.527680307626724E-001;-8.694281429052353E-002;-1.851569395512343E-003;9.972861735150218E-004;
2.420333333333334E+009;1.526673436164856E-001;-8.759697526693344E-002;-1.972560072317720E-003;1.063060131855309E-003;
2.420500000000000E+009;1.524611115455627E-001;-8.809982985258102E-002;-2.014308003708720E-003;1.095298794098198E-003;
2.420666666666667E+009;1.521652787923813E-001;-8.864302933216095E-002;-2.017754595726728E-003;1.226599910296500E-003;
2.420833333333334E+009;1.519367992877960E-001;-8.927761018276215E-002;-2.051850082352758E-003;1.136261387728155E-003;
2.421000000000000E+009;1.514948457479477E-001;-8.982989937067032E-002;-1.992353238165379E-003;1.258356496691704E-003;
2.421166666666667E+009;1.512888818979263E-001;-9.049823135137558E-002;-1.976106083020568E-003;1.268798718228936E-003;
2.421333333333334E+009;1.510671824216843E-001;-9.107850492000580E-002;-2.051071962341666E-003;1.226544030942023E-003;
2.421500000000000E+009;1.504546105861664E-001;-9.152626991271973E-002;-2.059526741504669E-003;1.386256190016866E-003;
2.421666666666667E+009;1.501106172800064E-001;-9.221199154853821E-002;-2.056031255051494E-003;1.407393720000982E-003;
2.421833333333334E+009;1.496147960424423E-001;-9.272312372922897E-002;-1.962054753676057E-003;1.471425406634808E-003;
2.422000000000000E+009;1.489097625017166E-001;-9.343014657497406E-002;-1.874723820947111E-003;1.638882327824831E-003;
2.422166666666667E+009;1.485651135444641E-001;-9.409531205892563E-002;-1.887131598778069E-003;1.551323919557035E-003;
2.422333333333334E+009;1.481427997350693E-001;-9.456538408994675E-002;-1.939706853590906E-003;1.557262381538749E-003;
2.422500000000000E+009;1.473586857318878E-001;-9.494757652282715E-002;-2.028732327744365E-003;1.656456384807825E-003;
2.422666666666667E+009;1.466409265995026E-001;-9.579859673976898E-002;-2.009818097576499E-003;1.804085681214929E-003;
2.422833333333334E+009;1.461106538772583E-001;-9.647203981876373E-002;-1.884923549368978E-003;1.866633538156748E-003;
2.423000000000000E+009;1.455890834331513E-001;-9.720209985971451E-002;-2.059391699731350E-003;1.896299771033227E-003;
2.423166666666667E+009;1.449079364538193E-001;-9.782749414443970E-002;-1.984462607651949E-003;1.966114388778806E-003;
2.423333333333334E+009;1.443035304546356E-001;-9.841912984848023E-002;-1.999725122004747E-003;2.207763958722353E-003;
2.423500000000000E+009;1.434122174978256E-001;-9.923129528760910E-002;-1.939721754752100E-003;2.262323629111052E-003;
2.423666666666667E+009;1.425170004367828E-001;-1.002288460731506E-001;-1.919200061820447E-003;2.411943860352039E-003;
2.423833333333334E+009;1.420500576496124E-001;-1.010673493146896E-001;-1.848362735472620E-003;2.430044347420335E-003;
2.424000000000000E+009;1.410913318395615E-001;-1.017784103751183E-001;-1.685726339928806E-003;2.444891957566142E-003;
2.424166666666667E+009;1.402486562728882E-001;-1.026806309819222E-001;-1.672567101195455E-003;2.568086609244347E-003;
2.424333333333334E+009;1.395158916711807E-001;-1.034687459468842E-001;-1.591077772900462E-003;2.723749494180083E-003;
2.424500000000000E+009;1.389416307210922E-001;-1.043236032128334E-001;-1.439539366401732E-003;2.764403587207198E-003;
2.424666666666667E+009;1.381683945655823E-001;-1.050318479537964E-001;-1.385928364470601E-003;2.783204428851605E-003;
2.424833333333334E+009;1.374090909957886E-001;-1.059894338250160E-001;-1.262136851437390E-003;2.842963673174381E-003;
2.425000000000000E+009;1.366941183805466E-001;-1.071185618638992E-001;-1.168716000393033E-003;2.818390028551221E-003;
2.425166666666667E+009;1.358143836259842E-001;-1.080154180526733E-001;-1.164989895187318E-003;3.060770686715841E-003;
2.425333333333334E+009;1.351815760135651E-001;-1.089401692152023E-001;-8.821137598715723E-004;2.925349632278085E-003;
2.425500000000000E+009;1.345908194780350E-001;-1.100118979811668E-001;-1.031306223012507E-003;3.126895520836115E-003;
2.425666666666667E+009;1.338560283184052E-001;-1.108949482440949E-001;-9.291139431297779E-004;3.032988170161843E-003;
2.425833333333334E+009;1.331972926855087E-001;-1.119553148746491E-001;-9.323446429334581E-004;3.093944396823645E-003;
2.426000000000000E+009;1.324878036975861E-001;-1.130703166127205E-001;-9.689634316600859E-004;3.063283627852798E-003;
2.426166666666667E+009;1.321774721145630E-001;-1.139250695705414E-001;-7.680761627852917E-004;3.410458331927657E-003;
2.426333333333334E+009;1.313528716564179E-001;-1.149367615580559E-001;-6.149652181193233E-004;3.469410818070173E-003;
2.426500000000000E+009;1.308794468641281E-001;-1.159451380372047E-001;-5.733627476729453E-004;3.600301221013069E-003;
2.426666666666667E+009;1.306744515895844E-001;-1.167636811733246E-001;-4.049881245009601E-004;3.821020480245352E-003;
2.426833333333334E+009;1.299403756856918E-001;-1.178554743528366E-001;-3.034961991943419E-004;3.797221928834915E-003;
2.427000000000000E+009;1.295162886381149E-001;-1.187812983989716E-001;6.186085374793038E-005;3.875096095725894E-003;
2.427166666666667E+009;1.290773004293442E-001;-1.195982471108437E-001;3.253961913287640E-004;3.928344696760178E-003;
2.427333333333334E+009;1.286433339118958E-001;-1.204471886157990E-001;6.131780100986362E-004;3.922327421605587E-003;
2.427500000000000E+009;1.283791512250900E-001;-1.213494986295700E-001;6.757795927114785E-004;3.937869332730770E-003;
2.427666666666667E+009;1.281822174787521E-001;-1.221884712576866E-001;9.889039210975170E-004;3.851783694699407E-003;
