# Version 1.00
#
freq[Hz];re:Trc1_S11;im:Trc1_S11;re:Trc2_S21;im:Trc2_S21;
2.400000000000000E+009;1.551724523305893E-001;1.065636873245239E-001;9.837785037234426E-004;1.887005986645818E-003;
2.400166666666667E+009;1.549728363752365E-001;1.041025072336197E-001;1.147056347690523E-003;1.848926418460906E-003;
2.400333333333334E+009;1.550344377756119E-001;1.017276495695114E-001;1.317918533459306E-003;1.849198248237371E-003;
2.400500000000000E+009;1.549977064132690E-001;9.905467927455902E-002;1.199485152028501E-003;2.163626486435533E-003;
2.400666666666667E+009;1.550510376691818E-001;9.667822718620300E-002;1.292178756557405E-003;2.127354033291340E-003;
2.400833333333334E+009;1.551794707775116E-001;9.381564706563950E-002;1.408474752679467E-003;2.126407809555531E-003;
2.401000000000000E+009;1.552872508764267E-001;9.085144102573395E-002;1.498664845712483E-003;2.113599097356200E-003;
2.401166666666667E+009;1.554336100816727E-001;8.826909214258194E-002;1.586096244864166E-003;2.104930346831679E-003;
2.401333333333334E+009;1.557952910661697E-001;8.545773476362228E-002;1.659914967603982E-003;2.041145227849484E-003;
2.401500000000000E+009;1.565304100513458E-001;8.255742490291596E-002;1.788280904293060E-003;2.085378393530846E-003;
2.401666666666667E+009;1.567197144031525E-001;7.984871417284012E-002;2.057746052742004E-003;1.944195711985230E-003;
2.401833333333334E+009;1.574393063783646E-001;7.708551734685898E-002;1.979122404009104E-003;1.976669766008854E-003;
2.402000000000000E+009;1.580622047185898E-001;7.430388778448105E-002;2.183710224926472E-003;1.761566032655537E-003;
2.402166666666667E+009;1.589002609252930E-001;7.176614552736282E-002;2.145830309018493E-003;1.703499234281480E-003;
2.402333333333334E+009;1.598449200391769E-001;6.915548443794251E-002;2.211967715993524E-003;1.582683180458844E-003;
2.402500000000000E+009;1.611560732126236E-001;6.661435216665268E-002;2.363756764680147E-003;1.682099304161966E-003;
2.402666666666667E+009;1.621924787759781E-001;6.443892419338226E-002;2.330618910491467E-003;1.528184046037495E-003;
2.402833333333334E+009;1.636685281991959E-001;6.207321211695671E-002;2.244045259431005E-003;1.409416203387082E-003;
2.403000000000000E+009;1.651342362165451E-001;5.952408164739609E-002;2.377854194492102E-003;1.385957701131702E-003;
2.403166666666667E+009;1.667603552341461E-001;5.744030326604843E-002;2.332258038222790E-003;1.396041247062385E-003;
2.403333333333334E+009;1.682976633310318E-001;5.516038462519646E-002;2.266228897497058E-003;1.340114977210760E-003;
2.403500000000000E+009;1.699128448963165E-001;5.334985628724098E-002;2.326608402654529E-003;1.332866726443172E-003;
2.403666666666667E+009;1.718102395534515E-001;5.125790461897850E-002;2.211248967796564E-003;1.409343793056905E-003;
2.403833333333334E+009;1.733999103307724E-001;4.957473650574684E-002;2.448807470500469E-003;1.531005604192615E-003;
2.404000000000000E+009;1.749166250228882E-001;4.780795797705650E-002;2.468662336468697E-003;1.453171833418310E-003;
2.404166666666667E+009;1.766598671674728E-001;4.618831723928452E-002;2.697512973099947E-003;1.704528578557074E-003;
2.404333333333334E+009;1.782410889863968E-001;4.476268216967583E-002;2.794614760205150E-003;1.509782159700990E-003;
2.404500000000000E+009;1.797896772623062E-001;4.325649142265320E-002;2.924065338447690E-003;1.418037689290941E-003;
2.404666666666667E+009;1.814874857664108E-001;4.222835227847099E-002;3.080437425523996E-003;1.254663919098675E-003;
2.404833333333334E+009;1.830671727657318E-001;4.118830338120461E-002;3.359144087880850E-003;1.247748732566834E-003;
2.405000000000000E+009;1.842812150716782E-001;4.050503671169281E-002;3.454171819612384E-003;1.398743363097310E-003;
2.405166666666667E+009;1.858175843954086E-001;3.991029039025307E-002;3.792482428252697E-003;1.053517451509833E-003;
2.405333333333334E+009;1.871996223926544E-001;3.931738808751106E-002;3.712734906002879E-003;7.706780452281237E-004;
2.405500000000000E+009;1.885601133108139E-001;3.889578208327293E-002;3.871517954394221E-003;4.421770863700658E-004;
2.405666666666667E+009;1.897952407598496E-001;3.843110799789429E-002;3.731636796146631E-003;3.805503947660327E-004;
2.405833333333334E+009;1.908852159976959E-001;3.834621608257294E-002;3.847295185551047E-003;2.286449307575822E-004;
2.406000000000000E+009;1.918345987796783E-001;3.803031891584396E-002;4.018656443804503E-003;9.354032954433933E-005;
2.406166666666667E+009;1.928753852844238E-001;3.778063878417015E-002;4.078633151948452E-003;-9.193921141559258E-005;
2.406333333333334E+009;1.937214136123657E-001;3.785952553153038E-002;4.030527547001839E-003;-2.688654640223831E-004;
2.406500000000000E+009;1.944789737462997E-001;3.785375878214836E-002;3.906696103513241E-003;-3.913257096428424E-004;
2.406666666666667E+009;1.950973570346832E-001;3.784064948558807E-002;3.874267917126417E-003;-5.631918320432305E-004;
2.406833333333334E+009;1.955608129501343E-001;3.785188868641853E-002;3.895018715411425E-003;-8.128502522595227E-004;
2.407000000000000E+009;1.958095729351044E-001;3.795849159359932E-002;3.887535771355033E-003;-8.250512764789164E-004;
2.407166666666667E+009;1.961908191442490E-001;3.792420029640198E-002;3.940075170248747E-003;-9.232320589944720E-004;
2.407333333333334E+009;1.960379034280777E-001;3.787830471992493E-002;3.966961521655321E-003;-1.026071258820593E-003;
2.407500000000000E+009;1.960065662860870E-001;3.793884068727493E-002;3.988470416516066E-003;-1.304072560742497E-003;
2.407666666666667E+009;1.959489732980728E-001;3.778190538287163E-002;3.988010343164206E-003;-1.320250914432108E-003;
2.407833333333334E+009;1.954485476016998E-001;3.772665187716484E-002;4.031662829220295E-003;-1.597487251274288E-003;
2.408000000000000E+009;1.953964680433273E-001;3.754288330674171E-002;4.180305171757937E-003;-1.723040477372706E-003;
2.408166666666667E+009;1.947728097438812E-001;3.711844235658646E-002;4.040091764181852E-003;-2.062532119452953E-003;
2.408333333333334E+009;1.942810714244843E-001;3.653525188565254E-002;4.044589586555958E-003;-2.212635474279523E-003;
2.408500000000000E+009;1.936766356229782E-001;3.625286370515823E-002;3.858061507344246E-003;-2.472307067364454E-003;
2.408666666666667E+009;1.929994076490402E-001;3.579453751444817E-002;3.814877942204475E-003;-2.764573786407709E-003;
2.408833333333334E+009;1.923455744981766E-001;3.487652912735939E-002;3.696011612191796E-003;-2.996105002239347E-003;
2.409000000000000E+009;1.913519352674484E-001;3.394715487957001E-002;3.599599236622453E-003;-3.149696392938495E-003;
2.409166666666667E+009;1.904210597276688E-001;3.292699158191681E-002;3.212179290130734E-003;-3.534103743731976E-003;
2.409333333333334E+009;1.895488500595093E-001;3.198116645216942E-002;3.235278651118279E-003;-3.559799632057548E-003;
2.409500000000000E+009;1.884858161211014E-001;3.067154623568058E-002;3.057804657146335E-003;-3.786825109273195E-003;
2.409666666666667E+009;1.874024122953415E-001;2.921213395893574E-002;2.703743288293481E-003;-4.030860494822264E-003;
2.409833333333334E+009;1.865025311708450E-001;2.757181972265244E-002;2.548907184973359E-003;-4.134823102504015E-003;
2.410000000000000E+009;1.855487525463104E-001;2.613711170852184E-002;2.272299723699689E-003;-4.052745644003153E-003;
2.410166666666667E+009;1.845888048410416E-001;2.407865040004253E-002;2.112756948918104E-003;-4.243225790560246E-003;
2.410333333333334E+009;1.834066063165665E-001;2.242886833846569E-002;1.872813911177218E-003;-4.276593215763569E-003;
2.410500000000000E+009;1.826400607824326E-001;2.043088711798191E-002;1.660076435655356E-003;-4.237356130033732E-003;
2.410666666666667E+009;1.816620677709580E-001;1.817154698073864E-002;1.485994551330805E-003;-4.219751339405775E-003;
2.410833333333334E+009;1.811244487762451E-001;1.605556719005108E-002;1.345276716165245E-003;-4.220496863126755E-003;
2.411000000000000E+009;1.804330050945282E-001;1.380338519811630E-002;1.002105767838657E-003;-4.333153832703829E-003;
2.411166666666667E+009;1.797945499420166E-001;1.168074458837509E-002;7.569857407361269E-004;-4.398635588586330E-003;
2.411333333333334E+009;1.792247295379639E-001;9.135941043496132E-003;7.569947629235685E-004;-4.336652811616659E-003;
2.411500000000000E+009;1.787486821413040E-001;6.708486936986446E-003;6.055958801880479E-004;-4.271782003343105E-003;
2.411666666666667E+009;1.785779297351837E-001;4.379554186016321E-003;4.227314784657210E-004;-4.323580302298069E-003;
2.411833333333334E+009;1.782609373331070E-001;1.989090116694570E-003;2.276374143548310E-004;-4.260804969817400E-003;
2.412000000000000E+009;1.784453392028809E-001;-6.323251873254776E-004;-2.679907083802391E-005;-4.364686086773872E-003;
2.412166666666667E+009;1.784730404615402E-001;-2.790956292301416E-003;-2.432401524856687E-004;-4.365868400782347E-003;
2.412333333333334E+009;1.786514222621918E-001;-5.369967315346003E-003;-5.492116906680167E-004;-4.345632158219814E-003;
2.412500000000000E+009;1.793449968099594E-001;-7.972897030413151E-003;-7.222451386041939E-004;-4.368127789348364E-003;
2.412666666666667E+009;1.798329502344132E-001;-1.016163732856512E-002;-9.825134184211493E-004;-4.145991988480091E-003;
2.412833333333334E+009;1.804205328226090E-001;-1.262484211474657E-002;-1.098276232369244E-003;-4.109301138669252E-003;
2.413000000000000E+009;1.811799705028534E-001;-1.484039984643459E-002;-1.511330599896610E-003;-4.028411116451025E-003;
2.413166666666667E+009;1.818816959857941E-001;-1.708263531327248E-002;-1.771922456100583E-003;-4.005822818726301E-003;
2.413333333333334E+009;1.828887313604355E-001;-1.934230327606201E-002;-2.156271599233151E-003;-3.775110468268395E-003;
2.413500000000000E+009;1.837321072816849E-001;-2.163403853774071E-002;-2.341992920264602E-003;-3.590489039197564E-003;
2.413666666666667E+009;1.849453002214432E-001;-2.365129254758358E-002;-2.534436527639628E-003;-3.333076369017363E-003;
2.413833333333334E+009;1.859891265630722E-001;-2.565712668001652E-002;-2.695295494049788E-003;-2.899258397519589E-003;
2.414000000000000E+009;1.871458142995834E-001;-2.755873836576939E-002;-2.950272988528013E-003;-2.806230215355754E-003;
2.414166666666667E+009;1.883195936679840E-001;-2.931753732264042E-002;-2.826365642249584E-003;-2.381769241765142E-003;
2.414333333333334E+009;1.894970983266830E-001;-3.130905702710152E-002;-2.850701566785574E-003;-2.156245289370418E-003;
2.414500000000000E+009;1.905744969844818E-001;-3.260319679975510E-002;-3.050345927476883E-003;-1.686363597400487E-003;
2.414666666666667E+009;1.917221546173096E-001;-3.406107053160667E-002;-2.792977727949619E-003;-1.495182514190674E-003;
2.414833333333334E+009;1.928162127733231E-001;-3.539032489061356E-002;-2.853588899597526E-003;-1.207440043799579E-003;
2.415000000000000E+009;1.938978135585785E-001;-3.671001270413399E-002;-2.686608349904418E-003;-1.041694777086377E-003;
2.415166666666667E+009;1.950601190328598E-001;-3.765038028359413E-002;-2.542384201660752E-003;-8.752013673074544E-004;
2.415333333333334E+009;1.962206661701202E-001;-3.852120414376259E-002;-2.425731159746647E-003;-7.579367957077920E-004;
2.415500000000000E+009;1.972961425781250E-001;-3.919302299618721E-002;-2.377988072112203E-003;-4.881982749793679E-004;
2.415666666666667E+009;1.983239203691483E-001;-4.007820785045624E-002;-2.231967635452747E-003;-4.068136331625283E-004;
2.415833333333334E+009;1.992128640413284E-001;-4.068075492978096E-002;-2.036306541413069E-003;-1.450161798857153E-004;
2.416000000000000E+009;1.998366564512253E-001;-4.120295122265816E-002;-1.845111139118671E-003;-8.718067692825571E-005;
2.416166666666667E+009;2.004863917827606E-001;-4.181477800011635E-002;-1.865116297267377E-003;5.478462844621390E-005;
2.416333333333334E+009;2.012391090393066E-001;-4.203851893544197E-002;-1.384244998916984E-003;1.397055311826989E-004;
2.416500000000000E+009;2.015750557184219E-001;-4.232782870531082E-002;-1.473149401135743E-003;1.979579246835783E-004;
2.416666666666667E+009;2.018866240978241E-001;-4.255199804902077E-002;-1.177478814497590E-003;1.514632022008300E-004;
2.416833333333334E+009;2.020394355058670E-001;-4.263858869671822E-002;-1.157186459749937E-003;2.300286141689867E-004;
2.417000000000000E+009;2.020411044359207E-001;-4.273721203207970E-002;-8.648943621665239E-004;3.582677745725960E-004;
2.417166666666667E+009;2.017921805381775E-001;-4.272902756929398E-002;-6.637697806581855E-004;2.007188886636868E-004;
2.417333333333334E+009;2.016060948371887E-001;-4.249785467982292E-002;-5.705489893443883E-004;1.606424339115620E-004;
2.417500000000000E+009;2.013353705406189E-001;-4.247428476810455E-002;-3.795715165324509E-004;-5.607281491393223E-005;
2.417666666666667E+009;2.007460445165634E-001;-4.235475882887840E-002;-1.566573628224433E-004;-4.771518433699384E-005;
2.417833333333334E+009;2.003365606069565E-001;-4.209944605827332E-002;-6.898323044879362E-005;-4.073043237440288E-004;
2.418000000000000E+009;1.995926499366760E-001;-4.187777265906334E-002;1.011421118164435E-004;-3.815550007857382E-004;
2.418166666666667E+009;1.988409161567688E-001;-4.189401492476463E-002;7.749866199446842E-005;-6.603609072044492E-004;
2.418333333333334E+009;1.979541033506393E-001;-4.163189604878426E-002;1.727179478621110E-004;-7.453681901097298E-004;
2.418500000000000E+009;1.968779861927033E-001;-4.177474230527878E-002;1.741356973070651E-004;-9.681759402155876E-004;
2.418666666666667E+009;1.959742158651352E-001;-4.164689779281616E-002;9.684372344054282E-005;-1.060971873812378E-003;
2.418833333333334E+009;1.947236061096191E-001;-4.193876683712006E-002;1.076017433661036E-004;-1.245869090780616E-003;
2.419000000000000E+009;1.934614926576614E-001;-4.216317087411881E-002;1.093993414542638E-004;-1.415199600160122E-003;
2.419166666666667E+009;1.922403573989868E-001;-4.239900037646294E-002;-3.504396954667755E-005;-1.602421747520566E-003;
2.419333333333334E+009;1.907574534416199E-001;-4.289277270436287E-002;-9.001146099762991E-005;-1.710771233774722E-003;
2.419500000000000E+009;1.894594132900238E-001;-4.341917484998703E-002;-1.226353779202327E-004;-2.010311698541045E-003;
2.419666666666667E+009;1.877260804176331E-001;-4.415935277938843E-002;-3.131356206722558E-004;-2.066300716251135E-003;
2.419833333333334E+009;1.863155663013458E-001;-4.481674730777741E-002;-3.876527189277113E-004;-2.154415473341942E-003;
2.420000000000000E+009;1.846767663955689E-001;-4.584300518035889E-002;-5.615145200863481E-004;-2.259901957586408E-003;
2.420166666666667E+009;1.831860393285751E-001;-4.661387577652931E-002;-7.993383915163577E-004;-2.267448464408517E-003;
2.420333333333334E+009;1.814715862274170E-001;-4.786560684442520E-002;-9.604532388038933E-004;-2.334113465622068E-003;
2.420500000000000E+009;1.798950880765915E-001;-4.925271123647690E-002;-1.100402092561126E-003;-2.291123149916530E-003;
2.420666666666667E+009;1.783809065818787E-001;-5.036414787173271E-002;-1.144131412729621E-003;-2.444788115099073E-003;
2.420833333333334E+009;1.767006516456604E-001;-5.205053091049194E-002;-1.507682842202485E-003;-2.445022342726588E-003;
2.421000000000000E+009;1.754095703363419E-001;-5.338425561785698E-002;-1.706162001937628E-003;-2.244170289486647E-003;
2.421166666666667E+009;1.739870011806488E-001;-5.515686422586441E-002;-1.885885838419199E-003;-2.313903300091624E-003;
2.421333333333334E+009;1.722696572542191E-001;-5.668917670845985E-002;-2.122476696968079E-003;-2.196732209995389E-003;
2.421500000000000E+009;1.710063368082047E-001;-5.856308713555336E-002;-2.199509646743536E-003;-2.218056470155716E-003;
2.421666666666667E+009;1.699389517307282E-001;-6.033633649349213E-002;-2.415679628029466E-003;-2.208192134276032E-003;
2.421833333333334E+009;1.687773466110230E-001;-6.225898861885071E-002;-2.540824003517628E-003;-2.054089447483420E-003;
2.422000000000000E+009;1.677466332912445E-001;-6.402558833360672E-002;-2.558357547968626E-003;-1.922178664244711E-003;
2.422166666666667E+009;1.669168025255203E-001;-6.607838720083237E-002;-2.823572605848312E-003;-1.823858940042555E-003;
2.422333333333334E+009;1.660610735416412E-001;-6.824512779712677E-002;-2.615179866552353E-003;-1.614067237824202E-003;
2.422500000000000E+009;1.652249097824097E-001;-7.002466171979904E-002;-2.903919434174895E-003;-1.572774024680257E-003;
2.422666666666667E+009;1.646816879510880E-001;-7.221037149429321E-002;-3.043814096599817E-003;-1.450987649150193E-003;
2.422833333333334E+009;1.639747023582459E-001;-7.411876320838928E-002;-3.047573147341609E-003;-1.306884805671871E-003;
2.423000000000000E+009;1.635957509279251E-001;-7.613013684749603E-002;-3.225076477974653E-003;-1.278335228562355E-003;
2.423166666666667E+009;1.631013303995132E-001;-7.804007828235626E-002;-3.301683813333511E-003;-9.922811295837164E-004;
2.423333333333334E+009;1.630869805812836E-001;-7.992683351039887E-002;-3.413388738408685E-003;-9.558917372487485E-004;
2.423500000000000E+009;1.628974974155426E-001;-8.179995417594910E-002;-3.550672437995672E-003;-7.009778055362403E-004;
2.423666666666667E+009;1.629613041877747E-001;-8.369695395231247E-002;-3.629519371315837E-003;-7.239174447022378E-004;
2.423833333333334E+009;1.627945750951767E-001;-8.534497767686844E-002;-3.760997904464603E-003;-5.123395822010934E-004;
2.424000000000000E+009;1.629451960325241E-001;-8.722206950187683E-002;-3.834606613963842E-003;-1.803125487640500E-004;
2.424166666666667E+009;1.630729436874390E-001;-8.867544680833817E-002;-3.961189184337854E-003;-5.399289875640534E-005;
2.424333333333334E+009;1.632618904113770E-001;-9.011372923851013E-002;-3.932375926524401E-003;2.423052355879918E-004;
2.424500000000000E+009;1.637486964464188E-001;-9.190098941326141E-002;-4.030727315694094E-003;4.713361267931759E-004;
2.424666666666667E+009;1.638019382953644E-001;-9.312807768583298E-002;-3.928619902580977E-003;7.258709520101547E-004;
2.424833333333334E+009;1.643376648426056E-001;-9.437958151102066E-002;-3.887402359396219E-003;1.072712359018624E-003;
2.425000000000000E+009;1.647264063358307E-001;-9.547260403633118E-002;-3.852689173072577E-003;1.226500724442303E-003;
2.425166666666667E+009;1.651739180088043E-001;-9.658810496330261E-002;-3.690948942676187E-003;1.587929087691009E-003;
2.425333333333334E+009;1.654612272977829E-001;-9.759522974491119E-002;-3.549911780282855E-003;1.911598374135792E-003;
2.425500000000000E+009;1.658633947372437E-001;-9.848760813474655E-002;-3.343144198879600E-003;2.011797158047557E-003;
2.425666666666667E+009;1.663260459899902E-001;-9.913419187068939E-002;-3.150263801217079E-003;2.322121988981962E-003;
2.425833333333334E+009;1.665506511926651E-001;-9.999701380729675E-002;-2.909745555371046E-003;2.327243797481060E-003;
2.426000000000000E+009;1.669220030307770E-001;-1.004649177193642E-001;-2.820952329784632E-003;2.239205176010728E-003;
2.426166666666667E+009;1.673506200313568E-001;-1.008204147219658E-001;-2.512579550966620E-003;2.405611332505941E-003;
2.426333333333334E+009;1.675157845020294E-001;-1.013589501380920E-001;-2.403541700914502E-003;2.451789798215032E-003;
2.426500000000000E+009;1.677607446908951E-001;-1.016277000308037E-001;-2.321233274415135E-003;2.584694884717464E-003;
2.426666666666667E+009;1.680926829576492E-001;-1.019726842641830E-001;-2.031892305240035E-003;2.548533026129007E-003;
2.426833333333334E+009;1.683225333690643E-001;-1.022498905658722E-001;-2.043494721874595E-003;2.632651245221496E-003;
2.427000000000000E+009;1.683443337678909E-001;-1.024198308587074E-001;-1.714395359158516E-003;2.537415362894535E-003;
2.427166666666667E+009;1.682732552289963E-001;-1.025615558028221E-001;-1.585456077009440E-003;2.555633895099163E-003;
2.427333333333334E+009;1.681688427925110E-001;-1.028153002262116E-001;-1.551307272166014E-003;2.567436778917909E-003;
2.427500000000000E+009;1.679454296827316E-001;-1.030955612659454E-001;-1.506490982137620E-003;2.678198739886284E-003;
2.427666666666667E+009;1.674948632717133E-001;-1.030297428369522E-001;-1.323102856986225E-003;2.638373523950577E-003;
